! Created with skrf 1.8.0 (http://scikit-rf.org).
# GHz S RI R 50.0 
!freq ReS11 ImS11 ReS12 ImS12 ReS13 ImS13
! ReS14 ImS14
! ReS21 ImS21 ReS22 ImS22 ReS23 ImS23
! ReS24 ImS24
! ReS31 ImS31 ReS32 ImS32 ReS33 ImS33
! ReS34 ImS34
! ReS41 ImS41 ReS42 ImS42 ReS43 ImS43
! ReS44 ImS44
!
0.0 0.001556949528656 0.0 0.9984430504676 0.0 6.031668502938e-05 0.0 -6.031668500725e-05 7.386663522930787e-21
 0.9984430504676 0.0 0.001556949528635 0.0 -6.031668500695e-05 7.386663522894047e-21 6.03166850292e-05 0.0
 6.031668502938e-05 0.0 -6.031668500695e-05 7.386663522894047e-21 0.001556949521449 0.0 0.9984430504604 0.0
 -6.031668500725e-05 7.386663522930787e-21 6.03166850292e-05 0.0 0.9984430504604 0.0 0.001556949521444 0.0
0.005 0.001675257795301449 0.0012691685978806753 0.9982933744629474 -0.003261641534909554 8.510711054293753e-05 0.0006914854655924625 -8.259262881485556e-05 -0.00042931000909712255
 0.9982933744629474 -0.003261641534909554 0.0016752311231788388 0.001269184237259097 -8.259014939336075e-05 -0.00042930821309522044 8.52826699726421e-05 0.0006914187315565407
 8.510711054293753e-05 0.0006914854655924625 -8.259014939336075e-05 -0.00042930821309522044 0.0016752588839061573 0.0012692353015467017 0.9982933748182888 -0.003261574461598228
 -8.259262881485556e-05 -0.00042931000909712255 8.52826699726421e-05 0.0006914187315565407 0.9982933748182888 -0.003261574461598228 0.0016752307391649213 0.0012692516738802267
0.006252605252188 0.0017063041925183908 0.0015914722283551866 0.9982538509986835 -0.004077849442348712 9.216939368042408e-05 0.0008646802903589648 -8.889212873502393e-05 -0.0005371978104211612
 0.9982538509986835 -0.004077849442348712 0.0017062624982623537 0.001591492078078958 -8.888826968036472e-05 -0.0005371955983109121 9.244369041647991e-05 0.000864593615528233
 9.216939368042408e-05 0.0008646802903589648 -8.888826968036472e-05 -0.0005371955983109121 0.0017063058297194689 0.0015915555909169058 0.9982538514903827 -0.004077765622757237
 -8.889212873502393e-05 -0.0005371978104211612 9.244369041647991e-05 0.000864593615528233 0.9982538514903827 -0.004077765622757237 0.0017062618344873134 0.00159157634070237
0.01250521050438 0.0018698417763956165 0.0032164262129223426 0.998044300560268 -0.008156510762983876 0.0001325648593844019 0.0017296520481300303 -0.00012468917556311652 -0.0010770154440381363
 0.998044300560268 -0.008156510762983876 0.0018696752764181344 0.0032164689219642663 -0.0001246739566819708 -0.0010770113820799513 0.0001336587386733776 0.001729443550899448
 0.0001325648593844019 0.0017296520481300303 -0.0001246739566819708 -0.0010770113820799513 0.0018698477270311692 0.0032165927347636964 0.9980443019490062 -0.00815634335369652
 -0.00012468917556311652 -0.0010770154440381363 0.0001336587386733776 0.001729443550899448 0.9980443019490062 -0.00815634335369652 0.0018696720579672818 0.0032166370894938776
0.01875781575657 0.002047922640165973 0.004864600579614477 0.9978141361772279 -0.012245911308352364 0.0001815986972100586 0.0025955250347241094 -0.00016781936364538712 -0.0016186360360715304
 0.9978141361772279 -0.012245911308352364 0.0020475484785187847 0.00486466933458893 -0.00016778541008148236 -0.001618630560889195 0.0001840560888008917 0.0025951526662906245
 0.0001815986972100586 0.0025955250347241094 -0.00016778541008148236 -0.001618630560889195 0.002047935567177192 0.004864850149043669 0.997814138879774 -0.012245660385855861
 -0.00016781936364538712 -0.0016186360360715304 0.0001840560888008917 0.0025951526662906245 0.997814138879774 -0.012245660385855861 0.002047540840034687 0.004864921163112127
0.02501042100875 0.0022408963589863632 0.00653367379952982 0.9975630844530552 -0.01634802758060492 0.0002393669765820841 0.003462342459332275 -0.00021839040385880165 -0.002161802971624062
 0.9975630844530552 -0.01634802758060492 0.002240231826758631 0.006533771933844858 -0.00021833042407427386 -0.0021617966013608237 0.00024373207870313272 0.0034617574990951144
 0.0002393669765820841 0.003462342459332275 -0.00021833042407427386 -0.0021617966013608237 0.0022409189020186422 0.0065340063018470215 0.997563088884065 -0.016347693164020394
 -0.00021839040385880165 -0.002161802971624062 0.00024373207870313272 0.0034617574990951144 0.997563088884065 -0.016347693164020394 0.0022402179094249118 0.006534107195443378
0.03126302626094 0.0024490980448398027 0.008222447966567223 0.9972908581774131 -0.020463701418577007 0.00030596593776229376 0.004330064542691331 -0.0002765068396661579 -0.0027063364811818194
 0.9972908581774131 -0.020463701418577007 0.0024480605328322243 0.008222578953928812 -0.0002764136113580835 -0.002706329816459207 0.00031278371788339196 0.0043292115574721495
 0.00030596593776229376 0.004330064542691331 -0.0002764136113580835 -0.002706329816459207 0.00244913282410723 0.008222863258447509 0.9972908647527954 -0.02046328349523723
 -0.0002765068396661579 -0.0027063364811818194 0.00031278371788339196 0.0043292115574721495 0.9972908647527954 -0.02046328349523723 0.002448038484423096 0.008222997410745577
0.037515631513130004 0.0026728555086545217 0.009930139567452454 0.9969971637346701 -0.02459334916551761 0.00038149117066256337 0.005198618763619534 -0.00034227083417943623 -0.0032520834153797577
 0.9969971637346701 -0.02459334916551761 0.0026713624745607093 0.009930307018377934 -0.0003421371971154005 -0.0032520771396634205 0.0003913075890647247 0.005197435539066079
 0.00038149117066256337 0.005198618763619534 -0.0003421371971154005 -0.0032520771396634205 0.0026729051259675213 0.00993063747281624 0.9969971728728481 -0.024592847694903826
 -0.00034227083417943623 -0.0032520834153797577 0.0003913075890647247 0.005197435539066079 0.9969971728728481 -0.024592847694903826 0.0026713304489151264 0.009930808418382233
0.043768236765320004 0.002912492023866978 0.011656163702090765 0.9966817041097297 -0.02873717737816798 0.0004660372221326712 0.006067915136433429 -0.0004157824499851063 -0.0037989019777393052
 0.9966817041097297 -0.02873717737816798 0.0029104609659236654 0.011656371361660353 -0.00041560130198886483 -0.0037988968575181402 0.00047939933651481746 0.006066332599688419
 0.0004660372221326712 0.006067915136433429 -0.00041560130198886483 -0.0037988968575181402 0.002912559064071757 0.011656743994883074 0.9966817162336039 -0.028736592308870733
 -0.0004157824499851063 -0.0037989019777393052 0.00047939933651481746 0.006066332599688419 0.9966817162336039 -0.028736592308870733 0.0029104171220335454 0.011656955421674199
0.050020842017509996 0.0031683276071028657 0.01340004485226367 0.9963441804134371 -0.032895271986345336 0.0005596973523425363 0.006937852538756332 -0.0004971397506972099 -0.004346655406215791
 0.9963441804134371 -0.032895271986345336 0.003165676040711885 0.013400296598773469 -0.0004969040450275845 -0.00434665229113444 0.0005771533596760094 0.006935794677660377
 0.0005596973523425363 0.006937852538756332 -0.0004969040450275845 -0.00434665229113444 0.003168414636940311 0.013400707274268677 0.996344195949927 -0.032894603237984724
 -0.0004971397506972099 -0.004346655406215791 0.0005771533596760094 0.006935794677660377 0.996344195949927 -0.032894603237984724 0.0031656185409938125 0.013400963022291216
0.055454545454549996 0.003404058684469564 0.01492971299240683 0.99603271049505 -0.03652037667649086 0.0006485639249617891 0.007694290472828335 -0.0005742880385890332 -0.004823324251092549
 0.99603271049505 -0.03652037667649086 0.0034008008867463355 0.014930006304401621 -0.0005739992396847678 -0.00482332363319312 0.0006700237402456397 0.00769175235792075
 0.0006485639249617891 0.007694290472828335 -0.0005739992396847678 -0.00482332363319312 0.0034041651567169873 0.014930446542453246 0.9960327293480832 -0.03651963513050325
 -0.0005742880385890332 -0.004823324251092549 0.0006700237402456397 0.00769175235792075 0.9960327293480832 -0.03651963513050325 0.003400730029436418 0.014930744043393389
0.056273447269699996 0.003440679672048741 0.015161373130294236 0.9959842927835479 -0.03706764197398359 0.0006625633604693883 0.0078083217966338336 -0.0005864388190824519 -0.0048952088998055485
 0.9959842927835479 -0.03706764197398359 0.0034373251079004453 0.015161672974585575 -0.0005861415628590338 -0.004895208722737266 0.0006846626006773404 0.007805705577350656
 0.0006625633604693883 0.0078083217966338336 -0.0005861415628590338 -0.004895208722737266 0.0034407892408897865 0.015162117378539076 0.9959843121650731 -0.03706688944945756
 -0.0005864388190824519 -0.0048952088998055485 0.0006846626006773404 0.007805705577350656 0.9959843121650731 -0.03706688944945756 0.0034372521175829603 0.015162421439589705
0.06252605252188 0.003729863379165035 0.016939780200261653 0.9956017409853725 -0.041254243390849724 0.0007747254394163456 0.008679207400590335 -0.0006837737379538066 -0.005444427917669268
 0.9956017409853725 -0.041254243390849724 0.003725723302539478 0.016940132285699072 -0.0006834079911535976 -0.0054444316947864085 0.0008020183738694074 0.00867594268470134
 0.0007747254394163456 0.008679207400590335 -0.0006834079911535976 -0.0054444316947864085 0.003729998017142692 0.016940605930657427 0.9956017646488369 -0.04125340697248932
 -0.0006837737379538066 -0.005444427917669268 0.0008020183738694074 0.00867594268470134 0.9956017646488369 -0.04125340697248932 0.0037256329867269788 0.0169409624485063
0.06877865777407 0.004036191812578748 0.018734924935860008 0.9951962248430788 -0.045454993631688936 0.0008962720515713151 0.009550388523279212 -0.0007892365446025191 -0.005994177180923226
 0.9951962248430788 -0.045454993631688936 0.004031183662857942 0.01873533353897777 -0.0007887954194760098 -0.005994186011738498 0.0009293102236695379 0.009546377984828044
 0.0008962720515713151 0.009550388523279212 -0.0007887954194760098 -0.005994186011738498 0.004036354032736522 0.018735831759057513 0.9951962532328861 -0.04545407318507683
 -0.0007892365446025191 -0.005994177180923226 0.0009293102236695379 0.009546377984828044 0.9951962532328861 -0.04545407318507683 0.004031074187733426 0.018736245030485984
0.07503126302626001 0.004359976063721915 0.020546484322353974 0.9947674445820346 -0.04966978047605111 0.0010272898131897792 0.010421739673007751 -0.000902917172583784 -0.006544320043116271
 0.9947674445820346 -0.04966978047605111 0.004354017214245895 0.020546953854173322 -0.0009023938333152413 -0.006544335110529687 0.0010666257957863666 0.010416878715899545
 0.0010272898131897792 0.010421739673007751 -0.0009023938333152413 -0.006544335110529687 0.004360168359404552 0.020547471807694968 0.9947674781487162 -0.04966877584586732
 -0.000902917172583784 -0.006544320043116271 0.0010666257957863666 0.010416878715899545 0.9947674781487162 -0.04966877584586732 0.004353886743932388 0.020547946283994468
0.08128386827845 0.0047015252468820285 0.02237414740909708 0.9943151011059917 -0.05389846808264025 0.0011678633859970406 0.011293131132541767 -0.0010249033834021592 -0.007094718080398113
 0.9943151011059917 -0.05389846808264025 0.0046945329851963554 0.022374682416948257 -0.0010242910460585104 -0.007094740650700425 0.001214050718142379 0.01128730780852451
 0.0011678633859970406 0.011293131132541767 -0.0010242910460585104 -0.007094740650700425 0.004701750092857665 0.022375215076959724 0.9943151403082009 -0.05389737910007732
 -0.0010249033834021592 -0.007094718080398113 0.001214050718142379 0.01128730780852451 0.9943151403082009 -0.05389737910007732 0.004694379681796409 0.022375755366290474
0.08753647353064001 0.005061146477292736 0.02421761111887726 0.9938388962414593 -0.05814090113237987 0.0013180753726790388 0.012164429269072595 -0.0011552806917498317 -0.007645230815605772
 0.9938388962414593 -0.05814090113237987 0.005053037984905433 0.02421821628906477 -0.0011545726243640598 -0.007645262238492512 0.0013716684880339218 0.012157524196500409
 0.0013180753726790388 0.012164429269072595 -0.0011545726243640598 -0.007645262238492512 0.005061406328584946 0.024218758450712682 0.9938389415458373 -0.058139727604912386
 -0.0011552806917498317 -0.007645230815605772 0.0013716684880339218 0.012157524196500409 0.9938389415458373 -0.058139727604912386 0.005052860006702641 0.02421936932098932
0.09378907878283 0.005439144818192241 0.02607657727334366 0.9933385329537495 -0.062396907761302876 0.0014780062148793966 0.013035496764052504 -0.001294132286312767 -0.008195715527866455
 0.9933385329537495 -0.062396907761302876 0.005429837150768757 0.02607725743434031 -0.0012933218090820588 -0.008195757236427658 0.001539560362990123 0.013027383047581902
 0.0014780062148793966 0.013035496764052504 -0.0012933218090820588 -0.008195757236427658 0.005439442109883591 0.02607780370187773 0.9933385848360685 -0.06239564948232232
 -0.001294132286312767 -0.008195715527866455 0.001539560362990123 0.013027383047581902 0.9933385848360685 -0.06239564948232232 0.0054296326514956025 0.02607849008443948
0.100041684035 0.005835823208526869 0.027950750399165794 0.9928137155472296 -0.06666630171868093 0.001647734093523542 0.013906192785543201 -0.0014415389465646717 -0.008746027125155409
 0.9928137155472296 -0.06666630171868093 0.005825233275619734 0.02795151052563903 -0.0014406194322215428 -0.008746080635837932 0.0017178052549760659 0.013896735936925753
 0.001647734093523542 0.013906192785543201 -0.0014406194322215428 -0.008746080635837932 0.00583616035509677 0.027952055310074837 0.9928137744926963 -0.06666495846571435
 -0.0014415389465646717 -0.008746027125155409 0.0017178052549760659 0.013896735936925753 0.9928137744926963 -0.06666495846571435 0.005825000402762014 0.02795282230410651
0.1059090909091 0.006225321018304288 0.029723031401781 0.9922987272595583 -0.0706846736250173 0.0018159835744624877 0.014722782392389583 -0.001587714970152991 -0.009262147336643439
 0.9922987272595583 -0.0706846736250173 0.006213452097683127 0.029723871226088206 -0.0015866871557750628 -0.00926221337578312 0.0018945532797892903 0.01471193600886871
 0.0018159835744624877 0.014722782392389583 -0.0015866871557750628 -0.00926221337578312 0.0062256977422431616 0.029724409364422322 0.9922987932841266 -0.07068325041136944
 -0.001587714970152991 -0.009262147336643439 0.0018945532797892903 0.01471193600886871 0.9922987932841266 -0.07068325041136944 0.006213190908583867 0.029725256795411163
0.1062942892872 0.006251482373672951 0.029839836083710304 0.9922641498523146 -0.07094888398219554 0.0018273348296055762 0.014776373131483597 -0.0015975789577310714 -0.009296018051606634
 0.9922641498523146 -0.07094888398219554 0.0062395269186770064 0.02984068130116911 -0.0015965438319595418 -0.00929608496417865 0.001906479625883415 0.014765430991527507
 0.0018273348296055762 0.014776373131483597 -0.0015965438319595418 -0.00929608496417865 0.006251861769132786 0.02984121882177616 0.9922642163569437 -0.07094745551054095
 -0.0015975789577310714 -0.009296018051606634 0.001906479625883415 0.014765430991527507 0.9922642163569437 -0.07094745551054095 0.00623926381302939 0.029842071699413802
0.11254689453939999 0.006686420727416944 0.03174353972784949 0.9916895434064944 -0.07524444398218338 0.002016881786561613 0.01564589034125739 -0.0017623280231861076 -0.009845538232303205
 0.9916895434064944 -0.07524444398218338 0.006673016306907938 0.03174447531813139 -0.001761170765061627 -0.009845620229799925 0.002105657384958994 0.015633313003070047
 0.002016881786561613 0.01564589034125739 -0.001761170765061627 -0.009845620229799925 0.006686844743827811 0.03174499958813398 0.9916896179770648 -0.07524293003383542
 -0.0017623280231861076 -0.009845538232303205 0.002105657384958994 0.015633313003070047 0.9916896179770648 -0.07524293003383542 0.006672721100838833 0.03174594380030471
0.11879949979160001 0.007140934261190567 0.03366156556665387 0.9910896056255623 -0.0795527605652134 0.0022164457727651883 0.016514593796805567 -0.001935859175517476 -0.010394435034409847
 0.9910896056255623 -0.0795527605652134 0.007125997224801254 0.033662596974050094 -0.0019345733181759819 -0.010394533883029125 0.002315409787199244 0.016500223530481573
 0.0022164457727651883 0.016514593796805567 -0.0019345733181759819 -0.010394533883029125 0.00714140524914051 0.03366310180228201 0.9910896887810386 -0.07955116086088103
 -0.001935859175517476 -0.010394435034409847 0.002315409787199244 0.016500223530481573 0.9910896887810386 -0.07955116086088103 0.007125668041415084 0.033664142985435026
0.1250521050438 0.007615316429183049 0.03559361591047515 0.9904640479737009 -0.08387360274381049 0.0024260949449452255 0.017382329808131827 -0.002118242686533253 -0.010942553249948838
 0.9904640479737009 -0.08387360274381049 0.007598762898685438 0.0355947487487311 -0.0021168218176420748 -0.010942670798983277 0.0025358053325682233 0.017366000986893716
 0.0024260949449452255 0.017382329808131827 -0.0021168218176420748 -0.010942670798983277 0.007615836716396335 0.03559522772494072 0.9904641402452066 -0.08387191699063028
 -0.002118242686533253 -0.010942553249948838 0.0025358053325682233 0.017366000986893716 0.9904641402452066 -0.08387191699063028 0.0075983978503825645 0.035596371708470326
0.131304710296 0.008109858025657155 0.03753939052875051 0.9898125841283317 -0.08820673031078767 0.0026458947119651706 0.01824894169381418 -0.0023095459760808837 -0.011489735089699433
 0.9898125841283317 -0.08820673031078767 0.008091603874204831 0.037540630588902 -0.002307983738635603 -0.011489873271394993 0.0027669096659568987 0.01823048072175428
 0.0026458947119651706 0.01824894169381418 -0.002307983738635603 -0.011489873271394993 0.008110429917055585 0.03754107708036351 0.9898126860605343 -0.08820495819795855
 -0.0023095459760808837 -0.011489735089699433 0.0027669096659568987 0.01823048072175428 0.9898126860605343 -0.08820495819795855 0.008091201061825475 0.03754232989493603
0.1375573155481 0.008512500269547706 0.03924390175815187 0.9892473247678834 -0.09229707443314261 0.0028478720606373727 0.01908848320679954 -0.002481661561204185 -0.012010155440249573
 0.9892473247678834 -0.09229707443314261 0.008492456075377746 0.0392452274033325 -0.0024799488419227295 -0.012010314445489539 0.002980466557906998 0.019067915158801664
 0.0028478720606373727 0.01908848320679954 -0.0024799488419227295 -0.012010314445489539 0.008513127273042296 0.03924566160142245 0.9892474368074068 -0.09229521577719091
 -0.002481661561204185 -0.012010155440249573 0.002980466557906998 0.019067915158801664 0.9892474368074068 -0.09229521577719091 0.008492012570607456 0.03924700325019133
0.1438099208003 0.008929338016832067 0.04093923947883638 0.9886621412329821 -0.0963768744060728 0.0030579888052869888 0.01992465344610048 -0.002660665354125212 -0.01252741154628076
 0.9886621412329821 -0.0963768744060728 0.008907418555482655 0.04094065491594609 -0.0026587953786829156 -0.012527593269232565 0.0032026702153439995 0.019901819457013862
 0.0030579888052869888 0.01992465344610048 -0.0026587953786829156 -0.012527593269232565 0.008930022623255571 0.04094107165747507 0.9886622639236877 -0.09637492890327182
 -0.002660665354125212 -0.01252741154628076 0.0032026702153439995 0.019901819457013862 0.9886622639236877 -0.09637492890327182 0.008906932254775717 0.04094250675043239
0.1500625260525 0.009360222495434492 0.042625256575930595 0.9880571866981676 -0.10044602370794378 0.003276170724864811 0.020757367848105914 -0.0028464835816598612 -0.01304142046700334
 0.9880571866981676 -0.10044602370794378 0.009336342286470175 0.04262676630182277 -0.0028444495954179547 -0.013041626877231769 0.0034334433687745903 0.020732103252653733
 0.003276170724864811 0.020757367848105914 -0.0028444495954179547 -0.013041626877231769 0.009360967187784622 0.0426271600941707 0.988057320594687 -0.10044399104171044
 -0.0028464835816598612 -0.01304142046700334 0.0034334433687745903 0.020732103252653733 0.988057320594687 -0.10044399104171044 0.009335811062172107 0.0426286935541624
0.15631513130469998 0.009805003846445207 0.044301810357257346 0.9874326151554095 -0.104504416302788 0.0035023427069711278 0.02158654332821277 -0.0030390415423509633 -0.013552101043518682
 0.9874326151554095 -0.104504416302788 0.009779077146304473 0.04430341916929881 -0.0030368368108190467 -0.013552334185520055 0.003672707811123479 0.021558677721683184
