! Created with skrf 1.8.0 (http://scikit-rf.org).
# GHz S RI R 50.0 
!freq ReS11 ImS11 ReS12 ImS12 ReS13 ImS13
! ReS14 ImS14
! ReS21 ImS21 ReS22 ImS22 ReS23 ImS23
! ReS24 ImS24
! ReS31 ImS31 ReS32 ImS32 ReS33 ImS33
! ReS34 ImS34
! ReS41 ImS41 ReS42 ImS42 ReS43 ImS43
! ReS44 ImS44
!
0.0 0.001740018522315 0.0 0.9982599814578 0.0 6.754503671739e-05 0.0 -6.754503671734e-05 8.271881301418087e-21
 0.9982599814578 0.0 0.001740018522266 0.0 -6.754503671677e-05 8.271881301348283e-21 6.754503671674e-05 0.0
 6.754503671739e-05 0.0 -6.754503671677e-05 8.271881301348283e-21 0.001740018529401 0.0 0.9982599814649 0.0
 -6.754503671734e-05 8.271881301418087e-21 6.754503671674e-05 0.0 0.9982599814649 0.0 0.001740018529393 0.0
0.005 0.0018727687339290249 0.0014210575365743944 0.998091912783744 -0.003644259241971228 9.535286490738121e-05 0.0007555442941089232 -9.242935664958605e-05 -0.00047215320176914317
 0.998091912783744 -0.003644259241971228 0.0018727914486089702 0.001421044311839551 -9.243036038425435e-05 -0.0004721540305799442 9.520258948330825e-05 0.0007556014868806547
 9.535286490738121e-05 0.0007555442941089232 -9.243036038425435e-05 -0.0004721540305799442 0.0018727675528165757 0.0014209909941625912 0.9980919124096697 -0.0036443263074458364
 -9.242935664958605e-05 -0.00047215320176914317 9.520258948330825e-05 0.0007556014868806547 0.9980919124096697 -0.0036443263074458364 0.0018727918826973357 0.0014209767220608213
0.006252605252188 0.0019077736674091893 0.0017818938831422122 0.998047281837055 -0.004556185357248082 0.00010341813149279183 0.0009447775840350478 -9.95448228943068e-05 -0.0005907927652872109
 0.998047281837055 -0.004556185357248082 0.001907809174425374 0.0017818771048389473 -9.954638430231898e-05 -0.000590793788186865 0.0001031833412915874 0.0009448519028471512
 0.00010341813149279183 0.0009447775840350478 -9.954638430231898e-05 -0.000590793788186865 0.0019077718936680586 0.0017818107203405713 0.9980472813253902 -0.004556269180148595
 -9.95448228943068e-05 -0.0005907927652872109 0.0001031833412915874 0.0009448519028471512 0.9980472813253902 -0.004556269180148595 0.0019078099266758796 0.0017817926196728882
0.01250521050438 0.0020931449794490166 0.0036008953719805867 0.997809217295551 -0.009112959864309936 0.00015030679379651315 0.0018897782894980717 -0.00014039814461226427 -0.0011843311849756217
 0.997809217295551 -0.009112959864309936 0.002093286757597645 0.0036008593316238045 -0.00014040429222188786 -0.0011843330864143933 0.00014937051595253055 0.0018899576718814
 0.00015030679379651315 0.0018897782894980717 -0.00014040429222188786 -0.0011843330864143933 0.0020931384555225516 0.0036007293787405662 0.9978092158187285 -0.009113127248093052
 -0.00014039814461226427 -0.0011843311849756217 0.00014937051595253055 0.0018899576718814 0.9978092158187285 -0.009113127248093052 0.002093290335323789 0.0036006905431884453
0.01875781575657 0.0022965773277767937 0.005445501399687378 0.997545463686731 -0.013681368505644675 0.0002083244852823022 0.002835613025876654 -0.00019023927623072314 -0.0017797151472834594
 0.997545463686731 -0.013681368505644675 0.0022968959076892833 0.005445443448020631 -0.00019025297737950772 -0.0017797177539239713 0.00020622127227365556 0.0028359347832378297
 0.0002083244852823022 0.002835613025876654 -0.00019025297737950772 -0.0017797177539239713 0.002296563075067564 0.0054452527792176394 0.9975454607899363 -0.01368161934093853
 -0.00019023927623072314 -0.0017797151472834594 0.00020622127227365556 0.0028359347832378297 0.9975454607899363 -0.01368161934093853 0.0022969043842679645 0.005445190353206847
0.02501042100875 0.0025184999413880725 0.007313075792304018 0.9972556830502962 -0.018263574204746006 0.0002775865291838621 0.003782288346084565 -0.0002491971833977568 -0.002376640657140957
 0.9972556830502962 -0.018263574204746006 0.0025190657172195854 0.007312993140852641 -0.00024922136708432663 -0.0023766437636043264 0.0002738508081477591 0.003782796163884441
 0.0002775865291838621 0.003782288346084565 -0.00024922136708432663 -0.0023766437636043264 0.0025184749811659377 0.007312744725897036 0.9972556782822756 -0.01826390842704307
 -0.0002491971833977568 -0.002376640657140957 0.0002738508081477591 0.003782796163884441 0.9972556782822756 -0.01826390842704307 0.002519081173315903 0.0073126556603173775
0.03126302626094 0.0027593241872500784 0.00920223588374543 0.9969395217500643 -0.022860471204200813 0.00035820836637795293 0.004729721487316253 -0.00031739653506981924 -0.0029748847290778555
 0.9969395217500643 -0.022860471204200813 0.0027602074603815066 0.009202125610389005 -0.0003174340983869559 -0.002974888097624621 0.00035237402643228835 0.004730465465107025
 0.00035820836637795293 0.004729721487316253 -0.0003174340983869559 -0.002974888097624621 0.0027592855380089666 0.00920182257602158 0.9969395146611579 -0.022860888748931548
 -0.00031739653506981924 -0.0029748847290778555 0.00035237402643228835 0.004730465465107025 0.9969395146611579 -0.022860888748931548 0.0027602319826479553 0.009201703633436868
0.037515631513130004 0.003019451974545566 0.011112060453626962 0.9965966192346412 -0.02747247707183057 0.0004503042894397753 0.005677793894797358 -0.00039495859846452316 -0.0035742518843387035
 0.9965966192346412 -0.02747247707183057 0.0030207229849568396 0.011111919505361787 -0.00039501240987979057 -0.003574255244824904 0.0004419045069688052 0.005678830610539107
 0.0004503042894397753 0.005677793894797358 -0.00039501240987979057 -0.003574255244824904 0.0030193966509476796 0.011111565124383826 0.9965966093760019 -0.02747297788311783
 -0.00039495859846452316 -0.0035742518843387035 0.0004419045069688052 0.005678830610539107 0.9965966093760019 -0.02747297788311783 0.0030207586655673128 0.011111412881122369
0.043768236765320004 0.003299278992766741 0.013041848648317447 0.9962266116361477 -0.03209977371198571 0.0005539868314050423 0.006626367514921623 -0.00048200154466085344 -0.004174557886451544
 0.9962266116361477 -0.03209977371198571 0.003301007944694132 0.013041673842914646 -0.00048207444598894085 -0.004174560936365596 0.0005425539972787166 0.006627760096691701
 0.0005539868314050423 0.006626367514921623 -0.00048207444598894085 -0.004174560936365596 0.003299204004853783 0.013041271537912976 0.9962265985594505 -0.032100357737788195
 -0.00048200154466085344 -0.004174557886451544 0.0005425539972787166 0.006627760096691701 0.9962265985594505 -0.032100357737788195 0.003301056880464662 0.013041082384876416
0.050020842017509996 0.003599196189434498 0.01499102037685866 0.9958291336152265 -0.03674240690143582 0.0006693663929978165 0.007575291525977544 -0.0005786405368062391 -0.0047756230454797126
 0.9958291336152265 -0.03674240690143582 0.0036014532750575775 0.014990808403413693 -0.000578735344541046 -0.004775625449991309 0.0006544320943390334 0.0075771097265748865
 0.0006693663929978165 0.007575291525977544 -0.000578735344541046 -0.004775625449991309 0.0035990985437817915 0.014990361744843517 0.9958291168729668 -0.03674307409552288
 -0.0005786405368062391 -0.0047756230454797126 0.0006544320943390334 0.0075771097265748865 0.9958291168729668 -0.03674307409552288 0.0036015175679859944 0.014990131887276362
0.055454545454549996 0.003876449621871304 0.016700255492401252 0.9954611198058056 -0.040789420379681814 0.0007792180761825398 0.008400095532239792 -0.0006705030928827867 -0.005298444842049851
 0.9954611198058056 -0.040789420379681814 0.0038792226834038148 0.016700008429948815 -0.0006706192062473702 -0.0052984463887150775 0.0007608598766015921 0.008402345458351737
 0.0007792180761825398 0.008400095532239792 -0.0006706192062473702 -0.0052984463887150775 0.003876329851964529 0.016699526250452696 0.9954610995151567 -0.04079015980780658
 -0.0006705030928827867 -0.005298444842049851 0.0007608598766015921 0.008402345458351737 0.9954610995151567 -0.04079015980780658 0.0038793020327954402 0.01669925779273354
0.056273447269699996 0.00391959051406772 0.01695906741124631 0.9954038194764333 -0.04140033512457221 0.0007965509680889174 0.008524405658828987 -0.0006849877285725808 -0.005377268939164839
 0.9954038194764333 -0.04140033512457221 0.003922445935382751 0.01695881483008915 -0.0006851072347131274 -0.005377270331194114 0.0007776460028856493 0.008526725931477123
 0.0007965509680889174 0.008524405658828987 -0.0006851072347131274 -0.005377270331194114 0.003919467213411222 0.016958327547501047 0.9954037986217174 -0.04140108543598987
 -0.0006849877285725808 -0.005377268939164839 0.0007776460028856493 0.008526725931477123 0.9954037986217174 -0.04140108543598987 0.0039225276920278745 0.016958053004054126
0.06252605252188 0.004260845294329462 0.018945526525972787 0.9949503039221116 -0.04607345637576633 0.0009356459224203342 0.009473542027743016 -0.0008011522123653478 -0.005979316631375686
 0.9949503039221116 -0.04607345637576633 0.004264369284281279 0.01894522976775112 -0.0008012991850211948 -0.005979316611655054 0.0009123003363120183 0.00947644760199439
 0.0009356459224203342 0.009473542027743016 -0.0008012991850211948 -0.005979316611655054 0.0042606933382628364 0.018944705742795002 0.9949502785097262 -0.046074289757312904
 -0.0008011522123653478 -0.005979316631375686 0.0009123003363120183 0.00947644760199439 0.9949502785097262 -0.046074289757312904 0.004264470616084789 0.018944382343789146
0.06877865777407 0.004623340412528227 0.020949963476096598 0.9944682226128821 -0.05076162413055599 0.0010867538005196317 0.01042252624158653 -0.0009272399406499274 -0.006581585618061624
 0.9944682226128821 -0.05076162413055599 0.004627603256289974 0.020949618840111588 -0.0009274171245143075 -0.0065815837552139645 0.0010584969391196958 0.010426107198883641
 0.0010867538005196317 0.01042252624158653 -0.0009274171245143075 -0.0065815837552139645 0.004623156796651111 0.020949062110610647 0.994468192197193 -0.05076254053700934
 -0.0009272399406499274 -0.006581585618061624 0.0010584969391196958 0.010426107198883641 0.994468192197193 -0.05076254053700934 0.0046277262776261725 0.020948685495552125
0.07503126302626001 0.0050074523629831235 0.022971962852243222 0.9939572126119758 -0.05546465744833849 0.0012499741499512739 0.011371178111595527 -0.0010633536300592886 -0.007183893184910469
 0.9939572126119758 -0.05546465744833849 0.0050125244180350415 0.022971566504196142 -0.0010635637466719495 -0.007183889015512973 0.001216334723072789 0.011375531460220021
 0.0012499741499512739 0.011371178111595527 -0.0010635637466719495 -0.007183889015512973 0.0050072340800590125 0.02297098127334166 0.993957176748333 -0.05546565683009739
 -0.0010633536300592886 -0.007183893184910469 0.001216334723072789 0.011375531460220021 0.993957176748333 -0.05546565683009739 0.0050126712469688904 0.022970546887775545
0.08128386827845 0.005413554234835382 0.02501112133914756 0.9934169127620501 -0.060182347680905114 0.0014254033555089723 0.012319312148279131 -0.0012095926552734466 -0.007786053984443088
 0.9934169127620501 -0.060182347680905114 0.005419505952147262 0.025010669307911702 -0.0012098384032045847 -0.007786047013112576 0.0013859095107645017 0.01232454189730165
 0.0014254033555089723 0.012319312148279131 -0.0012098384032045847 -0.007786047013112576 0.0054132982747193085 0.025010059938142964 0.9934168710065586 -0.06018342999395819
 -0.0012095926552734466 -0.007786053984443088 0.0013859095107645017 0.01232454189730165 0.9934168710065586 -0.06018342999395819 0.005419678709839456 0.025009563029606503
0.08753647353064001 0.005842015644690585 0.02706704305543664 0.9928469640147005 -0.06491446310905383 0.0016131344817716365 0.013266737909341965 -0.0013660529341735555 -0.00838787977083104
 0.9928469640147005 -0.06491446310905383 0.005848917589029639 0.027066531229162107 -0.0013663369892496034 -0.008387869470284554 0.0015673138857274364 0.013272955141580094
 0.0016131344817716365 0.013266737909341965 -0.0013663369892496034 -0.008387869470284554 0.005841718994674089 0.02706590225787017 0.9928469159238444 -0.06491562830372112
 -0.0013660529341735555 -0.00838787977083104 0.0015673138857274364 0.013272955141580094 0.9928469159238444 -0.06491562830372112 0.005849118398452134 0.027065337871277784
0.09378907878283 0.006293202634734282 0.02913933623868182 0.9922470097315866 -0.06966075224434906 0.001813257119278203 0.014213260272904251 -0.0015328268090820099 -0.008989179218612826
 0.9922470097315866 -0.06966075224434906 0.006301125505328531 0.029138760360156238 -0.001533151824372086 -0.00898916502975196 0.0017606370452012013 0.01422058321647725
 0.001813257119278203 0.014213260272904251 -0.001533151824372086 -0.00898916502975196 0.006292862280126394 0.02913811649886313 0.9922469548624109 -0.0696620002713515
 -0.0015328268090820099 -0.008989179218612826 0.0017606370452012013 0.01422058321647725 0.9922469548624109 -0.0696620002713515 0.006301356491717107 0.029137479470987777
0.100041684035 0.006767477546556972 0.031227610821778076 0.9916166959633549 -0.07442094624985986 0.0020258572350547537 0.0151586796478488 -0.0017100029234130589 -0.009589757813345564
 0.9916166959633549 -0.07442094624985986 0.006776492197983781 0.03122696648287084 -0.001710371529306799 -0.009589739145335252 0.0019659646561434626 0.015167233746465442
 0.0020258572350547537 0.0151586796478488 -0.001710371529306799 -0.009589739145335252 0.006767090470653907 0.03122631262161304 0.9916166338734254 -0.07442227706209663
 -0.0017100029234130589 -0.009589757813345564 0.0019659646561434626 0.015167233746465442 0.9916166338734254 -0.07442227706209663 0.006776755487655535 0.03122559757470191
0.1059090909091 0.0072338518567833425 0.03320142236810893 0.9909972890247549 -0.07890027666011033 0.0022367812937062123 0.016044670741718146 -0.0018858002446416643 -0.010152505386243097
 0.9909972890247549 -0.07890027666011033 0.007243955626690169 0.03320070963718765 -0.0018862121277825375 -0.010152481949453932 0.0021696338466819535 0.01605450072630342
 0.0022367812937062123 0.016044670741718146 -0.0018862121277825375 -0.010152481949453932 0.0072334181932406216 0.033200051008844024 0.9909972197570803 -0.07890168511231602
 -0.0018858002446416643 -0.010152505386243097 0.0021696338466819535 0.01605450072630342 0.9909972197570803 -0.07890168511231602 0.007244251164371608 0.033199257661074115
0.1062942892872 0.00726519887566287 0.03333147661694126 0.9909556717145928 -0.07919476076426941 0.0022510170253756748 0.016102792153514036 -0.0018976660960906856 -0.010189417782507737
 0.9909556717145928 -0.07919476076426941 0.007275376338543025 0.03333075925219356 -0.0018980809002736973 -0.010189394012849061 0.0021833787130147173 0.0161127101350846
 0.0022510170253756748 0.016102792153514036 -0.0018980809002736973 -0.010189394012849061 0.007264762060712102 0.03333010047115146 0.9909556019622355 -0.07919617431210826
 -0.0018976660960906856 -0.010189417782507737 0.0021833787130147173 0.0161127101350846 0.9909556019622355 -0.07919617431210826 0.007275674058961166 0.03332930180588478
0.11254689453939999 0.00778672111321809 0.03545054194317656 0.9902635891989453 -0.08398189729343383 0.0024888147708351806 0.017045389771664136 -0.002095897193994326 -0.010787958063516895
 0.9902635891989453 -0.08398189729343383 0.007798132615281976 0.03544974682268022 -0.0020963607814566063 -0.010787928538126169 0.0024129573971818914 0.017056811715388736
 0.0024888147708351806 0.017045389771664136 -0.0020963607814566063 -0.010787928538126169 0.007786231540311799 0.035449088396089214 0.9902635113424709 -0.08398339352858841
 -0.002095897193994326 -0.010787958063516895 0.0024129573971818914 0.017056811715388736 0.9902635113424709 -0.08398339352858841 0.007798466893695926 0.03544820028354739
0.11879949979160001 0.008332394575843314 0.03758441255922779 0.9895401040847801 -0.08878204430823794 0.0027393246931522487 0.017986260484575665 -0.0023047730030825255 -0.01138517429557158
 0.9895401040847801 -0.08878204430823794 0.008345111562875183 0.037583534780414235 -0.0023052879360247087 -0.011385138328875315 0.002654774937909772 0.017999333886212197
 0.0027393246931522487 0.017986260484575665 -0.0023052879360247087 -0.011385138328875315 0.008331849225900665 0.03758288219027633 0.9895400176834178 -0.08878362317874666
 -0.0023047730030825255 -0.01138517429557158 0.002654774937909772 0.017999333886212197 0.9895400176834178 -0.08878362317874666 0.00834548452663544 0.03758189856305115
0.1250521050438 0.00890256522815556 0.0397326908400324 0.9887848757376043 -0.09359487811028265 0.0030026168135355693 0.018925188401282943 -0.0025243660989308077 -0.011980858833002594
 0.9887848757376043 -0.09359487811028265 0.00891665938509399 0.03973172531872816 -0.0025249349166725217 -0.011980815708020282 0.0029089014745044828 0.018940068236566448
 0.0030026168135355693 0.018925188401282943 -0.0025249349166725217 -0.011980815708020282 0.008901961081727205 0.03973108425768077 0.9887847803505506 -0.09359653956718703
 -0.0025243660989308077 -0.011980858833002594 0.0029089014745044828 0.018940068236566448 0.9887847803505506 -0.09359653956718703 0.008917073160455953 0.03972999880015545
0.131304710296 0.0094975744972417 0.04189497512106151 0.9879975674554491 -0.09842006354194685 0.0032787568128435076 0.019861953879338902 -0.0027547447165824535 -0.012574800773230022
 0.9879975674554491 -0.09842006354194685 0.009513117769477305 0.04189391658142237 -0.002755369935518018 -0.012574749741645902 0.0031754029197849833 0.01987880266546771
 0.0032787568128435076 0.019861953879338902 -0.002755369935518018 -0.012574749741645902 0.009496908535824144 0.04189329296895725 0.9879974626426777 -0.09842180753370984
 -0.0027547447165824535 -0.012574800773230022 0.0031754029197849833 0.01987880266546771 0.9879974626426777 -0.09842180753370984 0.009513574481348926 0.04189209910661019
0.1375573155481 0.009987901199875193 0.04378917787912749 0.9873077660867076 -0.10297541564530405 0.0035353946618660254 0.020769018410186215 -0.002963685822392655 -0.01313940338550325
 0.9873077660867076 -0.10297541564530405 0.010004971756553363 0.04378804358047483 -0.00296437135781984 -0.013139344323696482 0.003422168003245151 0.020787823696750272
 0.0035353946618660254 0.020769018410186215 -0.00296437135781984 -0.013139344323696482 0.009987171305288908 0.04378742038420551 0.9873076514270833 -0.10297724208001738
 -0.002963685822392655 -0.01313940338550325 0.003422168003245151 0.020787823696750272 0.9873076514270833 -0.10297724208001738 0.010005472588462301 0.043786134819485366
0.1438099208003 0.010495663463154524 0.045672132672899664 0.9865933097962017 -0.10751793319613924 0.0038023738707651756 0.021671561902991493 -0.0031809339172220565 -0.01369991629480448
 0.9865933097962017 -0.10751793319613924 0.010514334539861541 0.04567091848197243 -0.0031816825039495088 -0.013699848454553583 0.003678844850150738 0.02169247346662368
 0.0038023738707651756 0.021671561902991493 -0.0031816825039495088 -0.013699848454553583 0.010494866777625312 0.04567030044089218 0.9865931848551449 -0.1075198420111097
 -0.0031809339172220565 -0.01369991629480448 0.003678844850150738 0.02169247346662368 0.9865931848551449 -0.1075198420111097 0.010514881443664179 0.045668917787092006
0.1500625260525 0.011020662442551253 0.04754364455609913 0.9858544022225206 -0.11204746482666965 0.004079589948967344 0.022569464550342516 -0.0034063885585577736 -0.014256229323154599
 0.9858544022225206 -0.11204746482666965 0.011041007552584303 0.04754234603733191 -0.0034072029260164482 -0.014256151925687709 0.0039453319321552755 0.022592637648967503
 0.004079589948967344 0.022569464550342516 -0.0034072029260164482 -0.014256151925687709 0.011019796118570286 0.047541738214093035 0.9858542665664896 -0.11204945595780624
 -0.0034063885585577736 -0.014256229323154599 0.0039453319321552755 0.022592637648967503 0.9858542665664896 -0.11204945595780624 0.011041602467148397 0.047540252734331385
0.15631513130469998 0.011562697639861275 0.04940352440873575 0.9850912483043349 -0.11656386056941212 0.0043669370244952726 0.02346260885745319 -0.003639947938941512 -0.014808234864166473
