! Created with skrf 1.8.0 (http://scikit-rf.org).
# GHz S RI R 50.0 
!freq ReS11 ImS11 ReS12 ImS12 ReS13 ImS13
! ReS14 ImS14
! ReS21 ImS21 ReS22 ImS22 ReS23 ImS23
! ReS24 ImS24
! ReS31 ImS31 ReS32 ImS32 ReS33 ImS33
! ReS34 ImS34
! ReS41 ImS41 ReS42 ImS42 ReS43 ImS43
! ReS44 ImS44
!
0.0 0.001715653944945 0.0 0.9982843460266 0.0 6.640429843096e-05 0.0 -6.640429807609e-05 8.132181108851036e-21
 0.9982843460266 0.0 0.001715653944968 0.0 -6.640429807641e-05 8.132181108890225e-21 6.640429843206e-05 0.0
 6.640429843096e-05 0.0 -6.640429807641e-05 8.132181108890225e-21 0.001715653959165 0.0 0.9982843460408 0.0
 -6.640429807609e-05 8.132181108851036e-21 6.640429843206e-05 0.0 0.9982843460408 0.0 0.001715653959165 0.0
0.005 0.0018464329720239803 0.001404136846511376 0.9981188009066612 -0.003593209062146184 9.320726129190192e-05 0.0007249504938612026 -9.049267804909936e-05 -0.0004561143839662571
 0.9981188009066612 -0.003593209062146184 0.0018464528170232916 0.0014041252024034603 -9.04911020916734e-05 -0.0004561131278038508 9.309707604145821e-05 0.0007249925821231245
 9.320726129190192e-05 0.0007249504938612026 -9.04911020916734e-05 -0.0004561131278038508 0.001846434385628328 0.001404203241181969 0.998118801276677 -0.003593142001430519
 -9.049267804909936e-05 -0.0004561143839662571 9.309707604145821e-05 0.0007249925821231245 0.998118801276677 -0.003593142001430519 0.001846452132575249 0.0014041929187887515
0.006252605252188 0.0018808939731009254 0.0017606666271557392 0.9980748771117611 -0.004492363188305723 0.00010095829706832064 0.0009065315002942855 -9.736572653921883e-05 -0.0005707212227428717
 0.9980748771117611 -0.004492363188305723 0.001880924994586453 0.001760651816617215 -9.736327459365524e-05 -0.0005707196732801975 0.00010078614544724413 0.0009065861614173035
 0.00010095829706832064 0.0009065315002942855 -9.736327459365524e-05 -0.0005707196732801975 0.001880896114648864 0.00176074959672395 0.9980748776217048 -0.004492279375064958
 -9.736572653921883e-05 -0.0005707212227428717 0.00010078614544724413 0.0009065861614173035 0.9980748776217048 -0.004492279375064958 0.0018809238556232461 0.001760736450584704
0.01250521050438 0.002063245031073929 0.0035579287786512543 0.9978407951989362 -0.008985332472228281 0.00014590223868959462 0.0018133618445090307 -0.0001367485507562189 -0.0011440942096112199
 0.9978407951989362 -0.008985332472228281 0.002063368905028558 0.003557896555047012 -0.00013673889252808642 -0.0011440913395525504 0.00014521580218203846 0.001813493462624889
 0.00014590223868959462 0.0018133618445090307 -0.00013673889252808642 -0.0011440913395525504 0.0020632530272577214 0.0035580943546901812 0.9978407966772922 -0.008985165053149648
 -0.0001367485507562189 -0.0011440942096112199 0.00014521580218203846 0.001813493462624889 0.9978407966772922 -0.008985165053149648 0.002063363787506425 0.0035580656051543234
0.01875781575657 0.0022631396530415904 0.005380455839143012 0.9975817850200603 -0.013489801347731633 0.00020134491938702618 0.002721061814344797 -0.00018468062557771528 -0.0017192775589933095
 0.9975817850200603 -0.013489801347731633 0.0022634180142103552 0.005380403351844571 -0.00018465909420450796 -0.0017192736444019922 0.00019980307165470514 0.0027212974349519505
 0.00020134491938702618 0.002721061814344797 -0.00018465909420450796 -0.0017192736444019922 0.0022631572049533794 0.005380703692277054 0.9975817879241045 -0.01348955037934243
 -0.00018468062557771528 -0.0017192775589933095 0.00019980307165470514 0.0027212974349519505 0.9975817879241045 -0.01348955037934243 0.0022634060707409577 0.005380656701906609
0.02501042100875 0.0024809954955875885 0.007225656758460204 0.9972975179535168 -0.01800790924751398 0.00026739669949986644 0.0036296375491106972 -0.00024128498783360515 -0.00229598674954076
 0.9972975179535168 -0.01800790924751398 0.0024814898619265483 0.007225580928218841 -0.00024124697479687286 -0.0022959821184250335 0.0002646583020678329 0.003630008815851024
 0.00026739669949986644 0.0036296375491106972 -0.00024124697479687286 -0.0022959821184250335 0.002481026298793019 0.007225986505128328 0.9972975227435438 -0.018007574724349995
 -0.00024128498783360515 -0.00229598674954076 0.0002646583020678329 0.003630008815851024 0.9972975227435438 -0.018007574724349995 0.0024814682359707136 0.00722591847337871
0.03126302626094 0.002717212888480999 0.00909217624208854 0.9969876499281927 -0.022540545339392218 0.00034416802585958314 0.004539011742318346 -0.0003066807293919525 -0.0028740129012381843
 0.9969876499281927 -0.022540545339392218 0.0027179846944853725 0.009092073764004501 -0.0003066216747770059 -0.0028740079340616523 0.0003398916231004469 0.004539554922410807
 0.00034416802585958314 0.004539011742318346 -0.0003066216747770059 -0.0028740079340616523 0.002717260635352661 0.009092587428662596 0.9969876570713696 -0.02254012720940005
 -0.0003066807293919525 -0.0028740129012381843 0.0003398916231004469 0.004539554922410807 0.9969876570713696 -0.02254012720940005 0.00271795052047833 0.009092495395236174
0.037515631513130004 0.002972183069125097 0.010979114013273436 0.9966518299940795 -0.027088129205313234 0.0004317682868539312 0.00544907362985844 -0.0003809838163527189 -0.0034531728053406054
 0.9966518299940795 -0.027088129205313234 0.002973293688613091 0.01097898135743943 -0.00038089920389731383 -0.003453167935132105 0.0004256119776719374 0.005449829657930266
 0.0004317682868539312 0.00544907362985844 -0.00038089920389731383 -0.003453167935132105 0.002972251443067566 0.010979606106044443 0.9966518399602945 -0.027087627379190272
 -0.0003809838163527189 -0.0034531728053406054 0.0004256119776719374 0.005449829657930266 0.9966518399602945 -0.027087627379190272 0.002973244085271547 0.010979486952358722
0.043768236765320004 0.00324629134513959 0.012885787232960638 0.9962897038232772 -0.03165084835105749 0.000530305256022344 0.006359694213309844 -0.0004643073698953595 -0.004033293724720965
 0.9962897038232772 -0.03165084835105749 0.0032478021085119656 0.012885620644383169 -0.0004641927240651775 -0.004033289437060698 0.0005219266411988928 0.006360708740827042
 0.000530305256022344 0.006359694213309844 -0.0004641927240651775 -0.004033289437060698 0.003246384023783996 0.012886359612934838 0.9962897170904853 -0.03165026270668305
 -0.0004643073698953595 -0.004033293724720965 0.0005219266411988928 0.006360708740827042 0.9962897170904853 -0.03165026270668305 0.0032477341817621465 0.012886210062933905
0.050020842017509996 0.003539918551118212 0.014811632299530664 0.995900915512109 -0.036228756335286716 0.0006398847495786036 0.0072707325443037004 -0.000556761749066033 -0.004614207138470184
 0.995900915512109 -0.036228756335286716 0.003541890761181388 0.014811427797239023 -0.0005566126331819267 -0.0046142039714482585 0.0006289409195619196 0.007272055991099944
 0.0006398847495786036 0.0072707325443037004 -0.0005566126331819267 -0.0046142039714482585 0.003540039204164407 0.014812284256951282 0.9959009325665419 -0.03622808672255294
 -0.000556761749066033 -0.004614207138470184 0.0006289409195619196 0.007272055991099944 0.9959009325665419 -0.03622808672255294 0.003541801602125512 0.014812100877201667
0.055454545454549996 0.003811234206854512 0.016500436121684683 0.995541116972988 -0.040219408831643155 0.0007441610561797598 0.008062675567384547 -0.0006446063863919832 -0.005119552117198668
 0.995541116972988 -0.040219408831643155 0.003813657202452339 0.01650019526171698 -0.0006444237411074273 -0.005119550401771136 0.0007307091044833499 0.008064312164182377
 0.0007441610561797598 0.008062675567384547 -0.0006444237411074273 -0.005119550401771136 0.0038113821422130585 0.016501156589574725 0.9955411377193231 -0.04021866610152617
 -0.0006446063863919832 -0.005119552117198668 0.0007307091044833499 0.008064312164182377 0.9955411377193231 -0.04021866610152617 0.0038135472157671524 0.01650094089992888
0.056273447269699996 0.003853441781067659 0.016756156673195504 0.9954851086628991 -0.040821820877184604 0.0007606103757172676 0.008182038823128483 -0.0006584545477389652 -0.005195745678309966
 0.9954851086628991 -0.040821820877184604 0.0038559367269529726 0.016755910048940784 -0.0006582665627508809 -0.0051957442224561485 0.0007467579228202746 0.008183726429721358
 0.0007606103757172676 0.008182038823128483 -0.0006582665627508809 -0.0051957442224561485 0.003853594067458834 0.01675688740968582 0.9954851299986667 -0.04082106711514368
 -0.0006584545477389652 -0.005195745678309966 0.0007467579228202746 0.008183726429721358 0.9954851299986667 -0.04082106711514368 0.003855823409233421 0.01675666660906232
0.06252605252188 0.004187234759260059 0.018718912379751252 0.9950419271105604 -0.04542995029037353 0.0008925833311669465 0.009093456109709812 -0.000769490546396295 -0.0057777414593411895
 0.9950419271105604 -0.04542995029037353 0.004190313729733692 0.01871861919614322 -0.000769259330036577 -0.00577774235755223 0.0008754783780685519 0.0090955679897044
 0.0008925833311669465 0.009093456109709812 -0.000769259330036577 -0.00577774235755223 0.00418742232753287 0.01871972100915703 0.9950419532329545 -0.045429112165759324
 -0.000769490546396295 -0.0057777414593411895 0.0008754783780685519 0.0090955679897044 0.9950419532329545 -0.045429112165759324 0.004190173310447149 0.01871945903798912
0.06877865777407 0.004541668021861055 0.020699480228251615 0.9945710154645614 -0.05005300920964043 0.0010359022236719596 0.010004821352219716 -0.0008899716382744954 -0.0063600251002992325
 0.9945710154645614 -0.05005300920964043 0.004545392318457146 0.020699135816439868 -0.0008896928645501087 -0.006360029047755174 0.0010152004637190826 0.010007422544430676
 0.0010359022236719596 0.010004821352219716 -0.0008896928645501087 -0.006360029047755174 0.004541894507367594 0.02070036577043695 0.994571046889435 -0.05005208648252257
 -0.0008899716382744954 -0.0063600251002992325 0.0010152004637190826 0.010007422544430676 0.994571046889435 -0.05005208648252257 0.004545221835477619 0.020700058719231872
0.07503126302626001 0.004917108977182919 0.02269745980195431 0.9940720195343931 -0.05469082855232486 0.0011906629086918842 0.010915966058161627 -0.001019996741381907 -0.006942425108846184
 0.9940720195343931 -0.05469082855232486 0.004921539926507693 0.022697059258767697 -0.0010196661201803613 -0.006942432852925098 0.001166019654585183 0.0109191265781872
 0.0011906629086918842 0.010915966058161627 -0.0010196661201803613 -0.006942432852925098 0.004917378001448236 0.022698421184807818 0.9940720567910618 -0.05468982095356708
 -0.001019996741381907 -0.006942425108846184 0.001166019654585183 0.0109191265781872 0.9940720567910618 -0.05468982095356708 0.004921336398823525 0.02269806498236844
0.08128386827845 0.005313921897832924 0.024712462812253876 0.993544586692534 -0.05934321212472864 0.0013569583375266131 0.011826716741340584 -0.0011596616979711828 -0.00752476749881054
 0.993544586692534 -0.05934321212472864 0.00531912086394401 0.024712000996937197 -0.001159274974835484 -0.00752477983899819 0.0013280285774834855 0.011830511632323078
 0.0013569583375266131 0.011826716741340584 -0.001159274974835484 -0.00752477983899819 0.005314237065665068 0.02471349887227619 0.9935446303230442 -0.059342119355035215
 -0.0011596616979711828 -0.00752476749881054 0.0013280285774834855 0.011830511632323078 0.9935446303230442 -0.059342119355035215 0.005318881289469671 0.024713089283447103
0.08753647353064001 0.0057324678592673385 0.02674410850376899 0.9929883661875383 -0.06400994118664638 0.001534878410226415 0.012736895256924124 -0.001309059169141817 -0.008106875527355017
 0.9929883661875383 -0.06400994118664638 0.00573849625630439 0.026743580034098817 -0.001308612125239989 -0.00810689331514372 0.0015013168692599363 0.012741404639512862
 0.001534878410226415 0.012736895256924124 -0.001308612125239989 -0.00810689331514372 0.005732832757907081 0.026745217983494798 0.9929884167491716 -0.06400876291863317
 -0.001309059169141817 -0.008106875527355017 0.0015013168692599363 0.012741404639512862 0.9929884167491716 -0.06400876291863317 0.005738217611319175 0.026744750606342956
0.09378907878283 0.0061731046484355505 0.02879202038041343 0.9924030094316851 -0.06869077770389137 0.0017245098339189664 0.01364631904567674 -0.0014682785230823424 -0.008688569531151765
 0.9924030094316851 -0.06869077770389137 0.006180023952569006 0.028791419628367555 -0.0014677669751276612 -0.008688593669938613 0.0016859710402329948 0.013651628166963716
 0.0017245098339189664 0.01364631904567674 -0.0014677669751276612 -0.008688593669938613 0.006173522845436575 0.028793201928211217 0.9924030674977606 -0.06868951358211127
 -0.0014682785230823424 -0.008688569531151765 0.0016859710402329948 0.013651628166963716 0.9924030674977606 -0.06868951358211127 0.006179703190874414 0.02879267219064335
0.100041684035 0.0066361866461005364 0.03085582380861352 0.9917881702668843 -0.07338546673348188 0.0019259359837278064 0.014554801331478313 -0.001637405720433451 -0.009269666817897523
 0.9917881702668843 -0.07338546673348188 0.006644058407909271 0.030855144895451183 -0.0016368255207829903 -0.009269698262878845 0.0018820743391421116 0.014561000612774742
 0.0019259359837278064 0.014554801331478313 -0.0016368255207829903 -0.009269698262878845 0.006636661687623489 0.030857075979388342 0.9917882364281433 -0.07338411637343042
 -0.001637405720433451 -0.009269666817897523 0.0018820743391421116 0.014561000612774742 0.9917882364281433 -0.07338411637343042 0.006643692459630738 0.0308564791352776
0.1059090909091 0.007091466229170605 0.032806603976513686 0.9911840889950991 -0.07780329278055463 0.0021257514608159435 0.0154062893775847 -0.001805198212447044 -0.009814256823638592
 0.9911840889950991 -0.07780329278055463 0.007100287827942359 0.03280584614270993 -0.0018045498500987441 -0.009814296039483382 0.002076580519908748 0.015413410866947846
 0.0021257514608159435 0.0154062893775847 -0.0018045498500987441 -0.009814296039483382 0.00709199781733871 0.03280792102088414 0.9911841633063232 -0.0778018611203978
 -0.001805198212447044 -0.009814256823638592 0.002076580519908748 0.015413410866947846 0.9911841633063232 -0.0778018611203978 0.007099876662529742 0.03280725672890636
0.1062942892872 0.0071220646922501955 0.03293514423221902 0.9911435052169214 -0.0780937382070733 0.0021392367657917777 0.015462151285287532 -0.0018165231973866266 -0.009849981599826219
 0.9911435052169214 -0.0780937382070733 0.007130950548851846 0.0329343810230875 -0.0018158702341512607 -0.009850021357882223 0.0020897066197240154 0.015469336368750355
 0.0021392367657917777 0.015462151285287532 -0.0018158702341512607 -0.009850021357882223 0.007122600100716413 0.03293646548502333 0.9911435800822836 -0.07809230119749931
 -0.0018165231973866266 -0.009849981599826219 0.0020897066197240154 0.015469336368750355 0.9911435800822836 -0.07809230119749931 0.007130536319043512 0.03293579660975432
0.11254689453939999 0.00763108593688891 0.035029605803537096 0.9904686737286122 -0.08281530830860538 0.0023644884827372045 0.016368174164335062 -0.0020057097461092382 -0.010429324960904138
 0.9904686737286122 -0.08281530830860538 0.007641047623994543 0.03502875190143502 -0.0020049799433265528 -0.010429374090462797 0.002308944209683964 0.016376445958276205
 0.0023644884827372045 0.016368174164335062 -0.0020049799433265528 -0.010429374090462797 0.007631685209735856 0.035030994503370154 0.9904687579271387 -0.08281378420960438
 -0.0020057097461092382 -0.010429324960904138 0.002308944209683964 0.016376445958276205 0.9904687579271387 -0.08281378420960438 0.007640581992497204 0.03503024848880289
0.11879949979160001 0.00816359368135201 0.03713883033378779 0.9897633384072521 -0.08754988054304429 0.002601763700213627 0.01727267143761483 -0.0022050403947444803 -0.011007504846507159
 0.9897633384072521 -0.08754988054304429 0.008174693045677766 0.037137879072962905 -0.0022042297125596725 -0.011007564457433896 0.0025398597798962108 0.01728213616045759
 0.002601763700213627 0.01727267143761483 -0.0022042297125596725 -0.011007564457433896 0.008164260288441813 0.03714028475015728 0.9897634325887595 -0.08754826888757578
 -0.0022050403947444803 -0.011007504846507159 0.0025398597798962108 0.01728213616045759 0.9897634325887595 -0.08754826888757578 0.00817417286520768 0.03713945629900425
0.1250521050438 0.008719927210434322 0.03926243647253348 0.989027165245093 -0.0922971465868966 0.0028511311149592125 0.018175440901101268 -0.002414586285975695 -0.011584326072555055
 0.989027165245093 -0.0922971465868966 0.008732226221694358 0.039261380911370936 -0.0024136907209005793 -0.011584397326023602 0.002782522215552129 0.01818621012388364
 0.0028511311149592125 0.018175440901101268 -0.0024136907209005793 -0.011584397326023602 0.008720664592581005 0.03926395477962871 0.9890272700819904 -0.09229544688072243
 -0.002414586285975695 -0.011584326072555055 0.002782522215552129 0.01818621012388364 0.9890272700819904 -0.09229544688072243 0.008731648317461456 0.03926303839929231
0.131304710296 0.009300421618270199 0.04140003905445196 0.9882598238466237 -0.09705678698268427 0.0031126554239908916 0.019076276787735595 -0.002634414555701827 -0.012159590348949674
 0.9882598238466237 -0.09705678698268427 0.009313982381283777 0.041398871967630466 -0.002633430140854886 -0.012159674457258013 0.003036996487774172 0.019088467475099992
 0.0031126554239908916 0.019076276787735595 -0.002633430140854886 -0.012159674457258013 0.009301233184633564 0.04140161932959364 0.9882599400346751 -0.09705499870617706
 -0.002634414555701827 -0.012159590348949674 0.003036996487774172 0.019088467475099992 0.9882599400346751 -0.09705499870617706 0.009313343549777873 0.04140060932520853
0.1375573155481 0.009777917241892324 0.04327348450511362 0.9875885377284178 -0.10155055830410276 0.0033553153963858805 0.01994809526977507 -0.0028335962887296178 -0.012706176943449065
 0.9875885377284178 -0.10155055830410276 0.009792805546583188 0.043272222282465474 -0.002832516980854508 -0.012706274101564224 0.003272429936871225 0.019961697621228278
 0.0033553153963858805 0.01994809526977507 -0.002832516980854508 -0.012706274101564224 0.009778805678745504 0.043275125273346204 0.9875886658071533 -0.10154868113708557
 -0.0028335962887296178 -0.012706176943449065 0.003272429936871225 0.019961697621228278 0.9875886658071533 -0.10154868113708557 0.009792103578388197 0.04327403897020432
0.1438099208003 0.010272383885990484 0.0451360132129193 0.9868932946494279 -0.10603185960678908 0.0036077480418710115 0.020815655225788737 -0.003040697643986278 -0.013248893586655564
 0.9868932946494279 -0.10603185960678908 0.010288662543943644 0.045134650012008455 -0.003039519155526252 -0.013249005001276543 0.0035173217927308527 0.020830777033530444
 0.0036077480418710115 0.020815655225788737 -0.003039519155526252 -0.013249005001276543 0.010273352428058291 0.045137712509628176 0.9868934353164358 -0.10602989303768896
 -0.003040697643986278 -0.013248893586655564 0.0035173217927308527 0.020830777033530444 0.9868934353164358 -0.10602989303768896 0.01028789437269604 0.045136545575917154
0.1500625260525 0.010783631028350664 0.04698743808795395 0.9861742898736424 -0.11050054711940574 0.0038698556242580833 0.021678844587407986 -0.0032556244150837763 -0.013787636686146392
 0.9861742898736424 -0.11050054711940574 0.01080136299195194 0.046985967735039505 -0.003254342468802005 -0.013787763612841498 0.003771576518893254 0.02169559757530053
 0.0038698556242580833 0.021678844587407986 -0.003254342468802005 -0.013787763612841498 0.010784682872014121 0.046989193871357464 0.9861744438468011 -0.11049849061892457
 -0.0032556244150837763 -0.013787636686146392 0.003771576518893254 0.02169559757530053 0.9861744438468011 -0.11049849061892457 0.010800525534883178 0.046987941703640235
0.15631513130469998 0.011311466599696694 0.04882757762779112 0.9854317198729129 -0.11495647829578323 0.004141539128947311 0.022537553423771527 -0.003478281129928289 -0.014322305036319162
 0.9854317198729129 -0.11495647829578323 0.011330714965482226 0.04882599361057978 -0.003476891459077882 -0.014322448779293164 0.004035097339279505 0.02255605320074906
