! Created with skrf 1.8.0 (http://scikit-rf.org).
# GHz S RI R 50.0 
!freq ReS11 ImS11 ReS12 ImS12 ReS13 ImS13
! ReS14 ImS14
! ReS21 ImS21 ReS22 ImS22 ReS23 ImS23
! ReS24 ImS24
! ReS31 ImS31 ReS32 ImS32 ReS33 ImS33
! ReS34 ImS34
! ReS41 ImS41 ReS42 ImS42 ReS43 ImS43
! ReS44 ImS44
!
0.0 0.00116211790708 0.0 0.9988378820929 0.0 4.439592359228e-05 0.0 -4.439592347005e-05 5.436932557278759e-21
 0.9988378820929 0.0 0.001162117907096 0.0 -4.439592347038e-05 5.436932557319172e-21 4.439592359245e-05 0.0
 4.439592359228e-05 0.0 -4.439592347038e-05 5.436932557319172e-21 0.001162117904434 0.0 0.9988378820903 0.0
 -4.439592347005e-05 5.436932557278759e-21 4.439592359245e-05 0.0 0.9988378820903 0.0 0.001162117904428 0.0
0.005 0.0012495355573828317 0.0009472392881938524 0.9987274051779066 -0.00243569246954259 6.229202654429552e-05 0.0005133288820074428 -6.044922335988995e-05 -0.0003181436783493246
 0.9987274051779066 -0.00243569246954259 0.0012495353091755848 0.0009472393809976823 -6.044828245056768e-05 -0.0003181429193341828 6.230064359695712e-05 0.0005133256553690037
 6.229202654429552e-05 0.0005133288820074428 -6.044828245056768e-05 -0.0003181429193341828 0.0012495365383270536 0.0009473059444566732 0.9987274055002768 -0.0024356253987171074
 -6.044922335988995e-05 -0.0003181436783493246 6.230064359695712e-05 0.0005133256553690037 0.9987274055002768 -0.0024356253987171074 0.0012495349750581853 0.0009473068703481487
0.006252605252188 0.001272216441438147 0.0011878290169412952 0.9986985993142561 -0.003045251243190063 6.726100474667326e-05 0.0006419147699502909 -6.486877189171549e-05 -0.00039811121366843113
 0.9986985993142561 -0.003045251243190063 0.0012722160538360798 0.0011878291278829525 -6.486730801808586e-05 -0.0003981102765973356 6.727446887673923e-05 0.0006419105777432843
 6.726100474667326e-05 0.0006419147699502909 -6.486730801808586e-05 -0.0003981102765973356 0.0012722178998540883 0.0011879123139423352 0.9986985997426309 -0.0030451674258295596
 -6.486877189171549e-05 -0.00039811121366843113 6.727446887673923e-05 0.0006419105777432843 0.9986985997426309 -0.0030451674258295596 0.0012722154559119494 0.0011879134739350753
0.01250521050438 0.0013901804486418903 0.0024010562329597083 0.9985479718093297 -0.006091532421712287 9.499717857343703e-05 0.0012841981704789656 -8.933865636033817e-05 -0.0007983354167969255
 0.9985479718093297 -0.006091532421712287 0.001390178907942761 0.002401056396119571 -8.933289028689991e-05 -0.0007983336681026335 9.505089216254003e-05 0.001284188104057882
 9.499717857343703e-05 0.0012841981704789656 -8.933289028689991e-05 -0.0007983336681026335 0.0013901857359475047 0.002401222554532014 0.998547972977485 -0.006091365044467656
 -8.933865636033817e-05 -0.0007983354167969255 9.505089216254003e-05 0.001284188104057882 0.998547972977485 -0.006091365044467656 0.0013901759735688913 0.0024012249016318104
0.01875781575657 0.001516215604646006 0.0036320683019185666 0.9983858496971262 -0.00914631291792395 0.00012765979468763183 0.0019273401431576568 -0.00011786975171367693 -0.0012000946599738944
 0.9983858496971262 -0.00914631291792395 0.0015162121569523848 0.003632068438865688 -0.00011785689674340266 -0.001200092242427795 0.00012778050774640078 0.0019273222631955465
 0.00012765979468763183 0.0019273401431576568 -0.00011785689674340266 -0.001200092242427795 0.0015162270736007333 0.0036323175341172642 0.9983858518967267 -0.009146062092576481
 -0.00011786975171367693 -0.0012000946599738944 0.00012778050774640078 0.0019273222631955465 0.9983858518967267 -0.009146062092576481 0.0015162051302488376 0.0036323211055414874
0.02501042100875 0.001650524119852271 0.004879184639184615 0.9982120787673844 -0.012211124675969751 0.00016530497076281444 0.0025714077902356442 -0.00015052483263907135 -0.0016032311953581727
 0.9982120787673844 -0.012211124675969751 0.001650518021387787 0.0048791846510063035 -0.00015050213601939277 -0.0016032282720384577 0.00016551947671464702 0.0025713799099459284
 0.00016530497076281444 0.0025714077902356442 -0.00015050213601939277 -0.0016032282720384577 0.0016505441352323903 0.004879516694785159 0.9982120822974457 -0.012210790501174884
 -0.00015052483263907135 -0.0016032311953581727 0.00016551947671464702 0.0025713799099459284 0.9982120822974457 -0.012210790501174884 0.0016505051540253 0.004879521535363335
0.03126302626094 0.0017932994202630975 0.006141565800933935 0.9980264952603233 -0.015286653795021999 0.0002079895572714545 0.003216407080005702 -0.00018736527480016975 -0.002007645774983273
 0.9980264952603233 -0.015286653795021999 0.00179328993649411 0.006141565567666343 -0.00018733001175032392 -0.0020076425296543902 0.0002083247181738957 0.0032163667633457664
 0.0002079895572714545 0.003216407080005702 -0.00018733001175032392 -0.0020076425296543902 0.0017933303496835862 0.006141980618818198 0.998026500416542 -0.015286236356839395
 -0.00018736527480016975 -0.002007645774983273 0.0002083247181738957 0.0032163667633457664 0.998026500416542 -0.015286236356839395 0.001793269476660501 0.006141986780570783
0.037515631513130004 0.0019447308945213578 0.007418683724130996 0.9978289306909178 -0.018373270247828935 0.0002557705915750651 0.0038623204234563336 -0.00022845155160451888 -0.0024132600643793777
 0.9978289306909178 -0.018373270247828935 0.001944717299273564 0.007418683104239688 -0.00022840102215897768 -0.00241325670161269 0.00025625335054909514 0.003862264982225792
 0.0002557705915750651 0.0038623204234563336 -0.00022840102215897768 -0.00241325670161269 0.0019447751087494063 0.0074191812533151895 0.9978289377654265 -0.018372769635542983
 -0.00022845155160451888 -0.0024132600643793777 0.00025625335054909514 0.003862264982225792 0.9978289377654265 -0.018372769635542983 0.001944687491488926 0.007419188795217097
0.043768236765320004 0.0021050057348158064 0.008710160499764556 0.9976192137673903 -0.02147118906115978 0.00030870505479735697 0.004509118104433154 -0.0002738434248163063 -0.0028200052006768467
 0.9976192137673903 -0.02147118906115978 0.0021049873094362197 0.008710159329646567 -0.00027377495192520106 -0.002820001945892414 0.00030936244265202423 0.004509044594983995
 0.00030870505479735697 0.004509118104433154 -0.00027377495192520106 -0.002820001945892414 0.0021050656109585925 0.008710740705614155 0.9976192230510071 -0.021470605360938158
 -0.0002738434248163063 -0.0028200052006768467 0.00030936244265202423 0.004509044594983995 0.9976192230510071 -0.021470605360938158 0.0021049463972222186 0.008710749693472412
0.050020842017509996 0.002274309803088504 0.010015701771434746 0.9973971713363936 -0.024580536869257583 0.0003668497340243229 0.005156762987258391 -0.0003236000277957608 -0.003227817072977612
 0.9973971713363936 -0.024580536869257583 0.0022742858355499066 0.010015699864965555 -0.00032351095603732184 -0.0032278141724570004 0.0003677088730922056 0.005156668207043865
 0.0003668497340243229 0.005156762987258391 -0.00032351095603732184 -0.0032278141724570004 0.0022743877236429165 0.01001636462080152 0.9973971831172357 -0.02457987017874656
 -0.0003236000277957608 -0.003227817072977612 0.0003677088730922056 0.005156668207043865 0.9973971831172357 -0.02457987017874656 0.002274232060525394 0.010016375127227745
0.055454545454549996 0.002428916694826751 0.011161488740103833 0.9971940644350226 -0.027291992184072154 0.0004216544446613526 0.005720241347087344 -0.00037043019805790156 -0.0035830363204973465
 0.9971940644350226 -0.027291992184072154 0.0024288873373341743 0.011161486024650833 -0.00037032108486711405 -0.0035830339440468075 0.00042271101089682135 0.005720125277347627
 0.0004216544446613526 0.005720241347087344 -0.00037032108486711405 -0.0035830339440468075 0.002429012236341705 0.011162223387975671 0.9971940786180822 -0.027291253455966145
 -0.00037043019805790156 -0.0035830363204973465 0.00042271101089682135 0.005720125277347627 0.9971940786180822 -0.027291253455966145 0.0024288209551761213 0.011162235278306537
0.056273447269699996 0.0024528280883186412 0.011335064014253172 0.9971626289203893 -0.027701384586483586 0.00043026113069052246 0.005805212835862871 -0.00037777990123254575 -0.0036366339916061234
 0.9971626289203893 -0.027701384586483586 0.002452797872516031 0.011335061162226344 -0.00037766759594177584 -0.0036366317124812077 0.0004313492368707035 0.005805093319910295
 0.00043026113069052246 0.005805212835862871 -0.00037766759594177584 -0.0036366317124812077 0.0024529264418412466 0.011335809481658321 0.9971626434838284 -0.027700635008390533
 -0.00037777990123254575 -0.0036366339916061234 0.0004313492368707035 0.005805093319910295 0.9971626434838284 -0.027700635008390533 0.0024527294747329056 0.011335821586026794
0.06252605252188 0.002640744964962545 0.012668036571065416 0.9969154110577585 -0.030833765322715704 0.0004989953937802672 0.006454421572205171 -0.0004364410029369312 -0.004046395418778208
 0.9969154110577585 -0.030833765322715704 0.0026407077998198995 0.01266803254086809 -0.00043630284953589184 -0.0040463940490360895 0.0005003397774279729 0.0064542735895551035
 0.0004989953937802672 0.006454421572205171 -0.00043630284953589184 -0.0040463940490360895 0.002640866147276026 0.01266886463526829 0.9969154286872698 -0.03083293296807988
 -0.0004364410029369312 -0.004046395418778208 0.0005003397774279729 0.0064542735895551035 0.9969154286872698 -0.03083293296807988 0.002640623019151912 0.012668878423740456
0.06877865777407 0.0028382443458980075 0.014014430925590073 0.9966553415392879 -0.03397768506254857 0.0005731082635846686 0.007104340033145722 -0.0004996407060029888 -0.004457041201734407
 0.9966553415392879 -0.03397768506254857 0.0028381995345049694 0.014014425460674686 -0.0004994741095054686 -0.004457041050190295 0.0005747363295740093 0.007104159583260145
 0.0005731082635846686 0.007104340033145722 -0.0004994741095054686 -0.004457041050190295 0.0028383907589212445 0.01401534156968835 0.9966553625149653 -0.033976770050357256
 -0.0004996407060029888 -0.004457041201734407 0.0005747363295740093 0.007104159583260145 0.9966553625149653 -0.033976770050357256 0.0028380966096404423 0.014015357135210661
0.07503126302626001 0.0030455097693350593 0.015374073908386956 0.9963822435803261 -0.03713312941238427 0.0006526550242011293 0.007754916444773673 -0.0005674357871514816 -0.004868511089439147
 0.9963822435803261 -0.03713312941238427 0.0030454566183158705 0.015374066727869758 -0.0005672381718470671 -0.004868512485730065 0.0006545942715028707 0.0077546992539155235
 0.0006526550242011293 0.007754916444773673 -0.0005672381718470671 -0.004868512485730065 0.0030456838219510723 0.015375067123443812 0.9963822681786277 -0.03713213186567642
 -0.0005674357871514816 -0.004868511089439147 0.0006545942715028707 0.0077546992539155235 0.9963822681786277 -0.03713213186567642 0.0030453337872483883 0.015375084565828057
0.08128386827845 0.0032627244489857555 0.016746803178091418 0.996095939957015 -0.040300068073184515 0.0007376904605422318 0.008406096735253188 -0.0006398824098401304 -0.005280744411889597
 0.996095939957015 -0.040300068073184515 0.00326266226727617 0.01674679397637272 -0.0006396512189314866 -0.00528074770645136 0.0007399684812089723 0.008405838252865987
 0.0007376904605422318 0.008406096735253188 -0.0006396512189314866 -0.00528074770645136 0.0032629285575499346 0.0167478789532325 0.9960959684514206 -0.04029898812870112
 -0.0006398824098401304 -0.005280744411889597 0.0007399684812089723 0.008405838252865987 0.9960959684514206 -0.04029898812870112 0.0032625177686252385 0.01674789837918867
0.08753647353064001 0.003490071297576262 0.01813246408267292 0.9957962531184428 -0.043478457934340464 0.0008282688176762581 0.00905782475401611 -0.0007170361038924163 -0.00569367985424008
 0.9957962531184428 -0.043478457934340464 0.003489999395700388 0.018132452529007772 -0.0007167687993068209 -0.005693685418290364 0.0008309132955572825 0.009057520149119987
 0.0008282688176762581 0.00905782475401611 -0.0007167687993068209 -0.005693685418290364 0.0034903078856857654 0.018133622416334372 0.9957962857786751 -0.04347729573103374
 -0.0007170361038924163 -0.00569367985424008 0.0008309132955572825 0.009057520149119987 0.9957962857786751 -0.04347729573103374 0.003489831468404832 0.018133643939557357
0.09378907878283 0.003727732932271985 0.01953090743507711 0.9954830052818051 -0.0466682452542548 0.0009244437626480784 0.009710042423542288 -0.0007989517418805232 -0.006107255299624953
 0.9954830052818051 -0.0466682452542548 0.003727650621502449 0.0195308931732219 -0.0007986458041313574 -0.0061072635251370536 0.0009274824717832596 0.009709686581114778
 0.0009244437626480784 0.009710042423542288 -0.0007986458041313574 -0.0061072635251370536 0.003728004431827551 0.019532148322214983 0.99548304237421 -0.04666700094576604
 -0.0007989517418805232 -0.006107255299624953 0.0009274824717832596 0.009709686581114778 0.99548304237421 -0.04666700094576604 0.0037274575059068325 0.019532172063496545
0.100041684035 0.003975891668750753 0.020941987859810326 0.995156018518041 -0.049869367271496046 0.001026268347198316 0.010362689853856544 -0.0008856835137668868 -0.006521407710560926
 0.995156018518041 -0.049869367271496046 0.003975798260097773 0.020941970507670906 -0.0008853364417853673 -0.006521419010245262 0.0010297291500078359 0.010362277371220472
 0.001026268347198316 0.010362689853856544 -0.0008853364417853673 -0.006521419010245262 0.003976200519011109 0.020943311301727247 0.9951560603044919 -0.04986804101605034
 -0.0008856835137668868 -0.006521407710560926 0.0010297291500078359 0.010362277371220472 0.9951560603044919 -0.04986804101605034 0.003975578197484472 0.020943337389041295
0.1059090909091 0.004218471447143138 0.022277503223306395 0.9948365221600728 -0.05288352676244217 0.0011270048907338999 0.010975466240171355 -0.0009714999524675132 -0.006910513531133019
 0.9948365221600728 -0.05288352676244217 0.004218366996516889 0.02227748260041644 -0.0009711120220163943 -0.006910528109402789 0.0011308872010755487 0.010974995433632255
 0.0011270048907338999 0.010975466240171355 -0.0009711120220163943 -0.006910528109402789 0.0042188175731077675 0.02227890413499998 0.9948365685859877 -0.05288212376215472
 -0.0009714999524675132 -0.006910513531133019 0.0011308872010755487 0.010974995433632255 0.9948365685859877 -0.05288212376215472 0.004218120049502902 0.022278932546749522
0.1062942892872 0.004234729504387399 0.022365562562511064 0.9948151148279937 -0.05308175339403706 0.0011337949713689762 0.011015705424379744 -0.0009772848998514177 -0.006936073044364311
 0.9948151148279937 -0.05308175339403706 0.004234624307560769 0.022365541711794387 -0.0009768942109060963 -0.00693608785163775 0.0011377058165122247 0.011015230607598785
 0.0011337949713689762 0.011015705424379744 -0.0009768942109060963 -0.00693608785163775 0.004235078153150781 0.02236696855947156 0.9948151615664445 -0.053080345361507825
 -0.0009772848998514177 -0.006936073044364311 0.0011377058165122247 0.011015230607598785 0.9948151615664445 -0.053080345361507825 0.004234375541588144 0.02236699712813115
0.11254689453939999 0.004504428095769033 0.023801490377707544 0.9944601162145453 -0.05630532611198912 0.0012470753477393367 0.011669025851738691 -0.001073808642194841 -0.007351186183975555
 0.9944601162145453 -0.05630532611198912 0.004504310418378453 0.023801465593588377 -0.0010733718718541972 -0.007351204952938482 0.0012514642678931019 0.011668482712061883
 0.0012470753477393367 0.011669025851738691 -0.0010733718718541972 -0.007351204952938482 0.004504818999003429 0.02380297893424613 0.9944601681579821 -0.05630383647823971
 -0.001073808642194841 -0.007351186183975555 0.0012514642678931019 0.011668482712061883 0.9944601681579821 -0.05630383647823971 0.00450403119467192 0.023803010127051456
0.11879949979160001 0.004785168729963695 0.025249631035675534 0.9940908447501028 -0.059540001692589196 0.0013661604657222274 0.012322586238332689 -0.0011753067153166413 -0.007766680889528827
 0.9940908447501028 -0.059540001692589196 0.00478503787646507 0.025249601856510682 -0.0011748214173621719 -0.007766704094936274 0.0013710555752210268 0.012321968488589316
 0.0013661604657222274 0.012322586238332689 -0.0011748214173621719 -0.007766704094936274 0.004785604352283989 0.025251202153578657 0.9940909021469455 -0.05953843064622955
 -0.0011753067153166413 -0.007766680889528827 0.0013710555752210268 0.012321968488589316 0.9940909021469455 -0.05953843064622955 0.004784726443702541 0.02525123612097168
0.1250521050438 0.005077132291974994 0.0267098445675091 0.9937071226415642 -0.06278569073867696 0.0014911005561911122 0.012976320115412028 -0.0012818302958166156 -0.008182489756886478
 0.9937071226415642 -0.06278569073867696 0.0050769875626597485 0.02670981050456325 -0.0012812940422519926 -0.008182517894113244 0.0014965300484025667 0.012975621166492264
 0.0014911005561911122 0.012976320115412028 -0.0012812940422519926 -0.008182517894113244 0.005077615106858823 0.02671149825194511 0.9937071857353922 -0.06278403847451618
 -0.0012818302958166156 -0.008182489756886478 0.0014965300484025667 0.012975621166492264 0.9937071857353922 -0.06278403847451618 0.0050766421729436404 0.026711535152199452
0.131304710296 0.005380499228208506 0.02818199083692492 0.9933087722931752 -0.06604229862189279 0.001621945056264738 0.013630159474381736 -0.001393429731112158 -0.00859854418945863
 0.9933087722931752 -0.06604229862189279 0.005380339918077787 0.028181951374097985 -0.001392840112134019 -0.00859857777447301 0.0016279372008911168 0.013629372431691537
 0.001621945056264738 0.013630159474381736 -0.001392840112134019 -0.00859857777447301 0.005381031717950805 0.02818372709426957 0.9933088413220977 -0.06604056534282593
 -0.001393429731112158 -0.00859854418945863 0.0016279372008911168 0.013629372431691537 0.9933088413220977 -0.06604056534282593 0.005379958827250901 0.028183767093712418
0.1375573155481 0.005617963448108024 0.02947219395958414 0.9929731212247328 -0.06911593996632863 0.0017398940002293255 0.014263482465867573 -0.0014913004061716613 -0.008994235202857298
 0.9929731212247328 -0.06911593996632863 0.0056177876623254045 0.02947214891897333 -0.0014906537875788765 -0.008994274146769626 0.0017464612765528693 0.014262609703738474
 0.0017398940002293255 0.014263482465867573 -0.0014906537875788765 -0.008994274146769626 0.005618547459071041 0.029474012939424792 0.9929731964551312 -0.06911412584569802
 -0.0014913004061716613 -0.008994235202857298 0.0017464612765528693 0.014262609703738474 0.9929731964551312 -0.06911412584569802 0.005617369717690328 0.029474056227431905
0.1438099208003 0.005863474616026863 0.030756823810203796 0.9926262074397207 -0.07218305839024648 0.0018626044390737727 0.014895087512193856 -0.0015931048816729518 -0.009388351002963884
 0.9926262074397207 -0.07218305839024648 0.0058632814324689145 0.030756772721263606 -0.0015923986590802121 -0.009388395801793601 0.001869772364175362 0.014894122867010374
 0.0018626044390737727 0.014895087512193856 -0.0015923986590802121 -0.009388395801793601 0.005864112529137195 0.03075872555272967 0.9926262891071453 -0.07218116363922067
 -0.0015931048816729518 -0.009388351002963884 0.001869772364175362 0.014894122867010374 0.9926262891071453 -0.07218116363922067 0.005862825003663229 0.03075877232638326
0.1500625260525 0.006116961223674593 0.0320358101586409 0.9922681051010876 -0.07524361595263404 0.001990043398882458 0.015524937834188976 -0.001698810991340079 -0.009780855335398901
 0.9922681051010876 -0.07524361595263404 0.006116749702504621 0.03203575253579074 -0.0016980425629867903 -0.009780906504866826 0.00199783737795137 0.015523874921828528
 0.001990043398882458 0.015524937834188976 -0.0016980425629867903 -0.009780906504866826 0.00611765542128522 0.03203779470821907 0.9922681934362914 -0.07524164078970318
 -0.001698810991340079 -0.009780855335398901 0.00199783737795137 0.015523874921828528 0.9922681934362914 -0.07524164078970318 0.006116253170187329 0.03203784517530944
0.15631513130469998 0.006378351423147414 0.033309085135116386 0.9918988885627873 -0.07829757415213702 0.002122177624692222 0.016152997121655358 -0.0018083862707216254 -0.01017171262118789
