! Created with skrf 1.8.0 (http://scikit-rf.org).
# GHz S RI R 50.0 
!freq ReS11 ImS11 ReS12 ImS12 ReS13 ImS13
! ReS14 ImS14
! ReS21 ImS21 ReS22 ImS22 ReS23 ImS23
! ReS24 ImS24
! ReS31 ImS31 ReS32 ImS32 ReS33 ImS33
! ReS34 ImS34
! ReS41 ImS41 ReS42 ImS42 ReS43 ImS43
! ReS44 ImS44
!
0.0 0.001101058055997 0.0 0.9988989419438 0.0 4.216233789409e-05 0.0 -4.216233643408e-05 5.16339703585699e-21
 0.9988989419438 0.0 0.001101058056029 0.0 -4.216233643483e-05 5.163397035948839e-21 4.216233789471e-05 0.0
 4.216233789409e-05 0.0 -4.216233643483e-05 5.163397035948839e-21 0.001101058051036 0.0 0.9988989419388 0.0
 -4.216233643408e-05 5.16339703585699e-21 4.216233789471e-05 0.0 0.9988989419388 0.0 0.001101058051024 0.0
0.005 0.0011838033356481679 0.0008930971546809451 0.9987943769610839 -0.0023081731406788823 5.971614807681492e-05 0.0005141058463151848 -5.782214072594199e-05 -0.0003142204439553474
 0.9987943769610839 -0.0023081731406788823 0.0011837936590716244 0.0008931028319656192 -5.782259171333495e-05 -0.00031422083361400815 5.97741317197022e-05 0.0005140838575593125
 5.971614807681492e-05 0.0005141058463151848 -5.782259171333495e-05 -0.00031422083361400815 0.0011838032249594553 0.000893164504157669 0.9987943772869708 -0.002308106073762317
 -5.782214072594199e-05 -0.0003142204439553474 5.97741317197022e-05 0.0005140838575593125 0.9987943772869708 -0.002308106073762317 0.0011837944149421951 0.000893169608716391
0.006252605252188 0.0012052368553607889 0.0011199614477645638 0.9987671630338081 -0.002885826303787234 6.45651277918501e-05 0.0006428769489089898 -6.211869896508555e-05 -0.00039320999429689265
 0.9987671630338081 -0.002885826303787234 0.0012052217287107899 0.0011199686491607846 -6.211940040571239e-05 -0.0003932104758818568 6.465572446370185e-05 0.0006428484269128091
 6.45651277918501e-05 0.0006428769489089898 -6.211940040571239e-05 -0.0003932104758818568 0.0012052365967356916 0.0011200456273028345 0.9987671634582109 -0.0028857424778584283
 -6.211869896508555e-05 -0.00039320999429689265 6.465572446370185e-05 0.0006428484269128091 0.9987671634582109 -0.0028857424778584283 0.0012052228253774228 0.0011200521048784062
0.01250521050438 0.0013165064096164272 0.002264090730667304 0.9986251523805003 -0.005772712082620556 9.149600445758563e-05 0.0012860583129645714 -8.58269089078638e-05 -0.0007885554413527552
 0.9986251523805003 -0.005772712082620556 0.0013164460022599492 0.0022641061795732375 -8.582966931546366e-05 -0.000788556346139663 9.185734286371315e-05 0.0012859903098790943
 9.149600445758563e-05 0.0012860583129645714 -8.582966931546366e-05 -0.000788556346139663 0.0013165048248469262 0.0022642588312540715 0.9986251535313279 -0.005772544672892561
 -8.58269089078638e-05 -0.0007885554413527552 9.185734286371315e-05 0.0012859903098790943 0.9986251535313279 -0.005772544672892561 0.001316449839907035 0.002264272747369479
0.01875781575657 0.0014350525921889954 0.003425172153792799 0.9984727745906017 -0.008667747978920374 0.000123007038665487 0.0019300677602420396 -0.00011334770429269171 -0.0011854342555871272
 0.9984727745906017 -0.008667747978920374 0.0014349168418851402 0.0034251969510578667 -0.00011335385491378058 -0.0011854355183933737 0.000123818890347155 0.001929947671442254
 0.000123007038665487 0.0019300677602420396 -0.00011335385491378058 -0.0011854355183933737 0.0014350485952011496 0.0034254240655345164 0.9984727767585584 -0.008667497030060627
 -0.00011334770429269171 -0.0011854342555871272 0.000123818890347155 0.001929947671442254 0.9984727767585584 -0.008667497030060627 0.0014349250507626797 0.003425446415713451
0.02501042100875 0.0015610586366061102 0.004601617598328669 0.9983098907327578 -0.011572393035096676 0.0001591508792125092 0.0025749837940640275 -0.0001447404808199427 -0.0015836871176796597
 0.9983098907327578 -0.011572393035096676 0.0015608175350154303 0.004601652888415456 -0.0001447513355455599 -0.0015836886650191634 0.00016059319097422615 0.002574797450182646
 0.0001591508792125092 0.0025749837940640275 -0.0001447513355455599 -0.0015836886650191634 0.0015610511381750549 0.004601953188481131 0.9983098942150459 -0.01157205856512831
 -0.0001447404808199427 -0.0015836871176796597 0.00016059319097422615 0.002574797450182646 0.9983098942150459 -0.01157205856512831 0.0015608317496813042 0.004601984992640672
0.03126302626094 0.0016946996799089308 0.005792636961861309 0.998136352968259 -0.014487304223823572 0.00019998090063683846 0.0032208207354196025 -0.00018006328564216273 -0.001983216530954469
 0.998136352968259 -0.014487304223823572 0.001694323257647691 0.005792683930680796 -0.0001800801440912915 -0.0019832182808539184 0.00020223397222387607 0.003220552394899942
 0.00019998090063683846 0.0032208207354196025 -0.0001800801440912915 -0.0019832182808539184 0.0016946875812037996 0.005793056094132713 0.9981363580637479 -0.014486886204608024
 -0.00018006328564216273 -0.001983216530954469 0.00020223397222387607 0.003220552394899942 0.9981363580637479 -0.014486886204608024 0.0016943451112518336 0.005793098394310953
0.037515631513130004 0.0018361471777291172 0.006997735713315281 0.9979520090333132 -0.017412838855571124 0.00024555069830149576 0.00386756830151779 -0.00021937332240106196 -0.0023839472364541197
 0.9979520090333132 -0.017412838855571124 0.0018356054952347466 0.0069977955870150115 -0.00021939747149533315 -0.002383949098410207 0.0002487952688138159 0.003867200634363914
 0.00024555069830149576 0.00386756830151779 -0.00021939747149533315 -0.002383949098410207 0.0018361293709565542 0.006998238227065395 0.9979520160442118 -0.01741233723348647
 -0.00021937332240106196 -0.0023839472364541197 0.0002487952688138159 0.003867200634363914 0.9979520160442118 -0.01741233723348647 0.001835636620737754 0.006998292085948497
0.043768236765320004 0.0019855706195362316 0.008216561949107786 0.9977567040195356 -0.020349207481035633 0.0002959138608300236 0.00451520364284418 -0.00026272715172365933 -0.00278581416513856
 0.9977567040195356 -0.020349207481035633 0.001984833760143506 0.008216635993275342 -0.0002627598667161979 -0.002785816040109886 0.0003003311560985733 0.00451471771164797
 0.0002959138608300236 0.00451520364284418 -0.0002627598667161979 -0.002785816040109886 0.0019855459873427956 0.008217147654980156 0.9977567132519686 -0.020348622181175165
 -0.00026272715172365933 -0.00278581416513856 0.0003003311560985733 0.00451471771164797 0.9977567132519686 -0.020348622181175165 0.0019848757896579906 0.008217214154831178
0.050020842017509996 0.0021431383319134036 0.0094488432213893 0.9975502812431934 -0.023296537020047737 0.0003511238461894337 0.005163696308742886 -0.00031018077784333967 -0.0031887574606148713
 0.9975502812431934 -0.023296537020047737 0.0021421763962920356 0.00944893274042597 -0.0003102233229613241 -0.003188759241034217 0.00035689560589752885 0.005163071548548556
 0.0003511238461894337 0.005163696308742886 -0.0003102233229613241 -0.003188759241034217 0.0021431057456071856 0.009449511912617906 0.9975502930063634 -0.02329586793482257
 -0.00031018077784333967 -0.0031887574606148713 0.00035689560589752885 0.005163071548548556 0.9975502930063634 -0.02329586793482257 0.00214223095944566 0.009449592154305903
0.055454545454549996 0.0022868137659694866 0.010530485274119632 0.9973617419556634 -0.02586681595191311 0.0004030805669806727 0.0057279247847226 -0.0003547920618100829 -0.003539757148625
 0.9973617419556634 -0.02586681595191311 0.0022856319600200797 0.01053058933039086 -0.00035484416812171614 -0.003539758752909538 0.0004101774023403413 0.005727161397055117
 0.0004030805669806727 0.0057279247847226 -0.00035484416812171614 -0.003539758752909538 0.002286773342599194 0.010531225886837076 0.9973617561733485 -0.025866073955660956
 -0.0003547920618100829 -0.003539757148625 0.0004101774023403413 0.005727161397055117 0.9973617561733485 -0.025866073955660956 0.002285698737567744 0.010531318978475653
0.056273447269699996 0.002309017905900478 0.010694355521243188 0.9973325827392746 -0.02625490173503509 0.00041123389772824336 0.005813010689886547 -0.0003617896904878237 -0.0035927200250130426
 0.9973325827392746 -0.02625490173503509 0.002307801006938678 0.010694461857878567 -0.0003618433194265915 -0.003592721594805396 0.00041854238999019714 0.005812224887481968
 0.00041123389772824336 0.005813010689886547 -0.0003618433194265915 -0.003592721594805396 0.002308976226374585 0.010695106956660712 0.9973325973476436 -0.02625414874102158
 -0.0003617896904878237 -0.0035927200250130426 0.00041854238999019714 0.005812224887481968 0.9973325973476436 -0.02625414874102158 0.002307869731815935 0.010695202058850455
0.06252605252188 0.0024833764399804807 0.011952906219616624 0.9971034495727349 -0.029224340246819497 0.0004762969848452882 0.00646310734241627 -0.0004176088788653519 -0.0039976461836455255
 0.9971034495727349 -0.029224340246819497 0.0024818746985972506 0.011953030754497784 -0.0004176748351546061 -0.0039976474182419714 0.0004853250131317759 0.006462136615311547
 0.0004762969848452882 0.00646310734241627 -0.0004176748351546061 -0.0039976474182419714 0.002483324515804989 0.01195374013346983 0.9971034673451346 -0.029223503194873563
 -0.0004176088788653519 -0.0039976461836455255 0.0004853250131317759 0.006462136615311547 0.9971034673451346 -0.029223503194873563 0.0024819592095347326 0.011953851231954107
0.06877865777407 0.0026663806833371775 0.013224323909635419 0.996862722050595 -0.032204865649518986 0.0005463657538700788 0.007113943787870976 -0.0004776928337009017 -0.004403480874525018
 0.996862722050595 -0.032204865649518986 0.0026645642237333044 0.013224468061102971 -0.000477772350970176 -0.004403481640893881 0.0005572966581080963 0.007112762563089464
 0.0005463657538700788 0.007113943787870976 -0.000477772350970176 -0.004403481640893881 0.002666317351393487 0.013225240003945751 0.9968627433117182 -0.03220394437235373
 -0.0004776928337009017 -0.004403480874525018 0.0005572966581080963 0.007112762563089464 0.9968627433117182 -0.03220394437235373 0.0026646661420498484 0.013225368250961333
0.07503126302626001 0.0028581971216851986 0.014508451953957988 0.9966102398788224 -0.035196471920856405 0.0006214924863509001 0.007765475010458594 -0.0005420955400801296 -0.004810169141334699
 0.9966102398788224 -0.035196471920856405 0.0028560360676351338 0.014508617177794768 -0.0005421898422801368 -0.004810169297996492 0.000634510140121395 0.007764056003258831
 0.0006214924863509001 0.007765475010458594 -0.0005421898422801368 -0.004810169297996492 0.002858121205801607 0.014509449906504492 0.9966102649593568 -0.0351954662249167
 -0.0005420955400801296 -0.004810169141334699 0.000634510140121395 0.007764056003258831 0.9966102649593568 -0.0351954662249167 0.0028561570100809914 0.014509596470240851
0.08128386827845 0.0030589920264123853 0.015805144206445933 0.9963458422831669 -0.038199138158887654 0.0007017290615112781 0.008417653787770003 -0.000610870464982505 -0.00521765579382879
 0.9963458422831669 -0.038199138158887654 0.0030564564970384724 0.01580533199578197 -0.0006109807665544057 -0.005217655190886028 0.0007170178660338835 0.008415967980324473
 0.0007017290615112781 0.008417653787770003 -0.0006109807665544057 -0.005217655190886028 0.0030589023375563163 0.01580622366167119 0.9963458715206878 -0.038198047833515214
 -0.000610870464982505 -0.00521765579382879 0.0007170178660338835 0.008415967980324473 0.9963458715206878 -0.038198047833515214 0.003056598075819438 0.0158063897257948
0.08753647353064001 0.003268931480669368 0.017114262032508626 0.9960693681085193 -0.04121283152101234 0.0007871269211018885 0.009070430920218881 -0.0006840705412005952 -0.005625885170447673
 0.9960693681085193 -0.04121283152101234 0.0032659915866707755 0.017114473917825314 -0.000684198047246509 -0.005625883649604795 0.0008048717968358347 0.009068447540303977
 0.0007871269211018885 0.009070430920218881 -0.000684198047246509 -0.005625883649604795 0.0032688268155918357 0.01711542261167206 0.996069401847449 -0.04121165632818312
 -0.0006840705412005952 -0.005625885170447673 0.0008048717968358347 0.009068447540303977 0.996069401847449 -0.04121165632818312 0.0032661554077584357 0.017115609375006578
0.09378907878283 0.0034881813875367257 0.01843567219789834 0.995780655901771 -0.044237509295330116 0.00087773703642294 0.009723755392242158 -0.0007617481482122929 -0.006034800970184129
 0.995780655901771 -0.044237509295330116 0.003484807227200772 0.0184359097470284 -0.0007618940545988619 -0.006034798364774391 0.0008981234125872177 0.009721441891960917
 0.00087773703642294 0.009723755392242158 -0.0007618940545988619 -0.006034798364774391 0.003488060529070667 0.018436913488488693 0.9957806944945714 -0.044236248980238986
 -0.0007617481482122929 -0.006034800970184129 0.0008981234125872177 0.009721441891960917 0.9957806944945714 -0.044236248980238986 0.003484994890511759 0.018437122164712026
0.100041684035 0.0037169074695525936 0.019769245304657637 0.9954795439871303 -0.04727312042579595 0.0009736098763890951 0.010377574488442247 -0.0008439550910268025 -0.0064443461305423175
 0.9954795439871303 -0.04727312042579595 0.0037130691247850164 0.019769510122985633 -0.0008441205844643404 -0.006444342265553067 0.000996823678806125 0.010374896523028561
 0.0009736098763890951 0.010377574488442247 -0.0008441205844643404 -0.006444342265553067 0.003716769185217928 0.019770566866288444 0.9954795877943148 -0.04727177471101504
 -0.0008439550910268025 -0.0064443461305423175 0.000996823678806125 0.010374896523028561 0.9954795877943148 -0.04727177471101504 0.0037132822227260056 0.01977079868374349
0.1059090909091 0.003940308570468039 0.021031611364598152 0.9951855608375986 -0.050131611455544484 0.0010684072465565895 0.010991515848908623 -0.0009252625923033417 -0.006829181640684848
 0.9951855608375986 -0.050131611455544484 0.003936007409876231 0.02103190326591387 -0.0009254475373470775 -0.006829176427132183 0.0010944438165682163 0.010988463016267862
 0.0010684072465565895 0.010991515848908623 -0.0009254475373470775 -0.006829176427132183 0.00394015279927844 0.021033007826942736 0.9951856098739622 -0.05013018532955242
 -0.0009252625923033417 -0.006829181640684848 0.0010944438165682163 0.010988463016267862 0.9951856098739622 -0.05013018532955242 0.003936245816753793 0.021033262490133178
0.1062942892872 0.0039552752566597614 0.021114854624703614 0.9951658705316297 -0.050319606640933136 0.0010747953759602101 0.01103183388395108 -0.0009307425777784547 -0.006854462732375056
 0.9951658705316297 -0.050319606640933136 0.003950942789303282 0.0211151483554086 -0.0009309288359246581 -0.006854457424475601 0.0011010230135208366 0.01102875529065262
 0.0010747953759602101 0.01103183388395108 -0.0009309288359246581 -0.006854457424475601 0.003955118298767843 0.021116255989626777 0.995165919922897 -0.05031817522592068
 -0.0009307425777784547 -0.006854462732375056 0.0011010230135208366 0.01102875529065262 0.995165919922897 -0.05031817522592068 0.003951182906455999 0.02111651219122982
0.11254689453939999 0.004203450069972004 0.02247237519624432 0.9948394736071701 -0.05337690332067182 0.001181342905540271 0.011686477710755218 -0.001022161195640098 -0.0072650919298907135
 0.9948394736071701 -0.05337690332067182 0.004198593517720583 0.02247269952060785 -0.0010223693871678464 -0.0072650849874545285 0.0012107712553008152 0.011682960487830634
 0.001181342905540271 0.011686477710755218 -0.0010223693871678464 -0.0072650849874545285 0.004203273174624278 0.02247385586499108 0.9948395289615843 -0.0533753858862093
 -0.001022161195640098 -0.0072650919298907135 0.0012107712553008152 0.011682960487830634 0.9948395289615843 -0.0533753858862093 0.004198862229646797 0.022474137708263134
0.11879949979160001 0.0044615969995659395 0.023841683122887227 0.9945001912485519 -0.0564449401618399 0.0012933012403256153 0.0123414486086887 -0.001118260885950441 -0.007676173897211615
 0.9945001912485519 -0.0564449401618399 0.00445618637210835 0.02384203976076055 -0.0011184921705937978 -0.007676165120342996 0.0013261176315565884 0.012337452894497556
 0.0012933012403256153 0.0123414486086887 -0.0011184921705937978 -0.007676165120342996 0.0044613988864529285 0.023843242571353028 0.9945002529555089 -0.056443336362988206
 -0.001118260885950441 -0.007676173897211615 0.0013261176315565884 0.012337452894497556 0.9945002529555089 -0.056443336362988206 0.004456485244975832 0.023843551328514973
0.1250521050438 0.004729880878781132 0.025222655022937208 0.994147861509028 -0.05952364169451918 0.0014107185298647144 0.012996687769745196 -0.0012190909184163518 -0.008087647782712811
 0.994147861509028 -0.05952364169451918 0.004723886153987995 0.025223045733253856 -0.001219346447056418 -0.008087636963276424 0.0014471107270535334 0.01299217182200374
 0.0014107185298647144 0.012996687769745196 -0.001219346447056418 -0.008087636963276424 0.0047296602501387475 0.02522429269373003 0.9941479299682852 -0.059521951169414125
 -0.0012190909184163518 -0.008087647782712811 0.0014471107270535334 0.01299217182200374 0.9941479299682852 -0.059521951169414125 0.004724216742960501 0.025224629651897607
0.131304710296 0.005008466254982322 0.026615167572154777 0.993782322513177 -0.06261292770623376 0.0015336422677789824 0.013652134970227194 -0.0013246998645306237 -0.008499451676874716
 0.993782322513177 -0.06261292770623376 0.005001857374569862 0.026615594153611588 -0.0013249807791688923 -0.008499438598520275 0.0015737984526815432 0.013647055145432803
 0.0015336422677789824 0.013652134970227194 -0.0013249807791688923 -0.008499438598520275 0.005008221795422763 0.02661688288155743 0.9937823981360325 -0.06261115006928186
 -0.0013246998645306237 -0.008499451676874716 0.0015737984526815432 0.013647055145432803 0.9937823981360325 -0.06261115006928186 0.005002221223930097 0.026617249343067282
0.1375573155481 0.005225099826403362 0.027834550073671485 0.9934758460501695 -0.06552811798837169 0.0016438250834435002 0.014287628018407985 -0.0014167941309714274 -0.008891460449636499
 0.9934758460501695 -0.06552811798837169 0.005217845434116248 0.027835004641724042 -0.001417102227976983 -0.008891445171105444 0.0016878370112840958 0.01428200130793944
 0.0016438250834435002 0.014287628018407985 -0.001417102227976983 -0.008891445171105444 0.005224830922432535 0.02783634233002461 0.9934759291567332 -0.06552625298770014
 -0.0014167941309714274 -0.008891460449636499 0.0016878370112840958 0.01428200130793944 0.9934759291567332 -0.06552625298770014 0.005218243544532731 0.027836730320037847
0.1438099208003 0.005449006227638583 0.029048786703263125 0.9931591971654827 -0.06843726792047426 0.0017584490876337373 0.014921542880396913 -0.0015125955872239425 -0.009282016856041419
 0.9931591971654827 -0.06843726792047426 0.005441076030475881 0.029049270387528615 -0.0015129321139011047 -0.009281999170015653 0.001806488045701602 0.014915330375822065
 0.0017584490876337373 0.014921542880396913 -0.0015129321139011047 -0.009281999170015653 0.0054487116650127525 0.029050655264725715 0.9931592881654232 -0.06843531516999435
 -0.0015125955872239425 -0.009282016856041419 0.001806488045701602 0.014915330375822065 0.9931592881654232 -0.06843531516999435 0.005441509830386927 0.029051065446667378
0.1500625260525 0.0056801221579800085 0.03025781530486077 0.9928324416317402 -0.07134034608062582 0.0018774846195463034 0.015553847094513362 -0.0016120750478371426 -0.009671088097514664
 0.9928324416317402 -0.07134034608062582 0.00567148582258747 0.03025832929913542 -0.0016124412509109095 -0.009671067788461274 0.0019297211631002175 0.01554700850168045
 0.0018774846195463034 0.015553847094513362 -0.0016124412509109095 -0.009671067788461274 0.005679800713499122 0.030259759501053998 0.9928325409444179 -0.07133830517957268
 -0.0016120750478371426 -0.009671088097514664 0.0019297211631002175 0.01554700850168045 0.9928325409444179 -0.07133830517957268 0.005671956722921436 0.030260192585149052
0.15631513130469998 0.005918384036630844 0.03146157587300244 0.9924956453698233 -0.07423732042386644 0.0020009017822151323 0.016184508586331716 -0.0017152030707413774 -0.010058641984070596
