! Created with skrf 1.8.0 (http://scikit-rf.org).
# GHz S RI R 50.0 
!freq ReS11 ImS11 ReS12 ImS12 ReS13 ImS13
! ReS14 ImS14
! ReS21 ImS21 ReS22 ImS22 ReS23 ImS23
! ReS24 ImS24
! ReS31 ImS31 ReS32 ImS32 ReS33 ImS33
! ReS34 ImS34
! ReS41 ImS41 ReS42 ImS42 ReS43 ImS43
! ReS44 ImS44
!
0.0 0.001507481253555 0.0 0.9984925187171 0.0 5.818355789031e-05 0.0 -5.818355707943e-05 7.125430694033127e-21
 0.9984925187171 0.0 0.001507481253559 0.0 -5.818355707955e-05 7.125430694047823e-21 5.818355788956e-05 0.0
 5.818355789031e-05 0.0 -5.818355707955e-05 7.125430694047823e-21 0.001507481258136 0.0 0.9984925187217 0.0
 -5.818355707943e-05 7.125430694033127e-21 5.818355788956e-05 0.0 0.9984925187217 0.0 0.001507481258133 0.0
0.005 0.001621839703791098 0.0012314841994107456 0.998347848298662 -0.0031580302456836323 8.17426368799783e-05 0.0006519682531140609 -7.932355797930608e-05 -0.0004073502527891126
 0.998347848298662 -0.0031580302456836323 0.0016218541731441022 0.0012314757123138957 -7.93193933961843e-05 -0.00040734705664511944 8.167517943907236e-05 0.0006519940765710452
 8.17426368799783e-05 0.0006519682531140609 -7.93193933961843e-05 -0.00040734705664511944 0.0016218421816497674 0.0012315499909369713 0.9983478486540924 -0.0031579631844583654
 -7.932355797930608e-05 -0.0004073502527891126 8.167517943907236e-05 0.0006519940765710452 0.9983478486540924 -0.0031579631844583654 0.001621852402206777 0.001231544040675456
0.006252605252188 0.0016518008466760833 0.001544212357325013 0.9983097092557872 -0.003948315640941732 8.845912784809455e-05 0.0008152728328872547 -8.527924071157393e-05 -0.0005097186646351612
 0.9983097092557872 -0.003948315640941732 0.0016518234650012185 0.0015442015602249676 -8.527276023566598e-05 -0.0005097147237107755 8.835373332486264e-05 0.0008153063374200804
 8.845912784809455e-05 0.0008152728328872547 -8.527276023566598e-05 -0.0005097147237107755 0.0016518046463383027 0.001544294582580326 0.9983097097372811 -0.003948231823978796
 -8.527924071157393e-05 -0.0005097186646351612 8.835373332486264e-05 0.0008153063374200804 0.9983097097372811 -0.003948231823978796 0.001651820622196176 0.001544286962953798
0.01250521050438 0.0018093389707626183 0.0031208848309501945 0.9981078573985194 -0.007897474541103613 0.00012690120333753622 0.0016308808441146377 -0.00011900151668733213 -0.0010219374020872859
 0.9981078573985194 -0.007897474541103613 0.0018094292876280034 0.003120861313447184 -0.00011897597684419366 -0.0010219301141916749 0.00012648096083587513 0.001630961069038797
 0.00012690120333753622 0.0016308808441146377 -0.00011897597684419366 -0.0010219301141916749 0.0018093535830857647 0.0031210489762523138 0.9981078587580617 -0.007897307139607514
 -0.00011900151668733213 -0.0010219374020872859 0.00012648096083587513 0.001630961069038797 0.9981078587580617 -0.007897307139607514 0.0018094173670030536 0.003121031913510416
0.01875781575657 0.0019804342184147144 0.004720095779914727 0.997886716171535 -0.011857096025858861 0.00017359754667199058 0.0024473849471854697 -0.00015945312461764752 -0.001535907486371956
 0.997886716171535 -0.011857096025858861 0.001980637167438846 0.004720057424799482 -0.00015939616826500045 -0.001535897558156774 0.0001726536263452618 0.002447527680414456
 0.00017359754667199058 0.0024473849471854697 -0.00015939616826500045 -0.001535897558156774 0.0019804666352053373 0.004720341595088637 0.9978867188036501 -0.01185684514053075
 -0.00015945312461764752 -0.001535907486371956 0.0001726536263452618 0.002447527680414456 0.9978867188036501 -0.01185684514053075 0.001980609946166767 0.004720313178935929
0.02501042100875 0.0021654154564664163 0.006339608807818884 0.9976460290069491 -0.01582910418506568 0.00022863737415662808 0.0032648246528799362 -0.00020673355780787415 -0.002051396131437647
 0.9976460290069491 -0.01582910418506568 0.0021657758809944462 0.006339553317411671 -0.00020663297462598747 -0.002051384394693128 0.00022696093072878737 0.003265048154780962
 0.00022863737415662808 0.0032648246528799362 -0.00020663297462598747 -0.002051384394693128 0.0021654726606502844 0.006339936029658085 0.9976460333080882 -0.01582876985569545
 -0.00020673355780787415 -0.002051396131437647 0.00022696093072878737 0.003265048154780962 0.9976460333080882 -0.01582876985569545 0.002165727142389837 0.006339894270565085
0.03126302626094 0.0023645979205426187 0.007978275422301643 0.9973855260452789 -0.019814325187675435 0.0002921104699605436 0.004083163135187938 -0.0002609395561075471 -0.002568241390092662
 0.9973855260452789 -0.019814325187675435 0.0023651605956301796 0.007978200320090705 -0.00026078325753286314 -0.002568228803331343 0.00028949244513715427 0.0040834881502646156
 0.0002921104699605436 0.004083163135187938 -0.00026078325753286314 -0.002568228803331343 0.0023646868867954122 0.007978683728442564 0.9973855324113141 -0.01981390743908556
 -0.0002609395561075471 -0.002568241390092662 0.00028949244513715427 0.0040834881502646156 0.9973855324113141 -0.01981390743908556 0.00236508412343191 0.007978626559235362
0.037515631513130004 0.0025782900587929523 0.009635348568771407 0.9971049311831293 -0.023813173688057267 0.00036410627277829464 0.004902333470164759 -0.00032216581282146944 -0.003086305911923108
 0.9971049311831293 -0.023813173688057267 0.002579099705043125 0.009635251199458236 -0.0003219418191952417 -0.003086293560850957 0.00036033730694280967 0.0049027832502077165
 0.00036410627277829464 0.004902333470164759 -0.0003219418191952417 -0.003086293560850957 0.0025784177567165713 0.009635837583062834 0.9971049400122656 -0.023812672524018686
 -0.00032216581282146944 -0.003086305911923108 0.00036033730694280967 0.0049027832502077165 0.9971049400122656 -0.023812672524018686 0.002578989284122689 0.009635762860038396
0.043768236765320004 0.0028067961729021885 0.01131027375618526 0.9968039649234112 -0.027825861631276264 0.00044471344866471216 0.005722252694289153 -0.00039050522885492094 -0.003605462883573636
 0.9968039649234112 -0.027825861631276264 0.0028078974669807502 0.011310151285246392 -0.0003902016618839604 -0.003605451981277354 0.0004395838391798017 0.005722853025077312
 0.00044471344866471216 0.005722252694289153 -0.0003902016618839604 -0.003605451981277354 0.0028069695655095895 0.01131084303116693 0.9968039766140364 -0.027825277051207627
 -0.00039050522885492094 -0.003605462883573636 0.0004395838391798017 0.005722853025077312 0.9968039766140364 -0.027825277051207627 0.0028077468797255635 0.011310748534889723
0.050020842017509996 0.003050417647062262 0.01300260272121479 0.9964823458147098 -0.031852484517939574 0.000534019635556878 0.0065428276142244805 -0.0004660490057577884 -0.00412559021993522
 0.9964823458147098 -0.031852484517939574 0.0030518552299862445 0.013002452134110954 -0.00046565408364834164 -0.004125582106944453 0.0005273193195947291 0.00654360684365052
 0.000534019635556878 0.0065428276142244805 -0.00046565408364834164 -0.004125582106944453 0.003050643692533691 0.013003251750182694 0.9964823607675388 -0.03185181650387668
 -0.0004660490057577884 -0.00412559021993522 0.0005273193195947291 0.00654360684365052 0.9964823607675388 -0.03185181650387668 0.0030516582573798957 0.01300313518617348
0.055454545454549996 0.0032746399574504013 0.014487122179558774 0.9961858569939023 -0.03536307667880017 0.0006187612372329394 0.007256386634456174 -0.0005376192293950053 -0.004578291317314018
 0.9961858569939023 -0.03536307667880017 0.003276406017648832 0.0144869445698911 -0.000537135421158008 -0.00457828681598006 0.0006105250517297336 0.007257346365652136
 0.0006187612372329394 0.007256386634456174 -0.000537135421158008 -0.00457828681598006 0.003274917406412435 0.014487840054576958 0.9961858751082752 -0.03536233613446097
 -0.0005376192293950053 -0.004578291317314018 0.0006105250517297336 0.007257346365652136 0.9961858751082752 -0.03536233613446097 0.003276163681941315 0.014487702391627813
0.056273447269699996 0.003309453579454418 0.014711951051518821 0.9961397912997099 -0.035893063710866195 0.0006321112633992644 0.007363957658977116 -0.0005488866664516479 -0.00464656771590304
 0.9961397912997099 -0.035893063710866195 0.003311272064257959 0.01471176915264665 -0.0005483887006895267 -0.004646563860203416 0.0006236298160290379 0.007364946725775457
 0.0006321112633992644 0.007363957658977116 -0.0005483887006895267 -0.004646563860203416 0.0033097392305011337 0.014712679262254289 0.9961398099170089 -0.03589231223294803
 -0.0005488866664516479 -0.00464656771590304 0.0006236298160290379 0.007364946725775457 0.9961398099170089 -0.03589231223294803 0.003311022484559104 0.014712538261350447
0.06252605252188 0.0035842011225739067 0.01643797490345728 0.9957760182735105 -0.03994756964987417 0.0007390734121123822 0.008185536444718818 -0.000639106039473587 -0.00516827548890263
 0.9957760182735105 -0.03994756964987417 0.0035864451009086753 0.01643775831486992 -0.0006384934325848554 -0.0051682774859244576 0.000728600054006872 0.008186768907418889
 0.0007390734121123822 0.008185536444718818 -0.0006384934325848554 -0.0051682774859244576 0.0035845533261430872 0.01643878165108112 0.9957760409601807 -0.039946734672458316
 -0.000639106039473587 -0.00516827548890263 0.000728600054006872 0.008186768907418889 0.9957760409601807 -0.039946734672458316 0.003586136689668137 0.016438613769692714
0.06877865777407 0.0038749556615902746 0.01818035710160281 0.9953907434859779 -0.04401593568791263 0.0008549896902799921 0.009007452714688462 -0.0007367932220878925 -0.005690593050099418
 0.9953907434859779 -0.04401593568791263 0.003877669710489039 0.01818010226149156 -0.0007360544662597428 -0.005690602622671885 0.0008423133024848476 0.009008964780584832
 0.0008549896902799921 0.009007452714688462 -0.0007360544662597428 -0.005690602622671885 0.0038753813591705442 0.01818124167569578 0.9953907706497318 -0.04401501716155296
 -0.0007367932220878925 -0.005690593050099418 0.0008423133024848476 0.009008964780584832 0.9953907706497318 -0.04401501716155296 0.0038772962400466875 0.018181044395942376
0.07503126302626001 0.00418201090111295 0.019938798336739175 0.9949836838549729 -0.048098066832625797 0.0009799421263052192 0.009829590933700755 -0.000842032530421641 -0.006213398725027926
 0.9949836838549729 -0.048098066832625797 0.004185239588990235 0.019938501497730854 -0.0008411562064490225 -0.0062134177233341475 0.0009648512703143782 0.009831421487647306
 0.0009799421263052192 0.009829590933700755 -0.0008411562064490225 -0.0062134177233341475 0.00418251702829867 0.019939759950921655 0.9949837159068283 -0.048097064703562974
 -0.000842032530421641 -0.006213398725027926 0.0009648512703143782 0.009831421487647306 0.9949837159068283 -0.048097064703562974 0.004184794828920368 0.019939530680396306
0.08128386827845 0.0045056588910100705 0.02171301130687428 0.9945545567221882 -0.05219384554912789 0.0011140110669189934 0.010651831691036088 -0.0009549064413328078 -0.006736569270044196
 0.9945545567221882 -0.05219384554912789 0.004509446783760828 0.021712668534107096 -0.0009538812181032103 -0.0067365996715426195 0.0010962940085706121 0.010654022324014616
 0.0011140110669189934 0.010651831691036088 -0.0009538812181032103 -0.0067365996715426195 0.004506252376444307 0.021714049106466602 0.9945545940764104 -0.052192759750725896
 -0.0009549064413328078 -0.006736569270044196 0.0010962940085706121 0.010654022324014616 0.9945545940764104 -0.052192759750725896 0.004508924499544501 0.021713785178008406
0.08753647353064001 0.004846190012397963 0.02350271666862719 0.994103080073206 -0.056303135757051086 0.0012572750809085897 0.011474051981389627 -0.0010754955279593324 -0.007259979615061346
 0.994103080073206 -0.056303135757051086 0.004850581679172239 0.023502323837637857 -0.001074310162093466 -0.007260023524409798 0.0012367198177896288 0.011476647018796617
 0.0012572750809085897 0.011474051981389627 -0.001074310162093466 -0.007260023524409798 0.004846877777496135 0.023503829726203813 0.9941031231476436 -0.05630196621329963
 -0.0010754955279593324 -0.007259979615061346 0.0012367198177896288 0.011476647018796617 0.9941031231476436 -0.05630196621329963 0.004849975632846009 0.023503528397272953
0.09378907878283 0.005203892937489927 0.025307640141119768 0.9936289727342433 -0.060425785679952784 0.0014098108658358796 0.012296125412430726 -0.0012038783913208113 -0.007783502684294179
 0.9936289727342433 -0.060425785679952784 0.005208932956576671 0.025307192935408344 -0.0012025217271533861 -0.0077835623332427085 0.0013862051572837571 0.012299171941890282
 0.0014098108658358796 0.012296125412430726 -0.0012025217271533861 -0.0077835623332427085 0.0052046818961790685 0.025308827453213893 0.9936290219512588 -0.06042453230788008
 -0.0012038783913208113 -0.007783502684294179 0.0013862051572837571 0.012299171941890282 0.9936290219512588 -0.06042453230788008 0.005208236906596258 0.025308485905177338
0.100041684035 0.005579054569533883 0.027127510387932895 0.9931319545526928 -0.06456162992163327 0.001571693156869351 0.013117922361599366 -0.0013401315887002344 -0.00830700927230435
 0.9931319545526928 -0.06456162992163327 0.005584787534083815 0.027127004296450513 -0.0013385925583654635 -0.008307087019574994 0.0015448245565699563 0.013121470260461688
 0.001571693156869351 0.013117922361599366 -0.0013385925583654635 -0.008307087019574994 0.00557995162710537 0.027128770877174937 0.9931320103387925 -0.06456029262830922
 -0.0013401315887002344 -0.00830700927230435 0.0015448245565699563 0.013121470260461688 0.9931320103387925 -0.06456029262830922 0.005583995234993278 0.027128386214344297
0.1059090909091 0.005947236426171658 0.028848619005778488 0.9926444700324791 -0.06845452324563879 0.0017321678344704387 0.013888721986784204 -0.0014752150835396127 -0.00879813265093603
 0.9926444700324791 -0.06845452324563879 0.005953660221548305 0.028848053377674463 -0.0014734949342405167 -0.008798229639789261 0.0017020439856890513 0.013892788239276744
 0.0017321678344704387 0.013888721986784204 -0.0014734949342405167 -0.008798229639789261 0.005948241195267755 0.028849947115535266 0.9926445323753333 -0.06845310710975072
 -0.0014752150835396127 -0.00879813265093603 0.0017020439856890513 0.013892788239276744 0.9926445323753333 -0.06845310710975072 0.0059527719194572126 0.028849519290723595
0.1062942892872 0.005971959967962705 0.02896205742202015 0.9926117465655285 -0.06871049102503705 0.0017429946374586756 0.01393931010096372 -0.0014843295595541566 -0.008830367956863186
 0.9926117465655285 -0.06871049102503705 0.005978430491468923 0.028961487736308824 -0.0014825971832497628 -0.008830466288020318 0.0017126505277342363 0.013943412063231303
 0.0017429946374586756 0.01393931010096372 -0.0014825971832497628 -0.008830466288020318 0.005972972020648285 0.028963389934600615 0.9926118093523355 -0.06870906970923844
 -0.0014843295595541566 -0.008830367956863186 0.0017126505277342363 0.013943412063231303 0.9926118093523355 -0.06870906970923844 0.005977535694159346 0.028962959183001968
0.11254689453939999 0.006382892262591545 0.030811011388823157 0.9920680711605477 -0.07287218065831519 0.0019237858507626204 0.014760152897926777 -0.0016365445495129074 -0.009353445040812152
 0.9920680711605477 -0.07287218065831519 0.00639014498498292 0.030810373199932205 -0.0016346079359338618 -0.009353566568098885 0.0018897534789334097 0.014764864460735475
 0.0019237858507626204 0.014760152897926777 -0.0016346079359338618 -0.009353566568098885 0.0063840261968805875 0.030812414693667134 0.9920681413846653 -0.07287067521047577
 -0.0016365445495129074 -0.009353445040812152 0.0018897534789334097 0.014764864460735475 0.9920681413846653 -0.07287067521047577 0.006389141436356209 0.03081193479960854
0.11879949979160001 0.006812132559311262 0.03267410162028929 0.9915006522309217 -0.07704650053568088 0.0021141351118593287 0.015580312103254706 -0.0017968465330888534 -0.009876104511582594
 0.9915006522309217 -0.07704650053568088 0.006820212152198414 0.032673389815539744 -0.0017946948798605914 -0.00987625197375387 0.002076201628296227 0.015585691672770555
 0.0021141351118593287 0.015580312103254706 -0.0017946948798605914 -0.00987625197375387 0.006813395250994038 0.03267557440866414 0.9915007303344253 -0.07704491083750344
 -0.0017968465330888534 -0.009876104511582594 0.002076201628296227 0.015585691672770555 0.9915007303344253 -0.07704491083750344 0.006819093595589329 0.032675042237036746
0.1250521050438 0.007259959838975578 0.034551055887513296 0.9909092153266249 -0.08123324314563148 0.0023141084207384164 0.016399646225556876 -0.0019653031349993137 -0.010398208019465758
 0.9909092153266249 -0.08123324314563148 0.007268911011539874 0.03455026514684282 -0.0019629257292910177 -0.010398384281594756 0.002272060918379209 0.016405755102253873
 0.0023141084207384164 0.016399646225556876 -0.0019629257292910177 -0.010398384281594756 0.007261358152452001 0.034552596772113996 0.9909093017578289 -0.08123156907015007
 -0.0019653031349993137 -0.010398208019465758 0.002272060918379209 0.016405755102253873 0.9909093017578289 -0.08123156907015007 0.007267671186340651 0.03455200910446527
0.131304710296 0.0077266508501094965 0.03644159980458198 0.9902934878019334 -0.08543219233378702 0.002523769375623878 0.01721801100013874 -0.0021419795507511717 -0.01091961486656144
 0.9902934878019334 -0.08543219233378702 0.007736518354497234 0.03644072459681446 -0.002139365769903364 -0.01091982291981035 0.0024773949308535843 0.017224913403531657
 0.002523769375623878 0.01721801100013874 -0.002139365769903364 -0.01091982291981035 0.007728191637393292 0.03644320731944119 0.9902935830151139 -0.08543043374472781
 -0.0021419795507511717 -0.01091961486656144 0.0024773949308535843 0.017224913403531657 0.9902935830151139 -0.08543043374472781 0.007735150996498113 0.036442560851749434
0.1375573155481 0.00810470242079566 0.0380985190758924 0.9897610163477998 -0.08939608536397359 0.0027167299344591582 0.018010400810603396 -0.0023005462173245573 -0.01141530181782597
 0.9897610163477998 -0.08939608536397359 0.00811553350814781 0.03809757161351385 -0.0022976803488009958 -0.011415541866191883 0.0026659169423358872 0.018018086234285385
 0.0027167299344591582 0.018010400810603396 -0.0022976803488009958 -0.011415541866191883 0.008106392050160779 0.038100191726020916 0.9897611207432746 -0.08939424220688467
 -0.0023005462173245573 -0.01141530181782597 0.0026659169423358872 0.018018086234285385 0.9897611207432746 -0.08939424220688467 0.008114032934017473 0.038099501093027885
0.1438099208003 0.008496027857482498 0.039746811185615294 0.989209860114553 -0.09335003833906931 0.002917494409029415 0.018799646715904207 -0.0024654627071543384 -0.011908124652021372
 0.989209860114553 -0.09335003833906931 0.008507867708329233 0.03974578708918887 -0.002462333341242098 -0.011908399632768024 0.0028620482378943365 0.018808173901073443
 0.002917494409029415 0.018799646715904207 -0.002462333341242098 -0.011908399632768024 0.008497873078247014 0.039748547450093825 0.98920997414422 -0.09334811048728281
 -0.0024654627071543384 -0.011908124652021372 0.0028620482378943365 0.018808173901073443 0.98920997414422 -0.09334811048728281 0.008506227752721127 0.03974781058757733
0.1500625260525 0.00890049080065669 0.04138634152548469 0.9886401594519693 -0.09729395626985729 0.0031259949745026804 0.019585670049223503 -0.002636663456478088 -0.012398009385086155
 0.9886401594519693 -0.09729395626985729 0.008913384649468996 0.041385236192062407 -0.0026332592086492916 -0.012398322353216598 0.0030657221505983644 0.019595099876603017
 0.0031259949745026804 0.019585670049223503 -0.0026332592086492916 -0.012398322353216598 0.008902498345303097 0.04138813982425452 0.9886402835727138 -0.09729194358935309
 -0.002636663456478088 -0.012398009385086155 0.0030657221505983644 0.019595099876603017 0.9886402835727138 -0.09729194358935309 0.008911599150108983 0.04138735453984108
0.15631513130469998 0.009317953939865387 0.04301697957217193 0.9880520554045553 -0.1012277444337833 0.00334216301403451 0.02036839345286566 -0.0028140821033894666 -0.012884883581643962
