! Created with skrf 1.8.0 (http://scikit-rf.org).
# GHz S RI R 50.0 
!freq ReS11 ImS11 ReS12 ImS12 ReS13 ImS13
! ReS14 ImS14
! ReS21 ImS21 ReS22 ImS22 ReS23 ImS23
! ReS24 ImS24
! ReS31 ImS31 ReS32 ImS32 ReS33 ImS33
! ReS34 ImS34
! ReS41 ImS41 ReS42 ImS42 ReS43 ImS43
! ReS44 ImS44
!
0.0 0.001281077961736 0.0 0.9987189220299 0.0 4.894915718252e-05 0.0 -4.894915801434e-05 5.994542968321949e-21
 0.9987189220299 0.0 0.001281077961721 0.0 -4.894915801418e-05 5.994542968302355e-21 4.894915718063e-05 0.0
 4.894915718252e-05 0.0 -4.894915801418e-05 5.994542968302355e-21 0.001281077963328 0.0 0.9987189220315 0.0
 -4.894915801434e-05 5.994542968321949e-21 4.894915718063e-05 0.0 0.9987189220315 0.0 0.001281077963328 0.0
0.005 0.0013776950359574863 0.0010489506781470466 0.998596804699034 -0.002684255356404254 6.808367340681905e-05 0.0005368142353217104 -6.625521170507038e-05 -0.0003374911593874957
 0.998596804699034 -0.002684255356404254 0.001377682666509178 0.0010489579101992422 -6.625836640927366e-05 -0.0003374935872817126 6.816197706946234e-05 0.000536784663014889
 6.808367340681905e-05 0.0005368142353217104 -6.625836640927366e-05 -0.0003374935872817126 0.0013776930693949166 0.0010488845942970405 0.9985968043722571 -0.0026843224220480574
 -6.625521170507038e-05 -0.0003374911593874957 6.816197706946234e-05 0.000536784663014889 0.9985968043722571 -0.0026843224220480574 0.001377683979545204 0.0010488898616866232
0.006252605252188 0.0014028490655978378 0.001315338937492845 0.998564845175061 -0.003356004809277421 7.342847005663694e-05 0.000671291993826606 -7.105353857159806e-05 -0.0004223105830355294
 0.998564845175061 -0.003356004809277421 0.0014028297292509582 0.0013153480548541358 -7.105844758070073e-05 -0.00042231357774732725 7.355081637817571e-05 0.0006712535907525981
 7.342847005663694e-05 0.000671291993826606 -7.105844758070073e-05 -0.00042231357774732725 0.0014028460524099515 0.0013152563355659551 0.9985648447256132 -0.003356088640810349
 -7.105353857159806e-05 -0.0004223105830355294 7.355081637817571e-05 0.0006712535907525981 0.9985648447256132 -0.003356088640810349 0.0014028318434553915 0.0013152629916158903
0.01250521050438 0.001534183799634821 0.002658493096332528 0.9983970396675477 -0.006712982514449788 0.00010343719303094665 0.0013430253337547526 -9.780727800454592e-05 -0.0008467845864233932
 0.9983970396675477 -0.006712982514449788 0.0015341065849265407 0.002658512107930842 -9.78266250998599e-05 -0.0008467901412502897 0.0001039251932443493 0.0013429332115868918
 0.00010343719303094665 0.0013430253337547526 -9.78266250998599e-05 -0.0008467901412502897 0.0015341723259641913 0.002658328200887802 0.9983970384353588 -0.006713149901826076
 -9.780727800454592e-05 -0.0008467845864233932 0.0001039251932443493 0.0013429332115868918 0.9983970384353588 -0.006713149901826076 0.001534115593480039 0.002658342212046078
0.01875781575657 0.0016753295504008186 0.00402106497269624 0.9982153250149051 -0.010079142469126199 0.00013903961376654237 0.0020156727991843264 -0.00012928433265043694 -0.0012728383536383995
 0.9982153250149051 -0.010079142469126199 0.0016751560416597522 0.0040210947327940045 -0.00012932748012424252 -0.0012728459634251234 0.00014013611963212678 0.002015509078316276
 0.00013903961376654237 0.0020156727991843264 -0.00012932748012424252 -0.0012728459634251234 0.0016753041827681865 0.0040208179408276175 0.9982153226687134 -0.010079393318767822
 -0.00012928433265043694 -0.0012728383536383995 0.00014013611963212678 0.002015509078316276 0.9982153226687134 -0.010079393318767822 0.0016751767150687954 0.004020840010010413
0.02501042100875 0.0018265284558360182 0.005401188972375599 0.9980195147491879 -0.013456155951861217 0.0001803004776695492 0.002689288512098762 -0.00016555686794339573 -0.0017003034948036662
 0.9980195147491879 -0.013456155951861217 0.0018262203128992505 0.005401230395296511 -0.00016563306840105632 -0.00170031257423233 0.00018224861139356488 0.002689032847404765
 0.0001803004776695492 0.002689288512098762 -0.00016563306840105632 -0.00170031257423233 0.001826483765400083 0.005400859966695762 0.9980195109578701 -0.013456490193053419
 -0.00016555686794339573 -0.0017003034948036662 0.00018224861139356488 0.002689032847404765 0.9980195109578701 -0.013456490193053419 0.0018262574165271949 0.005400890788361397
0.03126302626094 0.0019880124095692964 0.006797925136693864 0.9978094115665943 -0.016844762402251193 0.0002272850503344426 0.0033638657736052065 -0.00020669538500209546 -0.0021290691023597517
 0.9978094115665943 -0.016844762402251193 0.0019875313467894967 0.006797979193009633 -0.00020681380058477138 -0.0021290789846696956 0.00023032843738882397 0.003363495338532373
 0.0002272850503344426 0.0033638657736052065 -0.00020681380058477138 -0.0021290789846696956 0.0019879429712653567 0.006797514337907823 0.997809406000769 -0.01684517997460887
 -0.00020669538500209546 -0.0021290691023597517 0.00023032843738882397 0.003363495338532373 0.997809406000769 -0.01684517997460887 0.0019875896449286176 0.006797554594290107
0.037515631513130004 0.0021600084857412894 0.008210675824612289 0.9975848128666295 -0.020245352688091953 0.00028005858381431045 0.004039374236389021 -0.00025276924434586875 -0.002559044574787804
 0.9975848128666295 -0.020245352688091953 0.0021593162585267435 0.008210743539106643 -0.0002529389566856919 -0.0025590545113485857 0.0002844414640751728 0.004038863695565837
 0.00028005858381431045 0.004039374236389021 -0.0002529389566856919 -0.0025590545113485857 0.002159908876205262 0.008210183433161988 0.9975848051974386 -0.02024585354029918
 -0.00025276924434586875 -0.002559044574787804 0.0002844414640751728 0.004038863695565837 0.9975848051974386 -0.02024585354029918 0.0021594005144090506 0.00821023379164421
0.043768236765320004 0.0023427410410456675 0.009639008213344227 0.9973455129667023 -0.023658146548489706 0.00033868607002430774 0.0047157712063173 -0.0003038468639763484 -0.002990148305900874
 0.9973455129667023 -0.023658146548489706 0.0023417994355724283 0.009639090663655963 -0.00030407688013263 -0.0029901574660228074 0.00034465335724765105 0.004715092684542951
 0.00033868607002430774 0.0047157712063173 -0.00030407688013263 -0.0029901574660228074 0.002342605837897544 0.009638434458343576 0.997345502866527 -0.023658730629840172
 -0.0003038468639763484 -0.002990148305900874 0.00034465335724765105 0.004715092684542951 0.997345502866527 -0.023658730629840172 0.002341914412251049 0.009638495569294433
0.050020842017509996 0.002536432699090866 0.011082580932822191 0.9970913042000881 -0.02708326590130704 0.0004032320968242919 0.005393006303489021 -0.0003599958005286496 -0.003422303013871617
 0.9970913042000881 -0.02708326590130704 0.0025352035233974176 0.01108267924845028 -0.0003602950569162287 -0.003422310484708295 0.00041102941069016616 0.005392129353128019
 0.0004032320968242919 0.005393006303489021 -0.0003602950569162287 -0.003422310484708295 0.002536256480028818 0.011081926071180845 0.9970912913415604 -0.027083933163065406
 -0.0003599958005286496 -0.003422303013871617 0.00041102941069016616 0.005392129353128019 0.9970912913415604 -0.027083933163065406 0.0025353539833762265 0.011081998566067062
0.055454545454549996 0.002713828732124172 0.012349243325446298 0.9968581189475876 -0.030069855998267774 0.0004641809132813097 0.005982181577437766 -0.0004129613002748289 -0.003798653598582543
 0.9968581189475876 -0.030069855998267774 0.002712318643508649 0.01234935638552319 -0.0004133279331194544 -0.0037986587961903527 0.00047376860908308167 0.0059811054364537425
 0.0004641809132813097 0.005982181577437766 -0.0004133279331194544 -0.0037986587961903527 0.00271361246577304 0.012348518211840591 0.9968581034268986 -0.030070595506769354
 -0.0004129613002748289 -0.003798653598582543 0.00047376860908308167 0.0059811054364537425 0.9968581034268986 -0.030070595506769354 0.002712503807628887 0.012348601096593897
0.056273447269699996 0.002741304866938168 0.012541108060025955 0.9968219775473357 -0.030520770790443463 0.0004737607481199636 0.006071023751171253 -0.0004212827793699884 -0.003855433442863301
 0.9968219775473357 -0.030520770790443463 0.0027397499427730477 0.012541223421601183 -0.0004216601443989948 -0.0038554382293632806 0.0004836344298356343 0.006069915318793632
 0.0004737607481199636 0.006071023751171253 -0.0004216601443989948 -0.0038554382293632806 0.002741082210105417 0.012540372377813701 0.9968219616042078 -0.030521521185071433
 -0.0004212827793699884 -0.003855433442863301 0.0004836344298356343 0.006069915318793632 0.9968219616042078 -0.030521521185071433 0.002739940649083632 0.01254045686751945
0.06252605252188 0.002957578024981124 0.014014339321797482 0.9965373230434782 -0.03397067912526772 0.0005503355265297626 0.006749763626557497 -0.0004877736977759558 -0.004289465103950765
 0.9965373230434782 -0.03397067912526772 0.0029556591804626386 0.014014472960555758 -0.0004882379737786013 -0.004289466128822864 0.0005625326437474214 0.0067483880191326435
 0.0005503355265297626 0.006749763626557497 -0.0004882379737786013 -0.004289466128822864 0.0029573035083180132 0.014013523134906163 0.9965373036902875 -0.033971512606352776
 -0.0004877736977759558 -0.004289465103950765 0.0005625326437474214 0.0067483880191326435 0.9965373036902875 -0.033971512606352776 0.002955894895955328 0.014013620208153126
0.06877865777407 0.003185471890281761 0.015502048288824285 0.9962371300605236 -0.03743297843020948 0.0006330192879794666 0.007429162606718496 -0.0005595336133630119 -0.004724323522230873
 0.9962371300605236 -0.03743297843020948 0.0031831509526741757 0.015502201486248746 -0.0005600935379009442 -0.004724319625933713 0.0006477876322225738 0.007427481457581867
 0.0006330192879794666 0.007429162606718496 -0.0005600935379009442 -0.004724319625933713 0.0031851400916166916 0.015501151946457256 0.9962371069727747 -0.037433894949499794
 -0.0005595336133630119 -0.004724323522230873 0.0006477876322225738 0.007427481457581867 0.9962371069727747 -0.037433894949499794 0.0031834364405295412 0.015501262168489259
0.07503126302626001 0.0034252055094664913 0.017004024892917302 0.9959211875217858 -0.040907633272050374 0.0007218741830644343 0.008109154441650388 -0.0006366267235006013 -0.005159933758430139
 0.9959211875217858 -0.040907633272050374 0.003422444298136857 0.017004198980612034 -0.000637290970347364 -0.005159923699165772 0.000739462261580067 0.008107126676368289
 0.0007218741830644343 0.008109154441650388 -0.000637290970347364 -0.005159923699165772 0.0034248110060641724 0.017003048774032196 0.9959211603755916 -0.04090863278368018
 -0.0006366267235006013 -0.005159933758430139 0.000739462261580067 0.008107126676368289 0.9959211603755916 -0.04090863278368018 0.0034227843211944984 0.017003172685427264
0.08128386827845 0.0036769973041687553 0.018520070442900174 0.9955892840708679 -0.04439459019074695 0.0008169616036750526 0.008789670265117094 -0.0007191163376993585 -0.005596220094439545
 0.9955892840708679 -0.04439459019074695 0.0036737576237507704 0.018520266802561174 -0.0007198935175288114 -0.00559620254816112 0.0008376186269715071 0.00878725206734155
 0.0008169616036750526 0.008789670265117094 -0.0007198935175288114 -0.00559620254816112 0.0036765346732320356 0.018519014963548176 0.9955892525434155 -0.04439567264440093
 -0.0007191163376993585 -0.005596220094439545 0.0008376186269715071 0.00878725206734155 0.9955892525434155 -0.04439567264440093 0.0036741569448508846 0.018519153079164158
0.08753647353064001 0.003941065087373322 0.020049994183337284 0.9952412082137931 -0.04789378108891624 0.0009183421311851703 0.009470638812654801 -0.0008070648468930749 -0.006033105813538155
 0.9952412082137931 -0.04789378108891624 0.003937308720749273 0.02005021424695681 -0.0008079635077197914 -0.00603307937396558 0.000942317997126677 0.009467783590001366
 0.0009183421311851703 0.009470638812654801 -0.0008079635077197914 -0.00603307937396558 0.003940528905330123 0.02004885979093519 0.9952411719826896 -0.04789494643630351
 -0.0008070648468930749 -0.006033105813538155 0.000942317997126677 0.009467783590001366 0.9952411719826896 -0.04789494643630351 0.003937772101931583 0.020049012599025928
0.09378907878283 0.00421762605874095 0.021593610822745534 0.9948767484420744 -0.05140512565404307 0.0010260754870971421 0.010151986575129059 -0.0009005336887170235 -0.006470513046996738
 0.9948767484420744 -0.05140512565404307 0.004213314760611429 0.021593856072931156 -0.0009015623162166296 -0.006470476225639471 0.0010536207624281552 0.010148644925152878
 0.0010260754870971421 0.010151986575129059 -0.0009015623162166296 -0.006470476225639471 0.004217010902134393 0.0215923980023395 0.9948767071861164 -0.05140637384310597
 -0.0009005336887170235 -0.006470513046996738 0.0010536207624281552 0.010148644925152878 0.9948767071861164 -0.05140637384310597 0.004213846963541469 0.02159256596387584
0.100041684035 0.0045068967857552385 0.023150738731242966 0.9944956933437425 -0.054928533113232716 0.001140220484588253 0.010833637914392836 -0.0009995833110129646 -0.0069083626605639
 0.9944956933437425 -0.054928533113232716 0.004501992275208945 0.023151010701840318 -0.0010007503286243277 -0.006908313886756909 0.001171586383719788 0.010829757590686898
 0.001140220484588253 0.010833637914392836 -0.0010007503286243277 -0.006908313886756909 0.004506197230784724 0.02314944800161889 0.9944956467426165 -0.054929864092739526
 -0.0009995833110129646 -0.0069083626605639 0.001171586383719788 0.010829757590686898 0.9944956467426165 -0.054929864092739526 0.004502598060805036 0.023149631549764765
0.1059090909091 0.0047900983998551815 0.024624066697099066 0.9941228321334564 -0.05824575949215551 0.0012532163264560193 0.011473502327047136 -0.0010976594783529891 -0.0073195687497001035
 0.9941228321334564 -0.05824575949215551 0.004784602368946094 0.024624365183152332 -0.0010989639660748483 -0.007319507258116574 0.0012883965092436505 0.011469066434682651
 0.0012532163264560193 0.011473502327047136 -0.0010989639660748483 -0.007319507258116574 0.004789314713002225 0.02462270336290709 0.9941227802258268 -0.0582471681133256
 -0.0010976594783529891 -0.0073195687497001035 0.0012883965092436505 0.011469066434682651 0.9941227802258268 -0.0582471681133256 0.004785281532908027 0.024622901906301294
0.1062942892872 0.004809093172735001 0.02472119857654549 0.9940978317048944 -0.058463903551951184 0.0012608349806766893 0.011515515148738366 -0.0011042731331749724 -0.00734657417326004
 0.9940978317048944 -0.058463903551951184 0.004803557126821387 0.024721498853242357 -0.0011055869022059022 -0.007346511794201742 0.0012962733426941202 0.011511041027232799
 0.0012608349806766893 0.011515515148738366 -0.0011055869022059022 -0.007346511794201742 0.004808303795596246 0.02471983049377054 0.9940977794391362 -0.05846531726859499
 -0.0011042731331749724 -0.00734657417326004 0.0012962733426941202 0.011511041027232799 0.9940977794391362 -0.05846531726859499 0.004804241254711044 0.02472003003352878
0.11254689453939999 0.005124430422630036 0.02630481228211471 0.993682952605129 -0.06201112891299756 0.0013879758287968762 0.012197538622539743 -0.0012146615063476185 -0.007785065694129974
 0.993682952605129 -0.06201112891299756 0.005118224469134962 0.026305142503411216 -0.001216130325845447 -0.00778498797494248 0.0014277390925404765 0.01219241266794985
 0.0013879758287968762 0.012197538622539743 -0.001216130325845447 -0.00778498797494248 0.005123545799415538 0.02630336743818314 0.9936828943561398 -0.062012625313285864
 -0.0012146615063476185 -0.007785065694129974 0.0014277390925404765 0.01219241266794985 0.9936828943561398 -0.062012625313285864 0.005118991697762428 0.026303583346210198
0.11879949979160001 0.005453122992059871 0.027901402209208205 0.9932508455093737 -0.06557009377385979 0.0015216988317961605 0.012879626759083121 -0.0013308056720379407 -0.008223753878018498
 0.9932508455093737 -0.06557009377385979 0.00544620870282305 0.027901764067501087 -0.0013324377787662825 -0.008223659001803595 0.0015660400093039787 0.012873787991581887
 0.0015216988317961605 0.012879626759083121 -0.0013324377787662825 -0.008223659001803595 0.005452137699126566 0.02789988123664585 0.9932507809594845 -0.06557167280021005
 -0.0013308056720379407 -0.008223753878018498 0.0015660400093039787 0.012873787991581887 0.9932507809594845 -0.06557167280021005 0.005447063788551437 0.027900113861333887
0.1250521050438 0.005795384540809728 0.029510790517094446 0.9928013003550927 -0.06914067594864488 0.0016620586948060026 0.013561696106639381 -0.001452761720122124 -0.008662553890340745
 0.9928013003550927 -0.06914067594864488 0.005787723424459775 0.029511185759964798 -0.0014545652882840927 -0.008662439958256024 0.0017112313432812304 0.013555080568841676
 0.0016620586948060026 0.013561696106639381 -0.0014545652882840927 -0.008662439958256024 0.00579429315500002 0.029509194085366005 0.9928012291875369 -0.06914233754358821
 -0.001452761720122124 -0.008662553890340745 0.0017112313432812304 0.013555080568841676 0.9928012291875369 -0.06914233754358821 0.0057886711219733164 0.029509443747012986
0.131304710296 0.0061514278775162985 0.031132798642368082 0.9923341076381157 -0.07272274697334068 0.001809108978276689 0.014243661376351472 -0.0015805845457245592 -0.00910137938241967
 0.9923341076381157 -0.07272274697334068 0.006142981372249778 0.031133229074101175 -0.0015825676867327369 -0.00910124441377019 0.0018633671707322743 0.01423620210047528
 0.001809108978276689 0.014243661376351472 -0.0015825676867327369 -0.00910124441377019 0.006150224976155916 0.031131127458620185 0.9923340295374408 -0.07272449107943985
 -0.0015805845457245592 -0.00910137938241967 0.0018633671707322743 0.01423620210047528 0.9923340295374408 -0.07272449107943985 0.0061440264338296505 0.03113139444993058
0.1375573155481 0.006433865505802158 0.03255537051118025 0.9919366838299885 -0.0761042254250088 0.0019423463163828736 0.014903586512442772 -0.001693704491761391 -0.00951834586075868
 0.9919366838299885 -0.0761042254250088 0.006424592206696119 0.03255583151665024 -0.0016958791346805956 -0.009518189976431099 0.002001809366099827 0.014895301839453218
 0.0019423463163828736 0.014903586512442772 -0.0016958791346805956 -0.009518189976431099 0.0064325461488065885 0.03255362535405738 0.9919365984852653 -0.0761060519704675
 -0.001693704491761391 -0.00951834586075868 0.002001809366099827 0.014895301839453218 0.9919365984852653 -0.0761060519704675 0.0064257388886076305 0.032553903374714414
0.1438099208003 0.006726031970576802 0.03397144275087256 0.9915256767787414 -0.07947814057691657 0.002080954307377899 0.015561477491373744 -0.0018113618531015922 -0.009933415240562318
 0.9915256767787414 -0.07947814057691657 0.006715892770149827 0.03397193587237349 -0.0018137367072368449 -0.009933236521669001 0.002145852617621971 0.015552307008987442
 0.002080954307377899 0.015561477491373744 -0.0018137367072368449 -0.009933236521669001 0.006724590822545889 0.03396962435047762 0.9915255838773767 -0.07948004949716973
 -0.0018113618531015922 -0.009933415240562318 0.002145852617621971 0.015552307008987442 0.9915255838773767 -0.07948004949716973 0.006717145731149185 0.033969913366767614
0.1500625260525 0.007027837265318792 0.0353809266244437 0.9911011796128654 -0.08284443887061149 0.002224892217231484 0.016217288389275237 -0.0019335164043142294 -0.01034654204536715
 0.9911011796128654 -0.08284443887061149 0.007016792968963084 0.0353814535014076 -0.0019361001649370374 -0.010346338496581781 0.0022954551124866173 0.016207169496483133
 0.002224892217231484 0.016217288389275237 -0.0019361001649370374 -0.010346338496581781 0.007026268996629506 0.03537903573861815 0.9911010788433648 -0.0828464301001097
 -0.0019335164043142294 -0.01034654204536715 0.0022954551124866173 0.016207169496483133 0.9911010788433648 -0.0828464301001097 0.0070181568597825475 0.0353793357497509
0.15631513130469998 0.007339190893993684 0.0367837362352232 0.990663285770823 -0.08620306636982902 0.002374118918992585 0.016870973942262824 -0.002060127505723801 -0.01075768166948588
