! Created with skrf 1.8.0 (http://scikit-rf.org).
# GHz S RI R 50.0 
!freq ReS11 ImS11 ReS12 ImS12 ReS13 ImS13
! ReS14 ImS14
! ReS21 ImS21 ReS22 ImS22 ReS23 ImS23
! ReS24 ImS24
! ReS31 ImS31 ReS32 ImS32 ReS33 ImS33
! ReS34 ImS34
! ReS41 ImS41 ReS42 ImS42 ReS43 ImS43
! ReS44 ImS44
!
0.0 0.00182908994157 0.0 0.9981709100469 0.0 7.100186568269e-05 0.0 -7.100186728116e-05 8.695220949935778e-21
 0.9981709100469 0.0 0.001829089941597 0.0 -7.100186728148e-05 8.695220949974966e-21 7.100186568249e-05 0.0
 7.100186568269e-05 0.0 -7.100186728148e-05 8.695220949974966e-21 0.001829089947244 0.0 0.9981709100525 0.0
 -7.100186728116e-05 8.695220949935778e-21 7.100186568249e-05 0.0 0.9981709100525 0.0 0.00182908994726 0.0
0.005 0.0019689174471402763 0.001495960174657481 0.9979938528657575 -0.0038303624522925375 9.99505720919562e-05 0.000779461124816672 -9.702478030333659e-05 -0.0004895674077335325
 0.9979938528657575 -0.0038303624522925375 0.0019689190813307936 0.0014959592434457159 -9.70268095776822e-05 -0.0004895690090592255 9.993833233922066e-05 0.0007794658819773749
 9.99505720919562e-05 0.000779461124816672 -9.70268095776822e-05 -0.0004895690090592255 0.0019689157904669683 0.0014958939134429017 0.9979938524749948 -0.00383042950680068
 -9.702478030333659e-05 -0.0004895674077335325 9.993833233922066e-05 0.0007794658819773749 0.9979938524749948 -0.00383042950680068 0.001968919962626797 0.0014958913999631822
0.006252605252188 0.0020058813294980982 0.0018757918658263142 0.9979467089029447 -0.004788842612384574 0.00010837239758939699 0.0009746868568404083 -0.00010450325254653372 -0.0006125738397067952
 0.9979467089029447 -0.004788842612384574 0.0020058838835343923 0.001875790649843339 -0.00010450640988381964 -0.0006125758142977401 0.00010835327552965734 0.0009746930247242194
 0.00010837239758939699 0.0009746868568404083 -0.00010450640988381964 -0.0006125758142977401 0.0020058788338390824 0.001875709040577114 0.9979467083865861 -0.0047889264379884396
 -0.00010450325254653372 -0.0006125738397067952 0.00010835327552965734 0.0009746930247242194 0.9979467083865861 -0.0047889264379884396 0.002005885356165834 0.0018757058338320527
0.01250521050438 0.002202162652275802 0.003790419714771361 0.997694522444462 -0.009578135343907017 0.0001574687804352619 0.001949605279701805 -0.00014763889347418796 -0.0012279197863091999
 0.997694522444462 -0.009578135343907017 0.0022021728430473677 0.003790416761517221 -0.0001476513314996746 -0.0012279234351089295 0.0001573925665522154 0.0019496200420896564
 0.0001574687804352619 0.001949605279701805 -0.0001476513314996746 -0.0012279234351089295 0.002202153211315965 0.0037902544383047083 0.9976945209112247 -0.009578302737837394
 -0.00014763889347418796 -0.0012279197863091999 0.0001573925665522154 0.0019496200420896564 0.9976945209112247 -0.009578302737837394 0.0022021792618711965 0.0037902473459234917
0.01875781575657 0.0024184222223360644 0.005731773403864195 0.9974139949845471 -0.014379460871196108 0.00021841378573646923 0.0029253554537377628 -0.00020055337883677116 -0.0018451096781115577
 0.9974139949845471 -0.014379460871196108 0.002418445106871047 0.005731768174379038 -0.00020058110873378825 -0.0018451146346109748 0.0002182426809769342 0.0029253817928915214
 0.00021841378573646923 0.0029253554537377628 -0.00020058110873378825 -0.0018451146346109748 0.002418401424546913 0.005731525933576975 0.9974139919635845 -0.01437971177344302
 -0.00020055337883677116 -0.0018451096781115577 0.0002182426809769342 0.0029253817928915214 0.9974139919635845 -0.01437971177344302 0.002418459974665274 0.00573151417435446
0.02501042100875 0.00265513015381327 0.007697059370339745 0.9971047553173772 -0.019195067834240714 0.000291331210641297 0.003901926001587534 -0.00026338522232038117 -0.0024638174480557753
 0.9971047553173772 -0.019195067834240714 0.0026551707690204893 0.007697051308012618 -0.00026343418031794525 -0.0024638232736287637 0.00029102747665228266 0.0039019674329855746
 0.000291331210641297 0.003901926001587534 -0.00026343418031794525 -0.0024638232736287637 0.0026550935812640598 0.007696730029735592 0.9971047503258156 -0.01919540219811837
 -0.00026338522232038117 -0.0024638174480557753 0.00029102747665228266 0.0039019674329855746 0.9971047503258156 -0.01919540219811837 0.0026551975820913874 0.007696712723046748
0.03126302626094 0.0029127368910102786 0.009684800551438177 0.9967664157087633 -0.02402587091353476 0.0003763443846360974 0.0048792147737424605 -0.00033626801961947746 -0.0030837983891125282
 0.9967664157087633 -0.02402587091353476 0.002912800256237185 0.009684789082234175 -0.00033634407940193596 -0.0030838045723606934 0.00037587031718940825 0.004879275346262449
 0.0003763443846360974 0.0048792147737424605 -0.00033634407940193596 -0.0030838045723606934 0.0029126801285986456 0.00968438970232065 0.9967664082608725 -0.024026288733950445
 -0.00033626801961947746 -0.0030837983891125282 0.00037587031718940825 0.004879275346262449 0.9967664082608725 -0.024026288733950445 0.002912842515946764 0.0096843658679289
0.037515631513130004 0.003191682238177824 0.011694003966511326 0.9963985813616587 -0.028872283197682702 0.0004735749290811102 0.005857082972402018 -0.000419331378251455 -0.003704835080524705
 0.9963985813616587 -0.028872283197682702 0.0031917733569444434 0.011693988499002293 -0.00041944035723479457 -0.003704841037134545 0.0004728928522532662 0.00585716727062724
 0.0004735749290811102 0.005857082972402018 -0.00041944035723479457 -0.003704841037134545 0.003191600876848017 0.011693512030382465 0.9963985709716897 -0.0288727844903812
 -0.000419331378251455 -0.003704835080524705 0.0004728928522532662 0.00585716727062724 0.9963985709716897 -0.0288727844903812 0.003191834573540997 0.011693480587652471
0.043768236765320004 0.003492398824462322 0.013723907442975986 0.9960008543185345 -0.033734469395394935 0.0005831421464629163 0.006835371625315501 -0.0005127012200263677 -0.004326720965763321
 0.9960008543185345 -0.033734469395394935 0.003492522685502793 0.013723887368572416 -0.0005128488829341876 -0.004326726038523475 0.000582214415791641 0.006835484772291121
 0.0005831421464629163 0.006835371625315501 -0.0005128488829341876 -0.004326726038523475 0.0034922884589708224 0.013723334907334607 0.9960008404975969 -0.03373505419147492
 -0.0005127012200263677 -0.004326720965763321 0.000582214415791641 0.006835484772291121 0.9960008404975969 -0.03373505419147492 0.003492606376730961 0.013723294674275108
0.050020842017509996 0.003815313678921919 0.0157738749395776 0.9955728354787172 -0.038612450450984305 0.0007051626314001513 0.007813908406922523 -0.0006164998606826281 -0.004949253589223357
 0.9955728354787172 -0.038612450450984305 0.003815475258032507 0.015773849632464875 -0.0006166919220243261 -0.004949257048074589 0.0007039516418578406 0.007814056066975134
 0.0007051626314001513 0.007813908406922523 -0.0006166919220243261 -0.004949257048074589 0.0038151699087485397 0.01577322235794472 0.9955728177332788 -0.03861311879755079
 -0.0006164998606826281 -0.004949253589223357 0.0007039516418578406 0.007814056066975134 0.9955728177332788 -0.03861311879755079 0.003815584948064774 0.01577317205021593
0.055454545454549996 0.004114292204538895 0.0175712160245038 0.9951759635797075 -0.0428643373654738 0.0008214040111831066 0.00866434665166095 -0.0007152657566571293 -0.005490621932739256
 0.9951759635797075 -0.0428643373654738 0.00411449059311164 0.017571185648568743 -0.0007155010044911553 -0.005490623339643515 0.0008199163599947828 0.008664529327157739
 0.0008214040111831066 0.00866434665166095 -0.0007155010044911553 -0.005490623339643515 0.00411411583630105 0.017570494380510806 0.995175942020603 -0.04286507837204449
 -0.0007152657566571293 -0.005490621932739256 0.0008199163599947828 0.008664529327157739 0.995175942020603 -0.04286507837204449 0.004114625746142306 0.01757043419416617
0.056273447269699996 0.004160849010880982 0.01784334517994871 0.9951141258257571 -0.04350615485490529 0.000839749981081148 0.008792511004670739 -0.0007308459887472683 -0.005572231295719668
 0.9951141258257571 -0.04350615485490529 0.004161053271393876 0.01784331399732163 -0.0007310881141614947 -0.005572232337843291 0.0008382181779949427 0.008792699386080275
 0.000839749981081148 0.008792511004670739 -0.0007310881141614947 -0.005572232337843291 0.004160667442223862 0.017842613170833774 0.9951141036590891 -0.043506906816965375
 -0.0007308459887472683 -0.005572231295719668 0.0008382181779949427 0.008792699386080275 0.9951141036590891 -0.043506906816965375 0.004161192493580583 0.017842551400551826
0.06252605252188 0.004529422595662206 0.019931803427915482 0.9946243272673807 -0.04841544682122789 0.0009870145535858911 0.00977098898364001 -0.0008558545943401142 -0.006195451440833764
 0.9946243272673807 -0.04841544682122789 0.0045296744901583115 0.019931765709722615 -0.0008561524017276265 -0.006195449190713078 0.0009851244457144042 0.009771224841025952
 0.0009870145535858911 0.00977098898364001 -0.0008561524017276265 -0.006195449190713078 0.004529198841386898 0.01993099268324489 0.9946243001771342 -0.04841628247388359
 -0.0008558545943401142 -0.006195451440833764 0.0009851244457144042 0.009771224841025952 0.9946243001771342 -0.04841628247388359 0.0045298467847447454 0.019930917957903804
0.06877865777407 0.004921447944094311 0.02203876466226339 0.994103043263744 -0.05334014307503176 0.0011470632537702817 0.010749144917187493 -0.0009916368691796614 -0.006818709344953621
 0.994103043263744 -0.05334014307503176 0.004921752414729125 0.022038719731259905 -0.000991995929208514 -0.0068187028544911535 0.001144777427810175 0.010749435553588422
 0.0011470632537702817 0.010749144917187493 -0.000991995929208514 -0.0068187028544911535 0.004921177625592955 0.022037875940493345 0.9941030107423999 -0.05334106251106584
 -0.0009916368691796614 -0.006818709344953621 0.001144777427810175 0.010749435553588422 0.9941030107423999 -0.05334106251106584 0.0049219613308328965 0.022037786661660952
0.07503126302626001 0.005337334342727661 0.02416376292137266 0.993549879332473 -0.05828002348122057 0.0013199993355916075 0.011726775124827525 -0.001138300088494908 -0.007441797650365258
 0.993549879332473 -0.05828002348122057 0.005337696322978365 0.024163710082834307 -0.0011387259250914292 -0.007441785898958354 0.0013172804718024475 0.011727128393478302
 0.0013199993355916075 0.011726775124827525 -0.0011387259250914292 -0.007441785898958354 0.0053370130909365845 0.02416279705269481 0.9935498408663153 -0.05828102680655019
 -0.001138300088494908 -0.007441797650365258 0.0013172804718024475 0.011727128393478302 0.9935498408663153 -0.05828102680655019 0.00533794541746452 0.024162691514739848
0.08128386827845 0.005777486814119637 0.026306344230382413 0.9929644434786288 -0.06323483810221449 0.0015059222152736707 0.012703670179918055 -0.001295947481239751 -0.008064505919243447
 0.9929644434786288 -0.06323483810221449 0.005777911228928789 0.02630628277194192 -0.001296445571679103 -0.008064487813913251 0.0015027331040331849 0.01270409448554896
 0.0015059222152736707 0.012703670179918055 -0.001296445571679103 -0.008064487813913251 0.005777110270675328 0.026305302116266985 0.9929643985470741 -0.06323592543696493
 -0.001295947481239751 -0.008064505919243447 0.0015027331040331849 0.01270409448554896 0.9929643985470741 -0.06323592543696493 0.005778204067103882 0.026305178504934055
0.08753647353064001 0.006242306021574984 0.028466061720356983 0.9923463465745789 -0.0682043120762118 0.00170492729050155 0.013679615289063219 -0.0014646780933052343 -0.008686620370822929
 0.9923463465745789 -0.0682043120762118 0.006242797789072824 0.02846599091155153 -0.0014652538683362444 -0.008686594746303516 0.0017012308497210973 0.013680119588833743
 0.00170492729050155 0.013679615289063219 -0.0014652538683362444 -0.008686594746303516 0.006241869840383672 0.02846494433445607 0.9923462946496813 -0.06820548355429118
 -0.0014646780933052343 -0.008686620370822929 0.0017012308497210973 0.013680119588833743 0.9923462946496813 -0.06820548355429118 0.006243137944349821 0.02846480072548184
0.09378907878283 0.0067321881385700895 0.03064247214935217 0.9916952027081536 -0.07318814910606232 0.001917105765536221 0.014654390572855428 -0.0016445866447016384 -0.009307923728535873
 0.9916952027081536 -0.07318814910606232 0.006732752170620736 0.030642391241293247 -0.0016452454884502282 -0.009307889347399864 0.0019128650586504468 0.014654984376870983
 0.001917105765536221 0.014654390572855428 -0.0016452454884502282 -0.009307889347399864 0.006731687987336409 0.030641280539090578 0.9916951432541641 -0.07318940487412048
 -0.0016445866447016384 -0.009307923728535873 0.0019128650586504468 0.014654984376870983 0.9916951432541641 -0.07318940487412048 0.00673314322475704 0.030641114896700003
0.100041684035 0.007247524689432095 0.03283513337388528 0.9910106295067002 -0.07818603401130877 0.002142544479001727 0.015627771306657903 -0.0018357633839492626 -0.009928195118478027
 0.9910106295067002 -0.07818603401130877 0.0072481658923148114 0.032835041598727736 -0.0018365106336946913 -0.009928150671275315 0.0021377227336203527 0.01562846467800972
 0.002142544479001727 0.015627771306657903 -0.0018365106336946913 -0.009928150671275315 0.007246956250720538 0.03283386865967744 0.9910105619790658 -0.07818737423001
 -0.0018357633839492626 -0.009928195118478027 0.0021377227336203527 0.01562846467800972 0.9910105619790658 -0.07818737423001 0.007248611435581419 0.03283367883501675
0.1059090909091 0.007754608444692824 0.034907098739630146 0.9903374893159905 -0.08288849964921013 0.002366228218408655 0.016539713293186396 -0.0020254871090326526 -0.010509115517568696
 0.9903374893159905 -0.08288849964921013 0.007755326522598916 0.03490699605109868 -0.0020263221308010823 -0.010509060369420495 0.0023608279488865546 0.016540509742428943
 0.002366228218408655 0.016539713293186396 -0.0020263221308010823 -0.010509060369420495 0.007753972013487984 0.034905766511341724 0.9903374137083994 -0.0828899192725721
 -0.0020254871090326526 -0.010509115517568696 0.0023608279488865546 0.016540509742428943 0.9903374137083994 -0.0828899192725721 0.007755826470386627 0.034905551937671045
0.1062942892872 0.007788702371371237 0.03504360245098907 0.9902922484464489 -0.0831976346631824 0.002381325735391521 0.01659952811614879 -0.0020382939392309387 -0.010547210024900349
 0.9902922484464489 -0.0831976346631824 0.007789425647118778 0.03504349902132606 -0.002039134885302009 -0.010547154130251774 0.0023758863623394295 0.016600331670489483
 0.002381325735391521 0.01659952811614879 -0.002039134885302009 -0.010547154130251774 0.007788061344208923 0.03504226582958778 0.9902921722911396 -0.08319905950416522
 -0.0020382939392309387 -0.010547210024900349 0.0023758863623394295 0.016600331670489483 0.9902921722911396 -0.08319905950416522 0.007789929277458855 0.03504204955910434
0.11254689453939999 0.008356102861155193 0.03726743421763142 0.9895396851494126 -0.0882226034562258 0.002633527138284215 0.017569427152188115 -0.002252259168744068 -0.011164740278069008
 0.9895396851494126 -0.0882226034562258 0.008356913107945355 0.0372673183258644 -0.002253199054060903 -0.011164671482853763 0.00262743375130524 0.017570352056764004
 0.002633527138284215 0.017569427152188115 -0.002253199054060903 -0.011164671482853763 0.00835538496280342 0.03726602695667664 0.9895395998024304 -0.08822411310795798
 -0.002252259168744068 -0.011164740278069008 0.00262743375130524 0.017570352056764004 0.9895395998024304 -0.08822411310795798 0.008357478431975929 0.03726578186045678
0.11879949979160001 0.008950102610476048 0.039506180180214935 0.9887525696716775 -0.09326057848426035 0.0028992214264141384 0.018537230253071257 -0.0024777350093931477 -0.011780554066849098
 0.9887525696716775 -0.09326057848426035 0.008951004723870228 0.039506050997719276 -0.002478779029270739 -0.01178047084633795 0.0028924378621110157 0.018538288225341232
 0.0028992214264141384 0.018537230253071257 -0.002478779029270739 -0.01178047084633795 0.008949303577916077 0.03950470362458369 0.9887524745585412 -0.09326217314590558
 -0.0024777350093931477 -0.011780554066849098 0.0028924378621110157 0.018538288225341232 0.9887524745585412 -0.09326217314590558 0.008951635356056841 0.039504427204610504
0.1250521050438 0.009571072632949028 0.04175938766755646 0.9879305367860037 -0.09831118446738356 0.0031784763112434606 0.019502695093420123 -0.002714792325981529 -0.012394415976704331
 0.9879305367860037 -0.09831118446738356 0.00957207150610498 0.04175924434391855 -0.0027159456275867885 -0.012394316734717765 0.0031709666495486643 0.019503898399059718
 0.0031784763112434606 0.019502695093420123 -0.0027159456275867885 -0.012394316734717765 0.00957018822404446 0.04175784323919331 0.9879304313206247 -0.09831286434929601
 -0.002714792325981529 -0.012394415976704331 0.0031709666495486643 0.019503898399059718 0.9879304313206247 -0.09831286434929601 0.009572771068941636 0.04175753287753397
0.131304710296 0.010219378282437725 0.04402659916449257 0.9870732262581363 -0.10337403351350606 0.003471354317004629 0.02046557533065168 -0.0029634967598156084 -0.013006087042356857
 0.9870732262581363 -0.10337403351350606 0.010220478807330265 0.04402644082647556 -0.002964764441860471 -0.013005970111427432 0.0034630829019789296 0.020466936781064135
 0.003471354317004629 0.02046557533065168 -0.002964764441860471 -0.013005970111427432 0.010218404278156661 0.044024988357427894 0.9870731098425087 -0.10337579884225857
 -0.0029634967598156084 -0.013006087042356857 0.0034630829019789296 0.020466936781064135 0.9870731098425087 -0.10337579884225857 0.010221250931260976 0.044024641314399225
0.1375573155481 0.01075671386992558 0.04601291118715874 0.9863190225296332 -0.10815409261817882 0.0037437993047328977 0.021397565624507363 -0.0031898062053092873 -0.013587285381713237
 0.9863190225296332 -0.10815409261817882 0.010757922256464247 0.0460127423020958 -0.0031911960146913925 -0.013587150416725717 0.0037347457375228915 0.021399084373303356
 0.0037437993047328977 0.021397565624507363 -0.0031911960146913925 -0.013587150416725717 0.010755646848900593 0.04601123509684964 0.9863188946567466 -0.10815594349392145
 -0.0031898062053092873 -0.013587285381713237 0.0037347457375228915 0.021399084373303356 0.9863188946567466 -0.10815594349392145 0.01075876961264998 0.04601085457050794
0.1438099208003 0.011313234401413765 0.04798686736239166 0.9855377171079712 -0.11292010012863396 0.004027167614227894 0.022324563329016753 -0.003425071672498812 -0.01416390626768225
 0.9855377171079712 -0.11292010012863396 0.011314555756279682 0.04798668743284887 -0.0034265891143306845 -0.014163751601965738 0.004017299359964424 0.022326251192094793
 0.004027167614227894 0.022324563329016753 -0.0034265891143306845 -0.014163751601965738 0.01131207031922121 0.04798512749471267 0.9855375771818954 -0.11292203676328418
 -0.003425071672498812 -0.01416390626768225 0.004017299359964424 0.022326251192094793 0.9855375771818954 -0.11292203676328418 0.011315481813029174 0.04798471113467123
0.1500625260525 0.011888713328033831 0.049948246475676625 0.9847295418320751 -0.11767187982747826 0.0043213405303874795 0.023246434896485327 -0.0036691778016410687 -0.014735825342813596
 0.9847295418320751 -0.11767187982747826 0.01189015276731194 0.049948054968395945 -0.0036708283661694733 -0.014735649241870048 0.004310625483480371 0.023248304077785685
 0.0043213405303874795 0.023246434896485327 -0.0036708283661694733 -0.014735649241870048 0.011887448171354918 0.04994644439461363 0.9847293892472189 -0.1176739024396616
 -0.0036691778016410687 -0.014735825342813596 0.004310625483480371 0.023248304077785685 0.9847293892472189 -0.1176739024396616 0.011891160989084808 0.049945989742979695
0.15631513130469998 0.012482922125796278 0.051896833937558694 0.9838947301280904 -0.12240925746622937 0.004626197710264456 0.02416304953675067 -0.003922007615752723 -0.015302921289784898
 0.9838947301280904 -0.12240925746622937 0.012484484774799577 0.05189663028219477 -0.0039237967780317165 -0.015302721951567884 0.004614604205079681 0.024165112617935944
