! Created with skrf 1.8.0 (http://scikit-rf.org).
# GHz S RI R 50.0 
!freq ReS11 ImS11 ReS12 ImS12 ReS13 ImS13
! ReS14 ImS14
! ReS21 ImS21 ReS22 ImS22 ReS23 ImS23
! ReS24 ImS24
! ReS31 ImS31 ReS32 ImS32 ReS33 ImS33
! ReS34 ImS34
! ReS41 ImS41 ReS42 ImS42 ReS43 ImS43
! ReS44 ImS44
!
0.0 0.001449951606578 0.0 0.9985500483934 0.0 5.594472892866e-05 0.0 -5.594472906264e-05 6.851253337572798e-21
 0.9985500483934 0.0 0.001449951606611 0.0 -5.594472906279e-05 6.851253337591168e-21 5.594472893033e-05 0.0
 5.594472892866e-05 0.0 -5.594472906279e-05 6.851253337591168e-21 0.001449951603213 0.0 0.99855004839 0.0
 -5.594472906264e-05 6.851253337572798e-21 5.594472893033e-05 0.0 0.99855004839 0.0 0.001449951603241 0.0
0.005 0.0015598059470103315 0.0011831064975109176 0.9984110958930519 -0.003037784609046634 7.873051331353027e-05 0.0006359408267742141 -7.636333494498651e-05 -0.0003958096757259187
 0.9984110958930519 -0.003037784609046634 0.0015598187837478222 0.0011830989658692347 -7.635906328662036e-05 -0.00039580640005576804 7.867698775288069e-05 0.0006359614042999294
 7.873051331353027e-05 0.0006359408267742141 -7.635906328662036e-05 -0.00039580640005576804 0.0015598084532353824 0.0011831722774409239 0.9984110962420096 -0.0030377175420095636
 -7.636333494498651e-05 -0.0003958096757259187 7.867698775288069e-05 0.0006359614042999294 0.9984110962420096 -0.0030377175420095636 0.0015598169719353502 0.001183167317650973
0.006252605252188 0.0015885411361651384 0.001483562923273128 0.9983745293283183 -0.00379798693083402 8.520067308581431e-05 0.0007952297436884415 -8.209585195955062e-05 -0.0004952827476785056
 0.9983745293283183 -0.00379798693083402 0.0015885612021989295 0.0014835533238238999 -8.208920481334618e-05 -0.0004952787084117057 8.51170464549253e-05 0.0007952564225588578
 8.520067308581431e-05 0.0007952297436884415 -8.208920481334618e-05 -0.0004952787084117057 0.0015885449832484973 0.0014836451283540301 0.998374529802874 -0.0037979031127963123
 -8.209585195955062e-05 -0.0004952827476785056 8.51170464549253e-05 0.0007952564225588578 0.998374529802874 -0.0037979031127963123 0.0015885582987283302 0.001483638749353891
0.01250521050438 0.0017393654822015175 0.002998435721696931 0.9981813728699309 -0.007596870376707019 0.00012209593932008264 0.0015907875394797716 -0.00011444733691565077 -0.0009930336572628057
 0.9981813728699309 -0.007596870376707019 0.0017394456059422788 0.0029984146332566607 -0.00011442113957779275 -0.0009930261827292685 0.00012176252158016773 0.0015908512055176792
 0.00012209593932008264 0.0015907875394797716 -0.00011442113957779275 -0.0009930261827292685 0.001739380278544513 0.002998599828817785 0.9981813741967421 -0.00759670297794486
 -0.00011444733691565077 -0.0009930336572628057 0.00012176252158016773 0.0015908512055176792 0.9981813741967421 -0.00759670297794486 0.0017394334383129017 0.0029985852707124744
0.01875781575657 0.0019027391994181375 0.00453508213588342 0.9979703495589245 -0.011405915513899613 0.00016671308296200267 0.0023872374640689503 -0.00015309588380789258 -0.001492519261797314
 0.9979703495589245 -0.011405915513899613 0.001902919240962252 0.00453504748246782 -0.00015303745990557233 -0.0014925090664105916 0.00016596424911599557 0.002387350393411959
 0.00016671308296200267 0.0023872374640689503 -0.00015303745990557233 -0.0014925090664105916 0.0019027720342185016 0.004535327910249691 0.9979703521226504 -0.011405664630280515
 -0.00015309588380789258 -0.001492519261797314 0.00016596424911599557 0.002387350393411959 0.9979703521226504 -0.011405664630280515 0.0019028914706146324 0.004535303290377915
0.02501042100875 0.002078968354338907 0.006091360547498895 0.9977412213183414 -0.01522698393928385 0.00021913606333667408 0.0031846275914239035 -0.0001981352635013919 -0.0019935171532264886
 0.9977412213183414 -0.01522698393928385 0.002079288090794498 0.006091310077428421 -0.00019803208655509832 -0.0019935050746607377 0.00021780621046148298 0.003184803943483645
 0.00021913606333667408 0.0031846275914239035 -0.00019803208655509832 -0.0019935050746607377 0.002079026301119926 0.006091687738825648 0.9977412254981005 -0.015226649611912937
 -0.0001981352635013919 -0.0019935171532264886 0.00021780621046148298 0.003184803943483645 0.9977412254981005 -0.015226649611912937 0.0020792383789686223 0.006091651096457419
0.03126302626094 0.0022683462852680168 0.007666176379658065 0.9974937373983308 -0.019060881242233093 0.00027944949756104486 0.00398293063895755 -0.0002496567322227556 -0.0024958753057701876
 0.9974937373983308 -0.019060881242233093 0.0022688454290173787 0.007666107666457793 -0.00024949639975003547 -0.002495862306606618 0.0002773728828657575 0.003983186463862405
 0.00027944949756104486 0.00398293063895755 -0.00024949639975003547 -0.002495862306606618 0.002268436411858511 0.007666584678499687 0.9974937435762355 -0.019060463501038953
 -0.0002496567322227556 -0.0024958753057701876 0.0002773728828657575 0.003983186463862405 0.9974937435762355 -0.019060463501038953 0.002268767441268439 0.007666533975580418
0.037515631513130004 0.0024711600760650627 0.009258821631655917 0.9972276410274722 -0.02290801741207352 0.0003477377977733439 0.004782089753934207 -0.0003077497171124383 -0.0029994662832648414
 0.9972276410274722 -0.02290801741207352 0.0024718782860750797 0.009258732073571458 -0.0003075199374753131 -0.0029994534515040486 0.00034474846442207103 0.004782443009470882
 0.0003477377977733439 0.004782089753934207 -0.0003075199374753131 -0.0029994534515040486 0.0024712894417675164 0.009259310680722593 0.9972276495838978 -0.022907516263728132
 -0.0003077497171124383 -0.0029994662832648414 0.00034474846442207103 0.004782443009470882 0.9972276495838978 -0.022907516263728132 0.0024717656860096895 0.009259243802503599
0.043768236765320004 0.0026876930600051403 0.010868773930472128 0.996942672096572 -0.02676860772017919 0.0004240847703290641 0.005582032433850189 -0.0003725020673938065 -0.0035041733136235162
 0.996942672096572 -0.02676860772017919 0.0026886699497980365 0.01086866074988167 -0.0003721906519226557 -0.0035041618628977936 0.00042001651077340794 0.005582503005398035
 0.0004240847703290641 0.005582032433850189 -0.0003721906519226557 -0.0035041618628977936 0.002687868721025602 0.010869343308134017 0.9969426834157709 -0.026768023163811917
 -0.0003725020673938065 -0.0035041733136235162 0.00042001651077340794 0.005582503005398035 0.9969426834157709 -0.026768023163811917 0.0026885164029875896 0.010869258063771979
0.050020842017509996 0.0029182259890262077 0.012495613444952886 0.996638568511124 -0.030642755737534624 0.0005085733806489718 0.006382676277086305 -0.0004440001483043214 -0.004009884534801981
 0.996638568511124 -0.030642755737534624 0.0029195011334122523 0.012495473687404463 -0.00044359500628962027 -0.004009875804474998 0.0005032597197640235 0.00638328599871929
 0.0005085733806489718 0.006382676277086305 -0.00044359500628962027 -0.004009875804474998 0.0029184549951973087 0.012496262668844113 0.9966385829775314 -0.030642087760315122
 -0.0004440001483043214 -0.004009884534801981 0.0005032597197640235 0.00638328599871929 0.9966385829775314 -0.030642087760315122 0.0029193003027798356 0.012496156791740449
0.055454545454549996 0.0031301523095516696 0.013922821583646041 0.9963585491357733 -0.03402054489478207 0.0005886722299545173 0.007078960116826638 -0.0005116784855681717 -0.004450093161079372
 0.9963585491357733 -0.03402054489478207 0.0031317187598093425 0.013922656192289464 -0.0005111821466858253 -0.004450087980261721 0.0005821408677956859 0.007079710025815763
 0.0005886722299545173 0.007078960116826638 -0.0005111821466858253 -0.004450087980261721 0.003130433395798592 0.01392353975648818 0.996358566650984 -0.03401980440281831
 -0.0005116784855681717 -0.004450093161079372 0.0005821408677956859 0.007079710025815763 0.996358566650984 -0.03401980440281831 0.0031314716905940657 0.013923414049547125
0.056273447269699996 0.003163037634697188 0.014138982125638137 0.9963150669789781 -0.03453049402732085 0.0006012855885176232 0.007183931799907472 -0.0005223288674807142 -0.004516490176756464
 0.9963150669789781 -0.03453049402732085 0.0031646505751727174 0.014138812658643772 -0.0005218180027304576 -0.004516485631950469 0.0005945597786537905 0.007184704476097273
 0.0006012855885176232 0.007183931799907472 -0.0005218180027304576 -0.004516485631950469 0.0031633270308010454 0.014139710651179648 0.9963150849790191 -0.03452974260500289
 -0.0005223288674807142 -0.004516490176756464 0.0005945597786537905 0.007184704476097273 0.9963150849790191 -0.03452974260500289 0.003164396122118639 0.014139581799304163
0.06252605252188 0.003422405116708871 0.015798561292486104 0.9959719035286781 -0.0384318064911989 0.0007023022189100227 0.007985703990137165 -0.0006075716663205874 -0.005023881009596143
 0.9959719035286781 -0.0384318064911989 0.003424395366485521 0.01579835880431457 -0.0006069431748711316 -0.005023882241203491 0.000693997242870074 0.007986665417641106
 0.0007023022189100227 0.007985703990137165 -0.0006069431748711316 -0.005023882241203491 0.003422761942427377 0.015799368509574477 0.9959719254511842 -0.03843097159055906
 -0.0006075716663205874 -0.005023881009596143 0.000693997242870074 0.007986665417641106 0.9959719254511842 -0.03843097159055906 0.0034240809503281247 0.015799214265649605
0.06877865777407 0.0036966040803931917 0.01747405826716146 0.9956088138804672 -0.042346641673891676 0.0008117028532651769 0.008787893228460355 -0.0006998104907179205 -0.005531947427163686
 0.9956088138804672 -0.042346641673891676 0.0036990111290562196 0.017473819265339585 -0.000699052559221182 -0.0055319561518274865 0.0008016514327991367 0.008789071218322467
 0.0008117028532651769 0.008787893228460355 -0.000699052559221182 -0.0055319561518274865 0.003697035369854624 0.01747494349741874 0.9956088401165666 -0.042345723254542646
 -0.0006998104907179205 -0.005531947427163686 0.0008016514327991367 0.008789071218322467 0.9956088401165666 -0.042345723254542646 0.0036986304066804667 0.017474761369023734
0.07503126302626001 0.003985908784914703 0.019165197901563475 0.99522553373104 -0.046274921174479816 0.0009295657317617272 0.009590395878926926 -0.0007991257499750247 -0.006040578864809874
 0.99522553373104 -0.046274921174479816 0.003988772102833171 0.01916491871132205 -0.000798226654644776 -0.006040596924894917 0.0009176003402343894 0.00959182027837756
 0.0009295657317617272 0.009590395878926926 -0.000798226654644776 -0.006040596924894917 0.003986421566153651 0.01916616040153586 0.9952255646743834 -0.04627391918479461
 -0.0007991257499750247 -0.006040578864809874 0.0009176003402343894 0.00959182027837756 0.9952255646743834 -0.04627391918479461 0.003988318728021071 0.019165947821030482
0.08128386827845 0.004290592135643946 0.020871716939130838 0.9948217989857476 -0.050216545228510955 0.0010559676635925374 0.010393104680673759 -0.000905596266909572 -0.006549663419417407
 0.9948217989857476 -0.050216545228510955 0.004293951177930848 0.02087139370169898 -0.0009045443728263594 -0.006549692782959656 0.0010419205416249936 0.010394807394939918
 0.0010559676635925374 0.010393104680673759 -0.0009045443728263594 -0.006549692782959656 0.0042911934307512545 0.020872755894878466 0.9948218350333795 -0.0502154596101308
 -0.000905596266909572 -0.006549663419417407 0.0010419205416249936 0.010394807394939918 0.9948218350333795 -0.0502154596101308 0.004293418801904744 0.020872510219288792
0.08753647353064001 0.004610925679865538 0.02259336011942975 0.9943973459572776 -0.0541713965505048 0.0011909839407964254 0.01119590902427641 -0.001019299223070521 -0.007059087588507118
 0.9943973459572776 -0.0541713965505048 0.004614819890753895 0.02259298879013343 -0.0010180829837992936 -0.007059130349160658 0.0011746871148588204 0.011197924038172796
 0.0011909839407964254 0.01119590902427641 -0.0010180829837992936 -0.007059130349160658 0.004611622504257239 0.022594474648646088 0.9943973875094263 -0.05417022723531898
 -0.001019299223070521 -0.007059087588507118 0.0011746871148588204 0.011197924038172796 0.9943973875094263 -0.05417022723531898 0.004614202161738968 0.022594193159261342
0.09378907878283 0.004947179577449847 0.02432987738654408 0.9939519115423516 -0.0581393430767695 0.0013346882560754537 0.011998695151778557 -0.0011403100992869192 -0.007568736089393426
 0.9939519115423516 -0.0581393430767695 0.004951648393909882 0.024329453732848776 -0.001138918056704804 -0.007568794466342965 0.0013159735588232292 0.012001058551093452
 0.0013346882560754537 0.011998695151778557 -0.001138918056704804 -0.007568794466342965 0.004947978939088593 0.02433106653492548 0.9939519590028446 -0.058138089989653786
 -0.0011403100992869192 -0.007568736089393426 0.0013159735588232292 0.012001058551093452 0.9939519590028446 -0.058138089989653786 0.004950938956908049 0.02433074643692327
0.100041684035 0.005299622551779297 0.026081021848437216 0.9934852333817912 -0.06212023996135952 0.0014871526220161908 0.012801346307931342 -0.0012687026133918736 -0.008078491731139755
 0.9934852333817912 -0.06212023996135952 0.005304705407698492 0.026080541447670972 -0.001267123397735917 -0.008078568069013248 0.0014658517148435552 0.012804096300497858
 0.0014871526220161908 0.012801346307931342 -0.001267123397735917 -0.008078568069013248 0.005300531451150708 0.026082284591351243 0.9934852871587408 -0.06211890301768218
 -0.0012687026133918736 -0.008078491731139755 0.0014658517148435552 0.012804096300497858 0.9934852871587408 -0.06211890301768218 0.005303897904821618 0.02608192301315835
0.1059090909091 0.005645314752333256 0.027737369974032675 0.9930277515512941 -0.06586752872884548 0.0016382540323627685 0.013554319999692829 -0.001395962952312731 -0.008556834631823879
 0.9930277515512941 -0.06586752872884548 0.005651009684430435 0.027736832128431605 -0.001394197832784526 -0.008556930068180892 0.0016143730076384197 0.013557469427228581
 0.0016382540323627685 0.013554319999692829 -0.001394197832784526 -0.008556930068180892 0.005646332800474443 0.027738700780671206 0.9930278116301929 -0.06586611301082824
 -0.001395962952312731 -0.008556834631823879 0.0016143730076384197 0.013557469427228581 0.9930278116301929 -0.06586611301082824 0.005650104371715004 0.027738297597027128
0.1062942892872 0.005668521828789215 0.02784654824421645 0.9929970500113798 -0.06611393106857712 0.0016484472919591887 0.013603742857840155 -0.001404548655760532 -0.0085882353240215
 0.9929970500113798 -0.06611393106857712 0.005674258158720868 0.027846006481325906 -0.0014027709858048208 -0.00858833209278112 0.001624391688695985 0.013606919794367666
 0.0016484472919591887 0.013603742857840155 -0.0014027709858048208 -0.00858833209278112 0.005669547257702047 0.027847883482930682 0.9929971105166628 -0.06611251017706858
 -0.001404548655760532 -0.0085882353240215 0.001624391688695985 0.013606919794367666 0.9929971105166628 -0.06611251017706858 0.005673346228704328 0.027847477475464812
0.11254689453939999 0.006054143064058419 0.029626211765654966 0.9924871010034074 -0.07012025011580104 0.0018186406817910586 0.014405762382825206 -0.0015479182225962848 -0.009097845614983727
 0.9924871010034074 -0.07012025011580104 0.006060572306981414 0.02962560383070192 -0.001545930905991906 -0.009097965409790833 0.0017916617741643714 0.014409408777322965
 0.0018186406817910586 0.014405762382825206 -0.001545930905991906 -0.009097965409790833 0.006055292005491118 0.02962761833030489 0.9924871686540581 -0.0701187451747762
 -0.0015479182225962848 -0.009097845614983727 0.0017916617741643714 0.014409408777322965 0.9924871686540581 -0.0701187451747762 0.006059549585441799 0.02962716486611445
0.11879949979160001 0.006456750263009132 0.031419767145645074 0.9919551271050607 -0.07413902155407162 0.001997799292218442 0.015207279759796938 -0.0016988793482639569 -0.009607199243739073
 0.9919551271050607 -0.07413902155407162 0.00646391186625556 0.03141908803113855 -0.0016966712819272837 -0.009607344784813687 0.0019677283764359278 0.015211440309711156
 0.001997799292218442 0.015207279759796938 -0.0016966712819272837 -0.009607344784813687 0.006458029690154271 0.0314212437901166 0.9919552023225395 -0.074137432455685
 -0.0016988793482639569 -0.009607199243739073 0.0019677283764359278 0.015211440309711156 0.9919552023225395 -0.074137432455685 0.006462771985628831 0.031420739762255734
0.1250521050438 0.006876605694198499 0.03322696793521629 0.9914008703704069 -0.0781700612650265 0.0021859876316832677 0.016008167230456123 -0.0018574980360419719 -0.010116170713406708
 0.9914008703704069 -0.0781700612650265 0.006884539116916947 0.03322621243330658 -0.0018550582066317706 -0.0101163448458677 0.0021526559362939515 0.016012888836355404
 0.0021859876316832677 0.016008167230456123 -0.0018550582066317706 -0.0101163448458677 0.006878022569488298 0.03322851333905462 0.9914009535817303 -0.07816838789262615
 -0.0018574980360419719 -0.010116170713406708 0.0021526559362939515 0.016012888836355404 0.9914009535817303 -0.07816838789262615 0.006883275706575441 0.03322795555981315
0.131304710296 0.007313969797032323 0.03504756592665478 0.9908240742920585 -0.08221317711677456 0.0023832681398048613 0.016808294461704336 -0.0020238381880721386 -0.010624632374301423
 0.9908240742920585 -0.08221317711677456 0.007322714514159655 0.035046728626139334 -0.002021155672651378 -0.01062483806797851 0.002346506854301738 0.0168136262465806
 0.0023832681398048613 0.016808294461704336 -0.002021155672651378 -0.01062483806797851 0.007315531071994045 0.03504917869308017 0.9908241659296699 -0.08221141934600343
 -0.0020238381880721386 -0.010624632374301423 0.002346506854301738 0.0168136262465806 0.9908241659296699 -0.08221141934600343 0.007321321200492104 0.03504856389263232
0.1375573155481 0.00766658646604272 0.03664296492405133 0.9903270337346146 -0.08602973437179626 0.0025643593194769453 0.01758322992104206 -0.0021726641403162932 -0.011108141543474991
 0.9903270337346146 -0.08602973437179626 0.00767618415630139 0.03664205817572692 -0.0021697228227565337 -0.011108378908080243 0.00252407649663654 0.017589162663536956
 0.0025643593194769453 0.01758322992104206 -0.0021697228227565337 -0.011108378908080243 0.00766829864309427 0.03664464357994113 0.9903271341817401 -0.08602789215404358
 -0.0021726641403162932 -0.011108141543474991 0.00252407649663654 0.017589162663536956 0.9903271341817401 -0.08602789215404358 0.007674655103435601 0.036643986529717426
0.1438099208003 0.008031528040271166 0.0382303005346586 0.9898126522634966 -0.08983697700488646 0.0027527796707998648 0.01835527396616279 -0.0023274597416788876 -0.011589016027602593
 0.9898126522634966 -0.08983697700488646 0.00804201852938072 0.0382293201503385 -0.0023242478933196823 -0.011589287969427153 0.002708820350917682 0.01836185253571547
 0.0027527796707998648 0.01835527396616279 -0.0023242478933196823 -0.011589287969427153 0.008033397975427799 0.03823204362882729 0.9898127619503083 -0.08983505022249567
 -0.0023274597416788876 -0.011589016027602593 0.002708820350917682 0.01836185253571547 0.9898127619503083 -0.08983505022249567 0.008040347455862669 0.03823134237490789
0.1500625260525 0.008408670813908996 0.03980945062934009 0.989281057375417 -0.09363482131651596 0.0029484679129922484 0.019124355511043967 -0.0024881656838773615 -0.012067188589868676
 0.989281057375417 -0.09363482131651596 0.0084200939557688 0.03980839221651296 -0.002484671600148302 -0.012067498131593937 0.0029006779910741133 0.01913162641619947
 0.0029484679129922484 0.019124355511043967 -0.002484671600148302 -0.012067498131593937 0.008410705347696116 0.03981125665107395 0.9892811767362908 -0.09363280984787922
 -0.0024881656838773615 -0.012067188589868676 0.0029006779910741133 0.01913162641619947 0.9892811767362908 -0.09363280984787922 0.008418274583191603 0.039810509127103606
0.15631513130469998 0.008797890259429847 0.04138029681877112 0.9887323771536625 -0.09742318368528081 0.003151362076665479 0.01989040460515314 -0.0026547219600095372 -0.012542593369393992
 0.9887323771536625 -0.09742318368528081 0.008810285937374608 0.04137915577872477 -0.002650933960584565 -0.01254294364950698 0.003099588315324329 0.019898415977103626
