! Created with skrf 1.8.0 (http://scikit-rf.org).
# GHz S RI R 50.0 
!freq ReS11 ImS11 ReS12 ImS12 ReS13 ImS13
! ReS14 ImS14
! ReS21 ImS21 ReS22 ImS22 ReS23 ImS23
! ReS24 ImS24
! ReS31 ImS31 ReS32 ImS32 ReS33 ImS33
! ReS34 ImS34
! ReS41 ImS41 ReS42 ImS42 ReS43 ImS43
! ReS44 ImS44
!
0.0 0.001772483191637 0.0 0.9982275168083 0.0 6.869889339142e-05 0.0 -6.869889285882e-05 8.413187924452087e-21
 0.9982275168083 0.0 0.001772483191655 0.0 -6.869889285837e-05 8.413187924396978e-21 6.869889339163e-05 0.0
 6.869889339142e-05 0.0 -6.869889285837e-05 8.413187924396978e-21 0.001772483183009 0.0 0.9982275167997 0.0
 -6.869889285882e-05 8.413187924452087e-21 6.869889339163e-05 0.0 0.9982275167997 0.0 0.00177248318305 0.0
0.005 0.0019077949062686079 0.001450340572250365 0.9980562161884311 -0.0037119790854647696 9.650076019842334e-05 0.0007511880651368253 -9.373225919301359e-05 -0.000472366591442582
 0.9980562161884311 -0.0037119790854647696 0.0019077916317689365 0.0014503424589070004 -9.373032844603153e-05 -0.0004723650664913905 9.652444159042723e-05 0.0007511789763778834
 9.650076019842334e-05 0.0007511880651368253 -9.373032844603153e-05 -0.0004723650664913905 0.001907795747364536 0.0014502727628425119 0.9980562158140486 -0.0037120461372023785
 -9.373225919301359e-05 -0.000472366591442582 9.652444159042723e-05 0.0007511789763778834 0.9980562158140486 -0.0037120461372023785 0.0019077900441825599 0.00145027616490457
0.006252605252188 0.0019435099522022341 0.001818594712953908 0.9980106851092638 -0.00464084487751103 0.00010455287085648934 0.0009393379796941134 -0.00010090083326030453 -0.0005910539640860997
 0.9980106851092638 -0.00464084487751103 0.001943504834053272 0.0018185971346019385 -0.00010089782921730595 -0.0005910520835057399 0.00010458986979463628 0.0009393261799118027
 0.00010455287085648934 0.0009393379796941134 -0.00010089782921730595 -0.0005910520835057399 0.0019435113396093922 0.001818509940478461 0.9980106845962905 -0.00464092869696719
 -0.00010090083326030453 -0.0005910539640860997 0.00010458986979463628 0.0009393261799118027 0.9980106845962905 -0.00464092869696719 0.0019435024240447493 0.0018185142688209
0.01250521050438 0.00213284177245423 0.003674907559043624 0.9977675808654763 -0.009282220606319728 0.00015130747020529798 0.0018789557602055787 -0.00014211448176173623 -0.0011848179358042528
 0.9977675808654763 -0.009282220606319728 0.002132821342018578 0.0036749130366612722 -0.0001421026476209544 -0.0011848144581533381 0.0001514549854991674 0.0018789273743590787
 0.00015130747020529798 0.0018789557602055787 -0.0001421026476209544 -0.0011848144581533381 0.002132847874039636 0.0036747381929830717 0.997767579370841 -0.009282387995963497
 -0.00014211448176173623 -0.0011848179358042528 0.0001514549854991674 0.0018789273743590787 0.997767579370841 -0.009282387995963497 0.002132812266003639 0.0036747476346541234
0.01875781575657 0.002340938650689585 0.005557218360673902 0.9974978687978107 -0.013935366598646571 0.00020907889500920717 0.002819440453638453 -0.0001924758586095286 -0.001780410296122946
 0.9974978687978107 -0.013935366598646571 0.002340892754526339 0.0055572275555905255 -0.00019244947486314837 -0.001780405565568736 0.0002094102067506241 0.002819389642673977
 0.00020907889500920717 0.002819440453638453 -0.00019244947486314837 -0.001780405565568736 0.002340952798870575 0.005556964403111663 0.9974978658613363 -0.013935617451722565
 -0.0001924758586095286 -0.001780410296122946 0.0002094102067506241 0.002819389642673977 0.9974978658613363 -0.013935617451722565 0.002340872770310805 0.005556979849426552
0.02501042100875 0.002568244143055669 0.007462835373878958 0.99720119919756 -0.01860247790423368 0.0002779842797889046 0.003760792704852589 -0.0002521156158188783 -0.0023775272659584527
 0.99720119919756 -0.01860247790423368 0.002568162654834523 0.007462848971997948 -0.0002520690341143968 -0.0023775216931136403 0.0002785726536582009 0.0037607126109544344
 0.0002779842797889046 0.003760792704852589 -0.0002520690341143968 -0.0023775216931136403 0.0025682696707800727 0.007462496750596151 0.9972011943579512 -0.018602812157760964
 -0.0002521156158188783 -0.0023775272659584527 0.0002785726536582009 0.0037607126109544344 0.9972011943579512 -0.018602812157760964 0.0025681275196367667 0.0074625191936667605
0.03126302626094 0.002815183352993543 0.009390343038553883 0.9968772063436165 -0.023284457446834477 0.0003581404968455899 0.0047029263165493645 -0.00032116002641020814 -0.0029759433607343304
 0.9968772063436165 -0.023284457446834477 0.002815056167311082 0.009390361749806139 -0.0003210876576675385 -0.0029759374232758732 0.00035905925195967963 0.004702809057655175
 0.0003581404968455899 0.0047029263165493645 -0.0003210876576675385 -0.0029759374232758732 0.0028152235976102234 0.009389919627403452 0.9968771991407265 -0.023284875053210585
 -0.00032116002641020814 -0.0029759433607343304 0.00035905925195967963 0.004702809057655175 0.9968771991407265 -0.023284875053210585 0.0028150016397011026 0.009389950159997239
0.037515631513130004 0.003082171559954185 0.01133879538231735 0.996525517518186 -0.027981722563592486 0.00044966303330963423 0.0056457201701416455 -0.0003997318577102225 -0.0035754595099758745
 0.996525517518186 -0.027981722563592486 0.0030819885883118267 0.011338819940125236 -0.00039962816625539646 -0.003575453752772897 0.0004509855715014077 0.005645556830220632
 0.00044966303330963423 0.0056457201701416455 -0.00039962816625539646 -0.003575453752772897 0.0030822298630578675 0.011338287018004952 0.9965255074920222 -0.02798222348553999
 -0.0003997318577102225 -0.0035754595099758745 0.0004509855715014077 0.005645556830220632 0.9965255074920222 -0.02798222348553999 0.003081910426144269 0.01133832683401526
0.043768236765320004 0.0033696175329640914 0.013307470570105319 0.9961457567071623 -0.032694450387464845 0.0005526654412438331 0.006589034029146619 -0.0004879506606030071 -0.00417588729205003
 0.9961457567071623 -0.032694450387464845 0.00336936869958282 0.013307501731053658 -0.0004878101605281865 -0.00417588232716252 0.0005544652601362473 0.006588814647173635
 0.0005526654412438331 0.006589034029146619 -0.0004878101605281865 -0.00417588232716252 0.0033696972400078253 0.013306877053607865 0.9961457433976213 -0.03269503458827499
 -0.0004879506606030071 -0.00417588729205003 0.0005544652601362473 0.006588814647173635 0.9961457433976213 -0.03269503458827499 0.003369262660416986 0.01330692744868754
0.050020842017509996 0.003677925041363663 0.015295769490008356 0.9957375465028947 -0.03742267919290409 0.0006672589916214453 0.00753271507106588 -0.0005859328495034796 -0.004777042444247632
 0.9957375465028947 -0.03742267919290409 0.0036776002797206074 0.015295808033681246 -0.0005857501024811948 -0.004777038950880252 0.000669609688503531 0.007532428629518783
 0.0006672589916214453 0.00753271507106588 -0.0005857501024811948 -0.004777038950880252 0.0036780295019373708 0.0152950905788826 0.995737529449838 -0.03742334664582496
 -0.0005859328495034796 -0.004777042444247632 0.000669609688503531 0.007532428629518783 0.995737529449838 -0.03742334664582496 0.0036774621210224167 0.015295152951307206
0.055454545454549996 0.003963106121609467 0.017039188432442814 0.9953594017734017 -0.041544204174602875 0.0007763421965438632 0.008352974928700513 -0.0006790994540647142 -0.005299912864368661
 0.9953594017734017 -0.041544204174602875 0.003962707205437885 0.017039234042760178 -0.0006788756124325866 -0.005299911253493201 0.0007792314698959268 0.008352620433384614
 0.0007763421965438632 0.008352974928700513 -0.0006788756124325866 -0.005299911253493201 0.0039632348169087285 0.01703843508305046 0.9953593810930554 -0.04154494395898889
 -0.0006790994540647142 -0.005299912864368661 0.0007792314698959268 0.008352620433384614 0.9953593810930554 -0.04154494395898889 0.003962537688322048 0.017038509080109572
0.056273447269699996 0.004007493615022816 0.01730316596040003 0.9953005092612283 -0.042166358124858826 0.000793552413864276 0.008476601114003628 -0.0006937916926255858 -0.005378741684359536
 0.9953005092612283 -0.042166358124858826 0.004007082864567243 0.01730321268920858 -0.0006935613064663186 -0.0053787404087919655 0.0007965276847188778 0.008476235527098199
 0.000793552413864276 0.008476601114003628 -0.0006935613064663186 -0.0053787404087919655 0.00400762618245092 0.01730240137325532 0.9953004880040546 -0.042167108808227
 -0.0006937916926255858 -0.005378741684359536 0.0007965276847188778 0.008476235527098199 0.9953004880040546 -0.042167108808227 0.004006908343628716 0.017302477224873714
0.06252605252188 0.004358718921727927 0.01932917936550306 0.994834267881338 -0.04692537450606319 0.0009316516821984575 0.00942052239534651 -0.0008116372529060632 -0.005980800987547822
 0.994834267881338 -0.04692537450606319 0.0043582121247496795 0.019329235104584036 -0.000811353880589541 -0.005980802743051416 0.0009353253169099994 0.009420064497183842
 0.0009316516821984575 0.00942052239534651 -0.000811353880589541 -0.005980802743051416 0.004358882953064969 0.019328328783919727 0.9948342419589622 -0.04692620840100569
 -0.0008116372529060632 -0.005980800987547822 0.0009353253169099994 0.009420064497183842 0.9948342419589622 -0.04692620840100569 0.004357996999395406 0.019328419721228545
0.06877865777407 0.004731992942910892 0.021373358356752126 0.9943384463889131 -0.05169957008659219 0.0010816598263129998 0.010364302648158321 -0.0009395763019887364 -0.006583034573553895
 0.9943384463889131 -0.05169957008659219 0.00473138004155774 0.021373423954088224 -0.0009392346410562558 -0.006583040240297464 0.0010861057015079665 0.010363738180954292
 0.0010816598263129998 0.010364302648158321 -0.0009392346410562558 -0.006583040240297464 0.004732191798266831 0.021372421424350183 0.9943384153394612 -0.05170048717751649
 -0.0009395763019887364 -0.006583034573553895 0.0010861057015079665 0.010363738180954292 0.9943384153394612 -0.05170048717751649 0.004731120069954392 0.021372529159704397
0.07503126302626001 0.005127704026324158 0.023435270519526836 0.9938126704017622 -0.05648875133732886 0.00124367675619072 0.011307759799735839 -0.001077712218306422 -0.007185254280353389
 0.9938126704017622 -0.05648875133732886 0.0051269749589581415 0.02343534684615461 -0.0010773070104211275 -0.007185264805322833 0.0012489688260332273 0.011307073402104064
 0.00124367675619072 0.011307759799735839 -0.0010773070104211275 -0.007185264805322833 0.00512794106895032 0.02343424684270853 0.9938126337625476 -0.05648975161089127
 -0.001077712218306422 -0.007185254280353389 0.0012489688260332273 0.011307073402104064 0.9938126337625476 -0.05648975161089127 0.005126665901222447 0.02343437319556627
0.08128386827845 0.005546236861667333 0.02551449550665925 0.9932565675233543 -0.061292696286586734 0.0014177990964976258 0.012250706449947423 -0.0012261448737466 -0.007787269167029869
 0.9932565675233543 -0.061292696286586734 0.005545381560181917 0.02551458345679567 -0.001225670904538611 -0.0077872855639100355 0.0014240113821738483 0.012249881645231888
 0.0014177990964976258 0.012250706449947423 -0.001225670904538611 -0.0077872855639100355 0.005546515457095746 0.025513384651334965 0.9932565248307459 -0.061293779734500134
 -0.0012261448737466 -0.007787269167029869 0.0014240113821738483 0.012249881645231888 0.9932565248307459 -0.061293779734500134 0.005545019177861195 0.025513531549643302
0.08753647353064001 0.005987972404469765 0.027610620302567477 0.9926697676895674 -0.06611115923643758 0.0016041200270067116 0.013192950219441894 -0.0013849705132965044 -0.00838888525593377
 0.9926697676895674 -0.06611115923643758 0.005986980790790626 0.027610720794159212 -0.0013844226122804065 -0.008388908605010242 0.001611326604847356 0.013191969404322315
 0.0016041200270067116 0.013192950219441894 -0.0013844226122804065 -0.008388908605010242 0.0059882959202425525 0.027609421796889886 0.9926697184783894 -0.06611232585229447
 -0.0013849705132965044 -0.00838888525593377 0.001611326604847356 0.013191969404322315 0.9926697184783894 -0.06611232585229447 0.005986560847822757 0.02760959127861123
0.09378907878283 0.006453287764796571 0.029723235844747568 0.992051903484328 -0.07094387413259151 0.0018027291270909004 0.01413429401535111 -0.0015542816295331338 -0.008989905366973203
 0.992051903484328 -0.07094387413259151 0.006452149747851828 0.029723349819908415 -0.0015536546701458464 -0.008989936815018938 0.0018110041158543495 0.014133138448505117
 0.0018027291270909004 0.01413429401535111 -0.0015536546701458464 -0.008989936815018938 0.0064536595703027 0.029721949178950026 0.9920518472883231 -0.07094512391174225
 -0.0015542816295331338 -0.008989905366973203 0.0018110041158543495 0.014133138448505117 0.9920518472883231 -0.07094512391174225 0.006451668011482996 0.02972214339358284
0.100041684035 0.006942556070596053 0.031851934558798665 0.9914026104344997 -0.07579055703222862 0.0020137122235303305 0.015074536243681252 -0.0017341668333806695 -0.00959012901486846
 0.9914026104344997 -0.07579055703222862 0.006941261543182152 0.031852062984431544 -0.0017334557331011484 -0.00959016977501483 0.002023129770748378 0.015073186034676911
 0.0020137122235303305 0.015074536243681252 -0.0017334557331011484 -0.00959016977501483 0.006942979536293495 0.03185055918362858 0.9914025467859029 -0.07579188997287406
 -0.0017341668333806695 -0.00959012901486846 0.002023129770748378 0.015073186034676911 0.9914025467859029 -0.07579188997287406 0.006940713784335856 0.0318507803939583
0.1059090909091 0.007423796172608045 0.03386375662337879 0.9907644117431131 -0.08035109161512585 0.002223024525013409 0.015955668612753767 -0.0019126624472366308 -0.010152469330339406
 0.9907644117431131 -0.08035109161512585 0.007422345566974916 0.033863899511381135 -0.0019118678066059876 -0.010152519991234172 0.002233581691240642 0.015954116629481912
 0.002223024525013409 0.015955668612753767 -0.0019118678066059876 -0.010152519991234172 0.007424271182118891 0.03386229746777314 0.9907643406739277 -0.08035250259592326
 -0.0019126624472366308 -0.010152469330339406 0.002233581691240642 0.015954116629481912 0.9907643406739277 -0.08035250259592326 0.007421732010723689 0.03386254617122182
0.1062942892872 0.007456146311817244 0.03399630851495707 0.9907215272890388 -0.08065090796189889 0.0022371512406050235 0.016013470986771073 -0.001924710722468068 -0.010189352351300734
 0.9907215272890388 -0.08065090796189889 0.007454685147200021 0.033996452383525624 -0.001923910443040759 -0.010189403702919013 0.0022477855079190757 0.016011905085260226
 0.0022371512406050235 0.016013470986771073 -0.001923910443040759 -0.010189403702919013 0.007456624808942166 0.03399484384032286 0.9907214557181374 -0.08065232406603338
 -0.001924710722468068 -0.010189352351300734 0.0022477855079190757 0.016011905085260226 0.9907214557181374 -0.08065232406603338 0.007454067141276022 0.033995094424243956
0.11254689453939999 0.007994423170259052 0.036155948031335386 0.9900082962875343 -0.08552461234072685 0.0024731240517862157 0.016950888158120254 -0.0021259937477954563 -0.010787368139850824
 0.9900082962875343 -0.08552461234072685 0.007992785219103064 0.036156108361703104 -0.0021250992954804917 -0.010787431428375642 0.002485049199963536 0.016949084343093085
 0.0024731240517862157 0.016950888158120254 -0.0021250992954804917 -0.010787431428375642 0.007994960070367865 0.03615439342738723 0.9900082163230159 -0.08552611161266778
 -0.0021259937477954563 -0.010787368139850824 0.002485049199963536 0.016949084343093085 0.9900082163230159 -0.08552611161266778 0.00799209274669549 0.036154675879841856
0.11879949979160001 0.008557746838827892 0.03833044059324597 0.9892625634211628 -0.09041134209975861 0.0027217043335411575 0.017886573643013073 -0.0023380920791839215 -0.011383965755202846
 0.9892625634211628 -0.09041134209975861 0.008555921925597891 0.03833061843182978 -0.0023370985050462775 -0.011384042392043114 0.002734994506495218 0.01788450851250693
 0.0027217043335411575 0.017886573643013073 -0.0023370985050462775 -0.011384042392043114 0.008558345512950885 0.03832879539004296 0.989262474589562 -0.09041292454616903
 -0.0023380920791839215 -0.011383965755202846 0.002734994506495218 0.01788450851250693 0.989262474589562 -0.09041292454616903 0.00855515077338702 0.038329112324977405
0.1250521050438 0.009146472831165974 0.04051937001517 0.9884839786871428 -0.09531075657164594 0.0029829614204014915 0.018820309427148976 -0.0025610774700347925 -0.01197893120503953
 0.9884839786871428 -0.09531075657164594 0.00914445075097864 0.04051956643696805 -0.002559979870268676 -0.011979022667368739 0.0029976907289917176 0.018817958388017784
 0.0029829614204014915 0.018820309427148976 -0.002559979870268676 -0.011979022667368739 0.009147136649626422 0.04051763350217572 0.9884838805127933 -0.09531242220150578
 -0.0025610774700347925 -0.01197893120503953 0.0029976907289917176 0.018817958388017784 0.9884838805127933 -0.09531242220150578 0.009143596712488617 0.04051798765480112
0.131304710296 0.009760951785257037 0.042722315781226164 0.9876721963393538 -0.1002225032142419 0.0032569601616761015 0.0197518737223392 -0.002795017122047051 -0.012572047165051477
 0.9876721963393538 -0.1002225032142419 0.00975872230074181 0.042722531891183045 -0.0027938106384112213 -0.012572154995680894 0.0032732026666427126 0.019749210980477168
 0.0032569601616761015 0.0197518737223392 -0.0027938106384112213 -0.012572154995680894 0.009761684117006411 0.04272048720673189 0.9876720883441131 -0.10022425203910913
 -0.002795017122047051 -0.012572047165051477 0.0032732026666427126 0.019749210980477168 0.9876720883441131 -0.10022425203910913 0.009757781177094322 0.04272088143574723
0.1375573155481 0.010268480083000294 0.044652729745012526 0.986959993436956 -0.10485991431361628 0.0035112639961314657 0.020653509871810076 -0.0030074671451967194 -0.013135601882648241
 0.986959993436956 -0.10485991431361628 0.010266031363490259 0.044652960390009065 -0.0030061444043189083 -0.013135726367029062 0.0035290590145236013 0.020650536975464134
 0.0035112639961314657 0.020653509871810076 -0.0030061444043189083 -0.013135726367029062 0.010269283403939473 0.04465080858312231 0.9869598751786786 -0.10486174628699325
 -0.0030074671451967194 -0.013135601882648241 0.0035290590145236013 0.020650536975464134 0.9869598751786786 -0.10486174628699325 0.01026499977892888 0.04465123892207515
0.1438099208003 0.010794098324262279 0.04657152010340003 0.9862222795410287 -0.10948408450390915 0.003775783725974945 0.02155060335915376 -0.00322834916745227 -0.013694955269134477
 0.9862222795410287 -0.10948408450390915 0.01079141983456344 0.04657176598064595 -0.0032269049242973375 -0.013695097945691775 0.00379519898309198 0.021547296446768387
 0.003775783725974945 0.02155060335915376 -0.0032269049242973375 -0.013695097945691775 0.01079497583954332 0.04656950560176718 0.986222150546575 -0.10948599962507519
 -0.00322834916745227 -0.013694955269134477 0.00379519898309198 0.021547296446768387 0.986222150546575 -0.10948599962507519 0.0107902937470911 0.04656997449017662
0.1500625260525 0.011337598720294927 0.04847848292903729 0.9854592674415174 -0.11409485435185998 0.004050413155787785 0.022443034295372827 -0.003457559313327917 -0.01424999397644704
 0.9854592674415174 -0.11409485435185998 0.011334679882497648 0.048478744785943335 -0.0034559883364284933 -0.014250156446012843 0.004071515931142896 0.022439368622980044
 0.004050413155787785 0.022443034295372827 -0.0034559883364284933 -0.014250156446012843 0.011338553622981645 0.04847637430347722 0.9854591272363699 -0.11409685262153962
 -0.003457559313327917 -0.01424999397644704 0.004071515931142896 0.022439368622980044 0.9854591272363699 -0.11409685262153962 0.011333455266469606 0.048476884299413915
0.15631513130469998 0.011898771732969075 0.05037342036797811 0.9846711713125618 -0.11869206599639999 0.004335044679932214 0.023330685182399728 -0.0036949922846106873 -0.014800607334657394
 0.9846711713125618 -0.11869206599639999 0.01189560192581567 0.05037369900397576 -0.003693289356416075 -0.014800791260214266 0.0043579018000340424 0.023326635133022328
