! Created with skrf 1.8.0 (http://scikit-rf.org).
# GHz S RI R 50.0 
!freq ReS11 ImS11 ReS12 ImS12 ReS13 ImS13
! ReS14 ImS14
! ReS21 ImS21 ReS22 ImS22 ReS23 ImS23
! ReS24 ImS24
! ReS31 ImS31 ReS32 ImS32 ReS33 ImS33
! ReS34 ImS34
! ReS41 ImS41 ReS42 ImS42 ReS43 ImS43
! ReS44 ImS44
!
0.0 0.001387265321542 0.0 0.9986127346699 0.0 5.32454896697e-05 0.0 -5.324549020274e-05 6.52069191458173e-21
 0.9986127346699 0.0 0.001387265321538 0.0 -5.324549020306e-05 6.520691914620918e-21 5.324548967026e-05 0.0
 5.32454896697e-05 0.0 -5.324549020306e-05 6.520691914620918e-21 0.001387265322972 0.0 0.9986127346714 0.0
 -5.324549020274e-05 6.52069191458173e-21 5.324548967026e-05 0.0 0.9986127346714 0.0 0.001387265322954 0.0
0.005 0.001492167583525779 0.0011352867248805452 0.9984800854623814 -0.002906409978430595 7.436520211225541e-05 0.0005864607328518457 -7.225041779221828e-05 -0.0003682242955148982
 0.9984800854623814 -0.002906409978430595 0.0014921798064937105 0.0011352796327066782 -7.225099465359231e-05 -0.0003682247877651374 7.42918269162196e-05 0.0005864887249722739
 7.436520211225541e-05 0.0005864607328518457 -7.225099465359231e-05 -0.0003682247877651374 0.0014921666992523627 0.0011352200217747334 0.9984800851222552 -0.0029064770462697326
 -7.225041779221828e-05 -0.0003682242955148982 7.42918269162196e-05 0.0005864887249722739 0.9984800851222552 -0.0029064770462697326 0.0014921800169320106 0.0011352122063124199
0.006252605252188 0.0015195576541278096 0.0014235910611090107 0.9984452507703224 -0.003633742305176075 8.0333909170834e-05 0.0007333676334528552 -7.755899612079535e-05 -0.00046076345645423334
 0.9984452507703224 -0.003633742305176075 0.0015195767602318 0.0014235820273143117 -7.755989338508589e-05 -0.0004607640645453019 8.02192671196796e-05 0.0007334039517537001
 8.0333909170834e-05 0.0007333676334528552 -7.755989338508589e-05 -0.0004607640645453019 0.0015195563345577635 0.0014235077016939647 0.9984452503016507 -0.003633826128667097
 -7.755899612079535e-05 -0.00046076345645423334 8.02192671196796e-05 0.0007334039517537001 0.9984452503016507 -0.003633826128667097 0.0015195771526566892 0.0014234977534272372
0.01250521050438 0.0016630312154966335 0.0028771812078884702 0.9982616625214304 -0.007268406379348094 0.00011421901723307784 0.0014671367267866328 -0.00010737205372680548 -0.0009238376396505213
 0.9982616625214304 -0.007268406379348094 0.0016631074972131964 0.0028771614423993667 -0.00010737558517118442 -0.0009238387777261902 0.00011376185691180663 0.0014672236075366249
 0.00011421901723307784 0.0014671367267866328 -0.00010737558517118442 -0.0009238387777261902 0.0016630265148683046 0.0028770148358728937 0.9982616612223156 -0.007268573786023084
 -0.00010737205372680548 -0.0009238376396505213 0.00011376185691180663 0.0014672236075366249 0.9982616612223156 -0.007268573786023084 0.0016631096458158067 0.002876993127563395
0.01875781575657 0.0018179745139491298 0.004351661608137176 0.9980617594672514 -0.01091286419420901 0.0001549751141643091 0.002201813432894102 -0.0001427711156277444 -0.0013885720787641899
 0.9980617594672514 -0.01091286419420901 0.0018181459050478892 0.004351629303137047 -0.00014277898459799415 -0.001388573656578749 0.00015394816372004235 0.0022019677090161166
 0.0001549751141643091 0.002201813432894102 -0.00014277898459799415 -0.001388573656578749 0.001817964366780029 0.0043514124579319925 0.9980617569697757 -0.010913115121995208
 -0.0001427711156277444 -0.0013885720787641899 0.00015394816372004235 0.0022019677090161166 0.9980617569697757 -0.010913115121995208 0.001818151174531906 0.004351377035647283
0.02501042100875 0.001984668840178423 0.00584499544708882 0.9978453235412665 -0.014568907892152419 0.00020267779754233394 0.002937443992759922 -0.00018384026590313754 -0.0018547720192242537
 0.9978453235412665 -0.014568907892152419 0.0019849731860842024 0.005844948696418469 -0.0001838541534667921 -0.0018547739325183708 0.00020085369381490312 0.0029376849807637513
 0.00020267779754233394 0.002937443992759922 -0.0001838541534667921 -0.0018547739325183708 0.0019846511804027076 0.00584466377961324 0.9978453194752595 -0.01456924231786645
 -0.00018384026590313754 -0.0018547720192242537 0.00020085369381490312 0.0029376849807637513 0.9978453194752595 -0.01456924231786645 0.001984982949167563 0.005844612560040889
0.03126302626094 0.002163383743645746 0.007356147586830367 0.997612124690371 -0.01823732009837668 0.0002574033575529689 0.003674007567132488 -0.00023066148527608438 -0.0023223055360413513
 0.997612124690371 -0.01823732009837668 0.0021638588207422834 0.007356084388297333 -0.00023068305405819407 -0.0023223076663520512 0.0002545544267425903 0.0036743570795737847
 0.0002574033575529689 0.003674007567132488 -0.00023068305405819407 -0.0023223076663520512 0.0021633565067772885 0.007355733692514175 0.9976121186854661 -0.018237738035138364
 -0.00023066148527608438 -0.0023223055360413513 0.0002545544267425903 0.0036743570795737847 0.9976121186854661 -0.018237738035138364 0.0021638744613249215 0.007355664464942747
0.037515631513130004 0.0023543830968632516 0.008884452970396322 0.9973619270878135 -0.02191850546124127 0.0003192280115012236 0.0044114570398195085 -0.00028331525522568956 -0.002791062718593341
 0.9973619270878135 -0.02191850546124127 0.0023550666251754724 0.008884371226987934 -0.0002833461514041201 -0.002791064933211351 0.0003151261672334344 0.004411939409822403
 0.0003192280115012236 0.0044114570398195085 -0.0002833461514041201 -0.002791064933211351 0.002354344218351362 0.008883957183961984 0.9973619187704109 -0.021919006944123093
 -0.00028331525522568956 -0.002791062718593341 0.0003151261672334344 0.004411939409822403 0.9973619187704109 -0.021919006944123093 0.0023550895371658507 0.008883867611109996
0.043768236765320004 0.002557927451449196 0.010429424422136587 0.9970944916381314 -0.02561268278859587 0.00038822755439379703 0.005149731426618146 -0.00034188077800256675 -0.003260943252245812
 0.9970944916381314 -0.02561268278859587 0.0025588571040355175 0.01042932194281925 -0.00034192263252727425 -0.003260945404224651 0.0003826442459589926 0.005150373536153914
 0.00038822755439379703 0.005149731426618146 -0.00034192263252727425 -0.003260945404224651 0.002557874867038386 0.010428847122337128 0.9970944806310766 -0.025613267875358305
 -0.00034188077800256675 -0.003260943252245812 0.0003826442459589926 0.005150373536153914 0.9970944806310766 -0.025613267875358305 0.0025588886918041084 0.010428734740692579
0.050020842017509996 0.00277427513477587 0.011990673214695184 0.9968095772269543 -0.02931996441547537 0.0004644771530260636 0.005888760998112985 -0.00040643606343495746 -0.003731851287749961
 0.9968095772269543 -0.02931996441547537 0.002775488546150906 0.011990547714953283 -0.0004064904928691888 -0.0037318532159380004 0.0004571833399556407 0.005889592307856736
 0.0004644771530260636 0.005888760998112985 -0.0004064904928691888 -0.0037318532159380004 0.0027742067827574756 0.011990014823902528 0.9968095631506178 -0.029320633187487434
 -0.00040643606343495746 -0.003731851287749961 0.0004571833399556407 0.005889592307856736 0.9968095631506178 -0.029320633187487434 0.002775530226561246 0.011989877043748336
0.055454545454549996 0.0029728850797662047 0.013360408124504536 0.9965475946766414 -0.03255238282767042 0.0005366860976047393 0.006531554522871412 -0.0004674606924831757 -0.004141846148141653
 0.9965475946766414 -0.03255238282767042 0.0029743756253600424 0.013360260691726886 -0.0004675273519607247 -0.004141847739962473 0.00052771940797195 0.006532576204758656
 0.0005366860976047393 0.006531554522871412 -0.0004675273519607247 -0.004141847739962473 0.0029728013510415246 0.013359679648250574 0.9965475776197688 -0.03255312440126154
 -0.0004674606924831757 -0.004141846148141653 0.00052771940797195 0.006532576204758656 0.9965475776197688 -0.03255312440126154 0.0029744272353503685 0.013359517594780948
0.056273447269699996 0.0030036828231480976 0.013567870076275518 0.9965069414502784 -0.03304039513158994 0.0005480512037141075 0.006628469790546185 -0.0004770579555604986 -0.004203692924528434
 0.9965069414502784 -0.03304039513158994 0.0030052175963538263 0.013567719178518569 -0.00047712656260373007 -0.004203694453599539 0.0005388173467205439 0.006629522370468483
 0.0005480512037141075 0.006628469790546185 -0.00047712656260373007 -0.004203694453599539 0.0030035966422972417 0.013567131069220684 0.9965069239189326 -0.03304114768551516
 -0.0004770579555604986 -0.004203692924528434 0.0005388173467205439 0.006629522370468483 0.9965069239189326 -0.03304114768551516 0.003005270796945609 0.013566965174557877
0.06252605252188 0.0032464058537020374 0.01516072375779426 0.9961863410844648 -0.03677397355025486 0.0006390232224901325 0.0073687769842306 -0.0005538221283541732 -0.004676374828604708
 0.9961863410844648 -0.03677397355025486 0.003248299567473998 0.01516054499145632 -0.0005539065023102555 -0.004676375769095647 0.0006276192844250932 0.00737008554454128
 0.0006390232224901325 0.0073687769842306 -0.0005539065023102555 -0.004676375769095647 0.003246299786125324 0.015159904656548992 0.9961863197081129 -0.03677481000355985
 -0.0005538221283541732 -0.004676374828604708 0.0006276192844250932 0.00737008554454128 0.9961863197081129 -0.03677481000355985 0.0032483657287284656 0.015159707804628234
0.06877865777407 0.0035026983997702176 0.01676896825172746 0.995847532423699 -0.04052066482742076 0.0007374657518662576 0.0081095977272315 -0.0006368030645954988 -0.005149803407691332
 0.995847532423699 -0.04052066482742076 0.003504988614967794 0.016768759053284885 -0.0006369047816705805 -0.005149803556048702 0.0007236612065085713 0.008111199649454415
 0.0007374657518662576 0.0081095977272315 -0.0006369047816705805 -0.005149803556048702 0.0035025703909854506 0.01676806962733083 0.9958475068067757 -0.040521585317175327
 -0.0006368030645954988 -0.005149803407691332 0.0007236612065085713 0.008111199649454415 0.9958475068067757 -0.040521585317175327 0.0035050691902947908 0.016767838848240717
0.07503126302626001 0.0037728135626764418 0.018392354684532708 0.9954902715358709 -0.04428040870952663 0.0008434502799325738 0.008850843651927757 -0.0007260740224272042 -0.005623884296002363
 0.9954902715358709 -0.04428040870952663 0.003775537828587495 0.0183921123973443 -0.0007261946459654021 -0.005623883434613531 0.0008270141256589236 0.008852779019967552
 0.0008434502799325738 0.008850843651927757 -0.0007261946459654021 -0.005623883434613531 0.0037726615619028073 0.018391377160745855 0.9954902412762616 -0.04428141338905416
 -0.0007260740224272042 -0.005623884296002363 0.0008270141256589236 0.008852779019967552 0.9954902412762616 -0.04428141338905416 0.0037756342843373813 0.018391109356659375
0.08128386827845 0.004057003408946064 0.02003064592781412 0.9951143144676128 -0.048053124865317126 0.0009570471632843149 0.009592423228513027 -0.0008217069966916931 -0.006098522004846976
 0.9951143144676128 -0.048053124865317126 0.00406019926961949 0.020030367801746073 -0.0008218480773504878 -0.006098519902088193 0.0009377479417068691 0.009594734859597701
 0.0009570471632843149 0.009592423228513027 -0.0008218480773504878 -0.006098519902088193 0.004056825370792883 0.020029590177559394 0.9951142791567817 -0.04805421390817623
 -0.0008217069966916931 -0.006098522004846976 0.0009377479417068691 0.009594734859597701 0.9951142791567817 -0.04805421390817623 0.004060313086554133 0.020029282121895597
0.08753647353064001 0.004355518976769311 0.02168361286578413 0.9947194174206809 -0.051838716564231134 0.001078325556247896 0.010334242001923672 -0.0009237726737668291 -0.006573619692641199
 0.9947194174206809 -0.051838716564231134 0.004359223977456735 0.021683296056668494 -0.0009239357496888006 -0.006573616102920607 0.0010559313736079113 0.010336975477399786
 0.001078325556247896 0.010334242001923672 -0.0009239357496888006 -0.006573616102920607 0.004355312861593917 0.021682479614612775 0.9947193766424955 -0.05183989016101265
 -0.0009237726737668291 -0.006573619692641199 0.0010559313736079113 0.010336975477399786 0.9947193766424955 -0.05183989016101265 0.004359356650571407 0.021682127950946924
0.09378907878283 0.00466861025746018 0.0233510317274963 0.9943053369064653 -0.05563707329303279 0.0012073533415063683 0.011076202769857567 -0.0010323403835793864 -0.007049078996809497
 0.9943053369064653 -0.05563707329303279 0.004672861950766982 0.02335067329641291 -0.0010325269805056421 -0.007049073660600332 0.0011816318932928347 0.011079406465747963
 0.0012073533415063683 0.011076202769857567 -0.0010325269805056421 -0.007049073660600332 0.004668374032300057 0.02334982175304396 0.9943052902367474 -0.05563833165235451
 -0.0010323403835793864 -0.007049078996809497 0.0011816318932928347 0.011079406465747963 0.9943052902367474 -0.05563833165235451 0.00467301498981999 0.023349422993905068
0.100041684035 0.004996526159072303 0.025032682131723594 0.9938718298845961 -0.059448072663196155 0.0013441970628657496 0.011818205713378901 -0.001147478048811824 -0.007524799916098875
 0.9938718298845961 -0.059448072663196155 0.005001362110896767 0.025032279044121863 -0.001147689680120413 -0.007524792560002021 0.0013149156606950668 0.011821930830647797
 0.0013441970628657496 0.011818205713378901 -0.001147689680120413 -0.007524792560002021 0.004996257798302772 0.02503139626408172 0.9938717768905188 -0.05944941601153202
 -0.001147478048811824 -0.007524799916098875 0.0013149156606950668 0.011821930830647797 0.9938717768905188 -0.05944941601153202 0.005001537041078284 0.025030946789513356
0.1059090909091 0.005317944015513186 0.026623481479872067 0.993447145339776 -0.06303567151301503 0.0014797769327718495 0.012514444007914124 -0.0012615570613583099 -0.00797136088794613
 0.993447145339776 -0.06303567151301503 0.005323362415500903 0.026623033640766333 -0.0012617935502943448 -0.007971351375409046 0.0014469429473047918 0.012518707533306491
 0.0014797769327718495 0.012514444007914124 -0.0012617935502943448 -0.007971351375409046 0.005317643664499931 0.026622125197316795 0.993447086009141 -0.06303709483559328
 -0.0012615570613583099 -0.00797136088794613 0.0014469429473047918 0.012518707533306491 0.993447086009141 -0.06303709483559328 0.005323559289487519 0.026621624719956848
0.1062942892872 0.005339514458430679 0.02672834561492656 0.9934186538942943 -0.06327158183865723 0.0014889218594109632 0.01256014849604289 -0.0012692521317137254 -0.008000680727641036
 0.9934186538942943 -0.06327158183865723 0.005344972254581962 0.026727894739462885 -0.0012694902985464947 -0.008000671064411507 0.0014558474599163976 0.01256444909053907
 0.0014889218594109632 0.01256014849604289 -0.0012694902985464947 -0.008000671064411507 0.005339211945289837 0.026726984736762507 0.9934185941338577 -0.06327301042052651
 -0.0012692521317137254 -0.008000680727641036 0.0014558474599163976 0.01256444909053907 0.9934185941338577 -0.06327301042052651 0.005345170617122408 0.026726480792701634
0.11254689453939999 0.005697821743297658 0.028437804506846246 0.9929455671760504 -0.06710745861929045 0.0016415914000272808 0.013301926347032287 -0.0013977275796457625 -0.00847661792302829
 0.9929455671760504 -0.06710745861929045 0.005703938995619369 0.02843730261411032 -0.0013979937709319532 -0.008476605651628376 0.0016044906357179953 0.013306859359122864
 0.0016415914000272808 0.013301926347032287 -0.0013979937709319532 -0.008476605651628376 0.0056974830703162265 0.02843636955473118 0.9929455001973342 -0.06710897269620418
 -0.0013977275796457625 -0.00847661792302829 0.0016044906357179953 0.013306859359122864 0.9929455001973342 -0.06710897269620418 0.005704162347997741 0.028435807251219053
0.11879949979160001 0.006071693347402748 0.030160841051341994 0.992452328790916 -0.0709555522832326 0.0018022678187742099 0.014043432126747501 -0.0015329677689582052 -0.008952506165455454
 0.992452328790916 -0.0709555522832326 0.00607850770001178 0.030160284812300448 -0.0015332634614227123 -0.008952490971101176 0.0017609070306077146 0.014049057410524007
 0.0018022678187742099 0.014043432126747501 -0.0015332634614227123 -0.008952490971101176 0.006071316517580557 0.030159333013194126 0.992452254131386 -0.07095715213632121
 -0.0015329677689582052 -0.008952506165455454 0.0017609070306077146 0.014049057410524007 0.992452254131386 -0.07095715213632121 0.00607875761696045 0.030158708322296193
0.1250521050438 0.006461373278788313 0.03189723670851409 0.9919386987338052 -0.07481570425134369 0.0019710116505062343 0.01478455638375772 -0.0016750344479308469 -0.009428238258768384
 0.9919386987338052 -0.07481570425134369 0.006468922414557117 0.03189662269279563 -0.0016753611061885569 -0.009428219812971109 0.001925156921799874 0.014790936735792232
 0.0019710116505062343 0.01478455638375772 -0.0016753611061885569 -0.009428219812971109 0.0064609563065285555 0.03189565662818481 0.9919386159197879 -0.07481739017703821
 -0.0016750344479308469 -0.009428238258768384 0.001925156921799874 0.014790936735792232 0.9919386159197879 -0.07481739017703821 0.006469200487978964 0.03189496538184379
0.131304710296 0.0068671041437104435 0.03364677160204006 0.9914044380456138 -0.07868774861073902 0.0021478817666941174 0.015525187403815158 -0.0018239876787937994 -0.00990370512791488
 0.9914044380456138 -0.07868774861073902 0.006875425790534313 0.03364609627598494 -0.0018243467552611448 -0.009903683088535953 0.002097298958630626 0.015532388591563813
 0.0021478817666941174 0.015525187403815158 -0.0018243467552611448 -0.009903683088535953 0.006866645055822682 0.03364512057641524 0.9914043465916713 -0.07868952092378181
 -0.0018239876787937994 -0.00990370512791488 0.002097298958630626 0.015532388591563813 0.9914043465916713 -0.07868952092378181 0.006875733630650478 0.033644358463879157
0.1375573155481 0.00719222230793413 0.03518085418335207 0.9909462433772128 -0.08234306520918254 0.002309736797391693 0.016241997774840023 -0.001956746774991168 -0.010355552396906931
 0.9909462433772128 -0.08234306520918254 0.007201357921116978 0.03518013030968714 -0.0019571405559776524 -0.010355526772521226 0.002254306264887857 0.016250005491944476
 0.002309736797391693 0.016241997774840023 -0.0019571405559776524 -0.010355526772521226 0.0071917198213841725 0.0351791329280568 0.9909461428866791 -0.08234492410021634
 -0.001956746774991168 -0.010355552396906931 0.002254306264887857 0.016250005491944476 0.9909461428866791 -0.08234492410021634 0.007201696292265772 0.035178312503639404
0.1438099208003 0.007528648789536592 0.0367074960091636 0.9904721736807264 -0.08598976384293358 0.002478141176134351 0.01695627217873032 -0.0020948288273069456 -0.010805095243340543
 0.9904721736807264 -0.08598976384293358 0.007538636751501972 0.03670672114137677 -0.0020952588979088215 -0.010805065697519895 0.0024176491848366313 0.0169651462204233
 0.002478141176134351 0.01695627217873032 -0.0020952588979088215 -0.010805065697519895 0.00752810107370846 0.036705705635694266 0.990472063669294 -0.08599170961989876
 -0.0020948288273069456 -0.010805095243340543 0.0024176491848366313 0.0169651462204233 0.990472063669294 -0.08599170961989876 0.00753900713690642 0.03670482371497851
0.1500625260525 0.007876273592387654 0.03822658855923752 0.9899823424240701 -0.08962777333259866 0.0026530423544075914 0.01766794970745915 -0.0022381831562837697 -0.01125227625751531
 0.9899823424240701 -0.08962777333259866 0.007887152356599085 0.03822576011093576 -0.002238651099905315 -0.011252242440272281 0.0025872762891032347 0.017677752045779406
 0.0026530423544075914 0.01766794970745915 -0.002238651099905315 -0.011252242440272281 0.0078756788368211 0.03822473021937133 0.9899822223970579 -0.0896298063187828
 -0.0022381831562837697 -0.01125227625751531 0.0025872762891032347 0.017677752045779406 0.9899822223970579 -0.0896298063187828 0.007887556246726548 0.03822378345008104
0.15631513130469998 0.008234986040825096 0.03973802668080801 0.9894768635384054 -0.09325702237465291 0.0028343872229906787 0.018376970384352802 -0.002386758513638367 -0.011697039172686968
