! Created with skrf 1.8.0 (http://scikit-rf.org).
# GHz S RI R 50.0 
!freq ReS11 ImS11 ReS12 ImS12 ReS13 ImS13
! ReS14 ImS14
! ReS21 ImS21 ReS22 ImS22 ReS23 ImS23
! ReS24 ImS24
! ReS31 ImS31 ReS32 ImS32 ReS33 ImS33
! ReS34 ImS34
! ReS41 ImS41 ReS42 ImS42 ReS43 ImS43
! ReS44 ImS44
!
0.0 0.001433036245983 0.0 0.998566963754 0.0 5.528670082496e-05 0.0 -5.52867010028e-05 6.770668141849579e-21
 0.998566963754 0.0 0.001433036245979 0.0 -5.528670100266e-05 6.770668141832433e-21 5.528670082521e-05 0.0
 5.528670082496e-05 0.0 -5.528670100266e-05 6.770668141832433e-21 0.001433036243139 0.0 0.9985669637512 0.0
 -5.52867010028e-05 6.770668141849579e-21 5.528670082521e-05 0.0 0.9985669637512 0.0 0.00143303624314 0.0
0.005 0.0015415638346485475 0.0011689434332759797 0.9984296895496519 -0.0030023608039387185 7.789543007640954e-05 0.0006312465543987038 -7.549160609456893e-05 -0.00039243078206746546
 0.9984296895496519 -0.0030023608039387185 0.0015415861952282623 0.0011689304201012427 -7.549353888417088e-05 -0.0003924322981270004 7.774917733312302e-05 0.0006313021728047005
 7.789543007640954e-05 0.0006312465543987038 -7.549353888417088e-05 -0.0003924322981270004 0.0015415623466097756 0.0011688770822394193 0.9984296892039017 -0.003002427861386453
 -7.549160609456893e-05 -0.00039243078206746546 7.774917733312302e-05 0.0006313021728047005 0.9984296892039017 -0.003002427861386453 0.0015415869957036315 0.0011688626593342338
0.006252605252188 0.0015699371365119254 0.0014658068966777443 0.9983935835935767 -0.0037537006888682437 8.432120474743024e-05 0.0007893583757488308 -8.115743973092406e-05 -0.0004910561674285003
 0.9983935835935767 -0.0037537006888682437 0.001569972089818804 0.0014657903647342508 -8.116044708922308e-05 -0.0004910580376504171 8.40926964994486e-05 0.0007894305779962526
 8.432120474743024e-05 0.0007893583757488308 -8.116044708922308e-05 -0.0004910580376504171 0.0015699348803505872 0.0014657239598222232 0.9983935831232087 -0.0037537845147160485
 -8.115743973092406e-05 -0.0004910561674285003 8.40926964994486e-05 0.0007894305779962526 0.9983935831232087 -0.0037537845147160485 0.0015699734117490664 0.001465705656935338
0.01250521050438 0.001718775706684556 0.0029625845143331025 0.9982029691842975 -0.00750831257027782 0.00012099379281061865 0.001579032483890089 -0.00011309667367813365 -0.000984571276774988
 0.9982029691842975 -0.00750831257027782 0.001718915270325581 0.0029625487946727982 -0.00011310852285734577 -0.000984574746495754 0.00012008250717412948 0.001579205655830102
 0.00012099379281061865 0.001579032483890089 -0.00011310852285734577 -0.000984574746495754 0.0017187672507903934 0.0029624189694632294 0.9982029678635068 -0.007508479973025137
 -0.00011309667367813365 -0.000984571276774988 0.00012008250717412948 0.001579205655830102 0.9982029678635068 -0.007508479973025137 0.0017189211135378616 0.002962379601137861
0.01875781575657 0.001879859634238178 0.004480909787552177 0.9979948960873342 -0.011272996335045837 0.00016538520987317644 0.00236958544589106 -0.00015119951297187613 -0.001479816207389402
 0.9979948960873342 -0.011272996335045837 0.0018801732292510192 0.004480852080785986 -0.0001512259339046463 -0.0014798209580724412 0.0001633379899403021 0.0023698936718923027
 0.00016538520987317644 0.00236958544589106 -0.0001512259339046463 -0.0014798209580724412 0.0018798410471832687 0.00448066185661956 0.9979948935405142 -0.011273247228784545
 -0.00015119951297187613 -0.001479816207389402 0.0001633379899403021 0.0023698936718923027 0.9979948935405142 -0.011273247228784545 0.0018801867954917667 0.004480598457853298
0.02501042100875 0.002053488453233338 0.006018668742662702 0.9977691315524053 -0.015049594931666091 0.00021757802680031607 0.003161065962259942 -0.00019555817311415726 -0.0019765715287841097
 0.9977691315524053 -0.015049594931666091 0.0020540453541950045 0.006018586130103976 -0.0001956048266059115 -0.0019765771881653602 0.000213941458895244 0.003161548445895829
 0.00021757802680031607 0.003161065962259942 -0.0001956048266059115 -0.0019765771881653602 0.002053455806275182 0.006018338656748548 0.9977691274029519 -0.01504992927612387
 -0.00019555817311415726 -0.0019765715287841097 0.000213941458895244 0.003161548445895829 0.9977691274029519 -0.01504992927612387 0.0020540698473680325 0.006018248087494402
0.03126302626094 0.0022399492124067044 0.007574782386786311 0.9975254303367775 -0.01883890765403683 0.00027765563121156107 0.003953447648651254 -0.00024626240277772255 -0.0024746880569302626
 0.9975254303367775 -0.01883890765403683 0.00224081858580881 0.007574671835866901 -0.00024633489249647816 -0.0024746941983018107 0.0002719756152364603 0.003954148742031933
 0.00027765563121156107 0.003953447648651254 -0.00024633489249647816 -0.0024746941983018107 0.00223989857720813 0.00757437040978635 0.9975254242055143 -0.01883932543117437
 -0.00024626240277772255 -0.0024746880569302626 0.0002719756152364603 0.003954148742031933 0.9975254242055143 -0.01883932543117437 0.002240857212084325 0.0075742493601989695
0.037515631513130004 0.002439522845912622 0.009148553936299987 0.9972635412425996 -0.022641342856339765 0.00034570130579118975 0.004746674676888881 -0.00030340017065285844 -0.0029740411982531415
 0.9972635412425996 -0.022641342856339765 0.0024407737756689213 0.009148412303728712 -0.0003035040492085598 -0.002974047340229433 0.00033752285738564543 0.004747643933295725
 0.00034570130579118975 0.004746674676888881 -0.0003035040492085598 -0.002974047340229433 0.002439450297201145 0.009148060368312505 0.9972635327506854 -0.022641844067480654
 -0.00030340017065285844 -0.0029740411982531415 0.00033752285738564543 0.004747643933295725 0.9972635327506854 -0.022641844067480654 0.0024408297477920265 0.009147905361301393
0.043768236765320004 0.002652486642823307 0.010739470171080453 0.9969832097579638 -0.026457116533829247 0.0004217978044890724 0.005540675659041118 -0.0003670579179155001 -0.003474517057041824
 0.9969832097579638 -0.026457116533829247 0.002654188150600852 0.01073929420506991 -0.00036719869057641143 -0.0034745226634944923 0.0004106649559370964 0.005541967892806336
 0.0004217978044890724 0.005540675659041118 -0.00036719869057641143 -0.0034745226634944923 0.002652388256650741 0.010738895359064096 0.9969831985246894 -0.0264577011895365
 -0.0003670579179155001 -0.003474517057041824 0.0004106649559370964 0.005541967892806336 0.9969831985246894 -0.0264577011895365 0.002654264686436654 0.010738702751798954
0.050020842017509996 0.0028791153942603186 0.012347119325704108 0.996684179379158 -0.03028633436451995 0.000506027103939724 0.006335369375153845 -0.0004373206564018625 -0.003976006702227038
 0.996684179379158 -0.03028633436451995 0.0028813364574890813 0.01234690566756649 -0.0004375037834969244 -0.003976011182265029 0.0004914828577187146 0.006337044724605481
 0.000506027103939724 0.006335369375153845 -0.0004375037834969244 -0.003976011182265029 0.002878987248384922 0.012346463655525672 0.9966841650213911 -0.03028700249312254
 -0.0004373206564018625 -0.003976006702227038 0.0004914828577187146 0.006337044724605481 0.9966841650213911 -0.03028700249312254 0.002881436780542997 0.01234622964022557
0.055454545454549996 0.003087372242058215 0.013757530945399839 0.9964089269914059 -0.033624987938202386 0.0005858927032811461 0.0070264764948558475 -0.0005038101375715219 -0.004412556761786193
 0.9964089269914059 -0.033624987938202386 0.0030901008108104445 0.013757281721852936 -0.0005040344727363715 -0.0044125597405262704 0.0005680118997834514 0.007028537806412065
 0.0005858927032811461 0.0070264764948558475 -0.0005040344727363715 -0.0044125597405262704 0.0030872150507372294 0.013756805361686105 0.99640890960583 -0.0336257286334559
 -0.0005038101375715219 -0.004412556761786193 0.0005680118997834514 0.007028537806412065 0.99640890960583 -0.0336257286334559 0.003090224428531526 0.013756532141330925
0.056273447269699996 0.003119681989108822 0.013971150795490772 0.9963661923840551 -0.034129031936386146 0.0005984702332322616 0.007130667587754699 -0.0005142719971657722 -0.004478403350197217
 0.9963661923840551 -0.034129031936386146 0.0031224915573389214 0.0139708959807982 -0.0005145028957010595 -0.004478406058166678 0.0005800565469063022 0.00713279157956782
 0.0005984702332322616 0.007130667587754699 -0.0005145028957010595 -0.004478406058166678 0.0031195201637370996 0.013970414703683418 0.9963661745168095 -0.0341297835728093
 -0.0005142719971657722 -0.004478403350197217 0.0005800565469063022 0.00713279157956782 0.9963661745168095 -0.0341297835728093 0.0031226188975302886 0.013970135307972725
0.06252605252188 0.0033744577385915998 0.015611252989100124 0.9960289903395568 -0.037985196829891966 0.0006992071419949704 0.007926476585094043 -0.0005979941441276412 -0.004981600821775207
 0.9960289903395568 -0.037985196829891966 0.0033779247490734582 0.015610953448327731 -0.0005982781889646517 -0.004981601057277827 0.0006764649339896019 0.007929120199280307
 0.0006992071419949704 0.007926476585094043 -0.0005982781889646517 -0.004981601057277827 0.0033742583162543176 0.015610436954813251 0.9960289685747264 -0.03798603202431502
 -0.0005979941441276412 -0.004981600821775207 0.0006764649339896019 0.007929120199280307 0.9960289685747264 -0.03798603202431502 0.0033780823421778743 0.015610108041523815
0.06877865777407 0.003643712551777755 0.017267140105877522 0.9956723144612568 -0.04185478177795953 0.0008083165895102821 0.008722698103287529 -0.0006885678682262964 -0.005485492623390848
 0.9956723144612568 -0.04185478177795953 0.003647905944550152 0.017266792164790958 -0.0006889103928581252 -0.005485489631311226 0.0007807857595034282 0.008725937838410025
 0.0008083165895102821 0.008722698103287529 -0.0006889103928581252 -0.005485489631311226 0.0036434716182870944 0.01726624465899466 0.9956722884080689 -0.04185570058826089
 -0.0006885678682262964 -0.005485492623390848 0.0007807857595034282 0.008725937838410025 0.9956722884080689 -0.04185570058826089 0.003648097033123643 0.017265861925683124
0.07503126302626001 0.003927715025261359 0.01893854377899003 0.9952959058923098 -0.045737712963308454 0.0009258760477139597 0.009519229909653879 -0.0007860724678988346 -0.005989971370304619
 0.9952959058923098 -0.045737712963308454 0.003932703757980416 0.018938143658482523 -0.000786478765025397 -0.00598996434084045 0.0008930955079351455 0.009523147847986982
 0.0009258760477139597 0.009519229909653879 -0.000786478765025397 -0.00598996434084045 0.003927428669854701 0.01893756949501163 0.9952958751563163 -0.04573871546077208
 -0.0007860724678988346 -0.005989971370304619 0.0008930955079351455 0.009523147847986982 0.9952958751563163 -0.04573871546077208 0.00393293159101922 0.018937128472920926
0.08128386827845 0.004226732477171236 0.020625207481712756 0.994899505928562 -0.04963389555584718 0.0010519616105503335 0.010315966197765628 -0.0008905857229785287 -0.006494928401533161
 0.994899505928562 -0.04963389555584718 0.004232585540013073 0.020624751297206 -0.0008910610449251854 -0.006494916470223467 0.0010134693254976303 0.010320650070181845
 0.0010519616105503335 0.010315966197765628 -0.0008910610449251854 -0.006494916470223467 0.004226396793469834 0.020624154986292203 0.9948994701115103 -0.04963498182111022
 -0.0008905857229785287 -0.006494928401533161 0.0010134693254976303 0.010320650070181845 0.9948994701115103 -0.04963498182111022 0.004232853373287746 0.02062365103900173
0.08753647353064001 0.004541030945103812 0.02232688269141441 0.994482856211009 -0.053543217495865277 0.0011866479095781238 0.011112797857670116 -0.0010021838417779102 -0.007000253523083786
 0.994482856211009 -0.053543217495865277 0.004547817375280937 0.022326366451973664 -0.0010027334007344803 -0.007000235770859175 0.0011419809425399087 0.011118341108161926
 0.0011866479095781238 0.011112797857670116 -0.0010027334007344803 -0.007000235770859175 0.004540642031654839 0.022325752661528697 0.9944828149109042 -0.053544387618321816
 -0.0010021838417779102 -0.007000253523083786 0.0011419809425399087 0.011118341108161926 0.9944828149109042 -0.053544387618321816 0.0045481284714786185 0.022325180983082404
0.09378907878283 0.004870875159175385 0.024043326125879266 0.9940456988966822 -0.0574655522086801 0.0013300080321939419 0.011909612677406927 -0.0011209414047367134 -0.007505834823588086
 0.9940456988966822 -0.0574655522086801 0.00487866405585 0.024042745732750177 -0.0011215703729154944 -0.007505810276812633 0.0012787025975273586 0.01191611452705495
 0.0013300080321939419 0.011909612677406927 -0.0011215703729154944 -0.007505810276812633 0.00487042911988366 0.024042119285106255 0.9940456517065229 -0.057466806291746074
 -0.0011209414047367134 -0.007505834823588086 0.0012787025975273586 0.01191611452705495 0.9940456517065229 -0.057466806291746074 0.0048790216844528285 0.024041474897759523
0.100041684035 0.0052165284969732575 0.025774297724942993 0.9935877768136566 -0.06140076057803601 0.0014821134425055495 0.012706295490932037 -0.0012469313047527766 -0.008011558547238309
 0.9935877768136566 -0.06140076057803601 0.005225389035920138 0.025773648969660334 -0.0012476448144621234 -0.008011526177761437 0.001423704962612664 0.012713861001281874
 0.0014821134425055495 0.012706295490932037 -0.0012476448144621234 -0.008011526177761437 0.005216021442094224 0.02577301485277878 0.9935877233220398 -0.06140209873028363
 -0.0012469313047527766 -0.008011558547238309 0.001423704962612664 0.012713861001281874 0.9935877233220398 -0.06140209873028363 0.005225796473415038 0.025772292604315215
0.1059090909091 0.005555499094604374 0.02741163184449841 0.9931389518092414 -0.06510511105893259 0.001632864146723296 0.013453672676143724 -0.001371800591298465 -0.008486153123513742
 0.9931389518092414 -0.06510511105893259 0.005565428252093056 0.027410915011298883 -0.001372598066503832 -0.008486112429655104 0.0015673670324540183 0.013462337129325002
 0.001632864146723296 0.013453672676143724 -0.001372598066503832 -0.008486112429655104 0.005554931251441194 0.02741027837690226 0.9931388920251725 -0.06510652821172029
 -0.001371800591298465 -0.008486153123513742 0.0015673670324540183 0.013462337129325002 0.9931388920251725 -0.06510652821172029 0.005565885415962862 0.027409478219902004
0.1062942892872 0.005578252925120992 0.027519559135748516 0.9931088336063194 -0.06534869242003816 0.0016430339035218627 0.01350272829548038 -0.0013802246852774474 -0.008517309001107675
 0.9931088336063194 -0.06534869242003816 0.0055882543736954495 0.027518837697831873 -0.0013810278289310292 -0.008517267726318289 0.0015770570701380171 0.013511468431294008
 0.0016430339035218627 0.01350272829548038 -0.0013810278289310292 -0.008517267726318289 0.005577680971776378 0.027518201060193825 0.9931087733962193 -0.06535011476303865
 -0.0013802246852774474 -0.008517309001107675 0.0015770570701380171 0.013511468431294008 0.9931087733962193 -0.06535011476303865 0.005588714903450968 0.027517395620684972
0.11254689453939999 0.005956308930704198 0.029278872548063044 0.9926086138725587 -0.06930918761116281 0.001812837400457511 0.014298790345516687 -0.0015208908766016457 -0.009022968489882403
 0.9926086138725587 -0.06930918761116281 0.005967520662718958 0.0292780739921691 -0.0015217887066253065 -0.009022917172776389 0.0017388262396603757 0.014308822036662072
 0.001812837400457511 0.014298790345516687 -0.0015217887066253065 -0.009022917172776389 0.00595566820386508 0.029277440149342426 0.9926085465216172 -0.0693106942763572
 -0.0015208908766016457 -0.009022968489882403 0.0017388262396603757 0.014308822036662072 0.9926085465216172 -0.0693106942763572 0.005968037575451231 0.02927654600752706
0.11879949979160001 0.006350955444967185 0.03105199979020623 0.9920868632962097 -0.0732820769604289 0.0019915900648018463 0.015094358230969556 -0.001668997330574057 -0.009528417270345146
 0.9920868632962097 -0.0732820769604289 0.006363446956019888 0.031051119562769746 -0.0016699948593511063 -0.00952835471958885 0.00190907800542519 0.015105804433496772
 0.0019915900648018463 0.015094358230969556 -0.0016699948593511063 -0.00952835471958885 0.006350242078017955 0.031050494003919706 0.9920867883757631 -0.07328366808627751
 -0.001668997330574057 -0.009528417270345146 0.00190907800542519 0.015105804433496772 0.9920867883757631 -0.07328366808627751 0.006364023549264473 0.03104950546300157
0.1250521050438 0.0067624497602702584 0.032838701617269234 0.991543328775044 -0.07726718289367744 0.0021793560990150946 0.01588930594458599 -0.0018246095541350697 -0.01003353352077909
 0.991543328775044 -0.07726718289367744 0.006776290682941915 0.03283773504267952 -0.0018257117538200154 -0.010033458490794234 0.0020878760441882037 0.015902295700943765
 0.0021793560990150946 0.01588930594458599 -0.0018257117538200154 -0.010033458490794234 0.006761659895996203 0.03283712342817871 0.9915432458503712 -0.07726885863230364
 -0.0018246095541350697 -0.01003353352077909 0.0020878760441882037 0.015902295700943765 0.9915432458503712 -0.07726885863230364 0.006776930261541059 0.03283603460121097
0.131304710296 0.007191047442566115 0.034638737136609574 0.9909777585468427 -0.08126432000534166 0.002376197701419435 0.016683504940803444 -0.00198779104203264 -0.010538193323119264
 0.9909777585468427 -0.08126432000534166 0.007206307561395525 0.03463767941289711 -0.0019890028443627994 -0.010538104514145831 0.0022752821029425455 0.016698173439088977
 0.002376197701419435 0.016683504940803444 -0.0019890028443627994 -0.010538104514145831 0.007190177233863897 0.03463708758505035 0.9909776671763063 -0.0812660805165561
 -0.00198779104203264 -0.010538193323119264 0.0022752821029425455 0.016698173439088977 0.9909776671763063 -0.0812660805165561 0.007207013437522279 0.034635892389715976
0.1375573155481 0.00753601762543516 0.036216051062825494 0.9904909188465102 -0.08503740085505895 0.002557071724325195 0.017452750583211715 -0.002133619718796434 -0.01101812640107241
 0.9904909188465102 -0.08503740085505895 0.007552773024909491 0.03621492242427421 -0.0021349484936364917 -0.011018023783274168 0.002446488424317889 0.017469071156520757
 0.002557071724325195 0.017452750583211715 -0.0021349484936364917 -0.011018023783274168 0.0075350638547496416 0.036214330983954844 0.9904908186450853 -0.08503924621481175
 -0.002133619718796434 -0.01101812640107241 0.002446488424317889 0.017469071156520757 0.9904908186450853 -0.08503924621481175 0.007553547779679867 0.03621304864511428
0.1438099208003 0.007893023574647388 0.03778546159916527 0.9899871248972276 -0.0888013456470959 0.002745278405719505 0.01821913364326839 -0.0022852992836223133 -0.01149549111564582
 0.9899871248972276 -0.0888013456470959 0.007911345231070083 0.037784258801623886 -0.0022867503438705862 -0.011495373416179752 0.0026246017889923028 0.01823722936694146
 0.002745278405719505 0.01821913364326839 -0.0022867503438705862 -0.011495373416179752 0.007891982522682289 0.03778367204966915 0.9899870154253675 -0.08880327600837642
 -0.0022852992836223133 -0.01149549111564582 0.0026246017889923028 0.01823722936694146 0.9899870154253675 -0.08880327600837642 0.007912192054278018 0.03778229803685702
0.1500625260525 0.008261945046857106 0.03934685013331754 0.9894665005869083 -0.09255607383870694 0.0029407574970971603 0.01898258362591036 -0.0024427721703915695 -0.011970222198789963
 0.9894665005869083 -0.09255607383870694 0.00828190412387324 0.039345569715395594 -0.0024443508196311794 -0.011970088093656087 0.002809564249835863 0.01900258205995109
 0.0029407574970971603 0.01898258362591036 -0.0024443508196311794 -0.011970088093656087 0.00826081301121141 0.039344992210887546 0.9894663813994252 -0.09255808936090358
 -0.0024427721703915695 -0.011970222198789963 0.002809564249835863 0.01900258205995109 0.9894663813994252 -0.09255808936090358 0.008282826203423419 0.03934352172572074
0.15631513130469998 0.008642661009452652 0.04090010169932936 0.9889291703604949 -0.09630150491529772 0.003143448078842408 0.01974303113830206 -0.002605980141410096 -0.012442255712299097
 0.9889291703604949 -0.09630150491529772 0.008664328863954483 0.04089873997512349 -0.002607691673788672 -0.012442103826542034 0.0030013172203424096 0.01976506428362759
