! Created with skrf 1.8.0 (http://scikit-rf.org).
# GHz S RI R 50.0 
!freq ReS11 ImS11 ReS12 ImS12 ReS13 ImS13
! ReS14 ImS14
! ReS21 ImS21 ReS22 ImS22 ReS23 ImS23
! ReS24 ImS24
! ReS31 ImS31 ReS32 ImS32 ReS33 ImS33
! ReS34 ImS34
! ReS41 ImS41 ReS42 ImS42 ReS43 ImS43
! ReS44 ImS44
!
0.0 0.001730454363235 0.0 0.9982695456256 0.0 6.700239206635e-05 0.0 -6.700239208765e-05 8.205426500535653e-21
 0.9982695456256 0.0 0.001730454363203 0.0 -6.700239208845e-05 8.205426500633623e-21 6.700239206539e-05 0.0
 6.700239206635e-05 0.0 -6.700239208845e-05 8.205426500633623e-21 0.001730454368848 0.0 0.9982695456312 0.0
 -6.700239208765e-05 8.205426500535653e-21 6.700239206539e-05 0.0 0.9982695456312 0.0 0.001730454368777 0.0
0.005 0.0018624161767503632 0.0014162104332286847 0.9981025032702395 -0.0036240927279126934 9.404938550373297e-05 0.0007318487509817335 -9.13360498363648e-05 -0.0004603736286840918
 0.9981025032702395 -0.0036240927279126934 0.0018624239641679954 0.00141620592945143 -9.13372760931356e-05 -0.000460374622739031 9.400808484005515e-05 0.0007318646922032767
 9.404938550373297e-05 0.0007318487509817335 -9.13372760931356e-05 -0.000460374622739031 0.0018624149018826044 0.0014161439430154877 0.9981025028954177 -0.003624159794842978
 -9.13360498363648e-05 -0.0004603736286840918 9.400808484005515e-05 0.0007318646922032767 0.9981025028954177 -0.003624159794842978 0.0018624244914667916 0.0014161382857648542
0.006252605252188 0.001897204977587653 0.0017758038181726022 0.9980581618476977 -0.0045309728360054015 0.00010186934618444008 0.0009151571779308624 -9.828528457359713e-05 -0.0005760499326733787
 0.9980581618476977 -0.0045309728360054015 0.0018972171496945355 0.0017757980364597578 -9.82871923120242e-05 -0.000576051159153774 0.00010180482066614798 0.0009151778549565313
 0.00010186934618444008 0.0009151571779308624 -9.82871923120242e-05 -0.000576051159153774 0.0018972030601431711 0.0017757207172666128 0.9980581613377297 -0.004531056664407678
 -9.828528457359713e-05 -0.0005760499326733787 0.00010180482066614798 0.0009151778549565313 0.9980581613377297 -0.004531056664407678 0.0018972180502661437 0.0017757134809608132
0.01250521050438 0.002081383752958676 0.003588495879142989 0.9978217382700831 -0.009062533114091238 0.00014720496524351582 0.001830612317890234 -0.00013813769236750784 -0.0011547676480044673
 0.9978217382700831 -0.009062533114091238 0.002081432343043635 0.0035884827721954352 -0.00013814520529892342 -0.0011547699236120871 0.000146947736188398 0.0018306618579338944
 0.00014720496524351582 0.001830612317890234 -0.00013814520529892342 -0.0011547699236120871 0.0020813766511657006 0.0035883300323806345 0.997821736795372 -0.009062700494177409
 -0.00013813769236750784 -0.0011547676480044673 0.000146947736188398 0.0018306618579338944 0.997821736795372 -0.009062700494177409 0.002081436509070467 0.0035883138674563516
0.01875781575657 0.002283430277923784 0.005426644296399131 0.9975599544447682 -0.013605664482215667 0.00020312013300548176 0.0027469418015399643 -0.00018668969980326907 -0.0017353014403762152
 0.9975599544447682 -0.013605664482215667 0.0022835394384632295 0.005426622203218102 -0.000186706446368803 -0.0017353045515352782 0.00020254249299879616 0.0027470301847829534
 0.00020312013300548176 0.0027469418015399643 -0.000186706446368803 -0.0017353045515352782 0.002283414734275543 0.005426395896513568 0.9975599515584301 -0.013605915334210248
 -0.00018668969980326907 -0.0017353014403762152 0.00020254249299879616 0.0027470301847829534 0.9975599515584301 -0.013605915334210248 0.0022835492433378275 0.005426368932607177
0.02501042100875 0.0025037688901140133 0.0072876318737821666 0.997272476299359 -0.018162521039201455 0.0002697269918698021 0.003664151581231217 -0.00024406641675305376 -0.0023173620422873176
 0.997272476299359 -0.018162521039201455 0.0025039627094366134 0.007287599020593982 -0.0002440959793330532 -0.002317365735486878 0.00026870130719747263 0.003664290516377166
 0.0002697269918698021 0.003664151581231217 -0.0002440959793330532 -0.002317365735486878 0.0025037416403879643 0.007287301138360141 0.9972724715495392 -0.018162855292455038
 -0.00024406641675305376 -0.0023173620422873176 0.00026870130719747263 0.003664290516377166 0.9972724715495392 -0.018162855292455038 0.002503980525347913 0.007287261333487
0.03126302626094 0.00274280631533249 0.009170087722996134 0.9969589541571712 -0.022733995701557402 0.00034713764954963535 0.00458216327654292 -0.00031038889577812186 -0.00290073653753054
 0.9969589541571712 -0.022733995701557402 0.0027431088297533613 0.009170042223695036 -0.0003104348184024305 -0.0029007405189254484 0.00034553623951589634 0.004582366208181657
 0.00034713764954963535 0.00458216327654292 -0.0003104348184024305 -0.0029007405189254484 0.0027427640958898416 0.00916967488197962 0.9969589470948144 -0.02273441330740629
 -0.00031038889577812186 -0.00290073653753054 0.00034553623951589634 0.004582366208181657 0.9969589470948144 -0.02273441330740629 0.00274313703668023 0.009169620022583085
0.037515631513130004 0.003000940009997453 0.011073099753485326 0.9966190314297377 -0.02732050765443916 0.0004354630661557533 0.005500864677943237 -0.00038577497042137517 -0.0034852378833175324
 0.9966190314297377 -0.02732050765443916 0.003001375211904158 0.011073039609656173 -0.0003858407627331661 -0.003485241818665788 0.00043315815077890504 0.005501146801632184
 0.0004354630661557533 0.005500864677943237 -0.0003858407627331661 -0.003485241818665788 0.0030008795552423206 0.011072605066842784 0.996619021606012 -0.027321008569037613
 -0.00038577497042137517 -0.0034852378833175324 0.00043315815077890504 0.005501146801632184 0.996619021606012 -0.027321008569037613 0.0030014161953347248 0.011072532767136389
0.043768236765320004 0.0032785613571696456 0.012995975061061104 0.9962523481646087 -0.03192224189259232 0.0005348125113016313 0.006420125120304719 -0.00047033954027952436 -0.004070689564444483
 0.9962523481646087 -0.03192224189259232 0.003279153201256395 0.012995898161827335 -0.0004704286799384516 -0.00407069307910432 0.0005316761882364359 0.006420503400002676
 0.0005348125113016313 0.006420125120304719 -0.0004704286799384516 -0.00407069307910432 0.0032784793991258716 0.012995398813205928 0.996252335130331 -0.03192282608310722
 -0.00047033954027952436 -0.004070689564444483 0.0005316761882364359 0.006420503400002676 0.996252335130331 -0.03192282608310722 0.003279209351266713 0.012995306514360204
0.050020842017509996 0.003576057139458996 0.014938140892009975 0.9958585428753517 -0.036539248185334786 0.0006452932263959387 0.007339801835953348 -0.0005641946551820636 -0.00465691927225603
 0.9958585428753517 -0.036539248185334786 0.003576829548204566 0.014938045013741554 -0.0005643105892992856 -0.004656921951257022 0.0006411974633964091 0.007340295022443799
 0.0006452932263959387 0.007339801835953348 -0.0005643105892992856 -0.004656921951257022 0.003575950409303845 0.0149374833972652 0.9958585261823031 -0.0365399156250829
 -0.0005641946551820636 -0.00465691927225603 0.0006411974633964091 0.007340295022443799 0.9958585261823031 -0.0365399156250829 0.0035769032613494458 0.014937368366072137
0.055454545454549996 0.0038510279466568713 0.016641217588645802 0.9954940066569646 -0.04056394229709215 0.0007504258492530552 0.008139249177275768 -0.0006533875322525654 -0.0051668695500309515
 0.9954940066569646 -0.04056394229709215 0.003851976678212127 0.01664110332327393 -0.0006535295281402816 -0.005166871134520406 0.000745392226521867 0.008139858851064921
 0.0007504258492530552 0.008139249177275768 -0.0006535295281402816 -0.005166871134520406 0.003850897032283709 0.016640489772971886 0.9954939864194813 -0.04056468205989687
 -0.0006533875322525654 -0.0051668695500309515 0.000745392226521867 0.008139858851064921 0.9954939864194813 -0.04056468205989687 0.0038520676035064937 0.016640352630673982
0.056273447269699996 0.003893810276749019 0.016899096033588707 0.9954372536410125 -0.041171489618587326 0.0007670101759056095 0.00825974308771566 -0.0006674495108474083 -0.005243755809527353
 0.9954372536410125 -0.041171489618587326 0.003894787145332346 0.01689897883947215 -0.0006675956570675111 -0.005243757197612059 0.0007618268127824537 0.00826037173740966
 0.0007670101759056095 0.00825974308771566 -0.0006675956570675111 -0.005243757197612059 0.0038936755035903605 0.016898357644532642 0.9954372328401029 -0.04117224027925748
 -0.0006674495108474083 -0.005243755809527353 0.0007618268127824537 0.00826037173740966 0.9954372328401029 -0.04117224027925748 0.003894880822294124 0.016898216972218428
0.06252605252188 0.004232200200710624 0.01887838411351851 0.994988118848057 -0.04581886923394618 0.0009000658444513306 0.009179789894262016 -0.0007802103982598413 -0.005831027409740447
 0.994988118848057 -0.04581886923394618 0.004233405401504291 0.018878243152927607 -0.0007803901454373906 -0.005831027011433597 0.0008936666011534223 0.009180576388096917
 0.0009000658444513306 0.009179789894262016 -0.0007803901454373906 -0.005831027011433597 0.00423203411277532 0.01887756520953237 0.9949880934900691 -0.04581970309765277
 -0.0007802103982598413 -0.005831027409740447 0.0008936666011534223 0.009180576388096917 0.9949880934900691 -0.04581970309765277 0.004233521447829702 0.01887739581030769
0.06877865777407 0.004591603033276986 0.020875577660925255 0.9945107777410883 -0.05048124591323916 0.001044560057264273 0.010099777075088277 -0.0009025806283543614 -0.006418560744015297
 0.9945107777410883 -0.05048124591323916 0.004593060420612853 0.02087541036865083 -0.0009027973370772189 -0.006418558023689456 0.0010368165465600892 0.010100745637397325
 0.001044560057264273 0.010099777075088277 -0.0009027973370772189 -0.006418558023689456 0.004591402358095534 0.02087467866386313 0.9945107473761235 -0.050482162957430715
 -0.0009025806283543614 -0.006418560744015297 0.0010368165465600892 0.010100745637397325 0.9945107473761235 -0.050482162957430715 0.004593201245961435 0.020874477273270582
0.07503126302626001 0.004972391646517464 0.022890268028934686 0.9940048708603146 -0.05515844440959981 0.0012005898167468604 0.011019533922442027 -0.0010346604396110997 -0.00700618030879229
 0.9940048708603146 -0.05515844440959981 0.004974125060545939 0.02289007172436449 -0.0010349174424970691 -0.007006174690738739 0.001191373560060412 0.011020710639690219
 0.0012005898167468604 0.011019533922442027 -0.0010349174424970691 -0.007006174690738739 0.004972153111269926 0.022889289388876053 0.9940048350376361 -0.05515944462198043
 -0.0010346604396110997 -0.00700618030879229 0.001191373560060412 0.011020710639690219 0.9940048350376361 -0.05515944462198043 0.004974293078266756 0.02288905256206895
0.08128386827845 0.005374935649105878 0.024922058679749753 0.9934700404102763 -0.0598502620250306 0.0013682491474874233 0.011938884663462717 -0.0011765468957576175 -0.007593708031341484
 0.9934700404102763 -0.0598502620250306 0.005376968920478094 0.02492183056569286 -0.001176847497665203 -0.007593698899842498 0.0013574315935810178 0.011940297502702726
 0.0013682491474874233 0.011938884663462717 -0.001176847497665203 -0.007593698899842498 0.00537465598133196 0.024921000885260253 0.9934699986785908 -0.059851345393741116
 -0.0011765468957576175 -0.007593708031341484 0.0013574315935810178 0.011940297502702726 0.9934699986785908 -0.059851345393741116 0.005377166547682933 0.024920724995073612
0.08753647353064001 0.005799601322603663 0.026970560559588574 0.9929059305831179 -0.06455647320691192 0.0015476289478096384 0.01285764879150584 -0.0013283337761990808 -0.008180963014335359
 0.9929059305831179 -0.06455647320691192 0.005801958276351554 0.02697029772107202 -0.0013286812543961235 -0.008180949713731884 0.0015350814932503175 0.012859327618654135
 0.0015476289478096384 0.01285764879150584 -0.0013286812543961235 -0.008180949713731884 0.00579927725067997 0.0269694241384055 0.9929058824897619 -0.06455763972042763
 -0.0013283337761990808 -0.008180963014335359 0.0015350814932503175 0.012859327618654135 0.9929058824897619 -0.06455763972042763 0.005802187932945907 0.026969105373320687
0.09378907878283 0.006246751523976038 0.029035388792686818 0.9923121878523175 -0.06927683283548448 0.0017388168450947431 0.013775641318728916 -0.0014901114614912089 -0.008767761367780603
 0.9923121878523175 -0.06927683283548448 0.006249455984269845 0.029035088195511632 -0.0014905090656882698 -0.008767743202551729 0.0017244108569495166 0.013777617916415016
 0.0017388168450947431 0.013775641318728916 -0.0014905090656882698 -0.008767743202551729 0.006246379777856865 0.029034174307761167 0.9923121329440246 -0.06927808248719883
 -0.0014901114614912089 -0.008767761367780603 0.0017244108569495166 0.013777617916415016 0.9923121329440246 -0.06927808248719883 0.00624972009299017 0.029033808669617252
0.100041684035 0.00671674556399256 0.031116160271884047 0.9916884612466966 -0.07401107862467388 0.0019418970544937521 0.014692672977083673 -0.0016619668152239152 -0.00935391610109931
 0.9916884612466966 -0.07401107862467388 0.006719821357654906 0.031115818761025548 -0.0016624177676086743 -0.009353892335936894 0.001925503894143034 0.014694981062229617
 0.0019418970544937521 0.014692672977083673 -0.0016624177676086743 -0.009353892335936894 0.006716322875721038 0.031114868326712307 0.9916883990685588 -0.07401241140800364
 -0.0016619668152239152 -0.00935391610109931 0.001925503894143034 0.014694981062229617 0.9916883990685588 -0.07401241140800364 0.006720122343351572 0.0311144516283801
0.1059090909091 0.00717887817887864 0.033082902522474235 0.9910755798047131 -0.07846604835210566 0.002143354120304217 0.01555216381532773 -0.0018324745517160066 -0.009903205437363425
 0.9910755798047131 -0.07846604835210566 0.007182324106249132 0.03308251963985535 -0.001832978471664348 -0.009903175713135117 0.0021249792314711412 0.01555481536954291
 0.002143354120304217 0.01555216381532773 -0.001832978471664348 -0.009903175713135117 0.007178404716804735 0.03308153846994709 0.991075510389692 -0.07846745914433259
 -0.0018324745517160066 -0.009903205437363425 0.0021249792314711412 0.01555481536954291 0.991075510389692 -0.07846745914433259 0.007182661903908814 0.03308106987825376
0.1062942892872 0.007209939066513503 0.03321249185114065 0.991034402608652 -0.07875893293136625 0.0021569502395612995 0.01560855038343803 -0.0018439830633460066 -0.00993923706021678
 0.991034402608652 -0.07875893293136625 0.007213410027749991 0.033212106149006285 -0.0018444905585023102 -0.009939206920111018 0.002138441288122949 0.0156112256243589
 0.0021569502395612995 0.01560855038343803 -0.0018444905585023102 -0.009939206920111018 0.00720946217072577 0.03321112308521983 0.9910343327046071 -0.07876034884490883
 -0.0018439830633460066 -0.00993923706021678 0.002138441288122949 0.0156112256243589 0.9910343327046071 -0.07876034884490883 0.0072137503169226415 0.03321065094798517
0.11254689453939999 0.007726683814406846 0.03532399897434057 0.9903496668432723 -0.08352010413925837 0.002384053374780619 0.016523076183038526 -0.0020362396717738046 -0.010523530895100755
 0.9903496668432723 -0.08352010413925837 0.007730573788662312 0.03532356567871453 -0.002036806876613249 -0.010523493565433785 0.0023633000596197645 0.016526156216201723
 0.002384053374780619 0.016523076183038526 -0.002036806876613249 -0.010523493565433785 0.007726149449051511 0.03532255406881712 0.990349588755338 -0.08352160318155213
 -0.0020362396717738046 -0.010523530895100755 0.0023633000596197645 0.016526156216201723 0.990349588755338 -0.08352160318155213 0.007730955809132071 0.03532202191960458
0.11879949979160001 0.008267327585221638 0.03745029461414343 0.9896339121596082 -0.08829428774347169 0.0026232796096454323 0.017436049177355674 -0.0022388122224465657 -0.011106601052427506
 0.9896339121596082 -0.08829428774347169 0.008271660433587756 0.03744981019600887 -0.0022394422761625914 -0.011106555679022774 0.0026001534320607114 0.017439573623624992
 0.0026232796096454323 0.017436049177355674 -0.0022394422761625914 -0.011106555679022774 0.008266732492452012 0.03744877428894983 0.9896338254282822 -0.08829586991637105
 -0.0022388122224465657 -0.011106601052427506 0.0026001534320607114 0.017439573623624992 0.9896338254282822 -0.08829586991637105 0.00827208661391637 0.0374481773575035
0.1250521050438 0.008832213977228357 0.03959098844755712 0.9888868003057006 -0.093081167209735 0.002874698134011885 0.018347264444120864 -0.002451772289059796 -0.011688247785095886
 0.9888868003057006 -0.093081167209735 0.008837013580451664 0.0395904492487616 -0.0024524683028806266 -0.011688193474368926 0.0028490706978572004 0.01835127492453945
 0.002874698134011885 0.018347264444120864 -0.0024524683028806266 -0.011688193474368926 0.008831554903954765 0.03958939346288366 0.9888867044697814 -0.09308283251747694
 -0.002451772289059796 -0.011688247785095886 0.0028490706978572004 0.01835127492453945 0.9888867044697814 -0.09308283251747694 0.008837486349646132 0.0395887267785412
0.131304710296 0.00942168223001146 0.041745686201023 0.9881079968008631 -0.09788041467575605 0.0031383740448094636 0.01925651344763966 -0.0026751873119232757 -0.012268268181209059
 0.9881079968008631 -0.09788041467575605 0.009426972492854306 0.04174508843161423 -0.0026759523690622696 -0.012268204000186774 0.00311011708609572 0.019261053598730773
 0.0031383740448094636 0.01925651344763966 -0.0026759523690622696 -0.012268204000186774 0.009420955928719065 0.041744017358624166 0.988107891396902 -0.09788216312393368
 -0.0026751873119232757 -0.012268268181209059 0.00311011708609572 0.019261053598730773 0.988107891396902 -0.09788216312393368 0.00942749427947196 0.04174327574712773
0.1375573155481 0.009907135963887315 0.04363404143725208 0.9874261641279125 -0.10241158579952366 0.0033829450740431332 0.020136510465816843 -0.0028777303918773806 -0.01281938073293055
 0.9874261641279125 -0.10241158579952366 0.009912943720621105 0.04363339634072547 -0.0028785692364289373 -0.01281930652657065 0.003351986779675514 0.020141577173920233
 0.0033829450740431332 0.020136510465816843 -0.0028785692364289373 -0.01281930652657065 0.009906340050132767 0.043632299142546745 0.987426048725268 -0.10241341733963732
 -0.0028777303918773806 -0.01281938073293055 0.003351986779675514 0.020141577173920233 0.987426048725268 -0.10241341733963732 0.009913516026099769 0.04363149314567193
0.1438099208003 0.010409859794812692 0.045511297138285306 0.9867199734924085 -0.10693008998714817 0.003637357997388872 0.021012202238688885 -0.0030883240096303815 -0.013366543074691437
 0.9867199734924085 -0.10693008998714817 0.010416209448140173 0.04551060194884164 -0.0030892399831164057 -0.013366457911861949 0.0036035804764745255 0.021017835876425785
 0.003637357997388872 0.021012202238688885 -0.0030892399831164057 -0.013366457911861949 0.010408991182834391 0.045509482166111496 0.9867198476325357 -0.10693200461491596
 -0.0030883240096303815 -0.013366543074691437 0.0036035804764745255 0.021017835876425785 0.9867198476325357 -0.10693200461491596 0.010416834532222504 0.045508607670015494
0.1500625260525 0.010929658855937881 0.04737726181614218 0.9859896245693149 -0.11143577949565583 0.0039015135256944052 0.02188347564395423 -0.0033068716565999583 -0.01390964926058135
 0.9859896245693149 -0.11143577949565583 0.010936574853017864 0.04737651361840687 -0.0033078680934453043 -0.013909552172148044 0.003864799661563534 0.02188971807363837
 0.0039015135256944052 0.02188347564395423 -0.0033078680934453043 -0.013909552172148044 0.010928714475097533 0.047375374972111514 0.9859894877927227 -0.11143777720469625
 -0.0033068716565999583 -0.01390964926058135 0.003864799661563534 0.02188971807363837 0.9859894877927227 -0.11143777720469625 0.010937254964091125 0.047374427661982785
0.15631513130469998 0.011466336682993118 0.04923174969185299 0.9852353182845468 -0.11592850789055921 0.004175311071077826 0.022750219745937328 -0.0035332755225841884 -0.014448595798721263
 0.9852353182845468 -0.11592850789055921 0.011473843516936429 0.04923094541835871 -0.0035343557500839644 -0.014448485777647202 0.004135544534716197 0.022757114303165966
