! Created with skrf 1.8.0 (http://scikit-rf.org).
# GHz S RI R 50.0 
!freq ReS11 ImS11 ReS12 ImS12 ReS13 ImS13
! ReS14 ImS14
! ReS21 ImS21 ReS22 ImS22 ReS23 ImS23
! ReS24 ImS24
! ReS31 ImS31 ReS32 ImS32 ReS33 ImS33
! ReS34 ImS34
! ReS41 ImS41 ReS42 ImS42 ReS43 ImS43
! ReS44 ImS44
!
0.0 0.00168225105881 0.0 0.9983177489241 0.0 6.510327045977e-05 0.0 -6.510326988259e-05 7.972851107574011e-21
 0.9983177489241 0.0 0.00168225105883 0.0 -6.51032698831e-05 7.97285110763647e-21 6.510327046052e-05 0.0
 6.510327045977e-05 0.0 -6.51032698831e-05 7.97285110763647e-21 0.001682251061666 0.0 0.998317748927 0.0
 -6.510326988259e-05 7.972851107574011e-21 6.510327046052e-05 0.0 0.998317748927 0.0 0.001682251061664 0.0
0.005 0.0018103806434790742 0.0013761193368690143 0.9981555616098672 -0.0035234068611099006 9.149925770868738e-05 0.0007154188270450007 -8.875813611011418e-05 -0.00044932299870174895
 0.9981555616098672 -0.0035234068611099006 0.0018104167815792198 0.0013760981901840951 -8.875688930857811e-05 -0.00044932199075597127 9.127769657401509e-05 0.000715503179825393
 9.149925770868738e-05 0.0007154188270450007 -8.875688930857811e-05 -0.00044932199075597127 0.0018103819167352556 0.0013761858116126404 0.9981555619881598 -0.0035233398074418147
 -8.875813611011418e-05 -0.00044932299870174895 9.127769657401509e-05 0.000715503179825393 0.9981555619881598 -0.0035233398074418147 0.0018104162552639012 0.0013761658134346308
0.006252605252188 0.0018441101046534967 0.001725543070857527 0.9981125723980235 -0.004405099275059502 9.913230074457291e-05 0.0008946111192927815 -9.549438014687979e-05 -0.0005622263393164793
 0.9981125723980235 -0.004405099275059502 0.001844166595758876 0.0017255162323882268 -9.549244045205992e-05 -0.0005622250956905869 9.878613345155436e-05 0.0008947207032363169
 9.913230074457291e-05 0.0008946111192927815 -9.549244045205992e-05 -0.0005622250956905869 0.0018441120082094652 0.0017256261562623436 0.9981125729022536 -0.004405015455344053
 -9.549438014687979e-05 -0.0005622263393164793 9.878613345155436e-05 0.0008947207032363169 0.9981125729022536 -0.004405015455344053 0.0018441656850420505 0.00172560076572696
0.01250521050438 0.0020223969812058593 0.0034870277085715137 0.997883719626373 -0.008810850315938496 0.00014338942481745723 0.001789510403833797 -0.0001340237523491024 -0.001127090037922211
 0.997883719626373 -0.008810850315938496 0.002022622560201638 0.0034869699310462153 -0.00013401611317026148 -0.0011270877300147244 0.00014200900632582568 0.0017897745190325997
 0.00014338942481745723 0.001789510403833797 -0.00013401611317026148 -0.0011270877300147244 0.0020224040321409516 0.0034871935090973636 0.9978837210866593 -0.008810682900458226
 -0.0001340237523491024 -0.001127090037922211 0.00014200900632582568 0.0017897745190325997 0.9978837210866593 -0.008810682900458226 0.00202261835916897 0.0034871387701080063
0.01875781575657 0.0022175286244608522 0.005273349938764937 0.9976308867385661 -0.013227943654129336 0.00019797970092040037 0.0026852690530669264 -0.00018081539923482564 -0.0016937604285295134
 0.9976308867385661 -0.013227943654129336 0.0022180355304537718 0.005273256775553217 -0.00018079837073453349 -0.0016937572715103727 0.00019487878639609616 0.002685742025381368
 0.00019797970092040037 0.0026852690530669264 -0.00018079837073453349 -0.0016937572715103727 0.002217544051539035 0.005273598145396411 0.9976308895998699 -0.01322769270106026
 -0.00018081539923482564 -0.0016937604285295134 0.00019487878639609616 0.002685742025381368 0.9976308895998699 -0.01322769270106026 0.002218025645240865 0.0052735098127064785
0.02501042100875 0.002429907932475782 0.007081976601191562 0.9973537571288785 -0.017658485288549998 0.0002630102979435324 0.0035818972018348523 -0.00023598876286364868 -0.0022619606021277027
 0.9973537571288785 -0.017658485288549998 0.002430808196049527 0.007081843299532238 -0.0002359587018225776 -0.0022619568507864984 0.00025750244073091715 0.003582642446075813
 0.0002630102979435324 0.0035818972018348523 -0.0002359587018225776 -0.0022619568507864984 0.002429934963554082 0.007082306865056809 0.9973537618419033 -0.01765815079223263
 -0.00023598876286364868 -0.0022619606021277027 0.00025750244073091715 0.003582642446075813 0.9973537618419033 -0.01765815079223263 0.0024307902265089474 0.007082180443954697
0.03126302626094 0.002659921102888213 0.00891158664500702 0.9970519990895563 -0.022103355384033 0.00033858873633959896 0.004479322181450076 -0.00029965953288163045 -0.0028314890138360317
 0.9970519990895563 -0.022103355384033 0.0026613266108139475 0.008911408153562676 -0.0002996128348527163 -0.002831484962980555 0.0003299866691199143 0.004480412257156339
 0.00033858873633959896 0.004479322181450076 -0.0002996128348527163 -0.002831484962980555 0.0026599629632256118 0.008911998546022017 0.9970520061104712 -0.02210293730580562
 -0.00029965953288163045 -0.0028314890138360317 0.0003299866691199143 0.004480412257156339 0.9970520061104712 -0.02210293730580562 0.002661298147266371 0.008911829300341775
0.037515631513130004 0.0029079456292390215 0.010761305495165711 0.9967252741137036 -0.026562973846085476 0.0004248216838314935 0.00537743819794995 -0.00037194045362941 -0.0034021698087926453
 0.9967252741137036 -0.026562973846085476 0.002909968169367438 0.010761076467246009 -0.000371873548983713 -0.0034021657933427695 0.0004124370515271955 0.0053789549009262945
 0.0004248216838314935 0.00537743819794995 -0.000371873548983713 -0.0034021657933427695 0.002908005537832894 0.010761798546265888 0.9967252839019091 -0.026562472109492336
 -0.00037194045362941 -0.0034021698087926453 0.0004124370515271955 0.0053789549009262945 0.9967252839019091 -0.026562472109492336 0.0029099267879236653 0.010761581502220433
0.043768236765320004 0.0031743533878992904 0.012630472057186988 0.9963732402953773 -0.03103753324564575 0.0005218143760069358 0.006276121465889527 -0.00045294160660262853 -0.003973837703904791
 0.9963732402953773 -0.03103753324564575 0.0031771046847667273 0.012630186852212155 -0.0004528509580847577 -0.003973834098867597 0.0005049576189451355 0.0062781559308705695
 0.0005218143760069358 0.006276121465889527 -0.0004528509580847577 -0.003973834098867597 0.0031744345576487022 0.012631045696837453 0.9963732533160737 -0.031036947743224942
 -0.00045294160660262853 -0.003973837703904791 0.0005049576189451355 0.0062781559308705695 0.9963732533160737 -0.031036947743224942 0.0031770479480053926 0.012630775645303925
0.050020842017509996 0.0034595120546427266 0.014518542436165733 0.9959955540657593 -0.03552709502818588 0.0006296702692303885 0.007175236446469083 -0.0005427704936288203 -0.00454633177178752
 0.9959955540657593 -0.03552709502818588 0.0034631038014240824 0.01451819511979879 -0.0005426525948526064 -0.0045463289922219674 0.000607650586690431 0.0071778892541777585
 0.0006296702692303885 0.007175236446469083 -0.0005426525948526064 -0.0045463289922219674 0.003459617692318345 0.014519196018394697 0.9959955707915461 -0.0355264256308844
 -0.0005427704936288203 -0.00454633177178752 0.000607650586690431 0.0071778892541777585 0.9959955707915461 -0.0355264256308844 0.003463029258358265 0.014518867515847923
0.055454545454549996 0.0037228345392413494 0.01617431567704468 0.9956462330807055 -0.03944082815277606 0.0007323013813512506 0.007956833395868682 -0.000628085274135784 -0.0050443934436616
 0.9956462330807055 -0.03944082815277606 0.003727247369058742 0.016173909335719196 -0.000627940869639457 -0.005044391749593796 0.0007052329901919386 0.007960112664090854
 0.0007323013813512506 0.007956833395868682 -0.000627940869639457 -0.005044391749593796 0.0037229640381186424 0.01617503815073272 0.9956462534163446 -0.039440085716999376
 -0.000628085274135784 -0.0050443934436616 0.0007052329901919386 0.007960112664090854 0.9956462534163446 -0.039440085716999376 0.0037271553492981015 0.01617465424957137
0.056273447269699996 0.0037637858225246577 0.01642504266226365 0.9955918712357914 -0.0400316367193743 0.0007484907871267182 0.008074638931210371 -0.0006415320404322777 -0.005119492385383452
 0.9955918712357914 -0.0400316367193743 0.003768329710800601 0.016424627005437044 -0.0006413834148404041 -0.005119490886337959 0.0007206161493949996 0.008078020217175973
 0.0007484907871267182 0.008074638931210371 -0.0006413834148404041 -0.005119490886337959 0.0037639191262413656 0.016425775469457525 0.9955918921470674 -0.04003088326302196
 -0.0006415320404322777 -0.005119492385383452 0.0007206161493949996 0.008078020217175973 0.9955918921470674 -0.04003088326302196 0.0037682348947482617 0.01642538283788756
0.06252605252188 0.004087535770207253 0.018349542735474157 0.9951618476953177 -0.044551077816135466 0.0008783751191476795 0.008974177732732106 -0.0007493285542115941 -0.005693159561910411
 0.9951618476953177 -0.044551077816135466 0.004093143518359316 0.018349052212504293 -0.0007491457543995342 -0.0056931598383561845 0.0008439523117895519 0.008978407296583932
 0.0008783751191476795 0.008974177732732106 -0.0007491457543995342 -0.0056931598383561845 0.004087699929480253 0.018350353965494667 0.9951618732822254 -0.04455024011380707
 -0.0007493285542115941 -0.005693159561910411 0.0008439523117895519 0.008978407296583932 0.9951618732822254 -0.04455024011380707 0.004093025947327949 0.018349891291358767
0.06877865777407 0.004431120044095725 0.02029164112468349 0.9947051399297924 -0.04908529522958892 0.0010194200462104867 0.009873695710089593 -0.0008662596568951336 -0.006267171978983865
 0.9947051399297924 -0.04908529522958892 0.0044379034243417475 0.02029106891043398 -0.0008660392640635212 -0.006267174565748755 0.0009777547373590947 0.009878903124578797
 0.0010194200462104867 0.009873695710089593 -0.0008660392640635212 -0.006267174565748755 0.004431318236390961 0.02029252989622571 0.9947051706915746 -0.04908437306579454
 -0.0008662596568951336 -0.006267171978983865 0.0009777547373590947 0.009878903124578797 0.9947051706915746 -0.04908437306579454 0.004437760598611093 0.020291991028475648
0.07503126302626001 0.004794893923668111 0.022250954964226792 0.9942214054265308 -0.05363413303764134 0.0011717197821489696 0.010773030427240517 -0.0009924222036401572 -0.006841366364590244
 0.9942214054265308 -0.05363413303764134 0.004802964789367073 0.02225029393029651 -0.0009921608272910197 -0.006841371836296847 0.0011221166070655704 0.010779355146514494
 0.0011717197821489696 0.010773030427240517 -0.0009921608272910197 -0.006841371836296847 0.00479512931462802 0.022251920312144714 0.9942214418742883 -0.05363312617249842
 -0.0009924222036401572 -0.006841366364590244 0.0011221166070655704 0.010779355146514494 0.9942214418742883 -0.05363312617249842 0.00480279419221628 0.022251298859209727
0.08128386827845 0.005179209819865552 0.024227113523441594 0.9937103030179647 -0.05819740897204763 0.0013353658266764517 0.01167201459627505 -0.0011279101900871452 -0.007415577109608476
 0.9937103030179647 -0.05819740897204763 0.005188680132820333 0.024226356233301313 -0.0011276044678419429 -0.007415586080583279 0.0012771284860186101 0.011679606062984233
 0.0013353658266764517 0.01167201459627505 -0.0011276044678419429 -0.007415586080583279 0.0051794855606945665 0.024228154403956825 0.9937103456742905 -0.05819631713563668
 -0.0011279101900871452 -0.007415577109608476 0.0012771284860186101 0.011679606062984233 0.9937103456742905 -0.05819631713563668 0.005188479228296804 0.024227443729834514
0.08753647353064001 0.0055844172237574366 0.02621975370679626 0.9931714931788908 -0.06277491888292763 0.0015104468241849969 0.012570476405475069 -0.0012728146538752009 -0.007989636002814849
 0.9931714931788908 -0.06277491888292763 0.005595399080473512 0.02621889241006624 -0.0012724612512774785 -0.007989649127024129 0.0014428781932204764 0.01257949415656685
 0.0015104468241849969 0.012570476405475069 -0.0012724612512774785 -0.007989649127024129 0.005584736449999986 0.026220868988854392 0.9931715425801596 -0.06277374178367463
 -0.0012728146538752009 -0.007989636002814849 0.0014428781932204764 0.01257949415656685 0.9931715425801596 -0.06277374178367463 0.00559516531370589 0.026220062208095352
0.09378907878283 0.00601086262367682 0.0282285168332945 0.9926046382982968 -0.06736643993250754 0.001697048427605328 0.013468239758057405 -0.001427223570678285 -0.008563372062996517
 0.9926046382982968 -0.06736643993250754 0.006023468282520236 0.028227543458874224 -0.0014268191811862287 -0.00856339003396053 0.0016194506747909117 0.013478853528910413
 0.001697048427605328 0.013468239758057405 -0.0014268191811862287 -0.00856339003396053 0.00601122845337927 0.028229705305205303 0.9926046949946997 -0.06736517725023598
 -0.001427223570678285 -0.008563372062996517 0.0016194506747909117 0.013478853528910413 0.9926046949946997 -0.06736517725023598 0.006023199078142729 0.028228795276931822
0.100041684035 0.00645888939867423 0.030253046291854314 0.9920094029291301 -0.07197173292174527 0.001895253165271229 0.014365124464353722 -0.0015912217470296552 -0.00913661142529737
 0.9920094029291301 -0.07197173292174527 0.006473231306645123 0.03025195244001921 -0.0015907630920103622 -0.009136634976004787 0.0018069278789757076 0.014377514291102187
 0.001895253165271229 0.014365124464353722 -0.0015907630920103622 -0.009136634976004787 0.006459304930799142 0.03025430665760997 0.9920094674865215 -0.07197038431119544
 -0.0015912217470296552 -0.00913661142529737 0.0018069278789757076 0.014377514291102187 0.9920094674865215 -0.07197038431119544 0.006472924068234153 0.030253285978490474
0.1059090909091 0.006899246074247875 0.03216687437202764 0.9914247292203296 -0.07630561146868149 0.0020918708714461197 0.015205792548676322 -0.0017539106354381691 -0.009673926557238201
 0.9914247292203296 -0.07630561146868149 0.00691531972879988 0.03216565952491752 -0.0017533981010001455 -0.00967395604566878 0.0019928433358540427 0.015220022020417055
 0.0020918708714461197 0.015205792548676322 -0.0017533981010001455 -0.00967395604566878 0.006899711046764382 0.032168200947587634 0.9914248016836656 -0.07630418188821082
 -0.0017539106354381691 -0.009673926557238201 0.0019928433358540427 0.015220022020417055 0.9914248016836656 -0.07630418188821082 0.006914974418611592 0.03216706946016168
0.1062942892872 0.006928837694168484 0.03229298577415691 0.9913854540261228 -0.07659054404851659 0.002105140310553159 0.015260946397706959 -0.0017648907103145041 -0.009709177271932134
 0.9913854540261228 -0.07659054404851659 0.006945028513890512 0.03229176270762174 -0.0017643745390768521 -0.009709207174752611 0.002005388632824436 0.01527530271762534
 0.002105140310553159 0.015260946397706959 -0.0017643745390768521 -0.009709207174752611 0.006929306006795819 0.03229431665284384 0.9913855270267296 -0.07658910913978949
 -0.0017648907103145041 -0.009709177271932134 0.002005388632824436 0.01527530271762534 0.9913855270267296 -0.07658910913978949 0.00694468062316303 0.03229317764888109
0.11254689453939999 0.0074210442851697 0.03434797794074999 0.9907324611733107 -0.08122260624192303 0.002326785752796797 0.01615551762919717 -0.0019483085973361347 -0.010280889792103717
 0.9907324611733107 -0.08122260624192303 0.007439196921876314 0.03434661657463543 -0.0019477316871943885 -0.010280926858705302 0.002214908519654988 0.016172041378884897
 0.002326785752796797 0.01615551762919717 -0.0019477316871943885 -0.010280926858705302 0.007421568433668572 0.03434937786755691 0.9907325432169581 -0.08122108463944969
 -0.0019483085973361347 -0.010280889792103717 0.002214908519654988 0.016172041378884897 0.9907325432169581 -0.08122108463944969 0.007438805737872937 0.0343481125848277
0.11879949979160001 0.007935842428199807 0.03641766337983345 0.990050096803821 -0.08586764021371497 0.0025602618704638393 0.017048646547601853 -0.0021415500409415174 -0.010851566164954396
 0.990050096803821 -0.08586764021371497 0.007956070057024719 0.036416154270355015 -0.002140909197379288 -0.010851611246192144 0.002435559757873328 0.01706754925898427
 0.0025602618704638393 0.017048646547601853 -0.002140909197379288 -0.010851611246192144 0.007936425443463827 0.0364191308061248 0.9900501885090066 -0.08586603149619633
 -0.0021415500409415174 -0.010851566164954396 0.002435559757873328 0.01706754925898427 0.9900501885090066 -0.08586603149619633 0.007955632915261062 0.03641773100032129
0.1250521050438 0.008473561705906728 0.03850167980098269 0.9893380364154988 -0.09052535528449523 0.002805637404965943 0.017940137966840193 -0.002344686056390826 -0.011421020563465742
 0.9893380364154988 -0.09052535528449523 0.008495977799228142 0.03850001313309429 -0.002343978113140649 -0.011421074549281693 0.0026674110803071643 0.01796164186062727
 0.002805637404965943 0.017940137966840193 -0.002343978113140649 -0.011421074549281693 0.008474206592605208 0.03850321309187108 0.9893381384207395 -0.09052365900746706
 -0.002344686056390826 -0.011421020563465742 0.0026674110803071643 0.01796164186062727 0.9893381384207395 -0.09052365900746706 0.008495492010800222 0.03850167021671397
0.131304710296 0.009034527865227111 0.04059966138847503 0.9885959587823507 -0.09519545006053123 0.003062977336388018 0.018829793228264318 -0.002557783926476863 -0.011989064171857059
 0.9885959587823507 -0.09519545006053123 0.009059246219432307 0.040597826962336825 -0.002557005745709623 -0.011989127991199935 0.002910527614766776 0.01885413130496763
 0.003062977336388018 0.018829793228264318 -0.002557005745709623 -0.011989127991199935 0.009035237599575544 0.040601258825485695 0.988596071746854 -0.09519366575391569
 -0.002557783926476863 -0.011989064171857059 0.002910527614766776 0.01885413130496763 0.988596071746854 -0.09519366575391569 0.009058709070313892 0.040599564019848995
0.1375573155481 0.009494805449210157 0.04243832116934297 0.9879478574743221 -0.09960456220339893 0.003301853655714937 0.019690884826053544 -0.0027505984419533315 -0.01252886668511287
 0.9879478574743221 -0.09960456220339893 0.009521947459494647 0.042436345578084206 -0.0027497452089041766 -0.012528940472855842 0.0031348322878980255 0.01971803482108814
 0.003301853655714937 0.019690884826053544 -0.0027497452089041766 -0.012528940472855842 0.009495582261744335 0.042439981489952955 0.9879479819158664 -0.09960268958226046
 -0.0027505984419533315 -0.01252886668511287 0.0031348322878980255 0.01971803482108814 0.9879479819158664 -0.09960268958226046 0.009521357227992008 0.042438162047002556
0.1438099208003 0.009971407927024039 0.04426645533282588 0.9872766809547228 -0.10400163278988239 0.003550371425921575 0.02054783985325502 -0.002951089401289219 -0.013064964204903459
 0.9872766809547228 -0.10400163278988239 0.010001088934566927 0.044264330364937106 -0.002950157717456629 -0.013065048885592357 0.003368142748730305 0.02057801613811769
 0.003550371425921575 0.02054783985325502 -0.002950157717456629 -0.013065048885592357 0.00997225461936571 0.04426817678622497 0.9872768175338476 -0.10399967139364687
 -0.002951089401289219 -0.013064964204903459 0.003368142748730305 0.02057801613811769 0.9872768175338476 -0.10399967139364687 0.01000044304946106 0.04426622580130147
0.1500625260525 0.010464154138233012 0.04608388600305346 0.9865826149140267 -0.10838652656386075 0.0038084368378676326 0.02140054948239977 -0.0031591674248926628 -0.013597257967182695
 0.9865826149140267 -0.10838652656386075 0.010496489822568502 0.046081602934363856 -0.003158153899046242 -0.013597354502901098 0.0036103693670559937 0.021433974278050306
 0.0038084368378676326 0.02140054948239977 -0.003158153899046242 -0.013597354502901098 0.010465073476305887 0.046085666770873335 0.9865827643090653 -0.10838447591512723
 -0.0031591674248926628 -0.013597257967182695 0.0036103693670559937 0.021433974278050306 0.9865827643090653 -0.10838447591512723 0.01049578569970312 0.04608357687710446
0.15631513130469998 0.010972861479699352 0.047890440626900316 0.9858658461576845 -0.11275910931844176 0.0040759548690357545 0.022248906901631272 -0.003374741946964694 -0.014125651448110087
 0.9858658461576845 -0.11275910931844176 0.011007967867604591 0.047887990205395845 -0.0033736431951976974 -0.014125760838361754 0.0038614213679033144 0.022285810191644797
