! Created with skrf 1.8.0 (http://scikit-rf.org).
# GHz S RI R 50.0 
!freq ReS11 ImS11 ReS12 ImS12 ReS13 ImS13
! ReS14 ImS14
! ReS21 ImS21 ReS22 ImS22 ReS23 ImS23
! ReS24 ImS24
! ReS31 ImS31 ReS32 ImS32 ReS33 ImS33
! ReS34 ImS34
! ReS41 ImS41 ReS42 ImS42 ReS43 ImS43
! ReS44 ImS44
!
0.0 0.001599251263681 0.0 0.9984007487136 0.0 6.158156331819e-05 0.0 -6.15815634964e-05 7.541566462235575e-21
 0.9984007487136 0.0 0.001599251263706 0.0 -6.158156349629e-05 7.541566462222104e-21 6.158156331925e-05 0.0
 6.158156331819e-05 0.0 -6.158156349629e-05 7.541566462222104e-21 0.001599251275045 0.0 0.9984007487249 0.0
 -6.15815634964e-05 7.541566462235575e-21 6.158156331925e-05 0.0 0.9984007487249 0.0 0.001599251275078 0.0
0.005 0.0017208031080184602 0.0013119041804271424 0.9982469852465677 -0.003349577036078442 8.566570412073089e-05 0.0006562663164778633 -8.345303017426375e-05 -0.0004157628064378012
 0.9982469852465677 -0.003349577036078442 0.001720774525999328 0.001311920845348825 -8.344993025296482e-05 -0.00041576041065414496 8.58632246315275e-05 0.0006561912726689591
 8.566570412073089e-05 0.0006562663164778633 -8.344993025296482e-05 -0.00041576041065414496 0.001720804432510086 0.001311836103690818 0.9982469848849447 -0.003349644096983711
 -8.345303017426375e-05 -0.0004157628064378012 8.58632246315275e-05 0.0006561912726689591 0.9982469848849447 -0.003349644096983711 0.0017207724857922716 0.0013118548064615131
0.006252605252188 0.0017527354291519183 0.0016450165915746656 0.9982063383645349 -0.004187781101327741 9.252995171169931e-05 0.0008206607973268128 -8.964360542900512e-05 -0.0005202330115829345
 0.9982063383645349 -0.004187781101327741 0.0017526907502572711 0.0016450377281108778 -8.963878182661012e-05 -0.0005202300575562451 9.28385607077473e-05 0.0008205633083564081
 9.252995171169931e-05 0.0008206607973268128 -8.963878182661012e-05 -0.0005202300575562451 0.0017527375643516861 0.0016449315048758337 0.9982063378634987 -0.004187864916738567
 -8.964360542900512e-05 -0.0005202330115829345 9.28385607077473e-05 0.0008205633083564081 0.9982063378634987 -0.004187864916738567 0.0017526876248773833 0.0016449551978870824
0.01250521050438 0.001921141514677619 0.0033242799788054875 0.9979905792674241 -0.008376290545710308 0.00013181043942610653 0.0016417535747056105 -0.00012485071800328692 -0.0010429353536390892
 0.9979905792674241 -0.008376290545710308 0.0019209631131596244 0.0033243253186117355 -0.0001248317099964604 -0.0010429298932510328 0.00013304115934631615 0.001641518777606198
 0.00013181043942610653 0.0016417535747056105 -0.0001248317099964604 -0.0010429298932510328 0.0019211506386110915 0.0033241100169070135 0.9979905778560173 -0.008376457955033889
 -0.00012485071800328692 -0.0010429353536390892 0.00013304115934631615 0.001641518777606198 0.9979905778560173 -0.008376457955033889 0.001920951220286675 0.0033241605924787237
0.01875781575657 0.0021048472537816406 0.00502725724104263 0.9977531957543713 -0.012575706421202438 0.0001795184356922762 0.0024637988879511246 -0.0001673125878085572 -0.0015673778659577183
 0.9977531957543713 -0.012575706421202438 0.0021044463837469967 0.005027330056716512 -0.00016727020137495145 -0.001567370436448389 0.00018228324826485484 0.0024633789917844953
 0.0001795184356922762 0.0024637988879511246 -0.00016727020137495145 -0.001567370436448389 0.0021048681963501707 0.005027002478224677 0.9977531930053315 -0.012575957344297757
 -0.0001673125878085572 -0.0015673778659577183 0.00018228324826485484 0.0024633789917844953 0.9977531930053315 -0.012575957344297757 0.00210442007910066 0.005027083426830606
0.02501042100875 0.002304218668224649 0.006751560404893572 0.9974939009309829 -0.01678805012028677 0.0002357493859059397 0.003286820553921145 -0.00021713531113285117 -0.002093321740407986
 0.9974939009309829 -0.01678805012028677 0.0023035067632947307 0.006751664141409417 -0.0002170604630322683 -0.0020933129778402254 0.0002406605697331559 0.0032861600500722382
 0.0002357493859059397 0.003286820553921145 -0.0002170604630322683 -0.0020933129778402254 0.002304256263283197 0.0067512208557763955 0.9974938964182678 -0.016788384543383304
 -0.00021713531113285117 -0.002093321740407986 0.0002406605697331559 0.0032861600500722382 0.9974938964182678 -0.016788384543383304 0.002303460414195926 0.0067513359306710236
0.03126302626094 0.002519606703199172 0.00849595389575771 0.9972123936408277 -0.02101417884600679 0.00030059865637997556 0.004110769293331681 -0.00027442194393734187 -0.0026205950566314112
 0.9972123936408277 -0.02101417884600679 0.0025184953252090784 0.008496092162617002 -0.0002743056430312393 -0.002620585697008072 0.0003082693428036354 0.004109804907465692
 0.00030059865637997556 0.004110769293331681 -0.0002743056430312393 -0.002620585697008072 0.002519665790201179 0.008495529559537252 0.9972123869377669 -0.021014596777619146
 -0.00027442194393734187 -0.0026205950566314112 0.0003082693428036354 0.004109804907465692 0.9972123869377669 -0.021014596777619146 0.002518423307554752 0.00849568276911967
0.037515631513130004 0.002751354645208436 0.010259627040575545 0.9969083661490471 -0.025254513044057313 0.0003741608107354451 0.004935566757750994 -0.0003392732015998782 -0.003149048780446862
 0.9969083661490471 -0.025254513044057313 0.002749755448025032 0.010259803607478777 -0.00033910653932050957 -0.003149039660013957 0.0003852052281776493 0.0049342273706692065
 0.0003741608107354451 0.004935566757750994 -0.00033910653932050957 -0.003149039660013957 0.002751440069756687 0.010259117891633574 0.9969083568266931 -0.025255014524186575
 -0.0003392732015998782 -0.003149048780446862 0.0003852052281776493 0.0049342273706692065 0.9969083568266931 -0.025255014524186575 0.0027496521451150294 0.01025931349605369
0.043768236765320004 0.002999800983194025 0.012041972654992093 0.9965815072656783 -0.029509257741836676 0.00045652926018040224 0.00576111890422847 -0.0004117876967664626 -0.003678543402357969
 0.9965815072656783 -0.029509257741836676 0.0029976256837482016 0.012042191448950938 -0.0004115618415281617 -0.0036785354577031208 0.00047156284509860326 0.005759325463059201
 0.00045652926018040224 0.00576111890422847 -0.0004115618415281617 -0.0036785354577031208 0.0029999175964964325 0.012041378652588064 0.9965814948903728 -0.0295098428320311
 -0.0004117876967664626 -0.003678543402357969 0.00047156284509860326 0.005759325463059201 0.9965814948903728 -0.0295098428320311 0.0029974854846694277 0.012041621161953751
0.050020842017509996 0.0032652807294240443 0.013842495547943012 0.996231503930487 -0.03377849396872504 0.0005477960398394676 0.006587321533146788 -0.0004920620188758214 -0.0042089434120239685
 0.996231503930487 -0.03377849396872504 0.0032624410815984425 0.013842760651322098 -0.000491768212526662 -0.00420893768007669 0.0005674354768123031 0.006584986958653341
 0.0005477960398394676 0.006587321533146788 -0.000491768212526662 -0.00420893768007669 0.003265433390202928 0.013841816637091818 0.9962314880642705 -0.03377916275072851
 -0.0004920620188758214 -0.0042089434120239685 0.0005674354768123031 0.006584986958653341 0.9962314880642705 -0.03377916275072851 0.003262258382590242 0.013842110810778276
0.055454545454549996 0.003510081961340043 0.015421632990113765 0.9959083004557306 -0.037500361452526006 0.0006344064907867979 0.007305758373948909 -0.0005681982674466202 -0.004670508139711371
 0.9959083004557306 -0.037500361452526006 0.003506593318655844 0.015421941772956246 -0.0005678383520904597 -0.004670505250695314 0.0006585503437192652 0.007302876514587756
 0.0006344064907867979 0.007305758373948909 -0.0005678383520904597 -0.004670505250695314 0.00351026990071786 0.015420880238377259 0.9959082811961772 -0.03750110304420236
 -0.0005681982674466202 -0.004670508139711371 0.0006585503437192652 0.007302876514587756 0.9959082811961772 -0.03750110304420236 0.0035063691411607884 0.01542122336881867
0.056273447269699996 0.003548126096514549 0.0156607676046912 0.9958580421574992 -0.03806222359952593 0.0006480516414876572 0.0074140630040246775 -0.0005801907416662844 -0.0047401145971517865
 0.9958580421574992 -0.03806222359952593 0.003544533867245897 0.01566108325407499 -0.0005798202971649209 -0.00474011221515115 0.0006729148604419594 0.0074110920962950425
 0.0006480516414876572 0.0074140630040246775 -0.0005798202971649209 -0.00474011221515115 0.0035483196716836955 0.015660003717624067 0.9958580223571791 -0.038062976173455554
 -0.0005801907416662844 -0.0047401145971517865 0.0006729148604419594 0.0074110920962950425 0.9958580223571791 -0.038062976173455554 0.0035443030722811875 0.01566035456443121
0.06252605252188 0.003848666853243457 0.017496403105771937 0.9954608076612059 -0.04236039396563192 0.0007573848744844233 0.008241225729216473 -0.0006762663935500699 -0.005271922568225501
 0.9954608076612059 -0.04236039396563192 0.0038442337990141308 0.017496773691648423 -0.0006758106933669663 -0.005271924773673916 0.0007880910195203315 0.008237515072838103
 0.0007573848744844233 0.008241225729216473 -0.0006758106933669663 -0.005271924773673916 0.0038489062185309256 0.017495554158645885 0.9954607834777722 -0.04236123045280081
 -0.0006762663935500699 -0.005271922568225501 0.0007880910195203315 0.008237515072838103 0.9954607834777722 -0.04236123045280081 0.0038439493207652843 0.017495966937771307
0.06877865777407 0.0041672305060282385 0.019349044000873835 0.9950394863134485 -0.046672912515840465 0.0008758827436058552 0.009068687073426498 -0.0007803794052414938 -0.0058042318818655285
 0.9950394863134485 -0.046672912515840465 0.004161868350558981 0.01934947406793686 -0.0007798299003972199 -0.005804240012452888 0.0009130521215133604 0.009064124942731228
 0.0008758827436058552 0.009068687073426498 -0.0007798299003972199 -0.005804240012452888 0.004167520546447671 0.019348109894524422 0.9950394572911244 -0.046673833057444845
 -0.0007803794052414938 -0.0058042318818655285 0.0009130521215133604 0.009064124942731228 0.9950394572911244 -0.046673833057444845 0.004161524610685812 0.019348590117233055
0.07503126302626001 0.004504142377217924 0.021218350578366237 0.9945937645010368 -0.05099965608641451 0.0010036303337773026 0.009896319929422302 -0.0008926180462629789 -0.006336905492832519
 0.9945937645010368 -0.05099965608641451 0.004497762788991547 0.021218844826635542 -0.0008919662556585915 -0.006336920986360147 0.001047884347555255 0.009890786194266352
 0.0010036303337773026 0.009896319929422302 -0.0008919662556585915 -0.006336920986360147 0.004504487987723234 0.021217331199897247 0.9945937301767976 -0.05100066084146113
 -0.0008926180462629789 -0.006336905492832519 0.001047884347555255 0.009890786194266352 0.9945937301767976 -0.05100066084146113 0.004497354219474144 0.02121788463200008
0.08128386827845 0.004859725619523706 0.023103995262883387 0.9941233294228449 -0.05534047704910484 0.001140710701902881 0.010723993102292875 -0.0010130683512504057 -0.006869804402677258
 0.9941233294228449 -0.05534047704910484 0.004852240189240657 0.02310455854956889 -0.0010123058612597179 -0.0068698287969613595 0.001192671772384338 0.010717359134644795
 0.001140710701902881 0.010723993102292875 -0.0010123058612597179 -0.0068698287969613595 0.0048601317055139695 0.02310289048313156 0.9941232893256622 -0.05534156619626558
 -0.0010130683512504057 -0.006869804402677258 0.001192671772384338 0.010717359134644795 0.9941232893256622 -0.05534156619626558 0.004851761233790724 0.023103523148162733
0.08753647353064001 0.0052343011852074425 0.025005658320699013 0.9936278693466374 -0.05969520755718363 0.0012872047712964726 0.011551571588574559 -0.0011418140411102273 -0.007402787418952899
 0.9936278693466374 -0.05969520755718363 0.005225621404056463 0.025006295662747716 -0.001140932505530833 -0.007402822351718498 0.0013474962489677367 0.011543700170125048
 0.0012872047712964726 0.011551571588574559 -0.001140932505530833 -0.007402822351718498 0.005234772662888794 0.025004467994932014 0.9936278229964682 -0.059696381293522276
 -0.0011418140411102273 -0.007402787418952899 0.0013474962489677367 0.011543700170125048 0.9936278229964682 -0.059696381293522276 0.005225066518335069 0.025005186178121485
0.09378907878283 0.005628187767339158 0.026923024797003887 0.9931070738406166 -0.06406366256612021 0.0014431912285884333 0.012378916778926575 -0.0012789364396879486 -0.007935710996488541
 0.9931070738406166 -0.06406366256612021 0.005618225004257948 0.02692374137450874 -0.0012779275797020373 -0.00793575820525105 0.0015124372974686044 0.012369662009884557
 0.0014431912285884333 0.012378916778926575 -0.0012779275797020373 -0.00793575820525105 0.005628729564329762 0.02692174876518995 0.9931070207479997 -0.06406492110609889
 -0.0012789364396879486 -0.007935710996488541 0.0015124372974686044 0.012369662009884557 0.9931070207479997 -0.06406492110609889 0.005617588657777873 0.026922559018197435
0.100041684035 0.006041701717766427 0.02885578227579646 0.9925606339865002 -0.06844564203826402 0.0016087464224082391 0.013205886617305127 -0.0014245143870953393 -0.008468429127945603
 0.9925606339865002 -0.06844564203826402 0.0060303671972230695 0.028856583436181752 -0.0014233699914755272 -0.00846849044987416 0.001687571996652691 0.013195093826627292
 0.0016087464224082391 0.013205886617305127 -0.0014233699914755272 -0.00846849044987416 0.006042318773726918 0.028854420359627545 0.992560573651944 -0.0684469856160699
 -0.0014245143870953393 -0.008468429127945603 0.001687571996652691 0.013195093826627292 0.992560573651944 -0.0684469856160699 0.0060296438744782774 0.028855329506103665
0.1059090909091 0.0064478712428877845 0.03068319057836759 0.9920242612119101 -0.07256977545657506 0.001772870943636659 0.013981439265157674 -0.00156888205193096 -0.008968009456538596
 0.9920242612119101 -0.07256977545657506 0.006435168584550674 0.030684076127705517 -0.0015676030629138396 -0.008968085781709979 0.0018612547747372953 0.013969054641763259
 0.001772870943636659 0.013981439265157674 -0.0015676030629138396 -0.008968085781709979 0.006448563424697212 0.030681747892092104 0.9920241936172914 -0.07257119906152668
 -0.00156888205193096 -0.008968009456538596 0.0018612547747372953 0.013969054641763259 0.9920241936172914 -0.07257119906152668 0.006434358641594349 0.030682756293503227
0.1062942892872 0.006475156950855866 0.030803619192323547 0.9919882425810667 -0.07284093260198458 0.001783944262586061 0.014032335727976028 -0.0015786241508963389 -0.009000793272494841
 0.9919882425810667 -0.07284093260198458 0.006462361730132094 0.03080451045539233 -0.0015773360762468976 -0.009000870644273008 0.001872974877411417 0.014019841385074042
 0.001783944262586061 0.014032335727976028 -0.0015773360762468976 -0.009000870644273008 0.00647585421729464 0.030802171197412288 0.9919881744936684 -0.07284236146853193
 -0.0015786241508963389 -0.009000793272494841 0.001872974877411417 0.014019841385074042 0.9919881744936684 -0.07284236146853193 0.006461545931440791 0.030803186339363475
0.11254689453939999 0.006928864833223038 0.032766223551169114 0.9913895943273132 -0.07724930881231938 0.0019688561205276713 0.014858115523293086 -0.00174133933550289 -0.009532652309827987
 0.9913895943273132 -0.07724930881231938 0.006914519779996457 0.032767210614917275 -0.0017398995067129522 -0.009532747767478528 0.002068717817073813 0.014843747151367893
 0.0019688561205276713 0.014858115523293086 -0.0017398995067129522 -0.009532747767478528 0.006929647274801626 0.032764689263359924 0.9913895179648851 -0.07725082323817042
 -0.00174133933550289 -0.009532652309827987 0.002068717817073813 0.014843747151367893 0.9913895179648851 -0.07725082323817042 0.0069136060232093 0.032765817788370635
0.11879949979160001 0.00740313406568168 0.0347432819252382 0.9907643860210986 -0.08167053413816339 0.0021635507299719876 0.01568307429645542 -0.0019127307900169378 -0.010063852515371112
 0.9907643860210986 -0.08167053413816339 0.007387149834687368 0.03474437067266029 -0.0019111312005649056 -0.01006396819409245 0.002274869935637042 0.015666650387614358
 0.0021635507299719876 0.01568307429645542 -0.0019111312005649056 -0.01006396819409245 0.007404006659560794 0.034741661113326494 0.9907643008484557 -0.08167213440991393
 -0.0019127307900169378 -0.010063852515371112 0.002274869935637042 0.015666650387614358 0.9907643008484557 -0.08167213440991393 0.0073861326564519025 0.034742910702649864
0.1250521050438 0.007898270555976878 0.03673447867873025 0.9901123167319158 -0.08610436173302882 0.002368094088517948 0.016507057303104738 -0.002092866515072698 -0.010594237552984607
 0.9901123167319158 -0.08610436173302882 0.007880557566723602 0.0367356751853827 -0.0020910992277003273 -0.010594375686941474 0.0024914974920996614 0.016488387235362088
 0.002368094088517948 0.016507057303104738 -0.0020910992277003273 -0.010594375686941474 0.007899238293274255 0.03673277108916123 0.9901122222006458 -0.08610604815775824
 -0.002092866515072698 -0.010594237552984607 0.0024914974920996614 0.016488387235362088 0.9901122222006458 -0.08610604815775824 0.007879431523680494 0.0367341497267412
0.131304710296 0.008414577286807836 0.038739495334278756 0.9894330879803197 -0.09055053506947607 0.0025825493590519357 0.017329906841194686 -0.002281811569124337 -0.011123648475870555
 0.9894330879803197 -0.09055053506947607 0.008395045699748038 0.03874080587694489 -0.0022798687163301627 -0.011123811397985121 0.0027186637821832557 0.01730879079743165
 0.0025825493590519357 0.017329906841194686 -0.0022798687163301627 -0.011123811397985121 0.008415645172184807 0.03873770069601652 0.9894329835282782 -0.09055230796896642
 -0.002281811569124337 -0.011123648475870555 0.0027186637821832557 0.01730879079743165 0.9894329835282782 -0.09055230796896642 0.008393805370268959 0.038739216678330184
0.1375573155481 0.008836004207801142 0.0404978749761658 0.9888428068611518 -0.09474850907038128 0.0027796493425776654 0.01812584560330321 -0.00245214576336907 -0.011626440802196285
 0.9888428068611518 -0.09474850907038128 0.008814556126609838 0.04049927800918434 -0.0024500156189509884 -0.01162662878424577 0.002928781698188726 0.018102308935177117
 0.0027796493425776654 0.01812584560330321 -0.0024500156189509884 -0.01162662878424577 0.00883717649232292 0.04049599297422083 0.988842692026732 -0.09475036862575975
 -0.00245214576336907 -0.011626440802196285 0.002928781698188726 0.018102308935177117 0.988842692026732 -0.09475036862575975 0.008813196667257842 0.04049762663615562
0.1438099208003 0.009272346190791538 0.042246699375677016 0.9882316406137232 -0.09893552296977323 0.0029846680229247474 0.018918421727590624 -0.002629272164767005 -0.0121260502887518
 0.9882316406137232 -0.09893552296977323 0.009248890189357052 0.04224819971755527 -0.002626946266916254 -0.012126265635130742 0.003147387558343229 0.01889228124681981
 0.0029846680229247474 0.018918421727590624 -0.002626946266916254 -0.012126265635130742 0.009273627763638985 0.04224472974294363 0.9882315148352493 -0.09893746949505615
 -0.002629272164767005 -0.0121260502887518 0.003147387558343229 0.01889228124681981 0.9882315148352493 -0.09893746949505615 0.009247406311920869 0.04224648797137575
0.1500625260525 0.009723445843073117 0.04398581285521446 0.9875997510933964 -0.10311146292502668 0.0031975306033026124 0.019707550530872704 -0.0028131161087767073 -0.012622393699983506
 0.9875997510933964 -0.10311146292502668 0.009697890202994946 0.04398741566101242 -0.002810586016291544 -0.012622638807762713 0.003374402998661826 0.01967861636063896
 0.0031975306033026124 0.019707550530872704 -0.002810586016291544 -0.012622638807762713 0.009724841597959628 0.04398375531152409 0.9875996137972862 -0.10311349674668922
 -0.0028131161087767073 -0.012622393699983506 0.003374402998661826 0.01967861636063896 0.9875996137972862 -0.10311349674668922 0.009696276646461569 0.04398564541404496
0.15631513130469998 0.01018914460843502 0.04571506438514863 0.9869473010324419 -0.10727621570606549 0.003418161374885719 0.02049314886627413 -0.0030036019811506606 -0.013115389609241985
 0.9869473010324419 -0.10727621570606549 0.010161397311396387 0.04571677515865345 -0.0030008592737557783 -0.013115666967731183 0.0036097486867488968 0.02046122451324709
