! Created with skrf 1.8.0 (http://scikit-rf.org).
# GHz S RI R 50.0 
!freq ReS11 ImS11 ReS12 ImS12 ReS13 ImS13
! ReS14 ImS14
! ReS21 ImS21 ReS22 ImS22 ReS23 ImS23
! ReS24 ImS24
! ReS31 ImS31 ReS32 ImS32 ReS33 ImS33
! ReS34 ImS34
! ReS41 ImS41 ReS42 ImS42 ReS43 ImS43
! ReS44 ImS44
!
0.0 0.001884174684536 0.0 0.9981158253155 0.0 7.345057258274e-05 0.0 -7.345057241035e-05 8.995100839787602e-21
 0.9981158253155 0.0 0.001884174684514 0.0 -7.345057240958e-05 8.995100839693305e-21 7.345057258131e-05 0.0
 7.345057258274e-05 0.0 -7.345057240958e-05 8.995100839693305e-21 0.001884174666582 0.0 0.9981158252975 0.0
 -7.345057241035e-05 8.995100839787602e-21 7.345057258131e-05 0.0 0.9981158252975 0.0 0.001884174666598 0.0
0.005 0.002028437995345813 0.0015364629013620093 0.9979330710917946 -0.003945777235514445 0.00010434380448951887 0.0008325810905164403 -0.00010096978072580917 -0.0005183163123565522
 0.9979330710917946 -0.003945777235514445 0.002028478463034761 0.0015364392934411684 -0.00010097532827973575 -0.0005183205594260099 0.00010407459751200421 0.0008326837721354081
 0.00010434380448951887 0.0008325810905164403 -0.00010097532827973575 -0.0005183205594260099 0.002028434804134071 0.0015363975193539387 0.9979330706962538 -0.003945844291896989
 -0.00010096978072580917 -0.0005183163123565522 0.00010407459751200421 0.0008326837721354081 0.9979330706962538 -0.003945844291896989 0.002028480872614306 0.001536370570037447
0.006252605252188 0.0020666283466472873 0.0019265903773548723 0.9978843216791321 -0.004933129991267792 0.00011340712442240255 0.0010410924742845292 -0.00010891201048007035 -0.0006485483767687137
 0.9978843216791321 -0.004933129991267792 0.002066691604836692 0.001926560367248499 -0.00010892064290973613 -0.0006485536106298162 0.0001129865207363309 0.0010412259323152857
 0.00011340712442240255 0.0010410924742845292 -0.00010892064290973613 -0.0006485536106298162 0.0020666234448013104 0.0019265086586111562 0.9978843211477549 -0.004933213811373935
 -0.00010891201048007035 -0.0006485483767687137 0.0001129865207363309 0.0010412259323152857 0.9978843211477549 -0.004933213811373935 0.002066695458914105 0.0019264744623969164
0.01250521050438 0.0022697338727939503 0.0038931388125803003 0.9976230450461635 -0.009866643480316581 0.00016663323957040202 0.0020822657781914924 -0.00015490058511507176 -0.0013000150816369989
 0.9976230450461635 -0.009866643480316581 0.002269986465354119 0.003893073767248378 -0.00015493460369266727 -0.0013000247135593313 0.00016495611461151143 0.0020825885445075383
 0.00016663323957040202 0.0020822657781914924 -0.00015493460369266727 -0.0013000247135593313 0.0022697148543679053 0.003892975737774024 0.9976230434805983 -0.009866810894890185
 -0.00015490058511507176 -0.0013000150816369989 0.00016495611461151143 0.0020825885445075383 0.9976230434805983 -0.009866810894890185 0.002270002419880625 0.0038929021699674344
0.01875781575657 0.0024940087850246436 0.0058871464634206415 0.997331618874355 -0.014812459961211196 0.00023326019306502653 0.0031241746148558984 -0.00021157361222379643 -0.0019533707662545475
 0.997331618874355 -0.014812459961211196 0.0024945763841903966 0.005887041044501717 -0.00021164947089888836 -0.0019533837671288465 0.00022949307885427515 0.003124755226718394
 0.00023326019306502653 0.0031241746148558984 -0.00021164947089888836 -0.0019533837671288465 0.0024939664661430016 0.0058869023907631626 0.9973316157723786 -0.01481271089648868
 -0.00021157361222379643 -0.0019533707662545475 0.00022949307885427515 0.003124755226718394 0.9973316157723786 -0.01481271089648868 0.0024946126694788975 0.005886783792452885
0.02501042100875 0.0027399504585468625 0.00790571623040886 0.9970096500096571 -0.019772878041714344 0.00031342159720424014 0.004166797499972686 -0.0002790812704493842 -0.0026082518334243324
 0.9970096500096571 -0.019772878041714344 0.0027409585047732427 0.007905564828682708 -0.0002792152223358533 -0.002608266964698667 0.00030673102614875 0.004167716833278634
 0.00031342159720424014 0.004166797499972686 -0.0002792152223358533 -0.002608266964698667 0.0027398756745655377 0.007905391602931841 0.9970096448685956 -0.019773212482896565
 -0.0002790812704493842 -0.0026082518334243324 0.00030673102614875 0.004167716833278634 0.9970096448685956 -0.019773212482896565 0.002741023348103954 0.007905221881796496
0.03126302626094 0.0030080352452206993 0.00994730723723734 0.996656728296085 -0.02474882099044912 0.00040725075729464356 0.0052100124676870445 -0.00035756805808564844 -0.0032643846026849323
 0.996656728296085 -0.02474882099044912 0.0030096090286406566 0.009947103981339613 -0.00035777618825563056 -0.0032644004145791264 0.0003968025453505516 0.005211363812997551
 0.00040725075729464356 0.0052100124676870445 -0.00035777618825563056 -0.0032644004145791264 0.0030079188467380313 0.009946902599219105 0.9966567206106275 -0.02474923896591157
 -0.00035756805808564844 -0.0032643846026849323 0.0003968025453505516 0.005211363812997551 0.9966567206106275 -0.02474923896591157 0.0030097106567882137 0.009946675237693058
0.037515631513130004 0.003298727925064563 0.012010876981290629 0.996272436510895 -0.029740694548535312 0.0005148790680130522 0.006253656909123254 -0.0004471738408524339 -0.003921525518785907
 0.996272436510895 -0.029740694548535312 0.0033009926448075285 0.01201061574163838 -0.0004474720825609073 -0.003921540349871225 0.0004998380267978904 0.006255546091970974
 0.0005148790680130522 0.006253656909123254 -0.0004474720825609073 -0.003921540349871225 0.0032985607766573724 0.01201039299574456 0.9962724257712529 -0.029741196113455562
 -0.0004471738408524339 -0.003921525518785907 0.0004998380267978904 0.006255546091970974 0.9962724257712529 -0.029741196113455562 0.0033011392868549897 0.01201010105304139
0.043768236765320004 0.003612485324290176 0.014095620271214986 0.9958563544724051 -0.034748647941072325 0.0006364352322563536 0.007297545796392246 -0.0005480341930255593 -0.0045794429917259466
 0.9958563544724051 -0.034748647941072325 0.003615566139013367 0.0140952946615959 -0.0005484383370337565 -0.004579454968889431 0.0006159650653178232 0.007300091310941492
 0.0006364352322563536 0.007297545796392246 -0.0005484383370337565 -0.004579454968889431 0.0036122583023245488 0.01409505772629505 0.9958563401620315 -0.03474923317253796
 -0.0005480341930255593 -0.0045794429917259466 0.0006159650653178232 0.007300091310941492 0.9958563401620315 -0.03474923317253796 0.003615766025981543 0.014094693837700933
0.050020842017509996 0.003949757952498746 0.016200861361808844 0.9954080611757443 -0.03977268169286225 0.0007720447736922065 0.008341479231160628 -0.0006602804836462955 -0.005237909923542528
 0.9954080611757443 -0.03977268169286225 0.003953780026289149 0.016200464739155745 -0.0006608061839719252 -0.00523791696207847 0.0007453080713667586 0.008344812378828025
 0.0007720447736922065 0.008341479231160628 -0.0006608061839719252 -0.00523791696207847 0.003949461949056587 0.016200221170738414 0.9954080427729554 -0.039773350691216396
 -0.0006602804836462955 -0.005237909923542528 0.0007453080713667586 0.008344812378828025 0.9954080427729554 -0.039773350691216396 0.003954041395240166 0.016199777545141566
0.055454545454549996 0.004262301069395468 0.01804655965990454 0.9949919946125356 -0.044151706281893736 0.0009014014695990116 0.009248561526568147 -0.000767171535202929 -0.005810408172593243
 0.9949919946125356 -0.044151706281893736 0.004267242811576647 0.018046095728811235 -0.0007678154810735798 -0.005810409062052212 0.0008685380549995119 0.009252695836264258
 0.0009014014695990116 0.009248561526568147 -0.0007678154810735798 -0.005810409062052212 0.004261937733522886 0.018045852829986192 0.9949919722236814 -0.04415244817765607
 -0.000767171535202929 -0.005810408172593243 0.0008685380549995119 0.009252695836264258 0.9949919722236814 -0.04415244817765607 0.0042675643039774775 0.018045333248616395
0.056273447269699996 0.004310990809378002 0.018326001029075282 0.9949271361043145 -0.04481270051092735 0.000921829678106546 0.009385246170422879 -0.0007840398503438763 -0.005896700069145427
 0.9949271361043145 -0.04481270051092735 0.004316079355595866 0.018325526491455864 -0.0007847026277410475 -0.005896699872907093 0.0008879879722975132 0.009389511199964232
 0.000921829678106546 0.009385246170422879 -0.0007847026277410475 -0.005896699872907093 0.0043106167310852225 0.0183252842290129 0.99492711307963 -0.044813453402375726
 -0.0007840398503438763 -0.005896700069145427 0.0008879879722975132 0.009389511199964232 0.99492711307963 -0.044813453402375726 0.004316410449176262 0.01832475264436115
0.06252605252188 0.004696623770988967 0.02047048746713479 0.9944131601277219 -0.04986854235537964 0.001085908098246537 0.010428626500490722 -0.0009194351169522158 -0.006555586060546757
 0.9944131601277219 -0.04986854235537964 0.004702904095470957 0.020469927850159234 -0.0009202503611030948 -0.006555576122151563 0.0010441219575777227 0.010433980747885532
 0.001085908098246537 0.010428626500490722 -0.0009202503611030948 -0.006555576122151563 0.004696162541027334 0.020469695226759673 0.9944131319435899 -0.0498693792857622
 -0.0009194351169522158 -0.006555586060546757 0.0010441219575777227 0.010433980747885532 0.9944131319435899 -0.0498693792857622 0.004703313163023872 0.02046906702394652
0.06877865777407 0.005107091753138428 0.022633798973742635 0.9938657161822307 -0.05493999573322848 0.0012643940972310655 0.011471392293663469 -0.0010665846767421974 -0.0072143382605312795
 0.9938657161822307 -0.05493999573322848 0.0051146892951475275 0.022633146845419203 -0.0010675676473361614 -0.007214315861588331 0.0012138232507325965 0.011478006320771188
 0.0012643940972310655 0.011471392293663469 -0.0010675676473361614 -0.007214315861588331 0.005106534312431172 0.022632932588387857 0.9938656822920249 -0.05494091687422402
 -0.0010665846767421974 -0.0072143382605312795 0.0012138232507325965 0.011478006320771188 0.9938656822920249 -0.05494091687422402 0.005115184594206337 0.022632198663598842
0.07503126302626001 0.005542824734921554 0.02481543297828629 0.9932843898184421 -0.060026810662866574 0.001457397412158065 0.012513308633475466 -0.0012256023570909 -0.007872724060264805
 0.9932843898184421 -0.060026810662866574 0.005551865109828224 0.024814680632173798 -0.0012267681844093216 -0.007872686271646941 0.0013972008950967412 0.012521366364815465
 0.001457397412158065 0.012513308633475466 -0.0012267681844093216 -0.007872686271646941 0.005542162043327301 0.0248144938771115 0.9932843496650225 -0.060027816206195315
 -0.0012256023570909 -0.007872724060264805 0.0013972008950967412 0.012521366364815465 0.9932843496650225 -0.060027816206195315 0.005552454905644435 0.024813644672264237
0.08128386827845 0.006004247701429832 0.02701489875512268 0.9926687696721306 -0.06512870596719143 0.0016650232324567271 0.013554134190851 -0.0013965972710731453 -0.008530507438889978
 0.9926687696721306 -0.06512870596719143 0.00601485674186719 0.027014038201662673 -0.0013979609559216547 -0.00853045112101667 0.0015943595495102481 0.013563833047877281
 0.0016650232324567271 0.013554134190851 -0.0013979609559216547 -0.00853045112101667 0.006003470739705748 0.027013888497181244 0.9926687226874427 -0.06512979612965736
 -0.0013965972710731453 -0.008530507438889978 0.0015943595495102481 0.013563833047877281 0.9926687226874427 -0.06512979612965736 0.006015549308831401 0.027012913988848974
0.08753647353064001 0.006491780526746986 0.029231712412583506 0.9920184478815212 -0.07024537430531645 0.0018873719880890137 0.014593621644409254 -0.0015796736602670138 -0.009187448692096228
 0.9920184478815212 -0.07024537430531645 0.0065040843244592896 0.02923073536888961 -0.0015812500735650004 -0.009187370495272833 0.0018053992906745294 0.014605172677074079
 0.0018873719880890137 0.014593621644409254 -0.0015812500735650004 -0.009187370495272833 0.006490880297807445 0.029230632696766793 0.9920183934849269 -0.07024654932014625
 -0.0015796736602670138 -0.009187448692096228 0.0018053992906745294 0.014605172677074079 0.9920183934849269 -0.07024654932014625 0.006504887945987175 0.029229522383210894
0.09378907878283 0.00700583781896441 0.03146539331803513 0.991333020469719 -0.07537648578357538 0.002124539143955854 0.01563151801342843 -0.001774930732406663 -0.009843304261459353
 0.991333020469719 -0.07537648578357538 0.007019962766620831 0.031464291195737376 -0.0017767346145128075 -0.009843200626239241 0.002030415419782433 0.015645146028575866
 0.002124539143955854 0.01563151801342843 -0.0017767346145128075 -0.009843200626239241 0.007004805350384233 0.031464245977013264 0.9913329580675495 -0.07537774590755647
 -0.001774930732406663 -0.009843304261459353 0.002030415419782433 0.015645146028575866 0.9913329580675495 -0.07537774590755647 0.007020885735979047 0.031462988863548556
0.100041684035 0.007546828736530914 0.03371546150736077 0.9906120877032295 -0.08052169059756198 0.0023766149997409315 0.016667564926713913 -0.0019824624950483516 -0.010497826641591103
 0.9906120877032295 -0.08052169059756198 0.00756290156942851 0.03371422539868781 -0.001984508454732533 -0.010497693799151362 0.0022694982729334697 0.016683508613000463
 0.0023766149997409315 0.016667564926713913 -0.001984508454732533 -0.010497693799151362 0.007545655081917228 0.03371424851166105 0.9906120166875663 -0.08052303610806953
 -0.0019824624950483516 -0.010497826641591103 0.0022694982729334697 0.016683508613000463 0.9906120166875663 -0.08052303610806953 0.007563952190214989 0.03371283309405026
0.1059090909091 0.008079346686116401 0.03584138725099652 0.9899029249811306 -0.08536241000895561 0.002626796486949341 0.01763786832739883 -0.002188451769737478 -0.01111058997439665
 0.9899029249811306 -0.08536241000895561 0.008097363009235727 0.03584001701040253 -0.0021907380618055015 -0.011110426110293864 0.0025067216538862142 0.01765621458254098
 0.002626796486949341 0.01763786832739883 -0.0021907380618055015 -0.011110426110293864 0.008078032431840168 0.03584011456064296 0.9899028453161238 -0.08536383591672761
 -0.002188451769737478 -0.01111058997439665 0.0025067216538862142 0.01765621458254098 0.9899028453161238 -0.08536383591672761 0.008098540978609096 0.03583853965838113
0.1062942892872 0.008115156784708123 0.035981435746591565 0.9898552544338347 -0.08568062103821414 0.0026436844939042303 0.017701498856666845 -0.0022023575867494987 -0.011150764335852697
 0.9898552544338347 -0.08568062103821414 0.008133304622838922 0.03598005640852318 -0.002204660099994846 -0.01115059830849052 0.0025227330344830246 0.017720010905832514
 0.0026436844939042303 0.017701498856666845 -0.002204660099994846 -0.01115059830849052 0.00811383302567053 0.03598015920382292 0.989855174181259 -0.08568205223488716
 -0.0022023575867494987 -0.011150764335852697 0.0025227330344830246 0.017720010905832514 0.989855174181259 -0.08568205223488716 0.0081344912089601 0.035978573449876296
0.11254689453939999 0.008711219595601283 0.03826283207424781 0.9890621304267241 -0.0908528930334025 0.0029258270110203086 0.018733051323695203 -0.002434699106902454 -0.011801861855832981
 0.9890621304267241 -0.0908528930334025 0.008731569985890038 0.038261299910729095 -0.002437272515632787 -0.011801658457398487 0.0027901995529104368 0.018754398547887675
 0.0029258270110203086 0.018733051323695203 -0.002437272515632787 -0.011801658457398487 0.008709736844032687 0.03826149423470546 0.989062040297598 -0.09085441023346798
 -0.002434699106902454 -0.011801861855832981 0.0027901995529104368 0.018754398547887675 0.989062040297598 -0.09085441023346798 0.008732900862216824 0.03825972556389747
0.11879949979160001 0.009335408697428781 0.040559162687999355 0.9882323306807422 -0.09603810736210709 0.0032231161925604193 0.019761949087198284 -0.002679564444856101 -0.012450859748389382
 0.9882323306807422 -0.09603810736210709 0.009358089656088281 0.040557467730098426 -0.0026824229554315965 -0.012450614584811264 0.003071972159142332 0.0197864125320996
 0.0032231161925604193 0.019761949087198284 -0.0026824229554315965 -0.012450614584811264 0.00933375809772312 0.04055776594088935 0.9882322300180058 -0.09603971090498717
 -0.002679564444856101 -0.012450859748389382 0.003071972159142332 0.0197864125320996 0.9882322300180058 -0.09603971090498717 0.009359573158589799 0.040555801202006726
0.1250521050438 0.009988109274764309 0.042869935080411314 0.9873654757401344 -0.10123585063643231 0.0035356197505206845 0.020787914326198326 -0.002937025109154854 -0.013097494647272792
 0.9873654757401344 -0.10123585063643231 0.010013249328969761 0.04286806696464436 -0.0029401827907294597 -0.01309720311715503 0.003368119487295013 0.020815789379896133
 0.0035356197505206845 0.020787914326198326 -0.0029401827907294597 -0.01309720311715503 0.009986282005759791 0.04286848195762201 0.9873653638682514 -0.10123754088071296
 -0.002937025109154854 -0.013097494647272792 0.003368119487295013 0.020815789379896133 0.9873653638682514 -0.10123754088071296 0.010014893804897859 0.04286630740447829
0.131304710296 0.010669699920816613 0.045194651375295866 0.986461192000982 -0.1064456961004964 0.0038633992836289315 0.02181066481529123 -0.0032071465574141935 -0.013741499343956937
 0.986461192000982 -0.1064456961004964 0.010697428151370586 0.045192599319645095 -0.0032106173401731395 -0.013741156639209717 0.003678704298146393 0.02184226131236666
 0.0038633992836289315 0.02181066481529123 -0.0032106173401731395 -0.013741156639209717 0.010667687197921312 0.04519314455001788 0.9864610682247218 -0.10644747342588379
 -0.0032071465574141935 -0.013741499343956937 0.003678704298146393 0.02184226131236666 0.9864610682247218 -0.10644747342588379 0.010699241959379198 0.04519074581490269
0.1375573155481 0.011236350692790687 0.047229903407103827 0.985663391405583 -0.11136410853948622 0.004169728290355494 0.022801241061618228 -0.003453417594504138 -0.014353791040944834
 0.985663391405583 -0.11136410853948622 0.011266807065073225 0.047227702740078134 -0.003457222330138216 -0.014353396082530957 0.003967416791512489 0.022836549285991128
 0.004169728290355494 0.022801241061618228 -0.003457222330138216 -0.014353396082530957 0.011234144234912842 0.047228345443441136 0.9856632551623489 -0.11136597315025133
 -0.003453417594504138 -0.014353791040944834 0.003967416791512489 0.022836549285991128 0.9856632551623489 -0.11136597315025133 0.011268797829168386 0.04722575421271558
0.1438099208003 0.011823235418420161 0.0492520095164346 0.9848368443553116 -0.11626759692215373 0.0044883581876471726 0.023786150831752444 -0.003709420567395913 -0.01496101446772022
 0.9848368443553116 -0.11626759692215373 0.011856551350991574 0.0492496518396083 -0.003713574231260543 -0.014960562456935687 0.004267668328966119 0.023825457697857086
 0.0044883581876471726 0.023786150831752444 -0.003713574231260543 -0.014960562456935687 0.01182082657871054 0.049250403178645555 0.984836694949801 -0.11626954918264859
 -0.003709420567395913 -0.01496101446772022 0.004267668328966119 0.023825457697857086 0.984836694949801 -0.11626954918264859 0.011858727316971119 0.04924760735407429
0.1500625260525 0.012430106567783296 0.05126072967504822 0.9839818036260194 -0.1211559664101042 0.004819152601473386 0.024765239956031568 -0.0039750254950067275 -0.015563030723821631
 0.9839818036260194 -0.1211559664101042 0.01246641404349445 0.05125820595804696 -0.003979543011760086 -0.015562516668761085 0.004579328398837707 0.024808842870710265
 0.004819152601473386 0.024765239956031568 -0.003979543011760086 -0.015562516668761085 0.012427486739077327 0.0512590778389619 0.9839816403467843 -0.12115800669667849
 -0.0039750254950067275 -0.015563030723821631 0.004579328398837707 0.024808842870710265 0.9839816403467843 -0.12115800669667849 0.012468783460956239 0.05125606453692879
0.15631513130469998 0.013056714365777716 0.05325583110849886 0.9830985238167789 -0.12602902460003917 0.0051619732458540605 0.02573835750493174 -0.004250100541247232 -0.016159704408694055
 0.9830985238167789 -0.12602902460003917 0.013096145945220265 0.05325313166252478 -0.00425499678389085 -0.016159123125338144 0.004902264683420217 0.025786564236993756
