! Created with skrf 1.8.0 (http://scikit-rf.org).
# GHz S RI R 50.0 
!freq ReS11 ImS11 ReS12 ImS12 ReS13 ImS13
! ReS14 ImS14
! ReS21 ImS21 ReS22 ImS22 ReS23 ImS23
! ReS24 ImS24
! ReS31 ImS31 ReS32 ImS32 ReS33 ImS33
! ReS34 ImS34
! ReS41 ImS41 ReS42 ImS42 ReS43 ImS43
! ReS44 ImS44
!
0.0 0.001939015660284 0.0 0.9980609843328 0.0 7.543937480877e-05 0.0 -7.543937501291e-05 9.238658913923705e-21
 0.9980609843328 0.0 0.001939015660271 0.0 -7.543937501367e-05 9.238658914016779e-21 7.543937480698e-05 0.0
 7.543937480877e-05 0.0 -7.543937501367e-05 9.238658914016779e-21 0.001939015663773 0.0 0.9980609843362 0.0
 -7.543937501291e-05 9.238658913923705e-21 7.543937480698e-05 0.0 0.9980609843362 0.0 0.00193901566372 0.0
0.005 0.002087653830838198 0.0015850628026088216 0.997872713158937 -0.0040602636912495296 0.00010641278375414883 0.0008302105354525001 -0.00010332013117891954 -0.0005209987932222372
 0.997872713158937 -0.0040602636912495296 0.002087629503216931 0.0015850770787782969 -0.00010332217695668753 -0.0005210004112242373 0.0001065498155122225 0.0008301581531505286
 0.00010641278375414883 0.0008302105354525001 -0.00010332217695668753 -0.0005210004112242373 0.002087652917769026 0.0015851306791182104 0.9978727135523408 -0.004060196620643577
 -0.00010332013117891954 -0.0005209987932222372 0.0001065498155122225 0.0008301581531505286 0.9978727135523408 -0.004060196620643577 0.002087631188967478 0.0015851433296306696
0.006252605252188 0.0021270689560067193 0.0019875030989025357 0.9978224139918566 -0.005076253119161301 0.00011546900272242274 0.0010381396350886106 -0.00011138719978686457 -0.0006518956442425048
 0.9978224139918566 -0.005076253119161301 0.002127030927198941 0.0019875212489152464 -0.0001113903827567159 -0.0006518976391881164 0.0001156830966017374 0.0010380715585027167
 0.00011546900272242274 0.0010381396350886106 -0.0001113903827567159 -0.0006518976391881164 0.002127067453341283 0.0019875879348573468 0.9978224145324162 -0.005076169290957259
 -0.00011138719978686457 -0.0006518956442425048 0.0001156830966017374 0.0010380715585027167 0.9978224145324162 -0.005076169290957259 0.002127033488046315 0.0019876040387607798
0.01250521050438 0.002337070710418037 0.004015986369346883 0.997552388802057 -0.010152777205726242 0.00016850007859091527 0.00207644696022782 -0.00015820582137936372 -0.0013066617145316747
 0.997552388802057 -0.010152777205726242 0.002336918853426143 0.004016025783859496 -0.000158218359657288 -0.001306665397197214 0.0001693537103200622 0.002076282307272705
 0.00016850007859091527 0.00207644696022782 -0.000158218359657288 -0.001306665397197214 0.002337064140929162 0.0040161557862646614 0.9975523904052473 -0.010152609779716042
 -0.00015820582137936372 -0.0013066617145316747 0.0001693537103200622 0.002076282307272705 0.9975523904052473 -0.010152609779716042 0.0023369285251521395 0.004016190936501387
0.01875781575657 0.002569565996658095 0.00607257900537319 0.9972505120738288 -0.015241817579952086 0.00023466964543696994 0.0031155458624291654 -0.00021605639548307232 -0.0019632873164996466
 0.9972505120738288 -0.015241817579952086 0.0025692247487217224 0.006072643119030983 -0.00021608434752478067 -0.001963292308729447 0.00023658692515393545 0.003115249497171892
 0.00023466964543696994 0.0031155458624291654 -0.00021608434752478067 -0.001963292308729447 0.0025695507839174838 0.00607283288750856 0.997250515257323 -0.015241566582690184
 -0.00021605639548307232 -0.0019632873164996466 0.00023658692515393545 0.003115249497171892 0.997250515257323 -0.015241566582690184 0.002569246061101053 0.006072890254377583
0.02501042100875 0.002825078104480019 0.008154285846483582 0.9969163693779508 -0.020345723258858358 0.0003141149593267361 0.004155406324823738 -0.00028509266961464436 -0.0026214041482331683
 0.9969163693779508 -0.020345723258858358 0.0028244720381415244 0.008154378389959777 -0.0002851420174797576 -0.0026214099949367687 0.00031751990797965494 0.004154936658117405
 0.0003141149593267361 0.004155406324823738 -0.0002851420174797576 -0.0026214099949367687 0.002825050667549624 0.008154624072812765 0.9969163746705709 -0.020345388655924994
 -0.00028509266961464436 -0.0026214041482331683 0.00031751990797965494 0.004154936658117405 0.9969163746705709 -0.020345388655924994 0.002824509517727991 0.008154707033297218
0.03126302626094 0.003104108184813262 0.010259506222500828 0.9965495287995836 -0.02546542812218993 0.00040697210995123173 0.005195900863061575 -0.00036546243385910423 -0.0032807302762005532
 0.9965495287995836 -0.02546542812218993 0.0031031619631029274 0.010259631219174852 -0.0003655390955333861 -0.003280736444722687 0.00041228901727439067 0.005195209815363411
 0.00040697210995123173 0.005195900863061575 -0.0003655390955333861 -0.003280736444722687 0.0031040649236369284 0.010259928656342723 0.9965495367316056 -0.02546500982850496
 -0.00036546243385910423 -0.0032807302762005532 0.00041228901727439067 0.005195209815363411 0.9965495367316056 -0.02546500982850496 0.003103220122210059 0.010260040790303881
0.037515631513130004 0.003407145054402583 0.012387151580090554 0.9961495512943117 -0.030601333250432128 0.0005133747345951649 0.006236862365736643 -0.00045730854042996534 -0.003941012389669915
 0.9961495512943117 -0.030601333250432128 0.003405783399404893 0.012387313345931855 -0.0004574183761357115 -0.003941018269726243 0.0005210282967915155 0.006235895306996675
 0.0005133747345951649 0.006236862365736643 -0.0004574183761357115 -0.003941018269726243 0.003407082355505369 0.012387658063638856 0.9961495624071112 -0.030600831136141652
 -0.00045730854042996534 -0.003941012389669915 0.0005210282967915155 0.006235895306996675 0.9961495624071112 -0.030600831136141652 0.0034058667420118 0.012387803152441734
0.043768236765320004 0.0037346689565560614 0.014536376967491212 0.9957159949991579 -0.03575357539363192 0.0006334533634420722 0.007278101712568544 -0.0005607692255591942 -0.004602008271461347
 0.9957159949991579 -0.03575357539363192 0.0037328166238832553 0.014536580111984483 -0.0005609180412812924 -0.004602013175187929 0.0006438687267561898 0.007276797395327466
 0.0006334533634420722 0.007278101712568544 -0.0005609180412812924 -0.004602013175187929 0.0037345831878076254 0.014536967318486693 0.995716009843431 -0.035752989287765435
 -0.0005607692255591942 -0.004602008271461347 0.0006438687267561898 0.007276797395327466 0.995716009843431 -0.035752989287765435 0.003732929641335559 0.014537149344733546
0.050020842017509996 0.0040871532568181775 0.016706470084363496 0.995248417480612 -0.040922137877195584 0.0007673349948371895 0.008319415076526105 -0.0006759781767827339 -0.005263479590661458
 0.995248417480612 -0.040922137877195584 0.004084735012515378 0.016706719512829964 -0.0006761717265404535 -0.005263482752714337 0.0007809377482841435 0.008317705566693622
 0.0007673349948371895 0.008319415076526105 -0.0006761717265404535 -0.005263482752714337 0.004087040766205802 0.016707144096194563 0.9952484366186107 -0.04092146756823745
 -0.0006759781767827339 -0.005263479590661458 0.0007809377482841435 0.008317705566693622 0.9952484366186107 -0.04092146756823745 0.004084882181759509 0.01670736724463163
0.055454545454549996 0.004414106773351447 0.018608800075407578 0.9948141060305166 -0.04542694143265497 0.0008949876525604874 0.009224241370467637 -0.0007857396560470999 -0.005838519547979488
 0.9948141060305166 -0.04542694143265497 0.00441113562749661 0.01860909394174732 -0.0007859767146772287 -0.005838520514826955 0.0009117062905089811 0.009222119319498108
 0.0008949876525604874 0.009224241370467637 -0.0007859767146772287 -0.005838520514826955 0.00441396807814047 0.018609546602330208 0.994814129366821 -0.04542619774775333
 -0.0007857396560470999 -0.005838519547979488 0.0009117062905089811 0.009222119319498108 0.994814129366821 -0.04542619774775333 0.004411316099107155 0.0186098090439594
0.056273447269699996 0.004465065265584273 0.018896796834216148 0.9947463771165019 -0.04610690501402147 0.0009151427670139347 0.009360587533683488 -0.0008030644914336428 -0.005925188397482216
 0.9947463771165019 -0.04610690501402147 0.004462005864698403 0.018897097750790872 -0.0008033084786528797 -0.005925188975160495 0.0009323589042998208 0.009358398140743497
 0.0009151427670139347 0.009360587533683488 -0.0008033084786528797 -0.005925188975160495 0.004464922379972758 0.018897554272486735 0.99474640112399 -0.04610615025384324
 -0.0008030644914336428 -0.005925188397482216 0.0009323589042998208 0.009358398140743497 0.99474640112399 -0.04610615025384324 0.004462191646893271 0.018897822931680228
0.06252605252188 0.004868866628891221 0.02110677141726715 0.9942094340515032 -0.05130769198744179 0.001076995679420268 0.010401395075496268 -0.0009421525784379634 -0.006586895227345246
 0.9942094340515032 -0.05130769198744179 0.004865090795302022 0.02110712932881673 -0.0009424526568308776 -0.006586892300727608 0.00109825154020377 0.010398644283060934
 0.001076995679420268 0.010401395075496268 -0.0009424526568308776 -0.006586892300727608 0.004868689651613814 0.021107612025244672 0.9942094635191514 -0.05130685248665403
 -0.0009421525784379634 -0.006586895227345246 0.00109825154020377 0.010398644283060934 0.9942094635191514 -0.05130685248665403 0.004865319632932613 0.021107930790058023
0.06877865777407 0.005299013483327067 0.023335838510452452 0.9936371509227823 -0.056524262660596514 0.0012530083431506493 0.011441605835715856 -0.0010933620268200816 -0.007248358003015497
 0.9936371509227823 -0.056524262660596514 0.005294445889374896 0.023336259231447682 -0.0010937238009222903 -0.0072483505751108155 0.0012787305390660072 0.011438205233052503
 0.0012530083431506493 0.011441605835715856 -0.0010937238009222903 -0.0072483505751108155 0.005298798693049134 0.023336762004882952 0.9936371864579349 -0.05652333809366109
 -0.0010933620268200816 -0.007248358003015497 0.0012787305390660072 0.011438205233052503 0.9936371864579349 -0.05652333809366109 0.005294722204266762 0.023337135679969815
0.07503126302626001 0.0057559564677950896 0.025583461987955608 0.9930290934486034 -0.06175634086015633 0.0014432907471136776 0.012480980895687893 -0.0012568074552928277 -0.007909331371835238
 0.9930290934486034 -0.06175634086015633 0.005750521714949003 0.02558395164616863 -0.0012572364807270171 -0.007909318368735745 0.001473906076941043 0.012476835110404115
 0.0014432907471136776 0.012480980895687893 -0.0012572364807270171 -0.007909318368735745 0.0057557001172600505 0.025584468062499085 0.9930291356773958 -0.06175533086281811
 -0.0012568074552928277 -0.007909331371835238 0.001473906076941043 0.012476835110404115 0.9930291356773958 -0.06175533086281811 0.0057508499062342445 0.025584901666555474
0.08128386827845 0.006240140648021367 0.027849117442336757 0.9923848309347248 -0.06700361787498343 0.0016479480355151962 0.0135192748513859 -0.0014325983493922664 -0.008569566295002032
 0.9923848309347248 -0.06700361787498343 0.006233763247699704 0.027849682485337996 -0.001433100132943766 -0.008569546566045878 0.0016838833908081475 0.01351428148379546
 0.0016479480355151962 0.0135192748513859 -0.001433100132943766 -0.008569546566045878 0.006239838961433051 0.027850205766014255 0.9923848805031251 -0.06700252204691698
 -0.0014325983493922664 -0.008569566295002032 0.0016838833908081475 0.01351428148379546 0.9923848805031251 -0.06700252204691698 0.006234147688258216 0.027850704536952372
0.08753647353064001 0.006752005380844605 0.03013228702614111 0.9917039367253567 -0.07226575765079069 0.0018670802924347393 0.014556236235434452 -0.0016208388903899877 -0.009228809796338947
 0.9917039367253567 -0.07226575765079069 0.006744609734730611 0.030132934228960292 -0.0016214188899510464 -0.009228782114295914 0.001908762555958334 0.014550285794554429
 0.0018670802924347393 0.014556236235434452 -0.0016214188899510464 -0.009228782114295914 0.006751654553227392 0.030133457243771616 0.9917039943011823 -0.0722645755563918
 -0.0016208388903899877 -0.009228809796338947 0.001908762555958334 0.014550285794554429 0.9917039943011823 -0.0722645755563918 0.006745054769459118 0.03013402664488251
0.09378907878283 0.00729198413764852 0.03243245578934034 0.9909859886178692 -0.07754240050605708 0.0021007823320888953 0.015591607847606123 -0.0018216277787654984 -0.009886804817062948
 0.9909859886178692 -0.07754240050605708 0.0072834945187044845 0.032433192262811064 -0.0018222914030932567 -0.009886767878308729 0.00214863826984584 0.01558458368918168
 0.0021007823320888953 0.015591607847606123 -0.0018222914030932567 -0.009886767878308729 0.007291580332795803 0.032433707526608 0.9909860548928565 -0.07754113167062417
 -0.0018216277787654984 -0.009886804817062948 0.00214863826984584 0.01558458368918168 0.9909860548928565 -0.07754113167062417 0.0072840044617841675 0.03243435325362896
0.100041684035 0.00786050429849716 0.03474910901735222 0.9902305692523399 -0.08283316586491153 0.0023491434931906074 0.016625127031380818 -0.002035058054178449 -0.010543290139475706
 0.9902305692523399 -0.08283316586491153 0.007850844832064904 0.034749942217563536 -0.0020358106627276665 -0.01054324256418785 0.0024035996409889466 0.01661690529799346
 0.0023491434931906074 0.016625127031380818 -0.0020358106627276665 -0.01054324256418785 0.007860043647669818 0.03475044187794589 0.9902306449433518 -0.08283180977891386
 -0.002035058054178449 -0.010543290139475706 0.0024035996409889466 0.01661690529799346 0.9902306449433518 -0.08283180977891386 0.007851423963900822 0.03475116986708567
0.1059090909091 0.008420333428641718 0.03693757477262863 0.9894872413970008 -0.08781047671534456 0.002595611011086026 0.017593051850118183 -0.002246914686408022 -0.011157722570725927
 0.9894872413970008 -0.08781047671534456 0.008409507028836341 0.036938505838554056 -0.0022477556272715122 -0.011157663691569139 0.002656648376516134 0.01758358719657656
 0.002595611011086026 0.017593051850118183 -0.0022477556272715122 -0.011157663691569139 0.008419815884906439 0.03693898338044101 0.9894873266004788 -0.0878090382593534
 -0.002246914686408022 -0.011157722570725927 0.002656648376516134 0.01758358719657656 0.9894873266004788 -0.0878090382593534 0.008410154947655717 0.03693979418495241
0.1062942892872 0.008457986925272921 0.03708173025234491 0.9894372664822155 -0.08813765432468434 0.002612247436702881 0.017656525911780737 -0.002261216913753574 -0.011198000364494295
 0.9894372664822155 -0.08813765432468434 0.00844708156970414 0.03708266799107975 -0.0022620638162480556 -0.011197940696876551 0.002673729981712552 0.017646975475186545
 0.002612247436702881 0.017656525911780737 -0.0022620638162480556 -0.011197940696876551 0.008457465525587708 0.037083143820292576 0.9894373523337907 -0.08813621044309741
 -0.002261216913753574 -0.011198000364494295 0.002673729981712552 0.017646975475186545 0.9894373523337907 -0.08813621044309741 0.008447734134565192 0.0370839602573008
0.11254689453939999 0.00908484651853624 0.03942979980258701 0.9886056737330765 -0.09345544925409814 0.0028901719471846454 0.018685531609085704 -0.002500185528739976 -0.011850665928543813
 0.9886056737330765 -0.09345544925409814 0.009072619046628387 0.03943085025869125 -0.002501131984729071 -0.011850592637029913 0.0029591066050616253 0.01867451401497837
 0.0028901719471846454 0.018685531609085704 -0.002501131984729071 -0.011850592637029913 0.009084260431265378 0.039431293641597406 0.9886057705184392 -0.09345391699858246
 -0.002500185528739976 -0.011850665928543813 0.0029591066050616253 0.01867451401497837 0.9886057705184392 -0.09345391699858246 0.009073349249554795 0.0394322049717887
0.11879949979160001 0.009741490761820135 0.041792793601853895 0.9877353903494511 -0.09878611805986183 0.003182988736773819 0.0197118664403522 -0.0027520388612251616 -0.01250101314821142
 0.9877353903494511 -0.09878611805986183 0.009727864741829186 0.041793965333689995 -0.0027530900797273546 -0.012500924625715846 0.003259800624881203 0.019699235855540165
 0.003182988736773819 0.0197118664403522 -0.0027530900797273546 -0.012500924625715846 0.0097408360112289 0.041794367259090255 0.9877354988728844 -0.09878449681690755
 -0.0027520388612251616 -0.01250101314821142 0.003259800624881203 0.019699235855540165 0.9877354988728844 -0.09878449681690755 0.009728676745801988 0.04179538019853565
0.1250521050438 0.010428320257615621 0.04417018233859913 0.9868260219351541 -0.10412921320291957 0.0034907632522595575 0.020735248109425314 -0.0030168454815439143 -0.013148764291843255
 0.9868260219351541 -0.10412921320291957 0.010413219034335607 0.044171484297598575 -0.003018006620448581 -0.013148658856007602 0.0035758767589200045 0.020720851271760654
 0.0034907632522595575 0.020735248109425314 -0.003018006620448581 -0.013148658856007602 0.010427592828905985 0.04417183534761971 0.9868261430335517 -0.10412750232279945
 -0.0030168454815439143 -0.013148764291843255 0.0035758767589200045 0.020720851271760654 0.9868261430335517 -0.10412750232279945 0.01041411695765886 0.04417295689522241
0.131304710296 0.011145728255404403 0.04656143078385555 0.9858771806872899 -0.10948427303534511 0.003813554485351609 0.021755389893993927 -0.003294667386346798 -0.013793637669844858
 0.9858771806872899 -0.10948427303534511 0.011129074932110619 0.0465628723289969 -0.003295943551888041 -0.013793513563279545 0.003907393135873888 0.0217390660649599
 0.003813554485351609 0.021755389893993927 -0.003295943551888041 -0.013793513563279545 0.011144924093929998 0.04656316265970844 0.9858773152321725 -0.1094824718390827
 -0.003294667386346798 -0.013793637669844858 0.003907393135873888 0.0217390660649599 0.9858773152321725 -0.1094824718390827 0.011130062845194163 0.04656440011055183
0.1375573155481 0.011744314401112795 0.048655686317522776 0.9850383642572214 -0.1145402648767478 0.004114376616185047 0.022742896233085206 -0.0035484240617848608 -0.014406357304111567
 0.9850383642572214 -0.1145402648767478 0.011726027541390493 0.04865724900488028 -0.0035498230561507825 -0.014406214097812595 0.004217156950274901 0.022724647841349876
 0.004114376616185047 0.022742896233085206 -0.0035498230561507825 -0.014406214097812595 0.011743430573202079 0.04865749641535383 0.9850385129052488 -0.11453837294060425
 -0.0035484240617848608 -0.014406357304111567 0.004217156950274901 0.022724647841349876 0.9850385129052488 -0.11453837294060425 0.01172710876584248 0.048658829964706975
0.1438099208003 0.012364344976597899 0.05073607386315409 0.984169238682912 -0.11958055388701996 0.004427203984875381 0.023724687110909293 -0.0038121739040339535 -0.015013756357059442
 0.984169238682912 -0.11958055388701996 0.012344346734520817 0.050737765598718676 -0.003813701243449487 -0.015013592287835957 0.004539311074199234 0.023704365028516756
 0.004427203984875381 0.023724687110909293 -0.003813701243449487 -0.015013592287835957 0.01236337756957969 0.05073796162191238 0.9841694023107503 -0.11957857054498004
 -0.0038121739040339535 -0.015013756357059442 0.004539311074199234 0.023704365028516756 0.9841694023107503 -0.11957857054498004 0.012345525139498804 0.050739397127205474
0.1500625260525 0.013005554355456781 0.05280233570103082 0.9832700753685031 -0.12460492900423625 0.004751896269409233 0.024700608320413674 -0.004085778670392351 -0.015615688837813066
 0.9832700753685031 -0.12460492900423625 0.012983766648951678 0.05280416486811152 -0.004087439853488682 -0.015615502071120328 0.004873712005005 0.024678057990299308
 0.004751896269409233 0.024700608320413674 -0.004087439853488682 -0.015615502071120328 0.013004499430121523 0.0528043005413169 0.9832702548823888 -0.12460285356780236
 -0.004085778670392351 -0.015615688837813066 0.004873712005005 0.024678057990299308 0.9832702548823888 -0.12460285356780236 0.012985046049426388 0.05280584425543109
0.15631513130469998 0.01366767445950685 0.054854221887182725 0.9823411477279675 -0.12961318200158942 0.005088311171228285 0.02567050908320564 -0.004369098122610997 -0.016212012529842966
 0.9823411477279675 -0.12961318200158942 0.013644018965381225 0.05485619735946718 -0.004370898630091714 -0.01621180116013202 0.005220214203102695 0.025645570591642002
