! Created with skrf 1.8.0 (http://scikit-rf.org).
# GHz S RI R 50.0 
!freq ReS11 ImS11 ReS12 ImS12 ReS13 ImS13
! ReS14 ImS14
! ReS21 ImS21 ReS22 ImS22 ReS23 ImS23
! ReS24 ImS24
! ReS31 ImS31 ReS32 ImS32 ReS33 ImS33
! ReS34 ImS34
! ReS41 ImS41 ReS42 ImS42 ReS43 ImS43
! ReS44 ImS44
!
0.0 0.001410189048044 0.0 0.9985898109319 0.0 5.466271127882e-05 0.0 -5.466271164551e-05 6.694251484938856e-21
 0.9985898109319 0.0 0.001410189048028 0.0 -5.466271164483e-05 6.694251484855581e-21 5.466271127883e-05 0.0
 5.466271127882e-05 0.0 -5.466271164483e-05 6.694251484855581e-21 0.00141018905416 0.0 0.998589810938 0.0
 -5.466271164551e-05 6.694251484938856e-21 5.466271127883e-05 0.0 0.998589810938 0.0 0.001410189054179 0.0
0.005 0.001517008387381464 0.001144694528883348 0.99845470554637 -0.0029549522521782265 7.773428405016155e-05 0.0006576396758610981 -7.522665557066064e-05 -0.0004031849029592679
 0.99845470554637 -0.0029549522521782265 0.0015169959357327724 0.0011447018443032353 -7.523086511206386e-05 -0.00040318813382848986 7.779180666419047e-05 0.0006576176832577516
 7.773428405016155e-05 0.0006576396758610981 -7.523086511206386e-05 -0.00040318813382848986 0.0015170066020408002 0.0011447628570465714 0.9984547058867429 -0.00295488518921186
 -7.522665557066064e-05 -0.0004031849029592679 7.779180666419047e-05 0.0006576176832577516 0.9984547058867429 -0.00295488518921186 0.0015169984004676262 0.0011447676423822716
0.006252605252188 0.0015449245049425292 0.0014354282642370523 0.9984191894412789 -0.003694433197251303 8.4260113839121e-05 0.0008223498734017156 -8.099096027222671e-05 -0.0005045215453460051
 0.9984191894412789 -0.003694433197251303 0.0015449050405618734 0.0014354375599519398 -8.099751075199493e-05 -0.0005045255296787141 8.434998698018524e-05 0.0008223213436499967
 8.4260113839121e-05 0.0008223498734017156 -8.099751075199493e-05 -0.0005045255296787141 0.0015449216438065277 0.0014355136701828363 0.9984191899034416 -0.003694349375249573
 -8.099096027222671e-05 -0.0005045215453460051 8.434998698018524e-05 0.0008223213436499967 0.9984191899034416 -0.003694349375249573 0.0015449088237154593 0.0014355197983147814
0.01250521050438 0.0016913023228265983 0.0029014173971129574 0.9982318005318658 -0.00738982162842905 0.00012133803762173453 0.001644941881304741 -0.0001134735024552123 -0.0010116117774341233
 0.9982318005318658 -0.00738982162842905 0.001691224597159586 0.0029014375272491378 -0.00011349931881472442 -0.001011619155331647 0.0001216964072316218 0.0016448736645847675
 0.00012133803762173453 0.001644941881304741 -0.00011349931881472442 -0.001011619155331647 0.001691290357729129 0.0029015879911751087 0.9982318018411033 -0.007389654241627674
 -0.0001134735024552123 -0.0010116117774341233 0.0001216964072316218 0.0016448736645847675 0.9982318018411033 -0.007389654241627674 0.0016912391715020935 0.0029016017057332103
0.01875781575657 0.0018496216741160148 0.004388687624612976 0.9980274259800677 -0.011095190998571671 0.00016597877031978894 0.002468405279523298 -0.0001522072866254617 -0.0015204789582998655
 0.9980274259800677 -0.011095190998571671 0.0018494470138109508 0.0043887202666681585 -0.00015226486109336498 -0.0015204890346045361 0.00016678375456271563 0.00246828416102684
 0.00016597877031978894 0.002468405279523298 -0.00015226486109336498 -0.0015204890346045361 0.0018495943516706264 0.0043889433994261685 0.9980274284945374 -0.011094940140608897
 -0.0001522072866254617 -0.0015204789582998655 0.00016678375456271563 0.00246828416102684 0.9980274284945374 -0.011094940140608897 0.001849479342935223 0.004388966201431628
0.02501042100875 0.00202017398717115 0.0058951589290747435 0.9978058395491461 -0.014812358939420928 0.0002182656649953919 0.003292805546433234 -0.00019728617346245417 -0.00203089025493752
 0.9978058395491461 -0.014812358939420928 0.002019863793737862 0.005895205887134678 -0.00019738785095803934 -0.0020309022173926284 0.00021969542315652954 0.0032926163386060884
 0.0002182656649953919 0.003292805546433234 -0.00019738785095803934 -0.0020309022173926284 0.002020125072133839 0.005895499945508839 0.9978058436379625 -0.014812024679287555
 -0.00019728617346245417 -0.00203089025493752 0.00021969542315652954 0.0032926163386060884 0.9978058436379625 -0.014812024679287555 0.0020199208441686275 0.005895533372797846
0.03126302626094 0.002203238534153979 0.007419770877010801 0.9975668027706184 -0.01854211514436418 0.00027828272819723865 0.004118126091964433 -0.0002488014387387385 -0.0025426900801488604
 0.9975668027706184 -0.01854211514436418 0.0022027542652669494 0.007419834080110639 -0.000248959442385006 -0.0025427029977662307 0.0002805156314072617 0.0041178516252669915
 0.00027828272819723865 0.004118126091964433 -0.000248959442385006 -0.0025427029977662307 0.002203161795007344 0.007420197256706285 0.9975668088026023 -0.018541697533803136
 -0.0002488014387387385 -0.0025426900801488604 0.0002805156314072617 0.0041178516252669915 0.9975668088026023 -0.018541697533803136 0.002202842998222944 0.007420242882148591
0.037515631513130004 0.002399088647975488 0.008961839609840476 0.9973100713301598 -0.02228486432106089 0.0003461137958649649 0.004944318322936081 -0.00030684252972195466 -0.003055750027757171
 0.9973100713301598 -0.02228486432106089 0.002398391805104101 0.00896192111175037 -0.00030706897393389926 -0.003055762850279659 0.00034932850496589233 0.00494393942711417
 0.0003461137958649649 0.004944318322936081 -0.00030706897393389926 -0.003055762850279659 0.00239897785269593 0.008962351527148917 0.9973100796714228 -0.022284363402953585
 -0.00030684252972195466 -0.003055750027757171 0.00034932850496589233 0.00494393942711417 0.9973100796714228 -0.022284363402953585 0.0023985191753578953 0.00896241095755584
0.043768236765320004 0.002607994131941653 0.01052086218053441 0.9970353976460796 -0.026040821791281237 0.00042184215627087224 0.005771316854625176 -0.000371497343171753 -0.003569953656821196
 0.9970353976460796 -0.026040821791281237 0.002607046251471321 0.010520964160007282 -0.0003718042414348714 -0.003569965214497327 0.0004262176599905853 0.005770812336987024
 0.00042184215627087224 0.005771316854625176 -0.0003718042414348714 -0.003569965214497327 0.0026078430503172377 0.010521459862971705 0.9970354086632282 -0.0260402375996065
 -0.000371497343171753 -0.003569953656821196 0.0004262176599905853 0.005770812336987024 0.9970354086632282 -0.0260402375996065 0.002607219211729432 0.010521534738136058
0.050020842017509996 0.002830222387628174 0.012096435671051797 0.9967425321668286 -0.02981009430827875 0.0005055503284642121 0.0065990457999108906 -0.0004428523354270671 -0.004085190198278887
 0.9967425321668286 -0.02981009430827875 0.0028289850335491157 0.012096560432247874 -0.00044325160537217614 -0.004085199201760899 0.0005112659609309117 0.006598392422337784
 0.0005055503284642121 0.0065990457999108906 -0.00044325160537217614 -0.004085199201760899 0.0028300247897192475 0.01209711939010811 0.9967425462257532 -0.02980942687787993
 -0.0004428523354270671 -0.004085190198278887 0.0005112659609309117 0.006598392422337784 0.9967425462257532 -0.02980942687787993 0.002829210533764441 0.01209721138187844
0.055454545454549996 0.0030343714988405493 0.01347883101638641 0.9964730544904895 -0.03309655043222313 0.0005848392441821406 0.007318895973443012 -0.0005103694434703344 -0.0045337011637519645
 0.9964730544904895 -0.03309655043222313 0.0030328513851709637 0.013478977544868872 -0.0005108585939072196 -0.004533706807532205 0.0005918654021523932 0.007318092753668137
 0.0005848392441821406 0.007318895973443012 -0.0005108585939072196 -0.004533706807532205 0.0030341284185000056 0.013479589761821698 0.9964730714908818 -0.03309581069099127
 -0.0005103694434703344 -0.0045337011637519645 0.0005918654021523932 0.007318092753668137 0.9964730714908818 -0.03309581069099127 0.003033128187759106 0.013479698010603535
0.056273447269699996 0.003066038995436437 0.013688217511599548 0.9964312241236646 -0.03359271967254866 0.0005973199058140488 0.007427421854190082 -0.0005209925613918771 -0.004601351467295791
 0.9964312241236646 -0.03359271967254866 0.003064473752692446 0.013688367484893674 -0.0005214960281887951 -0.004601356507592615 0.0006045553510798313 0.007426594309692683
 0.0005973199058140488 0.007427421854190082 -0.0005214960281887951 -0.004601356507592615 0.0030657886523842276 0.01368898759013042 0.9964312415911888 -0.03359196903237693
 -0.0005209925613918771 -0.004601351467295791 0.0006045553510798313 0.007426594309692683 0.9964312415911888 -0.03359196903237693 0.0030647587417215205 0.013689098401768322
0.06252605252188 0.0033157080355927984 0.015295903648034395 0.9961012220266949 -0.03738868850154344 0.0006972314367067845 0.008256355986188827 -0.0006060016719539965 -0.005118330172077844
 0.9961012220266949 -0.03738868850154344 0.003313776504140004 0.015296081390880012 -0.0006066210706543125 -0.005118329720538569 0.0007061667252179741 0.00825532687517021
 0.0006972314367067845 0.008256355986188827 -0.0006066210706543125 -0.005118329720538569 0.0033153987169380283 0.015296760457312025 0.9961012432678581 -0.03738785467805946
 -0.0006060016719539965 -0.005118330172077844 0.0007061667252179741 0.00825532687517021 0.9961012432678581 -0.03738785467805946 0.003314127927572896 0.015296891822930963
0.06877865777407 0.0035794922587191014 0.01691921553994974 0.9957522740137168 -0.04119795717056166 0.0008053643217918847 0.009085754448160448 -0.0006979618920318336 -0.00563601890595516
 0.9957522740137168 -0.04119795717056166 0.003577156047950128 0.01691942373794716 -0.0006987088692617642 -0.005636011314263067 0.000816179820855981 0.00908449425466789
 0.0008053643217918847 0.009085754448160448 -0.0006987088692617642 -0.005636011314263067 0.0035791177355003804 0.01692015949741665 0.9957522993951099 -0.04119704019074202
 -0.0006979618920318336 -0.00563601890595516 0.000816179820855981 0.00908449425466789 0.9957522993951099 -0.04119704019074202 0.0035775808510173676 0.01692031318155439
0.07503126302626001 0.0038576531772783734 0.0185578918994525 0.9953841281220938 -0.04502045601616335 0.0009217967228868885 0.009915519417930925 -0.0007969539846303627 -0.006154309510577542
 0.9953841281220938 -0.04502045601616335 0.0038548739003281818 0.01855813336762893 -0.0007978400996205716 -0.006154293010779516 0.0009346731227465876 0.009913996485984398
 0.0009217967228868885 0.009915519417930925 -0.0007978400996205716 -0.006154293010779516 0.003857207219418902 0.0185589234795325 0.9953841580095248 -0.045019455897239886
 -0.0007969539846303627 -0.006154309510577542 0.0009346731227465876 0.009913996485984398 0.9953841580095248 -0.045019455897239886 0.003855379026061259 0.018559101276880322
0.08128386827845 0.004150451098840664 0.02021168322263188 0.9949965325061202 -0.04885609474967935 0.0010466054785443573 0.010745549426060645 -0.0009030572059551245 -0.006673092657194057
 0.9949965325061202 -0.04885609474967935 0.004147190367698384 0.020211960906812865 -0.0009040939313791625 -0.006673065361727263 0.001061723775235491 0.010743729936100887
 0.0010466054785443573 0.010745549426060645 -0.0009040939313791625 -0.006673065361727263 0.0041499274765732196 0.020212802942208657 0.9949965672658316 -0.04885501151433734
 -0.0009030572059551245 -0.006673092657194057 0.001061723775235491 0.010743729936100887 0.9949965672658316 -0.04885501151433734 0.004147782757587436 0.020213006677463664
0.08753647353064001 0.0044581451269383 0.021880347971602876 0.9945892356242199 -0.05270476622375585 0.0011798660236494775 0.011575739653559625 -0.0010163492550702995 -0.007192257560669783
 0.9945892356242199 -0.05270476622375585 0.004454364547174963 0.0218806649500316 -0.0010175479774739934 -0.0071922174624058244 0.0011974074989131312 0.01157358759917013
 0.0011798660236494775 0.011575739653559625 -0.0010175479774739934 -0.0071922174624058244 0.004457537610706404 0.021881556397939105 0.994589275622697 -0.05270359989282299
 -0.0010163492550702995 -0.007192257560669783 0.0011974074989131312 0.01157358759917013 0.994589275622697 -0.05270359989282299 0.00445505114097098 0.021881787925922734
0.09378907878283 0.0047809931362159264 0.023563649873686972 0.994161986403534 -0.056566349085234904 0.0013216523118594842 0.012405982149154239 -0.001136906218912297 -0.007711691777479094
 0.994161986403534 -0.056566349085234904 0.00477665430174551 0.023564009358742675 -0.001138278238905673 -0.007711636749791278 0.0013417985109589255 0.012403459313912268
 0.0013216523118594842 0.012405982149154239 -0.001138278238905673 -0.007711636749791278 0.00478029549640486 0.023564947628292632 0.9941620320076228 -0.05656509967447533
 -0.001136906218912297 -0.007711691777479094 0.0013417985109589255 0.012403459313912268 0.9941620320076228 -0.05656509967447533 0.004777442037267 0.023565208834087876
0.100041684035 0.005119251730031105 0.025261355928673915 0.9937145343900149 -0.060440709723791994 0.0014720367397211595 0.013236165992968932 -0.0012648025143264844 -0.008231281060758799
 0.9937145343900149 -0.060440709723791994 0.005114316218187622 0.025261761268883277 -0.0012663590466544304 -0.008231208857596603 0.0014949694471875184 0.013233231927753643
 0.0014720367397211595 0.013236165992968932 -0.0012663590466544304 -0.008231208857596603 0.0051184577375687915 0.025262743681781965 0.993714585966925 -0.06043937725013008
 -0.0012648025143264844 -0.008231281060758799 0.0014949694471875184 0.013233231927753643 0.993714585966925 -0.06043937725013008 0.0051152120313134415 0.0252630364811533
0.1059090909091 0.005450914717711219 0.026867367427716716 0.9932760514795722 -0.06408787899803267 0.0016210395469738546 0.014015050828863684 -0.0013915594344767795 -0.008718898087818405
 0.9932760514795722 -0.06408787899803267 0.005445384323428915 0.026867818966642483 -0.0013932992351556323 -0.00871880761823517 0.0016467526185256292 0.014011692071272067
 0.0016210395469738546 0.014015050828863684 -0.0013932992351556323 -0.00871880761823517 0.005450024643751352 0.026868840290631836 0.99327610899576 -0.06408646859277847
 -0.0013915594344767795 -0.008718898087818405 0.0016467526185256292 0.014011692071272067 0.99327610899576 -0.06408646859277847 0.0054463878619148455 0.02686916450736418
0.1062942892872 0.005473176185717509 0.02697323491436681 0.9932466298879575 -0.06432770372622751 0.0016310900726887426 0.014066177416413 -0.0014001108268631031 -0.008750909262984285
 0.9932466298879575 -0.06432770372622751 0.005467605552247039 0.026973689596449635 -0.0014018630002669613 -0.00875081751896774 0.0016569912865384807 0.014062789416914181
 0.0016310900726887426 0.014066177416413 -0.0014018630002669613 -0.00875081751896774 0.005472279612036602 0.02697471338938998 0.9932466878052975 -0.0643262882038771
 -0.0014001108268631031 -0.008750909262984285 0.0016569912865384807 0.014062789416914181 0.9932466878052975 -0.0643262882038771 0.005468616376599354 0.026975039729277065
0.11254689453939999 0.005843020389261424 0.02869905624448648 0.9927580240925777 -0.06822717698247165 0.0017988813711152273 0.014895899907035215 -0.0015429020485723613 -0.009270458257385686
 0.9927580240925777 -0.06822717698247165 0.005836776163450595 0.028699563895684777 -0.0015448609056040524 -0.009270344487904853 0.0018279332753585718 0.014892012991656668
 0.0017988813711152273 0.014895899907035215 -0.0015448609056040524 -0.009270344487904853 0.005842015006490255 0.028700626214897496 0.9927580887185344 -0.06822567842678727
 -0.0015429020485723613 -0.009270458257385686 0.0018279332753585718 0.014892012991656668 0.9927580887185344 -0.06822567842678727 0.005837908929812995 0.028700988074235056
0.11879949979160001 0.006229036762810837 0.030438589068574076 0.9922484692171961 -0.07213896655398205 0.001975477917118656 0.015725214290693033 -0.0016932452138370897 -0.009789807885933342
 0.9922484692171961 -0.07213896655398205 0.006222080442113014 0.030439153459156945 -0.001695421710479779 -0.009789669487279514 0.002007862853049467 0.015720781178887696
 0.001975477917118656 0.015725214290693033 -0.001695421710479779 -0.009789669487279514 0.006227916344207324 0.030440251364850086 0.9922485409204751 -0.07213738497512921
 -0.0016932452138370897 -0.009789807885933342 0.002007862853049467 0.015720781178887696 0.9922485409204751 -0.07213738497512921 0.006223342078641175 0.030440650755441088
0.1250521050438 0.006631476185819454 0.03219160158167679 0.9917177186166438 -0.07606290133654377 0.0021609451419172705 0.016553998800845147 -0.001851207433831641 -0.010308835924234122
 0.9917177186166438 -0.07606290133654377 0.006623769231337762 0.03219222662761111 -0.0018536124390810904 -0.01030867017374401 0.002196845578177787 0.0165489698918079
 0.0021609451419172705 0.016553998800845147 -0.0018536124390810904 -0.01030867017374401 0.006630234505700247 0.032193357085335945 0.9917177977666422 -0.07606123674615535
 -0.001851207433831641 -0.010308835924234122 0.002196845578177787 0.0165489698918079 0.9917177977666422 -0.07606123674615535 0.006625166662754462 0.0321937960529676
0.131304710296 0.007050587910887051 0.033957860449793965 0.9911655269080671 -0.07999880261194585 0.0023553465534384586 0.017382129139576513 -0.0020168538300468137 -0.01082741805869415
 0.9911655269080671 -0.07999880261194585 0.007042091742125561 0.03395855021567501 -0.002019498125436889 -0.010827222114901768 0.0023949450548461835 0.017376452491413636
 0.0023553465534384586 0.017382129139576513 -0.002019498125436889 -0.010827222114901768 0.007049218745269528 0.03395971009734803 0.9911656138750079 -0.07999705501989035
 -0.0020168538300468137 -0.01082741805869415 0.0023949450548461835 0.017376452491413636 0.9911656138750079 -0.07999705501989035 0.007043631889718104 0.03396019072315632
0.1375573155481 0.007387725752500519 0.03550421970002453 0.990690578290106 -0.08371347521726592 0.0025332108800468064 0.018185084180283813 -0.002164671963489408 -0.011321080537634759
 0.990690578290106 -0.08371347521726592 0.0073783997488961976 0.03550496394879343 -0.0021675714393524603 -0.01132085437715154 0.0025766022026972374 0.018178770747072467
 0.0025332108800468064 0.018185084180283813 -0.0021675714393524603 -0.01132085437715154 0.0073862233789910485 0.03550616461439647 0.9906906734260671 -0.0837116446683988
 -0.002164671963489408 -0.011321080537634759 0.0025766022026972374 0.018178770747072467 0.9906906734260671 -0.0837116446683988 0.007380089067410253 0.035506674383707096
0.1438099208003 0.0077366082101923426 0.03704284349137942 0.9901991305222253 -0.0874192002980013 0.002718274061300123 0.01898524396432348 -0.002318434600789106 -0.011812166101419556
 0.9901991305222253 -0.0874192002980013 0.007726413431466606 0.0370436453344908 -0.0023216008334170767 -0.011811906952319368 0.002765625020135655 0.018978246488127615
 0.002718274061300123 0.01898524396432348 -0.0023216008334170767 -0.011811906952319368 0.007734966497288326 0.03704488465799852 0.9901992341939433 -0.08741728681064942
 -0.002318434600789106 -0.011812166101419556 0.002765625020135655 0.018978246488127615 0.9901992341939433 -0.08741728681064942 0.007728258755045043 0.037045424614298196
0.1500625260525 0.008097118843025553 0.038573616587745746 0.9896913037754499 -0.09111590020276 0.002910477366586788 0.019782540995106485 -0.0024780841066166797 -0.012300609134899462
 0.9896913037754499 -0.09111590020276 0.008086016297821965 0.03857447929816909 -0.002481528650085136 -0.012300314114542217 0.002961953848030774 0.01977481050439138
 0.002910477366586788 0.019782540995106485 -0.002481528650085136 -0.012300314114542217 0.008095331666305878 0.03857575503450792 0.9896914163500516 -0.09111390379463809
 -0.0024780841066166797 -0.012300609134899462 0.002961953848030774 0.01977481050439138 0.9896914163500516 -0.09111390379463809 0.008088024452596852 0.03857632629768385
0.15631513130469998 0.008469140451147189 0.04009642729941235 0.9891672187591748 -0.09480349726853751 0.0031097614250454883 0.02057690882608514 -0.002643562178647954 -0.012786345354743506
 0.9891672187591748 -0.09480349726853751 0.008457091095378786 0.04009735431400077 -0.00264729656458516 -0.012786011470201164 0.0031655283730704534 0.020568394653456452
