! Created with skrf 1.8.0 (http://scikit-rf.org).
# GHz S RI R 50.0 
!freq ReS11 ImS11 ReS12 ImS12 ReS13 ImS13
! ReS14 ImS14
! ReS21 ImS21 ReS22 ImS22 ReS23 ImS23
! ReS24 ImS24
! ReS31 ImS31 ReS32 ImS32 ReS33 ImS33
! ReS34 ImS34
! ReS41 ImS41 ReS42 ImS42 ReS43 ImS43
! ReS44 ImS44
!
0.0 0.001878701376241 0.0 0.9981212986237 0.0 7.324145127116e-05 0.0 -7.324145079878e-05 8.969490828563428e-21
 0.9981212986237 0.0 0.00187870137626 0.0 -7.324145079938e-05 8.969490828636907e-21 7.324145127066e-05 0.0
 7.324145127116e-05 0.0 -7.324145079938e-05 8.969490828636907e-21 0.001878701362713 0.0 0.9981212986102 0.0
 -7.324145079878e-05 8.969490828563428e-21 7.324145127066e-05 0.0 0.9981212986102 0.0 0.0018787013627 0.0
0.005 0.0020225367996014564 0.0015317300194328813 0.9979390978239976 -0.00393441317636473 0.00010400409996363233 0.0008315401364400065 -0.00010070196424666568 -0.0005174380797460998
 0.9979390978239976 -0.00393441317636473 0.002022561628775251 0.0015317154471856428 -0.00010069938432982702 -0.0005174360607557504 0.00010386709911080657 0.0008315925265538314
 0.00010400409996363233 0.0008315401364400065 -0.00010069938432982702 -0.0005174360607557504 0.002022538700203251 0.001531796152869734 0.9979390982052072 -0.003934346110181165
 -0.00010070196424666568 -0.0005174380797460998 0.00010386709911080657 0.0008315925265538314 0.9979390982052072 -0.003934346110181165 0.0020225604931689164 0.0015317834524966269
0.006252605252188 0.0020606105697038245 0.0019206577496557156 0.9978905038326111 -0.004918923297442793 0.00011300860411204259 0.0010397918973881568 -0.00010862603723846852 -0.0006474500767557001
 0.9978905038326111 -0.004918923297442793 0.0020606493826693575 0.0019206392189631877 -0.0001086220230367355 -0.0006474475876700177 0.00011279455831061801 0.0010398599671743451
 0.00011300860411204259 0.0010397918973881568 -0.0001086220230367355 -0.0006474475876700177 0.0020606134723354847 0.001920740394718311 0.9978905043595587 -0.004918839482719722
 -0.00010862603723846852 -0.0006474500767557001 0.00011279455831061801 0.0010398599671743451 0.9978905043595587 -0.004918839482719722 0.0020606475380695543 0.0019207242165025387
0.01250521050438 0.0022630766711068434 0.003881168214418274 0.9976301042736481 -0.009838239854948387 0.00016578510585007046 0.0020796784645398365 -0.00015450290197989888 -0.0012978182874167257
 0.9976301042736481 -0.009838239854948387 0.002263231658611423 0.0038811279390651306 -0.00015448708706727662 -0.0012978136946363464 0.00016493166278716946 0.002079842859482049
 0.00016578510585007046 0.0020796784645398365 -0.00015448708706727662 -0.0012978136946363464 0.0022630877137439515 0.003881333199048872 0.9976301058211839 -0.009838072493340237
 -0.00015450290197989888 -0.0012978182874167257 0.00016493166278716946 0.002079842859482049 0.9976301058211839 -0.009838072493340237 0.0022632237308778335 0.0038812977894656583
0.01875781575657 0.00248661433605464 0.005869069841483931 0.9973397254112062 -0.014769836564307682 0.0002317023345327073 0.003120319708104134 -0.00021102858054521367 -0.0019500763012263833
 0.9973397254112062 -0.014769836564307682 0.002486962617133743 0.005869004299386269 -0.0002109933203542849 -0.0019500700772861314 0.00022978546577240189 0.0031206151197042315
 0.0002317023345327073 0.003120319708104134 -0.0002109933203542849 -0.0019500700772861314 0.002486638740329839 0.005869316993933491 0.9973397284608941 -0.014769585782095439
 -0.00021102858054521367 -0.0019500763012263833 0.00022978546577240189 0.0031206151197042315 0.9973397284608941 -0.014769585782095439 0.0024869443659960885 0.005869259091421033
0.02501042100875 0.002731718295860973 0.007881475318488278 0.9970189762065552 -0.019716007096550248 0.00031089344187032854 0.004161699149009387 -0.00027835259775038754 -0.0026038618235579023
 0.9970189762065552 -0.019716007096550248 0.0027323368487174034 0.007881380703735145 -0.00027829034278912217 -0.0026038545357228555 0.00030748918472327995 0.004162166519589378
 0.00031089344187032854 0.004161699149009387 -0.00027829034278912217 -0.0026038545357228555 0.0027317612853881915 0.007881804477850949 0.9970189812381788 -0.019715673002896037
 -0.00027835259775038754 -0.0026038618235579023 0.00030748918472327995 0.004162166519589378 0.9970189812381788 -0.019715673002896037 0.002732304037907263 0.007881720633143624
0.03126302626094 0.0029988623937835454 0.009916849766745582 0.9966674486593597 -0.02467767372881204 0.0004034911376258891 0.005203699865998691 -0.0003566188727184689 -0.0032589025349667876
 0.9966674486593597 -0.02467767372881204 0.0029998281016372693 0.009916721992758988 -0.00035652215309586526 -0.0032588948460411083 0.0003981752268100982 0.005204386424840004
 0.0004034911376258891 0.005203699865998691 -0.00035652215309586526 -0.0032588948460411083 0.002998929197896846 0.009917260754192879 0.9966674561516533 -0.024677256443987338
 -0.0003566188727184689 -0.0032589025349667876 0.0003981752268100982 0.005204386424840004 0.9966674561516533 -0.024677256443987338 0.0029997764983950696 0.009917147334048138
0.037515631513130004 0.0032885090014069217 0.011974155279026757 0.9962847277065464 -0.029655242766706044 0.0005096261983837077 0.006246164349656838 -0.00044596675054764075 -0.003914956294279569
 0.9962847277065464 -0.029655242766706044 0.0032898986834769316 0.011973989978970033 -0.00044582816810784974 -0.003914948962741012 0.0005019739177552809 0.006247123672171594
 0.0005096261983837077 0.006246164349656838 -0.00044582816810784974 -0.003914948962741012 0.0032886048521995523 0.011974647911105711 0.9962847381323359 -0.029654742407986098
 -0.00044596675054764075 -0.003914956294279569 0.0005019739177552809 0.006247123672171594 0.9962847381323359 -0.029654742407986098 0.0032898240544941768 0.0119745011000028
0.043768236765320004 0.003601112616150379 0.014052590648262045 0.9958703953062564 -0.03464886476326874 0.0006294267323171425 0.007288912738712196 -0.0005465313412994301 -0.004571792967865159
 0.9958703953062564 -0.03464886476326874 0.0036030030533859138 0.014052383174178042 -0.0005463435651014584 -0.004571786847856387 0.000619012860913409 0.007290204812734406
 0.0006294267323171425 0.007288912738712196 -0.0005463435651014584 -0.004571786847856387 0.003601242750672153 0.014053164727272568 0.9958704091330985 -0.03464828145369486
 -0.0005465313412994301 -0.004571792967865159 0.000619012860913409 0.007290204812734406 0.9958704091330985 -0.03464828145369486 0.003602901166299713 0.014052980527809131
0.050020842017509996 0.0039371214948054085 0.016151483793616868 0.9954240325651412 -0.039658542042117856 0.0007630177195099593 0.008331750366378815 -0.0006584436037654195 -0.005229186957917815
 0.9954240325651412 -0.039658542042117856 0.003939589452892426 0.016151229214427448 -0.0006581993673600684 -0.0052291829991438195 0.0007494165280916546 0.00833344166092552
 0.0007630177195099593 0.008331750366378815 -0.0006581993673600684 -0.0052291829991438195 0.003937291158683032 0.016152139100611182 0.9954240502575222 -0.0396578759163947
 -0.0006584436037654195 -0.005229186957917815 0.0007494165280916546 0.00833344166092552 0.9954240502575222 -0.0396578759163947 0.003939456079208587 0.016151913333199538
0.055454545454549996 0.004248475374473272 0.017991635735209285 0.9950097922525022 -0.04402507170573252 0.000890406331672923 0.009237920786887809 -0.0007650130205591713 -0.005800760357866628
 0.9950097922525022 -0.04402507170573252 0.004251507563166474 0.017991335993714094 -0.0007647138659956055 -0.005800759122690488 0.0008736891441201594 0.009240018083118688
 0.000890406331672923 0.009237920786887809 -0.0007647138659956055 -0.005800759122690488 0.004248683655703185 0.017992361435508655 0.9950098136765327 -0.044024333729949905
 -0.0007650130205591713 -0.005800760357866628 0.0008736891441201594 0.009240018083118688 0.9950098136765327 -0.044024333729949905 0.004251343394246994 0.01799209600746327
0.056273447269699996 0.004296978456275494 0.01827023897175263 0.9949452210411239 -0.04468418144207608 0.0009105206686818072 0.00937447149488096 -0.0007818303206154256 -0.005886913552558974
 0.9949452210411239 -0.04468418144207608 0.004300100707239105 0.018269932070558575 -0.000781522420243521 -0.005886912800185534 0.0008933059475147608 0.00937663502973798
 0.0009105206686818072 0.00937447149488096 -0.000781522420243521 -0.005886912800185534 0.0042971929015301995 0.018270975262554237 0.9949452430571151 -0.04468343264959376
 -0.0007818303206154256 -0.005886913552558974 0.0008933059475147608 0.00937663502973798 0.9949452430571151 -0.04468343264959376 0.004299931620409309 0.01827070356407296
0.06252605252188 0.004681121267799915 0.020408307779380696 0.9944335436354759 -0.049725623280646135 0.0010720533363854693 0.010416861380311952 -0.000916814014862941 -0.0065447469566620635
 0.9944335436354759 -0.049725623280646135 0.004684974610028885 0.02040794304977602 -0.0009164353083096866 -0.006544750551164756 0.0010507984429019381 0.010419576795534352
 0.0010720533363854693 0.010416861380311952 -0.0009164353083096866 -0.006544750551164756 0.004681385755200577 0.020409124789274685 0.994433570428037 -0.04972479197968939
 -0.000916814014862941 -0.0065447469566620635 0.0010507984429019381 0.010419576795534352 0.994433570428037 -0.04972479197968939 0.004684765588352233 0.020408802611081207
0.06877865777407 0.005089982808452054 0.022565171871521485 0.9938885852690187 -0.05478265861315054 0.0012477294774960936 0.011458697535097193 -0.0010635128356984833 -0.0072024591367261335
 0.9938885852690187 -0.05478265861315054 0.0050946440867803595 0.022564743513302104 -0.0010630562416669178 -0.007202468313757241 0.0012220073992885699 0.011462051159837847
 0.0012477294774960936 0.011458697535097193 -0.0010630562416669178 -0.007202468313757241 0.005090302607105505 0.022566069310809997 0.9938886172846323 -0.054781744974234305
 -0.0010635128356984833 -0.0072024591367261335 0.0012220073992885699 0.011462051159837847 0.9938886172846323 -0.054781744974234305 0.005094390913167058 0.02256569191591121
0.07503126302626001 0.005523991095266335 0.02474033202461009 0.993309933426377 -0.059855040160081925 0.0014376586173070118 0.012499750546699363 -0.0012220404237412348 -0.00785981912164183
 0.993309933426377 -0.059855040160081925 0.005529537220518583 0.02473983393848504 -0.001221498921487195 -0.007859835211857773 0.0014070420460935605 0.01250383546714465
 0.0014376586173070118 0.012499750546699363 -0.001221498921487195 -0.007859835211857773 0.0055243714837816815 0.02474130957543321 0.9933099711050682 -0.05985404436794389
 -0.0012220404237412348 -0.00785981912164183 0.0014070420460935605 0.01250383546714465 0.9933099711050682 -0.05985404436794389 0.005529235684393681 0.024740872034878892
0.08128386827845 0.005983569226631926 0.026933300872199233 0.9926971786223258 -0.06494248957522215 0.0016419458359689942 0.013539784653184042 -0.001392505764221445 -0.008516592559189394
 0.9926971786223258 -0.06494248957522215 0.005990077194943072 0.026932726653755085 -0.001391872393460093 -0.008516616988084648 0.0016060072501792831 0.013544700779136156
 0.0016419458359689942 0.013539784653184042 -0.001391872393460093 -0.008516616988084648 0.005984015493031664 0.026934358193125958 0.9926972223968287 -0.06494141182303521
 -0.001392505764221445 -0.008516592559189394 0.0016060072501792831 0.013544700779136156 0.9926972223968287 -0.06494141182303521 0.005989723092732562 0.026933855381546794
0.08753647353064001 0.006469135267307686 0.02914359790306213 0.9920499148154045 -0.07004470246591118 0.001860691561837196 0.014578558162494102 -0.001575013031281694 -0.009172541441645999
 0.9920499148154045 -0.07004470246591118 0.006476682179473961 0.029142940835845076 -0.0015742808922666915 -0.009172575729366476 0.0018190033170773592 0.01458441229259272
 0.001860691561837196 0.014578558162494102 -0.0015742808922666915 -0.009172575729366476 0.006469652710015065 0.029144734617991285 0.9920499651110605 -0.0700435429652213
 -0.001575013031281694 -0.009172541441645999 0.0018190033170773592 0.01458441229259272 0.9920499651110605 -0.0700435429652213 0.0064762713164292045 0.029144161208212723
0.09378907878283 0.0069811020963290215 0.03137074589604954 0.9913677397882008 -0.07516135199145754 0.0020939913709720507 0.015615823783980106 -0.001769661427309742 -0.009827423932314925
 0.9913677397882008 -0.07516135199145754 0.006989765176943312 0.03136999894375909 -0.0017688236810219893 -0.009827469693458149 0.002046125796093129 0.015622729669329623
 0.0020939913709720507 0.015615823783980106 -0.0017688236810219893 -0.009827469693458149 0.006981696023851494 0.03137196160303104 0.991367797022219 -0.07516011096193968
 -0.001769661427309742 -0.009827423932314925 0.002046125796093129 0.015622729669329623 0.991367797022219 -0.07516011096193968 0.006989293367794212 0.03137131205998013
0.100041684035 0.007519877225070372 0.03361426833353887 0.9906502555024073 -0.08029209149805641 0.0023419357914422267 0.01665132889083119 -0.001976545017846039 -0.010480994274540682
 0.9906502555024073 -0.08029209149805641 0.0075297338419033745 0.03361342413133789 -0.0019755948864317615 -0.010481053217933226 0.0022874652903786593 0.01665940729682032
 0.0023419357914422267 0.01665132889083119 -0.0019755948864317615 -0.010481053217933226 0.007520552956628441 0.0336155625984105 0.9906503200831308 -0.08029076917272081
 -0.001976545017846039 -0.010480994274540682 0.0022874652903786593 0.01665940729682032 0.9906503200831308 -0.08029076917272081 0.007529196912145821 0.03361483117191015
0.1059090909091 0.008050200516778693 0.0357340430124071 0.9899445086114119 -0.08511923658565072 0.002588000488842158 0.017621209919255434 -0.0021818902395966486 -0.011092884934625517
 0.9899445086114119 -0.08511923658565072 0.008061247649605429 0.035733100552137194 -0.0021808285369997005 -0.011092957886080695 0.002526943231484468 0.017630504747222733
 0.002588000488842158 0.017621209919255434 -0.0021808285369997005 -0.011092957886080695 0.0080509578600072 0.03573541057200036 0.9899445804496773 -0.08511783819527365
 -0.0021818902395966486 -0.011092884934625517 0.002526943231484468 0.017630504747222733 0.9899445804496773 -0.08511783819527365 0.00806064582544232 0.03573459687820652
0.1062942892872 0.008085862596486665 0.03587368746893567 0.9898970684370408 -0.08543655651584083 0.0026046101111494436 0.01768481575435226 -0.0021957525648186762 -0.011133002742531619
 0.9898970684370408 -0.08543655651584083 0.008096990278902124 0.035872738313830296 -0.00219468333185679 -0.011133076671018748 0.0025431072692784253 0.017694194520571326
 0.0026046101111494436 0.01768481575435226 -0.00219468333185679 -0.011133076671018748 0.008086625461980726 0.035875059824798654 0.9898971407638054 -0.0854351531400598
 -0.0021957525648186762 -0.011133002742531619 0.0025431072692784253 0.017694194520571326 0.9898971407638054 -0.0854351531400598 0.0080963840664401 0.03587424054157384
0.11254689453939999 0.008679454366969895 0.0381485228723469 0.9891077899147068 -0.09059436629362888 0.002882094189480493 0.018716021744786794 -0.0024273673573116795 -0.011783195639288879
 0.9891077899147068 -0.09059436629362888 0.008691930825927454 0.03814746071257375 -0.0024261723684790262 -0.011783286449450793 0.0028131318844723213 0.018726835842971096
 0.002882094189480493 0.018716021744786794 -0.0024261723684790262 -0.011783286449450793 0.008680309707711746 0.038149972819917354 0.9891078703773696 -0.09059288212355543
 -0.0024273673573116795 -0.011783195639288879 0.0028131318844723213 0.018726835842971096 0.9891078703773696 -0.09059288212355543 0.008691251182196404 0.03814905947456028
0.11879949979160001 0.009301042679290075 0.040438290314942726 0.9882820364187599 -0.09576512501172225 0.003174462271164765 0.019744679517839404 -0.0026714670427095367 -0.012431315322871324
 0.9882820364187599 -0.09576512501172225 0.00931494582560182 0.04043710673849533 -0.002670139706202787 -0.012431425004814247 0.003097613787593329 0.019757071107697807
 0.003174462271164765 0.019744679517839404 -0.002670139706202787 -0.012431425004814247 0.009301995847497548 0.04043981731839907 0.9882821253966605 -0.09576356031685382
 -0.0026714670427095367 -0.012431315322871324 0.003097613787593329 0.019757071107697807 0.9882821253966605 -0.09576356031685382 0.00931418861676778 0.04043880346349448
0.1250521050438 0.0099510114233701 0.04274250090922033 0.9874194299018139 -0.10094842275544914 0.0034817828033842217 0.020770517195197825 -0.002928123457125854 -0.013077100252678692
 0.9874194299018139 -0.10094842275544914 0.009966419387344176 0.04274118713126075 -0.0029266572445079933 -0.013077230889689397 0.003396621951047247 0.020784635677958067
 0.0034817828033842217 0.020770517195197825 -0.0029266572445079933 -0.013077230889689397 0.009952067782852214 0.04274410439639076 0.9874195277635858 -0.10094677781703892
 -0.002928123457125854 -0.013077100252678692 0.003396621951047247 0.020784635677958067 0.9874195277635858 -0.10094677781703892 0.00996558049548918 0.04274298333147699
0.131304710296 0.010629737992669681 0.04506066043725489 0.9865195980900758 -0.10614383631789019 0.0038041182555550025 0.021793258532847668 -0.0031974024567729235 -0.013720285062091164
 0.9865195980900758 -0.10614383631789019 0.010646729142196975 0.045059207286675985 -0.003195790903434218 -0.013720438830385477 0.0037102194911717012 0.0218092606024327
 0.0038041182555550025 0.021793258532847668 -0.003195790903434218 -0.013720438830385477 0.010630902918600258 0.04506233980113567 0.9865197051932398 -0.10614211142597034
 -0.0031974024567729235 -0.013720285062091164 0.0037102194911717012 0.0218092606024327 0.9865197051932398 -0.10614211142597034 0.010645804467420462 0.045061104560735435
0.1375573155481 0.011193948023600414 0.0470901402379276 0.985725899737149 -0.11104860308988743 0.004104946438152335 0.02278389503897461 -0.003442897785374936 -0.014331820292657301
 0.985725899737149 -0.11104860308988743 0.011212605589475058 0.0470885676570702 -0.0034411310961596562 -0.014331997672251996 0.004002090821449345 0.02280177568136211
 0.004104946438152335 0.02278389503897461 -0.0034411310961596562 -0.014331997672251996 0.011195226001193999 0.04709189515333758 0.9857260164763282 -0.1110467985201806
 -0.003442897785374936 -0.014331820292657301 0.004002090821449345 0.02280177568136211 0.9857260164763282 -0.1110467985201806 0.011211591869005074 0.04709056734317383
0.1438099208003 0.011778308487833972 0.0491065455236499 0.9849036101845297 -0.11593852569027038 0.0044178464597832015 0.023768979452662372 -0.003698100260164255 -0.014938318500859367
 0.9849036101845297 -0.11593852569027038 0.011798711844509502 0.04910484595106286 -0.0036961714637708293 -0.014938521667260625 0.004305646555509387 0.023788883838463972
 0.0044178464597832015 0.023768979452662372 -0.0036961714637708293 -0.014938521667260625 0.011779704754235221 0.04910837542452269 0.9849037369069098 -0.11593664174857855
 -0.003698100260164255 -0.014938318500859367 0.004305646555509387 0.023788883838463972 0.9849037369069098 -0.11593664174857855 0.011797605154662615 0.04910694969509262
0.1500625260525 0.012382573930044728 0.05110963786505815 0.9840529802611206 -0.12081341094138259 0.004742684654976642 0.02474836156291876 -0.003962881015650977 -0.015539641639520495
 0.9840529802611206 -0.12081341094138259 0.012404802690648567 0.051107803284250845 -0.003960783162429824 -0.015539872856037812 0.004620756002743496 0.02477044017287209
 0.004742684654976642 0.02474836156291876 -0.003960783162429824 -0.015539872856037812 0.012384093724809914 0.05111154216085878 0.9840531173027359 -0.1208114479452438
 -0.003962881015650977 -0.015539641639520495 0.004620756002743496 0.02477044017287209 0.9840531173027359 -0.1208114479452438 0.012403599134611691 0.051110012797470704
0.15631513130469998 0.013006496675986736 0.0530991860187746 0.9831742625975135 -0.12567306806043022 0.005079325496466934 0.025721894327482474 -0.004237109351310733 -0.01613565512216035
 0.9831742625975135 -0.12567306806043022 0.013030630698368692 0.053097207945767805 -0.004234835513765075 -0.01613591673945277 0.0049472866652897456 0.02574630288613399
