! Created with skrf 1.8.0 (http://scikit-rf.org).
# GHz S RI R 50.0 
!freq ReS11 ImS11 ReS12 ImS12 ReS13 ImS13
! ReS14 ImS14
! ReS21 ImS21 ReS22 ImS22 ReS23 ImS23
! ReS24 ImS24
! ReS31 ImS31 ReS32 ImS32 ReS33 ImS33
! ReS34 ImS34
! ReS41 ImS41 ReS42 ImS42 ReS43 ImS43
! ReS44 ImS44
!
0.0 0.001540810189514 0.0 0.9984591898105 0.0 5.947226503229e-05 0.0 -5.947226485464e-05 7.28325187922785e-21
 0.9984591898105 0.0 0.001540810189511 0.0 -5.94722648545e-05 7.283251879210705e-21 5.947226503215e-05 0.0
 5.947226503229e-05 0.0 -5.94722648545e-05 7.283251879210705e-21 0.001540810176706 0.0 0.9984591897977 0.0
 -5.947226485464e-05 7.28325187922785e-21 5.947226503215e-05 0.0 0.9984591897977 0.0 0.00154081017671 0.0
0.005 0.0016577842540664862 0.001259655451855818 0.9983112020941725 -0.003227680529331425 8.345119297831432e-05 0.0006602412691367372 -8.100882450741713e-05 -0.0004135578643802419
 0.9983112020941725 -0.003227680529331425 0.0016577939307519266 0.0012596498701780755 -8.101089146739259e-05 -0.00041355948390464143 8.338206051970967e-05 0.0006602675721949605
 8.345119297831432e-05 0.0006602412691367372 -8.101089146739259e-05 -0.00041355948390464143 0.001657783389140834 0.0012597232639416187 0.9983112024540755 -0.0032276134723822564
 -8.100882450741713e-05 -0.0004135578643802419 8.338206051970967e-05 0.0006602675721949605 0.9983112024540755 -0.0032276134723822564 0.0016577955147482216 0.001259716172778156
0.006252605252188 0.0016884597585813876 0.0015795287410706612 0.9982721486389018 -0.004035390706028247 9.030185188765318e-05 0.000825619111520614 -8.708726402978657e-05 -0.000517483211921091
 0.9982721486389018 -0.004035390706028247 0.0016884748842584075 0.0015795216443205444 -8.709048013714858e-05 -0.0005174852094591827 9.019383864100742e-05 0.0008256532674010086
 9.030185188765318e-05 0.000825619111520614 -8.709048013714858e-05 -0.0005174852094591827 0.0016884583321668315 0.0015796135072456163 0.99827214912772 -0.004035306888848412
 -8.708726402978657e-05 -0.000517483211921091 9.019383864100742e-05 0.0008256532674010086 0.99827214912772 -0.004035306888848412 0.0016884772868634294 0.0015796045138267933
0.01250521050438 0.0018499234310844549 0.003192179319744221 0.9980652285924546 -0.008071589966355527 0.00012958855184513413 0.0016515797328817174 -0.00012156405159973371 -0.0010374806945392372
 0.9980652285924546 -0.008071589966355527 0.0018499838180774117 0.003192163934028793 -0.00012157672311194327 -0.00103748439531322 0.00012915781237142758 0.0016516618208219911
 0.00012958855184513413 0.0016515797328817174 -0.00012157672311194327 -0.00103748439531322 0.0018499171474603226 0.0031923486690969283 0.9980652299625536 -0.008071422577602788
 -0.00012156405159973371 -0.0010374806945392372 0.00012915781237142758 0.0016516618208219911 0.9980652299625536 -0.008071422577602788 0.0018499928362117413 0.003192329370162688
0.01875781575657 0.0020255540109767236 0.004827806511913664 0.9978381722886719 -0.012118421562326781 0.00017742312907806967 0.002478438618862633 -0.0001630089372253582 -0.0015592367419659558
 0.9978381722886719 -0.012118421562326781 0.002025689683171457 0.004827781593985355 -0.00016303719124170448 -0.001559241795850211 0.00017645550044569704 0.0024785851089783573
 0.00017742312907806967 0.002478438618862633 -0.00016303719124170448 -0.001559241795850211 0.0020255394586001663 0.004828060434748864 0.9978381749470233 -0.012118170710720291
 -0.0001630089372253582 -0.0015592367419659558 0.00017645550044569704 0.0024785851089783573 0.9978381749470233 -0.012118170710720291 0.0020257095383912098 0.004828029398995842
0.02501042100875 0.0022156938715351005 0.0064841185375951295 0.9975907122031562 -0.016177845201174913 0.00023389777895734367 0.0033062295773361398 -0.00021152474128389314 -0.0020825128214651324
 0.9975907122031562 -0.016177845201174913 0.0022159347801318082 0.006484082803061212 -0.00021157463055939711 -0.00208251881623781 0.00023217900361158006 0.0033064595413851965
 0.00023389777895734367 0.0033062295773361398 -0.00021157463055939711 -0.00208251881623781 0.002215667631608886 0.006484457096107386 0.9975907165488515 -0.0161775109580713
 -0.00021152474128389314 -0.0020825128214651324 0.00023217900361158006 0.0033064595413851965 0.9975907165488515 -0.0161775109580713 0.0022159696852769766 0.006484412786394041
0.03126302626094 0.0024206712107425025 0.008159935133819856 0.9973225671600271 -0.020250698415624463 0.0002991051919231958 0.004134909722097202 -0.0002672113620931686 -0.0026071412819250826
 0.9973225671600271 -0.020250698415624463 0.0024210472514236943 0.008159887259940412 -0.0002672888776436971 -0.002607147742534538 0.0002964207172848238 0.004135244849011326
 0.0002991051919231958 0.004134909722097202 -0.0002672888776436971 -0.002607147742534538 0.0024206298622067466 0.008160358436754212 0.9973225735912077 -0.020250280840481572
 -0.0002672113620931686 -0.0026071412819250826 0.0002964207172848238 0.004135244849011326 0.9973225735912077 -0.020250280840481572 0.0024211014191923134 0.00816029921236345
0.037515631513130004 0.0026408071164270536 0.009854486061644243 0.9970334496209673 -0.02433739799589094 0.00037313761065689343 0.004964405839390711 -0.00033016650952858334 -0.003132978986097842
 0.9970334496209673 -0.02433739799589094 0.0026413481415228164 0.009854424688903296 -0.00033027758720914694 -0.003132985374437302 0.0003692724983185067 0.004964870461968625
 0.00037313761065689343 0.004964405839390711 -0.00033027758720914694 -0.003132985374437302 0.0026407472361855084 0.009854994264773414 0.9970334585352535 -0.024336897135882902
 -0.00033016650952858334 -0.003132978986097842 0.0003692724983185067 0.004964870461968625 0.9970334585352535 -0.024336897135882902 0.002641425785232376 0.009854918382490968
0.043768236765320004 0.0028764182839932442 0.011567197641359642 0.9967230686294578 -0.02843815338400732 0.00045608639325233637 0.0057946284909450975 -0.00040048596080522906 -0.003659893208836946
 0.9967230686294578 -0.02843815338400732 0.002877154112735949 0.011567121374843654 -0.00040063648515919315 -0.0036598989236953485 0.000450825275221506 0.005795249616056738
 0.00045608639325233637 0.0057946284909450975 -0.00040063648515919315 -0.0036598989236953485 0.0028763364458892896 0.011567790938888012 0.9967230804230712 -0.028437569282965144
 -0.00040048596080522906 -0.003659893208836946 0.000450825275221506 0.005795249616056738 0.9967230804230712 -0.028437569282965144 0.0028772594458918855 0.011567696553485279
0.050020842017509996 0.0031278182818096157 0.0132976045461539 0.9963911313061034 -0.032553054808103006 0.0005480417483438474 0.006625477832328322 -0.0004782636529155647 -0.004187755822776932
 0.9963911313061034 -0.032553054808103006 0.0031287787092348224 0.013297511956464444 -0.0004784594596517257 -0.004187760199828386 0.0005411688080255996 0.006626285172550732
 0.0005480417483438474 0.006625477832328322 -0.0004784594596517257 -0.004187760199828386 0.0031277110582841865 0.013298283167317423 0.9963911463760534 -0.032552387510202264
 -0.0004782636529155647 -0.004187755822776932 0.0005411688080255996 0.006626285172550732 0.9963911463760534 -0.032552387510202264 0.00312891594747882 0.013298168331580604
0.055454545454549996 0.00335935662420821 0.014815439303677303 0.9960849330800842 -0.03614052965014908 0.0006353372331830412 0.007347936791717343 -0.0005519834161163761 -0.0046471564671496275
 0.9960849330800842 -0.03614052965014908 0.0033605364196881834 0.014815331341667293 -0.0005522232773278009 -0.004647159093087337 0.0006268879494324394 0.007348932214469336
 0.0006353372331830412 0.007347936791717343 -0.0005522232773278009 -0.004647159093087337 0.003359224554345045 0.014816192291206814 0.9960849513185301 -0.036139790083851216
 -0.0005519834161163761 -0.0046471564671496275 0.0006268879494324394 0.007348932214469336 0.9960849513185301 -0.036139790083851216 0.0033607048080498054 0.014816058022857575
0.056273447269699996 0.0033953182009828363 0.015045306477893646 0.9960373437328384 -0.036682116535610265 0.000649092545547187 0.007456846479387209 -0.0005635917023473511 -0.004716440439263226
 0.9960373437328384 -0.036682116535610265 0.003396533006699119 0.015045196101991268 -0.0005638385800914386 -0.00471644275108698 0.0006403915137675697 0.007457872485334384
 0.000649092545547187 0.007456846479387209 -0.0005638385800914386 -0.00471644275108698 0.0033951821618370165 0.01504607069196834 0.9960373624747234 -0.0366813660806805
 -0.0005635917023473511 -0.004716440439263226 0.0006403915137675697 0.007457872485334384 0.9960373624747234 -0.0366813660806805 0.0033967063657329914 0.015045933356579347
0.06252605252188 0.0036792269985513326 0.01680994438094977 0.9956614115327782 -0.04082530059136584 0.0007593261667322222 0.008288621077520186 -0.0006565603846203028 -0.0052458208503398645
 0.9956614115327782 -0.04082530059136584 0.003680725954449276 0.01680981472266421 -0.0006568640759748149 -0.00524582030645939 0.0007485803277321019 0.00828990097041646
 0.0007593261667322222 0.008288621077520186 -0.0006568640759748149 -0.00524582030645939 0.0036790587116801586 0.016810794495757755 0.9956614343421062 -0.04082446701677457
 -0.0006565603846203028 -0.0052458208503398645 0.0007485803277321019 0.00828990097041646 0.9956614343421062 -0.04082446701677457 0.003680939651236537 0.016810632508850124
0.06877865777407 0.003979851680060473 0.018591186241388533 0.9952630402958887 -0.044982530894032265 0.0008788283776043184 0.009120683245172064 -0.0007572580929728433 -0.005775770100689899
 0.9952630402958887 -0.044982530894032265 0.0039816645587441215 0.018591035771647033 -0.0007576242953688117 -0.005775765847605124 0.0008658205820065851 0.009122255049501933
 0.0008788283776043184 0.009120683245172064 -0.0007576242953688117 -0.005775765847605124 0.003979647711501247 0.018592122597884984 0.9952630675676796 -0.04498161424039905
 -0.0007572580929728433 -0.005775770100689899 0.0008658205820065851 0.009122255049501933 0.9952630675676796 -0.04498161424039905 0.003981922810679273 0.01859193370437773
0.07503126302626001 0.004297497381418473 0.02038871808523457 0.9948419359056531 -0.049153702197796904 0.0010076832121004502 0.009952910174169516 -0.0008657712834818629 -0.0063061599071703315
 0.9948419359056531 -0.049153702197796904 0.004299653964066748 0.0203885452422216 -0.0008662056497288337 -0.006306151028413189 0.0009921958950467435 0.009954814750279263
 0.0010076832121004502 0.009952910174169516 -0.0008662056497288337 -0.006306151028413189 0.004297254295832079 0.020389741065748538 0.9948419680341867 -0.04915270250105877
 -0.0008657712834818629 -0.0063061599071703315 0.0009921958950467435 0.009954814750279263 0.9948419680341867 -0.04915270250105877 0.004299960988779466 0.020389522906485224
0.08128386827845 0.0046324673910876964 0.022202238003489635 0.9943978048106766 -0.053338686012007495 0.0011459728642296055 0.010785175033754084 -0.0009821844116241216 -0.006836860279360968
 0.9943978048106766 -0.053338686012007495 0.0046349974753802075 0.022202041192440056 -0.0009826925502380377 -0.0068368457955414715 0.0011277880677035596 0.010787456110232645
 0.0011459728642296055 0.010785175033754084 -0.0009826925502380377 -0.0068368457955414715 0.004632181752401281 0.02220334802572266 0.994397842190339 -0.053337603309845674
 -0.0009821844116241216 -0.006836860279360968 0.0011277880677035596 0.010787456110232645 0.994397842190339 -0.053337603309845674 0.004635357490996607 0.022203098136299178
0.08753647353064001 0.004985063130344066 0.024031452007842808 0.9939303542579758 -0.05753733469535496 0.0012937775852442455 0.011617347257898062 -0.0011065798624514832 -0.007367739261602255
 0.9939303542579758 -0.05753733469535496 0.004987996538392129 0.02403122960063216 -0.0011071673378814696 -0.007367718130476891 0.001272676983630909 0.011620051463752052
 0.0012937775852442455 0.011617347257898062 -0.0011071673378814696 -0.007367718130476891 0.00498473150170817 0.024032649527055878 0.9939303972827429 -0.05753616902530954
 -0.0011065798624514832 -0.007367739261602255 0.001272676983630909 0.011620051463752052 0.9939303972827429 -0.05753616902530954 0.0049884137625457025 0.024032365336469068
0.09378907878283 0.0053555841063070665 0.025876071072699805 0.9934392925028396 -0.06174948436921214 0.0014511755842037094 0.012449292753166651 -0.001239037876310652 -0.00789866275957344
 0.9934392925028396 -0.06174948436921214 0.00535895069279385 0.02587582140710775 -0.0012397102090436422 -0.00789863387609296 0.0014269405126275164 0.012452469649657762
 0.0014511755842037094 0.012449292753166651 -0.0012397102090436422 -0.00789863387609296 0.005355203050865159 0.025877356585823057 0.9934393415664229 -0.061748235764825
 -0.001239037876310652 -0.00789866275957344 0.0014269405126275164 0.012452469649657762 0.9934393415664229 -0.061748235764825 0.005359429342628571 0.025877035414920365
0.100041684035 0.005744327844037921 0.027735808978449603 0.9929243290003067 -0.06597495703517589 0.001618242930323757 0.013280874061988667 -0.001379636471773109 -0.008429494416487557
 0.9929243290003067 -0.06597495703517589 0.005748157504126162 0.027735530357352073 -0.0013803991382965717 -0.008429456612889496 0.001590654415397618 0.013284576174157837
 0.001618242930323757 0.013280874061988667 -0.0013803991382965717 -0.008429456612889496 0.00574389392514662 0.02773718301409676 0.9929243844963296 -0.0659736255364457
 -0.001379636471773109 -0.008429494416487557 0.001590654415397618 0.013284576174157837 0.9929243844963296 -0.0659736255364457 0.005748701795899406 0.027736822073571143
0.1059090909091 0.0061259592331489605 0.02949447224227024 0.9924190943925834 -0.06995206253084624 0.0017838778797801683 0.014060768409426494 -0.0015190445893023042 -0.008927416573932596
 0.9924190943925834 -0.06995206253084624 0.006130250671552051 0.02949416487373568 -0.0015198969660839114 -0.008927369281877207 0.0017529431140926915 0.014065013819143154
 0.0017838778797801683 0.014060768409426494 -0.0015198969660839114 -0.008927369281877207 0.006125472582755321 0.029495929866902294 0.9924191562825425 -0.06995065327587041
 -0.0015190445893023042 -0.008927416573932596 0.0017529431140926915 0.014065013819143154 0.9924191562825425 -0.06995065327587041 0.0061308603948640504 0.029495528970057746
0.1062942892872 0.006151589803196264 0.029610380675392928 0.9923851745858739 -0.07021356217819903 0.0017950534574359867 0.014111950489302156 -0.0015284513655348538 -0.008960095531305666
 0.9923851745858739 -0.07021356217819903 0.006155912480983591 0.029610071365447837 -0.0015293097982949162 -0.00896004757718295 0.001763892250078612 0.014116233337026236
 0.0017950534574359867 0.014111950489302156 -0.0015293097982949162 -0.00896004757718295 0.006151099585050865 0.029611843804734694 0.992385236907614 -0.07021214782089608
 -0.0015284513655348538 -0.008960095531305666 0.001763892250078612 0.014116233337026236 0.992385236907614 -0.07021214782089608 0.006156526629667205 0.029611440193098193
0.11254689453939999 0.00657766328493291 0.03149950104767986 0.9918215416477154 -0.07446509797546189 0.001981678669270102 0.01494237820839846 -0.0016855558908517772 -0.009490325003022234
 0.9918215416477154 -0.07446509797546189 0.006582508981302116 0.03149915927796312 -0.0016865154781293176 -0.009490265605404336 0.0019467252792023356 0.014947300337072134
 0.001981678669270102 0.01494237820839846 -0.0016865154781293176 -0.009490265605404336 0.0065771133327490825 0.03150105388312286 0.9918216111882451 -0.07446360079285926
 -0.0016855558908517772 -0.009490325003022234 0.0019467252792023356 0.014947300337072134 0.9918216111882451 -0.07446360079285926 0.006583197199693086 0.03150060458431022
0.11879949979160001 0.007022839327250866 0.0334028839516915 0.9912331442920783 -0.07872935223749057 0.0021781876455894454 0.01577201035288391 -0.0018510209142493076 -0.010020039294413963
 0.9912331442920783 -0.07872935223749057 0.0070282381082462505 0.033402507911842474 -0.001852086999932353 -0.010019967097869259 0.002139222377815801 0.01577763336357897
 0.0021781876455894454 0.01577201035288391 -0.001852086999932353 -0.010019967097869259 0.007022226208207613 0.03340452713877563 0.9912332214448415 -0.07872777226874814
 -0.0018510209142493076 -0.010020039294413963 0.002139222377815801 0.01577763336357897 0.9912332214448415 -0.07872777226874814 0.007029004607466492 0.03340402901942276
0.1250521050438 0.007487406595750109 0.035320241446146414 0.9906196985064232 -0.08300610316381357 0.0023846469490904575 0.016600697094828754 -0.00202491475120765 -0.010549092415213788
 0.9906196985064232 -0.08300610316381357 0.00749338860127408 0.035319829284342 -0.0020260926345748204 -0.010549006001948646 0.002341449941696861 0.01660708567394046
 0.0023846469490904575 0.016600697094828754 -0.0020260926345748204 -0.010549006001948646 0.007486726878963235 0.03532197567405828 0.9906197836642792 -0.08300444044375893
 -0.00202491475120765 -0.010549092415213788 0.002341449941696861 0.01660708567394046 0.9906197836642792 -0.08300444044375893 0.007494237589209513 0.035321425480585686
0.131304710296 0.007971651266835323 0.03725128319811549 0.9899809223167227 -0.08729511992943079 0.0026011205327647986 0.017428285718583528 -0.002207303080939758 -0.011077335915211478
 0.9899809223167227 -0.08729511992943079 0.007978246718495298 0.03725083301877425 -0.002208598016418635 -0.01107723380517901 0.0025534717962136795 0.017435507666962564
 0.0026011205327647986 0.017428285718583528 -0.002208598016418635 -0.01107723380517901 0.007970901524265155 0.03725310919323818 0.9899810158726258 -0.08729337449527926
 -0.002207303080939758 -0.011077335915211478 0.0025534717962136795 0.017435507666962564 0.9899810158726258 -0.08729337449527926 0.007979182399995262 0.03725250354862966
0.1375573155481 0.00836499135047788 0.038943849326774305 0.9894274432085775 -0.09134418500719614 0.002800607619805867 0.018229458805540798 -0.0023712440873592433 -0.011579431733705802
 0.9894274432085775 -0.09134418500719614 0.008372234606084192 0.03894337079251079 -0.00237266395009957 -0.011579313805182246 0.0027483973038364188 0.018237504025736737
 0.002800607619805867 0.018229458805540798 -0.00237266395009957 -0.011579313805182246 0.008364168896653116 0.03894576769019235 0.9894275455393648 -0.09134235692495336
 -0.0023712440873592433 -0.011579431733705802 0.0027483973038364188 0.018237504025736737 0.9894275455393648 -0.09134235692495336 0.008373260478055594 0.03894511510495721
0.1438099208003 0.008772177346432259 0.04062744989462279 0.9888544817887399 -0.09538293608822626 0.003008156588103335 0.019027336047100062 -0.002541741261729091 -0.012078528177686811
 0.9888544817887399 -0.09538293608822626 0.008780099408357854 0.04062694179680816 -0.002543291713561446 -0.012078392972016763 0.0029511844223394303 0.01903626659073138
 0.003008156588103335 0.019027336047100062 -0.002543291713561446 -0.012078392972016763 0.00877127889220012 0.040629461364773224 0.9888545932832087 -0.09538102540539968
 -0.002541741261729091 -0.012078528177686811 0.0029511844223394303 0.01903626659073138 0.9888545932832087 -0.09538102540539968 0.008781219544367487 0.040628759142514154
0.1500625260525 0.009193065165114133 0.04230194269559616 0.9882621862454154 -0.09941127128261185 0.003223695659792412 0.01982183415779683 -0.002718725226744449 -0.012574547308739942
 0.9882621862454154 -0.09941127128261185 0.009201697145723423 0.04230140372808291 -0.0027204119180513735 -0.012574393308407771 0.0031617625253926515 0.01983171435062134
 0.003223695659792412 0.01982183415779683 -0.0027204119180513735 -0.012574393308407771 0.009192087433020467 0.04230404804468083 0.9882623072918545 -0.09940927804438317
 -0.002718725226744449 -0.012574547308739942 0.0031617625253926515 0.01983171435062134 0.9882623072918545 -0.09940927804438317 0.00920291560832011 0.04230329333281009
0.15631513130469998 0.009627509685613617 0.04396718981822628 0.987650705529427 -0.10342908909121648 0.003447152201051346 0.020612871268770015 -0.0029021257445692775 -0.013067412846235664
