! Created with skrf 1.8.0 (http://scikit-rf.org).
# GHz S RI R 50.0 
!freq ReS11 ImS11 ReS12 ImS12 ReS13 ImS13
! ReS14 ImS14
! ReS21 ImS21 ReS22 ImS22 ReS23 ImS23
! ReS24 ImS24
! ReS31 ImS31 ReS32 ImS32 ReS33 ImS33
! ReS34 ImS34
! ReS41 ImS41 ReS42 ImS42 ReS43 ImS43
! ReS44 ImS44
!
0.0 0.001138649071254 0.0 0.998861350896 0.0 4.315152064046e-05 0.0 -4.315151988622e-05 5.284537070700268e-21
 0.998861350896 0.0 0.001138649071261 0.0 -4.315151988552e-05 5.284537070614543e-21 4.315152064116e-05 0.0
 4.315152064046e-05 0.0 -4.315151988552e-05 5.284537070614543e-21 0.001138649087589 0.0 0.9988613509124 0.0
 -4.315151988622e-05 5.284537070700268e-21 4.315152064116e-05 0.0 0.9988613509124 0.0 0.001138649087628 0.0
0.005 0.0012241804502328417 0.0009337060407221875 0.9987532792796596 -0.0023862045516121677 5.972504493402846e-05 0.00046600421048876786 -5.813625090955883e-05 -0.00029430581284963935
 0.9987532792796596 -0.0023862045516121677 0.0012241897110043026 0.0009337006882806035 -5.813694448525447e-05 -0.000294306381708993 5.9673940994356074e-05 0.000466023762161381
 5.972504493402846e-05 0.00046600421048876786 -5.813694448525447e-05 -0.000294306381708993 0.001224179590340416 0.000933639328024022 0.9987532789635298 -0.002386271615163996
 -5.813625090955883e-05 -0.00029430581284963935 5.9673940994356074e-05 0.000466023762161381 0.9987532789635298 -0.002386271615163996 0.0012241899396359763 0.0009336332740452572
0.006252605252188 0.0012463539243874823 0.0011708345738663676 0.998725126971868 -0.0029833783524257917 6.432026672780597e-05 0.0005827511924689804 -6.224879922618864e-05 -0.000368275160225451
 0.998725126971868 -0.0029833783524257917 0.001246368399832106 0.0011708277318813317 -6.22498782262637e-05 -0.0003682758627337405 6.424042146101177e-05 0.000582776527979549
 6.432026672780597e-05 0.0005827511924689804 -6.22498782262637e-05 -0.0003682758627337405 0.001246352643217725 0.001170751183548131 0.9987251265410387 -0.002983462185460901
 -6.224879922618864e-05 -0.000368275160225451 6.424042146101177e-05 0.000582776527979549 0.9987251265410387 -0.002983462185460901 0.001246368820855682 0.0011707434567029382
0.01250521050438 0.0013615728071143484 0.002366519455328043 0.9985780698719613 -0.005967759158845585 8.993444437328984e-05 0.0011659596557184865 -8.49482609923439e-05 -0.000738484670632872
 0.9985780698719613 -0.005967759158845585 0.0013616305979648074 0.0023665042463057156 -8.495251019120255e-05 -0.0007384859838748677 8.961605374026634e-05 0.0011660198395507548
 8.993444437328984e-05 0.0011659596557184865 -8.495251019120255e-05 -0.0007384859838748677 0.0013615682490428066 0.0023663529976042596 0.9985780687142808 -0.0059679265485081965
 -8.49482609923439e-05 -0.000738484670632872 8.961605374026634e-05 0.0011660198395507548 0.9985780687142808 -0.0059679265485081965 0.0013616328475932922 0.0023663359320595036
0.01875781575657 0.0014845027484984292 0.0035796067663326505 0.9984200361491378 -0.008960456653322336 0.0001200444773933191 0.0017500359874314541 -0.00011130781789219013 -0.0011101393151552777
 0.9984200361491378 -0.008960456653322336 0.0014846325905118708 0.0035795815762098932 -0.00011131728989199126 -0.0011101411350759585 0.00011932927574853275 0.001750142034275741
 0.0001200444773933191 0.0017500359874314541 -0.00011131728989199126 -0.0011101411350759585 0.0014844929176073597 0.0035793573848852244 0.9984200339687844 -0.008960707518592733
 -0.00011130781789219013 -0.0011101393151552777 0.00011932927574853275 0.001750142034275741 0.9984200339687844 -0.008960707518592733 0.0014846380780405332 0.0035793292540323165
0.02501042100875 0.0016153376201218622 0.004808455308504614 0.9982508782961631 -0.011962974034817608 0.00015470162651958744 0.0023350340629942636 -0.0001413842998966011 -0.0014831043119842228
 0.9982508782961631 -0.011962974034817608 0.00161556817891295 0.004808418441248933 -0.00014140102188635125 -0.001483106520009299 0.0001534312850934296 0.0023351984093373935
 0.00015470162651958744 0.0023350340629942636 -0.00014140102188635125 -0.001483106520009299 0.0016153205194570767 0.004808123141000612 0.9982508747987371 -0.011963308316219555
 -0.0001413842998966011 -0.0014831043119842228 0.0001534312850934296 0.0023351984093373935 0.9982508747987371 -0.011963308316219555 0.0016155783184952184 0.004808082111958155
0.03126302626094 0.0017542628209932438 0.0060522472340323276 0.9980704395257054 -0.014975986772727703 0.0001939578582121906 0.00292095613602975 -0.00017523337405093688 -0.0018572941652085764
 0.9980704395257054 -0.014975986772727703 0.00175462270506918 0.006052196912809233 -0.00017525935226951682 -0.0018572966279696566 0.0001919738237353209 0.002921192644961395
 0.0001939578582121906 0.00292095613602975 -0.00017525935226951682 -0.0018572966279696566 0.001754236449351454 0.00605183242501473 0.9980704344155815 -0.014976404419631502
 -0.00017523337405093688 -0.0018572941652085764 0.0001919738237353209 0.002921192644961395 0.9980704344155815 -0.014976404419631502 0.0017546389138893706 0.006051776559592674
0.037515631513130004 0.0019014598794848537 0.007310469566602967 0.9978785584398181 -0.017999861046456404 0.00023786534548310217 0.0035077845258741865 -0.00021290995642741096 -0.002232640962613243
 0.9978785584398181 -0.017999861046456404 0.0019019776486280963 0.007310403934229487 -0.00021294717855003487 -0.00223264353186193 0.0002350087615601374 0.0035081085004609333
 0.00023786534548310217 0.0035077845258741865 -0.00021294717855003487 -0.00223264353186193 0.0019014222342131298 0.007309972263173118 0.9978785514227676 -0.018000362021563677
 -0.00021290995642741096 -0.002232640962613243 0.0002350087615601374 0.0035081085004609333 0.9978785514227676 -0.018000362021563677 0.0019020013498886237 0.007309899518163294
0.043768236765320004 0.0020571082443306544 0.00858275642675258 0.9976750708889152 -0.021034811475571603 0.0002864762431152484 0.004095491256610436 -0.0002544683722974934 -0.0026090847235961372
 0.9976750708889152 -0.021034811475571603 0.0020578124148958915 0.008582673546133861 -0.00025451880883805195 -0.0026090872361742234 0.0002825879068351559 0.004095919455926583
 0.0002864762431152484 0.004095491256610436 -0.00025451880883805195 -0.0026090872361742234 0.002057057319781414 0.00858217678257524 0.9976750616709642 -0.021035395751243403
 -0.0002544683722974934 -0.0026090847235961372 0.0002825879068351559 0.004095919455926583 0.9976750616709642 -0.021035395751243403 0.002057845036808292 0.008582085009794222
0.050020842017509996 0.0022213861251854086 0.009868823804363132 0.99745981088377 -0.024080966301313043 0.0003398425628671579 0.004684042028765855 -0.00029996242363135214 -0.002986569415035155
 0.99745981088377 -0.024080966301313043 0.002222305174952739 0.009868721658754123 -0.0003000280289324027 -0.0029865716928861455 0.0003347628999272084 0.004684592685095491
 0.0003398425628671579 0.004684042028765855 -0.0003000280289324027 -0.0029865716928861455 0.0022213199120391562 0.009868161986790571 0.9974597991703101 -0.024081633852628584
 -0.00029996242363135214 -0.002986569415035155 0.0003347628999272084 0.004684592685095491 0.9974597991703101 -0.024081633852628584 0.0022223481498215864 0.009868048932954048
0.055454545454549996 0.0023712946069825787 0.01099746405698758 0.997263052825818 -0.02673732481868954 0.00039012172082528347 0.0051961660005414335 -0.00034273576448151226 -0.0033154184100495725
 0.997263052825818 -0.02673732481868954 0.0023724234936546456 0.010997343469872939 -0.00034281612699582826 -0.0033154203277324427 0.00038387686625477425 0.005196839040079152
 0.00039012172082528347 0.0051961660005414335 -0.00034281612699582826 -0.0033154203277324427 0.002371213474220169 0.010996730976474961 0.9972630387051346 -0.026738064719524755
 -0.00034273576448151226 -0.0033154184100495725 0.00038387686625477425 0.005196839040079152 0.9972630387051346 -0.026738064719524755 0.002372476633448391 0.010996597517060794
0.056273447269699996 0.0023944709350303397 0.01116843756901642 0.9972326111092408 -0.02713839932942413 0.00039801608876590164 0.005273398168683004 -0.00034944541931685434 -0.0033650409901929993
 0.9972326111092408 -0.02713839932942413 0.0023956333070315737 0.011168314062107637 -0.00034952813220507517 -0.003365042840351725 0.000391585139782784 0.005274091005260167
 0.00039801608876590164 0.005273398168683004 -0.00034952813220507517 -0.003365042840351725 0.002394387421573494 0.01116769376069093 0.9972325966063037 -0.027139150132919284
 -0.00034944541931685434 -0.0033650409901929993 0.000391585139782784 0.005274091005260167 0.9972325966063037 -0.027139150132919284 0.002395688072791679 0.011167557067251163
0.06252605252188 0.0025765395457786736 0.012481395876664782 0.9969933032541635 -0.03020714747695163 0.000461048316117499 0.005863517693903262 -0.00040297018281072175 -0.0037444463122700135
 0.9969933032541635 -0.03020714747695163 0.0025779736518031517 0.012481248832804591 -0.0004030719271151989 -0.003744447526890012 0.0004531057299976635 0.005864373943014862
 0.000461048316117499 0.005863517693903262 -0.0004030719271151989 -0.003744447526890012 0.002576436717264439 0.012480570270184711 0.9969932856674121 -0.030207981516235306
 -0.00040297018281072175 -0.0037444463122700135 0.0004531057299976635 0.005864373943014862 0.9969932856674121 -0.030207981516235306 0.0025780416510844165 0.0124804074730148
0.06877865777407 0.0027677684362695906 0.013807518664679632 0.9967417182337783 -0.03328722123091854 0.0005289904007688555 0.006454355948050774 -0.0004605890496591249 -0.004124732509376931
 0.9967417182337783 -0.03328722123091854 0.0027695026602275355 0.013807345828887652 -0.0004607117345737025 -0.0041247328657363445 0.0005193754332746483 0.00645539836926713
 0.0005289904007688555 0.006454355948050774 -0.0004607117345737025 -0.0041247328657363445 0.002767644274976052 0.013806611466882685 0.9967416972689382 -0.033288138492654475
 -0.0004605890496591249 -0.004124732509376931 0.0005193754332746483 0.00645539836926713 0.9967416972689382 -0.033288138492654475 0.0027695853404379844 0.013806419995986344
0.07503126302626001 0.002968333779468329 0.015146641016096857 0.9964776863543706 -0.03637861123858918 0.0006018931163822284 0.007045866000508176 -0.0005223538569621806 -0.004505846565550604
 0.9964776863543706 -0.03637861123858918 0.0029703964803866555 0.015146440054063372 -0.0005224993773497535 -0.004505845826070998 0.0005904446322721006 0.007047118899044431
 0.0006018931163822284 0.007045866000508176 -0.0005224993773497535 -0.004505845826070998 0.002968186264970152 0.015145652450709396 0.9964776617167674 -0.03637961171009043
 -0.0005223538569621806 -0.004505846565550604 0.0005904446322721006 0.007047118899044431 0.9964776617167674 -0.03637961171009043 0.002970495293660391 0.015145429629829671
0.08128386827845 0.003178411494436726 0.016498608722344304 0.9962010374430276 -0.039481292699876436 0.0006798068156090403 0.007637998908798135 -0.00058831592848059 -0.004887735050080506
 0.9962010374430276 -0.039481292699876436 0.0031808310095217895 0.016498377220344657 -0.000588486165076095 -0.004887732962350708 0.0006663632936981368 0.007639488153878299
 0.0006798068156090403 0.007637998908798135 -0.000588486165076095 -0.004887732962350708 0.00317823860327688 0.01649753902822944 0.9962010088374864 -0.039482376371200736
 -0.00058831592848059 -0.004887735050080506 0.0006663632936981368 0.007639488153878299 0.9962010088374864 -0.039482376371200736 0.003180947412440263 0.016497282074337122
0.08753647353064001 0.003398177269878829 0.017863275224828803 0.9959116009513413 -0.04259522838193189 0.0007627813939194341 0.008230703904080516 -0.0006585260566891192 -0.005270343924723054
 0.9959116009513413 -0.04259522838193189 0.0034009819174857184 0.017863010689614284 -0.0006587228763130102 -0.005270340221511436 0.0007471809341991574 0.00823245694732728
 0.0007627813939194341 0.008230703904080516 -0.0006587228763130102 -0.005270340221511436 0.0033979769763492177 0.017862124657183558 0.9959115680823841 -0.04259639524495791
 -0.0006585260566891192 -0.005270343924723054 0.0007471809341991574 0.00823245694732728 0.9959115680823841 -0.04259639524495791 0.0034011173712541753 0.01786183068005219
0.09378907878283 0.0036278065735324922 0.01924049942653192 0.9956092060454992 -0.045720370764683695 0.0008508662555504953 0.00882392851599413 -0.0007330344820556599 -0.005653618412641251
 0.9956092060454992 -0.045720370764683695 0.0036310246558243805 0.019240199285156034 -0.0007332597377011122 -0.005653612811923485 0.0008329465882711214 0.008825974409768211
 0.0008508662555504953 0.00882392851599413 -0.0007332597377011122 -0.005653612811923485 0.0036275768496051605 0.019239268254572135 0.9956091686174986 -0.04572162081565416
 -0.0007330344820556599 -0.005653618412641251 0.0008329465882711214 0.008825974409768211 0.9956091686174986 -0.04572162081565416 0.0036311806264579774 0.019238934256121464
0.100041684035 0.0038674746479515965 0.020630144081695875 0.9952936816857536 -0.04885666360939181 0.0009441102802815983 0.009417618669581285 -0.0008118908708611965 -0.0060375028963929826
 0.9952936816857536 -0.04885666360939181 0.003871134453992066 0.020629805681248777 -0.0008121464018520356 -0.006037495101366485 0.0009237087765476198 0.00941998808525757
 0.0009441102802815983 0.009417618669581285 -0.0008121464018520356 -0.006037495101366485 0.0038672134632077963 0.02062883259158986 0.9952936394021012 -0.04885799684630842
 -0.0008118908708611965 -0.0060375028963929826 0.0009237087765476198 0.00941998808525757 0.9952936394021012 -0.04885799684630842 0.003871312411534378 0.020628455465286525
0.1059090909091 0.004101663763212053 0.021945354529817426 0.9949855019667593 -0.051809826296527514 0.0010363451626374284 0.009975107798469267 -0.0008898873703988528 -0.006398242208150092
 0.9949855019667593 -0.051809826296527514 0.00410576379938472 0.021944977742980695 -0.0008901729723107186 -0.006398232070919117 0.0010134664998458565 0.009977810158620554
 0.0010363451626374284 0.009975107798469267 -0.0008901729723107186 -0.006398232070919117 0.0041013712074558185 0.021943967946551544 0.9949854548567129 -0.05181123759309793
 -0.0008898873703988528 -0.006398242208150092 0.0010134664998458565 0.009977810158620554 0.9949854548567129 -0.05181123759309793 0.004105963730236249 0.021943547426730423
0.1062942892872 0.004117356497726858 0.02203207458382306 0.9949648566968309 -0.05200404313001511 0.0010425617912579556 0.010011718754497589 -0.0008951442915199959 -0.006421940844762568
 0.9949648566968309 -0.05200404313001511 0.004121486306118229 0.022031695191106263 -0.0008954319235688471 -0.006421930543874663 0.0010195154747755432 0.010014444000681723
 0.0010425617912579556 0.010011718754497589 -0.0008954319235688471 -0.006421930543874663 0.004117061819776626 0.02203068308093936 0.9949648092607137 -0.052005459550662325
 -0.0008951442915199959 -0.006421940844762568 0.0010195154747755432 0.010014444000681723 0.9949648092607137 -0.052005459550662325 0.004121687725031889 0.022030259611065712
0.11254689453939999 0.0043776268699417436 0.023446158042742304 0.9946225598352507 -0.05516243887683911 0.0011462685230998505 0.010606171679743941 -0.0009828431897749893 -0.00680687475529166
 0.9946225598352507 -0.05516243887683911 0.004382254951826114 0.023445734843847158 -0.0009831647350504527 -0.006806861622261631 0.001120414083205021 0.010609286720393867
 0.0011462685230998505 0.010606171679743941 -0.0009831647350504527 -0.006806861622261631 0.004377296664605826 0.02344468684780639 0.9946225069491238 -0.05516393848287731
 -0.0009828431897749893 -0.00680687475529166 0.001120414083205021 0.010609286720393867 0.9946225069491238 -0.05516393848287731 0.004382481310791069 0.0234442137086891
0.11879949979160001 0.004648460229747134 0.024872262556166105 0.9942666198513538 -0.0583317744268135 0.001255277590408461 0.011200918915396065 -0.0010750353629422978 -0.007192246111041517
 0.9942666198513538 -0.0583317744268135 0.004653614851592027 0.02487179265605437 -0.001075392620120441 -0.007192229804883115 0.0012264513961097808 0.011204459387793056
 0.001255277590408461 0.011200918915396065 -0.001075392620120441 -0.007192229804883115 0.004648092461004127 0.02487071200887331 0.9942665612165856 -0.058333357220403836
 -0.0010750353629422978 -0.007192246111041517 0.0012264513961097808 0.011204459387793056 0.9942665612165856 -0.058333357220403836 0.00465386763317926 0.02487018576400251
0.1250521050438 0.004930030731158343 0.026310256636998423 0.9938968655488479 -0.06151196791945942 0.0013696354565830872 0.011795900525559434 -0.001171767933327216 -0.007577995347360165
 0.9938968655488479 -0.06151196791945942 0.004935740157413575 0.026309737058942954 -0.0011721626876036206 -0.007577975512415834 0.0013376735714012748 0.011799903758228925
 0.0013696354565830872 0.011795900525559434 -0.0011721626876036206 -0.007577975512415834 0.004929623361612297 0.026308627093979936 0.9938968008664635 -0.0615136339056801
 -0.001171767933327216 -0.007577995347360165 0.0013376735714012748 0.011799903758228925 0.9938968008664635 -0.0615136339056801 0.004936020848383084 0.026308044195132954
0.131304710296 0.005222512184781046 0.027760008747669807 0.9935131258428846 -0.06470293248738364 0.0014893879024053364 0.012391055197909666 -0.0012730873211004997 -0.007964061823460695
 0.9935131258428846 -0.06470293248738364 0.005228804680996474 0.02775943643260172 -0.0012735213442339295 -0.007964038089417176 0.0014541261001305512 0.012395560228301905
 0.0014893879024053364 0.012391055197909666 -0.0012735213442339295 -0.007964038089417176 0.005222063175868731 0.027758300583247412 0.9935130548131667 -0.0647046816736062
 -0.0012730873211004997 -0.007964061823460695 0.0014541261001305512 0.012395560228301905 0.9935130548131667 -0.0647046816736062 0.005229114771985418 0.027757657369454253
0.1375573155481 0.005450483949269929 0.029031994234278546 0.9931908395096606 -0.06771514420800989 0.001597264633445876 0.012966699217108668 -0.0013617633874984222 -0.00833074100843175
 0.9931908395096606 -0.06771514420800989 0.005457390456095321 0.029031381171982822 -0.0013622393802828422 -0.008330713444614005 0.0015586162513718316 0.012971692043235467
 0.001597264633445876 0.012966699217108668 -0.0013622393802828422 -0.008330713444614005 0.005449991866603924 0.029030207615249555 0.9931907618471963 -0.06771697657341763
 -0.0013617633874984222 -0.00833074100843175 0.0015586162513718316 0.012971692043235467 0.9931907618471963 -0.06771697657341763 0.005457730804920438 0.029029515838544087
0.1438099208003 0.005686157009110038 0.030298619237345496 0.9928577857073789 -0.07072107292495386 0.0017094913321243376 0.013540772634214606 -0.00145399019994999 -0.008695993738932378
 0.9928577857073789 -0.07072107292495386 0.005693706223321482 0.030297963481965177 -0.0014545100823263877 -0.0086959619892328 0.0016673058015771256 0.013546288255575979
 0.0017094913321243376 0.013540772634214606 -0.0014545100823263877 -0.0086959619892328 0.005685619921433795 0.03029675452494178 0.992857701114291 -0.07072298847237816
 -0.00145399019994999 -0.008695993738932378 0.0016673058015771256 0.013546288255575979 0.992857701114291 -0.07072298847237816 0.005694078210777297 0.03029601165898203
0.1500625260525 0.005929463931882433 0.03155981779431194 0.9925140343779429 -0.07372068447568464 0.0018260382843041613 0.0141132421933223 -0.0015497391187963342 -0.009059788077724278
 0.9925140343779429 -0.07372068447568464 0.005937684573562728 0.03155911730126011 -0.0015503048090853937 -0.00905975177186108 0.001780165667999078 0.014119316869912657
 0.0018260382843041613 0.0141132421933223 -0.0015503048090853937 -0.00905975177186108 0.005928879913961448 0.03155787536381449 0.9925139425558739 -0.07372268320766223
 -0.0015497391187963342 -0.009059788077724278 0.001780165667999078 0.014119316869912657 0.9925139425558739 -0.07372268320766223 0.00593808957641744 0.031557078761536156
0.15631513130469998 0.006180336983750306 0.03281552619633129 0.992159655621808 -0.07671394409344844 0.0019468755304679617 0.014684075056912138 -0.001648981248757969 -0.009422092674709816
