! Created with skrf 1.8.0 (http://scikit-rf.org).
# GHz S RI R 50.0 
!freq ReS11 ImS11 ReS12 ImS12 ReS13 ImS13
! ReS14 ImS14
! ReS21 ImS21 ReS22 ImS22 ReS23 ImS23
! ReS24 ImS24
! ReS31 ImS31 ReS32 ImS32 ReS33 ImS33
! ReS34 ImS34
! ReS41 ImS41 ReS42 ImS42 ReS43 ImS43
! ReS44 ImS44
!
0.0 0.00172605698335 0.0 0.9982739430166 0.0 6.702679998882e-05 0.0 -6.702679981198e-05 8.208415584683173e-21
 0.9982739430166 0.0 0.001726056983371 0.0 -6.702679981192e-05 8.208415584675824e-21 6.702679999029e-05 0.0
 6.702679998882e-05 0.0 -6.702679981192e-05 8.208415584675824e-21 0.001726056962037 0.0 0.9982739429953 0.0
 -6.702679981198e-05 8.208415584683173e-21 6.702679999029e-05 0.0 0.9982739429953 0.0 0.001726056962058 0.0
0.005 0.0018577279854012424 0.001408858399279131 0.9981072708112798 -0.003615111911584303 9.459802295210324e-05 0.0007547669915409348 -9.179212474791617e-05 -0.0004707903664019137
 0.9981072708112798 -0.003615111911584303 0.001857709414207784 0.0014088691895303598 -9.179405556668909e-05 -0.00047079174237432426 9.47028737695497e-05 0.0007547269118970702
 9.459802295210324e-05 0.0007547669915409348 -9.179405556668909e-05 -0.00047079174237432426 0.0018577271456574908 0.0014087915489071113 0.9981072704291888 -0.003615178971266282
 -9.179212474791617e-05 -0.0004707903664019137 9.47028737695497e-05 0.0007547269118970702 0.9981072704291888 -0.003615178971266282 0.001857709499955012 0.001408801930774694
0.006252605252188 0.0018924414711822075 0.0017666025978913362 0.9980630287588066 -0.004519746792200996 0.00010255393889303368 0.0009438065041825598 -9.886846044069358e-05 -0.0005890894278739119
 0.9980630287588066 -0.004519746792200996 0.001892412441757846 0.0017666163231335138 -9.88714657685522e-05 -0.0005890911216622551 0.00010271775562740596 0.0009437544544431152
 0.00010255393889303368 0.0009438065041825598 -9.88714657685522e-05 -0.0005890911216622551 0.0018924402432503654 0.0017665190426868975 0.9980630282455513 -0.004519830605588244
 -9.886846044069358e-05 -0.0005890894278739119 0.00010271775562740596 0.0009437544544431152 0.9980630282455513 -0.004519830605588244 0.0018924126595997559 0.001766532274159439
0.01250521050438 0.0020762289105502887 0.0035700423680993533 0.9978271413935442 -0.009040105107963476 0.00014859731268683626 0.0018878533492040974 -0.00013947011525276194 -0.0011809301651024146
 0.9978271413935442 -0.009040105107963476 0.0020761130073171244 0.003570072226679999 -0.00013948196895567338 -0.0011809332617225634 0.00014925050245532837 0.0018877280365920623
 0.00014859731268683626 0.0018878533492040974 -0.00013948196895567338 -0.0011809332617225634 0.0020762245860503474 0.003569875469001447 0.9978271399083871 -0.009040272522907438
 -0.00013947011525276194 -0.0011809301651024146 0.00014925050245532837 0.0018877280365920623 0.9978271399083871 -0.009040272522907438 0.00207611443609554 0.0035699045041645582
0.01875781575657 0.0022778573484655553 0.00539891003643058 0.9975659615515491 -0.013572035711624244 0.00020527035819420565 0.0028327638195171615 -0.0001889648595630493 -0.0017746199106091576
 0.9975659615515491 -0.013572035711624244 0.002277596929880913 0.005398958640268291 -0.00018899130708069982 -0.0017746240527934773 0.00020673749835466718 0.002832539488051214
 0.00020527035819420565 0.0028327638195171615 -0.00018899130708069982 -0.0017746240527934773 0.0022778480820430666 0.0053986599301571675 0.9975659586339387 -0.013572286677211694
 -0.0001889648595630493 -0.0017746199106091576 0.00020673749835466718 0.002832539488051214 0.9975659586339387 -0.013572286677211694 0.002277600552471964 0.005398707535687013
0.02501042100875 0.0024977496772591867 0.007250593230606256 0.997279156337175 -0.01811768765363143 0.0002726872366309513 0.0037785531851980227 -0.0002474805407968949 -0.0023698561074266223
 0.997279156337175 -0.01811768765363143 0.0024972872283976185 0.0072506633771964825 -0.00024752726257836133 -0.0023698608661779567 0.00027529289547617136 0.0037781996818069593
 0.0002726872366309513 0.0037785531851980227 -0.00024752726257836133 -0.0023698608661779567 0.0024977336417321416 0.007250260087474061 0.9972791515209146 -0.01811802217077646
 -0.0002474805407968949 -0.0023698561074266223 0.00027529289547617136 0.0037781996818069593 0.9972791515209146 -0.01811802217077646 0.002497294019029364 0.007250329208422014
0.03126302626094 0.0027363112208865733 0.009123723346118771 0.9969663773150153 -0.022677951380360876 0.00035096192671130617 0.004725146995289659 -0.00031514076595446695 -0.002966417780365965
 0.9969663773150153 -0.022677951380360876 0.0027355893211370276 0.009123818015482394 -0.0003152133881876825 -0.0029664226542333388 0.00035503095230074786 0.004724629746035593
 0.00035096192671130617 0.004725146995289659 -0.0003152133881876825 -0.0029664226542333388 0.002736286613429294 0.009123307373254575 0.9969663701332103 -0.02267836949868659
 -0.00031514076595446695 -0.002966417780365965 0.00035503095230074786 0.004724629746035593 0.9969663701332103 -0.02267836949868659 0.0027356002540560934 0.009123401130415685
0.037515631513130004 0.002993938043637288 0.011017389655327692 0.9966272691753726 -0.02725324456632924 0.0004402071648443141 0.005672434939025705 -0.0003920658007195963 -0.003564111714234604
 0.9966272691753726 -0.02725324456632924 0.002992899343761083 0.011017512008951796 -0.00039216990055067027 -0.0035641161290317766 0.0004460648052557711 0.0056717149077961755
 0.0004402071648443141 0.005672434939025705 -0.00039216990055067027 -0.0035641161290317766 0.002993903078526956 0.011016891112824166 0.9966272591527217 -0.027253746368097853
 -0.0003920658007195963 -0.003564111714234604 0.0004460648052557711 0.0056717149077961755 0.9966272591527217 -0.027253746368097853 0.00299291538839431 0.011017012801893468
0.043768236765320004 0.0032710201404052854 0.01293090017740696 0.9962614732813733 -0.0318437511753411 0.0005405339266271784 0.00662028723928619 -0.0004783728757010548 -0.0041627560932042664
 0.9962614732813733 -0.0318437511753411 0.0032696073449484213 0.012931053558084523 -0.00047851398420905894 -0.004162759401890093 0.0005485058780067044 0.006619320881142871
 0.0005405339266271784 0.00662028723928619 -0.00047851398420905894 -0.004162759401890093 0.0032709730559298098 0.012930319373196613 0.9962614599386886 -0.03184433678094249
 -0.0004783728757010548 -0.0041627560932042664 0.0005485058780067044 0.006619320881142871 0.9962614599386886 -0.03184433678094249 0.0032696294740652853 0.01293047246449195
0.050020842017509996 0.0035679429022151023 0.014863682838007486 0.9958686294922169 -0.036449520231577937 0.0006520511027305075 0.0075685614199495635 -0.0005741762785851548 -0.004762173768542162
 0.9958686294922169 -0.036449520231577937 0.0035660987533597333 0.014863870770321459 -0.0005743598825612526 -0.004762175251130699 0.0006624635189199199 0.0075673006325251545
 0.0006520511027305075 0.0075685614199495635 -0.0005743598825612526 -0.004762175251130699 0.003567881956104305 0.014863020138697869 0.9958686123408274 -0.03645018978884941
 -0.0005741762785851548 -0.004762173768542162 0.0006624635189199199 0.0075673006325251545 0.9958686123408274 -0.03645018978884941 0.003566127939731141 0.014863208277676473
0.055454545454549996 0.0038423872258075012 0.016558590771463308 0.9955049901150708 -0.04046444059681363 0.0007581337164541892 0.008392865316529479 -0.0006652310700424582 -0.005283577377133807
 0.9955049901150708 -0.04046444059681363 0.003840121735654158 0.016558811734563823 -0.0006654560261340924 -0.005283576631381055 0.0007709321925737361 0.008391306019488171
 0.0007581337164541892 0.008392865316529479 -0.0006654560261340924 -0.005283576631381055 0.0038423128355393053 0.016557857246637955 0.9955049692499821 -0.04046518325165677
 -0.0006652310700424582 -0.005283577377133807 0.0007709321925737361 0.008391306019488171 0.9955049692499821 -0.04046518325165677 0.003840157848258605 0.01655807894034587
0.056273447269699996 0.0038850878503460034 0.016815236971249512 0.9954483772612651 -0.04107051425216846 0.0007748652556940633 0.008517105654404507 -0.0006795873554692952 -0.0053621889503389164
 0.9954483772612651 -0.04107051425216846 0.0038827551132730874 0.016815463162627223 -0.0006798188983722962 -0.005362187813847828 0.0007880447343001047 0.008515497728579258
 0.0007748652556940633 0.008517105654404507 -0.0006798188983722962 -0.005362187813847828 0.003885011322574293 0.016814492802306992 0.9954483558039368 -0.04107126793642663
 -0.0006795873554692952 -0.0053621889503389164 0.0007880447343001047 0.008515497728579258 0.9954483558039368 -0.04107126793642663 0.0038827923342311358 0.01681471981044687
0.06252605252188 0.0042228330092008 0.018785106659310952 0.9950003563765453 -0.04570663584810813 0.0009090804211452883 0.009465760598821444 -0.0007947144612222263 -0.005962625420914828
 0.9950003563765453 -0.04570663584810813 0.004219954458546105 0.01878537500144219 -0.0007949993438647169 -0.005962620799327462 0.0009253539742340575 0.009463748169390157
 0.0009090804211452883 0.009465760598821444 -0.0007949993438647169 -0.005962620799327462 0.004222739202917409 0.01878428150172373 0.9950003301061451 -0.045707473865634986
 -0.0007947144612222263 -0.005962625420914828 0.0009253539742340575 0.009463748169390157 0.9950003301061451 -0.045707473865634986 0.004220000697079124 0.018784551377896423
0.06877865777407 0.004581553084311048 0.020772864840084962 0.994524207511754 -0.050357743564301956 0.0010547979306004872 0.010414360509940134 -0.0009196628844052632 -0.0065633054709470125
 0.994524207511754 -0.050357743564301956 0.004578071490323527 0.02077317941100998 -0.0009200064651141471 -0.0065632964251958765 0.0010744929440678283 0.010411881506614463
 0.0010547979306004872 0.010414360509940134 -0.0009200064651141471 -0.0065632964251958765 0.004581440325894839 0.020771959234900796 0.9945241759100277 -0.05035866614801245
 -0.0009196628844052632 -0.0065633054709470125 0.0010744929440678283 0.010411881506614463 0.9945241759100277 -0.05035866614801245 0.004578127736853905 0.020772276157215136
0.07503126302626001 0.004961619520881008 0.0227781032427663 0.9940195726627507 -0.055023661899977254 0.0012121162488800507 0.01136273395967509 -0.0010545347541146557 -0.007164049246523484
 0.9940195726627507 -0.055023661899977254 0.004957477636464181 0.022778468309338662 -0.0010549423487845855 -0.007164034764483665 0.0012355604335040167 0.011359721558642849
 0.0012121162488800507 0.01136273395967509 -0.0010549423487845855 -0.007164034764483665 0.004961486161294548 0.022777117788543487 0.9940195351992225 -0.0550246693119256
 -0.0010545347541146557 -0.007164049246523484 0.0012355604335040167 0.011359721558642849 0.9940195351992225 -0.0550246693119256 0.0049575448909955095 0.022777486116663824
0.08128386827845 0.005363400489496531 0.02480042569414401 0.9934860955155953 -0.059704187967018714 0.001381130820039472 0.012310704321716062 -0.0011994289360074658 -0.007764674332218856
 0.9934860955155953 -0.059704187967018714 0.0053585410367947275 0.02480084571517047 -0.0011999058179409613 -0.0077646533287268615 0.0014086521558810637 0.012307086898080114
 0.001381130820039472 0.012310704321716062 -0.0011999058179409613 -0.0077646533287268615 0.005363244905123135 0.024799361046963005 0.9934860516465476 -0.05970528049848524
 -0.0011994289360074658 -0.007764674332218856 0.0014086521558810637 0.012307086898080114 0.9934860516465476 -0.05970528049848524 0.005358620310754298 0.024799785324966014
0.08753647353064001 0.005787260822782596 0.026839443496993465 0.9929234217702038 -0.06439909608564462 0.0015619339181164869 0.013258090129965629 -0.0013544409216003663 -0.008364995470871939
 0.9929234217702038 -0.06439909608564462 0.005781626480434306 0.02683992312672627 -0.0013549923212290943 -0.008364966787750564 0.0015938605935532288 0.013253791210997682
 0.0015619339181164869 0.013258090129965629 -0.0013549923212290943 -0.008364966787750564 0.005787081415779251 0.02683830037097438 0.9929233709369908 -0.06440027405660191
 -0.0013544409216003663 -0.008364995470871939 0.0015938605935532288 0.013253791210997682 0.9929233709369908 -0.06440027405660191 0.005781718797853879 0.026838785330624036
0.09378907878283 0.006233561917607953 0.02889477213534872 0.9923311994340274 -0.06910814106296398 0.0017546145028859794 0.014204705341853942 -0.0015196627112047149 -0.00896482438703205
 0.9923311994340274 -0.06910814106296398 0.006227095307749555 0.028895316227565273 -0.001520293815705189 -0.008964786793133657 0.0017912748489998453 0.014199643561281514
 0.0017546145028859794 0.014204705341853942 -0.001520293815705189 -0.008964786793133657 0.0062333571175230695 0.02889355130506059 0.9923311410624395 -0.06910940481945596
 -0.0015196627112047149 -0.00896482438703205 0.0017912748489998453 0.014199643561281514 0.9923311410624395 -0.06910940481945596 0.0062272017078560575 0.028894101869694436
0.100041684035 0.006702661612624897 0.030966028869027794 0.991709079094178 -0.07383106059220333 0.0019592580773045327 0.015150359550327924 -0.0016951826941714698 -0.009563969670595003
 0.991709079094178 -0.07383106059220333 0.006695305287770766 0.030966642481771178 -0.0016958986469362935 -0.009563921861873532 0.0020009804983377117 0.015144448603808005
 0.0019592580773045327 0.015150359550327924 -0.0016958986469362935 -0.009563921861873532 0.006702429876836094 0.030964731169555584 0.9917090125928718 -0.07383241050626992
 -0.0016951826941714698 -0.009563969670595003 0.0020009804983377117 0.015144448603808005 0.9917090125928718 -0.07383241050626992 0.006695426826620937 0.030965352458387645
0.1059090909091 0.007163912514695728 0.032923829102980216 0.9910977844722214 -0.07827539128869629 0.0021622475835016736 0.01603670841408929 -0.0018693311359082327 -0.010125408896007403
 0.9910977844722214 -0.07827539128869629 0.00715566896591093 0.03292451274006736 -0.0018701313482509228 -0.010125350250865132 0.0022090189060193144 0.016029917685713244
 0.0021622475835016736 0.01603670841408929 -0.0018701313482509228 -0.010125350250865132 0.007163654125576407 0.03292246007956923 0.9910977097878507 -0.07827682241749041
 -0.0018693311359082327 -0.010125408896007403 0.0022090189060193144 0.016029917685713244 0.9910977097878507 -0.07827682241749041 0.007155805687820517 0.0329231525702519
0.1062942892872 0.007194914048538717 0.033052830936512664 0.9910567141773591 -0.07856757705427865 0.002175946547709558 0.01609485815941002 -0.0018810855256735598 -0.010162236705935246
 0.9910567141773591 -0.07856757705427865 0.007186610479011757 0.033053519337259085 -0.0018818914258554747 -0.01016217730551099 0.0022230594480065853 0.016088006761253472
 0.002175946547709558 0.01609485815941002 -0.0018818914258554747 -0.01016217730551099 0.007194653863688877 0.033051457259718524 0.9910566389368077 -0.0785690135273503
 -0.0018810855256735598 -0.010162236705935246 0.0022230594480065853 0.016088006761253472 0.9910566389368077 -0.0785690135273503 0.007186748231369381 0.033052154592804965
0.11254689453939999 0.007710669514106858 0.0351547941806111 0.9903737611977165 -0.08331739890719227 0.0024047580852920303 0.017038002532314394 -0.0020774520020991056 -0.010759427637739854
 0.9903737611977165 -0.08331739890719227 0.007701361074963757 0.03515556285209401 -0.002078352903941486 -0.010759355196032678 0.002457589793143093 0.01703011437339798
 0.0024047580852920303 0.017038002532314394 -0.002078352903941486 -0.010759355196032678 0.0077103793967741585 0.035153345477603105 0.9903736765888779 -0.08331892236741638
 -0.0020774520020991056 -0.010759427637739854 0.002457589793143093 0.01703011437339798 0.9903736765888779 -0.08331892236741638 0.00770151613602292 0.03515412438125355
0.11879949979160001 0.008250274281018535 0.03727153199539556 0.9896598799967883 -0.08808022176518614 0.0026457669891042567 0.017979590127535694 -0.0022843589350239066 -0.011355341358171197
 0.9896598799967883 -0.08808022176518614 0.008239903238836707 0.037272386642073864 -0.0022853598471962895 -0.011355254353005646 0.0027046456776097746 0.017970563834720815
 0.0026457669891042567 0.017979590127535694 -0.0022853598471962895 -0.011355254353005646 0.008249952778888653 0.03727000927666226 0.9896597853702398 -0.08808183266690539
 -0.0022843589350239066 -0.011355341358171197 0.0027046456776097746 0.017970563834720815 0.9896597853702398 -0.08808183266690539 0.008240076726561461 0.03727087548955506
0.1250521050438 0.008814070431703453 0.03940265450125252 0.9889147339803872 -0.09285572926117996 0.002899043550523956 0.018919414620330387 -0.0025018790240802064 -0.011949773518174273
 0.9889147339803872 -0.09285572926117996 0.0088025789321215 0.03940360105627951 -0.0025029849090084867 -0.011949670354895383 0.0029642971557684397 0.018909143717280478
 0.002899043550523956 0.018919414620330387 -0.0025029849090084867 -0.011949670354895383 0.008813716124695524 0.039401058836420505 0.9889146286645305 -0.09285742808472205
 -0.0025018790240802064 -0.011949773518174273 0.0029642971557684397 0.018909143717280478 0.9889146286645305 -0.09285742808472205 0.008802771988789638 0.0394020183161724
0.131304710296 0.009402395679051804 0.0415477678937021 0.9881379903483898 -0.09764359374687867 0.003164653918518924 0.019857266019219735 -0.0027300807298747654 -0.012542516553363048
 0.9881379903483898 -0.09764359374687867 0.009389725733657836 0.04154881252660549 -0.0027312965029893683 -0.012542395565073134 0.0032366100556464336 0.01984563888872426
 0.003164653918518924 0.019857266019219735 -0.0027312965029893683 -0.012542395565073134 0.009402007180324693 0.04154610041156639 0.9881378736485847 -0.09764538099803036
 -0.0027300807298747654 -0.012542516553363048 0.0032366100556464336 0.01984563888872426 0.9881378736485847 -0.09764538099803036 0.00938993952809353 0.041547159341994
0.1375573155481 0.009887096685396016 0.04342678267574484 0.9874578723107029 -0.1021636092177403 0.003410634143942171 0.020765540509005982 -0.0029369273681942444 -0.013106054961851254
 0.9874578723107029 -0.1021636092177403 0.009873184762059898 0.043427909113180396 -0.0029382600614020005 -0.013105915861770427 0.0034894612734014735 0.020752566225562152
 0.003410634143942171 0.020765540509005982 -0.0029382600614020005 -0.013105915861770427 0.009886671314976319 0.043425045044907316 0.9874577436865885 -0.10216548520872717
 -0.0029369273681942444 -0.013106054961851254 0.0034894612734014735 0.020752566225562152 0.9874577436865885 -0.10216548520872717 0.00987342148658183 0.04342618579998593
0.1438099208003 0.010389037316540969 0.04529470656009345 0.9867534688805936 -0.10667096656518206 0.003666503594698459 0.021669477417439537 -0.003152002662560879 -0.013665561737015084
 0.9867534688805936 -0.10667096656518206 0.01037382438129716 0.045295919663395384 -0.003153457505095797 -0.013665402880665272 0.0037525001766109656 0.02165505309375932
 0.003666503594698459 0.021669477417439537 -0.003153457505095797 -0.013665402880665272 0.010388573500238259 0.0452929000393658 0.9867533276358605 -0.10667293179370765
 -0.003152002662560879 -0.013665561737015084 0.0037525001766109656 0.02165505309375932 0.9867533276358605 -0.10667293179370765 0.01037408542911974 0.04529412733846509
0.1500625260525 0.010908022873637869 0.047151348095274354 0.9860249797481243 -0.11116551791940425 0.00393216203270314 0.02256896323406231 -0.0033752078956056624 -0.01422092838267906
 0.9860249797481243 -0.11116551791940425 0.010891449730105748 0.04715265302102821 -0.0033767900971959576 -0.014220748060310468 0.004025624391322008 0.022552982237734873
 0.00393216203270314 0.02256896323406231 -0.0033767900971959576 -0.014220748060310468 0.010907519053834679 0.047149473995924146 0.9860248251666259 -0.11116757290090065
 -0.0033752078956056624 -0.01422092838267906 0.004025624391322008 0.022552982237734873 0.9860248251666259 -0.11116757290090065 0.010891736532477278 0.04715079284027783
0.15631513130469998 0.011443857053768052 0.048996521536670584 0.9852726058671363 -0.11564711673671092 0.004207507909818563 0.023463886652490818 -0.003606443013509126 -0.014772048923161704
