! Created with skrf 1.8.0 (http://scikit-rf.org).
# GHz S RI R 50.0 
!freq ReS11 ImS11 ReS12 ImS12 ReS13 ImS13
! ReS14 ImS14
! ReS21 ImS21 ReS22 ImS22 ReS23 ImS23
! ReS24 ImS24
! ReS31 ImS31 ReS32 ImS32 ReS33 ImS33
! ReS34 ImS34
! ReS41 ImS41 ReS42 ImS42 ReS43 ImS43
! ReS44 ImS44
!
0.0 0.001740924825006 0.0 0.9982590751636 0.0 6.758558820172e-05 0.0 -6.758558864532e-05 8.276847480298083e-21
 0.9982590751636 0.0 0.00174092482503 0.0 -6.758558864618e-05 8.276847480403403e-21 6.758558820155e-05 0.0
 6.758558820172e-05 0.0 -6.758558864618e-05 8.276847480403403e-21 0.001740924822193 0.0 0.9982590751608 0.0
 -6.758558864532e-05 8.276847480298083e-21 6.758558820155e-05 0.0 0.9982590751608 0.0 0.001740924822175 0.0
0.005 0.0018737660359575896 0.0014217089948903457 0.9980909132295805 -0.003646158640320803 9.530398875377716e-05 0.0007564962580803928 -9.249661793847658e-05 -0.00047264251485793087
 0.9980909132295805 -0.003646158640320803 0.0018737527194415302 0.0014217167396815195 -9.249418481264015e-05 -0.0004726406121843086 9.539328252099546e-05 0.0007564621980628488
 9.530398875377716e-05 0.0007564962580803928 -9.249418481264015e-05 -0.0004726406121843086 0.0018737670886364468 0.001421641058239948 0.9980909128530884 -0.003646225703033438
 -9.249661793847658e-05 -0.00047264251485793087 9.539328252099546e-05 0.0007564621980628488 0.9980909128530884 -0.003646225703033438 0.0018737509216095502 0.001421650557710239
0.006252605252188 0.0019088012711934298 0.0017827108103121545 0.9980462561611522 -0.0045585599367941486 0.00010331129354696702 0.0009459699272360353 -9.96207082560516e-05 -0.0005914050483749154
 0.9980462561611522 -0.0045585599367941486 0.0019087804554721367 0.0017827206663709341 -9.961692240702735e-05 -0.0005914027022892718 0.00010345080516206282 0.0009459256805084484
 0.00010331129354696702 0.0009459699272360353 -9.961692240702735e-05 -0.0005914027022892718 0.0019088029934065161 0.0017826258960893897 0.9980462556488033 -0.004558643756244021
 -9.96207082560516e-05 -0.0005914050483749154 0.00010345080516206282 0.0009459256805084484 0.9980462556488033 -0.004558643756244021 0.0019087777209440817 0.0017826379569275568
0.01250521050438 0.002094368895824714 0.0036025457557708465 0.9978080445921486 -0.009117708140810896 0.00014969861146840965 0.0018921852912672065 -0.00014052867061190605 -0.0011855580932585697
 0.9978080445921486 -0.009117708140810896 0.0020942857836060477 0.0036025672252010506 -0.0001405137546989633 -0.0011855537578433597 0.00015025491621309056 0.001892078612755204
 0.00014969861146840965 0.0018921852912672065 -0.0001405137546989633 -0.0011855537578433597 0.0020943763379972584 0.003602376140903932 0.9978080431013904 -0.009117875550504964
 -0.00014052867061190605 -0.0011855580932585697 0.00015025491621309056 0.001892078612755204 0.9978080431013904 -0.009117875550504964 0.002094275416254926 0.0036024021632549523
0.01875781575657 0.002298072824237272 0.005447995262492967 0.99754411598282 -0.013688495137312986 0.0002068621546671256 0.0028392631848367282 -0.00019044385068657654 -0.0017815572125491046
 0.99754411598282 -0.013688495137312986 0.0022978860753972413 0.005448030204717593 -0.00019041059344986462 -0.0017815513202399699 0.00020811174423246193 0.002839071987705147
 0.0002068621546671256 0.0028392631848367282 -0.00019041059344986462 -0.0017815513202399699 0.00229808999354951 0.005447741021560499 0.9975441130579344 -0.013688746059463614
 -0.00019044385068657654 -0.0017815572125491046 0.00020811174423246193 0.002839071987705147 0.9975441130579344 -0.013688746059463614 0.0022978632001301267 0.005447783095957942
0.02501042100875 0.002520342598154311 0.007316421340453197 0.9972541320401265 -0.018273084695290574 0.00027491730534452723 0.0037872150609760255 -0.0002494953224371125 -0.0023790977034422187
 0.9972541320401265 -0.018273084695290574 0.0025200109581534754 0.007316471703412933 -0.000249436601313912 -0.0023790907696051747 0.00027713670198915776 0.003786913475789225
 0.00027491730534452723 0.0037872150609760255 -0.000249436601313912 -0.0023790907696051747 0.0025203734976259173 0.00731608248840547 0.9972541272150781 -0.01827341912621275
 -0.0002494953224371125 -0.0023790977034422187 0.00027713670198915776 0.003786913475789225 0.9972541272150781 -0.01827341912621275 0.002519970698026775 0.007316142877989607
0.03126302626094 0.0027615899051164636 0.009206440192160057 0.9969377387826518 -0.022872371198314964 0.0003539792278605721 0.004735962927652953 -0.0003178078615203957 -0.002977956013134006
 0.9969377387826518 -0.022872371198314964 0.002761072179748315 0.009206508009260974 -0.00031771662786641777 -0.002977948636870833 0.0003574452290800595 0.004735521280278791
 0.0003539792278605721 0.004735962927652953 -0.00031771662786641777 -0.002977948636870833 0.002761638547571102 0.009206016748107185 0.9969377315918088 -0.022872789144620036
 -0.0003178078615203957 -0.002977956013134006 0.0003574452290800595 0.004735521280278791 0.9969377315918088 -0.022872789144620036 0.0027610096668180466 0.009206097886070736
0.037515631513130004 0.003022216988064706 0.01111712970009735 0.9965945753179719 -0.027486772099084164 0.00044416179010379624 0.005685392983479059 -0.00039550283712569553 -0.003577936144079818
 0.9965945753179719 -0.027486772099084164 0.003021472025701137 0.011117217088666299 -0.0003953721087153596 -0.0035779290084285795 0.0004491515707807354 0.00568477775838557
 0.00044416179010379624 0.005685392983479059 -0.0003953721087153596 -0.0035779290084285795 0.0030222873942978242 0.011116621653025792 0.9965945652920227 -0.02748727361179962
 -0.00039550283712569553 -0.003577936144079818 0.0004491515707807354 0.00568477775838557 0.9965945652920227 -0.02748727361179962 0.0030213823979566125 0.011116726141918038
0.043768236765320004 0.003302619875675559 0.013047788216547026 0.996224277438469 -0.03211646906128842 0.0005455770359571304 0.0066353719426628256 -0.0004826985123304608 -0.0041788533641056716
 0.996224277438469 -0.03211646906128842 0.003301606552602229 0.013047897376862303 -0.0004825213689967637 -0.00417884723604909 0.0005523681894028653 0.006634545741745471
 0.0005455770359571304 0.0066353719426628256 -0.0004825213689967637 -0.00417884723604909 0.0033027160747406163 0.013047195556316688 0.99622426410291 -0.03211705420446269
 -0.0004826985123304608 -0.0041788533641056716 0.0005523681894028653 0.006634545741745471 0.99622426410291 -0.03211705420446269 0.0033014849536804553 0.013047326168362228
0.050020842017509996 0.0036031898645772988 0.014997834912461311 0.9958264794729077 -0.0367615075418373 0.0006583348519950571 0.007585753789388067 -0.0005795101344341393 -0.004780527489700865
 0.9958264794729077 -0.0367615075418373 0.003601867071443591 0.01499796812736113 -0.0005792797152850591 -0.004780523220144851 0.0006672053984389834 0.007584675289060638
 0.0006583348519950571 0.007585753789388067 -0.0005792797152850591 -0.004780523220144851 0.0036033158960558616 0.014997157618135042 0.9958264623490054 -0.036762176403923
 -0.0005795101344341393 -0.004780527489700865 0.0006672053984389834 0.007584675289060638 0.9958264623490054 -0.036762176403923 0.0036017086530181356 0.014997317295876323
0.055454545454549996 0.003881073339220876 0.016707833634140724 0.9954581632785351 -0.04081061502707413 0.0007656199048729684 0.008411871093143206 -0.0006715389304993645 -0.005303876288199591
 0.9954581632785351 -0.04081061502707413 0.003879448223143067 0.0167079896712589 -0.0006712566858451743 -0.005303874389901689 0.0007765236166449551 0.008410536695756435
 0.0007656199048729684 0.008411871093143206 -0.0006712566858451743 -0.005303874389901689 0.0038812285841183032 0.016707082764947388 0.9954581424683039 -0.04081135673370278
 -0.0006715389304993645 -0.005303876288199591 0.0007765236166449551 0.008410536695756435 0.9954581424683039 -0.04081135673370278 0.0038792538757447177 0.016707270224627126
0.056273447269699996 0.003924314258817214 0.01696676086348165 0.9954008154004327 -0.0414218456402398 0.0007825427204633342 0.008536383097681705 -0.0006860499305440622 -0.005382779609211514
 0.9954008154004327 -0.0414218456402398 0.003922640888178928 0.016966920498358285 -0.0006857594321863403 -0.005382778132909246 0.0007937710958793698 0.008535007005427416
 0.0007825427204633342 0.008536383097681705 -0.0006857594321863403 -0.005382778132909246 0.003924474171953857 0.01696599890263051 0.9954007940023992 -0.04142259833423748
 -0.0006860499305440622 -0.005382779609211514 0.0007937710958793698 0.008535007005427416 0.9954007940023992 -0.04142259833423748 0.0039224408091172456 0.016966190760270415
0.06252605252188 0.004266376746263397 0.018954102153582373 0.9949469196059231 -0.046097380936300135 0.000918305514024478 0.00948709687155955 -0.0008024270563185412 -0.005985430292534589
 0.9949469196059231 -0.046097380936300135 0.00426431168045531 0.018954290656783217 -0.000802069731599498 -0.005985432628007321 0.0009321705455988539 0.009485373882424208
 0.000918305514024478 0.00948709687155955 -0.000802069731599498 -0.005985432628007321 0.004266574602020154 0.018953255488795846 0.9949468934420249 -0.0460982175927824
 -0.0008024270563185412 -0.005985430292534589 0.0009321705455988539 0.009485373882424208 0.9949468934420249 -0.0460982175927824 0.004264065110019186 0.01895348281384983
0.06877865777407 0.004629757575612202 0.02095942385656217 0.9944644274412683 -0.05078796645767155 0.001065725315373764 0.010437725652088795 -0.0009287475158516028 -0.006588298541411522
 0.9944644274412683 -0.05078796645767155 0.004627259674896207 0.020959643760322957 -0.0009283166731929588 -0.006588305790856852 0.0010825061875825016 0.010435602405422796
 0.001065725315373764 0.010437725652088795 -0.0009283166731929588 -0.006588305790856852 0.004629997446072005 0.020958492439642956 0.9944643960113747 -0.05078888723006357
 -0.0009287475158516028 -0.006588298541411522 0.0010825061875825016 0.010435602405422796 0.9944643960113747 -0.05078888723006357 0.004626961791914563 0.02095875869512487
0.07503126302626001 0.005014833612267602 0.02298230988153347 0.9939529756705167 -0.055493420791955426 0.0012249012497034496 0.011388094234762298 -0.0010651140659731382 -0.007191201137421154
 0.9939529756705167 -0.055493420791955426 0.005011861703031618 0.02298256380320988 -0.0010646030688463474 -0.00719121448661604 0.0012448774634506354 0.011385513271438422
 0.0012249012497034496 0.011388094234762298 -0.0010646030688463474 -0.00719121448661604 0.005015119581821215 0.022981293660198986 0.9939529384661245 -0.05549442584924672
 -0.0010651140659731382 -0.007191201137421154 0.0012448774634506354 0.011385513271438422 0.9939529384661245 -0.05549442584924672 0.005011507698426582 0.022981602487131145
0.08128386827845 0.005421978321605956 0.025022356230728744 0.9934122028470607 -0.06021353479553287 0.001395929326912487 0.01233802215614845 -0.0012116261087391977 -0.007793952229075247
 0.9934122028470607 -0.06021353479553287 0.005418491184477988 0.02502264687456847 -0.0012110283754538788 -0.0077939729472614626 0.0014193806527470435 0.012334921876444886
 0.001395929326912487 0.01233802215614845 -0.0012110283754538788 -0.0077939729472614626 0.005422314487145898 0.025021255139066334 0.9934121593499113 -0.060214624331160614
 -0.0012116261087391977 -0.007793952229075247 0.0014193806527470435 0.012334921876444886 0.9934121593499113 -0.060214624331160614 0.005418076262056047 0.025021610359551666
0.08753647353064001 0.005851561700700774 0.027079166332878112 0.9928417496437953 -0.06494807623655703 0.0015789022885847924 0.013287324052270911 -0.0013683795771723246 -0.008396363055950408
 0.9928417496437953 -0.06494807623655703 0.0058475180591099855 0.02707949649219494 -0.001367688580796667 -0.00839639249571795 0.0016061087157075008 0.013283638674429726
 0.0015789022885847924 0.013287324052270911 -0.001367688580796667 -0.00839639249571795 0.005851952172548962 0.027077980296964947 0.9928416993260655 -0.06494925046218725
 -0.0013683795771723246 -0.008396363055950408 0.0016061087157075008 0.013283638674429726 0.9928416993260655 -0.06494925046218725 0.005847037437606652 0.027078385917544183
0.09378907878283 0.006303950177233652 0.029152347729717094 0.9922412591549681 -0.06969679309495332 0.001773909460041534 0.014235809922692967 -0.0015354668150693279 -0.00899824177595968
 0.9922412591549681 -0.06969679309495332 0.006299308685215036 0.02915272028960935 -0.0015346760834888192 -0.008998281373123513 0.0018051511410081716 0.014231469442416898
 0.001773909460041534 0.014235809922692967 -0.0015346760834888192 -0.008998281373123513 0.006304399078708179 0.02915107666553925 0.9922412014770778 -0.06969805224174111
 -0.0015354668150693279 -0.00899824177595968 0.0018051511410081716 0.014231469442416898 0.9922412014770778 -0.06969805224174111 0.0062987575989267314 0.02915153688120336
0.100041684035 0.006779506481256828 0.03124150964489294 0.9916103771752859 -0.07445941599053126 0.0019810366041181477 0.015183285346787973 -0.0017129764537987275 -0.009599393349755172
 0.9916103771752859 -0.07445941599053126 0.0067742257121486986 0.031241927585297244 -0.0017120795699402656 -0.009599444623203264 0.0020165937965410646 0.01517821549758357
 0.0019810366041181477 0.015183285346787973 -0.0017120795699402656 -0.009599444623203264 0.006780017950243667 0.031240153459416376 0.9916103115859976 -0.07446076030740474
 -0.0017129764537987275 -0.009599393349755172 0.0020165937965410646 0.01517821549758357 0.9916103115859976 -0.07446076030740474 0.006773599413279277 0.03124067265793824
0.1059090909091 0.007247156265429885 0.03321615241793538 0.9909904077044165 -0.07894102621851838 0.0021864995870956062 0.0160712946358209 -0.001889105065670058 -0.010162672407670855
 0.9909904077044165 -0.07894102621851838 0.007241237842871796 0.0332166157410856 -0.001888102782114524 -0.010162736093370726 0.002226361360128341 0.016065468976034045
 0.0021864995870956062 0.0160712946358209 -0.001888102782114524 -0.010162736093370726 0.007247730223480059 0.033214716257894565 0.9909903341784073 -0.07894245070449481
 -0.001889105065670058 -0.010162672407670855 0.002226361360128341 0.016065468976034045 0.9909903341784073 -0.07894245070449481 0.007240536664012853 0.033215294972231545
0.1062942892872 0.007278589501267357 0.03334626117388931 0.9909487524658208 -0.07923566000090772 0.002200365777911338 0.016129551658804225 -0.0019009932860107159 -0.010199619475518715
 0.9909487524658208 -0.07923566000090772 0.0072726279354701885 0.0333467275732927 -0.0018999838880526265 -0.010199684027065467 0.0022405187830199344 0.01612367387339361
 0.002200365777911338 0.016129551658804225 -0.0018999838880526265 -0.010199684027065467 0.007279167689965102 0.03334481976007938 0.9909486784011147 -0.07923708975860638
 -0.0019009932860107159 -0.010199619475518715 0.0022405187830199344 0.01612367387339361 0.9909486784011147 -0.07923708975860638 0.007271921695410946 0.03334540252692555
0.11254689453939999 0.007801554124168431 0.03546620990229032 0.9902560370084423 -0.08402522606236189 0.002431975190879398 0.017074406099918806 -0.00209959813769595 -0.010798718556423741
 0.9902560370084423 -0.08402522606236189 0.007794870137482975 0.03546672794182569 -0.0020984699194956887 -0.010798798070664754 0.0024770042892640234 0.017067637472702943
 0.002431975190879398 0.017074406099918806 -0.0020984699194956887 -0.010798798070664754 0.007802203199632904 0.03546468314316739 0.9902559538904395 -0.08402674154859477
 -0.00209959813769595 -0.010798718556423741 0.0024770042892640234 0.017067637472702943 0.9902559538904395 -0.08402674154859477 0.0077940792480943565 0.03546533426684128
0.11879949979160001 0.008348751065935855 0.03760096084644657 0.9895318862537981 -0.08882780205953635 0.002675939064356626 0.018017641956790495 -0.00230886773906186 -0.01139648569128388
 0.9895318862537981 -0.08882780205953635 0.008341302917325261 0.03760153381463331 -0.002307614450466643 -0.011396581935398213 0.0027261244496126335 0.0180098952074362
 0.002675939064356626 0.018017641956790495 -0.002307614450466643 -0.011396581935398213 0.008349475210391321 0.03759934861222539 0.9895317934899918 -0.0888294035808962
 -0.00230886773906186 -0.01139648569128388 0.0027261244496126335 0.0180098952074362 0.9895317934899918 -0.0888294035808962 0.008340422693115076 0.03760007309012537
0.1250521050438 0.008920526692771364 0.03975011562244543 0.9887759593622815 -0.09364306369881668 0.002932327492856693 0.018959048685015314 -0.002528874594379151 -0.01199271268998994
 0.9887759593622815 -0.09364306369881668 0.008912272512763582 0.03975074692033502 -0.0025274900417516575 -0.011992827513537967 0.0029879492026674815 0.018950232123329473
 0.002932327492856693 0.018959048685015314 -0.0025274900417516575 -0.011992827513537967 0.008921330104223734 0.039748417769173115 0.9887758563444552 -0.0936447515811858
 -0.002528874594379151 -0.01199271268998994 0.0029879492026674815 0.018950232123329473 0.9887758563444552 -0.0936447515811858 0.008911298292169712 0.03974922081401543
0.131304710296 0.009517222836187214 0.041913271792253654 0.9879879194411271 -0.09847067521628067 0.0032012063062469604 0.019898412030890787 -0.002759686851866992 -0.012587188100707943
 0.9879879194411271 -0.09847067521628067 0.009508120614504715 0.04191396493923936 -0.0027581648985416257 -0.012587323435483947 0.0032625441515010778 0.019888429522847206
 0.0032012063062469604 0.019898412030890787 -0.0027581648985416257 -0.012587323435483947 0.009518109728831404 0.04191148816260378 0.9879878055451795 -0.09847244980303838
 -0.002759686851866992 -0.012587188100707943 0.0032625441515010778 0.019888429522847206 0.9879878055451795 -0.09847244980303838 0.009507047762062425 0.04191237520935881
0.1375573155481 0.010009235471179727 0.043808219189370654 0.9872974414029206 -0.10302830932054749 0.003450374487461182 0.020808040563541803 -0.002969043869476768 -0.013152302391193848
 0.9872974414029206 -0.10302830932054749 0.009999239130771505 0.043808961267933266 -0.002967375266519184 -0.013152458567447038 0.0035175695862929503 0.020796899452303612
 0.003450374487461182 0.020808040563541803 -0.002967375266519184 -0.013152458567447038 0.01001020915587759 0.04380634972409622 0.9872973161193692 -0.10303017080387834
 -0.002969043869476768 -0.013152302391193848 0.0035175695862929503 0.020796899452303612 0.9872973161193692 -0.10303017080387834 0.009998063711258182 0.043807309338467715
0.1438099208003 0.010518758773918717 0.04569190274335777 0.9865822832306509 -0.10757309476353553 0.0037095571402803035 0.02171325595924422 -0.0031867243917093357 -0.013713317094741719
 0.9865822832306509 -0.10757309476353553 0.010507825495145444 0.04569269633617088 -0.0031849025244856002 -0.013713496033803773 0.003782863977037255 0.021700867619262737
 0.0037095571402803035 0.02171325595924422 -0.0031849025244856002 -0.013713496033803773 0.0105198233252783 0.04568994731226765 0.9865821459355039 -0.1075750434777104
 -0.0031867243917093357 -0.013713317094741719 0.003782863977037255 0.021700867619262737 0.9865821459355039 -0.1075750434777104 0.010506543034543757 0.04569098400028329
0.1500625260525 0.011045593785910267 0.047564126966346806 0.9858426489071119 -0.11210487987784744 0.003978651863310864 0.022613942412012963 -0.003412627701014532 -0.014270121726055449
 0.9858426489071119 -0.11210487987784744 0.01103368059390557 0.047564974841569144 -0.003410645972307172 -0.01427032542694361 0.004058323112999027 0.022600214985470848
 0.003978651863310864 0.022613942412012963 -0.003410645972307172 -0.01427032542694361 0.011046753283867982 0.04756208543504248 0.9858424989624632 -0.11210691616679612
 -0.003412627701014532 -0.014270121726055449 0.004058323112999027 0.022600214985470848 0.9858424989624632 -0.11210691616679612 0.011032286651106267 0.047563203964751104
0.15631513130469998 0.01158953989670248 0.04942470219843174 0.985078743719346 -0.11662351440253639 0.004257554909042312 0.0235099863856219 -0.003646651710025889 -0.014822608380516186
 0.985078743719346 -0.11662351440253639 0.0115766036572119 0.04942560731685171 -0.003644503540438161 -0.01482283891955235 0.004343841405613247 0.023494824821130463
