! Created with skrf 1.8.0 (http://scikit-rf.org).
# GHz S RI R 50.0 
!freq ReS11 ImS11 ReS12 ImS12 ReS13 ImS13
! ReS14 ImS14
! ReS21 ImS21 ReS22 ImS22 ReS23 ImS23
! ReS24 ImS24
! ReS31 ImS31 ReS32 ImS32 ReS33 ImS33
! ReS34 ImS34
! ReS41 ImS41 ReS42 ImS42 ReS43 ImS43
! ReS44 ImS44
!
0.0 0.00146410504335 0.0 0.9985358949368 0.0 5.609884046487e-05 0.0 -5.609884117614e-05 6.870126628223558e-21
 0.9985358949368 0.0 0.001464105043343 0.0 -5.609884117616e-05 6.870126628226009e-21 5.609884046638e-05 0.0
 5.609884046487e-05 0.0 -5.609884117616e-05 6.870126628226009e-21 0.001464105051875 0.0 0.9985358949453 0.0
 -5.609884117614e-05 6.870126628223558e-21 5.609884046638e-05 0.0 0.9985358949453 0.0 0.001464105051865 0.0
0.005 0.0015749709681114313 0.0012024236409108801 0.9983956776689679 -0.003066946873242119 7.783338924066719e-05 0.0005909184579487635 -7.572354619196195e-05 -0.00037570743337435715
 0.9983956776689679 -0.003066946873242119 0.001575001521751911 0.001202405783759709 -7.572118493467446e-05 -0.0003757055981690069 7.765099142069556e-05 0.000590987819781573
 7.783338924066719e-05 0.0005909184579487635 -7.572118493467446e-05 -0.0003757055981690069 0.001574972648661541 0.0012024898798901015 0.9983956780189566 -0.003066879816395737
 -7.572354619196195e-05 -0.00037570743337435715 7.765099142069556e-05 0.000590987819781573 0.9983956780189566 -0.003066879816395737 0.0015750005335334906 0.0012024736519268588
0.006252605252188 0.001603977025289542 0.0015077480844692586 0.9983587701065854 -0.0038344420658235016 8.401764984140866e-05 0.0007389501982229318 -8.122784386673644e-05 -0.00047011751087249853
 0.9983587701065854 -0.0038344420658235016 0.0016040247863661934 0.0015077254228621033 -8.12241697064142e-05 -0.0004701152474262598 8.373266802461054e-05 0.0007390402515416378
 8.401764984140866e-05 0.0007389501982229318 -8.12241697064142e-05 -0.0004701152474262598 0.001603979577193911 0.00150783087399809 0.9983587705782119 -0.0038343582464429645
 -8.122784386673644e-05 -0.00047011751087249853 8.373266802461054e-05 0.0007390402515416378 0.9983587705782119 -0.0038343582464429645 0.0016040231656225482 0.0015078102574827335
0.01250521050438 0.001756259885693381 0.003047013680420856 0.9981637654866385 -0.007669729423207968 0.00011934901894094449 0.001478353399204133 -0.00011226251139269246 -0.0009425290790670686
 0.9981637654866385 -0.007669729423207968 0.0017564505981178446 0.00304696490766262 -0.00011224803342368138 -0.0009425248859136807 0.00011821252330574229 0.0014785695357428155
 0.00011934901894094449 0.001478353399204133 -0.00011224803342368138 -0.0009425248859136807 0.0017562695327426406 0.003047178922301889 0.9981637668242782 -0.007669562013119491
 -0.00011226251139269246 -0.0009425290790670686 0.00011821252330574229 0.0014785695357428155 0.9981637668242782 -0.007669562013119491 0.0017564435725353647 0.003047134349697621
0.01875781575657 0.0019212728477749168 0.004608179366637867 0.997950648245174 -0.011515205589925474 0.00016217209932878294 0.0022186789121918715 -0.00014929473235765676 -0.0014166003364394976
 0.997950648245174 -0.011515205589925474 0.0019217013890279722 0.00460810072693183 -0.00014926244785215317 -0.0014165946086564535 0.00015961895460705466 0.0022190639356710175
 0.00016217209932878294 0.0022186789121918715 -0.00014926244785215317 -0.0014165946086564535 0.0019212941109315281 0.004608426794356337 0.9979506508332913 -0.011514954657765282
 -0.00014929473235765676 -0.0014166003364394976 0.00015961895460705466 0.0022190639356710175 0.9979506508332913 -0.011514954657765282 0.0019216851663664627 0.0046083546911016545
0.02501042100875 0.0020993263763904287 0.00618908495694158 0.9977191766845838 -0.015372747756790345 0.00021256773308303054 0.002959955608194032 -0.00019241382927344874 -0.0018921326845442953
 0.9977191766845838 -0.015372747756790345 0.0021000874332507418 0.006188972422162597 -0.00019235681949541936 -0.0018921258856831533 0.00020803249749457204 0.0029605588510060385
 0.00021256773308303054 0.002959955608194032 -0.00019235681949541936 -0.0018921258856831533 0.0020993637724916656 0.006189414267580595 0.9977191809116858 -0.015372413319838268
 -0.00019241382927344874 -0.0018921326845442953 0.00020803249749457204 0.0029605588510060385 0.9977191809116858 -0.015372413319838268 0.0021000582206376064 0.006189310854392039
0.03126302626094 0.0022907180644572626 0.007788626138794551 0.9974690962887847 -0.01924316812927125 0.0002706174343937784 0.00370214780285133 -0.00024170685295780585 -0.002368987281902285
 0.9974690962887847 -0.01924316812927125 0.0022919061832338723 0.007788475414854513 -0.00024161826878970913 -0.002368979944877626 0.00026353382692214343 0.0037030251638364648
 0.0002706174343937784 0.00370214780285133 -0.00024161826878970913 -0.002368979944877626 0.002290776105477885 0.007789036974622713 0.9974691025458002 -0.019242750171489582
 -0.00024170685295780585 -0.002368987281902285 0.00026353382692214343 0.0037030251638364648 0.9974691025458002 -0.019242750171489582 0.0022918601825148155 0.007788898274045436
0.037515631513130004 0.0024957391780959723 0.009406088434620681 0.9972001464425015 -0.023126879907500453 0.0003364025321148262 0.004445194291662144 -0.0002972591690362469 -0.0028470459921008328
 0.9972001464425015 -0.023126879907500453 0.002497448796845307 0.009405894964502563 -0.0002971322235573433 -0.002847038719448998 0.00032620318878353547 0.004446408302986041
 0.0003364025321148262 0.004445194291662144 -0.0002971322235573433 -0.002847038719448998 0.002495822371787129 0.009406580377510031 0.9972001551242102 -0.023126378384504452
 -0.0002972591690362469 -0.0028470459921008328 0.00032620318878353547 0.004446408302986041 0.9972001551242102 -0.023126378384504452 0.002497382204110073 0.009406402217590364
0.043768236765320004 0.0027146771928652975 0.011040944518317882 0.9969120631472662 -0.027024099901874505 0.0004100037725707945 0.0051890202255988815 -0.00035915466766040893 -0.0033261994998157484
 0.9969120631472662 -0.027024099901874505 0.0027170026668153907 0.011040703483719572 -0.0003589826317899894 -0.0033261929637848917 0.00039612012612996137 0.005190640128669474
 0.0004100037725707945 0.0051890202255988815 -0.0003589826317899894 -0.0033261929637848917 0.002714790041545784 0.011041517083938763 0.9969120746516856 -0.027023514746042997
 -0.00035915466766040893 -0.0033261994998157484 0.00039612012612996137 0.005190640128669474 0.9969120746516856 -0.027023514746042997 0.002716911670092296 0.01104129510071881
0.050020842017509996 0.0029478169725329247 0.012692770451071363 0.9966045803844598 -0.030934932226969622 0.000491501082750791 0.005933542011630831 -0.000427475840974175 -0.0038063424055331343
 0.9966045803844598 -0.030934932226969622 0.0029508525951503508 0.012692476773305365 -0.0004272520406036895 -0.003806337348106405 0.00047336330788029106 0.005935643836848302
 0.000491501082750791 0.005933542011630831 -0.0004272520406036895 -0.003806337348106405 0.002947963972886991 0.01269342308100928 0.9966045951141461 -0.030934263354676438
 -0.000427475840974175 -0.0038063424055331343 0.00047336330788029106 0.005935643836848302 0.9966045951141461 -0.030934263354676438 0.0029507333741736804 0.012693152720288536
0.055454545454549996 0.0031621758058460033 0.014141756825948253 0.9963214062763217 -0.03434464546310335 0.0005687986278236462 0.006581049404473564 -0.0004921304734480654 -0.004224323956791923
 0.9963214062763217 -0.03434464546310335 0.0031659051138615705 0.014141413073028972 -0.0004918563092408511 -0.004224320841054803 0.0005465001292436754 0.006583637114571607
 0.0005687986278236462 0.006581049404473564 -0.0004918563092408511 -0.004224320841054803 0.0031623561318879704 0.014142478532904379 0.9963214241394706 -0.03434390374794112
 -0.0004921304734480654 -0.004224323956791923 0.0005465001292436754 0.006583637114571607 0.9963214241394706 -0.03434390374794112 0.0031657582552291463 0.014142162285227714
0.056273447269699996 0.0031954413804280027 0.01436120455432607 0.9962774309154785 -0.03485940935889403 0.0005809734069529427 0.006678669713405103 -0.0005023037989932748 -0.004287370823235727
 0.9962774309154785 -0.03485940935889403 0.0031992814031677427 0.014360852894439028 -0.0005020216131145358 -0.0042873680561253714 0.0005580104044289875 0.006681336361629714
 0.0005809734069529427 0.006678669713405103 -0.0005020216131145358 -0.0042873680561253714 0.0031956270227783616 0.014361936628882596 0.9962774492777067 -0.034858656656837864
 -0.0005023037989932748 -0.004287370823235727 0.0005580104044289875 0.006681336361629714 0.9962774492777067 -0.034858656656837864 0.0031991301281822856 0.014361613147383205
0.06252605252188 0.0034578316107455815 0.016045924819226252 0.9959303468042736 -0.03879751465765741 0.0006784985773450482 0.007424308377560653 -0.0005837182563901116 -0.004769181055556743
 0.9959303468042736 -0.03879751465765741 0.0034625702609076595 0.01604550957772038 -0.0005833711157561386 -0.004769181460179004 0.0006501379847195849 0.007427629702348277
 0.0006784985773450482 0.007424308377560653 -0.0005833711157561386 -0.004769181460179004 0.003458060378972855 0.016046735642060064 0.9959303692126721 -0.03879667799769977
 -0.0005837182563901116 -0.004769181055556743 0.0006501379847195849 0.007427629702348277 0.9959303692126721 -0.03879667799769977 0.003462383092992231 0.016046354108028717
0.06877865777407 0.003735267368245026 0.017746635419470004 0.995563059793063 -0.042749195789048504 0.0007841532059638212 0.008170358818480088 -0.0006717975005742738 -0.005251668813724478
 0.995563059793063 -0.042749195789048504 0.0037409988666097134 0.01774615073542438 -0.0006713788868257184 -0.00525167334116269 0.0007498214261987096 0.00817443170858217
 0.0007841532059638212 0.008170358818480088 -0.0006713788868257184 -0.00525167334116269 0.0037355437383711286 0.01774752422224148 0.995563086667324 -0.04274827502273234
 -0.0006717975005742738 -0.005251668813724478 0.0007498214261987096 0.00817443170858217 0.995563086667324 -0.04274827502273234 0.003740771956224938 0.017747079515650563
0.07503126302626001 0.004028026956825932 0.019463058166022194 0.9951753015898593 -0.04671437320748205 0.0008980125878728631 0.008916718123219583 -0.000766618349287915 -0.005734728720740261
 0.9951753015898593 -0.04671437320748205 0.004034845534432057 0.019462497915733817 -0.0007661217943370567 -0.0057347383917023785 0.0008571348317407564 0.0089216465849218
 0.0008980125878728631 0.008916718123219583 -0.0007661217943370567 -0.0057347383917023785 0.004028355396409966 0.019464024110267125 0.9951753333566148 -0.046713368163592936
 -0.000766618349287915 -0.005734728720740261 0.0008571348317407564 0.0089216465849218 0.9951753333566148 -0.046713368163592936 0.004034575021063713 0.01946351092241287
0.08128386827845 0.004336387312685584 0.021194926826404423 0.9947668041035128 -0.05069294577796051 0.0010201506117501567 0.009663279986554625 -0.0008682561009425684 -0.006218253987929725
 0.9947668041035128 -0.05069294577796051 0.004344387227401212 0.021194284621517383 -0.0008676751865243727 -0.006218269892703178 0.0009721509508880455 0.009669175225679866
 0.0010201506117501567 0.009663279986554625 -0.0008676751865243727 -0.006218269892703178 0.004336772279703538 0.021195968996970592 0.9947668411975386 -0.05069185626838886
 -0.0008682561009425684 -0.006218253987929725 0.0009721509508880455 0.009669175225679866 0.9947668411975386 -0.05069185626838886 0.0043440692393710385 0.02119538182960964
0.08753647353064001 0.004660623999810873 0.022941983185741494 0.9943372996455094 -0.05468479465995413 0.0011506396753500905 0.0104099349457939 -0.0009767844797075704 -0.006702136195393092
 0.9943372996455094 -0.05468479465995413 0.004669899553412842 0.022941252370752122 -0.0009761128372493085 -0.006702159493776443 0.0010949411038340942 0.010416915449131882
 0.0011506396753500905 0.0104099349457939 -0.0009761128372493085 -0.006702159493776443 0.004661069941762968 0.02294310059473264 0.9943373425097821 -0.054683620475193824
 -0.0009767844797075704 -0.006702136195393092 0.0010949411038340942 0.010416915449131882 0.9943373425097821 -0.054683620475193824 0.004669530206493395 0.022942433758628283
0.09378907878283 0.005001011179508134 0.024703974238923634 0.9938865211078993 -0.058689786064175964 0.001289550603802962 0.011156570554959193 -0.0010922755774181914 -0.007186265136799108
 0.9938865211078993 -0.058689786064175964 0.0050116567334827795 0.024703147888357962 -0.0010915068878189016 -0.007186297058036225 0.0012255751068196616 0.011164762171032993
 0.001289550603802962 0.011156570554959193 -0.0010915068878189016 -0.007186297058036225 0.0050015225323484765 0.02470516582163268 0.993886570194576 -0.05868852697681498
 -0.0010922755774181914 -0.007186265136799108 0.0012255751068196616 0.011164762171032993 0.993886570194576 -0.05868852697681498 0.005011232131403346 0.02470441343469849
0.100041684035 0.005357821561255269 0.02648065012877796 0.9934142021257976 -0.06270777326772833 0.0014369525701684177 0.011903071514395996 -0.0012147997923017918 -0.007670528712664215
 0.9934142021257976 -0.06270777326772833 0.005369931553639834 0.026479721043605072 -0.0012139277860048101 -0.007670570555374154 0.001364121198905649 0.011912607533350165
 0.0014369525701684177 0.011903071514395996 -0.0012139277860048101 -0.007670570555374154 0.005358402748185581 0.02648191474635296 0.9934142578968471 -0.06270642902926875
 -0.0012147997923017918 -0.007670528712664215 0.001364121198905649 0.011912607533350165 0.9934142578968471 -0.06270642902926875 0.0053694477868237575 0.026481070731135845
0.1059090909091 0.005707828580321195 0.028161006548288212 0.9929511535708084 -0.06648990689975173 0.00158305628743736 0.012603355903676035 -0.0013362334841013916 -0.008124979580116766
 0.9929511535708084 -0.06648990689975173 0.0057213987660239005 0.028159974262963954 -0.0013352588681563996 -0.008125031975875061 0.0015013873083293105 0.01261428142644697
 0.00158305628743736 0.012603355903676035 -0.0013352588681563996 -0.008125031975875061 0.005708479309963203 0.028162338595106907 0.9929512160440751 -0.06648848251516047
 -0.0013362334841013916 -0.008124979580116766 0.0015013873083293105 0.01261428142644697 0.9929512160440751 -0.06648848251516047 0.005720855911699236 0.028161402892402067
0.1062942892872 0.005731326339663181 0.028271762598505182 0.9929200772302554 -0.06673859811923728 0.0015929130173738242 0.01264931977300852 -0.0013444257658788092 -0.008154812854863584
 0.9929200772302554 -0.06673859811923728 0.005744995301771146 0.028270723302134457 -0.001343444222952783 -0.008154865986949913 0.0015106459691567877 0.012660341005671972
 0.0015929130173738242 0.01264931977300852 -0.001343444222952783 -0.008154865986949913 0.00573198177036141 0.028273099033108484 0.9929201401582577 -0.06673716846438818
 -0.0013444257658788092 -0.008154812854863584 0.0015106459691567877 0.012660341005671972 0.9929201401582577 -0.06673716846438818 0.005744448447181465 0.028272157113752167
0.11254689453939999 0.006121795121588306 0.03007706380393341 0.9924038819918203 -0.07078209218887573 0.0017574975812003225 0.013395194612286922 -0.0014812203180933087 -0.008639001473541812
 0.9924038819918203 -0.07078209218887573 0.006137117694298357 0.03007590653755896 -0.0014801230683727505 -0.00863906733209908 0.001665214284347546 0.013407849468076445
 0.0017574975812003225 0.013395194612286922 -0.0014801230683727505 -0.00863906733209908 0.006122529190714509 0.03007847076223325 0.9924039525607629 -0.07078057683167974
 -0.0014812203180933087 -0.008639001473541812 0.001665214284347546 0.013407849468076445 0.9924039525607629 -0.07078057683167974 0.006136503814790122 0.030077424460825043
0.11879949979160001 0.006529495844241817 0.03189630539262182 0.9918653531604058 -0.07483807765632519 0.001930770013935905 0.014140572716979834 -0.0016252483810497223 -0.009122976421377237
 0.9918653531604058 -0.07483807765632519 0.006546566794832398 0.031895022109968835 -0.0016240293043490223 -0.00912305651258847 0.0018278892170630464 0.01415501728078797
 0.001930770013935905 0.014140572716979834 -0.0016240293043490223 -0.00912305651258847 0.006530312930335126 0.03189778150531515 0.9918654318660707 -0.07483647629016792
 -0.0016252483810497223 -0.009122976421377237 0.0018278892170630464 0.01415501728078797 0.9918654318660707 -0.07483647629016792 0.006545881938691298 0.031896624137681774
0.1250521050438 0.006954694687064637 0.03372923777469892 0.9913042287999924 -0.07890636801187886 0.002112792108585132 0.014885328236197143 -0.0017765729318189104 -0.009606617471733346
 0.9913042287999924 -0.07890636801187886 0.00697360892598513 0.033727820136189156 -0.0017752259581978408 -0.009606713370758548 0.001998731973659162 0.0149017263440435
 0.002112792108585132 0.014885328236197143 -0.0017752259581978408 -0.009606713370758548 0.006955599151487901 0.03373078159166372 0.991304316150991 -0.07890468031401406
 -0.0017765729318189104 -0.009606617471733346 0.001998731973659162 0.0149017263440435 0.991304316150991 -0.07890468031401406 0.006972849126682468 0.033729506262472786
0.131304710296 0.007397655978485745 0.03557560953977457 0.990720248420975 -0.08298676861650417 0.0023036236233569102 0.015629332838504706 -0.0019352549243174472 -0.010089802307077402
 0.990720248420975 -0.08298676861650417 0.0074185085762313325 0.03557404890606517 -0.001933774034404426 -0.010089915657927506 0.0021778018225577338 0.015647856151908446
 0.0023036236233569102 0.015629332838504706 -0.001933774034404426 -0.010089915657927506 0.007398652163880363 0.035577219532935765 0.9907203449395368 -0.08298499424486622
 -0.0019352549243174472 -0.010089802307077402 0.0021778018225577338 0.015647856151908446 0.9907203449395368 -0.08298499424486622 0.007417669851395615 0.03557581913026392
0.1375573155481 0.007754796726268618 0.03719552574371772 0.990217032400768 -0.08683935180570058 0.0024791455543288076 0.016348728654455753 -0.002077326976053972 -0.010548585990678054
 0.990217032400768 -0.08683935180570058 0.007777689320124028 0.03719384467129439 -0.002075703208129063 -0.010548716875986587 0.002341273111085084 0.016369346066314266
 0.0024791455543288076 0.016348728654455753 -0.002075703208129063 -0.010548716875986587 0.007755888404939259 0.037197200589785796 0.9902171385108437 -0.08683749055780896
 -0.002077326976053972 -0.010548585990678054 0.002341273111085084 0.016369346066314266 0.9902171385108437 -0.08683749055780896 0.007776768426994821 0.03719569901045022
0.1438099208003 0.008124442008545441 0.03880730729527862 0.9896962326246848 -0.09068254224663191 0.0026617690036152986 0.01706529073927921 -0.0022250784362123294 -0.011004831371302023
 0.9896962326246848 -0.09068254224663191 0.00814947088087538 0.03880549897872981 -0.002223305313693033 -0.011004981404480047 0.00251131593889791 0.017088158818130084
 0.0026617690036152986 0.01706529073927921 -0.002223305313693033 -0.011004981404480047 0.008125633394286184 0.03880904542054695 0.9896963488479569 -0.09068059378603084
 -0.0022250784362123294 -0.011004831371302023 0.00251131593889791 0.017088158818130084 0.9896963488479569 -0.09068059378603084 0.008148463948437944 0.03880743741426985
0.1500625260525 0.00850646655197492 0.040410830746722554 0.9891579780536215 -0.09451625540004827 0.002851433999962679 0.01777894874218452 -0.0023784522823126456 -0.01145847424775519
 0.9891579780536215 -0.09451625540004827 0.008533728174857716 0.040408887997882746 -0.0023765233416439503 -0.011458645106953717 0.0026878732698101117 0.017804229770821096
 0.002851433999962679 0.01777894874218452 -0.0023765233416439503 -0.011458645106953717 0.008507761834024368 0.04041263051377858 0.9891581049230076 -0.09451421937826313
 -0.0023784522823126456 -0.01145847424775519 0.0026878732698101117 0.017804229770821096 0.9891581049230076 -0.09451421937826313 0.008532631325688343 0.04041091051009534
0.15631513130469998 0.008900744258476367 0.042005976429723035 0.9886023982303214 -0.09834040680638576 0.003048079891416053 0.018489633442720484 -0.0025373908205435234 -0.011909451732999145
