! Created with skrf 1.8.0 (http://scikit-rf.org).
# GHz S RI R 50.0 
!freq ReS11 ImS11 ReS12 ImS12 ReS13 ImS13
! ReS14 ImS14
! ReS21 ImS21 ReS22 ImS22 ReS23 ImS23
! ReS24 ImS24
! ReS31 ImS31 ReS32 ImS32 ReS33 ImS33
! ReS34 ImS34
! ReS41 ImS41 ReS42 ImS42 ReS43 ImS43
! ReS44 ImS44
!
0.0 0.001554233460836 0.0 0.9984457665262 0.0 6.044434364928e-05 0.0 -6.044434333843e-05 7.402297159597194e-21
 0.9984457665262 0.0 0.00155423346083 0.0 -6.04443433382e-05 7.402297159569027e-21 6.044434364909e-05 0.0
 6.044434364928e-05 0.0 -6.04443433382e-05 7.402297159569027e-21 0.001554233463047 0.0 0.9984457665284 0.0
 -6.044434333843e-05 7.402297159597194e-21 6.044434364909e-05 0.0 0.9984457665284 0.0 0.001554233463051 0.0
0.005 0.0016723736982446826 0.0012625315104088995 0.9982962759797652 -0.003256212836527566 8.600767210195695e-05 0.0007195028771785373 -8.32620212922539e-05 -0.0004422584585858359
 0.9982962759797652 -0.003256212836527566 0.0016723619878653807 0.001262538281940361 -8.325644577102477e-05 -0.0004422541964878636 8.611016225507874e-05 0.0007194640763775177
 8.600767210195695e-05 0.0007195028771785373 -8.325644577102477e-05 -0.0004422541964878636 0.0016723768075395083 0.0012625969536844677 0.998296276343725 -0.0032561457682665188
 -8.32620212922539e-05 -0.0004422584585858359 8.611016225507874e-05 0.0007194640763775177 0.998296276343725 -0.0032561457682665188 0.0016723596064563276 0.001262606976621262
0.006252605252188 0.00170337342669647 0.0015831705226652417 0.9982567992316932 -0.004071064325534101 9.330667295631673e-05 0.0008997023317022476 -8.972001656737681e-05 -0.00055340624207431
 0.9982567992316932 -0.004071064325534101 0.0017033551212243098 0.0015831790952485494 -8.971134041586772e-05 -0.0005534009874220451 9.34668069921117e-05 0.0008996519131573272
 9.330667295631673e-05 0.0008997023317022476 -8.971134041586772e-05 -0.0005534009874220451 0.0017033782037617054 0.0015832523067214365 0.9982567997169116 -0.004070980508391446
 -8.972001656737681e-05 -0.00055340624207431 9.34668069921117e-05 0.0008996519131573272 0.9982567997169116 -0.004070980508391446 0.0017033513145851332 0.0015832649482387614
0.01250521050438 0.0018666505018984667 0.003199814244098359 0.9980474836079772 -0.00814296541445878 0.00013514256573013322 0.0017996070656170996 -0.00012644615719731422 -0.0011095362515020253
 0.9980474836079772 -0.00814296541445878 0.001866577407783847 0.0031998324305626906 -0.00012641196281733478 -0.0011095265426290136 0.00013578122669012 0.0017994855576953731
 0.00013514256573013322 0.0017996070656170996 -0.00012641196281733478 -0.0011095265426290136 0.001866669023016208 0.0031999775215911345 0.998047484987709 -0.008142798033301514
 -0.00012644615719731422 -0.0011095362515020253 0.00013578122669012 0.0017994855576953731 0.998047484987709 -0.008142798033301514 0.00186656164604242 0.003200003936781647
0.01875781575657 0.0020444247436551422 0.0048396799366169745 0.9978175570395633 -0.012225618913562974 0.00018604970307303114 0.002700376316061874 -0.00017073785469758608 -0.0016675130591079336
 0.9978175570395633 -0.012225618913562974 0.0020442604963654748 0.0048397087477881785 -0.0001706615964533298 -0.0016674998520744236 0.0001874845813833124 0.002700159025829208
 0.00018604970307303114 0.002700376316061874 -0.0001706615964533298 -0.0016674998520744236 0.0020444659483483114 0.004839924506704766 0.997817559719298 -0.012225368072416313
 -0.00017073785469758608 -0.0016675130591079336 0.0001874845813833124 0.002700159025829208 0.997817559719298 -0.012225368072416313 0.002044224651389258 0.004839965931109561
0.02501042100875 0.0022370453692158883 0.006500447750268563 0.9975667465100022 -0.01632099806415961 0.0002461267461778674 0.0036020607422772486 -0.00022270612936333732 -0.0022270647141820806
 0.9975667465100022 -0.01632099806415961 0.002236753671959583 0.00650048815093677 -0.00022257145805105617 -0.0022270491372748534 0.00024867576811640876 0.003601719080065152
 0.0002461267461778674 0.0036020607422772486 -0.00022257145805105617 -0.0022270491372748534 0.002237118182084866 0.00650077338231938 0.997566750891955 -0.01632066384142118
 -0.00022270612936333732 -0.0022270647141820806 0.00024867576811640876 0.003601719080065152 0.997566750891955 -0.01632066384142118 0.002236689624540083 0.006500831131233771
0.03126302626094 0.002444847111661551 0.008180920211796823 0.9972947652279628 -0.020429942669235618 0.00031547272338982457 0.004504621552521519 -0.00028245865968437925 -0.002788002386474737
 0.9972947652279628 -0.020429942669235618 0.002444391710842771 0.00818097311585334 -0.00028224938914886145 -0.002787985742286363 0.00031945434127967617 0.004504123005477288
 0.00031547272338982457 0.004504621552521519 -0.00028224938914886145 -0.002787985742286363 0.0024449604507717606 0.00818132663186509 0.9972947717151645 -0.020429525130936807
 -0.00028245865968437925 -0.002788002386474737 0.00031945434127967617 0.004504123005477288 0.9972947717151645 -0.020429525130936807 0.0024442913507027944 0.008181402095779151
0.037515631513130004 0.0026681573750902444 0.009880313799151268 0.9970013200260951 -0.024552867458619718 0.00039418607985634765 0.005407984734924991 -0.0003501006303606306 -0.003350166151957572
 0.9970013200260951 -0.024552867458619718 0.002667502041810719 0.009880380066119666 -0.00034980072042231863 -0.0033501499180242944 0.00039991940244079373 0.005407292824908402
 0.00039418607985634765 0.005407984734924991 -0.00034980072042231863 -0.0033501499180242944 0.002668320150495875 0.00988080068458548 0.9970013290189074 -0.024552366663027445
 -0.0003501006303606306 -0.003350166151957572 0.00039991940244079373 0.005407292824908402 0.9970013290189074 -0.024552366663027445 0.0026673572625250394 0.00988089532698051
0.043768236765320004 0.0029072989940911328 0.011598043348728873 0.9966861143635163 -0.028689977612938795 0.00048236422806114895 0.006312057565077237 -0.00042573503683266013 -0.00391340849431239
 0.9966861143635163 -0.028689977612938795 0.0029064075088019474 0.011598123780981268 -0.0004253285833051638 -0.003913394323355301 0.000490169082402955 0.006311131801705964
 0.00048236422806114895 0.006312057565077237 -0.0004253285833051638 -0.003913394323355301 0.0029075201116456444 0.011598610324252086 0.9966861262618493 -0.028689393613550385
 -0.00042573503683266013 -0.00391340849431239 0.000490169082402955 0.006311131801705964 0.9966861262618493 -0.028689393613550385 0.002906210208918684 0.01159872568058087
0.050020842017509996 0.0031625915165064905 0.013333632975147164 0.9963488498533608 -0.03284135777359742 0.0005801032761818321 0.007216735422999574 -0.0005094627957435389 -0.004477587497416731
 0.9963488498533608 -0.03284135777359742 0.003161427654249208 0.013333728315588753 -0.0005089340240042164 -0.004477577217431011 0.0005903002331318309 0.007215531254640367
 0.0005801032761818321 0.007216735422999574 -0.0005089340240042164 -0.004477577217431011 0.0031628798777899756 0.013334279602640815 0.9963488650561017 -0.032840690628259644
 -0.0005094627957435389 -0.004477587497416731 0.0005903002331318309 0.007215531254640367 0.9963488650561017 -0.032840690628259644 0.003161169736127726 0.013334417279868968
0.055454545454549996 0.00339781115513763 0.014856097651091821 0.9960376098300053 -0.03646062940628259 0.0006728796097783902 0.00800333153304104 -0.0005888743799784945 -0.004968528352505536
 0.9960376098300053 -0.03646062940628259 0.0033963811552910786 0.014856206502934191 -0.0005882265965292708 -0.004968523074597541 0.000685416299814166 0.008001846049243675
 0.0006728796097783902 0.00800333153304104 -0.0005882265965292708 -0.004968523074597541 0.0033981651797509063 0.01485681309981127 0.9960376282276304 -0.03645989004823781
 -0.0005888743799784945 -0.004968528352505536 0.000685416299814166 0.008001846049243675 0.9960376282276304 -0.03645989004823781 0.0033960639846932496 0.014856971535232633
0.056273447269699996 0.003434351857115577 0.015086672318800235 0.9959892271651998 -0.03700701572676291 0.0006874978343649952 0.008121905136940888 -0.0006013827687529174 -0.005042563513723866
 0.9959892271651998 -0.03700701572676291 0.003432879373640856 0.015086783249009923 -0.0006007160295433527 -0.005042559128006642 0.0007004082123138144 0.008120373900827543
 0.0006874978343649952 0.008121905136940888 -0.0006007160295433527 -0.005042559128006642 0.0034347163600757665 0.015087398105637605 0.995989246070125 -0.0370062654882069
 -0.0006013827687529174 -0.005042563513723866 0.0007004082123138144 0.008120373900827543 0.995989246070125 -0.0370062654882069 0.0034325527431125244 0.015087559782342629
0.06252605252188 0.0037228946437111955 0.016856792525699688 0.9956069466238637 -0.041186906358157374 0.0008046408578821869 0.009027446827880892 -0.0007015917444187426 -0.005608197335803366
 0.9956069466238637 -0.041186906358157374 0.0037210772618335992 0.01685691966438068 -0.0007007715109940848 -0.005608201022927956 0.0008205867117833656 0.00902553569985157
 0.0008046408578821869 0.009027446827880892 -0.0007007715109940848 -0.005608201022927956 0.0037233441828970443 0.016857596914739204 0.9956069696274779 -0.04118607308294712
 -0.0007015917444187426 -0.005608197335803366 0.0008205867117833656 0.00902553569985157 0.9956069696274779 -0.04118607308294712 0.003720673828159092 0.01685778434159294
0.06877865777407 0.004028532397024774 0.018643651906262493 0.9952017086447715 -0.045380945933191405 0.0009316235125150653 0.009933235013299593 -0.0008101843938395497 -0.00617434911301721
 0.9952017086447715 -0.045380945933191405 0.004026333793066688 0.018643795808194304 -0.0008091952600912816 -0.006174363226784882 0.0009509276128244977 0.009930886957498357
 0.0009316235125150653 0.009933235013299593 -0.0008091952600912816 -0.006174363226784882 0.004029075863959102 0.01864453427951158 0.995201736142782 -0.04538002967682249
 -0.0008101843938395497 -0.00617434911301721 0.0009509276128244977 0.009930886957498357 0.995201736142782 -0.04538002967682249 0.004025845469149966 0.018644749280374035
0.07503126302626001 0.004351575610016146 0.020446926853020447 0.9947732140737625 -0.04958902112294345 0.0010685350520690618 0.010839139308196914 -0.0009272532114321479 -0.006740877675782226
 0.9947732140737625 -0.04958902112294345 0.004348959400215951 0.02044708800828319 -0.0009260798907091136 -0.006740904745161289 0.0010915208557663672 0.010836293026918365
 0.0010685350520690618 0.010839139308196914 -0.0009260798907091136 -0.006740904745161289 0.004352221893090613 0.020447886526600983 0.9947732464606149 -0.04958802194369512
 -0.0009272532114321479 -0.006740877675782226 0.0010915208557663672 0.010836293026918365 0.9947732464606149 -0.04958802194369512 0.004348378102426746 0.02044813099982872
0.08128386827845 0.004692332765573659 0.02226630579598868 0.9943211644686264 -0.05381099499770499 0.0012154627032151817 0.011745024902929864 -0.0010528884458243487 -0.007307640088119787
 0.9943211644686264 -0.05381099499770499 0.004689262492507966 0.02226648462974978 -0.0010515157702156277 -0.007307682817137875 0.0012424543190251748 0.011741614786746868
 0.0012154627032151817 0.011745024902929864 -0.0010515157702156277 -0.007307682817137875 0.004693090750343364 0.02226734202167598 0.9943212021376073 -0.053809912953985545
 -0.0010528884458243487 -0.007307640088119787 0.0012424543190251748 0.011741614786746868 0.9943212021376073 -0.053809912953985545 0.004688580141411967 0.0222676179419539
0.08753647353064001 0.005051110311809406 0.024101485031680997 0.9938452623409767 -0.058046711152637424 0.00137249155575199 0.012650752894659185 -0.001187178023457919 -0.007874491351941324
 0.9938452623409767 -0.058046711152637424 0.005047549430578982 0.02410168190422122 -0.0011855909435204547 -0.00787455261957953 0.0014038137042826431 0.012646708972953788
 0.00137249155575199 0.012650752894659185 -0.0011855909435204547 -0.00787455261957953 0.005051988880633966 0.024102596993516218 0.9938453056843929 -0.058045546305052535
 -0.001187178023457919 -0.007874491351941324 0.0014038137042826431 0.012646708972953788 0.9938453056843929 -0.058045546305052535 0.005046757950783996 0.024102906414151196
0.09378907878283 0.00542821260974065 0.025952165733088194 0.9933452113757162 -0.06229599665818818 0.0015397044557322922 0.013556180535838859 -0.0013302074675293348 -0.008441284199765132
 0.9933452113757162 -0.06229599665818818 0.005424124474048751 0.025952380940437027 -0.0013283910522351183 -0.008441367059822458 0.0015756824257017721 0.01355142842784009
 0.0015397044557322922 0.013556180535838859 -0.0013283910522351183 -0.008441367059822458 0.005429220641334002 0.025953352547216212 0.9933452607842157 -0.06229474906856555
 -0.0013302074675293348 -0.008441284199765132 0.0015756824257017721 0.01355142842784009 0.9933452607842157 -0.06229474906856555 0.0054232157946747656 0.02595369760277411
0.100041684035 0.00582394185865622 0.027818051772976596 0.9928207166300478 -0.06655866420354092 0.001717181900893379 0.014461161420512025 -0.0014820598131832607 -0.009007868955401252
 0.9928207166300478 -0.06655866420354092 0.005819289706892358 0.027818285547810902 -0.0014799992502222761 -0.00900797663632224 0.0017581415018074159 0.014455622286843071
 0.001717181900893379 0.014461161420512025 -0.0014799992502222761 -0.00900797663632224 0.005825088228852376 0.02781931248535833 0.9928207724937261 -0.0665573339359914
 -0.0014820598131832607 -0.009007868955401252 0.0017581415018074159 0.014455622286843071 0.9928207724937261 -0.0665573339359914 0.005818255762584875 0.0278196953948605
0.1059090909091 0.00621250001716216 0.029582554153749687 0.992306041230501 -0.0705707183366036 0.0018931307055710645 0.015309850182070055 -0.001632653172930791 -0.009539223865442927
 0.992306041230501 -0.0705707183366036 0.006207285046757251 0.029582805508670856 -0.0016303501377920662 -0.009539357929756883 0.0019390617784184271 0.015303496791060665
 0.0018931307055710645 0.015309850182070055 -0.0016303501377920662 -0.009539357929756883 0.006213784272041412 0.029583883280797647 0.9923061035047664 -0.07056931054459245
 -0.001632653172930791 -0.009539223865442927 0.0019390617784184271 0.015303496791060665 0.9923061035047664 -0.07056931054459245 0.0062061262235074905 0.029584303808770477
0.1062942892872 0.006238598008333961 0.02969884808089872 0.9922714847233278 -0.07083451371279705 0.0019050019375710474 0.015365545637283838 -0.0016428155201874746 -0.00957409343371696
 0.9922714847233278 -0.07083451371279705 0.006233344949358417 0.029699100594039653 -0.0016404961163983274 -0.009574229338404922 0.0019512694491664424 0.01535913613216071
 0.0019050019375710474 0.015365545637283838 -0.0016404961163983274 -0.009574229338404922 0.00623989158869221 0.029700181667729916 0.9922715474305029 -0.07083310083200496
 -0.0016428155201874746 -0.00957409343371696 0.0019512694491664424 0.01535913613216071 0.9922715474305029 -0.07083310083200496 0.006232177679726826 0.029700604738247847
0.11254689453939999 0.006672478657825438 0.0315942593942499 0.9916972240165898 -0.07512333357365673 0.0021032400588567577 0.01626917988954122 -0.0018125523831277303 -0.010139802879130176
 0.9916972240165898 -0.07512333357365673 0.006666587656628848 0.03159453075655441 -0.0018099595651201337 -0.010139970584731008 0.0021551421779848552 0.016261812113745104
 0.0021032400588567577 0.01626917988954122 -0.0018099595651201337 -0.010139970584731008 0.006673928316102947 0.031595664756885175 0.9916972939545928 -0.07512183814874418
 -0.0018125523831277303 -0.010139802879130176 0.0021551421779848552 0.016261812113745104 0.9916972939545928 -0.07512183814874418 0.006665279007482948 0.031596130387661375
0.11879949979160001 0.007125878946124632 0.03350398928480234 0.9910976447863186 -0.07942490159747556 0.0023119691035400273 0.017171907602426668 -0.0019913454403584275 -0.010704839923495156
 0.9910976447863186 -0.07942490159747556 0.007119312809061939 0.03350427954966079 -0.0019884647552325736 -0.010705043181153732 0.0023698328882889737 0.017163489056868056
 0.0023119691035400273 0.017171907602426668 -0.0019884647552325736 -0.010705043181153732 0.007127493545526508 0.033505465254051826 0.9910977223409434 -0.07942332369651585
 -0.0019913454403584275 -0.010704839923495156 0.0023698328882889737 0.017163489056868056 0.9910977223409434 -0.07942332369651585 0.0071178547328764165 0.033505975941004074
0.1250521050438 0.0075990914351547105 0.03542773939996879 0.9904724593941546 -0.08373898577185745 0.0025312591555156747 0.018073569015744955 -0.002179266881518328 -0.011269044564273882
 0.9904724593941546 -0.08373898577185745 0.00759181279568107 0.03542804856607838 -0.0021760839977892315 -0.011269287298883096 0.00259541196739629 0.01806400255595258
 0.0025312591555156747 0.018073569015744955 -0.0021760839977892315 -0.011269287298883096 0.007600879833882942 0.0354292847312649 0.9904725449498735 -0.08373732546533577
 -0.002179266881518328 -0.011269044564273882 0.00259541196739629 0.01806400255595258 0.9904725449498735 -0.08373732546533577 0.0075901972518514806 0.03542984307212864
0.131304710296 0.008092405987174704 0.037365208851291375 0.989821382452549 -0.08806534487284326 0.002761177444163129 0.018974001268989616 -0.0023763859542847345 -0.011832254156819277
 0.989821382452549 -0.08806534487284326 0.008084377290660706 0.03736553686620247 -0.002372886662846736 -0.011832540466661318 0.0028319468876747715 0.01896318506038432
 0.002761177444163129 0.018974001268989616 -0.002372886662846736 -0.011832540466661318 0.008094377038336294 0.03736682222326049 0.9898214763926265 -0.08806360223399742
 -0.0023763859542847345 -0.011832254156819277 0.0028319468876747715 0.01896318506038432 0.9898214763926265 -0.08806360223399742 0.008082596246444446 0.037367430923196436
0.1375573155481 0.008494035226161158 0.03906132111972018 0.9892562526375476 -0.09214882956846263 0.0029728221991722832 0.019846960084128652 -0.0025537253141096356 -0.012368308030508273
 0.9892562526375476 -0.09214882956846263 0.008485214840035522 0.039061658196086445 -0.002549888619511267 -0.012368638264637098 0.003050364360616491 0.019834909035375232
 0.0029728221991722832 0.019846960084128652 -0.002549888619511267 -0.012368638264637098 0.008496197344224063 0.03906300101033573 0.9892563553364141 -0.09214700469136028
 -0.0025537253141096356 -0.012368308030508273 0.003050364360616491 0.019834909035375232 0.9892563553364141 -0.09214700469136028 0.008483260724134965 0.039063653494999385
0.1438099208003 0.008909806879729374 0.04074824712164931 0.9886712089813341 -0.09622175185717362 0.003193015264069324 0.020716417475174186 -0.0027381727037262696 -0.012901111190497305
 0.9886712089813341 -0.09622175185717362 0.008900156365987354 0.0407485927447377 -0.0027339833505359594 -0.012901489378561035 0.00327762711462374 0.02070303848662753
 0.003193015264069324 0.020716417475174186 -0.0027339833505359594 -0.012901489378561035 0.00891216883457206 0.040749992161174 0.9886713208174334 -0.09621984482382709
 -0.0027381727037262696 -0.012901111190497305 0.00327762711462374 0.02070303848662753 0.9886713208174334 -0.09621984482382709 0.008898021238544093 0.04075069079831457
0.1500625260525 0.009339571696601679 0.0424258393738997 0.9880664051481044 -0.10028400449457311 0.0034216795608510413 0.021582285130513097 -0.002929652180610698 -0.013430578009017915
 0.9880664051481044 -0.10028400449457311 0.00932905241535459 0.042426193078783515 -0.002925094949006921 -0.013431008342205621 0.003513656321942109 0.021567481700863193
 0.0034216795608510413 0.021582285130513097 -0.002925094949006921 -0.013431008342205621 0.009342142249087202 0.042427648137605564 0.9880665264980975 -0.10028201538865934
 -0.002929652180610698 -0.013430578009017915 0.003513656321942109 0.021567481700863193 0.9880665264980975 -0.10028201538865934 0.009326728348934577 0.04242839546439921
0.15631513130469998 0.009783179322986963 0.044093954833088346 0.9874419956361636 -0.10433548074359117 0.003658737083931428 0.022444476266862877 -0.003128086844500751 -0.013956624701008861
 0.9874419956361636 -0.10433548074359117 0.009771752426927356 0.04409431621197547 -0.00312314655084471 -0.013957111531291349 0.003758372201745075 0.0224281485278418
