! Created with skrf 1.8.0 (http://scikit-rf.org).
# GHz S RI R 50.0 
!freq ReS11 ImS11 ReS12 ImS12 ReS13 ImS13
! ReS14 ImS14
! ReS21 ImS21 ReS22 ImS22 ReS23 ImS23
! ReS24 ImS24
! ReS31 ImS31 ReS32 ImS32 ReS33 ImS33
! ReS34 ImS34
! ReS41 ImS41 ReS42 ImS42 ReS43 ImS43
! ReS44 ImS44
!
0.0 0.001505592357448 0.0 0.9984944076226 0.0 5.81429759209e-05 0.0 -5.814297583168e-05 7.120460924516883e-21
 0.9984944076226 0.0 0.001505592357445 0.0 -5.814297583243e-05 7.12046092460873e-21 5.814297592081e-05 0.0
 5.81429759209e-05 0.0 -5.814297583243e-05 7.12046092460873e-21 0.001505592367423 0.0 0.9984944076326 0.0
 -5.814297583168e-05 7.120460924516883e-21 5.814297592081e-05 0.0 0.9984944076326 0.0 0.001505592367382 0.0
0.005 0.0016198217437403946 0.00122927426714445 0.9983499133768056 -0.003154117231319918 8.172835272356132e-05 0.000655525448402301 -7.933647794668673e-05 -0.00040887244813978614
 0.9983499133768056 -0.003154117231319918 0.0016198127804064578 0.0012292795482286081 -7.9339279255595e-05 -0.00040887461942195724 8.177494443248046e-05 0.0006555077363364267
 8.172835272356132e-05 0.000655525448402301 -7.9339279255595e-05 -0.00040887461942195724 0.001619820563014925 0.0012293422566295015 0.9983499137306602 -0.003154050174009429
 -7.933647794668673e-05 -0.00040887244813978614 8.177494443248046e-05 0.0006555077363364267 0.9983499137306602 -0.003154050174009429 0.0016198146693247146 0.0012293456756763865
0.006252605252188 0.001649751269325234 0.0015414444037829037 0.9983118222822949 -0.0039434239203865575 8.84366297459789e-05 0.0008197202547832066 -8.530642855837771e-05 -0.0005116244145341671
 0.9983118222822949 -0.0039434239203865575 0.0016497372573438015 0.001541451090905769 -8.531078747971408e-05 -0.0005116270922460506 8.850942551020645e-05 0.0008196972542235448
 8.84366297459789e-05 0.0008197202547832066 -8.531078747971408e-05 -0.0005116270922460506 0.0016497493427594238 0.0015415293924334217 0.9983118227550828 -0.003943340101996507
 -8.530642855837771e-05 -0.0005116244145341671 8.850942551020645e-05 0.0008196972542235448 0.9983118227550828 -0.003943340101996507 0.0016497401300824286 0.001541533743653048
0.01250521050438 0.0018071355144420667 0.0031153161915912922 0.9981102328254777 -0.007887696034616597 0.0001267495761873869 0.001639774768711414 -0.00011910528864823752 -0.0010257632040580297
 0.9981102328254777 -0.007887696034616597 0.0018070795564320513 0.0031153304412007174 -0.00011912246531940774 -0.001025768161373075 0.0001270398837178255 0.0016397195025233881
 0.0001267495761873869 0.001639774768711414 -0.00011912246531940774 -0.001025768161373075 0.001807127280872222 0.0031154859880100578 0.9981102341775618 -0.007887528647659918
 -0.00011910528864823752 -0.0010257632040580297 0.0001270398837178255 0.0016397195025233881 0.9981102341775618 -0.007887528647659918 0.0018070904974722345 0.0031154954563480165
0.01875781575657 0.0019780828807674706 0.0047117051213532634 0.9978893928034045 -0.011842424707143872 0.00017317018665881226 0.002460733775506066 -0.00015964278225220026 -0.001541659487942986
 0.9978893928034045 -0.011842424707143872 0.0019779571248094577 0.00471172790668008 -0.0001596810850612838 -0.0015416662520895518 0.00017382236457731895 0.0024606352054742328
 0.00017317018665881226 0.002460733775506066 -0.0001596810850612838 -0.0015416662520895518 0.0019780639450232415 0.004711959727244542 0.9978893954167184 -0.011842173872678385
 -0.00015964278225220026 -0.001541659487942986 0.00017382236457731895 0.0024606352054742328 0.9978893954167184 -0.011842173872678385 0.0019779812966056512 0.0047119750965173715
0.02501042100875 0.002162921498782807 0.006328377423443597 0.997649046199219 -0.01580953187789006 0.0002277877689001281 0.0032826398244580096 -0.00020701878855473513 -0.0020590785183028414
 0.997649046199219 -0.01580953187789006 0.0021626981384287917 0.0063284098049389914 -0.00020708642629160723 -0.0020590865334286852 0.0002289462485059219 0.0032824852010832845
 0.0002277877689001281 0.0032826398244580096 -0.00020708642629160723 -0.0020590865334286852 0.002162887478412888 0.006328716936292884 0.9976490504642102 -0.015809197672812917
 -0.00020701878855473513 -0.0020590785183028414 0.0002289462485059219 0.0032824852010832845 0.9976490504642102 -0.015809197672812917 0.002162740710061754 0.006328739001686689
0.03126302626094 0.002361965915814645 0.007964185979405599 0.9973889237371178 -0.019789842847223044 0.00029069203857047993 0.004105458249955124 -0.0002613303861604086 -0.00257785725682246
 0.9973889237371178 -0.019789842847223044 0.0023616171749834256 0.007964229103060898 -0.00026143548500766973 -0.0025778658829444766 0.00029250145575335077 0.00410523310267561
 0.00029069203857047993 0.004105458249955124 -0.00026143548500766973 -0.0025778658829444766 0.002361912425104514 0.007964610550748928 0.9973889300388546 -0.01978942534596268
 -0.0002613303861604086 -0.00257785725682246 0.00029250145575335077 0.00410523310267561 0.9973889300388546 -0.01978942534596268 0.002361683310765683 0.007964640116978863
0.037515631513130004 0.0025755239072724877 0.009618384660588376 0.9971087499046436 -0.023783771876280824 0.0003619722894773899 0.004929123964285072 -0.00032267257755003284 -0.0030978575870195665
 0.9971087499046436 -0.023783771876280824 0.0025750220309484085 0.00961843975748352 -0.0003228231898487429 -0.0030978660997126647 0.00036457754284352246 0.004928812084328474
 0.0003619722894773899 0.004929123964285072 -0.0003228231898487429 -0.0030978660997126647 0.00257544656354082 0.00961889450260282 0.9971087586294255 -0.023783271144503085
 -0.00032267257755003284 -0.0030978575870195665 0.00036457754284352246 0.004928812084328474 0.9971087586294255 -0.023783271144503085 0.0025751168981958546 0.009618932382703163
0.043768236765320004 0.0028038991198099127 0.011290419680742292 0.9968082458067226 -0.02779153076533962 0.0004417169992107252 0.005753555700769942 -0.0003911385532059108 -0.003618952072417409
 0.9968082458067226 -0.02779153076533962 0.0028032163668716232 0.011290488066969372 -0.00039134266265704684 -0.0036189596627057216 0.0004452632767633433 0.005753139121800409
 0.0004417169992107252 0.005753555700769942 -0.00039134266265704684 -0.0036189596627057216 0.002803793539317094 0.011291015058582371 0.9968082573383698 -0.02779094686793766
 -0.0003911385532059108 -0.003618952072417409 0.0004452632767633433 0.005753139121800409 0.9968082573383698 -0.02779094686793766 0.002803345132619923 0.011291062072876905
0.050020842017509996 0.0030473922916984643 0.01297984337828668 0.9964871305983981 -0.03181321500063764 0.0005300135944623924 0.006578661886386975 -0.00046681978612197556 -0.004141018086109388
 0.9964871305983981 -0.03181321500063764 0.0030465009284257015 0.01297992645529065 -0.00046708531106942695 -0.00414102386044131 0.0005346463834519322 0.006578120864234188
 0.0005300135944623924 0.006578661886386975 -0.00046708531106942695 -0.00414102386044131 0.0030472540900096058 0.012980524603701228 0.9964871453183918 -0.03181254800858803
 -0.00046681978612197556 -0.004141018086109388 0.0005346463834519322 0.006578120864234188 0.9964871453183918 -0.03181254800858803 0.0030466687606737456 0.012980581578985644
0.055454545454549996 0.003271504720674366 0.014461826224318991 0.9961911140538052 -0.03531950759027863 0.0006137581731570098 0.007296175168388488 -0.000538518511646759 -0.004595404514958499
 0.9961911140538052 -0.03531950759027863 0.0032704095474862522 0.014461923272784503 -0.000538843790115214 -0.004595407919809825 0.000619453559338975 0.0072955085704076526
 0.0006137581731570098 0.007296175168388488 -0.000538843790115214 -0.004595407919809825 0.0032713346103942493 0.014462582347185254 0.9961911318540076 -0.03531876844523628
 -0.000538518511646759 -0.004595404514958499 0.000619453559338975 0.0072955085704076526 0.9961911318540076 -0.03531876844523628 0.003270615529039633 0.014462648654823293
0.056273447269699996 0.003306301885631604 0.014686271875497602 0.996145122333662 -0.0358488460253992 0.0006269482816569073 0.007404343527020757 -0.0005498060553186813 -0.004663934930097016
 0.996145122333662 -0.0358488460253992 0.0033051741805925437 0.01468637113048862 -0.0005501408509822596 -0.004663937910346948 0.0006328133684203586 0.007403656519084719
 0.0006269482816569073 0.007404343527020757 -0.0005501408509822596 -0.004663937910346948 0.0033061266793980746 0.01468703931285162 0.9961451406229772 -0.03584809601020886
 -0.0005498060553186813 -0.004663934930097016 0.0006328133684203586 0.007403656519084719 0.9961451406229772 -0.03584809601020886 0.003305386250209497 0.014687107081686643
0.06252605252188 0.0035809244263447656 0.016409361814236557 0.9957819385226114 -0.03989839443681001 0.0007326059123377046 0.008230495795989903 -0.000640185430978696 -0.005187582254566213
 0.9957819385226114 -0.03989839443681001 0.0035795326450964457 0.0164094788208783 -0.0006405972910269098 -0.005187581378063899 0.000739849375319767 0.008229639440511024
 0.0007326059123377046 0.008230495795989903 -0.0006405972910269098 -0.005187581378063899 0.003580707831749875 0.01641021588150622 0.9957819607593513 -0.039897561469934166
 -0.000640185430978696 -0.005187582254566213 0.000739849375319767 0.008229639440511024 0.9957819607593513 -0.039897561469934166 0.0035797941238874037 0.016410295281823098
0.06877865777407 0.0038715546791177427 0.01814879649171152 0.9953972965324313 -0.04396179378622679 0.0008470698670924666 0.009057008981681613 -0.0007380442381543417 -0.005711839121696842
 0.9953972965324313 -0.04396179378622679 0.0038698710795684846 0.01814893291089521 -0.000738540895729022 -0.005711833241255497 0.0008558380652869006 0.009055958077042743
 0.0008470698670924666 0.009057008981681613 -0.000738540895729022 -0.005711833241255497 0.003871292313799805 0.018149737657552106 0.9953973230937913 -0.04396087794249386
 -0.0007380442381543417 -0.005711839121696842 0.0008558380652869006 0.009055958077042743 0.9953973230937913 -0.04396087794249386 0.0038701871421927127 0.018149829532154195
0.07503126302626001 0.004178485736428904 0.019904277052608513 0.9949909139008991 -0.04803894932688267 0.0009704219499528183 0.009883769092343295 -0.00084346700778029 -0.00623658341622442
 0.9949909139008991 -0.04803894932688267 0.004176482564044583 0.01990443463346138 -0.0008440561361923769 -0.0062365713001982384 0.000980861507635088 0.009882496576514072
 0.0009704219499528183 0.009883769092343295 -0.0008440561361923769 -0.0062365713001982384 0.004178173218642814 0.019905305837416638 0.9949909451617496 -0.04803795068382632
 -0.00084346700778029 -0.00623658341622442 0.000980861507635088 0.009882496576514072 0.9949909451617496 -0.04803795068382632 0.0041768583868815115 0.019905411033888414
0.08128386827845 0.00450200904311963 0.02167551664778198 0.9945625085909401 -0.05212974379925256 0.0011027422904695927 0.010710658259821445 -0.0009565364179570282 -0.006761691461242952
 0.9945625085909401 -0.05212974379925256 0.004499658526355757 0.021675697228780207 -0.0009572256311257624 -0.006761671793576713 0.0011150000791929982 0.010709135190010825
 0.0011027422904695927 0.010710658259821445 -0.0009572256311257624 -0.006761671793576713 0.004501641992607111 0.0216766336201989 0.9945625449239758 -0.05212866244112668
 -0.0009565364179570282 -0.006761691461242952 0.0011150000791929982 0.010709135190010825 0.9945625449239758 -0.05212866244112668 0.004500099288069858 0.021676752990810122
0.08753647353064001 0.004842414382481676 0.023462236380993224 0.9941117992103079 -0.05623404143305128 0.0012441092492173232 0.011537555027738835 -0.0010773332300346497 -0.007287037753929402
 0.9941117992103079 -0.05623404143305128 0.00483968872833436 0.023462441891322544 -0.0010781300827777476 -0.007287009134228843 0.0012583323675895135 0.011535750560225067
 0.0012441092492173232 0.011537555027738835 -0.0010781300827777476 -0.007287009134228843 0.004841988421216828 0.023463442164497958 0.994111840986485 -0.05623287744464671
 -0.0010773332300346497 -0.007287037753929402 0.0012583323675895135 0.011535750560225067 0.994111840986485 -0.05623287744464671 0.004840199609798015 0.023463576566298286
0.09378907878283 0.00519998983681767 0.02526416242313555 0.9936385052086738 -0.06035169078652187 0.0013945993265555546 0.012364334558177146 -0.0012059362200470985 -0.007812494787217462
 0.9936385052086738 -0.06035169078652187 0.005196861226344285 0.025264394884110072 -0.0012068482081482455 -0.007812455730821866 0.0014109350780494316 0.012362215928536565
 0.0013945993265555546 0.012364334558177146 -0.0012068482081482455 -0.007812455730821866 0.005199500589314517 0.025265457691649333 0.9936385527966004 -0.060350444258051035
 -0.0012059362200470985 -0.007812494787217462 0.0014109350780494316 0.012362215928536565 0.9936385527966004 -0.060350444258051035 0.005197447410519972 0.025265607986805036
0.100041684035 0.005575021726679997 0.027081023890501273 0.9931423470565528 -0.0644825268268982 0.0015542870729379817 0.013190868791951058 -0.0013424221070118634 -0.008337932922581514
 0.9931423470565528 -0.0644825268268982 0.0055714623107792636 0.027081285417206728 -0.0013434566672123954 -0.008337881860651727 0.001572882942326707 0.013188401295483444
 0.0015542870729379817 0.013190868791951058 -0.0013434566672123954 -0.008337881860651727 0.0055744648204233745 0.027082409371560395 0.9931424008225775 -0.0644811978511145
 -0.0013424221070118634 -0.008337932922581514 0.001572882942326707 0.013188401295483444 0.9931424008225775 -0.0644811978511145 0.005572128982601852 0.027082576427763936
0.1059090909091 0.00594307925647708 0.028799299176840685 0.9926557126041757 -0.06837071388636279 0.0017125668852196393 0.013966143618881733 -0.001477735514472132 -0.00883086626880035
 0.9926557126041757 -0.06837071388636279 0.005939090215751039 0.028799589987490184 -0.001478891806489325 -0.008830802439205322 0.0017334179103788915 0.01396331543917739
 0.0017125668852196393 0.013966143618881733 -0.001478891806489325 -0.008830802439205322 0.005942454885904821 0.028800770022542246 0.9926557724986611 -0.0683693076293966
 -0.001477735514472132 -0.00883086626880035 0.0017334179103788915 0.01396331543917739 0.9926557724986611 -0.0683693076293966 0.005939837133878621 0.028800953601861263
0.1062942892872 0.005967794537227909 0.02891255125711338 0.9926230464146035 -0.06862637248190928 0.0017232450010736427 0.014017026572813797 -0.0014868654786510495 -0.008863220303629698
 0.9926230464146035 -0.06862637248190928 0.005963776431725658 0.028912844060304182 -0.0014880299884999174 -0.008863155583245136 0.0017442486289150996 0.01401417354541795
 0.0017232450010736427 0.014017026572813797 -0.0014880299884999174 -0.008863155583245136 0.005967165603051127 0.028914027731998044 0.9926231067225296 -0.0686249611545962
 -0.0014868654786510495 -0.008863220303629698 0.0017442486289150996 0.01401417354541795 0.9926231067225296 -0.0686249611545962 0.005964528777811764 0.028914212423120318
0.11254689453939999 0.006378590831630256 0.03075847513679416 0.9920803262931076 -0.07278303982729217 0.001901543498295181 0.014842673750522048 -0.0016393387153217894 -0.009388222795708027
 0.9920803262931076 -0.07278303982729217 0.00637408611336856 0.03075880152478271 -0.0016406404929712524 -0.009388142679970573 0.0019251026546436055 0.0148393965499212
 0.001901543498295181 0.014842673750522048 -0.0016406404929712524 -0.009388142679970573 0.0063778855047285105 0.030760043438604966 0.9920803935042724 -0.07278154624940956
 -0.0016393387153217894 -0.009388222795708027 0.0019251026546436055 0.0148393965499212 0.9920803935042724 -0.07278154624940956 0.006374929322246971 0.03076024664547664
0.11879949979160001 0.006807691158049627 0.03261852533913099 0.9915139112074799 -0.07695233100589176 0.002089250739972482 0.015667673269241598 -0.0017999119123980089 -0.009912803945205894
 0.9915139112074799 -0.07695233100589176 0.006802671860322311 0.03261888772005205 -0.001801358216363233 -0.0099127066133621 0.0021155132967685827 0.015663931256586452
 0.002089250739972482 0.015667673269241598 -0.001801358216363233 -0.0099127066133621 0.00680690507838911 0.03262018635430402 0.9915139856807301 -0.07695075528258259
 -0.0017999119123980089 -0.009912803945205894 0.0021155132967685827 0.015663931256586452 0.9915139856807301 -0.07695075528258259 0.006803611121848293 0.03262040896575817
0.1250521050438 0.007255373948143798 0.03449243011946454 0.9909235273283283 -0.08113403895869942 0.0022864326033651076 0.016491885241376274 -0.001968652801522923 -0.010436824958494685
 0.9909235273283283 -0.08113403895869942 0.007249812056133048 0.03449283100360179 -0.001970250830272934 -0.01043670850608182 0.0023155465056570344 0.016487635763326087
 0.0022864326033651076 0.016491885241376274 -0.001970250830272934 -0.01043670850608182 0.007254502760771402 0.03449418478906966 0.9909236094194099 -0.08113238119831714
 -0.001968652801522923 -0.010436824958494685 0.0023155465056570344 0.016487635763326087 0.9909236094194099 -0.08113238119831714 0.007250852561344411 0.03449442770312714
0.131304710296 0.007721915410295427 0.036379915590179036 0.9903089026289665 -0.08532794800060244 0.002493152581813275 0.01731516701747624 -0.0021456266708738698 -0.01096014468999051
 0.9903089026289665 -0.08532794800060244 0.0077157828569519625 0.03638035759256377 -0.002147383562539496 -0.010960007128952617 0.002525265818046637 0.017310365388731267
 0.002493152581813275 0.01731516701747624 -0.002147383562539496 -0.010960007128952617 0.007720954766379909 0.03638176491095025 0.9903089926910082 -0.08532620831406304
 -0.0021456266708738698 -0.01096014468999051 0.002525265818046637 0.017310365388731267 0.9903089926910082 -0.08532620831406304 0.007716929798015708 0.036382029036176385
0.1375573155481 0.008099990653993817 0.03803399348151941 0.98977740672474 -0.08928700905357524 0.002683020956082025 0.018112419712719447 -0.00230440914396347 -0.011457707108041306
 0.98977740672474 -0.08928700905357524 0.008093258639726002 0.03803447175577922 -0.002306335516880046 -0.011457548309428007 0.002718206237554858 0.01810707341660879
 0.002683020956082025 0.018112419712719447 -0.002306335516880046 -0.011457548309428007 0.008098936852477628 0.03803593840593923 0.9897775051128934 -0.08928518756329411
 -0.00230440914396347 -0.011457707108041306 0.002718206237554858 0.01810707341660879 0.9897775051128934 -0.08928518756329411 0.008094516564057524 0.038036217316557444
0.1438099208003 0.008491346379708798 0.039679454787741014 0.9892272644370399 -0.09323614308954857 0.002880554909452049 0.01890656007915458 -0.0024695492812616027 -0.01195239821181838
 0.9892272644370399 -0.09323614308954857 0.008483986682933146 0.03967997153744677 -0.0024716528134473147 -0.011952216222290616 0.002918946682421142 0.0189006283301465
 0.002880554909452049 0.01890656007915458 -0.0024716528134473147 -0.011952216222290616 0.008490195197801503 0.03968149634901268 0.9892273714997485 -0.09323423991637789
 -0.0024695492812616027 -0.01195239821181838 0.002918946682421142 0.0189006283301465 0.9892273714997485 -0.09323423991637789 0.008485360669970974 0.03968179050623541
0.1500625260525 0.008895846527999749 0.041316165054776414 0.9886586158968085 -0.0971752552903641 0.0030856872442013798 0.019697510661020472 -0.002640981261150128 -0.012444143803918511
 0.9886586158968085 -0.0971752552903641 0.008887830879552689 0.041316722602556075 -0.0026432696147325953 -0.012443936591645647 0.0031274191237501046 0.01969095119758302
 0.0030856872442013798 0.019697510661020472 -0.0026432696147325953 -0.012443936591645647 0.00889459375666587 0.04131830432895454 0.9886587319795161 -0.09717327055904892
 -0.002640981261150128 -0.012444143803918511 0.0031274191237501046 0.01969095119758302 0.9886587319795161 -0.09717327055904892 0.00888932600265619 0.0413186142427698
0.15631513130469998 0.009313354091699637 0.04294399390141089 0.9880716019305263 -0.10110425110809557 0.0032983499786917634 0.020485195299549785 -0.0028186384588190687 -0.012932871244193718
 0.9880716019305263 -0.10110425110809557 0.009304654172587041 0.042944594691436105 -0.0028211192795601124 -0.012932636699216281 0.003343554735379342 0.02047796440053722
