! Created with skrf 1.8.0 (http://scikit-rf.org).
# GHz S RI R 50.0 
!freq ReS11 ImS11 ReS12 ImS12 ReS13 ImS13
! ReS14 ImS14
! ReS21 ImS21 ReS22 ImS22 ReS23 ImS23
! ReS24 ImS24
! ReS31 ImS31 ReS32 ImS32 ReS33 ImS33
! ReS34 ImS34
! ReS41 ImS41 ReS42 ImS42 ReS43 ImS43
! ReS44 ImS44
!
0.0 0.001371706385896 0.0 0.9986282936141 0.0 5.285697788304e-05 0.0 -5.285697758933e-05 6.4731128417376366e-21
 0.9986282936141 0.0 0.001371706385886 0.0 -5.285697758875e-05 6.473112841666607e-21 5.285697788345e-05 0.0
 5.285697788304e-05 0.0 -5.285697758875e-05 6.473112841666607e-21 0.001371706374153 0.0 0.9986282936024 0.0
 -5.285697758933e-05 6.4731128417376366e-21 5.285697788345e-05 0.0 0.9986282936024 0.0 0.001371706374171 0.0
0.005 0.001475449991087147 0.0011180705110502137 0.9984971061743596 -0.0028741834023913605 7.443891050605714e-05 0.0006089231299964471 -7.21976450423777e-05 -0.00037765892415493726
 0.9984971061743596 -0.0028741834023913605 0.0014754479797212095 0.0011180717627454423 -7.219503594530885e-05 -0.0003776570209227138 7.444827027657089e-05 0.0006089194333105663
 7.443891050605714e-05 0.0006089231299964471 -7.219503594530885e-05 -0.0003776570209227138 0.0014754511669167738 0.001118137140892675 0.9984971065185871 -0.0028741163437008355
 -7.21976450423777e-05 -0.00037765892415493726 7.444827027657089e-05 0.0006089194333105663 0.9984971065185871 -0.0028741163437008355 0.0014754474896857897 0.0011181392486667048
0.006252605252188 0.0015025292395373648 0.001402025235622812 0.9984626677367716 -0.0035934546229980605 8.052611542548122e-05 0.0007614454145932702 -7.760037670391227e-05 -0.00047257587479062447
 0.9984626677367716 -0.0035934546229980605 0.001502526095151742 0.001402026877280652 -7.759631588679173e-05 -0.00047257352966833003 8.054073770967493e-05 0.0007614406383217175
 8.052611542548122e-05 0.0007614454145932702 -7.759631588679173e-05 -0.00047257352966833003 0.0015025310002554075 0.0014021085283527387 0.9984626681978439 -0.003593370800819971
 -7.760037670391227e-05 -0.00047257587479062447 8.054073770967493e-05 0.0007614406383217175 0.9984626681978439 -0.003593370800819971 0.0015025252526712045 0.001402111225101908
0.01250521050438 0.0016443259462343342 0.0028337768779429224 0.9982812391679874 -0.007187863484032739 0.00011501960534440736 0.0015232240870035967 -0.00010794424667568034 -0.0009475536931688451
 0.9982812391679874 -0.007187863484032739 0.001644313383145915 0.0028337809398737987 -0.00010792823258232531 -0.0009475493726834554 0.000115077869653744 0.001523212854877619
 0.00011501960534440736 0.0015232240870035967 -0.00010792823258232531 -0.0009475493726834554 0.0016443324117357448 0.00283394326843083 0.9982812404540485 -0.007187696090547846
 -0.00010794424667568034 -0.0009475536931688451 0.000115077869653744 0.001523212854877619 0.9982812404540485 -0.007187696090547846 0.0016443094716197275 0.002833949298886968
0.01875781575657 0.0017973794897719571 0.004286242306719483 0.9980838014506599 -0.010792007377680352 0.0001564129724708282 0.0022858944123964452 -0.00014397670148130377 -0.0014242307758004773
 0.9980838014506599 -0.010792007377680352 0.001797351243904213 0.004286249608200743 -0.00014394097373523476 -0.0014242249169740657 0.00015654375021492264 0.002285874717923051
 0.0001564129724708282 0.0022858944123964452 -0.00014394097373523476 -0.0014242249169740657 0.0017973935762533558 0.004286491740922659 0.9980838039189389 -0.010791756495089563
 -0.00014397670148130377 -0.0014242307758004773 0.00015654375021492264 0.002285874717923051 0.9980838039189389 -0.010791756495089563 0.0017973420481130706 0.004286501807894383
0.02501042100875 0.0019619659270250665 0.0057574073235104935 0.9978701407688797 -0.014407661064518193 0.00020478280153178797 0.003049514241355392 -0.0001857833510037443 -0.0019024006904548427
 0.9978701407688797 -0.014407661064518193 0.0019619157402903896 0.0057574187255429185 -0.00018572023608652067 -0.001902393805198388 0.00020501491453117174 0.0030494837713518344
 0.00020478280153178797 0.003049514241355392 -0.00018572023608652067 -0.001902393805198388 0.0019619905364717445 0.005757739741327752 0.9978701447793396 -0.014407326754856604
 -0.0001857833510037443 -0.0019024006904548427 0.00020501491453117174 0.0030494837713518344 0.9978701447793396 -0.014407326754856604 0.0019618990607190544 0.005757754611218443
0.03126302626094 0.002138349766039183 0.0072462490034505625 0.9976400314876197 -0.018035600387091323 0.00026020633963157446 0.0038140685635884987 -0.0002334476122514989 -0.002381925586064275
 0.9976400314876197 -0.018035600387091323 0.002138271384544655 0.007246265409405048 -0.00023334950831257342 -0.002381918262253665 0.00026056859147508975 0.003814024698430117
 0.00026020633963157446 0.0038140685635884987 -0.00023334950831257342 -0.002381918262253665 0.002138387783735545 0.007246664349528115 0.9976400373992559 -0.018035182681530523
 -0.0002334476122514989 -0.002381925586064275 0.00026056859147508975 0.003814024698430117 0.9976400373992559 -0.018035182681530523 0.002138245031749364 0.007246684852448768
0.037515631513130004 0.0023267899362410553 0.008752110720723799 0.9973932422698701 -0.021676227189801823 0.00032276075233956766 0.004579513947802128 -0.0002870513542173203 -0.0028626917481444788
 0.9973932422698701 -0.021676227189801823 0.0023266771097348025 0.008752133076593643 -0.0002869107234289642 -0.002862684650027578 0.00032328194322822564 0.004579453759541873
 0.00032276075233956766 0.004579513947802128 -0.0002869107234289642 -0.002862684650027578 0.0023268442334218303 0.008752608925752792 0.9973932504426707 -0.021675726107201507
 -0.0002870513542173203 -0.0028626917481444788 0.00032328194322822564 0.004579453759541873 0.9973932504426707 -0.021675726107201507 0.0023266389045734637 0.008752635955836797
0.043768236765320004 0.002527542115048998 0.010274511931029112 0.9971295385511331 -0.025329759474635397 0.00039252278092921286 0.0053457920466481665 -0.00034667513800590955 -0.0033445960863148017
 0.9971295385511331 -0.025329759474635397 0.002527388596485581 0.010274541225867642 -0.0003464845019727357 -0.0033445899547421033 0.0003932317154297859 0.005345712296552621
 0.00039252278092921286 0.0053457920466481665 -0.0003464845019727357 -0.0033445899547421033 0.0025276155484938593 0.010275092909277996 0.997129549345071 -0.025329175023786808
 -0.00034667513800590955 -0.0033445960863148017 0.0003932317154297859 0.005345712296552621 0.997129549345071 -0.025329175023786808 0.002527336368642455 0.010275127425117868
0.050020842017509996 0.0027408598060878744 0.011813069569891393 0.9968486837664641 -0.028996309939049197 0.0004695685407312421 0.006112835182847171 -0.00041239831346315443 -0.003827540541003225
 0.9968486837664641 -0.028996309939049197 0.00274065935123571 0.011813106836038893 -0.00041215025031990095 -0.0038275361935760253 0.00047049403172124473 0.0061127323186107585
 0.0004695685407312421 0.006112835182847171 -0.00041215025031990095 -0.0038275361935760253 0.002740955219571482 0.011813733217089823 0.996848697543238 -0.02899564212062392
 -0.00041239831346315443 -0.003827540541003225 0.00047049403172124473 0.0061127323186107585 0.996848697543238 -0.02899564212062392 0.002740590939635123 0.011813776242177113
0.055454545454549996 0.0029366397453448787 0.013162990956775178 0.9965904989844748 -0.03219326265514057 0.0005424974636098567 0.006779982661756377 -0.00047452793632874184 -0.004248004205745173
 0.9965904989844748 -0.03219326265514057 0.0029363934325068943 0.013163036022422454 -0.0004742239822837446 -0.004248002132481465 0.0005436345561383411 0.006779856580010355
 0.0005424974636098567 0.006779982661756377 -0.0004742239822837446 -0.004248002132481465 0.0029367565591770822 0.013163726347709076 0.9965905156480009 -0.03219252238074437
 -0.00047452793632874184 -0.004248004205745173 0.0005436345561383411 0.006779856580010355 0.9965905156480009 -0.03219252238074437 0.002936309207867181 0.013163777649583031
0.056273447269699996 0.0029669949044718803 0.01336745946820882 0.9965504400682716 -0.03267592449686804 0.0005539733831586951 0.006880569078250786 -0.00048429905019491923 -0.004311429348554188
 0.9965504400682716 -0.03267592449686804 0.002966741271780913 0.013367505781531263 -0.0004839861926898768 -0.0043114276797391925 0.0005551442535680099 0.006880439231100036
 0.0005539733831586951 0.006880569078250786 -0.0004839861926898768 -0.0043114276797391925 0.002967115128132196 0.013368205661011497 0.9965504571905552 -0.032675173303617584
 -0.00048429905019491923 -0.004311429348554188 0.0005551442535680099 0.006880439231100036 0.9965504571905552 -0.032675173303617584 0.0029666545231919433 0.01336825828424974
0.06252605252188 0.003206198006960495 0.014937395143474507 0.996234568790949 -0.03636860342458987 0.0006458117882428039 0.007648914356644796 -0.0005624543363669817 -0.0047961675345566486
 0.996234568790949 -0.03636860342458987 0.0032058849574981337 0.014937451623677886 -0.0005620693705949815 -0.004796169515781737 0.0006472568713598636 0.007648753338381266
 0.0006458117882428039 0.007648914356644796 -0.0005620693705949815 -0.004796169515781737 0.003206345857619898 0.014938223739210525 0.9962345896223328 -0.03636776884139891
 -0.0005624543363669817 -0.0047961675345566486 0.0006472568713598636 0.007648753338381266 0.9962345896223328 -0.03636776884139891 0.00320577772593266 0.01493828711539015
0.06877865777407 0.0034587185833405833 0.016522615150663313 0.995900830779585 -0.04007431395006941 0.0007451572732126396 0.008417787440452804 -0.0006469399599958192 -0.005281660015531312
 0.995900830779585 -0.04007431395006941 0.003458339880495671 0.01652268296148514 -0.000646475624490988 -0.0052816666952682735 0.0007469054118928397 0.008417590740471508
 0.0007451572732126396 0.008417787440452804 -0.000646475624490988 -0.0052816666952682735 0.003458896865071278 0.01652352598499682 0.9959008556856358 -0.04007339595598437
 -0.0006469399599958192 -0.005281660015531312 0.0007469054118928397 0.008417590740471508 0.9959008556856358 -0.04007339595598437 0.003458210027578218 0.016523601335324233
0.07503126302626001 0.003724805067633318 0.018122875062513685 0.9955489866413917 -0.04379299821389434 0.0008520823125789824 0.009187101114030382 -0.0007378304771137449 -0.005767811036521057
 0.9955489866413917 -0.04379299821389434 0.003724354477258123 0.018122955412013225 -0.0007372795623279072 -0.0057678235403518996 0.0008541623577612164 0.009186863896342596
 0.0008520823125789824 0.009187101114030382 -0.0007372795623279072 -0.0057678235403518996 0.003725016571424318 0.01812386795065318 0.9955490159894217 -0.043791996780666746
 -0.0007378304771137449 -0.005767811036521057 0.0008541623577612164 0.009186863896342596 0.9955490159894217 -0.043791996780666746 0.0037241998711846054 0.018123956563305173
0.08128386827845 0.004004704897747607 0.019737942134221562 0.9951787969482332 -0.04752457854901814 0.0009666582633519799 0.009956764906541363 -0.0008351991734861375 -0.006254523791748067
 0.9951787969482332 -0.04752457854901814 0.004004176187999664 0.01973803627503606 -0.0008345545214787343 -0.006254543322428347 0.0009690990719720267 0.009956482006798726
 0.0009666582633519799 0.009956764906541363 -0.0008345545214787343 -0.006254543322428347 0.00400495240154282 0.019739016869020763 0.9951788311074465 -0.04752349364277739
 -0.0008351991734861375 -0.006254523791748067 0.0009690990719720267 0.009956482006798726 0.9951788311074465 -0.04752349364277739 0.004003994702999909 0.019739120099670274
0.08753647353064001 0.004298664520972829 0.021367591610733906 0.9947900224074615 -0.05126896112066587 0.00108895529458597 0.010726685350533307 -0.0009391180206846215 -0.0067417001723455525
 0.9947900224074615 -0.05126896112066587 0.004298051462344905 0.02136770084032867 -0.0009383725249438973 -0.006741728009842921 0.001091785727032621 0.010726351273092884
 0.00108895529458597 0.010726685350533307 -0.0009383725249438973 -0.006741728009842921 0.004298950789755704 0.021368747964654555 0.9947900617494696 -0.05126779269966109
 -0.0009391180206846215 -0.0067417001723455525 0.001091785727032621 0.010726351273092884 0.9947900617494696 -0.05126779269966109 0.004297840978710203 0.021368867237053148
0.09378907878283 0.004606929377064207 0.023011604089585806 0.994382424013544 -0.0550260385135723 0.0012190423191909205 0.011496766173442035 -0.0010496576286004378 -0.007229240584097058
 0.994382424013544 -0.0550260385135723 0.004606225742429288 0.023011729750528107 -0.0010488042341046696 -0.007229278085632795 0.0012222912363241674 0.011496375088455434
 0.0012190423191909205 0.011496766173442035 -0.0010488042341046696 -0.007229278085632795 0.00460725716313088 0.023012841811208096 0.9943824689124205 -0.055024786531399146
 -0.0010496576286004378 -0.007229240584097058 0.0012222912363241674 0.011496375088455434 0.9943824689124205 -0.055024786531399146 0.004605984145879314 0.023012978617823844
0.100041684035 0.004929743863990921 0.024669763584488757 0.993955763184189 -0.05879569162177979 0.0013569869276875083 0.012266908440033327 -0.001166887194876698 -0.0077170438171803805
 0.993955763184189 -0.05879569162177979 0.004928943428391898 0.024669907064727534 -0.0011659188981444862 -0.007717092417253064 0.0013606831876307635 0.012266454180599804
 0.0013569869276875083 0.012266908440033327 -0.0011659188981444862 -0.007717092417253064 0.004930115906570971 0.024671082399769326 0.9939558140166418 -0.05879435602586193
 -0.001166887194876698 -0.0077170438171803805 0.0013606831876307635 0.012266454180599804 0.9939558140166418 -0.05879435602586193 0.004928668609822943 0.024671238302337643
0.1059090909091 0.005246120503859443 0.026238446280993234 0.9935378381301436 -0.06234443359537941 0.0014936386890556687 0.01298957078290656 -0.0012830395077416264 -0.00817494279186373
 0.9935378381301436 -0.06234443359537941 0.005245223571328819 0.02623860778579043 -0.0012819570639748424 -0.008175003180246177 0.0014977809733528033 0.012989051329458032
 0.0014936386890556687 0.01298957078290656 -0.0012819570639748424 -0.008175003180246177 0.005246536555991797 0.026239840924628277 0.9935378948757775 -0.06234301948337501
 -0.0012830395077416264 -0.00817494279186373 0.0014977809733528033 0.012989051329458032 0.9935378948757775 -0.06234301948337501 0.005244915663167809 0.026240016229389304
0.1062942892872 0.00526735129170302 0.026341856066905384 0.9935098018874055 -0.06257779106361447 0.0015028553229940256 0.013037010659549722 -0.0012908744522026284 -0.008205006954393936
 0.9935098018874055 -0.06257779106361447 0.005266447832495455 0.026342018800101973 -0.0012897843015307383 -0.008205068164790144 0.0015070277775510235 0.013036486718843977
 0.0015028553229940256 0.013037010659549722 -0.0012897843015307383 -0.008205068164790144 0.005267770316864403 0.026343255679177474 0.9935098590328966 -0.06257637179499032
 -0.0012908744522026284 -0.008205006954393936 0.0015070277775510235 0.013036486718843977 0.9935098590328966 -0.06257637179499032 0.005266137687228926 0.026343432309368177
0.11254689453939999 0.005619993826109579 0.028027668357847594 0.9930443027614989 -0.06637219825009819 0.0016567122556792083 0.013806968874268208 -0.0014216856140418343 -0.008693025301034933
 0.9930443027614989 -0.06637219825009819 0.00561898112308276 0.028027851823594345 -0.0014204667097816512 -0.008693100710831141 0.0016613897467012261 0.0138063684028234
 0.0016567122556792083 0.013806968874268208 -0.0014204667097816512 -0.008693100710831141 0.005620462547013947 0.028029148447557654 0.9930443666029536 -0.06637069524344007
 -0.0014216856140418343 -0.008693025301034933 0.0016613897467012261 0.0138063684028234 0.9930443666029536 -0.06637069524344007 0.005618633550945943 0.028029347507591926
0.11879949979160001 0.005987912426124438 0.02972698725232517 0.9925590292298242 -0.07017876622415026 0.0018186209600702934 0.014576676727950844 -0.0015593853188132327 -0.009180992338266884
 0.9925590292298242 -0.07017876622415026 0.005986784261311818 0.029727192976531234 -0.0015580308137068933 -0.009181083613815089 0.001823832315308963 0.01457599253090615
 0.0018186209600702934 0.014576676727950844 -0.0015580308137068933 -0.009181083613815089 0.005988433542618373 0.029728547475181315 0.9925591001532275 -0.07017717940935482
 -0.0015593853188132327 -0.009180992338266884 0.001823832315308963 0.01457599253090615 0.9925591001532275 -0.07017717940935482 0.005986397165894974 0.02972877073853928
0.1250521050438 0.006371346774569703 0.031439598836347976 0.99205374561266 -0.07399734031108365 0.0019886430904499913 0.015346025528551306 -0.0017040365728339675 -0.009668799685490132
 0.99205374561266 -0.07399734031108365 0.006370096932416732 0.031439828391534475 -0.0017025396724374426 -0.00966890857038923 0.001994417119457203 0.015345250063018992
 0.0019886430904499913 0.015346025528551306 -0.0017025396724374426 -0.00966890857038923 0.006371922973362309 0.03144123882537378 0.9920538240077116 -0.07399566961099821
 -0.0017040365728339675 -0.009668799685490132 0.001994417119457203 0.015345250063018992 0.9920538240077116 -0.07399566961099821 0.00636966822087259 0.03144148813745308
0.131304710296 0.0067705352046067615 0.033165287934677205 0.9915282172356459 -0.07782775864205724 0.0021668386574451295 0.016114904298594284 -0.0018557006925284888 -0.010156337078498378
 0.9915282172356459 -0.07782775864205724 0.006769157471818263 0.03316554294029644 -0.0018540546556344447 -0.010156465393559595 0.00217320414721277 0.016114029671066985
 0.0021668386574451295 0.016114904298594284 -0.0018540546556344447 -0.010156465393559595 0.006771169158961556 0.0331670072982383 0.9915283034958419 -0.07782600397426497
 -0.0018557006925284888 -0.010156337078498378 0.00217320414721277 0.016114029671066985 0.9915283034958419 -0.07782600397426497 0.0067686850545015135 0.03316728457706378
0.1375573155481 0.007090221722101357 0.03467737500669916 0.9910777337122296 -0.0814433026041228 0.002329589154062993 0.01685974284747508 -0.001990760076884363 -0.010620054212300518
 0.9910777337122296 -0.0814433026041228 0.007088710394054056 0.03467764938432555 -0.001988955269213612 -0.010620201964621167 0.002336565358999398 0.016858770810362026
 0.002329589154062993 0.01685974284747508 -0.001988955269213612 -0.010620201964621167 0.007090917168469833 0.034679172728996906 0.9910778281934467 -0.08144146394458414
 -0.001990760076884363 -0.010620054212300518 0.002336565358999398 0.016858770810362026 0.9910778281934467 -0.08144146394458414 0.007088191186904023 0.03467947354383965
0.1438099208003 0.007421009895288766 0.0361821278415779 0.9906116708964019 -0.08505034714871336 0.0024989238132401017 0.01760204750805991 -0.0021312457621971287 -0.01108144436741922
 0.9906116708964019 -0.08505034714871336 0.0074193588717842455 0.036182422588836485 -0.0021292749974730655 -0.011081613325206567 0.002506537758938465 0.01760097083192648
 0.0024989238132401017 0.01760204750805991 -0.0021292749974730655 -0.011081613325206567 0.007421769681337229 0.03618400344682931 0.990611773989761 -0.08504842442273161
 -0.0021312457621971287 -0.01108144436741922 0.002506537758938465 0.01760097083192648 0.990611773989761 -0.08504842442273161 0.007418790609364279 0.036184329249119976
0.1500625260525 0.007762792022876223 0.03767944004788421 0.9901301399802478 -0.08864882281103147 0.002674790214139733 0.018341757976052184 -0.0022771066102550224 -0.011540449369084372
 0.9901301399802478 -0.08864882281103147 0.007760995214856891 0.037679756206346705 -0.0022749627181750573 -0.011540641370886735 0.0026830687938415652 0.018340569164670004
 0.002674790214139733 0.018341757976052184 -0.0022749627181750573 -0.011540641370886735 0.007763618996447053 0.03768139304280559 0.9901302520796822 -0.08864681593731155
 -0.0022771066102550224 -0.011540449369084372 0.0026830687938415652 0.018340569164670004 0.9901302520796822 -0.08864681593731155 0.007760375623071803 0.037681745350869586
0.15631513130469998 0.008115459739748521 0.039169208547489225 0.9896332526103337 -0.09223865997693821 0.0028571353827584133 0.01907881485995837 -0.002428290910875123 -0.011997012199429658
