! Created with skrf 1.8.0 (http://scikit-rf.org).
# GHz S RI R 50.0 
!freq ReS11 ImS11 ReS12 ImS12 ReS13 ImS13
! ReS14 ImS14
! ReS21 ImS21 ReS22 ImS22 ReS23 ImS23
! ReS24 ImS24
! ReS31 ImS31 ReS32 ImS32 ReS33 ImS33
! ReS34 ImS34
! ReS41 ImS41 ReS42 ImS42 ReS43 ImS43
! ReS44 ImS44
!
0.0 0.001771266336145 0.0 0.9982287336494 0.0 6.862776291484e-05 0.0 -6.862776262082e-05 8.404476982623158e-21
 0.9982287336494 0.0 0.001771266336131 0.0 -6.862776262059e-05 8.404476982594992e-21 6.862776291501e-05 0.0
 6.862776291484e-05 0.0 -6.862776262059e-05 8.404476982594992e-21 0.001771266343374 0.0 0.9982287336566 0.0
 -6.862776262082e-05 8.404476982623158e-21 6.862776291501e-05 0.0 0.9982287336566 0.0 0.001771266343377 0.0
0.005 0.0019064667343648486 0.0014497692889611383 0.9980575646242413 -0.0037094111555052434 9.639554153079791e-05 0.0007478881428549679 -9.358308622123991e-05 -0.0004707450627035117
 0.9980575646242413 -0.0037094111555052434 0.0019064823957278436 0.001449760174982396 -9.358607674662655e-05 -0.00047074738340094536 9.62927719025231e-05 0.0007479273903157887
 9.639554153079791e-05 0.0007478881428549679 -9.358607674662655e-05 -0.00047074738340094536 0.0019064646890352183 0.0014497032430134795 0.9980575642458646 -0.003709478225297081
 -9.358308622123991e-05 -0.0004707450627035117 9.62927719025231e-05 0.0007479273903157887 0.9980575642458646 -0.003709478225297081 0.0019064836937408524 0.001449692089928285
0.006252605252188 0.001942148187738874 0.001817876754721481 0.9980120707677821 -0.0046376344094069336 0.00010445356250596784 0.0009352115831151247 -0.00010072742128277993 -0.0005890245302960491
 0.9980120707677821 -0.0046376344094069336 0.001942172668557193 0.0018178651433896598 -0.00010073207454613453 -0.0005890273913053139 0.00010429299712852684 0.0009352625661870597
 0.00010445356250596784 0.0009352115831151247 -0.00010073207454613453 -0.0005890273913053139 0.0019421450683676845 0.001817794226862771 0.9980120702543882 -0.004637718226858513
 -0.00010072742128277993 -0.0005890245302960491 0.00010429299712852684 0.0009352625661870597 0.9980120702543882 -0.004637718226858513 0.0019421747764559378 0.001817780055454592
0.01250521050438 0.00213127802155494 0.0036734449255084404 0.9977691781118042 -0.009275799201578989 0.00015132349130218145 0.0018706981030127254 -0.00014179181018532331 -0.0011807483526570365
 0.9977691781118042 -0.009275799201578989 0.0021313757664162083 0.0036734194967041607 -0.00014181014519557315 -0.0011807536328643264 0.00015068325554137417 0.0018708210277188018
 0.00015132349130218145 0.0018706981030127254 -0.00014181014519557315 -0.0011807536328643264 0.002131266107297407 0.003673280231249407 0.997769176606099 -0.009275966618025398
 -0.00014179181018532331 -0.0011807483526570365 0.00015068325554137417 0.0018708210277188018 0.997769176606099 -0.009275966618025398 0.002131384738001729 0.003673249535932383
0.01875781575657 0.002339115256376481 0.005554993551339687 0.9974997209027674 -0.013925725853773092 0.00020935262866368597 0.0028070377535446755 -0.00019195642654769088 -0.0017742962970936451
 0.9974997209027674 -0.013925725853773092 0.002339334880956516 0.005554951952829598 -0.00019199730915792445 -0.001774303458555332 0.00020791456080117708 0.0028072581451973316
 0.00020935262866368597 0.0028070377535446755 -0.00019199730915792445 -0.001774303458555332 0.0023390889025954958 0.005554747019646325 0.9974997179394485 -0.013925976805167769
 -0.00019195642654769088 -0.0017742962970936451 0.00020791456080117708 0.0028072581451973316 0.9974997179394485 -0.013925976805167769 0.002339355483400165 0.005554697198078406
0.02501042100875 0.0025661028636596627 0.0074598334547837505 0.9972033499662099 -0.0185896081637507 0.0002786575299382123 0.0037442270756680718 -0.00025135138662353405 -0.00236936634194726
 0.9972033499662099 -0.0185896081637507 0.0025664928797261037 0.007459773203447415 -0.000251423574062714 -0.00236937474174493 0.00027610346548758065 0.0037445748871633533
 0.0002786575299382123 0.0037442270756680718 -0.000251423574062714 -0.00236937474174493 0.0025660564274954463 0.007459505483216977 0.9972033450698148 -0.018589942637398355
 -0.00025135138662353405 -0.00236936634194726 0.00027610346548758065 0.0037445748871633533 0.9972033450698148 -0.018589942637398355 0.0025665298763721473 0.007459433702772193
0.03126302626094 0.002812665373206568 0.009386550692123078 0.9968797001336582 -0.023268348793024522 0.00035935463767666336 0.004682176435579572 -0.00032010243108979895 -0.002965734105092187
 0.9968797001336582 -0.023268348793024522 0.002813274217598774 0.00938646917703831 -0.00032021458994073936 -0.0029657429943591423 0.00035536612856408876 0.0046826860726419195
 0.00035935463767666336 0.004682176435579572 -0.00032021458994073936 -0.0029657429943591423 0.0028125932230734763 0.009386141745299687 0.9968796928280688 -0.02326876682969716
 -0.00032010243108979895 -0.002965734105092187 0.00035536612856408876 0.0046826860726419195 0.9968796928280688 -0.02326876682969716 0.0028133323814490676 0.00938604494560976
0.037515631513130004 0.003079217497530519 0.011334200581810882 0.9965283992465435 -0.027962365182481682 0.0004515590675305412 0.005620761513357163 -0.0003983317960158088 -0.003563201383961275
 0.9965283992465435 -0.027962365182481682 0.0030800935518104154 0.011334095065882852 -0.00039849251121514267 -0.003563209907637636 0.00044581726562131107 0.005621471876895338
 0.0004515590675305412 0.005620761513357163 -0.00039849251121514267 -0.003563209907637636 0.0030791140100067927 0.011333711217025796 0.9965283890509214 -0.027962866851560745
 -0.0003983317960158088 -0.003563201383961275 0.00044581726562131107 0.005621471876895338 0.9965283890509214 -0.027962866851560745 0.0030801776647216856 0.01133358611053025
0.043768236765320004 0.003366167440452666 0.013302062425276403 0.996149071849284 -0.032671834764113755 0.000555384018892405 0.006559838973554718 -0.00048615850151627555 -0.004161580519610981
 0.996149071849284 -0.032671834764113755 0.003367359047957079 0.01330193004606737 -0.00048637628166780356 -0.004161587716427409 0.0005475696301885354 0.006560793507205785
 0.000555384018892405 0.006559838973554718 -0.00048637628166780356 -0.004161587716427409 0.0033660269992102894 0.013301493299020518 0.996149058275506 -0.03267242015800547
 -0.00048615850151627555 -0.004161580519610981 0.0005475696301885354 0.006560793507205785 0.996149058275506 -0.03267242015800547 0.0033674738999796535 0.013301336370451422
0.050020842017509996 0.0036739184106644026 0.015289538166829762 0.9957413410922954 -0.037396796233245835 0.0006709404059557221 0.007499252946513727 -0.0005836984333275109 -0.0047606879562636754
 0.9957413410922954 -0.037396796233245835 0.0036754738914536503 0.015289375936825047 -0.0005839817139597594 -0.004760692758783664 0.0006607336825404848 0.007500499686126698
 0.0006709404059557221 0.007499252946513727 -0.0005839817139597594 -0.004760692758783664 0.003673735410167782 0.01528889003206932 0.9957413236467991 -0.03739746547104514
 -0.0005836984333275109 -0.0047606879562636754 0.0006607336825404848 0.007500499686126698 0.9957413236467991 -0.03739746547104514 0.003675624284996008 0.015288697537347922
0.055454545454549996 0.003958566268908362 0.01703223454588385 0.9953636508319735 -0.04151547480390382 0.0007809739920071758 0.008315777335561788 -0.0006764395574002129 -0.005281780133212413
 0.9953636508319735 -0.04151547480390382 0.003960477200422253 0.0170320438511864 -0.0006767865554401533 -0.005281781905741152 0.0007684282409092199 0.00831732062629863
 0.0007809739920071758 0.008315777335561788 -0.0006767865554401533 -0.005281781905741152 0.003958341738565776 0.017031518437344764 0.9953636296144878 -0.04151621702212707
 -0.0006764395574002129 -0.005281780133212413 0.0007684282409092199 0.00831732062629863 0.9953636296144878 -0.04151621702212707 0.003960662389931579 0.01703129181492965
0.056273447269699996 0.004002869379999048 0.017296102643193385 0.9953048298850458 -0.042137199235500716 0.0007983365858883102 0.008438838227438034 -0.0006910643321328747 -0.0053603410901780215
 0.9953048298850458 -0.042137199235500716 0.004004837044345934 0.017295907449683692 -0.0006914214777842908 -0.005360342324890423 0.0007854173403969672 0.008440429851252273
 0.0007983365858883102 0.008438838227438034 -0.0006914214777842908 -0.005360342324890423 0.00400263822485136 0.017295376349661662 0.9953048080659292 -0.04213795246355987
 -0.0006910643321328747 -0.0053603410901780215 0.0007854173403969672 0.008440429851252273 0.9953048080659292 -0.04213795246355987 0.004005027793696021 0.01729514431419662
0.06252605252188 0.004353415462104841 0.019321276247343568 0.9948391616755481 -0.04689293164620952 0.0009376781361140167 0.009378422036801214 -0.0008083657348295247 -0.005960356565069654
 0.9948391616755481 -0.04689293164620952 0.004355843624552816 0.01932104485163286 -0.0008088050404285548 -0.00596035295249521 0.0009217257718879588 0.009380415915641096
 0.0009376781361140167 0.009378422036801214 -0.0008088050404285548 -0.00596035295249521 0.004353130569046583 0.01932047274145178 0.9948391349724407 -0.04689376903915497
 -0.0008083657348295247 -0.005960356565069654 0.0009217257718879588 0.009380415915641096 0.9948391349724407 -0.04689376903915497 0.004356079557337557 0.0193201969578929
0.06877865777407 0.004725948088633405 0.02136460862504242 0.9943439610327937 -0.051663835825325424 0.0010890676583759223 0.010317825094835356 -0.0009357088895047424 -0.006560549261790982
 0.9943439610327937 -0.051663835825325424 0.004728885080899896 0.021364337661310864 -0.0009362385811809035 -0.006560539416604937 0.0010697612103046066 0.010320283341955245
 0.0010890676583759223 0.010317825094835356 -0.0009362385811809035 -0.006560539416604937 0.004725603887430786 0.021363728957699675 0.9943439289252167 -0.05166475757904446
 -0.0009357088895047424 -0.006560549261790982 0.0010697612103046066 0.010320283341955245 0.9943439289252167 -0.05166475757904446 0.00472917103864592 0.021363404983210307
0.07503126302626001 0.005120855061259028 0.023425668358937692 0.9938188541099812 -0.056449718893920905 0.0012526045996826348 0.011256862310215682 -0.0010731966529770834 -0.007160731682589193
 0.9938188541099812 -0.056449718893920905 0.005124349245229564 0.023425354332547867 -0.0010738248885033726 -0.007160714113753948 0.0012296227833109487 0.011259851830550909
 0.0012526045996826348 0.011256862310215682 -0.0010738248885033726 -0.007160714113753948 0.0051204459962249285 0.023424713682858315 0.9938188160666868 -0.05645072522899211
 -0.0010731966529770834 -0.007160731682589193 0.0012296227833109487 0.011259851830550909 0.9938188160666868 -0.05645072522899211 0.005124690084593808 0.02342433683595074
0.08128386827845 0.005538520528686698 0.025504036112696932 0.993263469038412 -0.06125035956040477 0.0014283850827122664 0.012195343258895867 -0.001220928378263061 -0.0077607135542518526
 0.993263469038412 -0.06125035956040477 0.005542620309660773 0.025503675398038606 -0.0012216632472712445 -0.007760686665177345 0.001401406349912535 0.01219893579759491
 0.0014283850827122664 0.012195343258895867 -0.0012216632472712445 -0.007760686665177345 0.005538041060216452 0.025503007681771692 0.9932634245162564 -0.061251450723537666
 -0.001220928378263061 -0.0077607135542518526 0.001401406349912535 0.01219893579759491 0.9932634245162564 -0.061251450723537666 0.005543020902839117 0.025502573038471976
0.08753647353064001 0.005979324910381488 0.027599299886554456 0.9926774362722178 -0.06606551284598368 0.0016165017435355573 0.013133072528353558 -0.001378999794259321 -0.008360301575286434
 0.9926774362722178 -0.06606551284598368 0.005984078749794762 0.027598888724263165 -0.001379849318196724 -0.008360263663979222 0.0015852043435094702 0.013137344718331594
 0.0016165017435355573 0.013133072528353558 -0.001379849318196724 -0.008360263663979222 0.005978769517047988 0.02759819905900099 0.9926773847154641 -0.06606668910742554
 -0.001378999794259321 -0.008360301575286434 0.0015852043435094702 0.013137344718331594 0.9926773847154641 -0.06606668910742554 0.005984543986084564 0.027597701448672875
0.09378907878283 0.0064436447867375025 0.029711051650636873 0.9920603889044106 -0.07089491344293142 0.0018170435737679253 0.01406984998281049 -0.0015475028805702728 -0.008959299251609038
 0.9920603889044106 -0.07089491344293142 0.006449101215506202 0.029710586144378978 -0.0015484750125358282 -0.008959248510863639 0.001781105618525836 0.014074883391288437
 0.0018170435737679253 0.01406984998281049 -0.0015484750125358282 -0.008959248510863639 0.006443007966213227 0.029709879890198448 0.9920603297429414 -0.07089617509592254
 -0.0015475028805702728 -0.008959299251609038 0.001781105618525836 0.014074883391288437 0.9920603297429414 -0.07089617509592254 0.006449636001041368 0.029709313890681193
0.100041684035 0.00693185276211205 0.03183888488169171 0.9914119629594474 -0.0757382781810057 0.002030095766073064 0.015005470976763899 -0.0017265257388802504 -0.009557506793769877
 0.9914119629594474 -0.0757382781810057 0.006938060393036835 0.031838360994400794 -0.0017276283632137385 -0.009557441311367142 0.0019891952997962417 0.01501135215074316
 0.002030095766073064 0.015005470976763899 -0.0017276283632137385 -0.009557441311367142 0.006931129033296608 0.03183764375637884 0.9914118956083127 -0.07573962554352287
 -0.0017265257388802504 -0.009557506793769877 0.0019891952997962417 0.01501135215074316 0.9914118956083127 -0.07573962554352287 0.006938669652598467 0.031837003688672545
0.1059090909091 0.007412038419248381 0.03384989418021646 0.9907746241053517 -0.08029569622380248 0.002241473110663324 0.01588221415444346 -0.0019041622830279754 -0.01011796159613357
 0.9907746241053517 -0.08029569622380248 0.007418995271555865 0.0338493117076268 -0.001905394469777857 -0.010117880447748182 0.0021956230425887392 0.015888974054726637
 0.002241473110663324 0.01588221415444346 -0.001905394469777857 -0.010117880447748182 0.007411228171749054 0.03384858948422197 0.9907745485228124 -0.08029712432536149
 -0.0019041622830279754 -0.01011796159613357 0.0021956230425887392 0.015888974054726637 0.9907745485228124 -0.08029712432536149 0.007419678912911546 0.033847874512367
0.1062942892872 0.007444317309978107 0.033982392715032915 0.9907317976730027 -0.08059530789023392 0.00225573956265048 0.015939726529189582 -0.0019161524611656698 -0.010154721063506861
 0.9907317976730027 -0.08059530789023392 0.007451324851506512 0.03398180626450454 -0.0019173933931314938 -0.010154638822419357 0.002209554634734311 0.015946547039609002
 0.00225573956265048 0.015939726529189582 -0.0019173933931314938 -0.010154638822419357 0.007443501214819098 0.033981083899391404 0.9907317215311027 -0.08059674130319211
 -0.0019161524611656698 -0.010154721063506861 0.002209554634734311 0.015946547039609002 0.9907317215311027 -0.08059674130319211 0.007452013528724872 0.033980363821706036
0.11254689453939999 0.00798140260354856 0.036141166555650514 0.9900195357586623 -0.08546568881638712 0.002494052105341061 0.016872403483274633 -0.002116462997165358 -0.010750735544876192
 0.9900195357586623 -0.08546568881638712 0.007989258872573641 0.03614051320953035 -0.002117849982305438 -0.010750634423493069 0.0024422608462213243 0.01688025996793007
 0.002494052105341061 0.016872403483274633 -0.002117849982305438 -0.010750634423493069 0.007980488708631673 0.03613979183007666 0.9900194502077209 -0.08546720864472483
 -0.002116462997165358 -0.010750735544876192 0.0024422608462213243 0.01688025996793007 0.9900194502077209 -0.08546720864472483 0.007990031930516592 0.03613898553133189
0.11879949979160001 0.00854346833524885 0.038314794996276415 0.9892748236686048 -0.09034909374201551 0.00274510628796425 0.017803284642167287 -0.002327533019814797 -0.011345340349630978
 0.9892748236686048 -0.09034909374201551 0.008552222270065604 0.03831407026661046 -0.0023290737334250924 -0.011345218122045067 0.002687386988066468 0.017812278847253164
 0.00274510628796425 0.017803284642167287 -0.0023290737334250924 -0.011345218122045067 0.008542451233823247 0.03831335624961692 0.9892747280719191 -0.09035070037234237
 -0.002327533019814797 -0.011345340349630978 0.002687386988066468 0.017812278847253164 0.9892747280719191 -0.09035070037234237 0.008553084692457847 0.03831245724239018
0.1250521050438 0.009130869527475664 0.04050286297941469 0.9884973118469115 -0.09524518287590521 0.003008970610267318 0.018732148902261762 -0.002549433790568915 -0.011938322235592595
 0.9884973118469115 -0.09524518287590521 0.00914057020126247 0.04050206221639798 -0.0025511358370265136 -0.011938176571821939 0.0029450018013807812 0.01874238772239267
 0.003008970610267318 0.018732148902261762 -0.0025511358370265136 -0.011938176571821939 0.009129743841239026 0.04050136220732748 0.9884972055482524 -0.09524687671831242
 -0.002549433790568915 -0.011938322235592595 0.0029450018013807812 0.01874238772239267 0.9884972055482524 -0.09524687671831242 0.009141526992604662 0.04050036372015492
0.131304710296 0.009743956336747085 0.042704951140243565 0.9876866549798395 -0.1001536045745277 0.003285709033084658 0.01965877137789068 -0.0027822320246272073 -0.012529464644039296
 0.9876866549798395 -0.1001536045745277 0.009754652970945818 0.04270406952540722 -0.002784102936596406 -0.012529293110341452 0.0032151695725051795 0.01967036689464556
 0.003285709033084658 0.01965877137789068 -0.002784102936596406 -0.012529293110341452 0.009742716718044423 0.04270339044615341 0.9876865373025533 -0.10015538606188668
 -0.0027822320246272073 -0.012529464644039296 0.0032151695725051795 0.01967036689464556 0.9876865373025533 -0.10015538606188668 0.009755709157632677 0.04270228541515984
0.1375573155481 0.010250140865393893 0.044634722582643 0.986975510720617 -0.10478791635822271 0.0035429178426066347 0.020555518338229013 -0.0029936084021404672 -0.013091101725427046
 0.986975510720617 -0.10478791635822271 0.01026188752997883 0.044633775958827115 -0.0029956594994732535 -0.013090903869792518 0.0034656440559388975 0.02056846325259799
 0.0035429178426066347 0.020555518338229013 -0.0029956594994732535 -0.013090903869792518 0.010248782614233879 0.04463310376430158 0.9869753811265934 -0.1047897857435959
 -0.0029936084021404672 -0.013091101725427046 0.0034656440559388975 0.02056846325259799 0.9869753811265934 -0.1047897857435959 0.010263047248830608 0.04463190612667285
0.1438099208003 0.010774359269733292 0.046552893007970886 0.9862388961239814 -0.10940900708474889 0.0038104679166679678 0.021447661043377447 -0.003213370044071541 -0.013648551336737397
 0.9862388961239814 -0.10940900708474889 0.010787206123653985 0.04655187775485504 -0.0032156094375646914 -0.01364832473677664 0.0037261675049383544 0.021462058834218284
 0.0038104679166679678 0.021447661043377447 -0.0032156094375646914 -0.01364832473677664 0.010772877196469063 0.04655121822820986 0.9862387539358944 -0.10941096478878344
 -0.003213370044071541 -0.013648551336737397 0.0037261675049383544 0.021462058834218284 0.9862387539358944 -0.10941096478878344 0.010788474273567848 0.046549922085684675
0.1500625260525 0.011316404090676723 0.04845925917739307 0.9854770235852829 -0.11401671774975747 0.004088251852139799 0.02233507716542291 -0.0034414133144008113 -0.014201700582358933
 0.9854770235852829 -0.11401671774975747 0.011330401459178923 0.048458171433369474 -0.003443849091359119 -0.014201442718047193 0.003996634633238128 0.022351035089257367
 0.004088251852139799 0.02233507716542291 -0.003443849091359119 -0.014201442718047193 0.011314793041732957 0.048457530682840824 0.9854768681081204 -0.11401876420953024
 -0.0034414133144008113 -0.014201700582358933 0.003996634633238128 0.022351035089257367 0.9854768681081204 -0.11401876420953024 0.011331782949963605 0.048456129803110114
0.15631513130469998 0.011876066123208028 0.05035362392024214 0.9846901068804594 -0.11861089091360683 0.004376160807680916 0.023217646794986464 -0.0036776331554022835 -0.014750439242020727
 0.9846901068804594 -0.11861089091360683 0.011891264501784727 0.05035245957438562 -0.0036802733791941682 -0.01475014749618224 0.004276938754175727 0.023235275840414845
