! Created with skrf 1.8.0 (http://scikit-rf.org).
# GHz S RI R 50.0 
!freq ReS11 ImS11 ReS12 ImS12 ReS13 ImS13
! ReS14 ImS14
! ReS21 ImS21 ReS22 ImS22 ReS23 ImS23
! ReS24 ImS24
! ReS31 ImS31 ReS32 ImS32 ReS33 ImS33
! ReS34 ImS34
! ReS41 ImS41 ReS42 ImS42 ReS43 ImS43
! ReS44 ImS44
!
0.0 0.001662837785856 0.0 0.9983371622082 0.0 6.44268092725e-05 0.0 -6.44268096172e-05 7.89000861769799e-21
 0.9983371622082 0.0 0.001662837785907 0.0 -6.442680961808e-05 7.890008617805758e-21 6.442680927436e-05 0.0
 6.44268092725e-05 0.0 -6.442680961808e-05 7.890008617805758e-21 0.00166283778881 0.0 0.9983371622112 0.0
 -6.44268096172e-05 7.89000861769799e-21 6.442680927436e-05 0.0 0.9983371622112 0.0 0.001662837788813 0.0
0.005 0.0017894588585404925 0.0013583374281808825 0.9981768945673698 -0.003482922425824269 9.07810977004299e-05 0.0007197418221909281 -8.80267710743437e-05 -0.00044998257580400374
 0.9981768945673698 -0.003482922425824269 0.0017894811413995506 0.0013583243415047001 -8.802951311056658e-05 -0.0004499845651057572 9.064022620469656e-05 0.000719795522559148
 9.07810977004299e-05 0.0007197418221909281 -8.802951311056658e-05 -0.0004499845651057572 0.0017894583927613476 0.0013584049028598196 0.9981768949318682 -0.003482855363377252
 -8.80267710743437e-05 -0.00044998257580400374 9.064022620469656e-05 0.000719795522559148 0.9981768949318682 -0.003482855363377252 0.0017894823300721107 0.0013583909859837364
0.006252605252188 0.001822776061325671 0.0017032574152618084 0.9981344373893434 -0.004354487708488545 9.838447357406878e-05 0.0009000132312614366 -9.474147563334999e-05 -0.0005630554394495898
 0.9981344373893434 -0.004354487708488545 0.0018228108939363585 0.0017032407672105173 -9.47457433711596e-05 -0.0005630578892969858 9.816437653881984e-05 0.0009000829786245556
 9.838447357406878e-05 0.0009000132312614366 -9.47457433711596e-05 -0.0005630578892969858 0.0018227752719802304 0.0017033417335657979 0.9981344378974923 -0.004354403894049119
 -9.474147563334999e-05 -0.0005630554394495898 9.816437653881984e-05 0.0009000829786245556 0.9981344378974923 -0.004354403894049119 0.0018228126898161584 0.001703324064986501
0.01250521050438 0.001998795917257865 0.00344208943121268 0.997908549361098 -0.008709660101298046 0.0001423782716255739 0.001800294418955128 -0.00013311641238404268 -0.0011287752076071184
 0.997908549361098 -0.008709660101298046 0.001998935014599662 0.0034420532142584196 -0.00013313324217755762 -0.0011287797000753671 0.0001415006093905537 0.001800462344337184
 0.0001423782716255739 0.001800294418955128 -0.00013313324217755762 -0.0011287797000753671 0.001998792187709762 0.0034422577179070795 0.9979085508055012 -0.008709492693849161
 -0.00013311641238404268 -0.0011287752076071184 0.0001415006093905537 0.001800462344337184 0.9979085508055012 -0.008709492693849161 0.0019989415879802983 0.0034422196231053246
0.01875781575657 0.0021913054636446367 0.005205520624914796 0.9976592005865508 -0.013076091183055671 0.00019651263446675225 0.002701436316133219 -0.00017967494708669813 -0.0016963139526745953
 0.9976592005865508 -0.013076091183055671 0.002191618043630001 0.00520546171534069 -0.0001797124930697145 -0.0016963199918990106 0.00019454114624594074 0.0027017367446811338
 0.00019651263446675225 0.002701436316133219 -0.0001797124930697145 -0.0016963199918990106 0.002191296676575513 0.0052057726338988735 0.9976592034123756 -0.013075840267253409
 -0.00017967494708669813 -0.0016963139526745953 0.00019454114624594074 0.0027017367446811338 0.9976592034123756 -0.013075840267253409 0.0021916323671669746 0.005205711124162056
0.02501042100875 0.0024006993291064123 0.006991050110501271 0.9973860811892311 -0.017455867129386304 0.0002608938199968409 0.003603457143587597 -0.0002345358367625519 -0.002265393645323719
 0.9973860811892311 -0.017455867129386304 0.0024012544846653363 0.006990965204148487 -0.0002346021598918618 -0.0022654006389342418 0.0002573921504817761 0.003603930105827091
 0.0002608938199968409 0.003603457143587597 -0.0002346021598918618 -0.0022654006389342418 0.002400683373697029 0.006991385619349227 0.9973860858384977 -0.017455532731275127
 -0.0002345358367625519 -0.002265393645323719 0.0002573921504817761 0.003603930105827091 0.9973860858384977 -0.017455532731275127 0.002401279505501173 0.006991297500906526
0.03126302626094 0.0026273557795155455 0.008797375599584892 0.9970888663797832 -0.021849862211897313 0.0003356284178963605 0.00450629047876651 -0.0002978141095270625 -0.002835813611095697
 0.9970888663797832 -0.021849862211897313 0.002628222517095868 0.008797261216356003 -0.00029791719317272296 -0.002835820869195456 0.00033015972330881877 0.004506981743748848
 0.0003356284178963605 0.00450629047876651 -0.00029791719317272296 -0.002835820869195456 0.002627330550029216 0.008797794388786789 0.997088873292611 -0.02184944431931899
 -0.0002978141095270625 -0.002835813611095697 0.00033015972330881877 0.004506981743748848 0.997088873292611 -0.02184944431931899 0.0026282611588315545 0.008797676267636416
0.037515631513130004 0.00287164459296736 0.010623636394561181 0.9967672246295785 -0.02625849574534118 0.0004208221924965181 0.005409836151280201 -0.00036962190058837996 -0.003407399642773019
 0.9967672246295785 -0.02625849574534118 0.002872891859608322 0.010623488880345878 -0.00036976965821248066 -0.003407406377557265 0.0004129489711387884 0.005410797282783465
 0.0004208221924965181 0.005409836151280201 -0.00036976965821248066 -0.003407406377557265 0.002871607994719925 0.010624138222402189 0.9967672342528512 -0.02625799433273865
 -0.00036962190058837996 -0.003407399642773019 0.0004129489711387884 0.005410797282783465 0.9967672342528512 -0.02625799433273865 0.0028729470311075387 0.01062398650635439
0.043768236765320004 0.0031339301004879253 0.012469183006783086 0.9964208210140891 -0.030681962398713805 0.0005165795347974885 0.006313975731259534 -0.0004500687391899616 -0.003979988527044807
 0.9964208210140891 -0.030681962398713805 0.003135626805399219 0.012468998534624867 -0.00045026901883892016 -0.00397999385263881 0.0005058635538529823 0.006315264151040238
 0.0005165795347974885 0.006313975731259534 -0.00045026901883892016 -0.00397999385263881 0.0031338800427365165 0.012469767621910372 0.9964208337964725 -0.030681377414569316
 -0.0004500687391899616 -0.003979988527044807 0.0005058635538529823 0.006315264151040238 0.9964208337964725 -0.030681377414569316 0.003135701394902678 0.012469578521457638
0.050020842017509996 0.00341457257812167 0.014333481955933019 0.996049318913266 -0.0351203273241887 0.0006230031269305297 0.0072185789350433585 -0.0005392616429007352 -0.004553421659062665
 0.996049318913266 -0.0351203273241887 0.0034167876116081982 0.014333256526295511 -0.0005395222298138735 -0.00455342459140342 0.0006090054002956823 0.0072202579888284175
 0.0006230031269305297 0.0072185789350433585 -0.0005395222298138735 -0.00455342459140342 0.0034145069741628323 0.014334149086833494 0.9960493353073713 -0.03511965870141479
 -0.0005392616429007352 -0.004553421659062665 0.0006090054002956823 0.0072202579888284175 0.9960493353073713 -0.03511965870141479 0.003416884488908379 0.01433391861521279
0.055454545454549996 0.003673644786906493 0.015968481683653012 0.995705827335528 -0.03898948795876692 0.0007242290389597035 0.008004975279369412 -0.0006239570864103333 -0.005052316036169876
 0.995705827335528 -0.03898948795876692 0.0036763662099065786 0.015968217278327205 -0.0006242763572401114 -0.005052316013216623 0.0007070222867724648 0.008007049901765049
 0.0007242290389597035 0.008004975279369412 -0.0006242763572401114 -0.005052316013216623 0.0036735639815938742 0.015969220289073938 0.9957058472406898 -0.038988746582946744
 -0.0006239570864103333 -0.005052316036169876 0.0007070222867724648 0.008007049901765049 0.9957058472406898 -0.038988746582946744 0.0036764847731303 0.015968950473215112
0.056273447269699996 0.0037139289553462965 0.01621606904343947 0.9956523810330059 -0.03957357281457884 0.0007401937017756805 0.008123506765214766 -0.0006373051240389527 -0.0051275419280847265
 0.9956523810330059 -0.03957357281457884 0.003716731206912893 0.0162157984838699 -0.0006376337423510131 -0.00512754138486086 0.0007224744989624476 0.008125645789809673
 0.0007401937017756805 0.008123506765214766 -0.0006376337423510131 -0.00512754138486086 0.003713845722397586 0.016216818403442707 0.9956524014972215 -0.03957282046555094
 -0.0006373051240389527 -0.0051275419280847265 0.0007224744989624476 0.008125645789809673 0.9956524014972215 -0.03957282046555094 0.003716853224024717 0.016216542375958293
0.06252605252188 0.004032353182042529 0.018116523666173966 0.9952296700903712 -0.044041623925049705 0.0008682498486234227 0.009028613255009976 -0.0007443011530567083 -0.0057021920047301946
 0.9952296700903712 -0.044041623925049705 0.004035811557413176 0.01811620363047494 -0.0007447054668059402 -0.005702186805336231 0.0008463687243188607 0.0090312876456586
 0.0008682498486234227 0.009028613255009976 -0.0007447054668059402 -0.005702186805336231 0.00403225023899369 0.01811735494911643 0.9952296950881853 -0.04404078774594873
 -0.0007443011530567083 -0.0057021920047301946 0.0008463687243188607 0.0090312876456586 0.9952296950881853 -0.04404078774594873 0.004035961547294912 0.01811702898198319
0.06877865777407 0.004370196407875623 0.020034453508775883 0.9947808493155252 -0.048524363722205234 0.001007267846062453 0.009933746507243674 -0.000860349095696614 -0.006277213340048052
 0.9947808493155252 -0.048524363722205234 0.0043743798453939105 0.02003407947550724 -0.0008608367093179461 -0.006277202205562184 0.0009807836842176331 0.009937037784733446
 0.001007267846062453 0.009933746507243674 -0.0008608367093179461 -0.006277202205562184 0.004370071673941912 0.020035366390564923 0.9947808793164284 -0.048523443591623014
 -0.000860349095696614 -0.006277213340048052 0.0009807836842176331 0.009937037784733446 0.9947808793164284 -0.048523443591623014 0.004374560621946099 0.0200349858989824
0.07503126302626001 0.004727807052055767 0.02196948483368907 0.9943055828493046 -0.053021642942032994 0.0011573415099827191 0.010838749369741689 -0.0009855456347594243 -0.0068524455346895075
 0.9943055828493046 -0.053021642942032994 0.004732784539241128 0.02196905210415803 -0.0009861240933168554 -0.006852427087868946 0.0011258125791912578 0.010842745246985277
 0.0011573415099827191 0.010838749369741689 -0.0009861240933168554 -0.006852427087868946 0.004727658445806 0.021970478973392733 0.9943056183295995 -0.05302063872002626
 -0.0009855456347594243 -0.0068524455346895075 0.0011258125791912578 0.010842745246985277 0.9943056183295995 -0.05302063872002626 0.00473299889704764 0.02197003916911454
0.08128386827845 0.005105530803069476 0.023921256036624247 0.9938035360752886 -0.057533286389621116 0.001318562051590272 0.011743459887369564 -0.0011199846816881335 -0.0074277259383501056
 0.9938035360752886 -0.057533286389621116 0.00511137139313305 0.02392075973218351 -0.0011206614708619295 -0.007427698703636079 0.0012815460688529606 0.011748254335212321
 0.001318562051590272 0.011743459887369564 -0.0011206614708619295 -0.007427698703636079 0.005105356241670359 0.023922331073843398 0.9938035775189069 -0.057532197920471546
 -0.0011199846816881335 -0.0074277259383501056 0.0012815460688529606 0.011748254335212321 0.9938035775189069 -0.057532197920471546 0.00511162210721699 0.02392182696208779
0.08753647353064001 0.0055037105733215155 0.02588941318706386 0.9932743759098284 -0.06205909736151581 0.0014910179413389144 0.012647711632277934 -0.0012637572814613069 -0.00800288937813573
 0.9932743759098284 -0.06205909736151581 0.005510483400750125 0.025888848245933307 -0.001264539827243327 -0.008002851781700447 0.001448072143054515 0.01265340494440798
 0.0014910179413389144 0.012647711632277934 -0.001264539827243327 -0.008002851781700447 0.005503507970752796 0.02589056874298048 0.9932744238090053 -0.06205792447298232
 -0.0012637572814613069 -0.00800288937813573 0.001448072143054515 0.01265340494440798 0.9932744238090053 -0.06205792447298232 0.005510773226362323 0.02588999511867512
0.09378907878283 0.0059226864195845285 0.02787360684893128 0.9927177710645603 -0.06659886079596648 0.0016747947776785672 0.013551333946818284 -0.0014169515119771558 -0.008577767981537057
 0.9927177710645603 -0.06659886079596648 0.00593046071704086 0.027872968022217493 -0.0014178471803727457 -0.008577718351321354 0.0016254759965929953 0.013558032803488435
 0.0016747947776785672 0.013551333946818284 -0.0014178471803727457 -0.008577718351321354 0.005922453686032169 0.027874842525794644 0.9927178259202278 -0.06659760330004638
 -0.0014169515119771558 -0.008577767981537057 0.0016254759965929953 0.013558032803488435 0.9927178259202278 -0.06659760330004638 0.005930792389069644 0.027874193969239968
0.100041684035 0.006362795442987546 0.02987348975171722 0.9921333922889283 -0.07115234558102874 0.001869975158514479 0.014454152136430684 -0.0015796523802861918 -0.009152191056861308
 0.9921333922889283 -0.07115234558102874 0.00637164055712205 0.02987277159899553 -0.0015806684767674935 -0.00915212762265177 0.0018138399058548371 0.014461969667119573
 0.001869975158514479 0.014454152136430684 -0.0015806684767674935 -0.00915212762265177 0.006362530483028554 0.029874805133644454 0.9921334546117736 -0.0711510032736079
 -0.0015796523802861918 -0.009152191056861308 0.0018138399058548371 0.014461969667119573 0.9921334546117736 -0.0711510032736079 0.006372016789518335 0.029874076005464784
0.1059090909091 0.0067953090639551695 0.03176412796861163 0.9915594634018988 -0.07543756906313302 0.0020635734764208476 0.015300460885816295 -0.0017410490069860334 -0.009690657300041351
 0.9915594634018988 -0.07543756906313302 0.006805222211972344 0.03176333025362341 -0.00174218470225037 -0.009690579214907867 0.002000638129567419 0.015309436862144804
 0.0020635734764208476 0.015300460885816295 -0.00174218470225037 -0.009690579214907867 0.0067950119515371886 0.03176551775320839 0.9915595332053336 -0.07543614696706885
 -0.0017410490069860334 -0.009690657300041351 0.002000638129567419 0.015309436862144804 0.9915595332053336 -0.07543614696706885 0.006805642709135245 0.03176470768740812
0.1062942892872 0.0068243716694471775 0.03188871505222606 0.9915209126002058 -0.07571930628085578 0.002076638555067941 0.015355987625521662 -0.0017519417160493037 -0.009725985018391071
 0.9915209126002058 -0.07571930628085578 0.00683435707740514 0.031887911936299244 -0.0017530854849494974 -0.009725905911920291 0.00201324310703139 0.015365043470159377
 0.002076638555067941 0.015355987625521662 -0.0017530854849494974 -0.009725905911920291 0.0068240723814067435 0.03189010970681581 0.9915209829110125 -0.07571787894040438
 -0.0017519417160493037 -0.009725985018391071 0.00201324310703139 0.015365043470159377 0.9915209829110125 -0.07571787894040438 0.006834780563098553 0.0318892941421936
0.11254689453939999 0.0073077459187496 0.03391893500518809 0.9908800075028011 -0.08029948446200733 0.0022948611871997813 0.016256658090680918 -0.001933898063118912 -0.010298973341885908
 0.9908800075028011 -0.08029948446200733 0.007318941244740373 0.03391804108619832 -0.0019351766870070312 -0.010298876596943582 0.0022237616756768845 0.016267078459500952
 0.0022948611871997813 0.016256658090680918 -0.0019351766870070312 -0.010298876596943582 0.007307410193325553 0.03392040848270388 0.990880086333517 -0.0802979718508817
 -0.001933898063118912 -0.010298973341885908 0.0022237616756768845 0.016267078459500952 0.990880086333517 -0.0802979718508817 0.0073194146547830565 0.03391950038499171
0.11879949979160001 0.007813245663136719 0.03596379993885389 0.9902103552022055 -0.08489260972391656 0.002524715900453222 0.017155977579176505 -0.0021255965694563714 -0.010870976542849653
 0.9902103552022055 -0.08489260972391656 0.007825720694664876 0.03596280916771966 -0.0021270171683179296 -0.01087086009540123 0.0024454684075512667 0.017167895311045137
 0.002524715900453222 0.017155977579176505 -0.0021270171683179296 -0.01087086009540123 0.00781287138216512 0.03596535177046688 0.9902104430963939 -0.08489101159067666
 -0.0021255965694563714 -0.010870976542849653 0.0024454684075512667 0.017167895311045137 0.9902104430963939 -0.08489101159067666 0.00782624667799257 0.035964344803968464
0.1250521050438 0.00834119487753584 0.03802295744856327 0.9895116368120335 -0.0894984005209356 0.0027662720440712126 0.01805375661385396 -0.0023271088764203747 -0.01144181217620938
 0.9895116368120335 -0.0894984005209356 0.008355019581930403 0.03802186355969701 -0.0023286785068955696 -0.011441673864605694 0.002678432699758202 0.018067311233061576
 0.0027662720440712126 0.01805375661385396 -0.0023286785068955696 -0.011441673864605694 0.008340779912956751 0.03802458714936998 0.9895117343258152 -0.08949671659782474
 -0.0023271088764203747 -0.01144181217620938 0.002678432699758202 0.018067311233061576 0.9895117343258152 -0.08949671659782474 0.008355600764757517 0.0380234747314919
0.131304710296 0.008891913883540149 0.04009605175950551 0.9887835365589652 -0.09411656482473864 0.0030195953500709986 0.018949802295001924 -0.0025385030072095837 -0.012011294847441322
 0.9887835365589652 -0.09411656482473864 0.008907158424729627 0.04009484826275345 -0.0025402286616545695 -0.012011132412573962 0.0029227204333389144 0.01896514006623609
 0.0030195953500709986 0.018949802295001924 -0.0025402286616545695 -0.012011132412573962 0.00889145609620893 0.040097758829936374 0.9887836442615494 -0.094114794826972
 -0.0025385030072095837 -0.012011294847441322 0.0029227204333389144 0.01896514006623609 0.9887836442615494 -0.094114794826972 0.008907797410026891 0.04009653412249092
0.1375573155481 0.009343336807792866 0.04191247824425302 0.9881481780678533 -0.09847642173722708 0.003254393547554433 0.01981739419280954 -0.0027296021750446344 -0.012552647358469459
 0.9881481780678533 -0.09847642173722708 0.0093600756990991 0.0419111854784094 -0.0027314939277684825 -0.012552460469480121 0.0031482597066739954 0.01983450000838228
 0.003254393547554433 0.01981739419280954 -0.0027314939277684825 -0.012552460469480121 0.009342832951012934 0.0419142630383757 0.9881482964317433 -0.09847456550823504
 -0.0027296021750446344 -0.012552647358469459 0.0031482597066739954 0.01983450000838228 0.9881482964317433 -0.09847456550823504 0.009360776369932725 0.041912944517245906
0.1438099208003 0.009810755936674001 0.043718583377978765 0.9874902311953417 -0.10282446335168473 0.0034986688869261613 0.02068095129986301 -0.00292831850156323 -0.01309035457567215
 0.9874902311953417 -0.10282446335168473 0.009829060219859699 0.04371719644605116 -0.0029303838078756535 -0.013090141006516736 0.00338287237754493 0.020699959639245473
 0.0034986688869261613 0.02068095129986301 -0.0029303838078756535 -0.013090141006516736 0.009810203653807765 0.04372044545872722 0.9874903607886104 -0.10282252061658846
 -0.00292831850156323 -0.01309035457567215 0.00338287237754493 0.020699959639245473 0.9874903607886104 -0.10282252061658846 0.009829825379079796 0.0437190276962022
0.1500625260525 0.010293995100037992 0.04551419392137462 0.9868098766614203 -0.10716055874158777 0.003752330181062668 0.021540368230951925 -0.003134564434892767 -0.013624319442125273
 0.9868098766614203 -0.10716055874158777 0.010313936015975406 0.04551270761774554 -0.003136810725643937 -0.013624076878058108 0.003626469939222508 0.02156141848295051
 0.003752330181062668 0.021540368230951925 -0.003136810725643937 -0.013624076878058108 0.010293392009839251 0.04551613283911081 0.9868100180630923 -0.10715852921577845
 -0.003134564434892767 -0.013624319442125273 0.003626469939222508 0.02156141848295051 0.9868100180630923 -0.10715852921577845 0.010314768459671097 0.045514610069485366
0.15631513130469998 0.01079287673753897 0.047299141818303844 0.9861072962576658 -0.11148457794366938 0.004015285076284182 0.022395541537678008 -0.003348251269209341 -0.014154447085165573
 0.9861072962576658 -0.11148457794366938 0.010814525732139119 0.04729755061925765 -0.003350685950276398 -0.014154173123327563 0.0038789627634501886 0.02241877794469151
