! Created with skrf 1.8.0 (http://scikit-rf.org).
# GHz S RI R 50.0 
!freq ReS11 ImS11 ReS12 ImS12 ReS13 ImS13
! ReS14 ImS14
! ReS21 ImS21 ReS22 ImS22 ReS23 ImS23
! ReS24 ImS24
! ReS31 ImS31 ReS32 ImS32 ReS33 ImS33
! ReS34 ImS34
! ReS41 ImS41 ReS42 ImS42 ReS43 ImS43
! ReS44 ImS44
!
0.0 0.001327655655166 0.0 0.9986723443327 0.0 5.082812005688e-05 0.0 -5.082811921228e-05 6.2246493499998794e-21
 0.9986723443327 0.0 0.001327655655138 0.0 -5.082811921186e-05 6.2246493499484435e-21 5.082812005482e-05 0.0
 5.082812005688e-05 0.0 -5.082811921186e-05 6.2246493499484435e-21 0.001327655661187 0.0 0.9986723443388 0.0
 -5.082811921228e-05 6.2246493499998794e-21 5.082812005482e-05 0.0 0.9986723443388 0.0 0.001327655661182 0.0
0.005 0.0014279050829361802 0.0010869310777124027 0.9985456165137094 -0.0027816976533308817 7.078590187128702e-05 0.0005579016150832188 -6.886430423419434e-05 -0.0003506462992046059
 0.9985456165137094 -0.0027816976533308817 0.0014278950534853513 0.0010869368990902445 -6.886363923287714e-05 -0.00035064574330454786 7.084918921738281e-05 0.0005578775227430383
 7.078590187128702e-05 0.0005579016150832188 -6.886363923287714e-05 -0.00035064574330454786 0.001427905321326183 0.0010868636478943306 0.9985456161761969 -0.0027817647124365715
 -6.886430423419434e-05 -0.0003506462992046059 7.084918921738281e-05 0.0005578775227430383 0.9985456161761969 -0.0027817647124365715 0.0014278941465600767 0.0010868702171510844
0.006252605252188 0.0014540391245636294 0.0013629601741666265 0.9985124005852432 -0.003477827297258621 7.638266145651986e-05 0.00069765942423839 -7.38817080348283e-05 -0.0004387700080686763
 0.9985124005852432 -0.003477827297258621 0.00145402344711761 0.0013629675791026216 -7.388067357944476e-05 -0.0004387693215201298 7.648154298347722e-05 0.0006976281634707521
 7.638266145651986e-05 0.00069765942423839 -7.388067357944476e-05 -0.0004387693215201298 0.001454039569143761 0.001362875889352352 0.9985124001289939 -0.0034779111169455455
 -7.38817080348283e-05 -0.0004387700080686763 7.648154298347722e-05 0.0006976281634707521 0.9985124001289939 -0.0034779111169455455 0.001454022100646198 0.0013628842388007031
0.01250521050438 0.0015906922077469758 0.002754694103684607 0.9983377106958718 -0.006956607266583243 0.00010792475633114465 0.0013957506601862694 -0.0001019478391601937 -0.0008797663211087867
 0.9983377106958718 -0.006956607266583243 0.0015906296142229293 0.0027547102007772803 -0.00010194376656226539 -0.0008797650379238749 0.00010831909127977546 0.0013956758922537003
 0.00010792475633114465 0.0013957506601862694 -0.00010194376656226539 -0.0008797650379238749 0.0015906945458161977 0.002754525758285954 0.9983377094278872 -0.006956774679934911
 -0.0001019478391601937 -0.0008797663211087867 0.00010831909127977546 0.0013956758922537003 0.9983377094278872 -0.006956774679934911 0.0015906247881841754 0.0027545438511288635
0.01875781575657 0.0017378799023459537 0.004166492859196449 0.9981480812969554 -0.010444840228198202 0.00014552318598944178 0.00209476092686747 -0.00013510568476790284 -0.001322377663153112
 0.9981480812969554 -0.010444840228198202 0.0017377392658662393 0.0041665190130198365 -0.0001350966082478182 -0.0013223758869897824 0.0001464090624338391 0.002094628262713156
 0.00014552318598944178 0.00209476092686747 -0.0001350966082478182 -0.0013223758869897824 0.0017378855966293694 0.0041662405657002756 0.9981480788691628 -0.010445091156799223
 -0.00013510568476790284 -0.001322377663153112 0.0001464090624338391 0.002094628262713156 0.9981480788691628 -0.010445091156799223 0.0017377288374314222 0.004166269904902761
0.02501042100875 0.0018958611481160665 0.005596416247289142 0.9979433123432582 -0.013944250913419299 0.00018924730607234634 0.002794741761418969 -0.00017343241549192152 -0.001766424671169954
 0.9979433123432582 -0.013944250913419299 0.0018956114141249346 0.005596453889501381 -0.00017341639435791963 -0.0017664225215650762 0.00019082092674715568 0.00279453475814472
 0.00018924730607234634 0.002794741761418969 -0.00017341639435791963 -0.0017664225215650762 0.001895871665402731 0.005596080086359771 0.9979433084020316 -0.01394458534737932
 -0.00017343241549192152 -0.001766424671169954 0.00019082092674715568 0.00279453475814472 0.9979433084020316 -0.01394458534737932 0.0018955932571994777 0.0055961222723219795
0.03126302626094 0.002064884009103554 0.007043483035613278 0.9977231924501226 -0.01745559820317469 0.00023916699095965162 0.0034956813040328966 -0.00021700336769448858 -0.0022117876619093457
 0.9977231924501226 -0.01745559820317469 0.0020644941794665025 0.007043533662698396 -0.00021697848199708354 -0.002211785274518169 0.00024162486344629216 0.0034953814542787575
 0.00023916699095965162 0.0034956813040328966 -0.00021697848199708354 -0.002211785274518169 0.002064900824840037 0.00704306309767852 0.9977231866393358 -0.01745601615964418
 -0.00021700336769448858 -0.0022117876619093457 0.00024162486344629216 0.0034953814542787575 0.9977231866393358 -0.01745601615964418 0.0020644661680062778 0.007043119826270804
0.037515631513130004 0.0022451913702614544 0.00850706650295254 0.9974875047205007 -0.02097927952460624 0.0002953520460018443 0.004197542970928091 -0.00026589259364802087 -0.0026583679560426704
 0.9974875047205007 -0.02097927952460624 0.0022446304928031824 0.008507131675056973 -0.0002658569418892335 -0.002658365482705403 0.00029889107199935393 0.004197129682101821
 0.0002953520460018443 0.004197542970928091 -0.0002658569418892335 -0.002658365482705403 0.0022452159692668804 0.008506562899096003 0.9974874966808576 -0.02097978103707143
 -0.00026589259364802087 -0.0026583679560426704 0.00029889107199935393 0.004197129682101821 0.9974874966808576 -0.02097978103707143 0.0022445905013109856 0.00850663596071316
0.043768236765320004 0.0024370231508075812 0.009986710498196992 0.9972360290864141 -0.024515514732593367 0.00035787193406107805 0.004900277207140395 -0.0003201730679004032 -0.0031060761172768325
 0.9972360290864141 -0.024515514732593367 0.0024362603112405064 0.009986791838166089 -0.00032012476564506533 -0.003106073726019286 0.00036268945594703227 0.004899727777449767
 0.00035787193406107805 0.004900277207140395 -0.00032012476564506533 -0.003106073726019286 0.002437057030007467 0.009986123341385801 0.9972360184572828 -0.024516099869601616
 -0.0003201730679004032 -0.0031060761172768325 0.00036268945594703227 0.004899727777449767 0.9972360184572828 -0.024516099869601616 0.0024362062173966916 0.009986214620537425
0.050020842017509996 0.0026406173384039265 0.01148205339072345 0.9969685434740778 -0.028064422097862966 0.0004267956147592931 0.005603826340676366 -0.00037991677003854774 -0.003554827089455516
 0.9969685434740778 -0.028064422097862966 0.002639621653763736 0.011482152583424634 -0.00037985394902977613 -0.0035548249644707947 0.0004330894391079091 0.005603115933877734
 0.0004267956147592931 0.005603826340676366 -0.00037985394902977613 -0.0035548249644707947 0.002640662003967458 0.011481382817739087 0.9969685298892554 -0.02806509094108823
 -0.00037991677003854774 -0.003554827089455516 0.0004330894391079091 0.005603115933877734 0.9969685298892554 -0.02806509094108823 0.0026395513353705633 0.011481494292793987
0.055454545454549996 0.0028272831505266995 0.012794063663968673 0.9967229148252341 -0.03115886455045732 0.0004919461402770833 0.006215844528047853 -0.00043632784340567177 -0.003945587632443098
 0.9967229148252341 -0.03115886455045732 0.002826060055035444 0.012794179787383108 -0.00043625089993226744 -0.0039455859009905414 0.0004996839278326927 0.006214972379947861
 0.0004919461402770833 0.006215844528047853 -0.00043625089993226744 -0.0039455859009905414 0.0028273384225093743 0.01279332072110391 0.996722898372026 -0.031159606221846815
 -0.00043632784340567177 -0.003945587632443098 0.0004996839278326927 0.006214972379947861 0.996722898372026 -0.031159606221846815 0.0028259739164263227 0.012793451426533495
0.056273447269699996 0.0028562105276612173 0.012992790780151892 0.9966848244732938 -0.0316260555354918 0.0005021914316036579 0.006308126967755906 -0.0004451947134259588 -0.00400453780340585
 0.9966848244732938 -0.0316260555354918 0.0028549511397360262 0.012992909572016617 -0.000445115520874624 -0.004004536145038226 0.0005101598396647009 0.0063072285871980105
 0.0005021914316036579 0.006308126967755906 -0.000445115520874624 -0.004004536145038226 0.002856267497734292 0.012992036940538852 0.9966848075630198 -0.031626808190910495
 -0.0004451947134259588 -0.00400453780340585 0.0005101598396647009 0.0063072285871980105 0.9966848075630198 -0.031626808190910495 0.002854862478011866 0.012992170683678018
0.06252605252188 0.003084038221431794 0.01451865496746621 0.9963846477742833 -0.0352004250731802 0.0005841270260205298 0.007013111248128872 -0.000516076943931867 -0.0044551258750821394
 0.9963846477742833 -0.0352004250731802 0.0030824842915159077 0.014518795166012495 -0.0005159795420801916 -0.004455124899784767 0.0005939687746289483 0.007011995710531338
 0.0005841270260205298 0.007013111248128872 -0.0005159795420801916 -0.004455124899784767 0.0030841090258280114 0.014517818031075009 0.9963846271635244 -0.035201261663413835
 -0.000516076943931867 -0.0044551258750821394 0.0005939687746289483 0.007011995710531338 0.9963846271635244 -0.035201261663413835 0.0030823751707217606 0.01451797620842854
0.06877865777407 0.0033243349997269236 0.016059402726099313 0.9960677884727063 -0.03878750902078058 0.0006726692622137543 0.007718707688981005 -0.0005926325248295319 -0.004906508816860737
 0.9960677884727063 -0.03878750902078058 0.0033224557027639323 0.016059566199781685 -0.0005925150905861358 -0.004906508757176908 0.0006845835787563378 0.007717343598036263
 0.0006726692622137543 0.007718707688981005 -0.0005925150905861358 -0.004906508757176908 0.003324421180341193 0.01605848287658566 0.9960677637805305 -0.03878842969155687
 -0.0005926325248295319 -0.004906508816860737 0.0006845835787563378 0.007717343598036263 0.9960677637805305 -0.03878842969155687 0.0033223240110103872 0.016058667748444742
0.07503126302626001 0.003577334611020498 0.017614807544801422 0.995734021300105 -0.04238726166991887 0.0007678841608982169 0.008424841635790206 -0.0006749295108960527 -0.00535860354383549
 0.995734021300105 -0.04238726166991887 0.003575099130455241 0.01761499622285808 -0.0006747902355507917 -0.005358604648362256 0.0007820707336652097 0.008423195355753903
 0.0007678841608982169 0.008424841635790206 -0.0006747902355507917 -0.005358604648362256 0.0035774377224766173 0.017613804986033803 0.9957339921393893 -0.04238826658361716
 -0.0006749295108960527 -0.00535860354383549 0.0007820707336652097 0.008423195355753903 0.9957339921393893 -0.04238826658361716 0.003574942760690187 0.01761401890724328
0.08128386827845 0.003843270016395181 0.019184654468270904 0.9953831208097714 -0.0459996183978614 0.0008698368383952521 0.009131435594060232 -0.0007630349154961211 -0.005811326051336155
 0.9953831208097714 -0.0459996183978614 0.003840647538702787 0.019184870340809887 -0.0007628720045378026 -0.005811328584691654 0.0008864958031693874 0.009129471223389533
 0.0008698368383952521 0.009131435594060232 -0.0007628720045378026 -0.005811328584691654 0.003843391626584976 0.01918356942075552 0.9953830867866679 -0.04600070773698537
 -0.0007630349154961211 -0.005811326051336155 0.0008864958031693874 0.009129471223389533 0.9953830867866679 -0.04600070773698537 0.0038404643894525714 0.019183814841281763
0.08753647353064001 0.0041223734007360124 0.020768736519415795 0.9950148615321186 -0.049624499192084115 0.0009785914473787528 0.009838409462846478 -0.0008570146743652995 -0.006264591182886667
 0.9950148615321186 -0.049624499192084115 0.004119333110455181 0.020768981637515425 -0.0008568263472908576 -0.006264595425674266 0.0009979233713069667 0.009836088807926847
 0.0009785914473787528 0.009838409462846478 -0.0008568263472908576 -0.006264595425674266 0.004122515091178116 0.0207675692220507 0.9950148222453176 -0.04962567315745768
 -0.0008570146743652995 -0.006264591182886667 0.0009979233713069667 0.009836088807926847 0.9950148222453176 -0.04962567315745768 0.004119121086774084 0.020767848687532602
0.09378907878283 0.00441487616303189 0.02236685215099353 0.9946290181111999 -0.05326181114785791 0.0010942111206077784 0.01054568069314767 -0.0009569336051458045 -0.006718312475591307
 0.9946290181111999 -0.05326181114785791 0.004411387237354339 0.022367128627117334 -0.0009567180953733687 -0.0067183187243685496 0.0011164169835397493 0.0105429632421978
 0.0010942111206077784 0.01054568069314767 -0.0009567180953733687 -0.0067183187243685496 0.004415039529624737 0.02236560286060014 0.994628973151417 -0.053263069958857934
 -0.0009569336051458045 -0.006718312475591307 0.0011164169835397493 0.0105429632421978 0.994628973151417 -0.053263069958857934 0.004411144251666747 0.022365919013232972
0.100041684035 0.004721008890209065 0.023978803372731245 0.9942253654274246 -0.05691145029296387 0.0012167579150977115 0.011253164411554906 -0.0010628553650493897 -0.007172402042715474
 0.9942253654274246 -0.05691145029296387 0.0047170404938541 0.02397911338112259 -0.0010626109197741861 -0.007172410609959725 0.0012420390892608289 0.011250007308677312
 0.0012167579150977115 0.011253164411554906 -0.0010626109197741861 -0.007172410609959725 0.0047211955433550095 0.02397747236235423 0.9942253143765986 -0.056912794189155624
 -0.0010628553650493897 -0.007172402042715474 0.0012420390892608289 0.011250007308677312 0.9942253143765986 -0.056912794189155624 0.0047167644668722 0.023977827941790354
0.1059090909091 0.0050208829482916925 0.02550385746122281 0.993830182640805 -0.06034735984633128 0.0013381095127697688 0.011917178533309402 -0.0011677668569059925 -0.0075987722723147265
 0.993830182640805 -0.06034735984633128 0.005016436559123736 0.025504200969135974 -0.0011674936767822389 -0.0075987833135358835 0.0013664600157075476 0.011913567776092884
 0.0013381095127697688 0.011917178533309402 -0.0011674936767822389 -0.0075987833135358835 0.005021092931457213 0.02550245003054449 0.9938301254857921 -0.060348783819150216
 -0.0011677668569059925 -0.0075987722723147265 0.0013664600157075476 0.011913567776092884 0.9938301254857921 -0.060348783819150216 0.005016127643684171 0.0255028451872963
0.1062942892872 0.005041001319797651 0.02560439433739888 0.9938036787108402 -0.06057330295610121 0.0013462927581872684 0.0119607735098534 -0.001174842405915766 -0.007626770492792825
 0.9938036787108402 -0.06057330295610121 0.005036522599366155 0.025604740114721934 -0.0011745672860380392 -0.007626781706862628 0.0013748509854528538 0.011957131529355083
 0.0013462927581872684 0.0119607735098534 -0.0011745672860380392 -0.007626781706862628 0.005041212885006967 0.025602981899568198 0.9938036211418138 -0.06057473219371887
 -0.001174842405915766 -0.007626770492792825 0.0013748509854528538 0.011957131529355083 0.9938036211418138 -0.06057473219371887 0.005036211461239619 0.0256033797440025
0.11254689453939999 0.005375082292812667 0.027243430264926965 0.9933637336484602 -0.06424724680019933 0.001482875392601171 0.01266841872072583 -0.001292955928476398 -0.008081326865183138
 0.9933637336484602 -0.06424724680019933 0.005370062372149642 0.02724381411108107 -0.0012926484086153564 -0.008081341070280657 0.001514912761026066 0.012664244241667616
 0.001482875392601171 0.01266841872072583 -0.0012926484086153564 -0.008081341070280657 0.005375320411332066 0.027241936707578244 0.9933636691238432 -0.06424876165602009
 -0.001292955928476398 -0.008081326865183138 0.001514912761026066 0.012664244241667616 0.9933636691238432 -0.06424876165602009 0.005369714062887249 0.02724237975501041
0.11879949979160001 0.005723479701332205 0.02889571659594496 0.9929053064862468 -0.06793315162920414 0.0016265643230695152 0.013376008676263741 -0.0014172558348927238 -0.008535978585527303
 0.9929053064862468 -0.06793315162920414 0.00571788767567091 0.028896140874951355 -0.0014169142032816387 -0.008535996141664328 0.0016622832414368452 0.013371251657239736
 0.0016265643230695152 0.013376008676263741 -0.0014169142032816387 -0.008535996141664328 0.005723746030675185 0.028894142244678227 0.9929052345585397 -0.06793475239808144
 -0.0014172558348927238 -0.008535978585527303 0.0016622832414368452 0.013371251657239736 0.9929052345585397 -0.06793475239808144 0.005717500146804492 0.02889463353431684
0.1250521050438 0.006086420429111915 0.030561058326863275 0.9924281741283185 -0.07163088001636425 0.0017774167625039291 0.014083449955827285 -0.0015478006803618081 -0.008990631434462182
 0.9924281741283185 -0.07163088001636425 0.006080225359974169 0.03056152546799007 -0.0015474232388701997 -0.008990652717414876 0.001817019933722612 0.014078057910106396
 0.0017774167625039291 0.014083449955827285 -0.0015474232388701997 -0.008990652717414876 0.006086716643217847 0.0305594035244116 0.992428094338283 -0.07163256701142343
 -0.0015478006803618081 -0.008990631434462182 0.001817019933722612 0.014078057910106396 0.992428094338283 -0.07163256701142343 0.0060797965748160725 0.03055994619821036
0.131304710296 0.006464130287829854 0.0322392594738165 0.9919321142327299 -0.07534028780684517 0.0019354885783656544 0.014790647130493583 -0.0016846476237138868 -0.009445189522645156
 0.9919321142327299 -0.07534028780684517 0.006457301197700061 0.032239771972876884 -0.0016842326878149104 -0.009445214923925358 0.0019791789720320454 0.014784565101422769
 0.0019354885783656544 0.014790647130493583 -0.0016842326878149104 -0.009445214923925358 0.006464458078204378 0.032237524579370264 0.991932026110039 -0.07534206135990938
 -0.0016846476237138868 -0.009445189522645156 0.0019791789720320454 0.014784565101422769 0.991932026110039 -0.07534206135990938 0.006456829133220226 0.03223812188375948
0.1375573155481 0.00676518969247766 0.03371100656581184 0.9915085785036953 -0.07884202720147464 0.002079190679799395 0.01547502518537986 -0.001806160709720046 -0.009877123473986449
 0.9915085785036953 -0.07884202720147464 0.006757692457411638 0.03371155458429177 -0.0018057056673830409 -0.009877152971961033 0.0021270701937239483 0.015468266818330162
 0.002079190679799395 0.01547502518537986 -0.0018057056673830409 -0.009877152971961033 0.006765549945534739 0.03370919209342737 0.9915084816667474 -0.07884388751454426
 -0.001806160709720046 -0.009877123473986449 0.0021270701937239483 0.015468266818330162 0.9915084816667474 -0.07884388751454426 0.006757175739753393 0.03370983443764517
0.1438099208003 0.007076669744262106 0.035175851658220667 0.991070476032183 -0.08233575243116403 0.002228689969024073 0.016157177134249873 -0.0019325476333913792 -0.01030698851384539
 0.991070476032183 -0.08233575243116403 0.007068472828789957 0.0351764368794708 -0.0019320506526085799 -0.010307022491305794 0.0022809436517530713 0.01614969264434764
 0.002228689969024073 0.016157177134249873 -0.0019320506526085799 -0.010307022491305794 0.007077064030397628 0.03517395801788933 0.9910703700115518 -0.08233769983189544
 -0.0019325476333913792 -0.01030698851384539 0.0022809436517530713 0.01614969264434764 0.9910703700115518 -0.08233769983189544 0.007067909571500854 0.0351746478028792
0.1500625260525 0.00739847204027164 0.036633697630922606 0.9906179085219332 -0.08582140256740167 0.002383941160435803 0.01683705144477485 -0.0020637638131890774 -0.01073473413742747
 0.9906179085219332 -0.08582140256740167 0.0073895438471587565 0.036634321838354716 -0.0020632230637843527 -0.010734772992607534 0.002440753137695563 0.016828789239973527
 0.002383941160435803 0.01683705144477485 -0.0020632230637843527 -0.010734772992607534 0.007398901936885086 0.03663172524981314 0.9906177928374763 -0.08582343739652538
 -0.0020637638131890774 -0.01073473413742747 0.002440753137695563 0.016828789239973527 0.9906177928374763 -0.08582343739652538 0.007388932184285533 0.03663246500368789
0.15631513130469998 0.007730497610919797 0.038084450427618585 0.9901509780487056 -0.08929891640191906 0.0025448985112812637 0.01751459735055584 -0.0021997641895373813 -0.01116031082157263
