! Created with skrf 1.8.0 (http://scikit-rf.org).
# GHz S RI R 50.0 
!freq ReS11 ImS11 ReS12 ImS12 ReS13 ImS13
! ReS14 ImS14
! ReS21 ImS21 ReS22 ImS22 ReS23 ImS23
! ReS24 ImS24
! ReS31 ImS31 ReS32 ImS32 ReS33 ImS33
! ReS34 ImS34
! ReS41 ImS41 ReS42 ImS42 ReS43 ImS43
! ReS44 ImS44
!
0.0 0.001901560318232 0.0 0.9980984396704 0.0 7.391389149081e-05 0.0 -7.3913891224e-05 9.051841029999724e-21
 0.9980984396704 0.0 0.001901560318206 0.0 -7.391389122437e-05 9.051841030045036e-21 7.391389149037e-05 0.0
 7.391389149081e-05 0.0 -7.391389122437e-05 9.051841030045036e-21 0.001901560313984 0.0 0.9980984396662 0.0
 -7.3913891224e-05 9.051841029999724e-21 7.391389149037e-05 0.0 0.9980984396662 0.0 0.001901560313938 0.0
0.005 0.002047181755134075 0.0015549441201764224 0.997914001534624 -0.00398194015351798 0.00010417358298727438 0.0008112336125437109 -0.0001011268438469296 -0.0005095075594021435
 0.997914001534624 -0.00398194015351798 0.0020471796762178045 0.0015549452594765271 -0.00010112439943725991 -0.0005095056437313029 0.00010420827038341507 0.000811220582959936
 0.00010417358298727438 0.0008112336125437109 -0.00010112439943725991 -0.0005095056437313029 0.002047183600504889 0.0015550102822831779 0.9979140019154291 -0.003981873088611634
 -0.0001011268438469296 -0.0005095075594021435 0.00010420827038341507 0.000811220582959936 0.9979140019154291 -0.003981873088611634 0.0020471785945987784 0.0015550132323877111
0.006252605252188 0.002085754148526059 0.0019497414712295277 0.9978647831716213 -0.004978337311853338 0.00011301226400771758 0.0010144126749789646 -0.00010898276712665934 -0.0006375192792482368
 0.9978647831716213 -0.004978337311853338 0.002085750898839656 0.0019497428743412307 -0.00010897896378669036 -0.0006375169175557719 0.00011306646136611836 0.0010143957061294288
 0.00011301226400771758 0.0010144126749789646 -0.00010897896378669036 -0.0006375169175557719 0.002085756964315601 0.0019498241570650257 0.9978647836975904 -0.004978253493016855
 -0.00010898276712665934 -0.0006375192792482368 0.00011306646136611836 0.0010143957061294288 0.9978647836975904 -0.004978253493016855 0.0020857491381896438 0.0019498278368541512
0.01250521050438 0.0022910202212975657 0.003939733710511607 0.9976008810118531 -0.00995700837213986 0.0001647229702210863 0.0020290169219896424 -0.00015448218115296327 -0.001277870965169643
 0.9976008810118531 -0.00995700837213986 0.002291007247008639 0.003939736270203498 -0.00015446719730793123 -0.0012778666081630042 0.00016493915384966542 0.00202897554614603
 0.0001647229702210863 0.0020290169219896424 -0.00015446719730793123 -0.0012778666081630042 0.002291030933138937 0.003939898768830238 0.9976008825716749 -0.009956840999219304
 -0.00015448218115296327 -0.001277870965169643 0.00016493915384966542 0.00202897554614603 0.9976008825716749 -0.009956840999219304 0.0022909996702551883 0.003939906047883603
0.01875781575657 0.0025178839864994124 0.005957366278088285 0.9973063506933603 -0.014948033243763571 0.00022917776776398222 0.0030444255629133096 -0.00021056725251216856 -0.0019200766476298902
 0.9973063506933603 -0.014948033243763571 0.0025178548352121207 0.005957369664235846 -0.0002105338457631825 -0.0019200707455725209 0.00022966353799013618 0.0030443506840008992
 0.00022917776776398222 0.0030444255629133096 -0.0002105338457631825 -0.0019200707455725209 0.0025179076427025997 0.005957613510220177 0.997306353766838 -0.014947782450847153
 -0.00021056725251216856 -0.0019200766476298902 0.00022966353799013618 0.0030443506840008992 0.997306353766838 -0.014947782450847153 0.0025178373680307775 0.005957624323920188
0.02501042100875 0.002766850354476961 0.007999713622966802 0.9969807927324588 -0.019953727571735847 0.00030650916011509236 0.004060614634810402 -0.00027738624734906746 -0.002563784102486102
 0.9969807927324588 -0.019953727571735847 0.0027667985822079346 0.007999717416197354 -0.0002773272656564265 -0.002563777196693919 0.00030737223801260863 0.0040604955304015
 0.00030650916011509236 0.004060614634810402 -0.0002773272656564265 -0.002563777196693919 0.002766892016729074 0.0080000428533053 0.9969807978102387 -0.01995339345529187
 -0.00027738624734906746 -0.002563784102486102 0.00030737223801260863 0.0040604955304015 0.9969807978102387 -0.01995339345529187 0.0027667671652474254 0.008000057143947312
0.03126302626094 0.0030384029627578695 0.010065218092431046 0.9966237904657632 -0.024975019583680255 0.00039684882171431816 0.005077465382226669 -0.0003550818896252693 -0.003208725418608418
 0.9966237904657632 -0.024975019583680255 0.003038322124889679 0.010065221781581812 -0.0003549902565279978 -0.0032087181422085164 0.00039819714597754465 0.005077289688088096
 0.00039684882171431816 0.005077465382226669 -0.0003549902565279978 -0.0032087181422085164 0.0030384676905619436 0.010065629119047726 0.9966237980309551 -0.024974602251546817
 -0.0003550818896252693 -0.003208725418608418 0.00039819714597754465 0.005077289688088096 0.9966237980309551 -0.024974602251546817 0.0030382726953867628 0.010065646833718927
0.037515631513130004 0.003333013723453088 0.012152824603313492 0.9962349201038142 -0.030012315377225807 0.0005003262885056013 0.006094820593391346 -0.00044379234251566794 -0.003854660735763395
 0.9962349201038142 -0.030012315377225807 0.0033328973665461854 0.012152827583600798 -0.0004436610497619539 -0.003854653813830104 0.0005022680598167264 0.006094574282974311
 0.0005003262885056013 0.006094820593391346 -0.0004436610497619539 -0.003854653813830104 0.0033331065799335306 0.01215331721893623 0.9962349306367669 -0.03001181492683903
 -0.00044379234251566794 -0.003854660735763395 0.0005022680598167264 0.006094574282974311 0.9962349306367669 -0.03001181492683903 0.0033328258627853165 0.01215333830885042
0.043768236765320004 0.0036511464758547793 0.014261717333526056 0.9958137548906848 -0.035065762175252535 0.0006170683072149768 0.00711250175069211 -0.0005436515166852084 -0.004501361167336306
 0.9958137548906848 -0.035065762175252535 0.0036509881299209694 0.014261718904985352 -0.0005434736199426101 -0.004501355416863898 0.0006197120098914817 0.007112169112915855
 0.0006170683072149768 0.00711250175069211 -0.0005434736199426101 -0.004501355416863898 0.003651272528374679 0.014262291298004881 0.9958137688680452 -0.03506517872032553
 -0.0005436515166852084 -0.004501361167336306 0.0006197120098914817 0.007112169112915855 0.9958137688680452 -0.03506517872032553 0.003650890491604517 0.014262315718239297
0.050020842017509996 0.003993258646980371 0.016391210901470693 0.9953598672768751 -0.040135357094924 0.0007471984135912397 0.00813031614253627 -0.0006547891424046543 -0.005148601768206163
 0.9953598672768751 -0.040135357094924 0.0039930518179854425 0.016391210267505937 -0.0006545577586629934 -0.005148598098019487 0.0007506528256907163 0.008129879758694277
 0.0007471984135912397 0.00813031614253627 -0.0006545577586629934 -0.005148598098019487 0.003993422967884954 0.016391865955579746 0.9953598851713027 -0.04013469075070359
 -0.0006547891424046543 -0.005148601768206163 0.0007506528256907163 0.008129879758694277 0.9953598851713027 -0.04013469075070359 0.0039929239868113356 0.016391893665052858
0.055454545454549996 0.004310389753274497 0.01825806193897847 0.9949385189217168 -0.044554027386690453 0.0008712514796398735 0.009014778153467776 -0.0007606281778706861 -0.005711337870685412
 0.9949385189217168 -0.044554027386690453 0.004310135492596703 0.01825805866570472 -0.0007603447687761918 -0.005711336817646783 0.0008754989938163133 0.009014236121149984
 0.0008712514796398735 0.009014778153467776 -0.0007603447687761918 -0.005711336817646783 0.004310591453651756 0.01825878722596554 0.9949385406006854 -0.044553289114428005
 -0.0007606281778706861 -0.005711337870685412 0.0008754989938163133 0.009014236121149984 0.9949385406006854 -0.044553289114428005 0.004309978129123245 0.01825881776378626
0.056273447269699996 0.0043598020590074945 0.018540696981600352 0.9948728302442909 -0.045221000487762855 0.0008908366136269946 0.009148060373288969 -0.0007773307350080319 -0.005796158113793874
 0.9948728302442909 -0.045221000487762855 0.004359540221123546 0.018540693247994452 -0.000777039040857285 -0.005796157524439176 0.0008952108091944705 0.009147501093569921
 0.0008908366136269946 0.009148060373288969 -0.000777039040857285 -0.005796157524439176 0.004360009725639005 0.018541432833696386 0.9948728525242916 -0.04522025138352005
 -0.0007773307350080319 -0.005796158113793874 0.0008952108091944705 0.009147501093569921 0.9948728525242916 -0.04522025138352005 0.0043593781415670295 0.018541463795544465
0.06252605252188 0.004751223320355277 0.020709614959703457 0.9943522182219517 -0.05032252525054042 0.0010480991159078793 0.010165522315153207 -0.0009113975056656456 -0.006443804447979402
 0.9943522182219517 -0.05032252525054042 0.004750899907839798 0.020709607133686577 -0.000911038736235719 -0.006443808031590772 0.0010535024627923932 0.010164819234862727
 0.0010480991159078793 0.010165522315153207 -0.000911038736235719 -0.006443808031590772 0.0047514794153886266 0.020710431292942554 0.9943522453511269 -0.05032169352123199
 -0.0009113975056656456 -0.006443804447979402 0.0010535024627923932 0.010164819234862727 0.9943522453511269 -0.05032169352123199 0.004750699528286822 0.020710465475050115
0.06877865777407 0.005167963985989252 0.02289743445417884 0.9937976077764613 -0.055439714282019006 0.0012190980921767895 0.011182482296679905 -0.001057106241882535 -0.007091312605994318
 0.9937976077764613 -0.055439714282019006 0.005167572385983587 0.022897421443797927 -0.0010566736902597868 -0.007091321546159814 0.001225640246453693 0.01118161273230534
 0.0012190980921767895 0.011182482296679905 -0.0010566736902597868 -0.007091321546159814 0.005168273597659236 0.022898330921383696 0.9937976402132571 -0.0554388000725388
 -0.001057106241882535 -0.007091312605994318 0.001225640246453693 0.01118161273230534 0.9937976402132571 -0.0554388000725388 0.0051673296593880685 0.022898368297155223
0.07503126302626001 0.005610460580058228 0.025103644251910872 0.9932085781705804 -0.06057231153865081 0.0014039414557555918 0.012198713881597321 -0.0012145691688626584 -0.007738451359197385
 0.9932085781705804 -0.06057231153865081 0.005609994123891187 0.025103624865628605 -0.0012140561857250062 -0.007738466930800025 0.001411732353218335 0.012197653346823047
 0.0014039414557555918 0.012198713881597321 -0.0012140561857250062 -0.007738466930800025 0.005610828802855132 0.025104620473768754 0.9932086163685377 -0.060571315004503044
 -0.0012145691688626584 -0.007738451359197385 0.001411732353218335 0.012197653346823047 0.9932086163685377 -0.060571315004503044 0.00560970500978287 0.025104661023261598
0.08128386827845 0.006079144534138726 0.02732774496512202 0.9925847118435371 -0.06572002938326052 0.0016027326506069836 0.013213984414177923 -0.0013838937988571805 -0.008384986006086208
 0.9925847118435371 -0.06572002938326052 0.006078596489579263 0.027327717911625853 -0.0013832937924315963 -0.008385009575152362 0.0016118824963761607 0.013212706595806025
 0.0016027326506069836 0.013213984414177923 -0.0013832937924315963 -0.008385009575152362 0.006079576468000821 0.02732880052961496 0.9925847562498858 -0.06571895069010422
 -0.0013838937988571805 -0.008384986006086208 0.0016118824963761607 0.013212706595806025 0.9925847562498858 -0.06571895069010422 0.0060782569539270985 0.027328844240714183
0.08753647353064001 0.006574442065788848 0.029569243961493637 0.9919255948353108 -0.07088255367554863 0.0018155704477185466 0.014228055418994178 -0.0015651827728532294 -0.00903067812183397
 0.9919255948353108 -0.07088255367554863 0.006573805628752176 0.029569207849785315 -0.0015644892089356445 -0.009030711145355289 0.0018261897043139682 0.014226532152963307
 0.0018155704477185466 0.014228055418994178 -0.0015644892089356445 -0.009030711145355289 0.006574942816995262 0.029570378426232252 0.9919256458914838 -0.07088139299576277
 -0.0015651827728532294 -0.00903067812183397 0.0018261897043139682 0.014226532152963307 0.9919256458914838 -0.07088139299576277 0.006573411646490556 0.02957042529614171
0.09378907878283 0.007096774018868425 0.031827651772595986 0.9912308171784018 -0.07605954739961679 0.0020425487473559496 0.015240682918733608 -0.001758533696542749 -0.009675285403237524
 0.9912308171784018 -0.07605954739961679 0.007096042304924153 0.031827605112333526 -0.0017577400987439551 -0.009675329428988706 0.002054748121110558 0.015238884166072558
 0.0020425487473559496 0.015240682918733608 -0.0017577400987439551 -0.009675329428988706 0.007097348699582599 0.03182886465795237 0.991230875319322 -0.07605830491809422
 -0.001758533696542749 -0.009675285403237524 0.002054748121110558 0.015238884166072558 0.991230875319322 -0.07605830491809422 0.007095589860480279 0.03182891469501498
0.100041684035 0.0076465556750194815 0.03410247947087512 0.9904999732638674 -0.08125065333899777 0.002283756384764167 0.01625161769243368 -0.001964038973318592 -0.010318561586791045
 0.9904999732638674 -0.08125065333899777 0.007645721710869344 0.03410242067297001 -0.0019631389234261187 -0.010318618253117614 0.0022976468110499876 0.01624951151537163
 0.002283756384764167 0.01625161769243368 -0.0019631389234261187 -0.010318618253117614 0.007647209403202243 0.03410377026097627 0.9905000389173273 -0.08124932925099426
 -0.001964038973318592 -0.010318561586791045 0.0022976468110499876 0.01624951151537163 0.9905000389173273 -0.08124932925099426 0.0076452067993160394 0.034103823486598676
0.1059090909091 0.008187797517413544 0.036251660930070075 0.9897809947190717 -0.08613445641598119 0.002523120118157051 0.017198506826416556 -0.0021680157285324285 -0.010920774564698806
 0.9897809947190717 -0.08613445641598119 0.008186861173296518 0.03625158920977276 -0.0021670099994608137 -0.010920844663449876 0.0025386985025488713 0.017196081404709268
 0.002523120118157051 0.017198506826416556 -0.0021670099994608137 -0.010920844663449876 0.008188530083287494 0.036253024324303745 0.9897810678049419 -0.08613305593443055
 -0.0021680157285324285 -0.010920774564698806 0.0025386985025488713 0.017196081404709268 0.9897810678049419 -0.08613305593443055 0.008186284011557389 0.036253080575208846
0.1062942892872 0.008224196543470879 0.0363932367146014 0.9897326621903223 -0.08645549610019926 0.002539276940129942 0.017260605497320326 -0.0021817856342384876 -0.010960256416920292
 0.9897326621903223 -0.08645549610019926 0.008223253258207663 0.036393164092052975 -0.002180772772567679 -0.010960327452566707 0.0025549695675821564 0.01725815803542222
 0.002539276940129942 0.017260605497320326 -0.002180772772567679 -0.010960327452566707 0.008224934443034007 0.03639460485885915 0.9897327357768636 -0.08645409060858278
 -0.0021817856342384876 -0.010960256416920292 0.0025549695675821564 0.01725815803542222 0.9897327357768636 -0.08645409060858278 0.008222671886904735 0.036394661309843424
0.11254689453939999 0.008830100136496448 0.03869943028428077 0.9889284881003435 -0.09167368366143298 0.002809188550610661 0.01826738726944998 -0.002411855167477686 -0.011600115649574295
 0.9889284881003435 -0.09167368366143298 0.008829040352795005 0.0386993420534229 -0.0024107231933999636 -0.011600202873399437 0.002826794724199598 0.018264562715912383
 0.002809188550610661 0.01826738726944998 -0.0024107231933999636 -0.011600202873399437 0.008830927336957676 0.03870087519187995 0.9889285700326417 -0.09167219698110682
 -0.002411855167477686 -0.011600115649574295 0.002826794724199598 0.018264562715912383 0.9889285700326417 -0.09167219698110682 0.00882838854262391 0.038700934922913044
0.11879949979160001 0.009464663731768389 0.04102056294925406 0.9880870605068321 -0.09690480860840255 0.003093563725696574 0.019271699307840746 -0.002654323346862807 -0.012237881086212548
 0.9880870605068321 -0.09690480860840255 0.009463480156995423 0.04102045723112384 -0.002653066019375815 -0.012237986406990354 0.0031131949690111497 0.019268459885935375
 0.003093563725696574 0.019271699307840746 -0.002653066019375815 -0.012237986406990354 0.009465585368174715 0.0410220839920202 0.9880871511894874 -0.09690324096220636
 -0.002654323346862807 -0.012237881086212548 0.0031131949690111497 0.019268459885935375 0.9880871511894874 -0.09690324096220636 0.009462753943594745 0.041022147078476505
0.1250521050438 0.01012827812613036 0.0433561326028012 0.9872079946131103 -0.10214844911925569 0.0033924691648854533 0.020273273450601908 -0.0029092600606839794 -0.012873290630351109
 0.9872079946131103 -0.10214844911925569 0.010126963343165044 0.043356007424980254 -0.0029078711989876365 -0.01287341604650605 0.003414237161592999 0.02026957939019423
 0.0033924691648854533 0.020273273450601908 -0.0029078711989876365 -0.01287341604650605 0.010129299338818313 0.04335772911369578 0.9872080944418976 -0.10214680073817277
 -0.0029092600606839794 -0.012873290630351109 0.003414237161592999 0.02026957939019423 0.9872080944418976 -0.10214680073817277 0.01012615877854018 0.04335779565468042
0.131304710296 0.010821327382270327 0.04570563159226138 0.986290911625941 -0.10740416977191351 0.0037059655783831134 0.021271837245557243 -0.003176729141277445 -0.013506078363808858
 0.986290911625941 -0.10740416977191351 0.010819873840456046 0.045705484890863186 -0.0031752026254597628 -0.013506225963112921 0.003729982152528877 0.0212676467598834
 0.0037059655783831134 0.021271837245557243 -0.0031752026254597628 -0.013506225963112921 0.010822453316841481 0.045707302861039155 0.9862910209878262 -0.10740244089826756
 -0.003176729141277445 -0.013506078363808858 0.003729982152528877 0.0212676467598834 0.9862910209878262 -0.10740244089826756 0.010818986994003108 0.04570737298285584
0.1375573155481 0.011398222659995672 0.047763632538125544 0.9854814910448331 -0.11236639038096352 0.0039980934053824085 0.02223839514626409 -0.0034207518069702364 -0.014107308210009115
 0.9854814910448331 -0.11236639038096352 0.011396620969309363 0.04776346468090797 -0.0034190783481949896 -0.014107478477140776 0.004024408284140065 0.022233709213238348
 0.0039980934053824085 0.02223839514626409 -0.0034190783481949896 -0.014107478477140776 0.011399457566540856 0.0477653781676329 0.9854816103499747 -0.11236458124980005
 -0.0034207518069702364 -0.014107308210009115 0.004024408284140065 0.022233709213238348 0.9854816103499747 -0.11236458124980005 0.011395648779111105 0.047765453844199696
0.1438099208003 0.011995760791878068 0.0498082992959346 0.9846428733685173 -0.11731349053465481 0.0043019065828362605 0.023199491860432766 -0.003674404129894641 -0.014703491539881984
 0.9846428733685173 -0.11731349053465481 0.01199400292819825 0.04980810855467281 -0.0036725771262737343 -0.01470368656522115 0.004330620616085797 0.023194271801958946
 0.0043019065828362605 0.023199491860432766 -0.0036725771262737343 -0.01470368656522115 0.01199710966668053 0.049810118614892256 0.9846430029938541 -0.11731160140114953
 -0.003674404129894641 -0.014703491539881984 0.004330620616085797 0.023194271801958946 0.9846430029938541 -0.11731160140114953 0.011992941646402551 0.04981020030891727
0.1500625260525 0.012613690128517667 0.05183938709757016 0.9837753157919042 -0.12224527157521266 0.004617272506528568 0.024154980384856577 -0.003937556517737149 -0.015294490292373078
 0.9837753157919042 -0.12224527157521266 0.012611767929291381 0.051839171710359594 -0.0039355693880212 -0.015294712250993603 0.004648485973038566 0.0241491860578946
 0.004617272506528568 0.024154980384856577 -0.0039355693880212 -0.015294712250993603 0.012615157963623443 0.05184127940758894 0.9837754561056278 -0.12224330270407517
 -0.003937556517737149 -0.015294490292373078 0.004648485973038566 0.0241491860578946 0.9837754561056278 -0.12224330270407517 0.012610613835642244 0.0518413676354614
0.15631513130469998 0.013251756740930124 0.05385665853335178 0.982879077364205 -0.12716153735876445 0.004944056721734513 0.025104716896452488 -0.004210077527698745 -0.01588016989909067
 0.982879077364205 -0.12716153735876445 0.013249661901941972 0.05385641670894777 -0.004207923711781296 -0.015880421050251826 0.004977869322825102 0.02509830670446145
