! Created with skrf 1.8.0 (http://scikit-rf.org).
# GHz S RI R 50.0 
!freq ReS11 ImS11 ReS12 ImS12 ReS13 ImS13
! ReS14 ImS14
! ReS21 ImS21 ReS22 ImS22 ReS23 ImS23
! ReS24 ImS24
! ReS31 ImS31 ReS32 ImS32 ReS33 ImS33
! ReS34 ImS34
! ReS41 ImS41 ReS42 ImS42 ReS43 ImS43
! ReS44 ImS44
!
0.0 0.001258776569043 0.0 0.998741223431 0.0 4.80640723909e-05 0.0 -4.806407261304e-05 5.8861512679545396e-21
 0.998741223431 0.0 0.00125877656902 0.0 -4.806407261257e-05 5.8861512678969814e-21 4.806407239064e-05 0.0
 4.80640723909e-05 0.0 -4.806407261257e-05 5.8861512678969814e-21 0.001258776541141 0.0 0.9987412234031 0.0
 -4.806407261304e-05 5.8861512679545396e-21 4.806407239064e-05 0.0 0.9987412234031 0.0 0.00125877654114 0.0
0.005 0.0013536508972274881 0.0010304944403564586 0.998621304638332 -0.002637613741932666 6.691382258735637e-05 0.0005284981240005389 -6.50597792240409e-05 -0.00033203945001479004
 0.998621304638332 -0.002637613741932666 0.0013536561406708022 0.0010304914085925067 -6.505943435082701e-05 -0.0003320392429186692 6.687838709514147e-05 0.0005285115435988082
 6.691382258735637e-05 0.0005284981240005389 -6.505943435082701e-05 -0.0003320392429186692 0.0013536504386939337 0.001030427492301723 0.9986213042989993 -0.002637680804758508
 -6.50597792240409e-05 -0.00033203945001479004 6.687838709514147e-05 0.0005285115435988082 0.9986213042989993 -0.002637680804758508 0.001353655924060334 0.0010304242340987834
0.006252605252188 0.0013783328712489472 0.0012921989665927336 0.9985899428334941 -0.003297693373543215 7.218656637891114e-05 0.000660891889592065 -6.976557261230449e-05 -0.0004154899346108581
 0.9985899428334941 -0.003297693373543215 0.0013783410675924969 0.0012921951319152707 -6.97650354990406e-05 -0.000415489680349389 7.21312001702838e-05 0.0006609093096049591
 7.218656637891114e-05 0.000660891889592065 -6.97650354990406e-05 -0.000415489680349389 0.0013783322340835639 0.001292115291328301 0.9985899423829685 -0.0032977771990879835
 -6.976557261230449e-05 -0.0004154899346108581 7.21312001702838e-05 0.0006609093096049591 0.9985899423829685 -0.0032977771990879835 0.0013783408092982099 0.0012921111630432376
0.01250521050438 0.0015070956953922203 0.002611756165232697 0.9984254047803529 -0.006596369294905771 0.00010183019908396201 0.0013222127069740582 -9.59678291365549e-05 -0.0008331192445380097
 0.9984254047803529 -0.006596369294905771 0.0015071284191298512 0.0026117480475364918 -9.596570658410926e-05 -0.0008331187864015655 0.00010160937168258484 0.001322254420338374
 0.00010183019908396201 0.0013222127069740582 -9.596570658410926e-05 -0.0008331187864015655 0.0015070937186415652 0.002611589147345421 0.9984254035541704 -0.006596536693729139
 -9.59678291365549e-05 -0.0008331192445380097 0.00010160937168258484 0.001322254420338374 0.9984254035541704 -0.006596536693729139 0.0015071279686061502 0.002611580332909985
0.01875781575657 0.001645304311993126 0.0039504225049785515 0.9982474347857299 -0.009904097930639845 0.00013705697529652026 0.00198442988363585 -0.00012674244829021254 -0.0012523136293506318
 0.9982474347857299 -0.009904097930639845 0.0016453778338571898 0.00395040962801089 -0.00012673770661078863 -0.0012523130275207252 0.0001365608156097191 0.0019845039040550373
 0.00013705697529652026 0.00198442988363585 -0.00012673770661078863 -0.0012523130275207252 0.0016453002825242732 0.003950172328869724 0.9982474324524082 -0.009904348830336395
 -0.00012674244829021254 -0.0012523136293506318 0.0001365608156097191 0.0019845039040550373 0.9982474324524082 -0.009904348830336395 0.0016453772606181832 0.003950158230795725
0.02501042100875 0.001793193094219585 0.005306367713626147 0.9980558527012435 -0.01322252475880784 0.00017792988695043365 0.0026475975701174916 -0.000162159363524799 -0.0016729089128285656
 0.9980558527012435 -0.01322252475880784 0.0017933236466178514 0.005306349580265884 -0.00016215097851747648 -0.001672908238202574 0.00017704841693693183 0.0026477130051618275
 0.00017792988695043365 0.0026475975701174916 -0.00016215097851747648 -0.001672908238202574 0.0017931862942834995 0.005306034573433423 0.9980558489286774 -0.013222859109162363
 -0.000162159363524799 -0.0016729089128285656 0.00017704841693693183 0.0026477130051618275 0.9980558489286774 -0.013222859109162363 0.0017933230290799083 0.005306014561323714
0.03126302626094 0.0019509864414187313 0.006678671242488517 0.9978504677776618 -0.016552379636338457 0.0002245126267055365 0.0033117099208241608 -0.00020228693612149503 -0.002094797731299009
 0.9978504677776618 -0.016552379636338457 0.0019511902274240535 0.006678647336339051 -0.00020227389131819974 -0.0020947970656434983 0.0002231356558196476 0.003311876978305349
 0.0002245126267055365 0.0033117099208241608 -0.00020227389131819974 -0.0020947970656434983 0.0019509761509695974 0.006678255328835165 0.9978504622347074 -0.01655279742285917
 -0.00020228693612149503 -0.002094797731299009 0.0002231356558196476 0.003311876978305349 0.9978504622347074 -0.01655279742285917 0.0019511896553681004 0.0066782287407153446
0.037515631513130004 0.002118904090615119 0.008066749027621254 0.997631084077971 -0.019894049989737993 0.00027686899057338736 0.003976737776014963 -0.0002471924540906298 -0.0025178928396756744
 0.997631084077971 -0.019894049989737993 0.0021191972896315706 0.008066718814000224 -0.00024717373993715045 -0.0025178922757123886 0.00027488606547837095 0.003976967775672128
 0.00027686899057338736 0.003976737776014963 -0.00024717373993715045 -0.0025178922757123886 0.0021188895857238398 0.008066250549604298 0.9976310764320945 -0.019894551211970337
 -0.0002471924540906298 -0.0025178928396756744 0.00027488606547837095 0.003976967775672128 0.9976310764320945 -0.019894551211970337 0.0021191968620929225 0.008066216692693586
0.043768236765320004 0.002297163160276692 0.009470179070511153 0.9973975026245188 -0.023247755180313606 0.00033506259977034896 0.004642639825257205 -0.000296942327071009 -0.002942115936043472
 0.9973975026245188 -0.023247755180313606 0.002297561932857851 0.009470141997131701 -0.0002969169404536935 -0.0029421155775128708 0.0003323629778582675 0.004642945212120805
 0.00033506259977034896 0.004642639825257205 -0.0002969169404536935 -0.0029421155775128708 0.0022971437143902785 0.009469598257139245 0.997397492542371 -0.023248339850656035
 -0.000296942327071009 -0.002942115936043472 0.0003323629778582675 0.004642945212120805 0.997397492542371 -0.023248339850656035 0.0022975617590130695 0.009469556408313654
0.050020842017509996 0.0024859791207203275 0.010888629340402807 0.9971495224736464 -0.026613618545633506 0.00039915674324981674 0.005309367208275446 -0.00035160216530925127 -0.0033673930493267694
 0.9971495224736464 -0.026613618545633506 0.00248649961193205 0.01088858483802495 -0.000351569109225108 -0.0033673930110450566 0.00039562937853237774 0.005309761566727616
 0.00039915674324981674 0.005309367208275446 -0.000351569109225108 -0.0033673930110450566 0.0024859540032776246 0.010887966443175412 0.997149509619301 -0.026614286687116843
 -0.00035160216530925127 -0.0033673930493267694 0.00039562937853237774 0.005309761566727616 0.997149509619301 -0.026614286687116843 0.0024864998097521326 0.010887915849303103
0.055454545454549996 0.002658805875166526 0.01213328741811877 0.9969221696146192 -0.029548579497710586 0.00045969727575137666 0.005889401826962749 -0.00040314109108590855 -0.003737771865865659
 0.9969221696146192 -0.029548579497710586 0.002659445246309331 0.01213323598454539 -0.0004031005649854219 -0.003737772207770642 0.00045536015381484837 0.005889885432320784
 0.00045969727575137666 0.005889401826962749 -0.0004031005649854219 -0.003737772207770642 0.002658775234284391 0.01213255340601331 0.9969221540770362 -0.029549320208527144
 -0.00040314109108590855 -0.003737771865865659 0.00045536015381484837 0.005889885432320784 0.9969221540770362 -0.029549320208527144 0.002659445870770285 0.012132494577675295
0.056273447269699996 0.00268556629407185 0.012321822400459786 0.9968869413239618 -0.029991702716925146 0.00046921427048537636 0.005976865769964446 -0.00041123680969662273 -0.003793652273691311
 0.9968869413239618 -0.029991702716925146 0.0026862246374641558 0.01232176988328352 -0.00041119509313889525 -0.0037936526815974133 0.0004647478069175424 0.005977363838152141
 0.00046921427048537636 0.005976865769964446 -0.00041119509313889525 -0.0037936526815974133 0.0026855347727338208 0.012321077689712636 0.9968869253599187 -0.029992454367126747
 -0.00041123680969662273 -0.003793652273691311 0.0004647478069175424 0.005977363838152141 0.9968869253599187 -0.029992454367126747 0.002686225335122952 0.012321017567880925
0.06252605252188 0.0028961381424614722 0.013769515950276364 0.9966095559126396 -0.03338202902051638 0.0005452975099275965 0.006645077300351612 -0.000475910336316661 -0.004220822519193588
 0.9966095559126396 -0.03338202902051638 0.002896950462953839 0.013769454816380918 -0.00047585897415411497 -0.004220823510394619 0.0005397802797527182 0.006645694984776155
 0.0005452975099275965 0.006645077300351612 -0.00047585897415411497 -0.004220823510394619 0.002896099482895253 0.013768689718951704 0.9966095364990185 -0.03338286422798785
 -0.000475910336316661 -0.004220822519193588 0.0005397802797527182 0.006645694984776155 0.9966095364990185 -0.03338286422798785 0.0028969517984864523 0.013768619256679169
0.06877865777407 0.0031179074281355514 0.015231491220990547 0.9963171622872592 -0.036784589027621266 0.0006274682015027711 0.007313940268788328 -0.0005456860466048539 -0.00464883276956745
 0.9963171622872592 -0.036784589027621266 0.0031188898452777078 0.015231420852642114 -0.0005456240595206079 -0.004648834492383728 0.0006207882270303135 0.007314694658982655
 0.0006274682015027711 0.007313940268788328 -0.0005456240595206079 -0.004648834492383728 0.0031178608944115315 0.015230583785256602 0.9963171390817345 -0.036785507851640455
 -0.0005456860466048539 -0.00464883276956745 0.0006207882270303135 0.007314694658982655 0.9963171390817345 -0.036785507851640455 0.0031188919667735067 0.015230502140506193
0.07503126302626001 0.0033510863059933596 0.01670754562776416 0.996009556011732 -0.04019935184805208 0.0007157874380103064 0.00798339028845765 -0.00062062644802368 -0.005077611611225369
 0.996009556011732 -0.04019935184805208 0.003352254936901578 0.016707465391650654 -0.0006205528625045255 -0.005077614225235481 0.0007078324358004988 0.007984299671694011
 0.0007157874380103064 0.00798339028845765 -0.0006205528625045255 -0.005077614225235481 0.003351031160616518 0.01670655732997398 0.9960095286686758 -0.040200354355852994
 -0.00062062644802368 -0.005077611611225369 0.0007078324358004988 0.007984299671694011 0.9960095286686758 -0.040200354355852994 0.003352258002132487 0.016706463631229365
0.08128386827845 0.00359588637050522 0.018197487870452087 0.9956865323289342 -0.043626268977340545 0.0008103156107840404 0.008653360424839385 -0.0007007932295763515 -0.005507086919909263
 0.9956865323289342 -0.043626268977340545 0.0035972573328342354 0.018197397117865024 -0.0007007070779355546 -0.0055070905959842525 0.0008009729978954639 0.008654444300839871
 0.0008103156107840404 0.008653360424839385 -0.0007007070779355546 -0.0055070905959842525 0.0035958218758230906 0.01819641907657349 0.9956865004998653 -0.04362735524690642
 -0.0007007932295763515 -0.005507086919909263 0.0008009729978954639 0.008654444300839871 0.9956865004998653 -0.04362735524690642 0.003597261510351018 0.01819631242276691
0.08753647353064001 0.0038525186738064504 0.01970113455186159 0.9953478862960911 -0.04706527762772406 0.0009111123591417275 0.009323781408695933 -0.0007862472327537192 -0.0059371856445459455
 0.9953478862960911 -0.04706527762772406 0.00385410808896823 0.01970103261879341 -0.0007861475532017319 -0.005937190564883501 0.0009002692609374327 0.009325060504298778
 0.0009111123591417275 0.009323781408695933 -0.0007861475532017319 -0.005937190564883501 0.003852444091932169 0.019699985649652488 0.9953478496289085 -0.047066447749886636
 -0.0007862472327537192 -0.0059371856445459455 0.0009002692609374327 0.009325060504298778 0.9953478496289085 -0.047066447749886636 0.00385411355736766 0.0196998651100746
0.09378907878283 0.0041211937236988695 0.02121830774838133 0.9949934129026199 -0.05051630310880829 0.0010182365218443015 0.009994581788806568 -0.000877048419675127 -0.006367833653131139
 0.9949934129026199 -0.05051630310880829 0.004123017719477389 0.02121819395551974 -0.00087693425631908 -0.006367840011297406 0.0010057797810178284 0.009996078072575536
 0.0010182365218443015 0.009994581788806568 -0.00087693425631908 -0.006367840011297406 0.004121108316849261 0.02121707915388129 0.994993371041227 -0.05051755718092752
 -0.000877048419675127 -0.006367833653131139 0.0010057797810178284 0.009996078072575536 0.994993371041227 -0.05051755718092752 0.004123024667830081 0.021216943767943173
0.100041684035 0.004402121466629446 0.022748833240981058 0.9946229071751695 -0.05397926054964072 0.0011317460898184126 0.01066568804412894 -0.0009732558389755722 -0.006798955621055275
 0.9946229071751695 -0.05397926054964072 0.004404196180469634 0.022748706893697145 -0.0009731262419390361 -0.006798963622013111 0.0011175622765198098 0.010667424740874341
 0.0011317460898184126 0.01066568804412894 -0.0009731262419390361 -0.006798963622013111 0.0044020244981875295 0.022747525392452922 0.9946228597594268 -0.05398059868184985
 -0.0009732558389755722 -0.006798955621055275 0.0011175622765198098 0.010667424740874341 0.9946228597594268 -0.05398059868184985 0.004404204808652261 0.022747374169462032
0.1059090909091 0.004677072549777611 0.024197059730361264 0.9942604631452475 -0.05723964740358072 0.001244121108870625 0.011295661041010912 -0.0010685049735401513 -0.007203880706433989
 0.9942604631452475 -0.05723964740358072 0.004679397223645324 0.02419692095655746 -0.0010683600351194267 -0.007203890445564278 0.0012282132250606953 0.011297645594290397
 0.001244121108870625 0.011295661041010912 -0.0010683600351194267 -0.007203890445564278 0.004676964063075552 0.024195677934293912 0.9942604101858622 -0.0572410645234364
 -0.0010685049735401513 -0.007203880706433989 0.0012282132250606953 0.011297645594290397 0.9942604101858622 -0.0572410645234364 0.00467940761955392 0.024195510921786272
0.1062942892872 0.00469551126127875 0.024292539168297954 0.9942361642741634 -0.05745405620074802 0.0012516981599400997 0.011337024668010703 -0.0010749275898176796 -0.007230474949285811
 0.9942361642741634 -0.05745405620074802 0.004697852842888907 0.024292399556500564 -0.0010747816152687393 -0.007230484809422883 0.0012356735829355764 0.011339026273240734
 0.0012516981599400997 0.011337024668010703 -0.0010747816152687393 -0.007230484809422883 0.004695401995786793 0.024291152532142608 0.9942361109395206 -0.057455478510253365
 -0.0010749275898176796 -0.007230474949285811 0.0012356735829355764 0.011339026273240734 0.9942361109395206 -0.057455478510253365 0.004697863361648143 0.024290984450984248
0.11254689453939999 0.005001571842480953 0.02584925501093012 0.9938329795844166 -0.06094058840720923 0.0013781488892789108 0.012008514234522956 -0.0011821207846524672 -0.007662313702451532
 0.9938329795844166 -0.06094058840720923 0.005004196457203644 0.02584910140884821 -0.0011819574949616636 -0.007662325649608357 0.0013601696077633824 0.012010806528778948
 0.0013781488892789108 0.012008514234522956 -0.0011819574949616636 -0.007662325649608357 0.005001449546579316 0.025847790077784115 0.993832919961548 -0.06094209502233422
 -0.0011821207846524672 -0.007662313702451532 0.0013601696077633824 0.012010806528778948 0.993832919961548 -0.06094209502233422 0.005004209088159788 0.025847604086473356
0.11879949979160001 0.005320511280495166 0.027418810783069205 0.9934131488014769 -0.06443874837654166 0.001511153449636671 0.01268007745242847 -0.0012948915107907322 -0.008094392561259626
 0.9934131488014769 -0.06443874837654166 0.005323435112113296 0.027418642448960515 -0.0012947099745890507 -0.008094406834751553 0.0014911052859801455 0.012682687515496864
 0.001511153449636671 0.01268007745242847 -0.0012947099745890507 -0.008094406834751553 0.005320375223163918 0.027417268070680942 0.9934130825158817 -0.06444033943399
 -0.0012948915107907322 -0.008094392561259626 0.0014911052859801455 0.012682687515496864 0.9934130825158817 -0.06444033943399 0.005323450087980991 0.027417063085931514
0.1250521050438 0.005652536934153907 0.029001036405396405 0.9929764680146047 -0.06794842076768169 0.0016507659823816916 0.013351633207796886 -0.0014132947909679336 -0.008526630788419259
 0.9929764680146047 -0.06794842076768169 0.005655776188079679 0.029000852581164752 -0.0014130940832477116 -0.008526647639062367 0.001628534535503961 0.013354589432773012
 0.0016507659823816916 0.013351633207796886 -0.0014130940832477116 -0.008526647639062367 0.0056523863874304945 0.028999416455646142 0.9929763946863591 -0.06795009641561953
 -0.0014132947909679336 -0.008526630788419259 0.001628534535503961 0.013354589432773012 0.9929763946863591 -0.06795009641561953 0.005655793753100728 0.028999191362238757
0.131304710296 0.0059978554001402125 0.030595761188014388 0.9925227337875272 -0.07146948417226325 0.0017970395536017806 0.014023098600536587 -0.0015373845429224378 -0.008958946202828694
 0.9925227337875272 -0.07146948417226325 0.00600142630641584 0.03059556109875604 -0.0015371637451984958 -0.00895896589295 0.0017725102127924676 0.014026430707783498
 0.0017970395536017806 0.014023098600536587 -0.0015371637451984958 -0.00895896589295 0.00599768963974684 0.030594064569105305 0.9925226530309459 -0.07147124456830684
 -0.0015373845429224378 -0.008958946202828694 0.0017725102127924676 0.014026430707783498 0.9925226530309459 -0.07147124456830684 0.00600144671616547 0.030593818219292673
0.1375573155481 0.006270989675134957 0.031994382110863286 0.9921374485197816 -0.07479331813989126 0.0019298237783639104 0.014672887366100671 -0.0016470436138752798 -0.009369743518155144
 0.9921374485197816 -0.07479331813989126 0.006274910228948204 0.03199416909406332 -0.0016468015506920807 -0.009369766041968125 0.0019029416689684412 0.014676586825285687
 0.0019298237783639104 0.014672887366100671 -0.0016468015506920807 -0.009369766041968125 0.006270808707438611 0.0319926089748662 0.9921373599989324 -0.07479516336549431
 -0.0016470436138752798 -0.009369743518155144 0.0019029416689684412 0.014676586825285687 0.9921373599989324 -0.07479516336549431 0.006274932919609723 0.031992345050842204
0.1438099208003 0.006553500542982344 0.033386688783877724 0.9917390365305486 -0.07810979685830767 0.0020679752637891235 0.015320684041938011 -0.0017611030817557 -0.009778718490350563
 0.9917390365305486 -0.07810979685830767 0.006557787296964131 0.03338646229325861 -0.0017608387975525986 -0.00977874409897315 0.0020386362973011667 0.015324777635745884
 0.0020679752637891235 0.015320684041938011 -0.0017608387975525986 -0.00977874409897315 0.006553303781254615 0.03338483968093239 0.9917389398616742 -0.07811172706597744
 -0.0017611030817557 -0.009778718490350563 0.0020386362973011667 0.015324777635745884 0.9917389398616742 -0.07811172706597744 0.006557812391874441 0.03338455733107476
0.1500625260525 0.006845301734560009 0.03477259629234658 0.9913275870482687 -0.0814188700702831 0.0022114544999043808 0.015966443679488074 -0.0018795246392877731 -0.0101858278116451
 0.9913275870482687 -0.0814188700702831 0.006849971279507637 0.03477235574380451 -0.0018792371815662368 -0.010185856766032004 0.002179555085093497 0.015970959156738088
 0.0022114544999043808 0.015966443679488074 -0.0018792371815662368 -0.010185856766032004 0.00684508860416906 0.034770671792185105 0.9913274818428676 -0.08142088541986185
 -0.0018795246392877731 -0.0101858278116451 0.002179555085093497 0.015970959156738088 0.9913274818428676 -0.08142088541986185 0.006849998903167954 0.03477037011728627
0.15631513130469998 0.0071463065223210534 0.036152022465858094 0.9909031895833758 -0.08472048709627815 0.002360221605330289 0.01661012195562019 -0.0020022695937045956 -0.010591028997039032
