! Created with skrf 1.8.0 (http://scikit-rf.org).
# GHz S RI R 50.0 
!freq ReS11 ImS11 ReS12 ImS12 ReS13 ImS13
! ReS14 ImS14
! ReS21 ImS21 ReS22 ImS22 ReS23 ImS23
! ReS24 ImS24
! ReS31 ImS31 ReS32 ImS32 ReS33 ImS33
! ReS34 ImS34
! ReS41 ImS41 ReS42 ImS42 ReS43 ImS43
! ReS44 ImS44
!
0.0 0.001326445426653 0.0 0.9986735545733 0.0 5.125590690081e-05 0.0 -5.12559072565e-05 6.277038275906632e-21
 0.9986735545733 0.0 0.001326445426686 0.0 -5.125590725647e-05 6.277038275902958e-21 5.125590690163e-05 0.0
 5.125590690081e-05 0.0 -5.125590725647e-05 6.277038275902958e-21 0.001326445420972 0.0 0.9986735545676 0.0
 -5.12559072565e-05 6.277038275906632e-21 5.125590690163e-05 0.0 0.9986735545676 0.0 0.001326445421006 0.0
0.005 0.0014266986368174724 0.0010770490778835653 0.9985467794280458 -0.0027796713013182317 7.278383645238489e-05 0.0006161328359431345 -7.042210430409933e-05 -0.00037787044226183787
 0.9985467794280458 -0.0027796713013182317 0.0014267013890966517 0.001077047483837645 -7.042513248474609e-05 -0.0003778727811782864 7.275679328008838e-05 0.0006161431076729358
 7.278383645238489e-05 0.0006161328359431345 -7.042513248474609e-05 -0.0003778727811782864 0.0014266967074747282 0.0010769829698064185 0.9985467790932414 -0.002779738370448711
 -7.042210430409933e-05 -0.00037787044226183787 7.275679328008838e-05 0.0006161431076729358 0.9985467790932414 -0.002779738370448711 0.0014267026526069348 0.0010769794567531995
0.006252605252188 0.0014528340781370245 0.0013506100710145325 0.9985135429903454 -0.003475297604752504 7.884656546533327e-05 0.0007704510515452356 -7.57637587149796e-05 -0.00047284831117145904
 0.9985135429903454 -0.003475297604752504 0.0014528383802695447 0.0013506080338533109 -7.576847077133246e-05 -0.0004728511961684444 7.880431227579847e-05 0.0007704643836901431
 7.884656546533327e-05 0.0007704510515452356 -7.576847077133246e-05 -0.0004728511961684444 0.0014528311298590256 0.0013505274496022825 0.9985135425349826 -0.0034753814319901156
 -7.57637587149796e-05 -0.00047284831117145904 7.880431227579847e-05 0.0007704643836901431 0.9985135425349826 -0.0034753814319901156 0.0014528404236999245 0.0013505230077784948
0.01250521050438 0.0015894972778230205 0.002730062658911754 0.9983386986024675 -0.006951595725521565 0.00011315125429331588 0.001541167822205574 -0.00010569780061184375 -0.0009481456498266035
 0.9983386986024675 -0.006951595725521565 0.001589514454084521 0.002730058150192202 -0.00010571637042480966 -0.0009481510009225004 0.00011298274019136015 0.0015411997484262034
 0.00011315125429331588 0.001541167822205574 -0.00010571637042480966 -0.0009481510009225004 0.0015894860532633401 0.0027298977399740814 0.9983386973355379 -0.006951763122558461
 -0.00010569780061184375 -0.0009481456498266035 0.00011298274019136015 0.0015411997484262034 0.9983386973355379 -0.006951763122558461 0.0015895231710677186 0.0027298883409412906
0.01875781575657 0.0017367010372359886 0.004129641168933227 0.998148827374929 -0.010437398068421205 0.00015424294810147156 0.0023127462179327583 -0.00014114413568546954 -0.0014251588898782194
 0.998148827374929 -0.010437398068421205 0.0017367396291135854 0.004129633763337949 -0.00014118554815713828 -0.0014251662188632436 0.00015386435582522492 0.0023128029131102147
 0.00015424294810147156 0.0023127462179327583 -0.00014118554815713828 -0.0014251662188632436 0.0017366762341717928 0.004129394152261832 0.9981488249520636 -0.010437648963161095
 -0.00014114413568546954 -0.0014251588898782194 0.00015386435582522492 0.0023128029131102147 0.9981488249520636 -0.010437648963161095 0.0017367596533010528 0.0041293792194781465
0.02501042100875 0.001894705256501775 0.005547402225946891 0.9979437286382705 -0.013934428164583184 0.0002021959468803529 0.003085254732152068 -0.00018218635549534348 -0.0019036782947196129
 0.9979437286382705 -0.013934428164583184 0.0018947737857633584 0.005547391510089619 -0.00018225948958341685 -0.0019036870348251 0.00020152339620840888 0.0030853432476611637
 0.0002021959468803529 0.003085254732152068 -0.00018225948958341685 -0.0019036870348251 0.001894661571303638 0.0055470733443750055 0.9979437247067613 -0.01393476251094175
 -0.00018218635549534348 -0.0019036782947196129 0.00020152339620840888 0.0030853432476611637 0.9979437247067613 -0.01393476251094175 0.0018948097413219243 0.005547052247681374
0.03126302626094 0.002063758867263412 0.006982362033563795 0.9977231903785333 -0.017443442980228076 0.00025708537812535405 0.003858685263355504 -0.00022890587361516226 -0.002383566676611111
 0.9977231903785333 -0.017443442980228076 0.00206386584101678 0.006982347607147609 -0.00022901952092498938 -0.0023835761813212385 0.0002560348454342691 0.0038588135320422722
 0.00025708537812535405 0.003858685263355504 -0.00022901952092498938 -0.0023835761813212385 0.002063691004700828 0.006981951545828114 0.9977231845881329 -0.017443860765509227
 -0.00022890587361516226 -0.002383566676611111 0.0002560348454342691 0.0038588135320422722 0.9977231845881329 -0.017443860765509227 0.0020639223563220952 0.006981923602479215
0.037515631513130004 0.00224410556198301 0.008433891477981898 0.9974869950970819 -0.020964837761245525 0.0003189864014276125 0.004632999972016295 -0.00028138260907748197 -0.0028647125295075573
 0.9974869950970819 -0.020964837761245525 0.0022442594764331887 0.008433872954568345 -0.0002815454833895953 -0.0028647220721343394 0.0003174736820139885 0.0046331768173188135
 0.0003189864014276125 0.004632999972016295 -0.0002815454833895953 -0.0028647220721343394 0.0022440082289095736 0.008433399698216267 0.997486987094634 -0.020965338977050642
 -0.00028138260907748197 -0.0028647125295075573 0.0003174736820139885 0.0046331768173188135 0.997486987094634 -0.020965338977050642 0.0022443411801317498 0.008433364173162603
0.043768236765320004 0.002435986005792426 0.009901532095530739 0.9972349221535192 -0.024498830007383447 0.00038797385299033267 0.005408145515212296 -0.0003396952384362809 -0.003347015784223777
 0.9972349221535192 -0.024498830007383447 0.002436195349300598 0.00990150910344686 -0.0003399159814779318 -0.003347024557754544 0.0003859145416223206 0.005408380661619268
 0.00038797385299033267 0.005408145515212296 -0.0003399159814779318 -0.003347024557754544 0.0024358539148175034 0.009900959376068405 0.9972349115863878 -0.024499414667532755
 -0.0003396952384362809 -0.003347015784223777 0.0003859145416223206 0.005408380661619268 0.9972349115863878 -0.024499414667532755 0.002436306874991576 0.009900915481844897
0.050020842017509996 0.00263963887456018 0.011384919954262628 0.9969667489378264 -0.028045535530676183 0.0004641220381230105 0.006184058934233104 -0.0004039213019507807 -0.0038303819115822948
 0.9969667489378264 -0.028045535530676183 0.002639912130643932 0.011384892137233133 -0.00040420848712529635 -0.0038303890285823297 0.00046143151917658724 0.006184363018287631
 0.0004641220381230105 0.006184058934233104 -0.00040420848712529635 -0.0038303890285823297 0.0026394667407021494 0.011384266695446482 0.9969667354502906 -0.028046203661992865
 -0.0004039213019507807 -0.0038303819115822948 0.00046143151917658724 0.006184363018287631 0.9969667354502906 -0.028046203661992865 0.0026400581142952645 0.011384213591988355
0.055454545454549996 0.0028263643113019487 0.012686578408449691 0.9967204490270847 -0.031138095938799223 0.0005361697165760964 0.006858920821877171 -0.00046459752539810666 -0.00425123351747393
 0.9967204490270847 -0.031138095938799223 0.002826699997245535 0.012686546121611183 -0.0004649493623477815 -0.004251238411698818 0.0005328617743166174 0.006859294169852051
 0.0005361697165760964 0.006858920821877171 -0.0004649493623477815 -0.004251238411698818 0.002826153090181703 0.012685855524451953 0.9967204327114884 -0.031138836637928862
 -0.00046459752539810666 -0.00425123351747393 0.0005328617743166174 0.006859294169852051 0.9967204327114884 -0.031138836637928862 0.002826879694287436 0.012685793694551147
0.056273447269699996 0.002855301396068239 0.012883748343772788 0.9966822515465421 -0.031605005705661174 0.0005475045915675947 0.006960670531239579 -0.00047413724203770283 -0.004314719037966611
 0.9966822515465421 -0.031605005705661174 0.0028556470459883436 0.01288371536170547 -0.00047449937700674036 -0.00431472353053679 0.0005440980348582465 0.0069610551128330405
 0.0005475045915675947 0.006960670531239579 -0.00047449937700674036 -0.00431472353053679 0.002855083938341575 0.0128830149989142 0.9966822347812087 -0.031605757343698436
 -0.00047413724203770283 -0.004314719037966611 0.0005440980348582465 0.0069610551128330405 0.9966822347812087 -0.031605757343698436 0.002855832127837757 0.012882951793210605
0.06252605252188 0.0030832096492173226 0.014397747235211032 0.9963812052210126 -0.03517724795040471 0.000638194370039267 0.007737905456901404 -0.000550418408817093 -0.004799936351787828
 0.9963812052210126 -0.03517724795040471 0.0030836361746796733 0.01439770876473185 -0.0005508639373467182 -0.004799937171537785 0.0006339867305059291 0.0077383830306545325
 0.000638194370039267 0.007737905456901404 -0.0005508639373467182 -0.004799937171537785 0.0030829415903821248 0.014396934307054613 0.9963811848176147 -0.035178083143588015
 -0.000550418408817093 -0.004799936351787828 0.0006339867305059291 0.0077383830306545325 0.9963811848176147 -0.035178083143588015 0.003083864998823851 0.014396860052818445
0.06877865777407 0.0033235987314956038 0.015926671049341114 0.9960633846549686 -0.038762237900998454 0.0007362633637559147 0.008515684648807347 -0.0006328390457620007 -0.005285943161212928
 0.9960633846549686 -0.038762237900998454 0.003324114617286177 0.015926626784405706 -0.0006333763489711525 -0.005285939179255561 0.0007311693839253422 0.008516268655540418
 0.0007362633637559147 0.008515684648807347 -0.0006333763489711525 -0.005285939179255561 0.0033232747990232007 0.015925779093323676 0.9960633602509528 -0.03876315670814702
 -0.0006328390457620007 -0.005285943161212928 0.0007311693839253422 0.008516268655540418 0.9960633602509528 -0.03876315670814702 0.003324391833011113 0.01592569279039995
0.07503126302626001 0.003576702850996865 0.017470290887110083 0.9957285642302963 -0.042359927125618396 0.0008417826184338664 0.009293925431630481 -0.0007214722639000903 -0.005772648292431233
 0.9957285642302963 -0.042359927125618396 0.0035773165875329937 0.017470240539490464 -0.0007221096612333909 -0.005772638299378411 0.0008357168326440247 0.00929463026983116
 0.0008417826184338664 0.009293925431630481 -0.0007221096612333909 -0.005772638299378411 0.0035763177767582 0.01746932051373931 0.9957285354597237 -0.042360929614173426
 -0.0007214722639000903 -0.005772648292431233 0.0008357168326440247 0.00929463026983116 0.9957285354597237 -0.042360929614173426 0.0035776468484440055 0.017469221107633763
0.08128386827845 0.0038427553672682954 0.019028389374090567 0.9953765182032103 -0.045970248226852174 0.0009548221638063778 0.010072541910350383 -0.0008163900082642863 -0.0062599596972540816
 0.9953765182032103 -0.045970248226852174 0.003843475453372967 0.01902833267381631 -0.0008171357581095676 -0.006259942403225884 0.0009476989041326201 0.010073382947596818
 0.0009548221638063778 0.010072541910350383 -0.0008171357581095676 -0.006259942403225884 0.003842303888356784 0.019027341246955837 0.9953764846968904 -0.04597133447551296
 -0.0008163900082642863 -0.0062599596972540816 0.0009476989041326201 0.010073382947596818 0.9953764846968904 -0.04597133447551296 0.003843863418277004 0.019027227628159015
0.08753647353064001 0.004121988802006747 0.020600757081948896 0.9950070208633764 -0.04959311836942071 0.0010754509465165053 0.010851445249714575 -0.0009176630188972371 -0.006747784176935178
 0.9950070208633764 -0.04959311836942071 0.004122823747424102 0.02060069377765648 -0.0009185253190764743 -0.006747758211573938 0.0010671843498525257 0.010852438834105393
 0.0010754509465165053 0.010851445249714575 -0.0009185253190764743 -0.006747758211573938 0.004121465661330506 0.020599631919616255 0.9950069822484437 -0.04959428846694321
 -0.0009176630188972371 -0.006747784176935178 0.0010671843498525257 0.010852438834105393 0.9950069822484437 -0.04959428846694321 0.004123274080248154 0.020599502922931202
0.09378907878283 0.0044146348271022606 0.022187189978998725 0.9946198466724241 -0.053228441781430325 0.001203736765726486 0.011630543870592178 -0.0010253607881256534 -0.007236027191806751
 0.9946198466724241 -0.053228441781430325 0.004415593155285606 0.022187119838253833 -0.001026347776135717 -0.007235991104303176 0.0011942407817984828 0.011631707342016127
 0.001203736765726486 0.011630543870592178 -0.001026347776135717 -0.007235991104303176 0.004414034773503348 0.02218598855543354 0.994619802571761 -0.05322969582682081
 -0.0010253607881256534 -0.007236027191806751 0.0011942407817984828 0.011631707342016127 0.994619802571761 -0.05322969582682081 0.004416110525039166 0.022185842959179004
0.100041684035 0.004720924236623242 0.02378748755292453 0.9942147703887049 -0.056876111586253074 0.0013397462105315683 0.012409743596725033 -0.0011395515147831544 -0.007724592723068399
 0.9942147703887049 -0.056876111586253074 0.004722014487390066 0.02378741036247926 -0.0011406712679583291 -0.007724544982198059 0.0013289346109202922 0.012411095298187607
 0.0013397462105315683 0.012409743596725033 -0.0011406712679583291 -0.007724544982198059 0.004720242025890487 0.02378621069795975 0.9942147204207628 -0.056877449688939916
 -0.0011395515147831544 -0.007724592723068399 0.0013289346109202922 0.012411095298187607 0.9942147204207628 -0.056877449688939916 0.0047226035686449815 0.023786047223136802
0.1059090909091 0.005020957654377201 0.02530163010804422 0.9938181672232935 -0.060310187965892825 0.0014744594021827485 0.013140945779778219 -0.0012526722475560933 -0.008183266059830474
 0.9938181672232935 -0.060310187965892825 0.0050221794844195105 0.025301546125419114 -0.0012539238794414223 -0.008183205919277535 0.0014623346628036343 0.013142491701197185
 0.0014744594021827485 0.013140945779778219 -0.0012539238794414223 -0.008183205919277535 0.005020193585000818 0.02530028327557403 0.993818111398601 -0.06031160505434714
 -0.0012526722475560933 -0.008183266059830474 0.0014623346628036343 0.013142491701197185 0.993818111398601 -0.06031160505434714 0.005022840115797918 0.025300101808516964
0.1062942892872 0.005041086907446338 0.025401451403221104 0.9937915671833354 -0.060536011167522455 0.0014835445985518015 0.013188947769199618 -0.001260302056401052 -0.00821338316981095
 0.9937915671833354 -0.060536011167522455 0.005042317639770461 0.02540136696908704 -0.0012615625919533168 -0.008213322163968901 0.0014713309863507665 0.013190507057878977
 0.0014835445985518015 0.013188947769199618 -0.0012615625919533168 -0.008213322163968901 0.005040317302837543 0.02540010000448608 0.9937915109621476 -0.06053743344597008
 -0.001260302056401052 -0.00821338316981095 0.0014713309863507665 0.013190507057878977 0.9937915109621476 -0.06053743344597008 0.005042983112688562 0.025399917313887313
0.11254689453939999 0.005375351751212069 0.027028884164216012 0.9933500127495033 -0.06420801520651896 0.0016351959155114946 0.013968057333522747 -0.0013876778793828128 -0.008702299276108312
 0.9933500127495033 -0.06420801520651896 0.005376731546040106 0.027028792311834495 -0.0013890871543577492 -0.008702223313366902 0.0016214937356532233 0.013969844591867219
 0.0016351959155114946 0.013968057333522747 -0.0013890871543577492 -0.008702223313366902 0.005374489523846802 0.027027459167723353 0.9933499498835234 -0.06420952178833363
 -0.0013876778793828128 -0.008702299276108312 0.0016214937356532233 0.013969844591867219 0.9933499498835234 -0.06420952178833363 0.005377478096185704 0.027027255864879383
0.11879949979160001 0.005723946658730499 0.028669588659829808 0.9928898834062988 -0.06789199049105214 0.0017947627551074465 0.01474697091137027 -0.0015217430079457668 -0.009191240076514375
 0.9928898834062988 -0.06789199049105214 0.005725484121842489 0.028669489234010994 -0.0015233089191067802 -0.009191147384676034 0.001779485305392053 0.014749007558020234
 0.0017947627551074465 0.01474697091137027 -0.0015233089191067802 -0.009191147384676034 0.005722986588762119 0.02866809106957606 0.9928898134989872 -0.06789358151384774
 -0.0015217430079457668 -0.009191240076514375 0.001779485305392053 0.014749007558020234 0.9928898134989872 -0.06789358151384774 0.005726316440641898 0.028667865697764975
0.1250521050438 0.006087098439556908 0.030323367240684757 0.992410956200303 -0.07158779654509438 0.00196230625939491 0.015525584863154538 -0.0016625599718691833 -0.00968010285370493
 0.992410956200303 -0.07158779654509438 0.006088802204231353 0.03032326010558854 -0.0016642903554835717 -0.009679991580377406 0.0019453667018708382 0.015527893363709282
 0.00196230625939491 0.015525584863154538 -0.0016642903554835717 -0.009679991580377406 0.006086035316202844 0.030321798119417254 0.9924108788491627 -0.07158947215640471
 -0.0016625599718691833 -0.00968010285370493 0.0019453667018708382 0.015527893363709282 0.9924108788491627 -0.07158947215640471 0.006089724988677001 0.03032154916049218
0.131304710296 0.006465032756246359 0.03199002124852062 0.9919130090036995 -0.07529528613464574 0.002137886059414013 0.016303793337204314 -0.001810189753045567 -0.010168783112512505
 0.9919130090036995 -0.07529528613464574 0.006466911486392793 0.031989906287384164 -0.0018120923846787138 -0.010168651325187544 0.002119197432384577 0.016306397214876242
 0.002137886059414013 0.016303793337204314 -0.0018120923846787138 -0.010168651325187544 0.006463861379170888 0.03198838171676414 0.9919129238001021 -0.07529704649328986
 -0.001810189753045567 -0.010168783112512505 0.002119197432384577 0.016306397214876242 0.9919129238001021 -0.07529704649328986 0.006467929439370772 0.03198810758990149
0.1375573155481 0.006766495009856352 0.03344940916075905 0.9914873264604626 -0.07879429051243966 0.0022980825987812085 0.017058266055484456 -0.0019412368338552338 -0.010633947818003102
 0.9914873264604626 -0.07879429051243966 0.00676855856957082 0.03344929064560055 -0.0019433231835075395 -0.01063379559973717 0.002277602313537721 0.017061159385598164
 0.0022980825987812085 0.017058266055484456 -0.0019433231835075395 -0.01063379559973717 0.006765210666021403 0.033447700323631195 0.9914872330480854 -0.07879613569643747
 -0.0019412368338552338 -0.010633947818003102 0.002277602313537721 0.017061159385598164 0.9914872330480854 -0.07879613569643747 0.006769675813559714 0.03344740374822725
0.1438099208003 0.007078371183491003 0.034901837855366026 0.9910470046756888 -0.08228521117622907 0.0024647698734203746 0.017810286322738643 -0.002077558132497068 -0.011096887839100079
 0.9910470046756888 -0.08228521117622907 0.007080628469073692 0.03490171597096264 -0.002079836554364177 -0.011096713313774842 0.002442418825427674 0.01781349038866671
 0.0024647698734203746 0.017810286322738643 -0.002079836554364177 -0.011096713313774842 0.007076968774554615 0.034900060873948605 0.9910469026479359 -0.08228714133673623
 -0.002077558132497068 -0.011096887839100079 0.002442418825427674 0.01781349038866671 0.9910469026479359 -0.08228714133673623 0.007081849610228581 0.03489974052354777
0.1500625260525 0.007400561462459883 0.03634720882921331 0.9905921468217532 -0.08576798534212247 0.0026378978423553905 0.018559796313932734 -0.002219105199098468 -0.011557547947736672
 0.9905921468217532 -0.08576798534212247 0.007403021407834071 0.03634708375469805 -0.002221584033912801 -0.011557349164334894 0.002613597325705287 0.018563333169540407
 0.0026378978423553905 0.018559796313932734 -0.002221584033912801 -0.011557349164334894 0.007399035905440707 0.03634536490869586 0.9905920357669511 -0.08577000063868132
 -0.002219105199098468 -0.011557547947736672 0.002613597325705287 0.018563333169540407 0.9905920357669511 -0.08577000063868132 0.007404351051196864 0.036345019390379235
0.15631513130469998 0.0077329654350667704 0.037785426680658915 0.9901228564730755 -0.08924254999016056 0.0028174159495472882 0.01930673904148908 -0.0023658290543763917 -0.012015874005794847
