! Created with skrf 1.8.0 (http://scikit-rf.org).
# GHz S RI R 50.0 
!freq ReS11 ImS11 ReS12 ImS12 ReS13 ImS13
! ReS14 ImS14
! ReS21 ImS21 ReS22 ImS22 ReS23 ImS23
! ReS24 ImS24
! ReS31 ImS31 ReS32 ImS32 ReS33 ImS33
! ReS34 ImS34
! ReS41 ImS41 ReS42 ImS42 ReS43 ImS43
! ReS44 ImS44
!
0.0 0.001588497797439 0.0 0.9984115022025 0.0 6.146233186559e-05 0.0 -6.146233204221e-05 7.526964820362428e-21
 0.9984115022025 0.0 0.001588497797471 0.0 -6.146233204347e-05 7.526964820516734e-21 6.146233186482e-05 0.0
 6.146233186559e-05 0.0 -6.146233204347e-05 7.526964820516734e-21 0.001588497794623 0.0 0.9984115021997 0.0
 -6.146233204221e-05 7.526964820362428e-21 6.146233186482e-05 0.0 0.9984115021997 0.0 0.001588497794592 0.0
0.005 0.0017092496673433654 0.001297223632114992 0.9982587052685569 -0.003327488502784311 8.652094666442437e-05 0.0006901317260645383 -8.393669727495455e-05 -0.00043090252072363266
 0.9982587052685569 -0.003327488502784311 0.0017092602895330982 0.0012972173714863562 -8.39345936085133e-05 -0.0004309008711203916 8.646926374302902e-05 0.0006901515096354012
 8.652094666442437e-05 0.0006901317260645383 -8.39345936085133e-05 -0.0004309008711203916 0.0017092512773845216 0.0012972899093736984 0.9982587056323641 -0.0033274214493454897
 -8.393669727495455e-05 -0.00043090252072363266 8.646926374302902e-05 0.0006901515096354012 0.9982587056323641 -0.0033274214493454897 0.0017092593981204683 0.0012972851920591993
0.006252605252188 0.001740958602469285 0.0016266369388880002 0.9982183205690595 -0.004160168865958029 9.370326559096683e-05 0.0008629902677597084 -9.03020252596643e-05 -0.0005391856687994179
 0.9982183205690595 -0.004160168865958029 0.0017409752071135558 0.0016266289702782167 -9.029875203866862e-05 -0.0005391836342696305 9.3622517182974e-05 0.0008630159435446893
 9.370326559096683e-05 0.0008629902677597084 -9.029875203866862e-05 -0.0005391836342696305 0.0017409610437036545 0.001626719773462262 0.9982183210620607 -0.004160085051785003
 -9.03020252596643e-05 -0.0005391856687994179 9.3622517182974e-05 0.0008630159435446893 0.9982183210620607 -0.004160085051785003 0.0017409737373040228 0.0016267137440860821
0.01250521050438 0.0019081106455442248 0.0032873675991472403 0.9980039914791934 -0.008321106685996386 0.00013501446557819888 0.0017262808147733442 -0.00012652517552597356 -0.0010809697137989136
 0.9980039914791934 -0.008321106685996386 0.0019081769535393644 0.0032873502030634936 -0.00012651227930640595 -0.0010809659462322986 0.00013469249773308817 0.0017263424071638743
 0.00013501446557819888 0.0017262808147733442 -0.00012651227930640595 -0.0010809659462322986 0.0019081198377908855 0.003287532921301206 0.9980039928894531 -0.008320939269903623
 -0.00012652517552597356 -0.0010809697137989136 0.00013469249773308817 0.0017263424071638743 0.9980039928894531 -0.008320939269903623 0.0019081705157654725 0.003287519529121855
0.01875781575657 0.0020903280818285776 0.004971721175118859 0.9977682420284916 -0.012492932272152075 0.0001854927489370772 0.0025904563221015578 -0.0001702454361113553 -0.0016245477971749672
 0.9977682420284916 -0.012492932272152075 0.0020904770896797036 0.004971692748073622 -0.00017021668162577053 -0.001624542656786868 0.000184769573819185 0.002590566141846637
 0.0001854927489370772 0.0025904563221015578 -0.00017021668162577053 -0.001624542656786868 0.0020903483201559136 0.004971968679805905 0.9977682447779112 -0.012492681316697094
 -0.0001702454361113553 -0.0016245477971749672 0.000184769573819185 0.002590566141846637 0.9977682447779112 -0.012492681316697094 0.002090462181584548 0.004971946517997023
0.02501042100875 0.002287973475378437 0.006677324234016312 0.9975107883195853 -0.0166776554230375 0.00024523636520333407 0.0034555479399082443 -0.0002215725423210677 -0.002169662719591844
 0.9975107883195853 -0.0166776554230375 0.0022882381185047374 0.006677283037661306 -0.00022152177037324566 -0.002169656631671233 0.00024395199162620154 0.003455720292658445
 0.00024523636520333407 0.0034555479399082443 -0.00022152177037324566 -0.002169656631671233 0.0022880090501987463 0.006677653566372291 0.9975107928345882 -0.016677320934247144
 -0.0002215725423210677 -0.002169662719591844 0.00024395199162620154 0.003455720292658445 0.9975107928345882 -0.016677320934247144 0.0022882112334965364 0.006677621161262531
0.03126302626094 0.00250139438860855 0.00840294906559751 0.997231332312994 -0.02087612854993622 0.0003143439630412529 0.004321505540425791 -0.00028061298156472307 -0.0027161321524414453
 0.997231332312994 -0.02087612854993622 0.002501807558276034 0.008402893227813988 -0.00028053409620492454 -0.0027161256080821808 0.0003123382481785581 0.004321756736666603
 0.0003143439630412529 0.004321505540425791 -0.00028053409620492454 -0.0027161256080821808 0.0025014495852230378 0.008403359813919804 0.997231339023892 -0.020875710483829975
 -0.00028061298156472307 -0.0027161321524414453 0.0003123382481785581 0.004321756736666603 0.997231339023892 -0.020875710483829975 0.002501765181460937 0.008403315626551165
0.037515631513130004 0.002730930750931693 0.010147790397935808 0.9969295694483886 -0.025088769899889517 0.00039291358928367464 0.0051882467810605475 -0.00034747077071107694 -0.0032637995806505333
 0.9969295694483886 -0.025088769899889517 0.0027315253043017117 0.010147717912904619 -0.0003473577325964656 -0.0032637931369493838 0.00039002617348170304 0.005188595154827634
 0.00039291358928367464 0.0051882467810605475 -0.0003473577325964656 -0.0032637931369493838 0.0027310098479413417 0.010148282071247666 0.9969295787892182 -0.025088268184267293
 -0.00034747077071107694 -0.0032637995806505333 0.00039002617348170304 0.005188595154827634 0.9969295787892182 -0.025088268184267293 0.0027314639100252417 0.010148224498156085
0.043768236765320004 0.0029769177031182567 0.0119112453001115 0.9966051917448673 -0.02931578358201753 0.00048104221510630326 0.006055672030029258 -0.00042224773001836585 -0.0038125193843658338
 0.9966051917448673 -0.02931578358201753 0.002977726471693607 0.0119111540278897 -0.0004220945525724406 -0.0038125136644637913 0.00047711249268593406 0.006056137960269303
 0.00048104221510630326 0.006055672030029258 -0.0004220945525724406 -0.0038125136644637913 0.002977024972911144 0.011911817323735073 0.9966052041549527 -0.02931519812015279
 -0.00042224773001836585 -0.0038125193843658338 0.00047711249268593406 0.006056137960269303 0.9966052041549527 -0.02931519812015279 0.00297764252293537 0.011911744697494415
0.050020842017509996 0.00323968691474946 0.013692822195987137 0.9962578893771876 -0.03355725048118674 0.0005788254491171686 0.006923670534789274 -0.0005050435775055626 -0.004362150680625658
 0.9962578893771876 -0.03355725048118674 0.0032407427108373348 0.013692709861926678 -0.0005048443244311418 -0.004362146373702667 0.0005736925578831752 0.006924276467866683
 0.0005788254491171686 0.006923670534789274 -0.0005048443244311418 -0.004362146373702667 0.0032398266225564885 0.013693473919153107 0.996257905302411 -0.03355658114349315
 -0.0005050435775055626 -0.004362150680625658 0.0005736925578831752 0.006924276467866683 0.996257905302411 -0.03355658114349315 0.00324063265787853 0.013693384508768653
0.055454545454549996 0.003481926048335984 0.015255452643593596 0.9959372141432057 -0.03725495471362536 0.0006717158435692883 0.007678360957890067 -0.00058358387322978 -0.004840429087124542
 0.9959372141432057 -0.03725495471362536 0.003483223156269239 0.015255320053500478 -0.0005833397958187909 -0.00484042661907265 0.0006654065240885271 0.007679108409753746
 0.0006717158435692883 0.007678360957890067 -0.0005833397958187909 -0.00484042661907265 0.0034820974036183336 0.015256173031188973 0.9959372334909946 -0.03725421236320039
 -0.00058358387322978 -0.004840429087124542 0.0006654065240885271 0.007679108409753746 0.9959372334909946 -0.03725421236320039 0.003483087524918204 0.01525606757986145
0.056273447269699996 0.003519567253326509 0.015492096241691953 0.9958873516094912 -0.0378131728098012 0.0006863573318080703 0.007792123448747986 -0.0005959559436321663 -0.004912554310681738
 0.9958873516094912 -0.0378131728098012 0.0035209028762881785 0.015491960435458765 -0.0005957047272281953 -0.004912552171905292 0.0006798601543812487 0.007792893921339173
 0.0006863573318080703 0.007792123448747986 -0.0005957047272281953 -0.004912552171905292 0.0035197436566664826 0.015492826927491462 0.9958873715031616 -0.037812419443072426
 -0.0005959559436321663 -0.004912554310681738 0.0006798601543812487 0.007792893921339173 0.9958873715031616 -0.037812419443072426 0.003520763156304893 0.015492718938568724
0.06252605252188 0.0038168851412620644 0.017308684767987338 0.9954932674194528 -0.04208349859803841 0.0008037301708097787 0.008660905500634123 -0.000695080345560443 -0.005463591189105638
 0.9954932674194528 -0.04208349859803841 0.00381853338269851 0.017308522942565276 -0.0006947713256205589 -0.005463592039584163 0.0007957073432361418 0.008661867162744702
 0.0008037301708097787 0.008660905500634123 -0.0006947713256205589 -0.005463592039584163 0.0038171024885949546 0.01730949359542853 0.9954932917432814 -0.04208266102274677
 -0.000695080345560443 -0.005463591189105638 0.0007957073432361418 0.008661867162744702 0.9954932917432814 -0.04208266102274677 0.003818360418364989 0.017309365170170475
0.06877865777407 0.004131964735219367 0.019142232649964938 0.9950753259502929 -0.04636813626133029 0.0009310343988117702 0.009529885996034642 -0.0008025101378286856 -0.006015121325639596
 0.9950753259502929 -0.04636813626133029 0.004133958384545393 0.019142042120361382 -0.0008021375208669547 -0.006015126052351671 0.0009213243248010515 0.009531067633986498
 0.0009310343988117702 0.009529885996034642 -0.0008021375208669547 -0.006015126052351671 0.0041322272647107035 0.01914311871432735 0.9950753551750439 -0.04636721427060017
 -0.0008025101378286856 -0.006015121325639596 0.0009213243248010515 0.009531067633986498 0.9950753551750439 -0.04636721427060017 0.004133748583053325 0.019142967931390732
0.07503126302626001 0.004465128004663569 0.02099240303256564 0.9946332168658611 -0.050666963817225845 0.0010683584451924785 0.010398929454111442 -0.0009183364484342384 -0.006567003217083781
 0.9946332168658611 -0.050666963817225845 0.004467499853939455 0.02099218097439824 -0.0009178944872012897 -0.006567012772812786 0.001056799314220105 0.010400362013353577
 0.0010683584451924785 0.010398929454111442 -0.0009178944872012897 -0.006567012772812786 0.004465439942848277 0.02099336534506467 0.9946332514719937 -0.05066595717647943
 -0.0009183364484342384 -0.006567003217083781 0.001056799314220105 0.010400362013353577 0.9946332514719937 -0.05066595717647943 0.004467249605879014 0.02099319021925385
0.08128386827845 0.004816694745524058 0.022858871167920496 0.9941666306442625 -0.05497983499605037 0.0012157886155033566 0.011267896043066813 -0.001042648105801231 -0.007119093445876663
 0.9941666306442625 -0.05497983499605037 0.004819477594577642 0.02285861461571288 -0.001042131098964589 -0.007119108849125018 0.0012022184242341445 0.011269612650767652
 0.0012157886155033566 0.011267896043066813 -0.001042131098964589 -0.007119108849125018 0.004817060306564445 0.022859908647315887 0.9941666711241314 -0.054978743450861026
 -0.001042648105801231 -0.007119093445876663 0.0012022184242341445 0.011269612650767652 0.9941666711241314 -0.054978743450861026 0.004819183273741103 0.022859707129010365
0.08753647353064001 0.00518698255168804 0.024741320141972986 0.9936752588341137 -0.059306583468351555 0.0013734089765909147 0.012136641884307032 -0.0011755315590445202 -0.007671246415708686
 0.9936752588341137 -0.059306583468351555 0.0051902092129787435 0.024741025987403378 -0.0011749338510732802 -0.007671268750610093 0.0013576655527484317 0.01213867787156865
 0.0013734089765909147 0.012136641884307032 -0.0011749338510732802 -0.007671268750610093 0.005187405935363222 0.0247424316234241 0.9936753056914284 -0.05930540673503553
 -0.0011755315590445202 -0.007671246415708686 0.0013576655527484317 0.01213867787156865 0.9936753056914284 -0.05930540673503553 0.005189867174405947 0.024742201597902334
0.09378907878283 0.005576306755239885 0.02663943783373555 0.9931587942826219 -0.06364702584606773 0.0015413012453098277 0.013005019280083572 -0.0013170707935141308 -0.00822331416936621
 0.9931587942826219 -0.06364702584606773 0.005580010058554113 0.026639102823581697 -0.0013163867745846491 -0.008223344585592419 0.0015232222738511241 0.013007412203888532
 0.0015413012453098277 0.013005019280083572 -0.0013163867745846491 -0.008223344585592419 0.005576792146075142 0.02664062206250327 0.9931588480345444 -0.0636457636175207
 -0.0013170707935141308 -0.00822331416936621 0.0015232222738511241 0.013007412203888532 0.9931588480345444 -0.0636457636175207 0.005579616638635029 0.0266403613490283
0.100041684035 0.005984980346929787 0.028552914688949448 0.9926169313481441 -0.06800096387617638 0.0017195446793906901 0.013872876889304503 -0.0014673472432831006 -0.008775146264541947
 0.9926169313481441 -0.06800096387617638 0.005989193144171182 0.02855253542283523 -0.0014665713493454953 -0.00877518597720236 0.0016989677303789385 0.013875666554015037
 0.0017195446793906901 0.013872876889304503 -0.0014665713493454953 -0.00877518597720236 0.005985531912104535 0.028554170323401466 0.9926169925252994 -0.06799961581835157
 -0.0014673472432831006 -0.008775146264541947 0.0016989677303789385 0.013875666554015037 0.9926169925252994 -0.06799961581835157 0.005988744659006656 0.028553876674109007
0.1059090909091 0.006386351894115275 0.03036220380048407 0.9920850801429174 -0.07209875886349776 0.0018962898583911696 0.014686658579639194 -0.0016163823766063552 -0.009292631562504925
 0.9920850801429174 -0.07209875886349776 0.006391072699758607 0.030361779779058747 -0.001615515248188966 -0.009292681162194257 0.0018732210177809592 0.014689858765689125
 0.0018962898583911696 0.014686658579639194 -0.001615515248188966 -0.009292681162194257 0.006386969330982522 0.030363525137604954 0.9920851487844574 -0.0720973299423937
 -0.0016163823766063552 -0.009292631562504925 0.0018732210177809592 0.014689858765689125 0.9920851487844574 -0.0720973299423937 0.006390569173059337 0.030363198476186487
0.1062942892872 0.006413313879128885 0.030481442047341104 0.9920493660975884 -0.0723681860872724 0.0019082159705080407 0.014740059867528677 -0.0016264397005253588 -0.009326589691549394
 0.9920493660975884 -0.0723681860872724 0.006418069049222849 0.030481014975350974 -0.001625566413458396 -0.009326639981069543 0.001884978528696937 0.014743288345944225
 0.0019082159705080407 0.014740059867528677 -0.001625566413458396 -0.009326639981069543 0.006413935767977996 0.030482767652602147 0.9920494352463604 -0.07236675184532688
 -0.0016264397005253588 -0.009326589691549394 0.001884978528696937 0.014743288345944225 0.9920494352463604 -0.07236675184532688 0.006417561794511539 0.030482438751182783
0.11254689453939999 0.006861615358621353 0.032424710862239636 0.9914557964985662 -0.0767484690513816 0.002107389138109493 0.015606409984507888 -0.0017944242234969362 -0.009877488819725697
 0.9914557964985662 -0.0767484690513816 0.006866945811998339 0.03242423228223421 -0.0017934480712915924 -0.009877551031726536 0.0020813286340018913 0.015610121638473548
 0.002107389138109493 0.015606409984507888 -0.0017934480712915924 -0.009877551031726536 0.006862311700245078 0.032426104916311 0.9914558741809437 -0.07674694824306298
 -0.0017944242234969362 -0.009877488819725697 0.0020813286340018913 0.015610121638473548 0.9914558741809437 -0.07674694824306298 0.006866376061398129 0.032425738376532225
0.11879949979160001 0.007330190128516324 0.03438241071597215 0.9908359226019742 -0.08114157835706354 0.0023171354247536113 0.016471765725983238 -0.0019713740426396424 -0.01042768536606958
 0.9908359226019742 -0.08114157835706354 0.0073361288119779865 0.03438187677076452 -0.0019702895996040613 -0.010427760911246399 0.0022880892668667545 0.016476007226455435
 0.0023171354247536113 0.016471765725983238 -0.0019702895996040613 -0.010427760911246399 0.007330965030504709 0.03438387160589217 0.990836009397009 -0.081139970576458
 -0.0019713740426396424 -0.01042768536606958 0.0022880892668667545 0.016476007226455435 0.990836009397009 -0.081139970576458 0.007335492816714105 0.03438346496976484
0.1250521050438 0.007819340743087278 0.036354229039514706 0.9901894467217935 -0.08554726938605123 0.002537523191761209 0.01733596238411767 -0.0021573594657322615 -0.010977018381712592
 0.9901894467217935 -0.08554726938605123 0.007825920644430951 0.03635363571375918 -0.002156161352795034 -0.010977108735681017 0.0025053288003403893 0.01734078273073014
 0.002537523191761209 0.01733596238411767 -0.002156161352795034 -0.010977108735681017 0.007820198289917016 0.036355755063355706 0.9901895432265951 -0.0855455742013344
 -0.0021573594657322615 -0.010977018381712592 0.0025053288003403893 0.01734078273073014 0.9901895432265951 -0.0855455742013344 0.007825214632293066 0.03635530579919878
0.131304710296 0.008329366836684789 0.03833985049498221 0.9895160736107219 -0.08996528793464086 0.002768617816035708 0.018198832140850617 -0.0023524477822176983 -0.011525324252039459
 0.9895160736107219 -0.08996528793464086 0.008336620989411663 0.038339193611874545 -0.002351130667282589 -0.011525430955195301 0.0027331126576680066 0.018204282680932143
 0.002768617816035708 0.018198832140850617 -0.002351130667282589 -0.011525430955195301 0.008330311088288932 0.03834143985696412 0.9895161804418773 -0.08996350489286946
 -0.0023524477822176983 -0.011525324252039459 0.0027331126576680066 0.018204282680932143 0.9895161804418773 -0.08996350489286946 0.00833584116405737 0.0383409453572135
0.1375573155481 0.00874524845855102 0.040079764466788806 0.9889308748420692 -0.09413605667302279 0.002981969145986502 0.019034383768639872 -0.0025282352196851444 -0.012046605343363211
 0.9889308748420692 -0.09413605667302279 0.008753211307202472 0.04007905319332147 -0.0025267910928268764 -0.012046728554516724 0.002943068359644272 0.019040457796202635
 0.002981969145986502 0.019034383768639872 -0.0025267910928268764 -0.012046728554516724 0.008746282840169112 0.040081415684846716 0.9889309924837792 -0.09413418549398682
 -0.0025282352196851444 -0.012046605343363211 0.002943068359644272 0.019040457796202635 0.9889309924837792 -0.09413418549398682 0.00875235473706844 0.04008088631842364
0.1438099208003 0.00917581056150708 0.04181018936523622 0.9883249920094481 -0.09829593043474703 0.0032039374453484166 0.01986635967032906 -0.0027110478364209675 -0.012564620757261745
 0.9883249920094481 -0.09829593043474703 0.00918451539194983 0.04180942037838944 -0.0027094709511014973 -0.01256476199763748 0.003161492592568292 0.01987310430520476
 0.0032039374453484166 0.01986635967032906 -0.0027094709511014973 -0.01256476199763748 0.009176938984078033 0.0418119005941206 0.9883251210786314 -0.09829397067127423
 -0.0027110478364209675 -0.012564620757261745 0.003161492592568292 0.01987310430520476 0.9883251210786314 -0.09829397067127423 0.009183578400772382 0.04181133461382959
0.1500625260525 0.009620896873722392 0.04353097106613055 0.9876985857159708 -0.1024447961961235 0.0034344435801968794 0.02069466844203753 -0.0029008089467422306 -0.013079284624442054
 0.9876985857159708 -0.1024447961961235 0.009630377018776856 0.04353014087005103 -0.0028990935693133943 -0.013079445476468143 0.0033883071641861223 0.020702132522097964
 0.0034344435801968794 0.02069466844203753 -0.0028990935693133943 -0.013079445476468143 0.009622123217066864 0.04353274038782882 0.9876987268459431 -0.10244274738398351
 -0.0029008089467422306 -0.013079284624442054 0.0033883071641861223 0.020702132522097964 0.9876987268459431 -0.10244274738398351 0.009629355916512677 0.043532135937136854
0.15631513130469998 0.010080349957226047 0.04524196007545098 0.9870518174447993 -0.10658254153620603 0.0036734074463522 0.021519220287398243 -0.003097440888906909 -0.013590512941419752
 0.9870518174447993 -0.10658254153620603 0.010090638798100826 0.045241064998808304 -0.003095581298887022 -0.013590695048439868 0.003623432927636413 0.021527454349364702
