! Created with skrf 1.8.0 (http://scikit-rf.org).
# GHz S RI R 50.0 
!freq ReS11 ImS11 ReS12 ImS12 ReS13 ImS13
! ReS14 ImS14
! ReS21 ImS21 ReS22 ImS22 ReS23 ImS23
! ReS24 ImS24
! ReS31 ImS31 ReS32 ImS32 ReS33 ImS33
! ReS34 ImS34
! ReS41 ImS41 ReS42 ImS42 ReS43 ImS43
! ReS44 ImS44
!
0.0 0.001547426604936 0.0 0.9984525733951 0.0 5.990502363648e-05 0.0 -5.990502328191e-05 7.336249501503875e-21
 0.9984525733951 0.0 0.001547426604929 0.0 -5.990502328153e-05 7.336249501457338e-21 5.990502363749e-05 0.0
 5.990502363648e-05 0.0 -5.990502328153e-05 7.336249501457338e-21 0.001547426599235 0.0 0.9984525733894 0.0
 -5.990502328191e-05 7.336249501503875e-21 5.990502363749e-05 0.0 0.9984525733894 0.0 0.00154742659925 0.0
0.005 0.0016649562749767501 0.0012619446036226927 0.9983038624478417 -0.0032416950770511902 8.456282494403739e-05 0.000683709027590076 -8.195884015100144e-05 -0.0004250228043986227
 0.9983038624478417 -0.0032416950770511902 0.001664972109109274 0.0012619353076027847 -8.195668731039749e-05 -0.0004250211184271291 8.447438816616135e-05 0.0006837427196630103
 8.456282494403739e-05 0.000683709027590076 -8.195668731039749e-05 -0.0004250211184271291 0.0016649578903591424 0.00126201088856731 0.9983038628043212 -0.00324162800980272
 -8.195884015100144e-05 -0.0004250228043986227 8.447438816616135e-05 0.0006837427196630103 0.9983038628043212 -0.00324162800980272 0.0016649711971694053 0.0012620031476040998
0.006252605252188 0.0016957835364153262 0.0015824127175113403 0.9982646062343663 -0.004052912627471998 9.161818530594935e-05 0.0008549556458996389 -8.819089522662274e-05 -0.000531833059633258
 0.9982646062343663 -0.004052912627471998 0.0016958082884973348 0.0015824009155282137 -8.818754548898883e-05 -0.0005318309801718394 9.148001124337892e-05 0.0008549993919463612
 9.161818530594935e-05 0.0008549556458996389 -8.818754548898883e-05 -0.0005318309801718394 0.001695785988838583 0.0015824955611637732 0.9982646067185139 -0.004052828796549841
 -8.819089522662274e-05 -0.000531833059633258 9.148001124337892e-05 0.0008549993919463612 0.9982646067185139 -0.004052828796549841 0.0016958067893459688 0.0015824857126861469
0.01250521050438 0.0018580813673574838 0.003198112668750223 0.9980565437591027 -0.00810664347729256 0.00013213509545067744 0.00171019014458053 -0.00012357991170901952 -0.0010662627454235073
 0.9980565437591027 -0.00810664347729256 0.0018581802100121603 0.0031980872211536697 -0.00012356671360962373 -0.001066258893256793 0.00013158409351253516 0.0017102952370196406
 0.00013213509545067744 0.00171019014458053 -0.00012356671360962373 -0.001066258893256793 0.0018580906195393913 0.0031982779791039657 0.998056545149948 -0.008106476057152862
 -0.00012357991170901952 -0.0010662627454235073 0.00013158409351253516 0.0017102952370196406 0.998056545149948 -0.008106476057152862 0.0018581736712930037 0.0031982565576635924
0.01875781575657 0.00203467639547114 0.0048369040943221095 0.9978281261272989 -0.01217106069590139 0.00018154898770260256 0.00256629947988623 -0.00016618189347593232 -0.0016024856785952493
 0.9978281261272989 -0.01217106069590139 0.00203489851393664 0.004836862999247626 -0.00016615246526882036 -0.0016024804187718443 0.0001803112342848167 0.0025664869735737947
 0.00018154898770260256 0.00256629947988623 -0.00016615246526882036 -0.0016024804187718443 0.0020346967655190938 0.0048371515776162366 0.9978281288310547 -0.012170809734560683
 -0.00016618189347593232 -0.0016024856785952493 0.0001803112342848167 0.0025664869735737947 0.9978281288310547 -0.012170809734560683 0.0020348833769990964 0.004837116769964805
0.02501042100875 0.002225914249965078 0.006496482076575487 0.9975790832101422 -0.01624813076875378 0.00023995474462612415 0.003423322117834348 -0.00021610295020455336 -0.0021402500069161346
 0.9975790832101422 -0.01624813076875378 0.0022263087395763496 0.006496423191032297 -0.0002160509876659706 -0.0021402437692894486 0.00023775622541799129 0.00342361640152448
 0.00023995474462612415 0.003423322117834348 -0.0002160509876659706 -0.0021402437692894486 0.0022259500580205436 0.00649681138275937 0.9975790876446586 -0.016247796261531222
 -0.00021610295020455336 -0.0021402500069161346 0.00023775622541799129 0.00342361640152448 0.9975790876446586 -0.016247796261531222 0.002226281448814453 0.0064967613005658086
0.03126302626094 0.0024321262402987732 0.008175658418743079 0.9973091311741736 -0.020338692618268463 0.0003074478077394744 0.004281214824684922 -0.0002734461058376967 -0.0026793795398958394
 0.9973091311741736 -0.020338692618268463 0.002432742133125065 0.008175579461435878 -0.0002733653690867924 -0.002679372819900786 0.00030401416692349127 0.004281643639414457
 0.0003074478077394744 0.004281214824684922 -0.0002733653690867924 -0.002679372819900786 0.0024321817992033765 0.008176069125556634 0.9973091377598319 -0.02033827452326773
 -0.0002734461058376967 -0.0026793795398958394 0.00030401416692349127 0.004281643639414457 0.9973091377598319 -0.02033827452326773 0.0024326991233154446 0.008176001808554408
0.037515631513130004 0.002653636455040682 0.009873656835889182 0.9970179798087545 -0.02444316235292869 0.00038412316719930496 0.005139902102496036 -0.00033831207080015183 -0.0032197243123740977
 0.9970179798087545 -0.02444316235292869 0.002654522737127467 0.009873555388287021 -0.00033819637754065913 -0.003219717671243672 0.00037917959752025967 0.0051404965743029225
 0.00038412316719930496 0.005139902102496036 -0.00033819637754065913 -0.003219717671243672 0.0026537160707509676 0.00987414844586092 0.9970179889699575 -0.024442660593395057
 -0.00033831207080015183 -0.0032197243123740977 0.00037917959752025967 0.0051404965743029225 0.9970179889699575 -0.024442660593395057 0.0026544604324440094 0.009874061863616198
0.043768236765320004 0.0028907645073609424 0.011589898470261905 0.9967053355028779 -0.028561747682411938 0.0004700748875350821 0.005999291230222917 -0.00041079951890130283 -0.00376114554585473
 0.9967053355028779 -0.028561747682411938 0.002891970132220753 0.011589771976951232 -0.000410642740407583 -0.0037611396106707103 0.00046334608045031834 0.006000085907221196
 0.0004700748875350821 0.005999291230222917 -0.000410642740407583 -0.0037611396106707103 0.002890872479729601 0.01159047040823154 0.996705347670269 -0.028561162148432972
 -0.00041079951890130283 -0.00376114554585473 0.00046334608045031834 0.006000085907221196 0.996705347670269 -0.028561162148432972 0.0028918849463833007 0.011590362461477297
0.050020842017509996 0.0031438268084653534 0.013323913260556874 0.996370902754554 -0.03269453647717927 0.0005653958253630374 0.006859278472119006 -0.0004910051848721032 -0.004303509445600628
 0.996370902754554 -0.03269453647717927 0.003145400709057286 0.013323759029040571 -0.0004908012434392486 -0.004303504909297023 0.000556605953471648 0.00686031136325733
 0.0005653958253630374 0.006859278472119006 -0.0004908012434392486 -0.004303504909297023 0.0031439674291821977 0.013324564866562796 0.9963709183649272 -0.032693867032073616
 -0.0004910051848721032 -0.004303509445600628 0.000556605953471648 0.00686031136325733 0.9963709183649272 -0.032693867032073616 0.0031452890427472536 0.013324433387972914
0.055454545454549996 0.0033769299915812553 0.014844943104739156 0.9960623454170956 -0.036297600465270106 0.0006559126200519237 0.007607032601984733 -0.0005670481635383918 -0.0047755032486643915
 0.9960623454170956 -0.036297600465270106 0.003378863666312674 0.014844762474468958 -0.0005667983385480944 -0.004775500541898184 0.0006451072128238963 0.007608306093950492
 0.0006559126200519237 0.007607032601984733 -0.0005667983385480944 -0.004775500541898184 0.003377102463779305 0.014845663342489372 0.9960623643804026 -0.03629685796688304
 -0.0005670481635383918 -0.0047755032486643915 0.0006451072128238963 0.007608306093950492 0.9960623643804026 -0.03629685796688304 0.003378726054553677 0.014845509601453104
0.056273447269699996 0.003413137216836603 0.015075296429043143 0.9960143850599494 -0.03684154021141087 0.0006701774285471906 0.007719752130733683 -0.0005790238853843739 -0.004846684156711796
 0.9960143850599494 -0.03684154021141087 0.0034151283159784464 0.01507511162930707 -0.0005787667525859291 -0.0048466817780404795 0.000659050147175261 0.007721064745334204
 0.0006701774285471906 0.007719752130733683 -0.0005787667525859291 -0.0048466817780404795 0.003413314769511333 0.015076026957893446 0.9960144045580644 -0.03684078669145148
 -0.0005790238853843739 -0.004846684156711796 0.000659050147175261 0.007721064745334204 0.9960144045580644 -0.03684078669145148 0.003414986556979606 0.015075869712636275
0.06252605252188 0.00369900738650631 0.016843684563274425 0.9956354855055863 -0.04100271781450527 0.0007845095772651936 0.008580594223992825 -0.0006749484995182409 -0.005390538100300234
 0.9956354855055863 -0.04100271781450527 0.0037014646068215884 0.0168434662268882 -0.0006746321950367768 -0.005390538703792976 0.000770768038857588 0.00858223161140562
 0.0007845095772651936 0.008580594223992825 -0.0006746321950367768 -0.005390538703792976 0.0036992261446627266 0.016844493184666142 0.9956355093442102 -0.04100188002803023
 -0.0006749484995182409 -0.005390538100300234 0.000770768038857588 0.00858223161140562 0.9956355093442102 -0.04100188002803023 0.0037012891280270477 0.01684430787059921
0.06877865777407 0.004001746947270664 0.01862874135786093 0.9952339071963588 -0.04517798986620999 0.0009084804486269654 0.009441681490891916 -0.0007788699257117071 -0.005934938985440378
 0.9952339071963588 -0.04517798986620999 0.004004719220905032 0.018628486376840277 -0.0007784885165329893 -0.005934943461348778 0.0008918473264474741 0.009443692280111528
 0.0009084804486269654 0.009441681490891916 -0.0007784885165329893 -0.005934943461348778 0.0040020111736708604 0.018629627154053845 0.995233935837708 -0.04517706759533635
 -0.0007788699257117071 -0.005934938985440378 0.0008918473264474741 0.009443692280111528 0.995233935837708 -0.04517706759533635 0.004004506379868708 0.018629411401646673
0.07503126302626001 0.004321663585867538 0.020430148576708003 0.9948093535884978 -0.04936724757606617 0.0010421763949605718 0.010302886032396468 -0.0008908770247346788 -0.006479753190635079
 0.9948093535884978 -0.04936724757606617 0.004325199863707681 0.02042985370198705 -0.0008904246246058976 -0.006479762494877445 0.001022373913347888 0.010305322471392441
 0.0010421763949605718 0.010302886032396468 -0.0008904246246058976 -0.006479762494877445 0.0043219775312230806 0.020431110543505975 0.9948093875054129 -0.04936624057504117
 -0.0008908770247346788 -0.006479753190635079 0.001022373913347888 0.010305322471392441 0.9948093875054129 -0.04936624057504117 0.004324946001643131 0.02043086191537086
0.08128386827845 0.004659063066129583 0.022247600034913093 0.9943615287657546 -0.0535703587479496 0.0011856818297290362 0.011164075744387842 -0.0010110565539511508 -0.007024845358175659
 0.9943615287657546 -0.0535703587479496 0.0046632123270993675 0.02224726187456532 -0.001010527323026513 -0.007024860512262924 0.0011624317999299983 0.011166993739028465
 0.0011856818297290362 0.011164075744387842 -0.001010527323026513 -0.007024860512262924 0.004659430968176296 0.02224863707989492 0.9943615684426584 -0.053569266744367065
 -0.0010110565539511508 -0.007024845358175659 0.0011624317999299983 0.011166993739028465 0.9943615684426584 -0.053569266744367065 0.004662913768484242 0.022248353070100983
0.08753647353064001 0.005014249207904153 0.02408079745215765 0.9938901376771596 -0.057787171878677254 0.0013390791198964213 0.012025114621732096 -0.0011394930943679402 -0.00757007812244157
 0.9938901376771596 -0.057787171878677254 0.005019060468289815 0.024080412469171204 -0.0011388812390591054 -0.007570100213398342 0.0013121029800801515 0.012028573774223835
 0.0013390791198964213 0.012025114621732096 -0.0011388812390591054 -0.007570100213398342 0.005014675289092668 0.02408190839406984 0.9938901836103626 -0.05778599457349052
 -0.0011394930943679402 -0.00757007812244157 0.0013121029800801515 0.012028573774223835 0.9938901836103626 -0.05778599457349052 0.005018713518626783 0.024081586426998133
0.09378907878283 0.005387523836880897 0.025929447473470525 0.9933948863498947 -0.06201751909466617 0.0015024484812720886 0.012885862983689158 -0.0012762689736840137 -0.00811531192216605
 0.9933948863498947 -0.06201751909466617 0.005393046158886279 0.025929011983382093 -0.0012755687465094447 -0.00811534210245878 0.0014714673402811843 0.012889926630407096
 0.0015024484812720886 0.012885862983689158 -0.0012755687465094447 -0.00811534210245878 0.005388012303545023 0.025930631040107923 0.9933949390492992 -0.06201625616392843
 -0.0012762689736840137 -0.00811531192216605 0.0014714673402811843 0.012889926630407096 0.9933949390492992 -0.06201625616392843 0.00539264710508891 0.02593026846912242
0.100041684035 0.0057791867137666104 0.027793259502453167 0.9928754820847503 -0.06626121828231049 0.0016758678764698866 0.013746177646327237 -0.0014214641857307822 -0.008660404871090665
 0.9928754820847503 -0.06626121828231049 0.0057854692150031434 0.02779276967039152 -0.0014206698854237858 -0.008660444358522604 0.0016406025606918553 0.013750912894991045
 0.0016758678764698866 0.013746177646327237 -0.0014206698854237858 -0.008660444358522604 0.005779741754747475 0.02779451433390354 0.9928755420746893 -0.06625986937339177
 -0.0014214641857307822 -0.008660404871090665 0.0016406025606918553 0.013750912894991045 0.9928755420746893 -0.06625986937339177 0.005785014323796908 0.027794108439571683
0.1059090909091 0.006163709831086439 0.029555781217289204 0.992365849987377 -0.07025545002349007 0.0018478113638263761 0.01455296676336451 -0.001565440919996319 -0.009171660178613752
 0.992365849987377 -0.07025545002349007 0.006170750409044334 0.029555236766566257 -0.0015645531980027425 -0.009171709565509127 0.001808271690869532 0.014558396664526442
 0.0018478113638263761 0.01455296676336451 -0.0015645531980027425 -0.009171709565509127 0.006164331137388142 0.029557101605072213 0.9923659173090449 -0.07025402008984791
 -0.001565440919996319 -0.009171660178613752 0.001808271690869532 0.014558396664526442 0.9923659173090449 -0.07025402008984791 0.006170239706274492 0.029556652516359923
0.1062942892872 0.006189535449875374 0.029671944063381236 0.9923316336415745 -0.07051807469530977 0.001859412914890088 0.014605912059384234 -0.0015751563073386932 -0.009205212669669133
 0.9923316336415745 -0.07051807469530977 0.006196627312337905 0.02967139590095623 -0.0015742622788927677 -0.009205262747289972 0.0018195840176440166 0.014611389825574894
 0.001859412914890088 0.014605912059384234 -0.0015742622788927677 -0.009205262747289972 0.006190161234628605 0.029673268708789398 0.9923317014616577 -0.07051663942988363
 -0.0015751563073386932 -0.009205212669669133 0.0018195840176440166 0.014611389825574894 0.9923317014616577 -0.07051663942988363 0.006196112829482068 0.029672816696745208
0.11254689453939999 0.006618865409030241 0.03156521156357951 0.9917630514132638 -0.07478788216844966 0.002053156753471638 0.01546491641898761 -0.0017374204132101943 -0.009749588546697803
 0.9917630514132638 -0.07478788216844966 0.006626815888052299 0.03156460092527379 -0.0017364210480461221 -0.009749650562690278 0.0020084846874225963 0.015471211461796254
 0.002053156753471638 0.01546491641898761 -0.0017364210480461221 -0.009749650562690278 0.006619566086254663 0.031566604479228995 0.9917631276193818 -0.07478636014395937
 -0.0017374204132101943 -0.009749588546697803 0.0020084846874225963 0.015471211461796254 0.9917631276193818 -0.07478636014395937 0.006626238037629152 0.03156610347770397
0.11879949979160001 0.00706746960220675 0.03347277131643568 0.9911694475965644 -0.07907042407689739 0.002257169998843396 0.016323037765461616 -0.0019083289894151882 -0.010293383221500628
 0.9911694475965644 -0.07907042407689739 0.007076328035677063 0.033472093895699516 -0.0019072187256361113 -0.01029345858907042 0.0022073750501280503 0.016330228722361964
 0.002257169998843396 0.016323037765461616 -0.0019072187256361113 -0.01029345858907042 0.00706824929825623 0.033474230867297304 0.9911695327621112 -0.079068814864944
 -0.0019083289894151882 -0.010293383221500628 0.0022073750501280503 0.016330228722361964 0.9911695327621112 -0.079068814864944 0.007075683018908295 0.033473677924250746
0.1250521050438 0.007535638573715902 0.03539433078353394 0.9905505363564711 -0.08336547408345753 0.0024715206100799237 0.01718012006957048 -0.0020879518455668923 -0.010836444883663983
 0.9905505363564711 -0.08336547408345753 0.007545454391223424 0.035393582108447195 -0.002086725168185988 -0.010836535080881933 0.0024163229945097496 0.017188289490457708
 0.0024715206100799237 0.01718012006957048 -0.002086725168185988 -0.010836535080881933 0.007536501391234197 0.035395855243003226 0.9905506310736799 -0.08336377722975385
 -0.0020879518455668923 -0.010836444883663983 0.0024163229945097496 0.017188289490457708 0.9905506310736799 -0.08336377722975385 0.007544738385919882 0.03539524732288046
0.131304710296 0.008023660282593036 0.03732959497067818 0.9899060339886924 -0.08767279673870954 0.0026962738018798146 0.018036004308607054 -0.002276356026206272 -0.011378619188881908
 0.9899060339886924 -0.08767279673870954 0.008034483014150893 0.03732877039925971 -0.0022750074674154942 -0.011378725758604206 0.0026353937235256654 0.018045238688790412
 0.0026962738018798146 0.018036004308607054 -0.0022750074674154942 -0.011378725758604206 0.008024610298252908 0.03733118252017118 0.9899061388691383 -0.08767101176347586
 -0.002276356026206272 -0.011378619188881908 0.0026353937235256654 0.018045238688790412 0.9899061388691383 -0.08767101176347586 0.008033692173673572 0.03733051650023284
0.1375573155481 0.00842035470788898 0.039025053328005974 0.9893471676147918 -0.09173882441213797 0.0029035936148244968 0.01886504688548984 -0.0024457824079681424 -0.011894233984241859
 0.9893471676147918 -0.09173882441213797 0.00843223650422528 0.03902416490186417 -0.002444303772877794 -0.011894357053109683 0.0028368907824180786 0.018875333297752556
 0.0029035936148244968 0.01886504688548984 -0.002444303772877794 -0.011894357053109683 0.00842139539185135 0.03902670244134227 0.9893472831347933 -0.09173695101437876
 -0.0024457824079681424 -0.011894233984241859 0.0028368907824180786 0.018875333297752556 0.9893472831347933 -0.09173695101437876 0.008431367824543977 0.0390259915621854
0.1438099208003 0.008831010290833274 0.04071144839981737 0.9887686187255976 -0.09579442640979952 0.003119298739095752 0.019690667188600394 -0.0026219903512578737 -0.012406744978059294
 0.9887686187255976 -0.09579442640979952 0.008844001191589138 0.040710492475605486 -0.00262037574904431 -0.012406886066110052 0.0030465185420359086 0.019702084764874915
 0.003119298739095752 0.019690667188600394 -0.00262037574904431 -0.012406886066110052 0.008832145574240578 0.04071315720264261 0.9887687454973756 -0.09579246411621556
 -0.0026219903512578737 -0.012406744978059294 0.0030465185420359086 0.019702084764874915 0.9887687454973756 -0.09579246411621556 0.008843050941912413 0.04071239934914075
0.1500625260525 0.00925548056984773 0.04238863573519528 0.9881705379549134 -0.0998394984927511 0.0033433143534523637 0.020512778328397308 -0.002804907747341557 -0.012916071037753728
 0.9881705379549134 -0.0998394984927511 0.009269630719916227 0.042387608460084374 -0.0028031512996421044 -0.012916231726149205 0.003264203784176302 0.02052540907261386
 0.0033433143534523637 0.020512778328397308 -0.0028031512996421044 -0.012916231726149205 0.009256714352239286 0.04239040227941674 0.9881706766076742 -0.09983744681160407
 -0.002804907747341557 -0.012916071037753728 0.003264203784176302 0.02052540907261386 0.9881706766076742 -0.09983744681160407 0.009268595155515506 0.04238959518831154
0.15631513130469998 0.00969361801968283 0.04405647524192985 0.9875530767297832 -0.10387393686640649 0.0035755647362441675 0.021331294896102734 -0.0029944615859824777 -0.0134221327662015
 0.9875530767297832 -0.10387393686640649 0.00970897767243318 0.04405537254862661 -0.002992557427217152 -0.013422314696900407 0.0034898724166052626 0.021345223651960624
