! Created with skrf 1.8.0 (http://scikit-rf.org).
# GHz S RI R 50.0 
!freq ReS11 ImS11 ReS12 ImS12 ReS13 ImS13
! ReS14 ImS14
! ReS21 ImS21 ReS22 ImS22 ReS23 ImS23
! ReS24 ImS24
! ReS31 ImS31 ReS32 ImS32 ReS33 ImS33
! ReS34 ImS34
! ReS41 ImS41 ReS42 ImS42 ReS43 ImS43
! ReS44 ImS44
!
0.0 0.001631066627693 0.0 0.9983689333325 0.0 6.304236477029e-05 0.0 -6.304236406039e-05 7.720462935723875e-21
 0.9983689333325 0.0 0.001631066627706 0.0 -6.304236405995e-05 7.720462935669991e-21 6.304236477123e-05 0.0
 6.304236477029e-05 0.0 -6.304236405995e-05 7.720462935669991e-21 0.001631066647582 0.0 0.9983689333524 0.0
 -6.304236406039e-05 7.720462935723875e-21 6.304236477123e-05 0.0 0.9983689333524 0.0 0.001631066647615 0.0
0.005 0.0017551583827383258 0.0013344135646514517 0.9982119049115077 -0.0034163702280865294 8.839692684923426e-05 0.0006926046726675976 -8.586856180555132e-05 -0.00043503298208238185
 0.9982119049115077 -0.0034163702280865294 0.0017551603717218024 0.0013344123288397867 -8.586931105799307e-05 -0.00043503347635804256 8.839904013411237e-05 0.0006926041032200408
 8.839692684923426e-05 0.0006926046726675976 -8.586931105799307e-05 -0.00043503347635804256 0.0017551587723552 0.0013344805485110513 0.9982119052793211 -0.0034163031672688315
 -8.586856180555132e-05 -0.00043503298208238185 8.839904013411237e-05 0.0006926041032200408 0.9982119052793211 -0.0034163031672688315 0.0017551607084537763 0.0013344794575323288
0.006252605252188 0.0017877833982578883 0.0016732536283674266 0.9981703495249492 -0.0042712854343042415 9.567373494715118e-05 0.0008660878528738052 -9.234728294242555e-05 -0.0005443484004537197
 0.9981703495249492 -0.0042712854343042415 0.0017877865073751558 0.0016732519892257247 -9.234844947719245e-05 -0.0005443490080600279 9.567703958504608e-05 0.0008660870749370858
 9.567373494715118e-05 0.0008660878528738052 -9.234844947719245e-05 -0.0005443490080600279 0.0017877839324753773 0.0016733373475530963 0.9981703500246518 -0.004271201607416393
 -9.234728294242555e-05 -0.0005443484004537197 9.567703958504608e-05 0.0008660870749370858 0.9981703500246518 -0.004271201607416393 0.0017877869579607391 0.0016733359037579324
0.01250521050438 0.0019599912139579784 0.0033814272134476634 0.9979495084027089 -0.008543282030416731 0.00013758000241257 0.0017325115068524844 -0.0001292892462921563 -0.0010912814057321349
 0.9979495084027089 -0.008543282030416731 0.0019600036317760357 0.0033814229636013214 -0.00012929385130575142 -0.001091282507068492 0.00013759326675587567 0.0017325092642825818
 0.00013758000241257 0.0017325115068524844 -0.00012929385130575142 -0.001091282507068492 0.001959992788863741 0.0033815942651334863 0.9979495098352957 -0.008543114616754544
 -0.0001292892462921563 -0.0010912814057321349 0.00013759326675587567 0.0017325092642825818 0.9979495098352957 -0.008543114616754544 0.0019600048556458515 0.0033815905542598345
0.01875781575657 0.002148083059429882 0.005113765326738821 0.9977061233636307 -0.012826367207664273 0.00018886143893539147 0.0025998366262792675 -0.00017398542435054308 -0.0016400025048683394
 0.9977061233636307 -0.012826367207664273 0.0021481109705959096 0.0051137574029451426 -0.0001739957044698542 -0.0016400039599035348 0.00018889143804664359 0.0025998321436543482
 0.00018886143893539147 0.0025998366262792675 -0.0001739957044698542 -0.0016400039599035348 0.0021480861828437328 0.005114015437639915 0.9977061261605789 -0.012826116254718991
 -0.00017398542435054308 -0.0016400025048683394 0.00018889143804664359 0.0025998321436543482 0.9977061261605789 -0.012826116254718991 0.0021481132710728153 0.00511400855805571
0.02501042100875 0.0023524393019884043 0.006867823317347853 0.9974398959907749 -0.017122595087154167 0.00024961942308986314 0.003468086047739678 -0.00022654887289062594 -0.0021902512263393655
 0.9974398959907749 -0.017122595087154167 0.00235248887889824 0.006867810562116492 -0.00022656704136629608 -0.002190252866810062 0.00024967305419583554 0.0034680784503019896
 0.00024961942308986314 0.003468086047739678 -0.00022656704136629608 -0.002190252866810062 0.0023524444906504786 0.006868156176570303 0.9974399005921372 -0.017122260600093763
 -0.00022654887289062594 -0.0021902512263393655 0.00024967305419583554 0.0034680784503019896 0.9974399005921372 -0.017122260600093763 0.002352492549345069 0.006868145146790691
0.03126302626094 0.0025734245989530577 0.008642332156756097 0.9971505132813774 -0.021432831619861085 0.0003199555309725846 0.004337202717473823 -0.00028708925065052104 -0.002741840227513043
 0.9971505132813774 -0.021432831619861085 0.0025735020017196297 0.008642313316849962 -0.00028711750124909647 -0.002741841856643278 0.0003200398146474833 0.004337191026588124
 0.0003199555309725846 0.004337202717473823 -0.00028711750124909647 -0.002741841856643278 0.002573432366997052 0.008642747422932973 0.9971505201263349 -0.02143241355404253
 -0.00028708925065052104 -0.002741840227513043 0.0003200398146474833 0.004337191026588124 0.9971505201263349 -0.02143241355404253 0.0025735073149277727 0.008642731180270367
0.037515631513130004 0.0028113955342099315 0.010436456130602989 0.9968376555637742 -0.025757496832327097 0.00039997056962151834 0.005207097773979731 -0.0003557135936279331 -0.0032946072262338526
 0.9968376555637742 -0.025757496832327097 0.0028115069096477847 0.010436429855789752 -0.0003557541025134717 -0.0032946086185786593 0.00040009265040366355 0.005207080903293461
 0.00039997056962151834 0.005207097773979731 -0.0003557541025134717 -0.0032946086185786593 0.0028114063976267447 0.010436953404481251 0.9968376650978491 -0.025756995120168706
 -0.0003557135936279331 -0.0032946072262338526 0.00040009265040366355 0.005207080903293461 0.9968376650978491 -0.025756995120168706 0.0028115141231723154 0.010436930804258657
0.043768236765320004 0.00306670357181511 0.012249566889097096 0.9965009997327595 -0.030096790703608056 0.0004897641117796494 0.006077665187964422 -0.0004325265855483849 -0.0038484003737777914
 0.9965009997327595 -0.030096790703608056 0.0030668550519662224 0.012249531731141402 -0.0004325815123583615 -0.003848401275130737 0.0004899312588609251 0.006077641939765119
 0.0004897641117796494 0.006077665187964422 -0.0004325815123583615 -0.003848401275130737 0.003066718045489674 0.012250145723381395 0.996501012406417 -0.0300962052444487
 -0.0004325265855483849 -0.0038484003737777914 0.0004899312588609251 0.006077641939765119 0.996501012406417 -0.0300962052444487 0.0030668644055238422 0.012250115538176195
0.050020842017509996 0.003339696415435011 0.014081150104704046 0.9961402208944992 -0.034450786433876765 0.0005894342095702575 0.006948787808889801 -0.0005176306472883046 -0.004403072223659637
 0.9961402208944992 -0.034450786433876765 0.0033398941160511595 0.014081104516296666 -0.0005177021356795455 -0.004403072350976997 0.0005896538174303466 0.00694875687049759
 0.0005894342095702575 0.006948787808889801 -0.0005177021356795455 -0.004403072350976997 0.0033397150115529965 0.014081809998328929 0.9961402371645176 -0.03445011709922248
 -0.0005176306472883046 -0.004403072223659637 0.0005896538174303466 0.00694875687049759 0.9961402371645176 -0.03445011709922248 0.003339905831048695 0.014081770917275646
0.055454545454549996 0.003591565425433186 0.015687505608560446 0.9958068493717896 -0.038246475821971875 0.0006841463722592505 0.007706173513758508 -0.000598399869437246 -0.00488569909162957
 0.9958068493717896 -0.038246475821971875 0.0035918082457307102 0.015687449621608864 -0.0005984874791186417 -0.004885698293981388 0.0006844176730060101 0.0077061347343099764
 0.0006841463722592505 0.007706173513758508 -0.0005984874791186417 -0.004885698293981388 0.0035915880178269627 0.01568823549647236 0.9958068691442424 -0.03824573347086578
 -0.000598399869437246 -0.00488569909162957 0.0006844176730060101 0.0077061347343099764 0.9958068691442424 -0.03824573347086578 0.0035918221786664446 0.015688187554766093
0.056273447269699996 0.0036307186993124042 0.015930759630577884 0.9957549933470626 -0.0388194762140569 0.0006990771874041088 0.007820340333814527 -0.0006111259448235788 -0.0049584767821009125
 0.9957549933470626 -0.0388194762140569 0.0036309687180707995 0.015930701964499167 -0.0006112161228372834 -0.004958475823444641 0.0006993567762905512 0.007820300273990003
 0.0006990771874041088 0.007820340333814527 -0.0006112161228372834 -0.004958475823444641 0.003630741927359698 0.01593150002846211 0.9957550136783848 -0.03881872284757871
 -0.0006111259448235788 -0.0049584767821009125 0.0006993567762905512 0.007820300273990003 0.9957550136783848 -0.03881872284757871 0.003630982997962304 0.0159314506565785
0.06252605252188 0.003940112351791815 0.01779799232920662 0.9953449912382492 -0.043202796329695634 0.0008187874729923176 0.008692190948203268 -0.0007131103569802054 -0.005514467891357179
 0.9953449912382492 -0.043202796329695634 0.003940420766423471 0.017797920837440192 -0.0007132213371648224 -0.005514465505838991 0.0008191346893670079 0.00869214021355783
 0.0008187874729923176 0.008692190948203268 -0.0007132213371648224 -0.005514465505838991 0.003940140715958874 0.017798812616765938 0.9953450161039037 -0.04320195875238481
 -0.0007131103569802054 -0.005514467891357179 0.0008191346893670079 0.00869214021355783 0.9953450161039037 -0.04320195875238481 0.003940437795013683 0.017798751474388377
0.06877865777407 0.004268216773796227 0.01968247303816747 0.9949098890427475 -0.04760064213254157 0.0009486574500739212 0.009564202307309377 -0.0008236794194294906 -0.006070898277846479
 0.9949098890427475 -0.04760064213254157 0.004268589640039697 0.019682385871087886 -0.0008238132989145341 -0.0060708940955788585 0.0009490800671016173 0.009564139218654573
 0.0009486574500739212 0.009564202307309377 -0.0008238132989145341 -0.0060708940955788585 0.004268250772055304 0.01968337254424262 0.9949099189252562 -0.047599720139541245
 -0.0008236794194294906 -0.006070898277846479 0.0009490800671016173 0.009564139218654573 0.9949099189252562 -0.047599720139541245 0.004268609580922786 0.01968329806648719
0.07503126302626001 0.004615368915349951 0.02158384505607034 0.9944493619416485 -0.05201287749796525 0.0010887773244846394 0.010436232166955047 -0.0009429262536180247 -0.0066276189565534676
 0.9944493619416485 -0.05201287749796525 0.0046158122652358935 0.0215837402616849 -0.0009430851140546266 -0.00662761257861495 0.0010892832424973869 0.010436154915659883
 0.0010887773244846394 0.010436232166955047 -0.0009430851140546266 -0.00662761257861495 0.004615409038095227 0.02158482305728695 0.9944493973341682 -0.052011870854146706
 -0.0009429262536180247 -0.0066276189565534676 0.0010892832424973869 0.010436154915659883 0.9944493973341682 -0.052011870854146706 0.004615835261169674 0.021584733593450044
0.08128386827845 0.004981903281145428 0.02350176382350878 0.9939630861354416 -0.05643934109382578 0.001239234998032978 0.011308133811019219 -0.0010709414863480586 -0.007184478844774014
 0.9939630861354416 -0.05643934109382578 0.004982423120332653 0.023501639346734736 -0.0010711273937705251 -0.007184469843166942 0.0012398322447660958 0.011308040455250625
 0.001239234998032978 0.011308133811019219 -0.0010711273937705251 -0.007184469843166942 0.0049819500094110585 0.023502819533421503 0.9939631275423584 -0.05643824954437574
 -0.0010709414863480586 -0.007184478844774014 0.0012398322447660958 0.011308040455250625 0.9939631275423584 -0.05643824954437574 0.0049824492922941775 0.023502713346562457
0.08753647353064001 0.005368151893410865 0.025435892530117837 0.99345073911857 -0.06087985072997749 0.0014001159466585009 0.012179756357082967 -0.001207813163332888 -0.007741324503859444
 0.99345073911857 -0.06087985072997749 0.005368754199728505 0.025435746212073247 -0.0012080281680663272 -0.007741312421498164 0.0014008126777447544 0.012179644818120915
 0.0014001159466585009 0.012179756357082967 -0.0012080281680663272 -0.007741312421498164 0.005368205697714836 0.025437025109696424 0.9934507870564497 -0.06087867398990686
 -0.001207813163332888 -0.007741324503859444 0.0014008126777447544 0.012179644818120915 0.9934507870564497 -0.06087867398990686 0.005368783645806751 0.02543690037611755
0.09378907878283 0.005774444222948403 0.0273858990068952 0.9929119999254079 -0.06533420642969302 0.001571503103198513 0.013050944981832202 -0.0013536266572652194 -0.00829799996767337
 0.9929119999254079 -0.06533420642969302 0.005775134943405386 0.027385728584339086 -0.0013538727936166155 -0.008297984318357356 0.0015723076024193043 0.01305081304025492
 0.001571503103198513 0.013050944981832202 -0.0013538727936166155 -0.008297984318357356 0.005774505561358554 0.027387107557971822 0.9929120549244628 -0.06533294419047157
 -0.0013536266572652194 -0.00829799996767337 0.0015723076024193043 0.01305081304025492 0.9929120549244628 -0.06533294419047157 0.005775167738451713 0.02738696236681068
0.100041684035 0.0062011070975064725 0.029351453437173627 0.9923465493586339 -0.06980219269009504 0.001753476741770361 0.013921541097705355 -0.0015084645728916733 -0.008854346626441769
 0.9923465493586339 -0.06980219269009504 0.006201892146587371 0.029351256541866225 -0.0015087438590173617 -0.008854326894846148 0.0017543974212936857 0.013921386389532827
 0.001753476741770361 0.013921541097705355 -0.0015087438590173617 -0.008854326894846148 0.006201176414742851 0.02935273700078844 0.9923466119635952 -0.06980084462129796
 -0.0015084645728916733 -0.008854346626441769 0.0017543974212936857 0.013921386389532827 0.9923466119635952 -0.06980084462129796 0.006201928340964588 0.029352569353625884
0.1059090909091 0.006620300461815683 0.031209765253729687 0.991791357677716 -0.07400711664148125 0.0019339370641894814 0.01473781988820411 -0.0016620422160429562 -0.009375976237697382
 0.991791357677716 -0.07400711664148125 0.006621179376056869 0.0312095412686815 -0.0016623544305220865 -0.009375952180691264 0.001934974532012257 0.014737641533858838
 0.0019339370641894814 0.01473781988820411 -0.0016623544305220865 -0.009375952180691264 0.006620377657074256 0.031211118288664828 0.9917914279290061 -0.07400568770447821
 -0.0016620422160429562 -0.009375976237697382 0.001934974532012257 0.014737641533858838 0.9917914279290061 -0.07400568770447821 0.00662121878378154 0.031210927673082763
0.1062942892872 0.006648464594506241 0.0313322266388636 0.9917540702045614 -0.07428358017900906 0.0019461143638874173 0.014791382496820124 -0.0016724066496618835 -0.00941020314997808
 0.9917540702045614 -0.07428358017900906 0.0066493498513204765 0.03133200079706366 -0.0016727210872193134 -0.00941017879165912 0.0019471597645757562 0.014791202509677774
 0.0019461143638874173 0.014791382496820124 -0.0016727210872193134 -0.00941017879165912 0.006648542319803914 0.03133358420175036 0.9917541409754201 -0.0742821459219475
 -0.0016724066496618835 -0.00941020314997808 0.0019471597645757562 0.014791202509677774 0.9917541409754201 -0.0742821459219475 0.006649389470265765 0.03133339201227292
0.11254689453939999 0.007116837920679744 0.03332788876178256 0.9911342474389964 -0.07877812702471906 0.002149490586299046 0.015660303471680685 -0.0018455296619553205 -0.009965405441124354
 0.9911342474389964 -0.07877812702471906 0.00711782922690931 0.033327631393742445 -0.0018458812358812709 -0.009965375882508386 0.002150669377864968 0.01566009554086903
 0.002149490586299046 0.015660303471680685 -0.0018458812358812709 -0.009965375882508386 0.007116924466510501 0.033329319251843015 0.9911343269523089 -0.0787766061972519
 -0.0018455296619553205 -0.009965405441124354 0.002150669377864968 0.01566009554086903 0.9911343269523089 -0.0787766061972519 0.007117872269455893 0.0333291003454522
0.11879949979160001 0.007606545281569892 0.035338108277615646 0.9904867684265547 -0.08328557982155767 0.002363677029240512 0.01652813491916543 -0.0020279073184802784 -0.010519786612906274
 0.9904867684265547 -0.08328557982155767 0.007607648438843932 0.035337816697143386 -0.002028297996603641 -0.010519751251356563 0.0023649980104847547 0.016527896223646085
 0.002363677029240512 0.01652813491916543 -0.002028297996603641 -0.010519751251356563 0.007606641042007625 0.03533961056431751 0.9904868572764618 -0.08328397201794714
 -0.0020279073184802784 -0.010519786612906274 0.0023649980104847547 0.016527896223646085 0.9904868572764618 -0.08328397201794714 0.007607694877076171 0.03533936267787641
0.1250521050438 0.008117901743879864 0.03736255117929346 0.9898113231153015 -0.08780567443438357 0.002588742206068739 0.017394704437350028 -0.002219610160137931 -0.011073176980016964
 0.9898113231153015 -0.08780567443438357 0.008119122511344829 0.03736222259339637 -0.002220041892964287 -0.011073135183774124 0.00259021430492254 0.017394431995806477
 0.002588742206068739 0.017394704437350028 -0.002220041892964287 -0.011073135183774124 0.008118007093043134 0.03736412407539821 0.9898114219144706 -0.08780397922387728
 -0.002219610160137931 -0.011073176980016964 0.00259021430492254 0.017394431995806477 0.9898114219144706 -0.08780397922387728 0.008119172289112521 0.03736384485701975
0.131304710296 0.008651219091094927 0.039400880355298915 0.9891076042278081 -0.09233813663701433 0.0028247514133236105 0.018259836412859422 -0.002420705457460831 -0.011625404067028116
 0.9891076042278081 -0.09233813663701433 0.008652563182720667 0.039400511863826135 -0.002421180177725417 -0.011625355175335356 0.0028263836869845058 0.018259527079591276
 0.0028247514133236105 0.018259836412859422 -0.002421180177725417 -0.011625355175335356 0.0086513343815344 0.03940252261545836 0.9891077136089071 -0.09233635356576989
 -0.002420705457460831 -0.011625404067028116 0.0028263836869845058 0.018259527079591276 0.9891077136089071 -0.09233635356576989 0.008652616215290095 0.03940220962424381
0.1375573155481 0.009087452481181278 0.041187468568046476 0.9884947135871048 -0.0966172619528638 0.0030427597858849057 0.019097226341684648 -0.0026022484658016374 -0.012150188690272708
 0.9884947135871048 -0.0966172619528638 0.009088925035773765 0.041187066813690894 -0.002602768815314634 -0.012150132607619135 0.0030445482552059213 0.01909688066145544
 0.0030427597858849057 0.019097226341684648 -0.002602768815314634 -0.012150132607619135 0.00908757717284427 0.041189179601847196 0.9884948340476002 -0.09661539074258518
 -0.0026022484658016374 -0.012150188690272708 0.0030445482552059213 0.01909688066145544 0.9884948340476002 -0.09661539074258518 0.00908898236607631 0.04118883888889337
0.1438099208003 0.009539132040469649 0.042964117540530124 0.9878600835115976 -0.10088499916416277 0.0032695578116548156 0.019930908822153055 -0.0027910334959692913 -0.012671553449079508
 0.9878600835115976 -0.10088499916416277 0.009540738595971513 0.042963680406399016 -0.0027916015099939207 -0.012671489528717236 0.0032715093704308532 0.019930524041271633
 0.0032695578116548156 0.019930908822153055 -0.0027916015099939207 -0.012671489528717236 0.009539266293192619 0.042965896108227555 0.9878602156849198 -0.10088303936800826
 -0.0027910334959692913 -0.012671553449079508 0.0032715093704308532 0.019930524041271633 0.9878602156849198 -0.10088303936800826 0.009540800301792395 0.04296552591108644
0.1500625260525 0.010006091062881394 0.044730662797305865 0.9872038851882623 -0.10514122590338684 0.003505062381334452 0.020760788674715848 -0.0029869794164332653 -0.01318940801266129
 0.9872038851882623 -0.10514122590338684 0.010007837106783135 0.04473018808331108 -0.0029875971219067658 -0.013189335582361935 0.003507183896884961 0.020760361939360872
 0.003505062381334452 0.020760788674715848 -0.0029875971219067658 -0.013189335582361935 0.01000623500488384 0.04473250761220845 0.9872040297244092 -0.10513917705861821
 -0.0029869794164332653 -0.01318940801266129 0.003507183896884961 0.020760361939360872 0.9872040297244092 -0.10513917705861821 0.010007903251145202 0.04473210609508666
0.15631513130469998 0.010488161566872075 0.04648694477592363 0.9865262907764126 -0.10938582058453544 0.0037491893510633585 0.021586772451187015 -0.003190004047134876 -0.013703664044265837
