! Created with skrf 1.8.0 (http://scikit-rf.org).
# GHz S RI R 50.0 
!freq ReS11 ImS11 ReS12 ImS12 ReS13 ImS13
! ReS14 ImS14
! ReS21 ImS21 ReS22 ImS22 ReS23 ImS23
! ReS24 ImS24
! ReS31 ImS31 ReS32 ImS32 ReS33 ImS33
! ReS34 ImS34
! ReS41 ImS41 ReS42 ImS42 ReS43 ImS43
! ReS44 ImS44
!
0.0 0.001406760969305 0.0 0.9985932390194 0.0 5.396618388581e-05 0.0 -5.396618455104e-05 6.6089515172626484e-21
 0.9985932390194 0.0 0.001406760969272 0.0 -5.396618455062e-05 6.608951517211213e-21 5.396618388357e-05 0.0
 5.396618388581e-05 0.0 -5.396618455062e-05 6.608951517211213e-21 0.001406760969293 0.0 0.9985932390194 0.0
 -5.396618455104e-05 6.6089515172626484e-21 5.396618388357e-05 0.0 0.9985932390194 0.0 0.001406760969281 0.0
0.005 0.0015131689712087274 0.0011523373039233375 0.9984586733410965 -0.0029471889733023544 7.525485061564835e-05 0.0005871764509799017 -7.31214803736664e-05 -0.0003699336871112245
 0.9984586733410965 -0.0029471889733023544 0.0015131947159614154 0.0011523222540538037 -7.311848864436278e-05 -0.0003699313779879387 7.510589967931447e-05 0.000587233104938641
 7.525485061564835e-05 0.0005871764509799017 -7.311848864436278e-05 -0.0003699313779879387 0.001513170918801289 0.0011524034006488815 0.9984586736958411 -0.0029471219124265814
 -7.31214803736664e-05 -0.0003699336871112245 7.510589967931447e-05 0.000587233104938641 0.9984586736958411 -0.0029471219124265814 0.0015131934723899994 0.00115239027454028
0.006252605252188 0.001540965122092096 0.0014449642376969662 0.9984233146030919 -0.003684723376724781 8.128845320925182e-05 0.0007342644649300725 -7.847801761501138e-05 -0.0004628998915656824
 0.9984233146030919 -0.003684723376724781 0.0015410053660116487 0.0014449451373835943 -7.847336229615729e-05 -0.0004628970437060513 8.10557291324945e-05 0.0007343380030304067
 8.128845320925182e-05 0.0007342644649300725 -7.847336229615729e-05 -0.0004628970437060513 0.0015409680808496189 0.0014450468404008387 0.9984233150717075 -0.0036846395630052865
 -7.847801761501138e-05 -0.0004628998915656824 8.10557291324945e-05 0.0007343380030304067 0.9984233150717075 -0.0036846395630052865 0.0015410033355420087 0.0014450301519158461
0.01250521050438 0.0016866416035171343 0.002920313743841704 0.9982368449129442 -0.007370349703476634 0.00011563293944678 0.0014689399212344744 -0.00010859262651027478 -0.0009281046775249433
 0.9982368449129442 -0.007370349703476634 0.0016868023003340474 0.00292027262839289 -0.00010857428046375436 -0.0009280994016797773 0.00011470484088267715 0.0014691161807320928
 0.00011563293944678 0.0014689399212344744 -0.00010857428046375436 -0.0009280994016797773 0.0016866528570499066 0.002920478636896767 0.9982368462203155 -0.007370182302439708
 -0.00010859262651027478 -0.0009281046775249433 0.00011470484088267715 0.0014691161807320928 0.9982368462203155 -0.007370182302439708 0.0016867936220490095 0.002920442441437557
0.01875781575657 0.0018440866127795933 0.004416810907005354 0.9980336139190582 -0.011065870787992519 0.00015707495050643503 0.00220452151538497 -0.00014439770458248542 -0.0013949688035579065
 0.9980336139190582 -0.011065870787992519 0.0018444477090707053 0.00441674461512198 -0.0001443567918475217 -0.001394961594136418 0.00015498995772072384 0.0022048350053134767
 0.00015707495050643503 0.00220452151538497 -0.0001443567918475217 -0.001394961594136418 0.0018441114809282378 0.004417057847169303 0.9980336164337023 -0.011065619879459485
 -0.00014439770458248542 -0.0013949688035579065 0.00015498995772072384 0.0022048350053134767 0.9980336164337023 -0.011065619879459485 0.0018444277704696265 0.004416999158694048
0.02501042100875 0.0020135887354358075 0.005932387870925871 0.9978133976684717 -0.014773100553615115 0.00020569141716823152 0.0029410500992374192 -0.00018597855193447536 -0.0018632967250138063
 0.9978133976684717 -0.014773100553615115 0.0020142300174482253 0.005932293023173362 -0.00018590630179721507 -0.0018632881599983209 0.0002019877421613204 0.002941540451397245
 0.00020569141716823152 0.0029410500992374192 -0.00018590630179721507 -0.0018632881599983209 0.0020136325358158704 0.0059327165860711675 0.9978134017648159 -0.014772766170948231
 -0.00018597855193447536 -0.0018632967250138063 0.0002019877421613204 0.002941540451397245 0.9978134017648159 -0.014772766170948231 0.0020141942119368088 0.005932632274685936
0.03126302626094 0.002195424530758282 0.007465992204050617 0.9975759600125211 -0.01849282934802497 0.0002615600279791172 0.003678500165803933 -0.00023341833396276493 -0.002332954864440431
 0.9975759600125211 -0.01849282934802497 0.0021964256662586764 0.007465865208066479 -0.00023330606278785157 -0.002332945606554298 0.00025577517314958974 0.0036792121636619246
 0.0002615600279791172 0.003678500165803933 -0.00023330606278785157 -0.002332945606554298 0.0021954925718022586 0.007466402381657064 0.9975759660633078 -0.01849241148939074
 -0.00023341833396276493 -0.002332954864440431 0.00025577517314958974 0.0036792121636619246 0.9975759660633078 -0.01849241148939074 0.0021963693815500746 0.0074662891788586155
0.037515631513130004 0.002389864716824014 0.009016946587095757 0.9973210589436668 -0.02222546419981772 0.00032475840272734347 0.004416820154273613 -0.00028679867707318414 -0.002803831289965275
 0.9973210589436668 -0.02222546419981772 0.0023913052816568773 0.009016783640032389 -0.0002866377789805217 -0.0028038220870343343 0.00031642895561015215 0.004417803785603362
 0.00032475840272734347 0.004416820154273613 -0.0002866377789805217 -0.0028038220870343343 0.002389962302356363 0.009017437848412089 0.9973210673236353 -0.022224962853395126
 -0.00028679867707318414 -0.002803831289965275 0.00031642895561015215 0.004417803785603362 0.9973210673236353 -0.022224962853395126 0.0023912239021580063 0.009017292350257777
0.043768236765320004 0.0025971765723236764 0.010584753935912445 0.9970484491523451 -0.025971223631389963 0.0003953637171554395 0.005155944696067499 -0.0003461998821473251 -0.003275823458848816
 0.9970484491523451 -0.025971223631389963 0.002599136070822854 0.010584551025742508 -0.0003459818233733371 -0.0032758151439552657 0.0003840252461136704 0.005157255213068642
 0.0003953637171554395 0.005155944696067499 -0.0003459818233733371 -0.0032758151439552657 0.002597309001522115 0.010585325850970068 0.9970484602389654 -0.025970638759747887
 -0.0003461998821473251 -0.003275823458848816 0.0003840252461136704 0.005157255213068642 0.9970484602389654 -0.025970638759747887 0.00259902497696347 0.01058514452019411
0.050020842017509996 0.00281762505698001 0.012169016868258175 0.9967578833082952 -0.029730218125652835 0.00047345247865166737 0.005895799683936385 -0.00041170101029978245 -0.003748833140815689
 0.9967578833082952 -0.029730218125652835 0.0028201829395495355 0.01216876977447238 -0.0004114173256690998 -0.003748826632336011 0.00045863948160664985 0.005897497666512735
 0.00047345247865166737 0.005895799683936385 -0.0004114173256690998 -0.003748826632336011 0.002817797623919605 0.012169668946041554 0.9967578974816399 -0.02972954967477282
 -0.00041170101029978245 -0.003748833140815689 0.00045863948160664985 0.005897497666512735 0.9967578974816399 -0.02972954967477282 0.002820037506121943 0.01216944811390964
0.055454545454549996 0.003020074488430884 0.013558890350596304 0.9964905972157473 -0.03300768055299509 0.0005474502591962798 0.006539287001417407 -0.0004736378454749012 -0.004160644353090546
 0.9964905972157473 -0.03300768055299509 0.0030232168779467344 0.013558601270555824 -0.0004732903066016234 -0.004160640226548844 0.0005292389034420698 0.0065413750880454315
 0.0005474502591962798 0.006539287001417407 -0.0004732903066016234 -0.004160640226548844 0.0030202862323792825 0.013559611640850296 0.9964906143836547 -0.03300693941713943
 -0.0004736378454749012 -0.004160644353090546 0.0005292389034420698 0.0065413750880454315 0.9964906143836547 -0.03300693941713943 0.003023037842619851 0.01355935340010003
0.056273447269699996 0.003051473392260149 0.013769398185008478 0.9964491128032803 -0.03350248957845198 0.0005591003763524652 0.006636304738446013 -0.0004833799034476145 -0.004222763946460308
 0.9964491128032803 -0.03350248957845198 0.003054709070746819 0.013769102478766943 -0.00048302219387484624 -0.004222760248101705 0.0005403462621292823 0.006638456158925027
 0.0005591003763524652 0.006636304738446013 -0.00048302219387484624 -0.004222760248101705 0.003051691386322251 0.013770129870169817 0.9964491304474322 -0.03350173748029469
 -0.0004833799034476145 -0.004222763946460308 0.0005403462621292823 0.006638456158925027 0.9964491304474322 -0.03350173748029469 0.003054524667510223 0.013769865737572343
0.06252605252188 0.003298983380818935 0.015385599130991802 0.9961218882379985 -0.03728803297272519 0.0006523821608080757 0.007377374582640758 -0.0005613131799403141 -0.004697519949990337
 0.9961218882379985 -0.03728803297272519 0.0033029762431786777 0.01538525017493248 -0.0005608731107702667 -0.004697520150790161 0.0006292192509950438 0.0073800508712770635
 0.0006523821608080757 0.007377374582640758 -0.0005608731107702667 -0.004697520150790161 0.0032992520857603254 0.015386409802981763 0.9961219097406927 -0.03728719714542211
 -0.0005613131799403141 -0.004697519949990337 0.0006292192509950438 0.0073800508712770635 0.9961219097406927 -0.03728719714542211 0.0033027482336753845 0.015386098441337669
0.06877865777407 0.0035604155824501124 0.01701734643566078 0.9957759597668975 -0.041086809274837745 0.0007533715466464004 0.008118919847510188 -0.0006455762085524136 -0.005173004883896151
 0.9957759597668975 -0.041086809274837745 0.003565245006512416 0.0170169393833299 -0.0006450455083836671 -0.005173010158197522 0.0007253310926421054 0.008122197958256944
 0.0007533715466464004 0.008118919847510188 -0.0006450455083836671 -0.005173010158197522 0.0035607402752496583 0.01701823541072554 0.9957759855197796 -0.041085889619888356
 -0.0006455762085524136 -0.005173004883896151 0.0007253310926421054 0.008122197958256944 0.9957759855197796 -0.041085889619888356 0.0035649687469830626 0.017017872762507182
0.07503126302626001 0.0038360294029973437 0.018664384099117148 0.995411077360595 -0.04489875358825568 0.0008621411244922282 0.008860847586852917 -0.0007362430739234285 -0.005649121627053018
 0.995411077360595 -0.04489875358825568 0.0038417747701929334 0.018663913893866478 -0.0007356135337748176 -0.005649133234486665 0.0008287533356250936 0.00886481006310202
 0.0008621411244922282 0.008860847586852917 -0.0007356135337748176 -0.005649133234486665 0.0038364153547088397 0.018665350627067534 0.995411107760693 -0.044897749993040775
 -0.0007362430739234285 -0.005649121627053018 0.0008287533356250936 0.00886481006310202 0.995411107760693 -0.044897749993040775 0.0038414456107649752 0.018664932505863076
0.08128386827845 0.004126083135205303 0.020326467926775317 0.9950269910214573 -0.048723780561131226 0.0009787622803984607 0.009603061626447447 -0.0008333865345688101 -0.006125771861430111
 0.9950269910214573 -0.048723780561131226 0.004132823843481272 0.020325929300475627 -0.000832650007348267 -0.006125791146876754 0.0009395563602354994 0.009607796666648124
 0.0009787622803984607 0.009603061626447447 -0.000832650007348267 -0.006125791146876754 0.004126535609098858 0.02032751119167743 0.9950270264707896 -0.04872269289760145
 -0.0008333865345688101 -0.006125771861430111 0.0009395563602354994 0.009607796666648124 0.9950270264707896 -0.04872269289760145 0.004132437126635158 0.020327033281965567
0.08753647353064001 0.004430833958957982 0.022003361742233427 0.9946234509632413 -0.0525617881190965 0.0011033051204062986 0.010345462798866327 -0.0009370779750029418 -0.006602855846272465
 0.9946234509632413 -0.0525617881190965 0.004438649436175869 0.022002749213434245 -0.0009362263751786171 -0.006602884239815276 0.0010578093102873308 0.010351064321779995
 0.0011033051204062986 0.010345462798866327 -0.0009362263751786171 -0.006602884239815276 0.0044313582102267135 0.022004480858362197 0.9946234918697103 -0.05256061624706345
 -0.0009370779750029418 -0.006602855846272465 0.0010578093102873308 0.010351064321779995 0.9946234918697103 -0.05256061624706345 0.004438200496812233 0.022003938714800532
0.09378907878283 0.00475053792132549 0.023694834689108196 0.99420020777244 -0.0564126601122512 0.00123583839698613 0.011087949120148455 -0.0010473873555650155 -0.007080272253526281
 0.99420020777244 -0.0564126601122512 0.004759507638323313 0.023694142560905285 -0.001046412659016232 -0.007080311270395038 0.0011835800251472966 0.01109451682971142
 0.00123583839698613 0.011087949120148455 -0.001046412659016232 -0.007080311270395038 0.0047511391965988975 0.023696028704577796 0.994200254550393 -0.05641140387506861
 -0.0010473873555650155 -0.007080272253526281 0.0011835800251472966 0.01109451682971142 0.994200254550393 -0.05641140387506861 0.004758991803530722 0.023695417751072027
0.100041684035 0.005085449897271666 0.02540065924489681 0.9937570125531229 -0.060276268253584245 0.001376429438350119 0.011830415921325194 -0.0011643831587330265 -0.007557918051758562
 0.9937570125531229 -0.060276268253584245 0.005095653380883572 0.025399881602312747 -0.0011632774026859123 -0.007557969292268444 0.0013169349737403818 0.011838055370951058
 0.001376429438350119 0.011830415921325194 -0.0011632774026859123 -0.007557969292268444 0.005086133433329705 0.0254019271356786 0.9937570656234048 -0.06027492748362628
 -0.0011643831587330265 -0.007557918051758562 0.0013169349737403818 0.011838055370951058 0.9937570656234048 -0.06027492748362628 0.005095065969453268 0.02540124266383076
0.1059090909091 0.005413786752936031 0.027014246243402006 0.9933227535553635 -0.06391331443058629 0.0015157463315562207 0.012527029004530442 -0.0012803121968674655 -0.008006253257560455
 0.9933227535553635 -0.06391331443058629 0.0054252203857241225 0.02701338277818376 -0.001279076268032951 -0.00800631749985631 0.0014490301758303512 0.0125357754348194
 0.0015157463315562207 0.012527029004530442 -0.001279076268032951 -0.00800631749985631 0.005414552235559417 0.027015582467052088 0.9933228129197359 -0.06391189416830356
 -0.0012803121968674655 -0.008006253257560455 0.0014490301758303512 0.0125357754348194 0.9933228129197359 -0.06391189416830356 0.005424561542338811 0.027014824604349032
0.1062942892872 0.005435823537906566 0.027120609729126482 0.9932936170621901 -0.0641524735669745 0.0015251440787179915 0.012572755946775989 -0.0012881323334950146 -0.008035688426527242
 0.9932936170621901 -0.0641524735669745 0.005447340383996688 0.027119740436162547 -0.0012868876165853145 -0.008035753576000533 0.0014579391892483675 0.012581578603052968
 0.0015251440787179915 0.012572755946775989 -0.0012868876165853145 -0.008035753576000533 0.005436594561182546 0.027121950404763225 0.9932936768531657 -0.064151048079113
 -0.0012881323334950146 -0.008035688426527242 0.0014579391892483675 0.012581578603052968 0.9932936768531657 -0.064151048079113 0.005446676706483054 0.027121187572048983
0.11254689453939999 0.0058019112093305155 0.028854461168611865 0.9928097738383515 -0.06804112748167662 0.0016820465893401819 0.013314859438596558 -0.0014187002383708465 -0.008513476718231067
 0.9928097738383515 -0.06804112748167662 0.005814821096176489 0.028853493864741665 -0.0014173087208426772 -0.008513557546908492 0.001606656203813462 0.013324982744303934
 0.0016820465893401819 0.013314859438596558 -0.0014173087208426772 -0.008513557546908492 0.005802774934659011 0.028855873464965497 0.9928098407858427 -0.06803961708012472
 -0.0014187002383708465 -0.008513476718231067 0.001606656203813462 0.013324982744303934 0.9928098407858427 -0.06803961708012472 0.00581407645401659 0.028855027292411337
0.11879949979160001 0.006183963922838806 0.030601988397236032 0.9923052363238355 -0.07194207269640641 0.0018471996107805903 0.014056614202625432 -0.0015561505825354937 -0.008991174381748682
 0.9923052363238355 -0.07194207269640641 0.006198346624173913 0.03060091649360506 -0.001554604486437388 -0.008991272744693458 0.0017631479840783575 0.014068161639066542
 0.0018471996107805903 0.014056614202625432 -0.001554604486437388 -0.008991272744693458 0.0061849255530212885 0.030603471080924267 0.9923053108721919 -0.07194047716961317
 -0.0015561505825354937 -0.008991174381748682 0.0017631479840783575 0.014068161639066542 0.9923053108721919 -0.07194047716961317 0.006197516310133623 0.030602536450355437
0.1250521050438 0.006582231260244014 0.03236296536124174 0.9917797589847778 -0.07585514384195328 0.0020206640847848013 0.014797905665934941 -0.001700545366423828 -0.009468670958348774
 0.9917797589847778 -0.07585514384195328 0.006598166658505609 0.03236178203627493 -0.0016988369759112867 -0.009468788795333891 0.0019274748664806314 0.014811006814292803
 0.0020206640847848013 0.014797905665934941 -0.0016988369759112867 -0.009468788795333891 0.006583295984842677 0.032364517127226725 0.9917798415873162 -0.07585346296450321
 -0.001700545366423828 -0.009468670958348774 0.0019274748664806314 0.014811006814292803 0.9917798415873162 -0.07585346296450321 0.006597245956249797 0.03236348877805969
0.131304710296 0.006996961292991506 0.03413716455240303 0.9912330974276878 -0.07978016802010454 0.002202499187156192 0.015538616929546514 -0.0018519448210796347 -0.009945854055861215
 0.9912330974276878 -0.07978016802010454 0.007014529392936641 0.034135862747029184 -0.0018500664827471338 -0.009945993391256075 0.0020996954926664714 0.015553407531575312
 0.002202499187156192 0.015538616929546514 -0.0018500664827471338 -0.009945993391256075 0.0069981342874253375 0.03413878402374913 0.9912331885467637 -0.07977840155252394
 -0.0018519448210796347 -0.009945854055861215 0.0020996954926664714 0.015553407531575312 0.9912331885467637 -0.07977840155252394 0.007013513576606356 0.03413765654928892
0.1375573155481 0.00732974756299575 0.03569312061914251 0.9907636917052154 -0.08348565361637483 0.002369290280504133 0.016255316982842192 -0.0019870594610403598 -0.010399224770396405
 0.9907636917052154 -0.08348565361637483 0.007349033707916865 0.03569171986699841 -0.0019849998525104085 -0.010399385638116052 0.002256634629687643 0.016271768807203997
 0.002369290280504133 0.016255316982842192 -0.0019849998525104085 -0.010399385638116052 0.007331033493262447 0.035694806495108054 0.9907637917308266 -0.08348380142832534
 -0.0019870594610403598 -0.010399224770396405 0.002256634629687643 0.016271768807203997 0.9907637917308266 -0.08348380142832534 0.0073479186871058455 0.03569360109830189
0.1438099208003 0.007674125701520317 0.03724146603075263 0.9902779858277967 -0.08718232952272321 0.0025428359541560214 0.016969386176039217 -0.00212758755599787 -0.01085023225514568
 0.9902779858277967 -0.08718232952272321 0.0076952108727666255 0.03723996090185944 -0.0021253384526387633 -0.01085041663338011 0.002419894017449614 0.016987622693210774
 0.0025428359541560214 0.016969386176039217 -0.0021253384526387633 -0.01085041663338011 0.007675529631306329 0.037243216885480455 0.9902780952209345 -0.08718039138219971
 -0.00212758755599787 -0.01085023225514568 0.002419894017449614 0.016987622693210774 0.9902780952209345 -0.08718039138219971 0.007693992022946833 0.03724192984092243
0.1500625260525 0.008029981955796088 0.03878208869508139 0.9897760970564077 -0.09087012132183919 0.0027230814632166 0.017680760466565897 -0.0022734768565139322 -0.011298817378885969
 0.9897760970564077 -0.09087012132183919 0.008052947282741517 0.0387804734580574 -0.0022710300493231942 -0.011299027325025158 0.0025894211824113575 0.017700909649775567
 0.0027230814632166 0.017680760466565897 -0.0022710300493231942 -0.011299027325025158 0.00803150892968797 0.03878390304655801 0.9897762162859463 -0.09086809698662475
 -0.0022734768565139322 -0.011298817378885969 0.0025894211824113575 0.017700909649775567 0.9897762162859463 -0.09086809698662475 0.008051619977788547 0.038782530396643845
0.15631513130469998 0.00839720185849853 0.04031487999199573 0.9892581431440363 -0.09454895451701005 0.0029099714674092683 0.01838937680032472 -0.002424674518666461 -0.011744922194065758
