! Created with skrf 1.8.0 (http://scikit-rf.org).
# GHz S RI R 50.0 
!freq ReS11 ImS11 ReS12 ImS12 ReS13 ImS13
! ReS14 ImS14
! ReS21 ImS21 ReS22 ImS22 ReS23 ImS23
! ReS24 ImS24
! ReS31 ImS31 ReS32 ImS32 ReS33 ImS33
! ReS34 ImS34
! ReS41 ImS41 ReS42 ImS42 ReS43 ImS43
! ReS44 ImS44
!
0.0 0.001742720806484 0.0 0.9982572791935 0.0 6.764173954244e-05 0.0 -6.764173980863e-05 8.283724014539683e-21
 0.9982572791935 0.0 0.001742720806443 0.0 -6.764173980808e-05 8.283724014472328e-21 6.764173954139e-05 0.0
 6.764173954244e-05 0.0 -6.764173980808e-05 8.283724014472328e-21 0.001742720799364 0.0 0.9982572791864 0.0
 -6.764173980863e-05 8.283724014539683e-21 6.764173954139e-05 0.0 0.9982572791864 0.0 0.001742720799355 0.0
0.005 0.001875702112615706 0.001423405166746653 0.9980889410828881 -0.0036499639343394695 9.534198386820897e-05 0.0007553044200905007 -9.253942326970474e-05 -0.00047220833605383206
 0.9980889410828881 -0.0036499639343394695 0.0018756861411137968 0.0014234145557198122 -9.254166289448695e-05 -0.0004722100932738251 9.542495614455094e-05 0.0007552726695676625
 9.534198386820897e-05 0.0007553044200905007 -9.254166289448695e-05 -0.0004722100932738251 0.0018757011431155936 0.001423473058031854 0.9980889414570302 -0.0036498968721021896
 -9.253942326970474e-05 -0.00047220833605383206 9.542495614455094e-05 0.0007552726695676625 0.9980889414570302 -0.0036498968721021896 0.0018756878555218604 0.0014234807875633869
0.006252605252188 0.0019107762509184615 0.001784836304777676 0.9980442351011226 -0.004563317040685831 0.00010334535164577938 0.0009444803133165185 -9.965941935893155e-05 -0.000590861313967491
 0.9980442351011226 -0.004563317040685831 0.0019107512842810612 0.001784848253404919 -9.966290406432398e-05 -0.0005908634808178845 0.0001034749853762547 0.0009444390831776745
 0.00010334535164577938 0.0009444803133165185 -9.966290406432398e-05 -0.0005908634808178845 0.0019107746637025184 0.0017849211597696431 0.9980442356149383 -0.004563233226988903
 -9.965941935893155e-05 -0.000590861313967491 0.0001034749853762547 0.0009444390831776745 0.9980442356149383 -0.004563233226988903 0.0019107538935549298 0.0017849310223627228
0.01250521050438 0.002096561234539447 0.0036068292696021607 0.9978057505437931 -0.00912721838306333 0.00014971670285489203 0.0018892113058488996 -0.00014054254863298617 -0.001184466000784712
 0.9978057505437931 -0.00912721838306333 0.0020964615375071776 0.0036068553355011464 -0.0001405562775167132 -0.0011844700063810977 0.00015023358229273223 0.0018891120566971876
 0.00014971670285489203 0.0018892113058488996 -0.0001405562775167132 -0.0011844700063810977 0.002096554319949047 0.0036069988005339518 0.9978057520265502 -0.0091270509921588
 -0.00014054254863298617 -0.001184466000784712 0.00015023358229273223 0.0018891120566971876 0.9978057520265502 -0.0091270509921588 0.00209647139338233 0.0036070205497153885
0.01875781575657 0.002300521689673596 0.005454457396670606 0.9975415004245419 -0.01370276548781647 0.00020687055406893283 0.0028348076371252696 -0.0001904256619984417 -0.0017799156432084463
 0.9975415004245419 -0.01370276548781647 0.002300297655137582 0.005454499964893001 -0.0001904562717726214 -0.0017799210899849369 0.00020803150016881483 0.0028346299506711455
 0.00020687055406893283 0.0028348076371252696 -0.0001904562717726214 -0.0017799210899849369 0.0023005057125657443 0.005454711592447895 0.9975415033330863 -0.013702514614792364
 -0.0001904256619984417 -0.0017799156432084463 0.00020803150016881483 0.0028346299506711455 0.9975415033330863 -0.013702514614792364 0.002300319388565352 0.00545474738492626
0.02501042100875 0.0025230879369303066 0.007325079672776152 0.9972511457899492 -0.018292124118667402 0.0002749224623408607 0.00378128082922427 -0.0002494379789908175 -0.0023769065579931433
 0.9972511457899492 -0.018292124118667402 0.0025226900508890245 0.007325141329643301 -0.00024949202447645345 -0.0023769129722361264 0.00027698427756124236 0.0037810007739467804
 0.0002749224623408607 0.00378128082922427 -0.00024949202447645345 -0.0023769129722361264 0.0025230591611049864 0.007325418577449673 0.9972511505817075 -0.01829178982810252
 -0.0002494379789908175 -0.0023769065579931433 0.00027698427756124236 0.0037810007739467804 0.9972511505817075 -0.01829178982810252 0.002522728290773775 0.007325470690923208
0.03126302626094 0.002764672422084685 0.009217310508614948 0.9969343319755857 -0.02289618938125809 0.0003539877877673761 0.004728553315067304 -0.00031770442377176186 -0.0029752158653436754
 0.9969343319755857 -0.02289618938125809 0.00276405123713848 0.009217394039949018 -0.0003177883915299487 -0.0029752226964703363 0.0003572074881154946 0.0047281434269989125
 0.0003539877877673761 0.004728553315067304 -0.0003177883915299487 -0.0029752226964703363 0.002764627105062031 0.00921773422470223 0.996934339105776 -0.022895771703933
 -0.00031770442377176186 -0.0029752158653436754 0.0003572074881154946 0.0047281434269989125 0.996934339105776 -0.022895771703933 0.002764110608228094 0.009217805055552957
0.037515631513130004 0.003025678130305276 0.011130226449118727 0.9965906973892141 -0.027515378954335794 0.00044418061319770395 0.005676511851520131 -0.00039534652192892036 -0.0035746481162127262
 0.9965906973892141 -0.027515378954335794 0.003024784247877476 0.011130334840046023 -0.00039546683718062547 -0.0035746547365755094 0.000448815526518312 0.005675941100898224
 0.00044418061319770395 0.005676511851520131 -0.00039546683718062547 -0.0035746547365755094 0.0030256125258867925 0.011130735111825696 0.9965907073144982 -0.0275148779132211
 -0.00039534652192892036 -0.0035746481162127262 0.000448815526518312 0.005675941100898224 0.9965907073144982 -0.0275148779132211 0.0030248693744252455 0.011130827174147314
0.043768236765320004 0.003306501823200806 0.013063124720774111 0.9962198771152653 -0.03214987447362068 0.0005456132143329711 0.006625023782113109 -0.0004824827049609558 -0.0041750190641558285
 0.9962198771152653 -0.03214987447362068 0.0033052858795879414 0.01306326115627169 -0.00048264573560331114 -0.004175024769046434 0.000551921021517956 0.006624257535653408
 0.0005456132143329711 0.006625023782113109 -0.00048264573560331114 -0.004175024769046434 0.003306412180225711 0.013063718501099981 0.9962198902928738 -0.032149290081123466
 -0.0004824827049609558 -0.0041750190641558285 0.000551921021517956 0.006624257535653408 0.9962198902928738 -0.032149290081123466 0.003305401384856716 0.013063834426023812
0.050020842017509996 0.0036075355226474807 0.01501542347430961 0.9958215047689695 -0.03679972121958906 0.000658395729017567 0.007573943757781106 -0.0005792283994522767 -0.004776148981697587
 0.9958215047689695 -0.03679972121958906 0.003605948177184497 0.015015591340250427 -0.0005794404586629802 -0.0047761529893800775 0.0006666344743445302 0.007572943739296764
 0.000658395729017567 0.007573943757781106 -0.0005794404586629802 -0.0047761529893800775 0.003607418084701112 0.015016102576242404 0.995821521657044 -0.036799053480755996
 -0.0005792283994522767 -0.004776148981697587 0.0006666344743445302 0.007572943739296764 0.995821521657044 -0.036799053480755996 0.0036060986827396754 0.015016245111883009
0.055454545454549996 0.0038858573781340136 0.016727388537147284 0.9954526466437007 -0.04085301491158559 0.0007657084176174239 0.008398795377626927 -0.0006711948258176707 -0.005299026862755189
 0.9954526466437007 -0.04085301491158559 0.0038839072119122766 0.01672758662397243 -0.0006714545781705376 -0.005299028700879749 0.0007758350467354269 0.008397558259837993
 0.0007657084176174239 0.008398795377626927 -0.0006714545781705376 -0.005299028700879749 0.0038857127309583563 0.01672814197982401 0.9954526671296375 -0.0408522747385976
 -0.0006711948258176707 -0.005299026862755189 0.0007758350467354269 0.008397558259837993 0.9954526671296375 -0.0408522747385976 0.003884091885891957 0.01672830996381522
0.056273447269699996 0.00392916725090088 0.01698661281563511 0.9953952136116694 -0.04146487702122265 0.0007826359080742298 0.008523117045935343 -0.0006856960257841683 -0.0053778593937109445
 0.9953952136116694 -0.04146487702122265 0.0039271591747447165 0.016986815700238682 -0.0006859633736883441 -0.005377860845495356 0.0007930639913948555 0.008521841296298469
 0.0007826359080742298 0.008523117045935343 -0.0006859633736883441 -0.005377860845495356 0.003929018256734116 0.01698737747785789 0.9953952346700984 -0.041464125932478335
 -0.0006856960257841683 -0.0053778593937109445 0.0007930639913948555 0.008521841296298469 0.9953952346700984 -0.041464125932478335 0.003927349300744195 0.016987549489539174
0.06252605252188 0.00427178140811045 0.018976227895804096 0.9949406373086519 -0.04614523910694712 0.000918438911705779 0.009472381363686784 -0.0008019949462026357 -0.005979971293285479
 0.9949406373086519 -0.04614523910694712 0.004269303273847615 0.018976469591508935 -0.000802323790914219 -0.005979969253612505 0.0009313150679784551 0.00947078420070015
 0.000918438911705779 0.009472381363686784 -0.000802323790914219 -0.005979969253612505 0.0042715970914370335 0.018977078391436433 0.9949406629990414 -0.046144404656724855
 -0.0008019949462026357 -0.005979971293285479 0.0009313150679784551 0.00947078420070015 0.9949406629990414 -0.046144404656724855 0.0042695376387847615 0.018977282862317722
0.06877865777407 0.004635758947482987 0.020983832867924945 0.9944574104896164 -0.05084066009598336 0.0010659071286867564 0.010421567977960488 -0.00092823138586648 -0.006582304098185447
 0.9944574104896164 -0.05084066009598336 0.004632761419379744 0.020984117373611836 -0.0009286278842799858 -0.006582297554712429 0.0010814903989671122 0.010419599956406069
 0.0010659071286867564 0.010421567977960488 -0.0009286278842799858 -0.006582297554712429 0.004635535537259448 0.020984769505500694 0.9944574412759922 -0.050839742264276906
 -0.00092823138586648 -0.006582304098185447 0.0010814903989671122 0.010419599956406069 0.9944574412759922 -0.050839742264276906 0.004633044639164039 0.020985009537617578
0.07503126302626001 0.005021477433290606 0.023009010727459308 0.9939451691973039 -0.055550958115146314 0.0012251400093476318 0.011370502418712194 -0.001064508337532312 -0.007184675002158463
 0.9939451691973039 -0.055550958115146314 0.005017911157488627 0.023009342250999026 -0.001064978595700057 -0.007184662865857324 0.0012436897050405518 0.01136811029075049
 0.0012251400093476318 0.011370502418712194 -0.001064978595700057 -0.007184662865857324 0.005021211153336777 0.023010033846649406 0.9939452055455354 -0.055549956878191135
 -0.001064508337532312 -0.007184675002158463 0.0012436897050405518 0.01136811029075049 0.9939452055455354 -0.055549956878191135 0.00501824784477218 0.023010312662221387
0.08128386827845 0.0054293110218617095 0.025051356554119594 0.993403551263224 -0.06027592352288467 0.001396233907629348 0.012319004968109774 -0.0012109254547701684 -0.007786898558584752
 0.993403551263224 -0.06027592352288467 0.00542512661669044 0.025051739515460702 -0.0012114755281562065 -0.00778687966385875 0.0014180095695001903 0.01231613164426813
 0.001396233907629348 0.012319004968109774 -0.0012114755281562065 -0.00778687966385875 0.005428998091541943 0.025052466529785267 0.9934035936421332 -0.06027483884960819
 -0.0012109254547701684 -0.007786898558584752 0.0014180095695001903 0.01231613164426813 0.9934035936421332 -0.06027483884960819 0.005425521380652623 0.02505278747304672
0.08753647353064001 0.005859630394270649 0.027110472848803902 0.9928321966399459 -0.06501532354815776 0.0015792819290603734 0.013266891011060138 -0.0013675789375908161 -0.008388786411526093
 0.9928321966399459 -0.06501532354815776 0.005854778440782963 0.027110911883313795 -0.0013682148311297648 -0.00838875951632356 0.0016045432819723022 0.01326347552178167
 0.0015792819290603734 0.013266891011060138 -0.0013682148311297648 -0.00838875951632356 0.005859267028565848 0.027111670089923764 0.9928322455214641 -0.06501415540174352
 -0.0013675789375908161 -0.008388786411526093 0.0016045432819723022 0.01326347552178167 0.9928322455214641 -0.06501415540174352 0.00585523588623408 0.02711203662928667
0.09378907878283 0.00631280265362575 0.029185966211681215 0.9922307477032271 -0.06976890559832045 0.0017743737821960064 0.014213971303049319 -0.0015345614131934185 -0.008990147118248736
 0.9922307477032271 -0.06976890559832045 0.006307233686429024 0.02918646617393235 -0.0015352890812371412 -0.00899011090418176 0.001803380686434813 0.01420994876104126
 0.0017743737821960064 0.014213971303049319 -0.0015352890812371412 -0.00899011090418176 0.006312385063080937 0.02918725116234981 0.9922308035623575 -0.06976765393572536
 -0.0015345614131934185 -0.008990147118248736 0.001803380686434813 0.01420994876104126 0.9922308035623575 -0.06976765393572536 0.006307758412909133 0.029187666892968603
0.100041684035 0.006789191197456913 0.03127744491317986 0.9915988495317491 -0.07453639968449657 0.0019815956332948363 0.015160052181461662 -0.0017119618127870943 -0.00959078603750476
 0.9915988495317491 -0.07453639968449657 0.006782855695026052 0.03127801088120375 -0.0017127871589589772 -0.009590739109993616 0.002014608032549955 0.015155353744799083
 0.0019815956332948363 0.015160052181461662 -0.0017127871589589772 -0.009590739109993616 0.0067887155887399395 0.0312788180536454 0.9915989128470422 -0.07453506445593493
 -0.0017119618127870943 -0.00959078603750476 0.002014608032549955 0.015155353744799083 0.9915989128470422 -0.07453506445593493 0.00678345229622565 0.031279286700446884
0.1059090909091 0.007257666608004397 0.033254265260223445 0.9909778733203822 -0.07902258589868803 0.0021871569836289183 0.016046763550477725 -0.001887984125759262 -0.01015358924794202
 0.9909778733203822 -0.07902258589868803 0.007250566696062072 0.03325489798918828 -0.0018889064563167434 -0.010153530930909016 0.0022241645572414256 0.016041364692980162
 0.0021871569836289183 0.016046763550477725 -0.0018889064563167434 -0.010153530930909016 0.007257133101649158 0.03325572162489132 0.9909779440712934 -0.07902117220307586
 -0.001887984125759262 -0.01015358924794202 0.0022241645572414256 0.016041364692980162 0.9909779440712934 -0.07902117220307586 0.007251234915901266 0.03325624343428217
0.1062942892872 0.007289155572431751 0.03338451707414732 0.9909361501739588 -0.07931752024884292 0.0022010299628856234 0.016104935742593005 -0.0018998652459170902 -0.010190505261383886
 0.9909361501739588 -0.07931752024884292 0.007282003947819956 0.03338515435404988 -0.0019007941228256608 -0.010190446149807592 0.002238307829546631 0.016099488578691576
 0.0022010299628856234 0.016104935742593005 -0.0019007941228256608 -0.010190446149807592 0.00728861814798541 0.03338597891911042 0.9909362214278806 -0.07931610140002233
 -0.0018998652459170902 -0.010190505261383886 0.002238307829546631 0.016099488578691576 0.9909362214278806 -0.07931610140002233 0.007282677010533919 0.03338650434020669
0.11254689453939999 0.007813051313909926 0.03550678929201781 0.9902423009033646 -0.08411196755688645 0.002432755424289472 0.0170484199915256 -0.0020983528725758436 -0.010789103583788878
 0.9902423009033646 -0.08411196755688645 0.007805033905355115 0.035507503423100384 -0.0020993910815123463 -0.010789030741633848 0.0024745587023125063 0.0170421472421161
 0.002432755424289472 0.0170484199915256 -0.0020993910815123463 -0.010789030741633848 0.007812448273002318 0.03550834039366139 0.9902423805825169 -0.08411046502647032
 -0.0020983528725758436 -0.010789103583788878 0.0024745587023125063 0.0170421472421161 0.9902423805825169 -0.08411046502647032 0.007805788009150184 0.0355089265842937
0.11879949979160001 0.008361229775751563 0.037643865572541554 0.9895169564667008 -0.08891942879579166 0.0026768467033333656 0.01799029897867878 -0.0023075017743632484 -0.01138637649193119
 0.9895169564667008 -0.08891942879579166 0.008352296837696487 0.03764466233280931 -0.0023086550650507544 -0.011386288296952892 0.0027234352489852623 0.01798311972572878
 0.0026768467033333656 0.01799029897867878 -0.0023086550650507544 -0.011386288296952892 0.00836055731430153 0.037645506520163415 0.9895170450622828 -0.08891784251642085
 -0.0023075017743632484 -0.01138637649193119 0.0027234352489852623 0.01798311972572878 0.9895170450622828 -0.08891784251642085 0.008353136553286667 0.03764615761705444
0.1250521050438 0.008934037951514373 0.03979534650113384 0.9887597753261093 -0.09373957894477826 0.0029333743797713544 0.018930362925197643 -0.0025273848248901624 -0.011982116178750215
 0.9887597753261093 -0.09373957894477826 0.008924139644681134 0.03979623191327707 -0.0025286588949017578 -0.011982010933178331 0.002985007899982131 0.018922192157882208
 0.0029333743797713544 0.018930362925197643 -0.0025286588949017578 -0.011982010933178331 0.008933292262415517 0.03979707792017661 0.9887598733339211 -0.09373790884446065
 -0.0025273848248901624 -0.011982116178750215 0.002985007899982131 0.018922192157882208 0.9887598733339211 -0.09373790884446065 0.008925069533610797 0.03979779820640056
0.131304710296 0.0095318182880789 0.04196082858715911 0.9879704198973946 -0.0985720814846236 0.0032024047897270804 0.01986839834136464 -0.002758070559508897 -0.012576111572187859
 0.9879704198973946 -0.0985720814846236 0.009520904670804072 0.04196180892503841 -0.002759471053925851 -0.012575987502895888 0.0032593427788204393 0.019859146924183897
 0.0032024047897270804 0.01986839834136464 -0.002759471053925851 -0.012575987502895888 0.009530995561412254 0.04196265114248479 0.9879705278182981 -0.09857032748419897
 -0.002758070559508897 -0.012576111572187859 0.0032593427788204393 0.019859146924183897 0.9879705278182981 -0.09857032748419897 0.009521929284134598 0.041963445052707764
0.1375573155481 0.010024789526207266 0.043857870619896225 0.9872787421806678 -0.10313437594090953 0.0034517439280836604 0.02077671472830952 -0.0029673105262401278 -0.013140750399432273
 0.9872787421806678 -0.10313437594090953 0.010012807945388927 0.04385893241075565 -0.0029688459707428103 -0.013140607202468823 0.00351412119665666 0.02076638921208016
 0.0034517439280836604 0.02077671472830952 -0.0029688459707428103 -0.013140607202468823 0.010023886817892572 0.04385978480816399 0.9872788604653682 -0.10313253804037496
 -0.0029673105262401278 -0.013140750399432273 0.00351412119665666 0.02076638921208016 0.9872788604653682 -0.10313253804037496 0.010013931061743824 0.04386063750669028
0.1438099208003 0.010535309221400118 0.04574362844558695 0.986562336778407 -0.10768380423673612 0.0037111083075608508 0.021680633502601614 -0.003184870415662514 -0.013701296696912828
 0.986562336778407 -0.10768380423673612 0.010522209217581364 0.04574477677654681 -0.003186546897972146 -0.013701132608120208 0.0037791615659721525 0.021669151617479166
 0.0037111083075608508 0.021680633502601614 -0.003186546897972146 -0.013701132608120208 0.010534322874345704 0.045745634931716773 0.9865624659239925 -0.1076818823689428
 -0.003184870415662514 -0.013701296696912828 0.0037791615659721525 0.021669151617479166 0.9865624659239925 -0.1076818823689428 0.010523435236658852 0.04574654966532534
0.1500625260525 0.011063178036673102 0.04761790603009746 0.9858214079701911 -0.11222021438932368 0.0039803958527575845 0.022580039454258276 -0.0034106497660542274 -0.014257640214126628
 0.9858214079701911 -0.11222021438932368 0.011048909044887655 0.04761914626838061 -0.00341247335793847 -0.014257453398024103 0.004054360177255259 0.02256731591598858
 0.0039803958527575845 0.022580039454258276 -0.00341247335793847 -0.014257453398024103 0.0110621044013037 0.047620005505988064 0.985821548477381 -0.11221820848523296
 -0.0034106497660542274 -0.014257640214126628 0.004054360177255259 0.02256731591598858 0.985821548477381 -0.11221820848523296 0.011050242348095127 0.047620985728336715
0.15631513130469998 0.011608194979352851 0.04948051317261367 0.9850561613398701 -0.11674345582702807 0.004259503152790095 0.023474819632261536 -0.0036445467528282488 -0.014809673272238972
 0.9850561613398701 -0.11674345582702807 0.011592706326611735 0.049481850971050005 -0.003646523509890563 -0.014809461822325235 0.004339611957285742 0.023460766176919837
