! Created with skrf 1.8.0 (http://scikit-rf.org).
# GHz S RI R 50.0 
!freq ReS11 ImS11 ReS12 ImS12 ReS13 ImS13
! ReS14 ImS14
! ReS21 ImS21 ReS22 ImS22 ReS23 ImS23
! ReS24 ImS24
! ReS31 ImS31 ReS32 ImS32 ReS33 ImS33
! ReS34 ImS34
! ReS41 ImS41 ReS42 ImS42 ReS43 ImS43
! ReS44 ImS44
!
0.0 0.001604053805707 0.0 0.9983959461773 0.0 6.19330978914e-05 0.0 -6.193309709114e-05 7.584616911394685e-21
 0.9983959461773 0.0 0.001604053805705 0.0 -6.193309709137e-05 7.584616911422852e-21 6.193309788987e-05 0.0
 6.19330978914e-05 0.0 -6.193309709137e-05 7.584616911422852e-21 0.001604053812813 0.0 0.9983959461844 0.0
 -6.193309709114e-05 7.584616911394685e-21 6.193309788987e-05 0.0 0.9983959461844 0.0 0.001604053812795 0.0
0.005 0.0017260018500188413 0.001312874272531214 0.998241643048312 -0.003359788800896225 8.675367964944892e-05 0.0006778748360423437 -8.427077257561956e-05 -0.0004262452965494268
 0.998241643048312 -0.003359788800896225 0.0017260097640895082 0.0013128696847095752 -8.427212719138573e-05 -0.00042624638217901903 8.670384745754573e-05 0.0006778938878378314
 8.675367964944892e-05 0.0006778748360423437 -8.427212719138573e-05 -0.00042624638217901903 0.001726000563215868 0.0013128077918400773 0.9982416426878642 -0.0033598558729047096
 -8.427077257561956e-05 -0.0004262452965494268 8.670384745754573e-05 0.0006778938878378314 0.9982416426878642 -0.0033598558729047096 0.0017260103367007194 0.001312802027222901
0.006252605252188 0.0017580381159998876 0.001646246183467069 0.9982008439196589 -0.004200548739318907 9.387037038837471e-05 0.0008476707318748756 -9.05990987809156e-05 -0.0005333533912123131
 0.9982008439196589 -0.004200548739318907 0.001758050486482576 0.001646240329730434 -9.060120630822099e-05 -0.0005333547306350767 9.379251327712606e-05 0.0008476954628109597
 9.387037038837471e-05 0.0008476707318748756 -9.060120630822099e-05 -0.0005333547306350767 0.0017580361704722552 0.0016461631056488648 0.9982008434226062 -0.004200632564868244
 -9.05990987809156e-05 -0.0005333533912123131 9.379251327712606e-05 0.0008476954628109597 0.9982008434226062 -0.004200632564868244 0.0017580514485096262 0.001646155769505773
0.01250521050438 0.0019269923802949648 0.0033268677352496995 0.9979842219139569 -0.008401835815977672 0.00013481806035641996 0.001695690309413164 -0.0001266208028420434 -0.0010692524437162715
 0.9979842219139569 -0.008401835815977672 0.001927041768128638 0.0033268548290227096 -0.00012662910406513144 -0.0010692549293125518 0.0001345076136854069 0.001695749689603222
 0.00013481806035641996 0.001695690309413164 -0.00012662910406513144 -0.0010692549293125518 0.0019269851811449393 0.0033267019351078523 0.9979842205027504 -0.008402003225986492
 -0.0001266208028420434 -0.0010692524437162715 0.0001345076136854069 0.001695749689603222 0.9979842205027504 -0.008402003225986492 0.0019270461927524034 0.0033266859312806444
0.01875781575657 0.0021112972316260107 0.0050312937625082346 0.9977458025413847 -0.012614072115429037 0.00018487290238753873 0.002544611294930137 -0.00017011134266173536 -0.00160692347796838
 0.9977458025413847 -0.012614072115429037 0.00211140819366909 0.005031272529280729 -0.00017012984852457147 -0.0016069268792205506 0.0001841755892476995 0.002544717257013169
 0.00018487290238753873 0.002544611294930137 -0.00017012984852457147 -0.0016069268792205506 0.0021112814637844965 0.005031045506546641 0.9977457997859229 -0.012614323034603945
 -0.00017011134266173536 -0.00160692347796838 0.0001841755892476995 0.002544717257013169 0.9977457997859229 -0.012614323034603945 0.002111418572523933 0.0050310193705531536
0.02501042100875 0.002311321354517719 0.006757126208481762 0.9974852968917984 -0.016839283764302822 0.0002441329279738031 0.0033944573017280553 -0.00022117997346553591 -0.002146115335397282
 0.9974852968917984 -0.016839283764302822 0.002311518389208518 0.006757095305269016 -0.0002212126449216236 -0.0021461193804084688 0.00024289446189430203 0.0033946237216599664
 0.0002441329279738031 0.0033944573017280553 -0.0002212126449216236 -0.0021461193804084688 0.0023112937135742655 0.006756795784114647 0.997485292368813 -0.016839618172394395
 -0.00022117997346553591 -0.002146115335397282 0.00024289446189430203 0.0033946237216599664 0.997485292368813 -0.016839618172394395 0.0023115372289870292 0.006756757927939904
0.03126302626094 0.002527418200922786 0.008503123342517214 0.9972024017526622 -0.021078328614808555 0.0003126964734166747 0.004245174144020901 -0.00027993272661835396 -0.0026866482114470684
 0.9972024017526622 -0.021078328614808555 0.0025277257611324945 0.008503081359247542 -0.00027998348301771435 -0.002686652586463829 0.0003107624177780542 0.0042454168508562675
 0.0003126964734166747 0.004245174144020901 -0.00027998348301771435 -0.002686652586463829 0.0025273753828243483 0.008502711081986237 0.9972023950353266 -0.02107874652308204
 -0.00027993272661835396 -0.0026866482114470684 0.0003107624177780542 0.0042454168508562675 0.9972023950353266 -0.02107874652308204 0.0025277555759950247 0.008502659795152754
0.037515631513130004 0.0027599334514852455 0.010268469715069834 0.9968968073312452 -0.025331626227572655 0.000390661209794336 0.005096676703118174 -0.0003464731598275973 -0.003228366795923974
 0.9968968073312452 -0.025331626227572655 0.0027603759540755575 0.010268415175333735 -0.0003465458833172561 -0.003228371145236312 0.00038787691736800464 0.00509701349716547
 0.000390661209794336 0.005096676703118174 -0.0003465458833172561 -0.003228371145236312 0.002759872152931031 0.010267976011666596 0.9968967979886972 -0.025332127663153906
 -0.0003464731598275973 -0.003228366795923974 0.00038787691736800464 0.00509701349716547 0.9968967979886972 -0.025332127663153906 0.002760419266295364 0.010267909461356124
0.043768236765320004 0.003009207895079212 0.012052554026081833 0.9965682003977516 -0.029599379931234765 0.00047812368060675314 0.005948863183273443 -0.00042090261997072744 -0.0037711260255260965
 0.9965682003977516 -0.029599379931234765 0.0030098097273177447 0.012052485387726377 -0.0004210011579741326 -0.003771129951464715 0.000474334267404463 0.005949313856783391
 0.00047812368060675314 0.005948863183273443 -0.0004210011579741326 -0.003771129951464715 0.0030091248165552784 0.012051979320790796 0.9965681879972172 -0.02959996495110406
 -0.00042090261997072744 -0.0037711260255260965 0.000474334267404463 0.005949313856783391 0.9965681879972172 -0.02959996495110406 0.0030098690714802524 0.012051895551559734
0.050020842017509996 0.0032755787642143657 0.013854877274371848 0.9962162658876706 -0.0338816685995654 0.0005751790202621604 0.006801621005990739 -0.000503320330549832 -0.004314785201003719
 0.9962162658876706 -0.0338816685995654 0.003276364290536662 0.013854792929701043 -0.000503448497506189 -0.004314788263978964 0.0005702293575417947 0.006802207364812929
 0.0005751790202621604 0.006801621005990739 -0.000503448497506189 -0.004314788263978964 0.003275470607710925 0.013854222068309172 0.9962162499909846 -0.03388233727877782
 -0.000503320330549832 -0.004314785201003719 0.0005702293575417947 0.006802207364812929 0.9962162499909846 -0.03388233727877782 0.0032764422106284848 0.013854119001483619
0.055454545454549996 0.003521207249303317 0.015435626540756473 0.9958912339152379 -0.03761491239335931 0.0006673863105500241 0.0075430640001980746 -0.0005815067297077629 -0.004787864236286261
 0.9958912339152379 -0.03761491239335931 0.0035221721847405133 0.015435527190391422 -0.0005816637181316463 -0.0047878661597902435 0.0006613021846775497 0.007543787563113319
 0.0006673863105500241 0.0075430640001980746 -0.0005816637181316463 -0.0047878661597902435 0.0035210746244194557 0.015434901836276107 0.9958912146212666 -0.03761565384496732
 -0.0005815067297077629 -0.004787864236286261 0.0006613021846775497 0.007543787563113319 0.9958912146212666 -0.03761565384496732 0.0035222683236034304 0.01543478021491768
0.056273447269699996 0.003559380409977026 0.015675007725492907 0.9958406878487486 -0.03817849161190673 0.0006819207500750053 0.007654829706616992 -0.0005938234029137428 -0.004859205106071587
 0.9958406878487486 -0.03817849161190673 0.0035603739775535146 0.015674906001429526 -0.0005939849813809268 -0.004859206824613738 0.000675655467722757 0.007655575592223401
 0.0006819207500750053 0.007654829706616992 -0.0005939849813809268 -0.004859206824613738 0.0035592438819518402 0.015674272584497526 0.995840668013544 -0.0381792440395869
 -0.0005938234029137428 -0.004859205106071587 0.000675655467722757 0.007655575592223401 0.995840668013544 -0.0381792440395869 0.003560473029999202 0.01567414801751036
0.06252605252188 0.003860944661552884 0.01751255612228102 0.9954411500758613 -0.04248979357471448 0.0007984406156302187 0.008508362522640138 -0.0006925068061702976 -0.005404246439250259
 0.9954411500758613 -0.04248979357471448 0.0038621706058364633 0.01751243528017571 -0.0006927055475797934 -0.005404246290065948 0.0007907041125509863 0.008509293834230394
 0.0007984406156302187 0.008508362522640138 -0.0006927055475797934 -0.005404246290065948 0.003860776472279384 0.01751174167305339 0.9954411258538922 -0.04249062985843441
 -0.0006925068061702976 -0.005404246439250259 0.0007907041125509863 0.008509293834230394 0.9954411258538922 -0.04249062985843441 0.0038622933586963766 0.017511593278415127
0.06877865777407 0.0041806010073626495 0.019367160924363445 0.9950173365728918 -0.0468154790184657 0.0009248284435133899 0.00936208735580269 -0.0007994633165615405 -0.005949768876938043
 0.9950173365728918 -0.0468154790184657 0.004182083657165237 0.019367019159846392 -0.0007997029417574843 -0.005949766294984399 0.0009154649034474706 0.00936323207231417
 0.0009248284435133899 0.00936208735580269 -0.0007997029417574843 -0.005949766294984399 0.004180397872212524 0.01936626784965244 0.9950173075096108 -0.04681639928979491
 -0.0007994633165615405 -0.005949768876938043 0.0009154649034474706 0.00936323207231417 0.9950173075096108 -0.04681639928979491 0.004182232691077823 0.019366093173794122
0.07503126302626001 0.004518676670685711 0.021238478938962316 0.9945689319121968 -0.05115542170909844 0.0010611720134209024 0.010215867380791409 -0.0009147834505594709 -0.006495630495288871
 0.9945689319121968 -0.05115542170909844 0.004520440353363749 0.021238314381468743 -0.0009150676501241955 -0.006495624873832043 0.0010500254245428835 0.010217255582709011
 0.0010611720134209024 0.010215867380791409 -0.0009150676501241955 -0.006495624873832043 0.0045184353117876065 0.021237507988378646 0.9945688975469308 -0.05115642611321744
 -0.0009147834505594709 -0.006495630495288871 0.0010500254245428835 0.010217255582709011 0.9945688975469308 -0.05115642611321744 0.004520618263078546 0.021237304450365535
0.08128386827845 0.004875496624114509 0.023126179097739535 0.9940956215383655 -0.05550947081896511 0.0012075569366171116 0.011069561463553533 -0.0010385553901545125 -0.007041687388056965
 0.9940956215383655 -0.05550947081896511 0.004877565670841858 0.023125989809868516 -0.001038887824719027 -0.0070416780787410016 0.0011944711143611639 0.011071225354399356
 0.0012075569366171116 0.011069561463553533 -0.001038887824719027 -0.0070416780787410016 0.004875213770171597 0.023125131086111438 0.9940955814022179 -0.0555105595167944
 -0.0010385553901545125 -0.007041687388056965 0.0011944711143611639 0.011071225354399356 0.9940955814022179 -0.0555105595167944 0.004877775063982345 0.0231248959761304
0.08753647353064001 0.005251383555694551 0.025029938158566765 0.9935970920263182 -0.05987745517922283 0.0013640665403871198 0.011923024452663942 -0.001170864901296507 -0.00758779341720476
 0.9935970920263182 -0.05987745517922283 0.005253782306540222 0.02502972213522594 -0.0011712492016284208 -0.007587779730132723 0.0013488851526005082 0.01192499838016962
 0.0013640665403871198 0.011923024452663942 -0.0011712492016284208 -0.007587779730132723 0.005251055943701601 0.02502881396111672 0.9935970456427289 -0.05987862835281782
 -0.001170864901296507 -0.00758779341720476 0.0013488851526005082 0.01192499838016962 0.9935970456427289 -0.05987862835281782 0.005254025805284352 0.025028544438735444
0.09378907878283 0.005646657808464531 0.02694943762664309 0.9930730313180948 -0.06425918631957468 0.001530781755310003 0.012776107400568613 -0.0013117952480830345 -0.008133800039589063
 0.9930730313180948 -0.06425918631957468 0.005649410617516803 0.026949192794119243 -0.0013122350151501187 -0.00813378124340431 0.0015133483498073652 0.012778427877440216
 0.001530781755310003 0.012776107400568613 -0.0013122350151501187 -0.00813378124340431 0.00564628218443719 0.02694823818538351 0.9930729782013176 -0.06426044416605219
 -0.0013117952480830345 -0.008133800039589063 0.0015133483498073652 0.012778427877440216 0.9930729782013176 -0.06426044416605219 0.0056496908587454885 0.026947931277663647
0.100041684035 0.006061637296252624 0.028884361505311176 0.9925231289377217 -0.06865446068510847 0.0017077810056642035 0.01362865773239251 -0.0014614271032523279 -0.008679556192279206
 0.9925231289377217 -0.06865446068510847 0.006064768536432627 0.028884085720009407 -0.0014619259082659778 -0.008679531514241754 0.0016879390391566999 0.013631363456655934
 0.0017077810056642035 0.01362865773239251 -0.0014619259082659778 -0.008679531514241754 0.00606121041644991 0.028883087829334683 0.9925230685926028 -0.06865580341682684
 -0.0014614271032523279 -0.008679556192279206 0.0016879390391566999 0.013631363456655934 0.9925230685926028 -0.06865580341682684 0.006065088172128507 0.028882740428788946
0.1059090909091 0.006469254203194072 0.030713829908746576 0.9919833261612193 -0.07279108379868354 0.001883296811144523 0.014428062410023503 -0.0016098241634286544 -0.009191325814085261
 0.9919833261612193 -0.07279108379868354 0.006472762749391624 0.030713523064458785 -0.0016103815906717254 -0.00919129487697417 0.0018610522372940214 0.014431166807619106
 0.001883296811144523 0.014428062410023503 -0.0016103815906717254 -0.00919129487697417 0.006468776285107124 0.03071248754466182 0.9919832585735241 -0.07279250639739893
 -0.0016098241634286544 -0.009191325814085261 0.0018610522372940214 0.014431166807619106 0.9919832585735241 -0.07279250639739893 0.006473121778664141 0.030712099197693583
0.1062942892872 0.006496637404312705 0.030834394614323326 0.991947076196483 -0.07306306129303797 0.001895140100994534 0.014480519382400244 -0.001619838456293277 -0.009224908216490815
 0.991947076196483 -0.07306306129303797 0.006500171472863358 0.030834085661336594 -0.00162039984060366 -0.00922487684257344 0.001872732970118369 0.014483651257223815
 0.001895140100994534 0.014480519382400244 -0.00162039984060366 -0.00922487684257344 0.0064961560362280174 0.0308330477756478 0.9919470081175168 -0.07306448914205496
 -0.001619838456293277 -0.009224908216490815 0.001872732970118369 0.014483651257223815 0.9919470081175168 -0.07306448914205496 0.006500533170899632 0.030832656637823412
0.11254689453939999 0.00695197087721819 0.0327992212999789 0.9913445663871985 -0.07748475900473606 0.002092932129023437 0.015331532911059617 -0.0017871045199526227 -0.009769699807335082
 0.9913445663871985 -0.07748475900473606 0.0069559322006246625 0.03279887689147466 -0.0017877319950382923 -0.00976966088231251 0.002067803202352832 0.015335134064080684
 0.002092932129023437 0.015331532911059617 -0.0017877319950382923 -0.00976966088231251 0.0069514318009701375 0.032797802437672045 0.9913444900580259 -0.07748627221899637
 -0.0017871045199526227 -0.009769699807335082 0.002067803202352832 0.015335134064080684 0.9913444900580259 -0.07748627221899637 0.006956338644880915 0.032797364178779
0.11879949979160001 0.007427947697714407 0.03477852443311481 0.9907152949736192 -0.08191931351787264 0.002301227349790205 0.016181535601873246 -0.001963297634802269 -0.010313771990349548
 0.9907152949736192 -0.08191931351787264 0.007432360736864285 0.03477814220644808 -0.001963994682112223 -0.010313724617898631 0.0022732200014468095 0.016185651404008905
 0.002301227349790205 0.016181535601873246 -0.001963994682112223 -0.010313724617898631 0.007427347707046425 0.034777034752773245 0.9907152098662315 -0.08192091236193909
 -0.001963297634802269 -0.010313771990349548 0.0022732200014468095 0.016185651404008905 0.9907152098662315 -0.08192091236193909 0.0074328146280589 0.03477654584687217
0.1250521050438 0.007924874957320405 0.03677198462909151 0.9900589597737706 -0.0863664741440471 0.002520093090120458 0.017030361554921682 -0.0021484871733575273 -0.01085696310804835
 0.9900589597737706 -0.0863664741440471 0.00792976421265973 0.03677156214477114 -0.002149257244152094 -0.010856906350841753 0.002489050734529088 0.017035039638539334
 0.002520093090120458 0.017030361554921682 -0.002149257244152094 -0.010856906350841753 0.007924210860595023 0.03677042540492073 0.9900588653474095 -0.08636815889731618
 -0.0021484871733575273 -0.01085696310804835 0.002489050734529088 0.017035039638539334 0.9900588653474095 -0.08636815889731618 0.007930268268500967 0.03676988218099028
0.131304710296 0.008443056721378215 0.03877927962536176 0.9893752611409593 -0.09082598043723537 0.002749593639449875 0.017877841767494296 -0.0023427394427399306 -0.01139910882600498
 0.9893752611409593 -0.09082598043723537 0.008448446738183424 0.038778814364682355 -0.002343585957975495 -0.01139904170584253 0.0027153597671717485 0.017883132044023507
 0.002749593639449875 0.017877841767494296 -0.002343585957975495 -0.01139904170584253 0.008442325343369117 0.03877765219541545 0.9893751568422502 -0.09082775139878896
 -0.0023427394427399306 -0.01139910882600498 0.0027153597671717485 0.017883132044023507 0.9893751568422502 -0.09082775139878896 0.008449003694105927 0.03877705083423248
0.1375573155481 0.008865998234818718 0.04053888154499684 0.9887807460411475 -0.09503623434382504 0.0029615125654724917 0.01869804583857328 -0.0025178804532175617 -0.01191427082784066
 0.9887807460411475 -0.09503623434382504 0.008871916289402633 0.040538382485194153 -0.002518808622945606 -0.01191419323742176 0.0029240064464827516 0.01870394206210927
 0.0029615125654724917 0.01869804583857328 -0.002518808622945606 -0.01191419323742176 0.008865197134360375 0.04053718687291714 0.9887806314124465 -0.09503809167861368
 -0.0025178804532175617 -0.01191427082784066 0.0029240064464827516 0.01870394206210927 0.9887806314124465 -0.09503809167861368 0.008872527977440512 0.04053653560177805
0.1438099208003 0.00930389037022142 0.04228885020354442 0.9881651897557254 -0.09923543576192964 0.0031819804806091038 0.019514661665783594 -0.0027000099950043803 -0.012426155614777902
 0.9881651897557254 -0.09923543576192964 0.009310361498689676 0.04228831555957707 -0.002701023518374911 -0.012426066585168625 0.003141059397315676 0.0195212096461084
 0.0031819804806091038 0.019514661665783594 -0.002701023518374911 -0.012426066585168625 0.00930301652624206 0.04228708964717921 0.9881650642443517 -0.09923737975819352
 -0.0027000099950043803 -0.012426155614777902 0.003141059397315676 0.0195212096461084 0.9881650642443517 -0.09923737975819352 0.009311030516602991 0.04228638540171718
0.1500625260525 0.009756573536132466 0.04402902823292677 0.9875287562369038 -0.10342346884348182 0.0034109176623476904 0.020327597246720324 -0.0028890508566784623 -0.01293467708072919
 0.9875287562369038 -0.10342346884348182 0.009763622835975969 0.04402845610940611 -0.00289015342521269 -0.012934575603902142 0.0033664398453661587 0.02033484445702463
 0.0034109176623476904 0.020327597246720324 -0.00289015342521269 -0.012934575603902142 0.00975562395152104 0.04402720320283996 0.9875286192793556 -0.10342549980048557
 -0.0028890508566784623 -0.01293467708072919 0.0033664398453661587 0.02033484445702463 0.9875286192793556 -0.10342549980048557 0.009764351788163228 0.044026442757842704
0.15631513130469998 0.010223886944227429 0.04575926298209541 0.9868716103420182 -0.10760021839623292 0.0036482434012381918 0.02113676221875451 -0.0030849248384880825 -0.013439751001727519
 0.9868716103420182 -0.10760021839623292 0.010231539575845076 0.045758651370317746 -0.003086120135843683 -0.01343963603068332 0.0036000680457605096 0.021144757776162277
