! Created with skrf 1.8.0 (http://scikit-rf.org).
# GHz S RI R 50.0 
!freq ReS11 ImS11 ReS12 ImS12 ReS13 ImS13
! ReS14 ImS14
! ReS21 ImS21 ReS22 ImS22 ReS23 ImS23
! ReS24 ImS24
! ReS31 ImS31 ReS32 ImS32 ReS33 ImS33
! ReS34 ImS34
! ReS41 ImS41 ReS42 ImS42 ReS43 ImS43
! ReS44 ImS44
!
0.0 0.00120195781641 0.0 0.9987980421797 0.0 4.575303248415e-05 0.0 -4.575303218475e-05 5.603130441633992e-21
 0.9987980421797 0.0 0.001201957816407 0.0 -4.575303218457e-05 5.603130441611948e-21 4.575303248469e-05 0.0
 4.575303248415e-05 0.0 -4.575303218457e-05 5.603130441611948e-21 0.001201957812662 0.0 0.998798042176 0.0
 -4.575303218475e-05 5.603130441633992e-21 4.575303248469e-05 0.0 0.998798042176 0.0 0.001201957812669 0.0
0.005 0.0012924065170976443 0.0009844266235365727 0.9986837318380496 -0.002518784672816247 6.357797441397382e-05 0.0005004628729417058 -6.182355324099351e-05 -0.0003149113971435895
 0.9986837318380496 -0.002518784672816247 0.0012924187751775635 0.0009844194250573158 -6.182332144756843e-05 -0.00031491117283031665 6.35013991698914e-05 0.0005004919050658978
 6.357797441397382e-05 0.0005004628729417058 -6.182332144756843e-05 -0.00031491117283031665 0.0012924072003425333 0.0009844934422097275 0.9986837321631926 -0.002518717607863411
 -6.182355324099351e-05 -0.0003149113971435895 6.35013991698914e-05 0.0005004919050658978 0.9986837321631926 -0.002518717607863411 0.001292418742068356 0.0009844867372453018
0.006252605252188 0.0013158975203348652 0.001234435466751704 0.9986538920831676 -0.0031491321598232226 6.854838708760109e-05 0.000625836738471144 -6.625509857071293e-05 -0.00039405870520074147
 0.9986538920831676 -0.0031491321598232226 0.0013159166824087158 0.0012344263401516571 -6.62547382433359e-05 -0.0003940584275636791 6.842874226510946e-05 0.0006258744115614
 6.854838708760109e-05 0.000625836738471144 -6.62547382433359e-05 -0.0003940584275636791 0.001315898516442282 0.0012345189760833953 0.9986538925190855 -0.003149048338382187
 -6.625509857071293e-05 -0.00039405870520074147 6.842874226510946e-05 0.0006258744115614 0.9986538925190855 -0.003149048338382187 0.0013159165580070799 0.001234510475545163
0.01250521050438 0.0014382146000425599 0.0024950490671773362 0.9984976589262894 -0.006299260862212955 9.640733087315202e-05 0.0012521099800003714 -9.083130973728623e-05 -0.0007901672243407523
 0.9984976589262894 -0.006299260862212955 0.001438291121101375 0.002495029522588727 -9.0829894097387e-05 -0.0007901666983006757 9.593014017421341e-05 0.0012522000200451062
 9.640733087315202e-05 0.0012521099800003714 -9.0829894097387e-05 -0.0007901666983006757 0.0014382180336158616 0.0024952157925872106 0.9984976601169194 -0.006299093468797148
 -9.083130973728623e-05 -0.0007901672243407523 9.593014017421341e-05 0.0012522000200451062 0.9984976601169194 -0.006299093468797148 0.0014382900685374355 0.0024951975983084464
0.01875781575657 0.0015691279408874222 0.003773970703288556 0.9983291832107312 -0.00945809968973483 0.00012938626121791297 0.0018792627399281587 -0.00011954677007141971 -0.00118778859025916
 0.9983291832107312 -0.00945809968973483 0.0015692998976888377 0.0037739393596067407 -0.00011954361914654094 -0.0011877878481895332 0.00012831412350794354 0.0018794222024844359
 0.00012938626121791297 0.0018792627399281587 -0.00011954361914654094 -0.0011877878481895332 0.001569135244690616 0.0037742204868173273 0.9983291854626867 -0.009457848833656935
 -0.00011954677007141971 -0.00118778859025916 0.00012831412350794354 0.0018794222024844359 0.9983291854626867 -0.009457848833656935 0.0015692970973284353 0.0037741913357992444
0.02501042100875 0.0017088523582260804 0.005069459972522664 0.9981483005651788 -0.012627227407023914 0.00016754264793904087 0.002507349140980736 -0.00015246519931140157 -0.0015867720115974727
 0.9981483005651788 -0.012627227407023914 0.0017091577555287348 0.005069415373152702 -0.00015245964314924835 -0.0015867710898355024 0.00016563794122000474 0.0025075973394289046
 0.00016754264793904087 0.002507349140980736 -0.00015245964314924835 -0.0015867710898355024 0.0017088649755213365 0.005069792693778102 0.9981483041903767 -0.012626893155326674
 -0.00015246519931140157 -0.0015867720115974727 0.00016563794122000474 0.0025075973394289046 0.9981483041903767 -0.012626893155326674 0.0017091523886889075 0.005069751266951907
0.03126302626094 0.001857593429700171 0.006380645410180422 0.9979548366568842 -0.0158073486950943 0.00021093471964910045 0.0031363669307119656 -0.00018964894055460222 -0.001987020294360893
 0.9979548366568842 -0.0158073486950943 0.0018580702192664905 0.006380586025957358 -0.00018964031747407403 -0.00198701923327873 0.00020795936904602165 0.003136725448377953
 0.00021093471964910045 0.0031363669307119656 -0.00018964031747407403 -0.00198701923327873 0.0018576128060938588 0.00638106094617219 0.9979548419645334 -0.015806931112552134
 -0.00018964894055460222 -0.001987020294360893 0.00020795936904602165 0.003136725448377953 0.9979548419645334 -0.015806931112552134 0.0018580614597112877 0.006381005871523586
0.037515631513130004 0.002015552450721802 0.0077069771141364376 0.9977486122303324 -0.018998841482902692 0.00025962088528909454 0.003766292013771905 -0.00023115941930343652 -0.0023884552935507317
 0.9977486122303324 -0.018998841482902692 0.002016238543127741 0.00770690134495894 -0.0002311470749781146 -0.002388454137569602 0.00025533625146727414 0.0037667847277254554
 0.00025962088528909454 0.003766292013771905 -0.0002311470749781146 -0.002388454137569602 0.002015580036432373 0.007707475357978054 0.9977486195287186 -0.018998340613133314
 -0.00023115941930343652 -0.0023884552935507317 0.00025533625146727414 0.0037667847277254554 0.9977486195287186 -0.018998340613133314 0.0020162255591116055 0.007707405212372209
0.043768236765320004 0.002182928364896127 0.009048060199779592 0.9975294451227169 -0.022201923443035225 0.0003136594700600611 0.004397088954996379 -0.00027705732219493456 -0.002791007396574672
 0.9975294451227169 -0.022201923443035225 0.002183861638330134 0.009047966375659543 -0.0002770406090387815 -0.0027910061941508234 0.00030782628899592455 0.00439774206346121
 0.0003136594700600611 0.004397088954996379 -0.0002770406090387815 -0.0027910061941508234 0.0021829656149950733 0.00904864103747387 0.99752945471982 -0.022201339331557022
 -0.00027705732219493456 -0.002791007396574672 0.00030782628899592455 0.00439774206346121 0.99752945471982 -0.022201339331557022 0.002183843593252055 0.00904855434799433
0.050020842017509996 0.0023599186698445513 0.010403585951776881 0.9972971512574383 -0.025416720788649115 0.0003731085665814005 0.005028715314078249 -0.0003274026717929849 -0.0031946111760527323
 0.9972971512574383 -0.025416720788649115 0.0023611369779590816 0.010403472333596604 -0.00032738094861727474 -0.00319460997964181 0.0003654869162915808 0.00502955736543262
 0.0003731085665814005 0.005028715314078249 -0.00032738094861727474 -0.00319460997964181 0.002359967044011015 0.01040424925922178 0.99729716345998 -0.025416053485494517
 -0.0003274026717929849 -0.0031946111760527323 0.0003654869162915808 0.00502955736543262 0.99729716345998 -0.025416053485494517 0.002361113029707543 0.010404144504353823
0.055454545454549996 0.0025216893217654343 0.011593108083970367 0.9970844763332307 -0.028220045696219134 0.000429210499558396 0.005578254690935013 -0.00037481231610677625 -0.003546159934032998
 0.9970844763332307 -0.028220045696219134 0.002523186061035769 0.01159297579859837 -0.0003747857230589573 -0.003546158788543933 0.0004198392453838387 0.0055792859717793165
 0.000429210499558396 0.005578254690935013 -0.0003747857230589573 -0.003546158788543933 0.002521748552557085 0.011593842963237965 0.9970844910491063 -0.028219306129339275
 -0.00037481231610677625 -0.003546159934032998 0.0004198392453838387 0.0055792859717793165 0.9970844910491063 -0.028219306129339275 0.0025231562954707034 0.011593721236233671
0.056273447269699996 0.0025467198931216507 0.01177329802388425 0.9970515452085387 -0.028643302021706098 0.00043802593589494946 0.005661123764171256 -0.0003822548560373247 -0.00359920325967047
 0.9970515452085387 -0.028643302021706098 0.002548261071221662 0.011773162804078837 -0.0003822274877144659 -0.0035992021257126978 0.00042837521942195217 0.00566218568669688
 0.00043802593589494946 0.005661123764171256 -0.0003822274877144659 -0.0035992021257126978 0.0025467808562880108 0.01177404368118484 0.9970515603232635 -0.02864255156706868
 -0.0003822548560373247 -0.00359920325967047 0.00042837521942195217 0.00566218568669688 0.9970515603232635 -0.02864255156706868 0.002548230373349846 0.011773919291666796
0.06252605252188 0.0027435278627996806 0.013156973886877883 0.996792440562968 -0.031881696433581685 0.0005084689323980223 0.006294263259259309 -0.000441672635570348 -0.0040047211523163125
 0.996792440562968 -0.031881696433581685 0.002745429734115889 0.013156815189842819 -0.0004416389927989274 -0.004004720141204457 0.0004965478713775767 0.006295578391329207
 0.0005084689323980223 0.006294263259259309 -0.0004416389927989274 -0.004004720141204457 0.0027436028840056 0.013157801761816681 0.9967924588953737 -0.0318808628739619
 -0.000441672635570348 -0.0040047211523163125 0.0004965478713775767 0.006295578391329207 0.9967924588953737 -0.0318808628739619 0.0027453914350144787 0.013157656121470289
0.06877865777407 0.002950537863261477 0.014554413732273596 0.9965196501690021 -0.03513190515031719 0.0005844944438270764 0.006928079723046356 -0.0005057141366954485 -0.0044111025378540955
 0.9965196501690021 -0.03513190515031719 0.002952838244500114 0.014554229614703148 -0.0005056735958405803 -0.004411101713902789 0.0005700610793715537 0.006929683843528068
 0.0005844944438270764 0.006928079723046356 -0.0005056735958405803 -0.004411101713902789 0.002950628416617553 0.014555323692330232 0.9965196720243995 -0.0351309885263912
 -0.0005057141366954485 -0.0044111025378540955 0.0005700610793715537 0.006929683843528068 0.9965196720243995 -0.0351309885263912 0.002952791488389391 0.01455515513867493
0.07503126302626001 0.003167944725547269 0.015965433462992625 0.9962329863220806 -0.03839390809208143 0.0006661588382654432 0.007562516487179765 -0.000574436837257612 -0.004818284832804392
 0.9962329863220806 -0.03839390809208143 0.0031706814326911566 0.015965221914067268 -0.0005743887802059077 -0.004818284264221997 0.0006489705373843431 0.007564447845946716
 0.0006661588382654432 0.007562516487179765 -0.0005743887802059077 -0.004818284264221997 0.00316805228957471 0.015966425364457127 0.9962330120045718 -0.03839290844926947
 -0.000574436837257612 -0.004818284832804392 0.0006489705373843431 0.007564447845946716 0.9962330120045718 -0.03839290844926947 0.0031706253592632314 0.015966232189242324
0.08128386827845 0.003395942877173352 0.017389860011550438 0.9959322609106825 -0.04166766860606556 0.0007535179169750876 0.008197514578675494 -0.0006478975464728658 -0.005226204892141799
 0.9959322609106825 -0.04166766860606556 0.0033991537307772827 0.01738961895299133 -0.0006478413604906555 -0.005226204651002211 0.0007333313831371343 0.008199813927130001
 0.0007535179169750876 0.008197514578675494 -0.0006478413604906555 -0.005226204651002211 0.0033960689350300667 0.01739093370610889 0.9959322907237904 -0.041666585987737065
 -0.0006478975464728658 -0.005226204892141799 0.0007333313831371343 0.008199813927130001 0.9959322907237904 -0.041666585987737065 0.0033990874757197104 0.017390714155653107
0.08753647353064001 0.0036347263633429413 0.018827528112834193 0.995617285535981 -0.04495313664613942 0.0008466268699911889 0.008833012922093018 -0.0007261523814942783 -0.005634798801709648
 0.995617285535981 -0.04495313664613942 0.0036384491938097636 0.018827255398851554 -0.0007260874591036142 -0.005634798963927835 0.0008231981569556618 0.008835723543671943
 0.0008466268699911889 0.008833012922093018 -0.0007260874591036142 -0.005634798963927835 0.00363487240269383 0.01882868344388688 0.9956173197830225 -0.04495197109710887
 -0.0007261523814942783 -0.005634798801709648 0.0008231981569556618 0.008835723543671943 0.9956173197830225 -0.04495197109710887 0.003638371889252264 0.018828435719348804
0.09378907878283 0.0038844888508717417 0.02027827798463124 0.9952878716169806 -0.04825025104620762 0.0009455402339124638 0.009468948478593961 -0.0008092567410994287 -0.006044001735225352
 0.9952878716169806 -0.04825025104620762 0.0038887615039445407 0.020277971401660953 -0.0008091824800064844 -0.0060440023805242845 0.000918624762392916 0.0094721162191704
 0.0009455402339124638 0.009468948478593961 -0.0008091824800064844 -0.0060440023805242845 0.0038846563634831782 0.02027951478815657 0.9952879105999062 -0.048249002611564666
 -0.0008092567410994287 -0.006044001735225352 0.000918624762392916 0.0094721162191704 0.9952879105999062 -0.048249002611564666 0.003888672278093576 0.020279237045643668
0.100041684035 0.004145423617363447 0.02174195363862656 0.9949438304807541 -0.051558941164449604 0.0010503118511714644 0.010105256351873572 -0.0008972652774144394 -0.006453747845860835
 0.9949438304807541 -0.051558941164449604 0.0041502839592123374 0.021741610905111317 -0.0008971810804130005 -0.006453749057749971 0.0010196644276185473 0.010108929650067088
 0.0010503118511714644 0.010105256351873572 -0.0008971810804130005 -0.006453749057749971 0.00414561409945439 0.02174327174345067 0.9949438745010682 -0.051557609889121885
 -0.0008972652774144394 -0.006453747845860835 0.0010196644276185473 0.010108929650067088 0.9949438745010682 -0.051557609889121885 0.004150181937168764 0.0217429620939885
0.1059090909091 0.00440061609706601 0.02312707710796324 0.9946075129984033 -0.05467425374116094 0.001154004236217297 0.010702643049580383 -0.0009843602511115427 -0.006838685505542346
 0.9946075129984033 -0.05467425374116094 0.004406062384488461 0.023126698314866825 -0.0009842661916375764 -0.006838687328414608 0.0011196312419423451 0.010706837150441163
 0.001154004236217297 0.010702643049580383 -0.0009842661916375764 -0.006838687328414608 0.004400829498119881 0.023128471339183356 0.9946075620194741 -0.0546728447732634
 -0.0009843602511115427 -0.006838685505542346 0.0011196312419423451 0.010706837150441163 0.9946075620194741 -0.0546728447732634 0.004405947556120687 0.023128129990133885
0.1062942892872 0.004417723532326782 0.023218401595954587 0.9945849734480213 -0.054879128124775044 0.0011609948300327245 0.01074186986581966 -0.000990231866004861 -0.006863970187661522
 0.9945849734480213 -0.054879128124775044 0.00442320945517639 0.023218020361763625 -0.0009901371409063915 -0.006863972053408029 0.0011263696676164744 0.010746099783143327
 0.0011609948300327245 0.01074186986581966 -0.0009901371409063915 -0.006863972053408029 0.004417938484255823 0.023219800818692966 0.9945850228067215 -0.054877714058293135
 -0.000990231866004861 -0.006863970187661522 0.0011263696676164744 0.010746099783143327 0.9945850228067215 -0.054877714058293135 0.004423093758943071 0.02321945732805525
0.11254689453939999 0.004701581029567282 0.024707469910881394 0.9942111119112559 -0.05821072575172343 0.0012776415053520535 0.011378720625894604 -0.0010882095747567237 -0.007274600654902742
 0.9942111119112559 -0.05821072575172343 0.004707730456870128 0.024707047756722826 -0.0010881037343330603 -0.0072746032655037025 0.0012387922464595466 0.011383560876701861
 0.0012776415053520535 0.011378720625894604 -0.0010881037343330603 -0.0072746032655037025 0.004701821955792912 0.024708950061936057 0.9942111669082324 -0.05820922894198349
 -0.0010882095747567237 -0.007274600654902742 0.0012387922464595466 0.011383560876701861 0.9942111669082324 -0.05820922894198349 0.004707600205536614 0.02470857075034223
0.11879949979160001 0.004997188074261319 0.0262090074040376 0.9938220574084212 -0.06155364129745268 0.0014003033996135177 0.012015738566028503 -0.0011912506315831454 -0.007685569937410435
 0.9938220574084212 -0.06155364129745268 0.005004038966026016 0.026208541840748157 -0.001191133093459711 -0.007685573387575283 0.0013569831401043266 0.012021245547305041
 0.0014003033996135177 0.012015738566028503 -0.001191133093459711 -0.007685573387575283 0.004997456482924168 0.026210568285291464 0.993822118343042 -0.061552061792900105
 -0.0011912506315831454 -0.007685569937410435 0.0013569831401043266 0.012021245547305041 0.993822118343042 -0.061552061792900105 0.005003893276120052 0.026210151126916284
0.1250521050438 0.00530473612527352 0.027722863060988683 0.993417621694993 -0.06490777600550134 0.001529031184117643 0.012652851988295117 -0.001299406391423383 -0.008096807484971637
 0.993417621694993 -0.06490777600550134 0.005312326483704625 0.027722351528536544 -0.0012992765780722364 -0.008096811873087383 0.0014809924988711386 0.012659084809183834
 0.001529031184117643 0.012652851988295117 -0.0012992765780722364 -0.008096811873087383 0.005305033528366193 0.027724504462538022 0.9934176888657033 -0.06490611385800844
 -0.001299406391423383 -0.008096807484971637 0.0014809924988711386 0.012659084809183834 0.9934176888657033 -0.06490611385800844 0.005312164469296932 0.02772404738492075
0.131304710296 0.0056244160939345495 0.02924888553443627 0.9929976168130539 -0.06827302557257837 0.001663874640522541 0.013289987595433306 -0.0014127273022671936 -0.008508241480530717
 0.9929976168130539 -0.06827302557257837 0.005632783968733662 0.02924832540092732 -0.0014125846409047988 -0.008508246908650213 0.0016108696102689328 0.013297008106510893
 0.001663874640522541 0.013289987595433306 -0.0014125846409047988 -0.008508246908650213 0.005624744007062023 0.029250607240009177 0.9929976905175056 -0.06827128083188932
 -0.0014127273022671936 -0.008508241480530717 0.0016108696102689328 0.013297008106510893 0.9929976905175056 -0.06827128083188932 0.0056326047419796264 0.02925010812325092
0.1375573155481 0.005875557332842548 0.030587437119346507 0.9926427351386792 -0.07144974509548493 0.001785989865024653 0.013906441834681574 -0.0015124355953519818 -0.0088991350566443
 0.9926427351386792 -0.07144974509548493 0.005884742873676685 0.030586837508756695 -0.0015122791075772991 -0.008899141501779832 0.0017278980546688533 0.0139142302376458
 0.001785989865024653 0.013906441834681574 -0.0015122791075772991 -0.008899141501779832 0.005875916583386842 0.030589239191802817 0.9926428156702904 -0.0714479178263819
 -0.0015124355953519818 -0.0088991350566443 0.0017278980546688533 0.0139142302376458 0.9926428156702904 -0.0714479178263819 0.005884546246422764 0.030588707142002708
0.1438099208003 0.006135256263706031 0.0319201377098106 0.9922758679390429 -0.07461962760912842 0.0019130402527340895 0.014521089106841986 -0.0016161418861222053 -0.009288395782522798
 0.9922758679390429 -0.07461962760912842 0.006145297898167945 0.0319194967417142 -0.0016159709329037237 -0.00928840334488397 0.0018496361440342379 0.014529700964660193
 0.0019130402527340895 0.014521089106841986 -0.0016159709329037237 -0.00928840334488397 0.006135648248176319 0.03192201996275645 0.9922759555931255 -0.07461771786777732
 -0.0016161418861222053 -0.009288395782522798 0.0018496361440342379 0.014529700964660193 0.9922759555931255 -0.07461771786777732 0.006145083107208273 0.03192145356879088
0.1500625260525 0.006403435865857205 0.03324691176996477 0.9918970949812979 -0.07778263083022231 0.002044990753455124 0.015133889479182414 -0.0017238125342718526 -0.00967598580606536
 0.9918970949812979 -0.07778263083022231 0.006414372078582576 0.03324622745923781 -0.0017236264762624592 -0.00967599458997048 0.001976049846867748 0.015143382355063838
 0.002044990753455124 0.015133889479182414 -0.0017236264762624592 -0.00967599458997048 0.0064038619761420355 0.033248874009774554 0.9918971900519763 -0.07778063867610427
 -0.0017238125342718526 -0.00967598580606536 0.001976049846867748 0.015143382355063838 0.9918971900519763 -0.07778063867610427 0.00641413836723943 0.033248271772738036
0.15631513130469998 0.006680018739164341 0.03456768626771958 0.9915064962527026 -0.08093871195780572 0.002181806003211856 0.01574480354776203 -0.0018354135772488118 -0.010061867982734432
