! Created with skrf 1.8.0 (http://scikit-rf.org).
# GHz S RI R 50.0 
!freq ReS11 ImS11 ReS12 ImS12 ReS13 ImS13
! ReS14 ImS14
! ReS21 ImS21 ReS22 ImS22 ReS23 ImS23
! ReS24 ImS24
! ReS31 ImS31 ReS32 ImS32 ReS33 ImS33
! ReS34 ImS34
! ReS41 ImS41 ReS42 ImS42 ReS43 ImS43
! ReS44 ImS44
!
0.0 0.001447772138369 0.0 0.9985522278609 0.0 5.564773572471e-05 0.0 -5.564773559076e-05 6.814882127102248e-21
 0.9985522278609 0.0 0.001447772138366 0.0 -5.564773559133e-05 6.814882127172053e-21 5.564773572386e-05 0.0
 5.564773572471e-05 0.0 -5.564773559133e-05 6.814882127172053e-21 0.00144777213146 0.0 0.998552227854 0.0
 -5.564773559076e-05 6.814882127102248e-21 5.564773572386e-05 0.0 0.998552227854 0.0 0.001447772131432 0.0
0.005 0.0015574147121810169 0.0011852999320667286 0.9984135673469264 -0.003032936743138235 7.768892411838954e-05 0.0006091655233981874 -7.55203895939221e-05 -0.00038310196825230494
 0.9984135673469264 -0.003032936743138235 0.0015574175015859626 0.0011852982841113254 -7.551758279405397e-05 -0.0003830997965085871 7.767431252235418e-05 0.0006091709794161157
 7.768892411838954e-05 0.0006091655233981874 -7.551758279405397e-05 -0.0003830997965085871 0.001557415894993052 0.0011852319546922694 0.9984135670048284 -0.0030330037976027124
 -7.55203895939221e-05 -0.00038310196825230494 7.767431252235418e-05 0.0006091709794161157 0.9984135670048284 -0.0030330037976027124 0.0015574156355942477 0.001185232152204739
0.006252605252188 0.001586092859333645 0.0014862952044820482 0.9983770844820277 -0.003791924623147227 8.393557210942257e-05 0.0007617591840026944 -8.109354701173263e-05 -0.00047937632548956916
 0.9983770844820277 -0.003791924623147227 0.0015860972202455048 0.0014862931539541394 -8.108917949553135e-05 -0.00047937364708428606 8.391274153479677e-05 0.0007617662834663306
 8.393557210942257e-05 0.0007617591840026944 -8.108917949553135e-05 -0.00047937364708428606 0.0015860947696552511 0.0014862102363662215 0.998377084008203 -0.003792008433709726
 -8.109354701173263e-05 -0.00047937632548956916 8.391274153479677e-05 0.0007617662834663306 0.998377084008203 -0.003792008433709726 0.0015860943639930583 0.0014862105005110716
0.01250521050438 0.001736608032592965 0.0030038143638943613 0.9981844096251172 -0.007584727181384333 0.0001194928085326223 0.0015239217633992042 -0.00011251278563986567 -0.0009611218616920414
 0.9981844096251172 -0.007584727181384333 0.0017366254513648482 0.0030038103532661594 -0.0001124955744947827 -0.0009611169008212804 0.00011940172489187548 0.0015239389533270567
 0.0001194928085326223 0.0015239217633992042 -0.0001124955744947827 -0.0009611169008212804 0.0017366162355712637 0.0030036446140139193 0.9981844083026342 -0.007584894564892409
 -0.00011251278563986567 -0.0009611218616920414 0.00011940172489187548 0.0015239389533270567 0.9981844083026342 -0.007584894564892409 0.0017366146107509045 0.0030036453356853876
0.01875781575657 0.0018996305688504425 0.004543043066140998 0.9979739749306196 -0.011387654475519555 0.00016239977106488984 0.002287003406310664 -0.00014999859726365114 -0.0014445585924536969
 0.9979739749306196 -0.011387654475519555 0.0018996697183935114 0.0045430371644254244 -0.00014996021649060228 -0.0014445518169864092 0.00016219506527913763 0.0022870342152586285
 0.00016239977106488984 0.002287003406310664 -0.00014996021649060228 -0.0014445518169864092 0.0018996494354030574 0.0045427885486322836 0.9979739723824853 -0.011387905328221508
 -0.00014999859726365114 -0.0014445585924536969 0.00016219506527913763 0.0022870342152586285 0.9979739723824853 -0.011387905328221508 0.001899645773201759 0.00454278997751386
0.02501042100875 0.0020754650163838538 0.006101845652508119 0.997745543486967 -0.01520256571424366 0.0002127378366274732 0.0030510450218441693 -0.0001936414315213949 -0.001929478468396268
 0.997745543486967 -0.01520256571424366 0.002075534558424697 0.0061018379124863215 -0.00019357365439172836 -0.0019294704266121516 0.00021237406270206507 0.0030510935018707294
 0.0002127378366274732 0.0030510450218441693 -0.00019357365439172836 -0.0019294704266121516 0.00207549891695917 0.006101506308586524 0.9977455393381051 -0.015202899969242015
 -0.0001936414315213949 -0.001929478468396268 0.00021237406270206507 0.0030510935018707294 0.9977455393381051 -0.015202899969242015 0.0020754923943046284 0.00610150875153577
0.03126302626094 0.0022644032715033093 0.007679131299215069 0.9974988657274662 -0.019030266401334102 0.00027058889990601564 0.0038160181151144458 -0.00024352939023325736 -0.0024157380544465312
 0.9974988657274662 -0.019030266401334102 0.002264511861639309 0.007679121758595006 -0.0002434240721928056 -0.002415729376120444 0.00027002049334237254 0.0038160888465178316
 0.00027058889990601564 0.0038160181151144458 -0.0002434240721928056 -0.002415729376120444 0.002264456575322694 0.007678707018896715 0.9974988596025398 -0.01903068400701795
 -0.00024352939023325736 -0.0024157380544465312 0.00027002049334237254 0.0038160888465178316 0.9974988596025398 -0.01903068400701795 0.002264446365363702 0.00767871084111575
0.037515631513130004 0.0024667310371946577 0.0092741949652766 0.9972336860665795 -0.02287116732923405 0.00033603461044955633 0.004581866887498768 -0.0002997488532181003 -0.0029032164261695217
 0.9972336860665795 -0.02287116732923405 0.0024668873282376507 0.009274183647007415 -0.0002995979230798908 -0.002903207822884142 0.0003352158685178293 0.004581964985405458
 0.00033603461044955633 0.004581866887498768 -0.0002995979230798908 -0.002903207822884142 0.002466808115021568 0.009273685601231953 0.9972336775914645 -0.02287166823508728
 -0.0002997488532181003 -0.0029032164261695217 0.0003352158685178293 0.004581964985405458 0.9972336775914645 -0.02287166823508728 0.0024667933889659893 0.009273691227350434
0.043768236765320004 0.002682730313996899 0.010886516876086964 0.9969497455676495 -0.02672548502841432 0.00040915601212187776 0.0053485210480533445 -0.0003623847091413103 -0.0033918023536568384
 0.9969497455676495 -0.02672548502841432 0.002682942958422817 0.010886503788561524 -0.000362180163894368 -0.00339179461893362 0.0004080410833693445 0.005348652169711106
 0.00040915601212187776 0.0053485210480533445 -0.000362180163894368 -0.00339179461893362 0.0026828355378434167 0.010885922230127803 0.9969497343686893 -0.0267260691983224
 -0.0003623847091413103 -0.0033918023536568384 0.0004080410833693445 0.005348652169711106 0.9969497343686893 -0.0267260691983224 0.002682815466213882 0.01088593014529138
0.050020842017509996 0.0029126805639924317 0.012515679620532762 0.9966467832880804 -0.03059332460143612 0.0004900333311017113 0.006115901096288408 -0.0004315204391894925 -0.0038813890152316305
 0.9966467832880804 -0.03059332460143612 0.0029129582165741334 0.012515664757574044 -0.0004312543406252331 -0.003881383024571159 0.0004885762099486461 0.006116071448569168
 0.0004900333311017113 0.006115901096288408 -0.0004312543406252331 -0.003881383024571159 0.002912818307821635 0.012514999452907247 0.9966467689926141 -0.03059399200393451
 -0.0004315204391894925 -0.0038813890152316305 0.0004885762099486461 0.006116071448569168 0.9966467689926141 -0.03059399200393451 0.0029127920625849034 0.012515010203808704
0.055454545454549996 0.0031240597789944403 0.013944870851566343 0.99636784828695 -0.033965603762764605 0.0005666785063486281 0.006783300375926824 -0.0004969439716355973 -0.004307585805359151
 0.99636784828695 -0.033965603762764605 0.0031244009574416466 0.0139448544293861 -0.0004966179831900015 -0.004307582105037749 0.0005648865257880735 0.006783510294210296
 0.0005666785063486281 0.006783300375926824 -0.0004966179831900015 -0.004307582105037749 0.003124229336353471 0.013944116142124936 0.9963678309972323 -0.03396634346861616
 -0.0004969439716355973 -0.004307585805359151 0.0005648865257880735 0.006783510294210296 0.9963678309972323 -0.03396634346861616 0.0031241970558952333 0.013944129849889903
0.056273447269699996 0.0031568593130128345 0.014161327468239797 0.9963245370646662 -0.03447472033716937 0.0005787458242147031 0.006883920917119306 -0.0005072381402678936 -0.004371871400979363
 0.9963245370646662 -0.03447472033716937 0.0031572106325653145 0.014161310809100033 -0.0005069026127134155 -0.004371868111875187 0.0005769003483437873 0.00688413726422664
 0.0005787458242147031 0.006883920917119306 -0.0005069026127134155 -0.004371868111875187 0.0031570339513585515 0.014160561504368152 0.9963245192991668 -0.034475470938335764
 -0.0005072381402678936 -0.004371871400979363 0.0005769003483437873 0.00688413726422664 0.9963245192991668 -0.034475470938335764 0.0031570007074695587 0.014160575700220614
0.06252605252188 0.003415542475997141 0.015823144015638484 0.9959827440256743 -0.038369657998060976 0.0006753716599686497 0.007652489205223962 -0.000589618514439524 -0.004863144889515598
 0.9959827440256743 -0.038369657998060976 0.0034159761274554037 0.015823125524858088 -0.0005892057431318263 -0.004863145341444655 0.0006730915097930018 0.007652758876445417
 0.0006753716599686497 0.007652489205223962 -0.0005892057431318263 -0.004863145341444655 0.003415758384956937 0.015822291940259626 0.9959827224173526 -0.0383704917669899
 -0.000589618514439524 -0.004863144889515598 0.0006730915097930018 0.007652758876445417 0.9959827224173526 -0.0383704917669899 0.0034157173229716607 0.015822310253756182
0.06877865777407 0.003689004536404205 0.017500838839904043 0.9956211409604021 -0.04227808810201367 0.0007799878178244465 0.00842151031445236 -0.0006787408389745002 -0.005355104402611802
 0.9956211409604021 -0.04227808810201367 0.00368952919247644 0.017500818467117124 -0.0006782430690083929 -0.005355109717011066 0.0007772265172626695 0.008421841211981262
 0.0007799878178244465 0.00842151031445236 -0.0006782430690083929 -0.005355109717011066 0.00368926609337702 0.017499900294329976 0.9956211151364467 -0.04227900501303527
 -0.0006787408389745002 -0.005355104402611802 0.0007772265172626695 0.008421841211981262 0.9956211151364467 -0.04227900501303527 0.0036892164009457323 0.01749992346253781
0.07503126302626001 0.0039775186337067696 0.01919413904843208 0.9952394645998719 -0.046199934311654686 0.0008926699958397829 0.009190884800984586 -0.0007746829267320929 -0.005847643869223807
 0.9952394645998719 -0.046199934311654686 0.003978142977171444 0.019194116728148494 -0.0007740924623704599 -0.005847655249449032 0.00088938091414889 0.00919128540777857
 0.0008926699958397829 0.009190884800984586 -0.0007740924623704599 -0.005847655249449032 0.003977830216910955 0.019193113635699248 0.9952394341874043 -0.046200934338895265
 -0.0007746829267320929 -0.005847643869223807 0.00088938091414889 0.00919128540777857 0.9952394341874043 -0.046200934338895265 0.003977771090941963 0.019193142460948047
0.08128386827845 0.004281356598575784 0.020902783645871947 0.9948374518482942 -0.05013509900946967 0.0010134925267160741 0.009960509780316934 -0.0008775210770380269 -0.006340655879058954
 0.9948374518482942 -0.05013509900946967 0.004282089323279356 0.020902759297225813 -0.0008768302810992174 -0.006340674610361773 0.0010096288809723392 0.009960989167951162
 0.0010134925267160741 0.009960509780316934 -0.0008768302810992174 -0.006340674610361773 0.004281722587199101 0.020901670929590086 0.9948374164743304 -0.05013618212748828
 -0.0008775210770380269 -0.006340655879058954 0.0010096288809723392 0.009960989167951162 0.9948374164743304 -0.05013618212748828 0.004281653236309506 0.020901706280280728
0.08753647353064001 0.004600788948189519 0.022626519652979075 0.9944148399780548 -0.05408346712490862 0.001142528296145208 0.01073027918477074 -0.0009873300225939914 -0.006834031439087201
 0.9944148399780548 -0.05408346712490862 0.004601638761560157 0.022626493179304097 -0.0009865313162519512 -0.00683405888854564 0.0011380431546730312 0.010730847021311362
 0.001142528296145208 0.01073027918477074 -0.0009865313162519512 -0.00683405888854564 0.004601213722014895 0.02262531915360196 0.9944147992697123 -0.05408463331199236
 -0.0009873300225939914 -0.006834031439087201 0.0011380431546730312 0.010730847021311362 0.9944147992697123 -0.05408463331199236 0.004601133368765187 0.022625361964950748
0.09378907878283 0.0049360848591343785 0.024365099317515775 0.993971366804852 -0.058044908872984774 0.001279848664861415 0.011500083945743223 -0.0011041828719899117 -0.007327659808948709
 0.993971366804852 -0.058044908872984774 0.0049370604833284945 0.024365070606070054 -0.001103268734578707 -0.007327697425421035 0.001274694950816326 0.011500750503601479
 0.001279848664861415 0.011500083945743223 -0.001103268734578707 -0.007327697425421035 0.004936572798014363 0.02436381051549838 0.9939713203888895 -0.0580461581076208
 -0.0011041828719899117 -0.007327659808948709 0.001274694950816326 0.011500750503601479 0.9939713203888895 -0.0580461581076208 0.004936480681035483 0.024363861790308635
0.100041684035 0.005287512119665638 0.026118278074128216 0.9935067708459583 -0.06201928174834876 0.0014255233917449422 0.012269812133097156 -0.0012281510495886045 -0.007821428382978045
 0.9935067708459583 -0.06201928174834876 0.005288622293701686 0.026118246995565197 -0.0012271140186385467 -0.007821477697022915 0.0014196538874407328 0.012270588296853253
 0.0014255233917449422 0.012269812133097156 -0.0012271140186385467 -0.007821477697022915 0.005288067603714128 0.026116900409720378 0.99350671834909 -0.06202061400890395
 -0.0012281510495886045 -0.007821428382978045 0.0014196538874407328 0.012270588296853253 0.99350671834909 -0.06202061400890395 0.005287962980066045 0.026116961219028362
0.1059090909091 0.005632197888404165 0.027776511711688736 0.9930513536936723 -0.06576043306409171 0.0015698825377312494 0.012991948630656351 -0.0013510154399849767 -0.008284803316720508
 0.9930513536936723 -0.06576043306409171 0.005633442287795857 0.027776478279028016 -0.0013498563513187735 -0.008284865072443756 0.0015632982747826958 0.012992838099532548
 0.0015698825377312494 0.012991948630656351 -0.0013498563513187735 -0.008284865072443756 0.005632820739373297 0.02777505011170323 0.9930512951500814 -0.06576184321830163
 -0.0013510154399849767 -0.008284803316720508 0.0015632982747826958 0.012992838099532548 0.9930512951500814 -0.06576184321830163 0.005632703722705167 0.02777512090349279
0.1062942892872 0.00565533706963264 0.02788581301997458 0.9930207914682702 -0.06600643200766765 0.0015796205586559684 0.013039349062406147 -0.001359304232938722 -0.008315222608117836
 0.9930207914682702 -0.06600643200766765 0.005656590551161616 0.027885779427894684 -0.0013581369042054133 -0.008315285231927426 0.001572987910146967 0.013040246336647117
 0.0015796205586559684 0.013039349062406147 -0.0013581369042054133 -0.008315285231927426 0.005655964478183945 0.027884345890028785 0.9930207325161767 -0.06600784727520868
 -0.001359304232938722 -0.008315222608117836 0.001572987910146967 0.013040246336647117 0.9930207325161767 -0.06600784727520868 0.005655846626170671 0.027884417373638278
0.11254689453939999 0.006039824530082617 0.029667461733265812 0.9925131690287948 -0.07000619581347534 0.00174220649566125 0.013808577383732321 -0.0014977102887182485 -0.008808925924412202
 0.9925131690287948 -0.07000619581347534 0.006041230096956584 0.029667425463696134 -0.0014964053163936519 -0.008809003551711946 0.0017347632176356177 0.013809607900822272
 0.00174220649566125 0.013808577383732321 -0.0014964053163936519 -0.008809003551711946 0.006040528242144534 0.029665904495005464 0.9925131032475774 -0.07000769406756935
 -0.0014977102887182485 -0.008808925924412202 0.0017347632176356177 0.013809607900822272 0.9925131032475774 -0.07000769406756935 0.006040396463293369 0.02966598786219026
0.11879949979160001 0.0064412377244234525 0.03146298136404735 0.9919836450104236 -0.07401840011070929 0.0019133457067657717 0.014577377156806187 -0.0016434352072951415 -0.009302419722958824
 0.9919836450104236 -0.07401840011070929 0.006442804176425443 0.03146294223478913 -0.0016419853041957503 -0.009302514128916707 0.0019050441879065471 0.014578553684638472
 0.0019133457067657717 0.014577377156806187 -0.0016419853041957503 -0.009302514128916707 0.00644202211776554 0.03146133332899853 0.9919835720253096 -0.0740199813350243
 -0.0016434352072951415 -0.009302419722958824 0.0019050441879065471 0.014578553684638472 0.9919835720253096 -0.0740199813350243 0.006441875739699053 0.03146142985885753
0.1250521050438 0.006859838193234793 0.03327212791049915 0.9914319621528013 -0.07804286332200122 0.0020931007963444306 0.015345625911337422 -0.0017965430359117712 -0.009795583322933475
 0.9914319621528013 -0.07804286332200122 0.006861574354149899 0.0332720857205212 -0.001794940973811663 -0.009795696364042608 0.002083893304863447 0.01534696186107408
 0.0020931007963444306 0.015345625911337422 -0.001794940973811663 -0.009795696364042608 0.0068607076442627245 0.03327038834880414 0.9914318815886473 -0.0780445274996291
 -0.0017965430359117712 -0.009795583322933475 0.002083893304863447 0.01534696186107408 0.9914318815886473 -0.0780445274996291 0.00686054602334678 0.03327049939074781
0.131304710296 0.00729588570390285 0.035094655645373514 0.9908578645813013 -0.08207939589821052 0.0022815323956851714 0.016113198705769147 -0.001957095811104451 -0.010288293954428464
 0.9908578645813013 -0.08207939589821052 0.0072978004232191005 0.03509461017403961 -0.0019553344210876764 -0.010288427568383985 0.0022713710851541883 0.01611470813947276
 0.0022815323956851714 0.016113198705769147 -0.0019553344210876764 -0.010288427568383985 0.007296844587223776 0.035092823783688075 0.9908577760622764 -0.08208114301321702
 -0.001957095811104451 -0.010288293954428464 0.0022713710851541883 0.01611470813947276 0.9908577760622764 -0.08208114301321702 0.007296667110995763 0.03509295075784059
0.1375573155481 0.007647299859659382 0.0366927512953699 0.9903634720283109 -0.08589013755447303 0.002454245346700238 0.016856015008690012 -0.0021007177798278696 -0.010756478167118605
 0.9903634720283109 -0.08589013755447303 0.00764940214806865 0.036692700825027055 -0.002098786427544809 -0.01075663242753943 0.002443109923662212 0.016857695236673974
 0.002454245346700238 0.016856015008690012 -0.002098786427544809 -0.01075663242753943 0.00764835192048177 0.03669082635798642 0.9903633751967491 -0.08589196755817838
 -0.0021007177798278696 -0.010756478167118605 0.002443109923662212 0.016857695236673974 0.9903633751967491 -0.08589196755817838 0.0076481593597654465 0.03669096912019553
0.1438099208003 0.00801100573297124 0.03828283641062857 0.9898518347380582 -0.08969162634494864 0.002633935461893703 0.01759605358734449 -0.0022500916271972877 -0.011222115193382698
 0.9898518347380582 -0.08969162634494864 0.008013304494169126 0.03828278052359284 -0.00224798260464944 -0.011222291998573353 0.0026217828977232486 0.017597917381192266
 0.002633935461893703 0.01759605358734449 -0.00224798260464944 -0.011222291998573353 0.008012155229017251 0.03828081759660048 0.9898517292216802 -0.08969353921309155
 -0.0022500916271972877 -0.011222115193382698 0.0026217828977232486 0.017597917381192266 0.9898517292216802 -0.08969353921309155 0.0080119472537675 0.038280977411778105
0.1500625260525 0.008386880885734275 0.039864790081559465 0.9893230789022341 -0.0934837799613272 0.0028205440050159364 0.018333246498167147 -0.002405160229469939 -0.01168514047031118
 0.9893230789022341 -0.0934837799613272 0.00838938504728575 0.03986472833517372 -0.0024028658437398936 -0.01168534179475705 0.002807331480867573 0.018335307098582207
 0.0028205440050159364 0.018333246498167147 -0.0024028658437398936 -0.01168534179475705 0.00838813206548175 0.03986267655584767 0.9893229643287794 -0.09348577567004805
 -0.002405160229469939 -0.01168514047031118 0.002807331480867573 0.018335307098582207 0.9893229643287794 -0.09348577567004805 0.008387908388862502 0.03986285473176397
0.15631513130469998 0.008774802078532437 0.04143849510229091 0.9887773312799517 -0.09726651614453541 0.003014011582751651 0.019067526888288285 -0.002565865793590439 -0.01214549075194426
