! Created with skrf 1.8.0 (http://scikit-rf.org).
# GHz S RI R 50.0 
!freq ReS11 ImS11 ReS12 ImS12 ReS13 ImS13
! ReS14 ImS14
! ReS21 ImS21 ReS22 ImS22 ReS23 ImS23
! ReS24 ImS24
! ReS31 ImS31 ReS32 ImS32 ReS33 ImS33
! ReS34 ImS34
! ReS41 ImS41 ReS42 ImS42 ReS43 ImS43
! ReS44 ImS44
!
0.0 0.001574424594353 0.0 0.9984255754056 0.0 6.096200072393e-05 0.0 -6.096200063527e-05 7.465691894760232e-21
 0.9984255754056 0.0 0.001574424594414 0.0 -6.096200063681e-05 7.465691894948827e-21 6.096200072576e-05 0.0
 6.096200072393e-05 0.0 -6.096200063681e-05 7.465691894948827e-21 0.001574424585871 0.0 0.9984255753971 0.0
 -6.096200063527e-05 7.465691894760232e-21 6.096200072576e-05 0.0 0.9984255753971 0.0 0.001574424585849 0.0
0.005 0.0016940768171518218 0.001284583122379825 0.9982741677499712 -0.003298059780525864 8.60202363984568e-05 0.0006920258761703088 -8.337172761403777e-05 -0.000430809740842324
 0.9982741677499712 -0.003298059780525864 0.0016940946478086205 0.0012845727381798466 -8.337459226716597e-05 -0.0004308119626321822 8.590261145172507e-05 0.0006920707031125466
 8.60202363984568e-05 0.0006920258761703088 -8.337459226716597e-05 -0.0004308119626321822 0.0016940748743097171 0.0012845170184319868 0.9982741673837151 -0.003298126841395902
 -8.337172761403777e-05 -0.000430809740842324 8.590261145172507e-05 0.0006920707031125466 0.9982741673837151 -0.003298126841395902 0.001694095858751329 0.0012845047186894605
0.006252605252188 0.0017254840781886084 0.0016107938077078712 0.9982341664366303 -0.004123378292266985 9.320658031098308e-05 0.0008653555223749499 -8.971402599787584e-05 -0.0005390720443465506
 0.9982341664366303 -0.004123378292266985 0.0017255119502857584 0.001610780593744911 -8.971848345726722e-05 -0.0005390747841294501 9.302280277377185e-05 0.0008654137289904583
 9.320658031098308e-05 0.0008653555223749499 -8.971848345726722e-05 -0.0005390747841294501 0.0017254811230026374 0.0016107111922095295 0.9982341659464107 -0.004123462107879048
 -8.971402599787584e-05 -0.0005390720443465506 9.302280277377185e-05 0.0008654137289904583 0.9982341659464107 -0.004123462107879048 0.0017255139259294162 0.001610695574810669
0.01250521050438 0.001890970999626212 0.0032554117801190385 0.998021964700864 -0.008247546219715414 0.00013456200114680253 0.0017309871398813322 -0.00012578100755755828 -0.0010807573398333124
 0.998021964700864 -0.008247546219715414 0.0018910822880617774 0.0032553830102511993 -0.0001257985720906876 -0.0010807624082871782 0.0001338291514106548 0.001731127030782181
 0.00013456200114680253 0.0017309871398813322 -0.0001257985720906876 -0.0010807624082871782 0.0018909597594854825 0.0032552468516726754 0.9980219633090497 -0.008247713598472609
 -0.00012578100755755828 -0.0010807573398333124 0.0001338291514106548 0.001731127030782181 0.9980219633090497 -0.008247713598472609 0.0018910907482758612 0.003255213157092706
0.01875781575657 0.0020712534922592905 0.004923476394585859 0.9977887017197613 -0.012382537334698605 0.00018512404281247063 0.002597490131904604 -0.00016927598995009426 -0.0016242433358415397
 0.9977887017197613 -0.012382537334698605 0.002071503552308971 0.00492342959958014 -0.00016931515673626087 -0.001624250241625735 0.00018347780491251701 0.0025977398581188086
 0.00018512404281247063 0.002597490131904604 -0.00016931515673626087 -0.001624250241625735 0.0020712286517578283 0.004923229333970117 0.9977886990205734 -0.012382788180251002
 -0.00016927598995009426 -0.0016242433358415397 0.00018347780491251701 0.0025977398581188086 0.9977886990205734 -0.012382788180251002 0.002071523002129978 0.004923174889604211
0.02501042100875 0.0022666884112986507 0.006612637341267258 0.9975340982717948 -0.016530346608193112 0.00024499026482405006 0.0034648984722749788 -0.00022030809053851332 -0.002169272547748556
 0.9975340982717948 -0.016530346608193112 0.002267132481509327 0.006612569942551084 -0.00022037725235467555 -0.0021692807107160086 0.00024206620540904872 0.003465290698593929
 0.00024499026482405006 0.0034648984722749788 -0.00022037725235467555 -0.0021692807107160086 0.002266644652059312 0.00661230836070532 0.9975340938540146 -0.016530680825072096
 -0.00022030809053851332 -0.002169272547748556 0.00024206620540904872 0.003465290698593929 0.9975340938540146 -0.016530680825072096 0.0022671674169181077 0.006612230303472064
0.03126302626094 0.0024776178251474726 0.008321680190750877 0.9972578611348719 -0.02069182174004857 0.0003142587761339877 0.0043331637748926346 -0.00027898319115763183 -0.0027156635383590744
 0.9972578611348719 -0.02069182174004857 0.00247831105784949 0.008321589504701729 -0.0002790906556316723 -0.0027156722885236743 0.0003096920068300912 0.0043337357058556274
 0.0003142587761339877 0.0043331637748926346 -0.0002790906556316723 -0.0027156722885236743 0.00247754983448447 0.008321269494631292 0.9972578545931605 -0.02069223927334633
 -0.00027898319115763183 -0.0027156635383590744 0.0003096920068300912 0.0043337357058556274 0.9972578545931605 -0.02069223927334633 0.0024783659796949603 0.0083211647747762
0.037515631513130004 0.0027043763047567004 0.010049809369713449 0.9969596906192825 -0.02486738012304307 0.0003930271747941434 0.005202205063926883 -0.0003454047342571425 -0.0032632611465440724
 0.9969596906192825 -0.02486738012304307 0.0027053737881823554 0.01004969260978976 -0.0003455587327750774 -0.003263269723777999 0.00038645220209950864 0.005202998489034303
 0.0003930271747941434 0.005202205063926883 -0.0003455587327750774 -0.003263269723777999 0.0027042787681533435 0.010049317203381812 0.9969596815474786 -0.024867880910177127
 -0.0003454047342571425 -0.0032632611465440724 0.00038645220209950864 0.005202998489034303 0.9969596815474786 -0.024867880910177127 0.0027054531962096753 0.010049182585881012
0.043768236765320004 0.0029472937310708464 0.01179642997036319 0.996639283621745 -0.02905722696310405 0.0004813920533103228 0.006071923901555571 -0.0004196740032399777 -0.0038119213636601612
 0.996639283621745 -0.02905722696310405 0.00294865050680705 0.011796284248745263 -0.0004198826962110697 -0.0038119289176093926 0.00047244270848909357 0.006072985246424335
 0.0004813920533103228 0.006071923901555571 -0.0004198826962110697 -0.0038119289176093926 0.0029471613347119728 0.011795856605006693 0.9966392716165587 -0.029057810949577448
 -0.0004196740032399777 -0.0038119213636601612 0.00047244270848909357 0.006072985246424335 0.9966392716165587 -0.029057810949577448 0.0029487589030130715 0.011795688670035916
0.050020842017509996 0.003206696598686079 0.013561057573850545 0.9962963351811676 -0.033261445384013356 0.0005794487000399664 0.0069422106506560315 -0.0005018902226310673 -0.004361505078791856
 0.9962963351811676 -0.033261445384013356 0.0032084676769249003 0.013560879902447379 -0.0005021617027459925 -0.004361510668878168 0.0005677581116805288 0.0069435910305983605
 0.0005794487000399664 0.0069422106506560315 -0.0005021617027459925 -0.004361510668878168 0.0032065240265131746 0.013560403317257238 0.9962963198392227 -0.033262112513517905
 -0.0005018902226310673 -0.004361505078791856 0.0005677581116805288 0.0069435910305983605 0.9962963198392227 -0.033262112513517905 0.00320860956379464 0.013560198459990007
0.055454545454549996 0.0034457652653508116 0.015108870362398401 0.9959797586208592 -0.036926715590886276 0.0006726066684312945 0.007698886123825285 -0.0005798680333764843 -0.004839753352107334
 0.9959797586208592 -0.036926715590886276 0.0034479410470898406 0.015108662421495616 -0.0005802005988295959 -0.004839756401609582 0.0006582353647290475 0.007700588950140565
 0.0006726066684312945 0.007698886123825285 -0.0005802005988295959 -0.004839756401609582 0.0034455534608226405 0.01510814608948634 0.9959797400527636 -0.036927454925328236
 -0.0005798680333764843 -0.004839753352107334 0.0006582353647290475 0.007700588950140565 0.9959797400527636 -0.036927454925328236 0.003448115695573267 0.015107906073876867
0.056273447269699996 0.00348290867950525 0.015343273993211289 0.9959305393972768 -0.037480040614170596 0.0006872908886752255 0.007812947541524213 -0.0005921505760419607 -0.004911875024097346
 0.9959305393972768 -0.037480040614170596 0.0034851490541444484 0.015343061284198047 -0.0005924928705718345 -0.004911877619533287 0.0006724914810407269 0.007814702816173719
 0.0006872908886752255 0.007812947541524213 -0.0005924928705718345 -0.004911877619533287 0.0034826906142146896 0.015342539190030712 0.9959305203169937 -0.037480790828996094
 -0.0005921505760419607 -0.004911875024097346 0.0006724914810407269 0.007814702816173719 0.9959305203169937 -0.037480790828996094 0.0034853289352094192 0.01534229361997361
0.06252605252188 0.0037762513752701717 0.01714270294237737 0.9955415900438316 -0.04171296425060221 0.0008050107107457505 0.00868401036363787 -0.0006905501835969145 -0.005462894099587353
 0.9955415900438316 -0.04171296425060221 0.0037790160373031532 0.01714245200841296 -0.0006909712558205368 -0.005462892579430679 0.0007867342189108559 0.008686201191966643
 0.0008050107107457505 0.00868401036363787 -0.0006909712558205368 -0.005462892579430679 0.003775982497921611 0.017141887974559535 0.9955415668246057 -0.04171379749211188
 -0.0006905501835969145 -0.005462894099587353 0.0007867342189108559 0.008686201191966643 0.9955415668246057 -0.04171379749211188 0.0037792384173031507 0.017141597714377108
0.06877865777407 0.0040870438977604175 0.018958995530370157 0.9951291810123745 -0.045960128702085816 0.0009326984322990162 0.00955526948094669 -0.000797182055337725 -0.006014424379251376
 0.9951291810123745 -0.045960128702085816 0.004090387848915375 0.018958703084314233 -0.0007976898055553574 -0.006014417532461981 0.00091057592955028 0.009557961376270192
 0.0009326984322990162 0.00955526948094669 -0.0007976898055553574 -0.006014417532461981 0.004086718887425999 0.018958100811614573 0.9951291532546873 -0.04596104491701357
 -0.000797182055337725 -0.006014424379251376 0.00091057592955028 0.009557961376270192 0.9951291532546873 -0.04596104491701357 0.004090657233273968 0.01895776169563357
0.07503126302626001 0.004415603347821021 0.020791821062516723 0.9946930066598095 -0.050221416330275784 0.0010704423648904015 0.010426590477277602 -0.0009121370301939067 -0.006566326492161898
 0.9946930066598095 -0.050221416330275784 0.004419581614068692 0.020791483716733058 -0.0009127392963877667 -0.0065663130176795235 0.0010441042990662498 0.010429853862013271
 0.0010704423648904015 0.010426590477277602 -0.0009127392963877667 -0.0065663130176795235 0.004415216881385458 0.020790847052333222 0.994692973965193 -0.050222415457489886
 -0.0009121370301939067 -0.006566326492161898 0.0010441042990662498 0.010429853862013271 0.994692973965193 -0.050222415457489886 0.0044199025081793995 0.02079045472448255
0.08128386827845 0.004762244731544389 0.022640860931044126 0.9942327620968981 -0.0544966855068097 0.0012183287456205352 0.011297834594103164 -0.0010355037051548704 -0.007118459216534399
 0.9942327620968981 -0.0544966855068097 0.004766912376401567 0.02264047519627524 -0.0010362082633679469 -0.007118437723353129 0.0011874049825698165 0.011301744854107915
 0.0012183287456205352 0.011297834594103164 -0.0010362082633679469 -0.007118437723353129 0.004761791484349915 0.022639808128044857 0.9942327240684495 -0.054497767484888986
 -0.0010355037051548704 -0.007118459216534399 0.0011874049825698165 0.011301744854107915 0.9942327240684495 -0.054497767484888986 0.0047672892860945865 0.022639358039450816
0.08753647353064001 0.005127280933570268 0.02450580438591625 0.9937481434377302 -0.05878577479609911 0.0013764416225233015 0.012168859040926698 -0.001167368358312509 -0.007670679206684021
 0.9937481434377302 -0.05878577479609911 0.005132693071272807 0.024505366669734543 -0.0011681829227963689 -0.007670648213955984 0.0013405614952572014 0.012173496579302279
 0.0013764416225233015 0.012168859040926698 -0.0011681829227963689 -0.007670648213955984 0.005126755579183631 0.024504673326265467 0.9937480996795748 -0.05878693956570587
 -0.001167368358312509 -0.007670679206684021 0.0013405614952572014 0.012173496579302279 0.9937480996795748 -0.05878693956570587 0.005133130502346936 0.024504160732280268
0.09378907878283 0.0055110226610862335 0.026386345511173054 0.993238848023055 -0.0630885059386497 0.0015448627441603249 0.013039517223546253 -0.001307814866725609 -0.00822284080781991
 0.993238848023055 -0.0630885059386497 0.005517234470224524 0.02638585211597702 -0.001308747090054016 -0.008222798744952829 0.0015036551067942085 0.013044967513728025
 0.0015448627441603249 0.013039517223546253 -0.001308747090054016 -0.008222798744952829 0.005510419871268222 0.026385136775860192 0.9932387981406189 -0.06308975343610122
 -0.001307814866725609 -0.00822284080781991 0.0015036551067942085 0.013044967513728025 0.9932387981406189 -0.06308975343610122 0.005517736927215039 0.026384556732806156
0.100041684035 0.005913778366692371 0.028282181022883494 0.9927045746270826 -0.06740468601934897 0.0017236714516664388 0.013909658919693828 -0.001456924621120489 -0.008774795929226004
 0.9927045746270826 -0.06740468601934897 0.005920845103376192 0.028281628143385668 -0.0014579820939867527 -0.008774741136010695 0.0016767647375523114 0.013916012557846026
 0.0017236714516664388 0.013909658919693828 -0.0014579820939867527 -0.008774741136010695 0.005913092811458414 0.02828089523821085 0.9927045182268471 -0.06740601617696536
 -0.001456924621120489 -0.008774795929226004 0.0016767647375523114 0.013916012557846026 0.9927045182268471 -0.06740601617696536 0.0059214170899076725 0.028280242599479807
0.1059090909091 0.006309287591000833 0.030074862342805604 0.9921802316114039 -0.07146701161826953 0.0019009803243494696 0.01472558799615479 -0.0016047976808291457 -0.009292425346131561
 0.9921802316114039 -0.07146701161826953 0.006317206922297719 0.030074250084185027 -0.0016059795355027244 -0.009292357017163454 0.0018483873747600743 0.014732876335348635
 0.0019009803243494696 0.01472558799615479 -0.0016059795355027244 -0.009292357017163454 0.00630851952074295 0.030073504861439466 0.9921801687384506 -0.07146841928338449
 -0.0016047976808291457 -0.009292425346131561 0.0018483873747600743 0.014732876335348635 0.9921801687384506 -0.07146841928338449 0.006317848249691537 0.030072779234041003
0.1062942892872 0.006335854155717771 0.03019300860673446 0.9921450236509628 -0.0717341091026287 0.0019129445728119628 0.014779130420666893 -0.0016147764377627768 -0.009326393957480882
 0.9921450236509628 -0.0717341091026287 0.0063438311671216155 0.030192392326980278 -0.00161596668883202 -0.0093263246842104 0.001859966856171702 0.014786483177228677
 0.0019129445728119628 0.014779130420666893 -0.00161596668883202 -0.0093263246842104 0.0063350805040100645 0.03019164644006981 0.9921449603409696 -0.07173552185389874
 -0.0016147764377627768 -0.009326393957480882 0.001859966856171702 0.014786483177228677 0.9921449603409696 -0.07173552185389874 0.0063444771854085065 0.030190915851827385
0.11254689453939999 0.006777553681657641 0.03211852565231748 0.9915598973084323 -0.0760765574779455 0.0021127563172947846 0.0156477746482257 -0.001781446468448846 -0.00987748170051919
 0.9915598973084323 -0.0760765574779455 0.006786496419718733 0.03211784194222739 -0.0017827769640596657 -0.009877396108148131 0.0020533353782312886 0.01565622751849623
 0.0021127563172947846 0.0156477746482257 -0.0017827769640596657 -0.009877396108148131 0.006776686601343158 0.03211708781569084 0.9915598266981825 -0.07607805275475578
 -0.001781446468448846 -0.00987748170051919 0.0020533353782312886 0.01565622751849623 0.9915598266981825 -0.07607805275475578 0.00678722097000183 0.032116273712047415
0.11879949979160001 0.007239178032655061 0.03405842827068881 0.9909488998053277 -0.08043180262911764 0.0023231781731026017 0.016515431255289547 -0.00195700810904772 -0.010427903354076498
 0.9909488998053277 -0.08043180262911764 0.007249142067661209 0.034057672982050105 -0.001958486252841802 -0.010427799514343455 0.0022569415654885355 0.0165250905091177
 0.0023231781731026017 0.016515431255289547 -0.001958486252841802 -0.010427799514343455 0.007238212190518505 0.03405691552417573 0.9909488215055264 -0.08043338035921017
 -0.00195700810904772 -0.010427903354076498 0.0022569415654885355 0.0165250905091177 0.9909488215055264 -0.08043338035921017 0.007249949647447802 0.034056012121881744
0.1250521050438 0.007721025609805516 0.03601241052593256 0.990311737513505 -0.08479960599680686 0.0025442788037946668 0.017381936717331934 -0.0021415319067581502 -0.010977500483754706
 0.990311737513505 -0.08479960599680686 0.00773206664418938 0.03601157938789475 -0.002143165039272586 -0.010977376379400633 0.0024708539258458204 0.017392913947697916
 0.0025442788037946668 0.017381936717331934 -0.002143165039272586 -0.010977376379400633 0.007719955672204152 0.036010823672756966 0.9903116511364495 -0.08480126610960757
 -0.0021415319067581502 -0.010977500483754706 0.0024708539258458204 0.017392913947697916 0.9903116511364495 -0.08480126610960757 0.00773296174825171 0.036009824965326176
0.131304710296 0.008223392000249968 0.037980163813898786 0.9896481191426506 -0.08917971960154127 0.002776123946530691 0.018247124412404985 -0.002335085466483671 -0.011526112025010795
 0.9896481191426506 -0.08917971960154127 0.008235565882420446 0.03797925242789782 -0.0023368808646538337 -0.01152596554993314 0.0026951381139869177 0.018259536582925784
 0.002776123946530691 0.018247124412404985 -0.0023368808646538337 -0.01152596554993314 0.008222212633134897 0.03797850370800154 0.9896480243020176 -0.08918146202144389
 -0.002335085466483671 -0.011526112025010795 0.0026951381139869177 0.018259536582925784 0.9896480243020176 -0.08918146202144389 0.008236553001897656 0.03797740345932954
0.1375573155481 0.008632578388667496 0.03970415721974763 0.9890717918435822 -0.09331455284690374 0.002990298264416713 0.01908509914560543 -0.002509350483307541 -0.01204779745434584
 0.9890717918435822 -0.09331455284690374 0.00864594629719176 0.0397031833722865 -0.0025113190019598274 -0.01204762840314988 0.0029015637344125315 0.019098930296266147
 0.002990298264416713 0.01908509914560543 -0.0025113190019598274 -0.01204762840314988 0.00863128492801923 0.03970242458798312 0.989071688161058 -0.0933163774742181
 -0.002509350483307541 -0.01204779745434584 0.0029015637344125315 0.019098930296266147 0.989071688161058 -0.0933163774742181 0.008647029233965384 0.03970123892720921
0.1438099208003 0.009056190778065304 0.041418802330077886 0.9884751187135218 -0.09743864691460143 0.0032131352025872068 0.01991951357901877 -0.0026905846157884213 -0.012566261911101977
 0.9884751187135218 -0.09743864691460143 0.009070809583148645 0.041417762986179586 -0.002692734084540771 -0.012566068207311541 0.0031163125779489313 0.019934870897501757
 0.0032131352025872068 0.01991951357901877 -0.002692734084540771 -0.012566068207311541 0.009054778007369863 0.04141699802571464 0.9884750058074316 -0.09744055366490662
 -0.0026905846157884213 -0.012566261911101977 0.0031163125779489313 0.019934870897501757 0.9884750058074316 -0.09744055366490662 0.00907199269872315 0.04141572204575487
0.1500625260525 0.00949407610584286 0.04312394821820337 0.9878582570347658 -0.10155189166586111 0.0034445563759006007 0.02075027664744113 -0.002878712462862893 -0.01308142083169889
 0.9878582570347658 -0.10155189166586111 0.00951000284958617 0.04312284013547495 -0.002881050693389259 -0.013081200315402292 0.003339308317066988 0.020767271240532233
 0.0034445563759006007 0.02075027664744113 -0.002881050693389259 -0.013081200315402292 0.00949253881539701 0.04312207312846444 0.9878581345255865 -0.10155388045195894
 -0.002878712462862893 -0.01308142083169889 0.003339308317066988 0.020767271240532233 0.9878581345255865 -0.10155388045195894 0.00951129049397353 0.043120701638510124
0.15631513130469998 0.009946080174959326 0.04481944849801391 0.9872213649421424 -0.10565417751402637 0.0036844824443158387 0.02157729886284175 -0.0030736576695545702 -0.013593191480764849
 0.9872213649421424 -0.10565417751402637 0.00996337207601238 0.0448182682194554 -0.003076192455185155 -0.013592941909040113 0.003570473701146984 0.021596045715166306
