! Created with skrf 1.8.0 (http://scikit-rf.org).
# GHz S RI R 50.0 
!freq ReS11 ImS11 ReS12 ImS12 ReS13 ImS13
! ReS14 ImS14
! ReS21 ImS21 ReS22 ImS22 ReS23 ImS23
! ReS24 ImS24
! ReS31 ImS31 ReS32 ImS32 ReS33 ImS33
! ReS34 ImS34
! ReS41 ImS41 ReS42 ImS42 ReS43 ImS43
! ReS44 ImS44
!
0.0 0.001338701312429 0.0 0.998661298675 0.0 5.112136576779e-05 0.0 -5.112136594529e-05 6.2605617172939904e-21
 0.998661298675 0.0 0.001338701312454 0.0 -5.112136594598e-05 6.260561717378491e-21 5.112136576823e-05 0.0
 5.112136576779e-05 0.0 -5.112136594598e-05 6.260561717378491e-21 0.001338701316792 0.0 0.9986612986793 0.0
 -5.112136594529e-05 6.2605617172939904e-21 5.112136576823e-05 0.0 0.9986612986793 0.0 0.001338701316781 0.0
0.005 0.0014397749502239436 0.0010987835515463428 0.9985335285049757 -0.002804643282923094 7.081434153728007e-05 0.0005440989374028308 -6.896354886281431e-05 -0.00034495618295921765
 0.9985335285049757 -0.002804643282923094 0.0014397764142139433 0.0010987826683414622 -6.896074237579906e-05 -0.00034495401660138803 7.08061053478258e-05 0.0005441019416702484
 7.081434153728007e-05 0.0005440989374028308 -6.896074237579906e-05 -0.00034495401660138803 0.001439776117233753 0.0010987155861864335 0.9985335281704153 -0.002804710343599812
 -6.896354886281431e-05 -0.00034495618295921765 7.08061053478258e-05 0.0005441019416702484 0.9985335281704153 -0.002804710343599812 0.0014397745797373955 0.0010987165128688843
0.006252605252188 0.0014661295672591423 0.0013778083729387434 0.998500030252797 -0.0035065127108494334 7.63471748181144e-05 0.0006804062659315715 -7.392749612847665e-05 -0.0004316455328743999
 0.998500030252797 -0.0035065127108494334 0.0014661318563882052 0.0013778073014158764 -7.392312904426245e-05 -0.0004316428608428407 7.633430489137306e-05 0.0006804101859251298
 7.63471748181144e-05 0.0006804062659315715 -7.392312904426245e-05 -0.0004316428608428407 0.0014661314506071307 0.0013777234213797908 0.998500029788543 -0.003506596528576038
 -7.392749612847665e-05 -0.0004316455328743999 7.633430489137306e-05 0.0006804101859251298 0.998500029788543 -0.003506596528576038 0.001466129047060829 0.0013777246189360269
0.01250521050438 0.0016039695893386003 0.002784587978915518 0.9983238028760948 -0.007013957479453217 0.00010758424000206166 0.001361286265696401 -0.00010169729251391852 -0.0008654606911818555
 0.9983238028760948 -0.007013957479453217 0.0016039787359594154 0.002784586159980778 -0.00010168008210854821 -0.000865455737038628 0.0001075328680683111 0.001361295851994977
 0.00010758424000206166 0.001361286265696401 -0.00010168008210854821 -0.000865455737038628 0.001603977704856568 0.0027844182774238255 0.9983238016122037 -0.007014124874769212
 -0.00010169729251391852 -0.0008654606911818555 0.0001075328680683111 0.001361295851994977 0.9983238016122037 -0.007014124874769212 0.0016039681040769514 0.002784421086560942
0.01875781575657 0.001752490256003348 0.004211560983512799 0.9981324203795632 -0.010530900058885784 0.00014490075940378007 0.002043094674908295 -0.0001345089706898193 -0.001300867009812694
 0.9981324203795632 -0.010530900058885784 0.0017525108177715903 0.004211558736976999 -0.00013447058985638344 -0.001300860229621607 0.00014478524112213927 0.002043111954559392
 0.00014490075940378007 0.002043094674908295 -0.00013447058985638344 -0.001300860229621607 0.001752508924409779 0.004211306570420142 0.9981324179615474 -0.010531150925741535
 -0.0001345089706898193 -0.001300867009812694 0.00014478524112213927 0.002043111954559392 0.9981324179615474 -0.010531150925741535 0.0017524873415621298 0.0042113114726401255
0.02501042100875 0.0019119541752161402 0.005656771023248486 0.9979256797406202 -0.014059077736597241 0.00018836576307265204 0.0027258759937388807 -0.00017243885829582527 -0.0017376924977522837
 0.9979256797406202 -0.014059077736597241 0.0019119907066056203 0.005656768668800598 -0.00017237107828032368 -0.0017376844222104105 0.00018816037434757658 0.0027259032701457053
 0.00018836576307265204 0.0027258759937388807 -0.00017237107828032368 -0.0017376844222104105 0.0019119877221669885 0.005656431858710953 0.9979256758210564 -0.014059412020052292
 -0.00017243885829582527 -0.0017376924977522837 0.00018816037434757658 0.0027259032701457053 0.9979256758210564 -0.014059412020052292 0.0019119493758024157 0.005656439403149817
0.03126302626094 0.0020826129452144516 0.007119228130109835 0.9977033664773637 -0.01759925437880912 0.00023804886081786063 0.0034096149252473363 -0.00021556151924003892 -0.0021758212620798427
 0.9977033664773637 -0.01759925437880912 0.0020826700005005306 0.00711922598839695 -0.0002154561924729909 -0.002175812497642515 0.00023772777622702796 0.003409654781476269
 0.00023804886081786063 0.0034096149252473363 -0.0002154561924729909 -0.002175812497642515 0.002082665696273808 0.007118804138081715 0.9977033607087976 -0.017599672033280736
 -0.00021556151924003892 -0.0021758212620798427 0.00023772777622702796 0.003409654781476269 0.9977033607087976 -0.017599672033280736 0.002082605807445355 0.007118814942385291
0.037515631513130004 0.002264712915974562 0.008598299580428704 0.9974652605391181 -0.021151829528256796 0.0002940196182228205 0.004094272802935124 -0.00026395028087666567 -0.0026151570728754348
 0.9974652605391181 -0.021151829528256796 0.002264795051604865 0.008598297973413388 -0.0002637993322289834 -0.002615148302109224 0.0002935569012704416 0.004094328105796641
 0.0002940196182228205 0.004094272802935124 -0.0002637993322289834 -0.002615148302109224 0.0022647891979223752 0.008597790645464837 0.9974652525739583 -0.021152330520518306
 -0.00026395028087666567 -0.0026151570728754348 0.0002935569012704416 0.004094328105796641 0.9974652525739583 -0.021152330520518306 0.002264702990055283 0.008597805396855082
0.043768236765320004 0.002458497426520043 0.010093524491087923 0.9972111386738777 -0.024717023747380128 0.00035634727959104755 0.004779798639900229 -0.000317677419399757 -0.0030556123045814582
 0.9972111386738777 -0.024717023747380128 0.002458609202473643 0.010093523742324154 -0.00031747284084759073 -0.0030556042863201824 0.00035571687765331554 0.004779872544245201
 0.00035634727959104755 0.004779798639900229 -0.00031747284084759073 -0.0030556042863201824 0.0024586015690730516 0.010092930461421479 0.9972111281657362 -0.024717608053184553
 -0.000317677419399757 -0.0030556123045814582 0.00035571687765331554 0.004779872544245201 0.9972111281657362 -0.024717608053184553 0.0024584842685500177 0.010092949917705069
0.050020842017509996 0.0026642078490318544 0.01160453721248245 0.9969407756045511 -0.028294955162730926 0.00042510059950761454 0.005466133701283934 -0.00037681423723874574 -0.0034971033542533685
 0.9969407756045511 -0.028294955162730926 0.002664353830518393 0.011604537647175246 -0.0003765480844942733 -0.0034970969236482368 0.0004242763411976509 0.005466229654379766
 0.00042510059950761454 0.005466133701283934 -0.0003765480844942733 -0.0034970969236482368 0.0026643441835771634 0.011603857904780282 0.9969407622060104 -0.02829562276179995
 -0.00037681423723874574 -0.0034971033542533685 0.0004242763411976509 0.005466229654379766 0.9969407622060104 -0.02829562276179995 0.002664191020327461 0.01160388289534952
0.055454545454549996 0.0028528481268747428 0.01293023442805329 0.9966924560802649 -0.03141467269796147 0.0004901206822145541 0.006063187075122525 -0.00043265390906278264 -0.0038815500931145158
 0.9966924560802649 -0.03141467269796147 0.002853027546551873 0.01293023615658329 -0.00043232784245988916 -0.0038815457797795427 0.0004891066097209057 0.006063305219304227
 0.0004901206822145541 0.006063187075122525 -0.00043232784245988916 -0.0038815457797795427 0.002853015956664226 0.01292948083482328 0.9966924398874892 -0.03141541267059102
 -0.00043265390906278264 -0.0038815500931145158 0.0004891066097209057 0.006063305219304227 0.9966924398874892 -0.03141541267059102 0.002852827757359056 0.01292951136475071
0.056273447269699996 0.0028820841347880098 0.013131029718780784 0.9966539447089903 -0.0318856770119243 0.0005003477260356443 0.006153213745373024 -0.0004414310882234534 -0.003939548392188141
 0.9966539447089903 -0.0318856770119243 0.002882268893521006 0.013131031663775798 -0.00044109547836716437 -0.003939544460748844 0.0004993033205291459 0.006153335491351578
 0.0005003477260356443 0.006153213745373024 -0.00044109547836716437 -0.003939544460748844 0.0028822569949513268 0.013130264914351215 0.9966539280722062 -0.031886427891289745
 -0.0004414310882234534 -0.003939548392188141 0.0004993033205291459 0.006153335491351578 0.9966539280722062 -0.031886427891289745 0.0028820632036206393 0.013130296341150866
0.06252605252188 0.003112365117257803 0.014672730930333293 0.9963504184606281 -0.03548919825918597 0.000582156111353115 0.006840970245895679 -0.0005115973747749228 -0.004382866132908624
 0.9963504184606281 -0.03548919825918597 0.00311259323286571 0.014672734714153722 -0.000511184484671772 -0.004382865688498513 0.0005808651483377947 0.006841121830223404
 0.000582156111353115 0.006840970245895679 -0.000511184484671772 -0.004382865688498513 0.0031125788400981633 0.014671880379172072 0.9963503982376554 -0.03549003240881848
 -0.0005115973747749228 -0.004382866132908624 0.0005808651483377947 0.006841121830223404 0.9963503982376554 -0.03549003240881848 0.0031123396607801506 0.01467191921772044
0.06877865777407 0.0033552886835173093 0.01622939438875863 0.9960299687383634 -0.039105495859679165 0.0006705924358580861 0.007529331124989687 -0.000587381530387722 -0.004826975097240513
 0.9960299687383634 -0.039105495859679165 0.0033555647444856195 0.016229400341499767 -0.0005868835954754404 -0.004826979204076483 0.0006690283863994657 0.007529516898951955
 0.0006705924358580861 0.007529331124989687 -0.0005868835954754404 -0.004826979204076483 0.0033555476086461543 0.016228457806797814 0.9960299445807993 -0.039106413274888244
 -0.000587381530387722 -0.004826975097240513 0.0006690283863994657 0.007529516898951955 0.9960299445807993 -0.039106413274888244 0.0033552582883316796 0.01622850510705331
0.07503126302626001 0.0036110918652743256 0.017800790436741366 0.9956923670609317 -0.042734522521100694 0.0007657225396888825 0.008218221220671227 -0.0006688509935389043 -0.005271793141891702
 0.9956923670609317 -0.042734522521100694 0.003611420470551629 0.017800798889964144 -0.000668260307084809 -0.005271802940522785 0.0007638587577413977 0.008218445845870148
 0.0007657225396888825 0.008218221220671227 -0.000668260307084809 -0.005271802940522785 0.003611400334714112 0.01779976750813603 0.995692338618941 -0.04273552319974841
 -0.0006688509935389043 -0.005271793141891702 0.0007638587577413977 0.008218445845870148 0.995692338618941 -0.04273552319974841 0.0036110561283918766 0.017799824395477684
0.08128386827845 0.0038800108827121626 0.01938670101708278 0.995337384774247 -0.04637621184788394 0.0008676113614555732 0.008907562584154136 -0.0007560721735959394 -0.00571723716130169
 0.995337384774247 -0.04637621184788394 0.0038803966426120507 0.019386712303684002 -0.0007553810861084438 -0.005717253868581292 0.0008654210854441277 0.008907831036981211
 0.0008676113614555732 0.008907562584154136 -0.0007553810861084438 -0.005717253868581292 0.003880373241858928 0.019385591391606425 0.9953373516976067 -0.046377295792672496
 -0.0007560721735959394 -0.00571723716130169 0.0008654210854441277 0.008907831036981211 0.9953373516976067 -0.046377295792672496 0.003879969413813642 0.019385659067681422
0.08753647353064001 0.004162281156212263 0.020986916071185125 0.99496479321045 -0.05003048188842448 0.0009763228772007151 0.009597274703598373 -0.000849110414972404 -0.006163222865276687
 0.99496479321045 -0.05003048188842448 0.004162728693682005 0.020986930525215847 -0.0008483113338543179 -0.006163247774327981 0.000973779232308084 0.00959759227973665
 0.0009763228772007151 0.009597274703598373 -0.0008483113338543179 -0.006163247774327981 0.004162701753045952 0.020985719366651442 0.9949647551478105 -0.050031649104047185
 -0.000849110414972404 -0.006163222865276687 0.000973779232308084 0.00959759227973665 0.9949647551478105 -0.050031649104047185 0.0041622335782434475 0.020985799110316665
0.09378907878283 0.004458137294465789 0.022601230968207577 0.9945743638261331 -0.05369723765419423 0.0010919200441325638 0.010287274650506703 -0.0009480299557495688 -0.00660966463634883
 0.9945743638261331 -0.05369723765419423 0.004458651246329295 0.022601248924669932 -0.0009471153450856054 -0.006609699116523465 0.0010889960446427908 0.010287646969383609
 0.0010919200441325638 0.010287274650506703 -0.0009471153450856054 -0.006609699116523465 0.004458620479973839 0.02259994676815593 0.9945743204251807 -0.053698488149170595
 -0.0009480299557495688 -0.00660966463634883 0.0010889960446427908 0.010287646969383609 0.9945743204251807 -0.053698488149170595 0.004458083245584031 0.02260003993623467
0.100041684035 0.004767813068385566 0.02422944461370057 0.9941658683275402 -0.05737637296174794 0.0012144647438548923 0.010977477199413487 -0.001052893885489155 -0.00705647541626138
 0.9941658683275402 -0.05737637296174794 0.0047683980866089805 0.024229466408286587 -0.0010518562659972404 -0.007056520913074765 0.0012111332960212013 0.010977910208646446
 0.0012144647438548923 0.010977477199413487 -0.0010518562659972404 -0.007056520913074765 0.004768363196161089 0.02422807246704715 0.9941658192344336 -0.0573777067484096
 -0.001052893885489155 -0.00705647541626138 0.0012111332960212013 0.010977910208646446 0.9941658192344336 -0.0573777067484096 0.004767752202850784 0.02422818049518919
0.1059090909091 0.005071187215286086 0.02576981391488535 0.9937659046549644 -0.06084000707259926 0.0013358327834921287 0.011625265487709197 -0.0011567590697887785 -0.007476016674949286
 0.9937659046549644 -0.06084000707259926 0.005071843166716785 0.02576983961690213 -0.001155599267631008 -0.007476073892198485 0.001332094253101945 0.011625761153983095
 0.0013358327834921287 0.011625265487709197 -0.001155599267631008 -0.007476073892198485 0.005071804123320589 0.025768358799498316 0.9937658498976057 -0.06084141903296144
 -0.0011567590697887785 -0.007476016674949286 0.001332094253101945 0.011625761153983095 0.9937658498976057 -0.06084141903296144 0.005071119654630023 0.025768482148851423
0.1062942892872 0.0050915413714535005 0.025871358030098594 0.9937390787856474 -0.06106777180593699 0.0013440177281054775 0.011667794908726334 -0.0011637641000114998 -0.007503566633736556
 0.9937390787856474 -0.06106777180593699 0.005092202123980772 0.025871383998972628 -0.0011625960490023446 -0.007503624668820312 0.0013402516326983616 0.01166829488860562
 0.0013440177281054775 0.011667794908726334 -0.0011625960490023446 -0.007503624668820312 0.00509216279804433 0.025869897451975096 0.9937390236454349 -0.06106918889912324
 -0.0011637641000114998 -0.007503566633736556 0.0013402516326983616 0.01166829488860562 0.9937390236454349 -0.06106918889912324 0.005091473361673531 0.025870021855437856
0.11254689453939999 0.005429554172775151 0.027526773268733047 0.9932937677458291 -0.06477130940437371 0.0014806385630967275 0.01235813819538453 -0.0012807012559729962 -0.007950848141154468
 0.9932937677458291 -0.06477130940437371 0.005430295345127401 0.02752680374814499 -0.0012793954074926828 -0.007950920312166277 0.0014764105187441369 0.012358711763229075
 0.0014806385630967275 0.01235813819538453 -0.0012793954074926828 -0.007950920312166277 0.00543025125697907 0.02752522373875361 0.9932937062019217 -0.06477280982270252
 -0.0012807012559729962 -0.007950848141154468 0.0014764105187441369 0.012358711763229075 0.9932937062019217 -0.06477280982270252 0.005429478710191676 0.027525366113170607
0.11879949979160001 0.005782082461636866 0.029195492557370296 0.9928297083316111 -0.0684868530093644 0.0016243855759833512 0.01304841538908361 -0.0014037647230106406 -0.008398228174154565
 0.9928297083316111 -0.0684868530093644 0.0057829087578618885 0.029195527883389125 -0.0014023137679997834 -0.008398316154706511 0.0016196681822704736 0.01304906950367173
 0.0016243855759833512 0.01304841538908361 -0.0014023137679997834 -0.008398316154706511 0.005782859565123749 0.029193853521229 0.9928296400261553 -0.06848843677330019
 -0.0014037647230106406 -0.008398228174154565 0.0016196681822704736 0.01304906950367173 0.9928296400261553 -0.06848843677330019 0.00578199925876062 0.029194015543294927
0.1250521050438 0.006149356187434827 0.030877317633283614 0.9923466743460873 -0.0722142625375905 0.0017753158003395565 0.013738532778402845 -0.0015330125356400914 -0.008845613322169672
 0.9923466743460873 -0.0722142625375905 0.006150272331719944 0.030877358141321077 -0.0015314092221644523 -0.008845718861726415 0.0017700815614429865 0.013739274744301021
 0.0017753158003395565 0.013738532778402845 -0.0015314092221644523 -0.008845718861726415 0.006150217674146985 0.030875588498287986 0.9923465989191517 -0.07221592967328297
 -0.0015330125356400914 -0.008845613322169672 0.0017700815614429865 0.013739274744301021 0.9923465989191517 -0.07221592967328297 0.006149264979313867 0.030875771926448504
0.131304710296 0.00653160419487658 0.03257204919343776 0.9918444403698838 -0.07595339108566419 0.0019334849225549683 0.014428394652826507 -0.0016685013439073223 -0.009292908505786894
 0.9918444403698838 -0.07595339108566419 0.006532614932129098 0.032572095217979706 -0.0016667384774055871 -0.009293033429567913 0.001927706250562806 0.014429232124754193
 0.0019334849225549683 0.014428394652826507 -0.0016667384774055871 -0.009293033429567913 0.00653255443091193 0.03257022933372958 0.9918443574596911 -0.07595514161943284
 -0.0016685013439073223 -0.009292908505786894 0.001927706250562806 0.014429232124754193 0.9918443574596911 -0.07595514161943284 0.00653150474026478 0.032570436008872626
0.1375573155481 0.006836420870939858 0.034058976600254184 0.9914154435249014 -0.07948349689063267 0.002077556452802905 0.015095570556641751 -0.001788909435088314 -0.009717691204351404
 0.9914154435249014 -0.07948349689063267 0.006837530934125477 0.03405902474353208 -0.001786976393038979 -0.009717835472266444 0.0020712242799345313 0.015096501580891715
 0.002077556452802905 0.015095570556641751 -0.001786976393038979 -0.009717835472266444 0.00683746365010446 0.03405706533235311 0.9914153527940008 -0.07948533080959404
 -0.001788909435088314 -0.009717691204351404 0.0020712242799345313 0.015096501580891715 0.9914153527940008 -0.07948533080959404 0.006836313442595461 0.03405729339740923
0.1438099208003 0.007151800280982688 0.03553892578561203 0.9909716704120742 -0.08300550570033914 0.0022274461464027806 0.015760521891575834 -0.0019141423645097984 -0.010140419426034223
 0.9909716704120742 -0.08300550570033914 0.007153014441705855 0.03553897602430159 -0.0019120314172033134 -0.010140584814296942 0.0022205361025525424 0.01576155333951731
 0.0022274461464027806 0.015760521891575834 -0.0019120314172033134 -0.010140584814296942 0.007152939869281055 0.03553692245560663 0.9909715715017196 -0.08300742302542012
 -0.0019141423645097984 -0.010140419426034223 0.0022205361025525424 0.01576155333951731 0.9909715715017196 -0.08300742302542012 0.007151684762723242 0.035537173445194775
0.1500625260525 0.007477642446828194 0.0370117980877686 0.9905132242563907 -0.08651935542673336 0.0023831086803164014 0.016423196928186504 -0.0020441559123563443 -0.010561043165067226
 0.9905132242563907 -0.08651935542673336 0.007478965495901964 0.037011850393410164 -0.002041859343706932 -0.010561231520803268 0.0023755965231612762 0.01642433591720284
 0.0023831086803164014 0.016423196928186504 -0.002041859343706932 -0.010561231520803268 0.0074788831054132116 0.03700970201325135 0.9905131168060959 -0.0865213561810519
 -0.0020441559123563443 -0.010561043165067226 0.0023755965231612762 0.01642433591720284 0.9905131168060959 -0.0865213561810519 0.007477518749970285 0.03700997752049337
0.15631513130469998 0.007813846812691877 0.03847749794611232 0.990040208659345 -0.09002498371575665 0.002544498275564639 0.01708354471007488 -0.0021789053862126062 -0.010979513385498694
