! Created with skrf 1.8.0 (http://scikit-rf.org).
# GHz S RI R 50.0 
!freq ReS11 ImS11 ReS12 ImS12 ReS13 ImS13
! ReS14 ImS14
! ReS21 ImS21 ReS22 ImS22 ReS23 ImS23
! ReS24 ImS24
! ReS31 ImS31 ReS32 ImS32 ReS33 ImS33
! ReS34 ImS34
! ReS41 ImS41 ReS42 ImS42 ReS43 ImS43
! ReS44 ImS44
!
0.0 0.001295465258422 0.0 0.9987045347405 0.0 4.987078364952e-05 0.0 -4.987078258464e-05 6.107409426325294e-21
 0.9987045347405 0.0 0.001295465258426 0.0 -4.987078258437e-05 6.1074094262922294e-21 4.987078365116e-05 0.0
 4.987078364952e-05 0.0 -4.987078258437e-05 6.1074094262922294e-21 0.001295465258399 0.0 0.9987045347405 0.0
 -4.987078258464e-05 6.107409426325294e-21 4.987078365116e-05 0.0 0.9987045347405 0.0 0.001295465258413 0.0
0.005 0.0013932651880407753 0.0010542529308341913 0.9985808754650346 -0.0027147835063342346 7.043853625448764e-05 0.0005853932510803112 -6.82243358352768e-05 -0.0003612927391533939
 0.9985808754650346 -0.0027147835063342346 0.0013932782720471554 0.0010542452395695403 -6.822508844973272e-05 -0.0003612932482871595 7.036102344113194e-05 0.0005854227753234387
 7.043853625448764e-05 0.0005853932510803112 -6.822508844973272e-05 -0.0003612932482871595 0.0013932654784385755 0.0010543199728953725 0.9985808758020481 -0.002714716445209951
 -6.82243358352768e-05 -0.0003612927391533939 7.036102344113194e-05 0.0005854227753234387 0.9985808758020481 -0.002714716445209951 0.0013932786547862532 0.0010543123200860722
0.006252605252188 0.0014187359189333439 0.001322016318474368 0.9985484909082376 -0.0033941738249226366 7.622166801201041e-05 0.0007320196560609162 -7.332616873498758e-05 -0.000452102166059172
 0.9985484909082376 -0.0033941738249226366 0.001418756371900282 0.0013220065298107362 -7.332734043447289e-05 -0.0004521027926231935 7.61005603687099e-05 0.0007320579580561704
 7.622166801201041e-05 0.0007320196560609162 -7.332734043447289e-05 -0.0004521027926231935 0.0014187363028763161 0.0013221001084366241 0.9985484913646466 -0.0033940900053555175
 -7.332616873498758e-05 -0.000452102166059172 7.61005603687099e-05 0.0007320579580561704 0.9985484913646466 -0.0033940900053555175 0.001418756899396636 0.0013220903794096872
0.01250521050438 0.0015517761114062594 0.0026722126326054097 0.998378329683237 -0.006789348700186487 0.00010889475039589149 0.0014643517721863156 -0.00010184367225954918 -0.000906548689682545
 0.998378329683237 -0.006789348700186487 0.001551857787165644 0.0026721913028018565 -0.00010184829693181989 -0.0009065498354344908 0.00010841178293101763 0.0014644432905654742
 0.00010889475039589149 0.0014643517721863156 -0.00010184829693181989 -0.0009065498354344908 0.0015517770711556034 0.0026723799053479367 0.9983783309255451 -0.006789181309480688
 -0.00010184367225954918 -0.000906548689682545 0.00010841178293101763 0.0014644432905654742 0.9983783309255451 -0.006789181309480688 0.001551859305838874 0.002672358812389118
0.01875781575657 0.001694839710989777 0.004042084007524365 0.9981938659227291 -0.01019383210701417 0.00014795846638822446 0.0021975508379849296 -0.00013550371990247214 -0.0013626599486891932
 0.9981938659227291 -0.01019383210701417 0.0016950232530507786 0.004042049282754945 -0.0001355140432899957 -0.0013626614865427384 0.0001468734848641385 0.0021977130499692063
 0.00014795846638822446 0.0021975508379849296 -0.0001355140432899957 -0.0013626614865427384 0.0016948414622418766 0.004042334599576618 0.9981938682950448 -0.01019358124650181
 -0.00013550371990247214 -0.0013626599486891932 0.0001468734848641385 0.0021977130499692063 0.9981938682950448 -0.01019358124650181 0.0016950262317125095 0.004042300412763524
0.02501042100875 0.0018481750265446368 0.0054297383411256615 0.9979949083048485 -0.01360931222946183 0.0001934826905066766 0.002931681521823443 -0.00017438456965097302 -0.0018202425163326658
 0.9979949083048485 -0.01360931222946183 0.0018485010019035969 0.005429688278884198 -0.00017440281433238783 -0.0018202442973832347 0.00019155540184343645 0.00293193435709372
 0.0001934826905066766 0.002931681521823443 -0.00017440281433238783 -0.0018202442973832347 0.001848177785778773 0.005430072119575875 0.9979949121441608 -0.013608977966026599
 -0.00017438456965097302 -0.0018202425163326658 0.00019155540184343645 0.00293193435709372 0.9979949121441608 -0.013608977966026599 0.00184850589307569 0.005430023027443408
0.03126302626094 0.002012019848603476 0.006834220519235364 0.9977812545030075 -0.017036533773152333 0.0002455381774761719 0.0036667373704815467 -0.00021856253715093668 -0.0022791704001792847
 0.9977812545030075 -0.017036533773152333 0.002012528767809759 0.006834153090807076 -0.0002185909066344222 -0.0022791722533689997 0.0002425279148903127 0.0036671032235390593
 0.0002455381774761719 0.0036667373704815467 -0.0002185909066344222 -0.0022791722533689997 0.0020120238386974903 0.006834637363852777 0.9977812601448585 -0.017036116156841943
 -0.00021856253715093668 -0.0022791704001792847 0.0002425279148903127 0.0036671032235390593 0.9977812601448585 -0.017036116156841943 0.0020125360142875643 0.006834571476162856
0.037515631513130004 0.0021866069827333624 0.008254921894521514 0.9975526968334535 -0.020475888436723683 0.0003041957947017509 0.004402684339936373 -0.00026811261842402264 -0.0027393414963987105
 0.9975526968334535 -0.020475888436723683 0.002187339312888908 0.00825483498616509 -0.0002681532992272928 -0.0027393432283697853 0.00029986140598392 0.004403188094893575
 0.0003041957947017509 0.004402684339936373 -0.0002681532992272928 -0.0027393432283697853 0.0021866124345498086 0.008255421683651107 0.9975527046141884 -0.02047538751464728
 -0.00026811261842402264 -0.0027393414963987105 0.00029986140598392 0.004403188094893575 0.9975527046141884 -0.02047538751464728 0.002187349349873415 0.0082553370328
0.043768236765320004 0.0023721663943881534 0.009691400561355238 0.9973090245182258 -0.023927594580729867 0.00036952618166679355 0.005139474014459181 -0.00032310871923975354 -0.003200664358280906
 0.9973090245182258 -0.023927594580729867 0.002373162569034893 0.009691291975118099 -0.00032316388213208706 -0.00320066575326833 0.0003636259703658419 0.005140143073766258
 0.00036952618166679355 0.005139474014459181 -0.00032316388213208706 -0.00320066575326833 0.002372173545163312 0.00969198317757612 0.9973090347731409 -0.0239270103911443
 -0.00032310871923975354 -0.003200664358280906 0.0003636259703658419 0.005140143073766258 0.9973090347731409 -0.0239270103911443 0.00237317582274772 0.009691877719649562
0.050020842017509996 0.002568926211931655 0.011143307092677949 0.9970500248073929 -0.027391771432453187 0.00044159955112977906 0.005877049071887944 -0.0003836237539455153 -0.003663052719920164
 0.9970500248073929 -0.027391771432453187 0.002570226639499564 0.011143174546960278 -0.00038369555468364833 -0.0036630535396819414 0.0004338912453390123 0.00587791338672077
 0.00044159955112977906 0.005877049071887944 -0.00038369555468364833 -0.0036630535396819414 0.0025689353056159445 0.011143972422576873 0.9970500378716958 -0.02739110400487823
 -0.0003836237539455153 -0.003663052719920164 0.0004338912453390123 0.00587791338672077 0.9970500378716958 -0.02739110400487823 0.0025702435281295287 0.011143844038068002
0.055454545454549996 0.0027491887394289396 0.012417358312701104 0.9968123322555009 -0.030412418857753844 0.0005097637329422273 0.006518612736440216 -0.00044075111154444433 -0.004065682445524443
 0.9968123322555009 -0.030412418857753844 0.0027507863745355097 0.012417203027804706 -0.0004408391105296564 -0.004065682554402615 0.0005002869260658582 0.006519673061183209
 0.0005097637329422273 0.006518612736440216 -0.0004408391105296564 -0.004065682554402615 0.0027491997243185833 0.012418095424260261 0.9968123480328995 -0.03041167912083271
 -0.00044075111154444433 -0.004065682445524443 0.0005002869260658582 0.006519673061183209 0.9968123480328995 -0.03041167912083271 0.002750806755083051 0.012417945336234382
0.056273447269699996 0.0027771132515154837 0.012610348098677287 0.9967754836265924 -0.030868475468929214 0.0005204855584459538 0.0066153459530967 -0.00044972968005656814 -0.004126422817181386
 0.9967754836265924 -0.030868475468929214 0.002778758322598854 0.012610189228534761 -0.00044982025988395683 -0.00412642280092305 0.0005107262965746461 0.006616438054545788
 0.0005204855584459538 0.0066153459530967 -0.00044982025988395683 -0.00412642280092305 0.002777124538059825 0.012611096020606973 0.9967754998346856 -0.030867724836090238
 -0.00044972968005656814 -0.004126422817181386 0.0005107262965746461 0.006616438054545788 0.9967754998346856 -0.030867724836090238 0.0027787792559031015 0.01261094251491641
0.06252605252188 0.0029969533105572562 0.014092266166762894 0.9964851859952316 -0.03435772041921678 0.0006062531997696284 0.007354296335730754 -0.0005214975057897366 -0.00459069190604262
 0.9964851859952316 -0.03435772041921678 0.0029989834050674147 0.014092078524088256 -0.0005216089917612272 -0.004590690770365875 0.0005941995270198125 0.007355651366390432
 0.0006062531997696284 0.007354296335730754 -0.0005216089917612272 -0.004590690770365875 0.0029969670470259744 0.014093096558282066 0.9964852056823482 -0.03435688660953687
 -0.0005214975057897366 -0.00459069190604262 0.0005941995270198125 0.007355651366390432 0.9964852056823482 -0.03435688660953687 0.0029990087857948945 0.014092915662031502
0.06877865777407 0.003228671333928936 0.015588827923871562 0.9961789163199388 -0.037859489145805544 0.0006989707304933104 0.008093828007504423 -0.000598997277501073 -0.005055777383185705
 0.9961789163199388 -0.037859489145805544 0.003231126827770479 0.015588608977376864 -0.0005991317826873095 -0.005055774822016279 0.0006843786031476674 0.008095483753297463
 0.0006989707304933104 0.008093828007504423 -0.0005991317826873095 -0.005055774822016279 0.003228687782880763 0.015589740659234387 0.9961789398203338 -0.03785857218563509
 -0.000598997277501073 -0.005055777383185705 0.0006843786031476674 0.008095483753297463 0.9961789398203338 -0.03785857218563509 0.003231157050330189 0.015589530028490922
0.07503126302626001 0.0034724915040515525 0.017099816454275732 0.9958564586141064 -0.04137374117200828 0.0007987055934356061 0.008833865418488074 -0.0006822980573287608 -0.005521596229548805
 0.9958564586141064 -0.04137374117200828 0.0034754127755231437 0.017099563589362165 -0.0006824576809348409 -0.005521591914096385 0.0007813303885589458 0.008835862340540396
 0.0007987055934356061 0.008833865418488074 -0.0006824576809348409 -0.005521591914096385 0.0034725109344317983 0.01710081140191218 0.9958564862621999 -0.04137274108803121
 -0.0006822980573287608 -0.005521596229548805 0.0007813303885589458 0.008835862340540396 0.9958564862621999 -0.04137274108803121 0.0034754482271958666 0.017100568618139987
0.08128386827845 0.003728637286055424 0.018625026255922952 0.9955175966749181 -0.044900417672847553 0.0009055243529613749 0.009574330046964888 -0.0007714678939922347 -0.0059880646424192606
 0.9955175966749181 -0.044900417672847553 0.003732064722381291 0.01862473677430886 -0.0007716547214073044 -0.005988058221120895 0.0008851208828919538 0.009576711313419337
 0.0009055243529613749 0.009574330046964888 -0.0007716547214073044 -0.005988058221120895 0.0037286599728784246 0.018626103282641897 0.9955176288051988 -0.04489933448762628
 -0.0007714678939922347 -0.0059880646424192606 0.0008851208828919538 0.009576711313419337 0.9955176288051988 -0.04489933448762628 0.003732105783292511 0.018625825852555875
0.08753647353064001 0.003997331441665129 0.020164259761142958 0.9951621142312449 -0.04843944490343996 0.0010194926343822686 0.01031514065606521 -0.0008665737880373048 -0.0064550977788341655
 0.9951621142312449 -0.04843944490343996 0.004001305445108051 0.020163930880448693 -0.0008667898908177327 -0.006455088877311776 0.000995815164242313 0.010317952173873808
 0.0010194926343822686 0.01031514065606521 -0.0008667898908177327 -0.006455088877311776 0.003997357665442823 0.020165418727369135 0.9951621511782073 -0.048438278640118224
 -0.0008665737880373048 -0.0064550977788341655 0.000995815164242313 0.010317952173873808 0.9951621511782073 -0.048438278640118224 0.004001352488143772 0.020165104082589678
0.09378907878283 0.004278796021467271 0.021717324828890792 0.9947897950725922 -0.051990736658408525 0.0011406750645947309 0.011056213477904074 -0.0009676816546654418 -0.006922609573813516
 0.9947897950725922 -0.051990736658408525 0.004283357015750427 0.02171695368189712 -0.0009679290905263385 -0.006922597794827544 0.0011134773328656659 0.011059503924384866
 0.0011406750645947309 0.011056213477904074 -0.0009679290905263385 -0.006922597794827544 0.004278826068552723 0.021718565591484065 0.9947898371708948 -0.051989487337624145
 -0.0009676816546654418 -0.006922609573813516 0.0011134773328656659 0.011059503924384866 0.9947898371708948 -0.051989487337624145 0.004283410406961498 0.021718211088019416
0.100041684035 0.004573252342603797 0.023284032926637603 0.9944004231654474 -0.055554196043666536 0.0012691352162518671 0.01179746234317749 -0.0010748562822201918 -0.007390512615414941
 0.9944004231654474 -0.055554196043666536 0.004578440779345418 0.023283616560501926 -0.0010751370949670022 -0.007390497538829129 0.0012381704579709275 0.011801283197442272
 0.0012691352162518671 0.01179746234317749 -0.0010751370949670022 -0.007390497538829129 0.004573286504527596 0.023285355336026877 0.9944004707495986 -0.055552863686272984
 -0.0010748562822201918 -0.007390512615414941 0.0012381704579709275 0.011801283197442272 0.9944004707495986 -0.055552863686272984 0.0045785008776239615 0.023284958253603407
0.1059090909091 0.004861580688980287 0.02476646450918592 0.9940193374499786 -0.058909096526408695 0.0013963561062206762 0.012493127123982465 -0.0011810026427457063 -0.007829866689782632
 0.9940193374499786 -0.058909096526408695 0.004867394734342615 0.024766002946916218 -0.001181316622484218 -0.0078298481162111 0.0013616315364348031 0.012497495052602142
 0.0013963561062206762 0.012493127123982465 -0.001181316622484218 -0.0078298481162111 0.004861618982543378 0.02476786339308452 0.9940193904868072 -0.05890768626758838
 -0.0011810026427457063 -0.007829866689782632 0.0013616315364348031 0.012497495052602142 0.9940193904868072 -0.05890768626758838 0.004867461447468591 0.02476742381200996
0.1062942892872 0.004880920954664004 0.02486419774997223 0.9939937827596537 -0.059129716813249765 0.0014049355514473784 0.01253879879079084 -0.0011881612905955236 -0.007858718042120494
 0.9939937827596537 -0.059129716813249765 0.004886777319364639 0.024863733125190225 -0.0011884775099995513 -0.007858699224867123 0.0013699565230859989 0.012543204364942474
 0.0014049355514473784 0.01253879879079084 -0.0011884775099995513 -0.007858699224867123 0.004880959528613918 0.024865601649742056 0.9939938361646954 -0.05912830144060137
 -0.0011881612905955236 -0.007858718042120494 0.0013699565230859989 0.012543204364942474 0.9939938361646954 -0.05912830144060137 0.004886844477430858 0.02486515919088643
0.11254689453939999 0.00520202159755576 0.026457634163067078 0.9935696584896694 -0.06271718438775399 0.0015481373673848792 0.01328013214419949 -0.0013076590864668372 -0.008327135476091202
 0.9935696584896694 -0.06271718438775399 0.005208586416245832 0.026457118152268443 -0.001308012728182982 -0.00832711245213663 0.001508896373816772 0.013285179614235176
 0.0015481373673848792 0.01328013214419949 -0.001308012728182982 -0.00832711245213663 0.005202064885767666 0.026459119393833892 0.9935697180507296 -0.06271568601757946
 -0.0013076590864668372 -0.008327135476091202 0.001508896373816772 0.013285179614235176 0.9935697180507296 -0.06271568601757946 0.005208660980094048 0.026458628682856696
0.11879949979160001 0.0055367731527953615 0.028064157382151685 0.993127835470717 -0.06631647663249263 0.0016988007421522649 0.014021369575778193 -0.0014334108176639977 -0.008795672970854504
 0.993127835470717 -0.06631647663249263 0.005544086998303899 0.028063586768713945 -0.001433803883062429 -0.008795645251178376 0.001655049665491683 0.014027119012214595
 0.0016988007421522649 0.014021369575778193 -0.001433803883062429 -0.008795645251178376 0.005536821462123725 0.028065723777906774 0.9931279015229185 -0.06631489528253148
 -0.0014334108176639977 -0.008795672970854504 0.001655049665491683 0.014027119012214595 0.9931279015229185 -0.06631489528253148 0.005544169307336579 0.028065181859591927
0.1250521050438 0.005885393588335163 0.02968358232146935 0.9926680993906869 -0.06992746447609749 0.0018569844806517772 0.014762416164228409 -0.001565476326822079 -0.009264236968520759
 0.9926680993906869 -0.06992746447609749 0.005893497086940824 0.029682953797888722 -0.0015659108028887568 -0.009264204041090886 0.0018084748102459615 0.014768930562424665
 0.0018569844806517772 0.014762416164228409 -0.0015659108028887568 -0.009264204041090886 0.005885447231033906 0.02968522970931433 0.992668172269949 -0.06992580016408914
 -0.001565476326822079 -0.009264236968520759 0.0018084748102459615 0.014768930562424665 0.992668172269949 -0.06992580016408914 0.005893587474634101 0.029684633547457026
0.131304710296 0.006248099901257895 0.031315723068781984 0.9921902366019504 -0.07355001240233817 0.002022746061113778 0.015503174938974112 -0.001703914103648926 -0.009732732272758294
 0.9921902366019504 -0.07355001240233817 0.006257033738795906 0.03131503323492733 -0.00170439196273711 -0.009732693602516627 0.0019692289249866224 0.01551052024910743
 0.002022746061113778 0.015503174938974112 -0.00170439196273711 -0.009732693602516627 0.006248159193607384 0.031317451271468885 0.9921903166440804 -0.0735482651433741
 -0.001703914103648926 -0.009732732272758294 0.0019692289249866224 0.01551052024910743 0.9921903166440804 -0.0735482651433741 0.0062571325323131765 0.031316797747220584
0.1375573155481 0.006536309059606125 0.03274554105668097 0.9917828576747267 -0.07696906520027888 0.002173855042489102 0.016220994255669315 -0.0018265587176122403 -0.010178477362613566
 0.9917828576747267 -0.07696906520027888 0.006546116213951092 0.03274480311150921 -0.00182708265423054 -0.01017843296307311 0.002115204725945344 0.01622915286998183
 0.002173855042489102 0.016220994255669315 -0.00182708265423054 -0.01017843296307311 0.006536373500442924 0.03274735034536861 0.99178294520226 -0.07696723503884798
 -0.0018265587176122403 -0.010178477362613566 0.002115204725945344 0.01622915286998183 0.99178294520226 -0.07696723503884798 0.006546224586165535 0.032746652096439205
0.1438099208003 0.006834441238694424 0.03416869153025375 0.9913615262191052 -0.08038036245304929 0.0023310897681639007 0.0169365346093771 -0.001954137305883771 -0.01062216424519019
 0.9913615262191052 -0.08038036245304929 0.006845162812082045 0.034167903218185275 -0.001954709401782419 -0.01062211360103687 0.0022670791906014938 0.01694556615592622
 0.0023310897681639007 0.0169365346093771 -0.001954709401782419 -0.01062211360103687 0.006834511003531604 0.034170581773590517 0.9913616215650942 -0.08037844941244277
 -0.001954137305883771 -0.01062216424519019 0.0022670791906014938 0.01694556615592622 0.9913616215650942 -0.08037844941244277 0.0068452812352690654 0.034169836742925945
0.1500625260525 0.007142402781878173 0.03558508218497964 0.9909263390523437 -0.08378384703243924 0.0024944043228756147 0.017649743017850963 -0.002086605686246625 -0.011063742628248184
 0.9909263390523437 -0.08378384703243924 0.007154079945153655 0.035584241123253896 -0.0020872280180352135 -0.011063685203765732 0.002424807494277795 0.017659709287630693
 0.0024944043228756147 0.017649743017850963 -0.0020872280180352135 -0.011063685203765732 0.00714247804140024 0.035587053250269375 0.9909264425501431 -0.0837818511346737
 -0.002086605686246625 -0.011063742628248184 0.002424807494277795 0.017659709287630693 0.9909264425501431 -0.0837818511346737 0.007154208896151289 0.03558625925898297
0.15631513130469998 0.007460099498126349 0.036994623658409796 0.9904773933401206 -0.0871794614852769 0.0026637523366801106 0.01836056724780328 -0.002223919209950344 -0.0115031631946415
