! Created with skrf 1.8.0 (http://scikit-rf.org).
# GHz S RI R 50.0 
!freq ReS11 ImS11 ReS12 ImS12 ReS13 ImS13
! ReS14 ImS14
! ReS21 ImS21 ReS22 ImS22 ReS23 ImS23
! ReS24 ImS24
! ReS31 ImS31 ReS32 ImS32 ReS33 ImS33
! ReS34 ImS34
! ReS41 ImS41 ReS42 ImS42 ReS43 ImS43
! ReS44 ImS44
!
0.0 0.00173339060754 0.0 0.9982666093754 0.0 6.714270706488e-05 0.0 -6.714270688716e-05 8.222610107544944e-21
 0.9982666093754 0.0 0.001733390607535 0.0 -6.714270688705e-05 8.222610107531472e-21 6.714270706456e-05 0.0
 6.714270706488e-05 0.0 -6.714270688705e-05 8.222610107531472e-21 0.001733390616062 0.0 0.9982666093839 0.0
 -6.714270688716e-05 8.222610107544944e-21 6.714270706456e-05 0.0 0.9982666093839 0.0 0.001733390616064 0.0
0.005 0.0018655866994789845 0.0014181906548901774 0.9980992617723693 -0.0036302560317134935 9.434765584947938e-05 0.0007358759842498341 -9.157862012973696e-05 -0.0004624701919440713
 0.9980992617723693 -0.0036302560317134935 0.0018656026165567048 0.0014181813926735024 -9.158177198168633e-05 -0.0004624726329149643 9.424701817017845e-05 0.0007359144808823995
 9.434765584947938e-05 0.0007358759842498341 -9.158177198168633e-05 -0.0004624726329149643 0.0018655845997694541 0.0014181246420123096 0.9980992614021209 -0.0036303231018420044
 -9.157862012973696e-05 -0.0004624701919440713 9.424701817017845e-05 0.0007359144808823995 0.9980992614021209 -0.0036303231018420044 0.0018656039840414937 0.0014181132727252728
0.006252605252188 0.0019004390510601037 0.001778288365283664 0.998054834756361 -0.004538678140798223 0.0001022236944348802 0.000920191209485894 -9.855875481920126e-05 -0.0005786737134021132
 0.998054834756361 -0.004538678140798223 0.0019004639314673753 0.0017782765454834907 -9.85636591613223e-05 -0.0005786767227350759 0.00010206646050718907 0.0009202412001536756
 0.0001022236944348802 0.000920191209485894 -9.85636591613223e-05 -0.0005786767227350759 0.0019004358291260701 0.001778205880882764 0.9980548342381059 -0.004538761955674203
 -9.855875481920126e-05 -0.0005786737134021132 0.00010206646050718907 0.0009202412001536756 0.9980548342381059 -0.004538761955674203 0.0019004661302937046 0.0017781914167151552
0.01250521050438 0.0020849646890340793 0.0035935276849967525 0.9978179287053588 -0.009077941945435257 0.00014793818658445884 0.0018406651341119336 -0.00013859742433394818 -0.0011600280607183269
 0.9978179287053588 -0.009077941945435257 0.0020850640268274046 0.0035935016023857626 -0.00013861674933284514 -0.0011600336159933158 0.00014731125230766888 0.0018407854661337158
 0.00014793818658445884 0.0018406651341119336 -0.00013861674933284514 -0.0011600336159933158 0.002084952406649894 0.003593363070385384 0.9978179272217181 -0.009078109351753258
 -0.00013859742433394818 -0.0011600280607183269 0.00014731125230766888 0.0018407854661337158 0.9978179272217181 -0.009078109351753258 0.002085073402217815 0.003593331559020656
0.01875781575657 0.002287408684341499 0.005434265130577673 0.9975555697116897 -0.013628793494192437 0.00020439750232494514 0.0027620029422286397 -0.00018738970754430889 -0.0017432037230666556
 0.9975555697116897 -0.013628793494192437 0.002287631883705775 0.005434222179064112 -0.00018743279864958336 -0.0017432112618178304 0.00020298934892992862 0.0027622183485510135
 0.00020439750232494514 0.0027620029422286397 -0.00018743279864958336 -0.0017432112618178304 0.002287381500939663 0.005434018692334235 0.9975555667964832 -0.013629044429289734
 -0.00018738970754430889 -0.0017432037230666556 0.00020298934892992862 0.0027622183485510135 0.9975555667964832 -0.013629044429289734 0.002287653390265102 0.005433967283292258
0.02501042100875 0.0025081967960182716 0.007297878024977788 0.9972674225453447 -0.01819338976991372 0.000271714520821872 0.003684210077359384 -0.0002450615502438885 -0.002327909099073402
 0.9972674225453447 -0.01819338976991372 0.0025085931512385347 0.007297815449328108 -0.0002451376389129276 -0.0023279179504483746 0.00026921363808024194 0.0036845495329142237
 0.000271714520821872 0.003684210077359384 -0.0002451376389129276 -0.0023279179504483746 0.002508148886885318 0.007297550135554678 0.9972674177370161 -0.01819372421639271
 -0.0002450615502438885 -0.002327909099073402 0.00026921363808024194 0.0036845495329142237 0.9972674177370161 -0.01819372421639271 0.0025086317528264365 0.007297475729300437
0.03126302626094 0.002747737112209457 0.009182992141066462 0.9969531363531359 -0.022772624347889542 0.00035000217873631175 0.004607206856257985 -0.00031173479843652375 -0.002913929670206229
 0.9969531363531359 -0.022772624347889542 0.0027483558358039574 0.009182907039632695 -0.0003118530210305813 -0.002913939053909749 0.00034609678097133686 0.0046077036017263505
 0.00035000217873631175 0.004607206856257985 -0.0003118530210305813 -0.002913939053909749 0.0027476626600984326 0.00918258324049591 0.9969531291867743 -0.022773042332410894
 -0.00031173479843652375 -0.002913929670206229 0.00034609678097133686 0.0046077036017263505 0.9969531291867743 -0.022773042332410894 0.002748416501892272 0.009182482490718579
0.037515631513130004 0.003006428402125672 0.011088692817149045 0.9966123533607129 -0.027366916221767117 0.0004393722962193568 0.00553087945176277 -0.00038752805199201675 -0.0035010770395654685
 0.9966123533607129 -0.027366916221767117 0.003007318644139754 0.01108858214325913 -0.0003876974593371156 -0.003501086065587838 0.0004337502001587734 0.005531571034466843
 0.0004393722962193568 0.00553087945176277 -0.0003876974593371156 -0.003501086065587838 0.0030063215972517135 0.011088203438848126 0.9966123433679764 -0.02736741779002435
 -0.00038752805199201675 -0.0035010770395654685 0.0004337502001587734 0.005531571034466843 0.9966123433679764 -0.02736741779002435 0.003007406351758991 0.011088072752815764
0.043768236765320004 0.0032846633236746185 0.013014284943712495 0.9962447124344274 -0.031976449746841155 0.0005399350121694675 0.006455095401143477 -0.000472556950947003 -0.0040891734502063164
 0.9962447124344274 -0.031976449746841155 0.0032858741874842346 0.013014145506406024 -0.0004727865138741167 -0.004089181118790623 0.000532283584222401 0.006456023721246354
 0.0005399350121694675 0.006455095401143477 -0.0004727865138741167 -0.004089181118790623 0.003284518363822667 0.013013715701071083 0.9962446991420311 -0.03197703497788886
 -0.000472556950947003 -0.0040891734502063164 0.000532283584222401 0.006456023721246354 0.9962446991420311 -0.03197703497788886 0.0032859939225548945 0.013013551238957845
0.050020842017509996 0.003582829900395417 0.014959193734287468 0.9958498509168872 -0.036601273798474616 0.000651798431107571 0.007379710022341106 -0.000566934263175968 -0.004678045400795701
 0.9958498509168872 -0.036601273798474616 0.0035844104569098772 0.01495902219860101 -0.0005672328759916577 -0.004678050602473835 0.0006418045716266937 0.007380921381180491
 0.000651798431107571 0.007379710022341106 -0.0005672328759916577 -0.004678050602473835 0.0035826409909092164 0.014958545330150352 0.9958498338453197 -0.03660194279622129
 -0.000566934263175968 -0.004678045400795701 0.0006418045716266937 0.007380921381180491 0.9958498338453197 -0.03660194279622129 0.003584567214810059 0.014958343003832157
0.055454545454549996 0.0038584310550612427 0.016664673875588055 0.9954843158547656 -0.04063277594648749 0.0007582709257109607 0.008183432707225146 -0.0006566284825689949 -0.0051902889356490725
 0.9954843158547656 -0.04063277594648749 0.003860372721991394 0.01666447162505609 -0.0006569942673495101 -0.005190291007347423 0.0007459867898335573 0.008184931092787808
 0.0007582709257109607 0.008183432707225146 -0.0006569942673495101 -0.005190291007347423 0.003858199253655809 0.016663957326662378 0.9954842951052563 -0.04063351783576389
 -0.0006566284825689949 -0.0051902889356490725 0.0007459867898335573 0.008184931092787808 0.9954842951052563 -0.04063351783576389 0.0038605657198899183 0.01666371858101345
0.056273447269699996 0.0039013122581232785 0.01692291604729338 0.9954274057282576 -0.041241350383146656 0.0007750683664435461 0.008304569578073231 -0.0006707698802802245 -0.005267520519638583
 0.9954274057282576 -0.041241350383146656 0.00390331155900348 0.016922708934050935 -0.0006711463630008145 -0.005267522035323707 0.000762418516369121 0.00830611472728926
 0.0007750683664435461 0.008304569578073231 -0.0006711463630008145 -0.005267522035323707 0.0039010736142410327 0.016922189283830658 0.9954273843924257 -0.04124210326743551
 -0.0006707698802802245 -0.005267520519638583 0.000762418516369121 0.00830611472728926 0.9954273843924257 -0.04124210326743551 0.0039035103469763524 0.016921944755158205
0.06252605252188 0.004240491003498927 0.018904993629087038 0.9949770141144918 -0.04589658133432253 0.0009098481315070591 0.009229513011981287 -0.0007841707671137375 -0.0058574258735361205
 0.9949770141144918 -0.04589658133432253 0.004242958093592216 0.01890474731428983 -0.0007846338668788944 -0.005857422374612375 0.0008942282938380049 0.009231447202913159
 0.0009098481315070591 0.009229513011981287 -0.0007846338668788944 -0.005857422374612375 0.004240196849133824 0.018904189396911623 0.9949769880207228 -0.04589741825269591
 -0.0007841707671137375 -0.0058574258735361205 0.0008942282938380049 0.009231447202913159 0.9949769880207228 -0.04589741825269591 0.0042432039297692695 0.018903898075562708
0.06877865777407 0.004600743399647771 0.020904997150079693 0.9944983141980689 -0.050566824222293284 0.0010562383556323187 0.010154373008983225 -0.000907240886186627 -0.006447586959875331
 0.9944983141980689 -0.050566824222293284 0.004603727329609067 0.020904707863888282 -0.000907799278185739 -0.006447577008330772 0.0010373341275806923 0.010156756041913052
 0.0010562383556323187 0.010154373008983225 -0.000907799278185739 -0.006447577008330772 0.004600387970293739 0.020904116435423267 0.9944982828450567 -0.05056774534372009
 -0.000907240886186627 -0.006447586959875331 0.0010373341275806923 0.010156756041913052 0.9944982828450567 -0.05056774534372009 0.004604025245379698 0.020903773476296024
0.07503126302626001 0.004982443426430816 0.02292251610941366 0.9939909454185897 -0.05525190240379752 0.0012143368170555626 0.011078976669291613 -0.0010400811048064174 -0.0070378270929151035
 0.9939909454185897 -0.05525190240379752 0.004985993264917675 0.022922179934683953 -0.0010407433927762356 -0.007037809141463445 0.0011918334302016026 0.011081872942264403
 0.0012143368170555626 0.011078976669291613 -0.0010407433927762356 -0.007037809141463445 0.004982020969354866 0.02292155999735619 0.9939909082952721 -0.05525290791629375
 -0.0010400811048064174 -0.0070378270929151035 0.0011918334302016026 0.011081872942264403 0.9939909082952721 -0.05525290791629375 0.004986348304774272 0.022921160297478975
0.08128386827845 0.005385961765833835 0.024957152115408384 0.9934545489028235 -0.0599516117045938 0.0013842382849649567 0.012003145978963905 -0.0011827890924546326 -0.00762796700153215
 0.9934545489028235 -0.0599516117045938 0.005390126611343546 0.024956764985799167 -0.0011835638088428901 -0.007627939393781024 0.0013578206514960297 0.012006624536159879
 0.0013842382849649567 0.012003145978963905 -0.0011835638088428901 -0.007627939393781024 0.005385466541615961 0.024956121786139228 0.9934545054883946 -0.05995270181978079
 -0.0011827890924546326 -0.00762796700153215 0.0013578206514960297 0.012006624536159879 0.9934545054883946 -0.05995270181978079 0.005390543834342845 0.024955659981144202
0.08753647353064001 0.005811665737310214 0.027008514241444327 0.992888767790528 -0.0646657250359992 0.0015660343684702465 0.012926698141638045 -0.001335459210182858 -0.008217824574380412
 0.992888767790528 -0.0646657250359992 0.005816494730741909 0.027008071938964713 -0.0013363548161990683 -0.008217785544982951 0.001535387132885894 0.012930832720939544
 0.0015660343684702465 0.012926698141638045 -0.0013363548161990683 -0.008217785544982951 0.005811092021212408 0.027007410974161428 0.9928887175527452 -0.0646668999858794
 -0.001335459210182858 -0.008217824574380412 0.001535387132885894 0.012930832720939544 0.9928887175527452 -0.0646668999858794 0.005816979210805052 0.02700688143430208
0.09378907878283 0.006259919199717098 0.029076215723260697 0.9922932475297008 -0.06939399567970207 0.0017598133698987534 0.013849445834724479 -0.0014981823955100791 -0.008807214688958384
 0.9922932475297008 -0.06939399567970207 0.006265461536205799 0.029075713875540133 -0.0014992072809195316 -0.00880716236380278 0.001724620964669951 0.013854314914644021
 0.0017598133698987534 0.013849445834724479 -0.0014992072809195316 -0.00880716236380278 0.006259261282981129 0.029075040896392044 0.9922931899245989 -0.0693952557172367
 -0.0014981823955100791 -0.008807214688958384 0.001724620964669951 0.013854314914644021 0.9922931899245989 -0.0693952557172367 0.006266018362916602 0.029074437722093602
0.100041684035 0.006731082427335213 0.031159871542808942 0.9916676361514931 -0.07413615969626246 0.001965660140960816 0.01477119741242389 -0.0016710460436542003 -0.009395949102894593
 0.9916676361514931 -0.07413615969626246 0.006737387368753973 0.031159305619661185 -0.00167220852644147 -0.009395881499301827 0.0019256068462205052 0.014776884257997152
 0.001965660140960816 0.01477119741242389 -0.00167220852644147 -0.009395881499301827 0.006730334618669617 0.031158626634787502 0.9916675706221367 -0.07413750509519397
 -0.0016710460436542003 -0.009395949102894593 0.0019256068462205052 0.014776884257997152 0.9916675706221367 -0.07413750509519397 0.006738021648144844 0.031157943651651
0.1059090909091 0.007194372984631761 0.03312932880482585 0.9910528876522968 -0.07859856488170949 0.0021698734400435495 0.015635083183590977 -0.001842557518869814 -0.009947647076140525
 0.9910528876522968 -0.07859856488170949 0.007201438422903082 0.03312869848964552 -0.0018438566230169848 -0.009947563235605006 0.0021249714917025487 0.015641617447527022
 0.0021698734400435495 0.015635083183590977 -0.0018438566230169848 -0.009947563235605006 0.007193535662505008 0.03312801956623957 0.9910528141679191 -0.0785999906517828
 -0.001842557518869814 -0.009947647076140525 0.0021249714917025487 0.015641617447527022 0.9910528141679191 -0.0785999906517828 0.007202150042438308 0.03312725582582194
0.1062942892872 0.007225511968898341 0.033259096618862824 0.9910115845309884 -0.0788919377374297 0.0021836559417030828 0.01569175707243445 -0.001854133885998016 -0.009983836390382842
 0.9910115845309884 -0.0788919377374297 0.0072326288557629055 0.03325846192850789 -0.0018554422119598135 -0.00998375141732364 0.0021384259479907634 0.015698349780295127
 0.0021836559417030828 0.01569175707243445 -0.0018554422119598135 -0.00998375141732364 0.007224668595929072 0.03325778320719809 0.99101151050659 -0.07889336879377652
 -0.001854133885998016 -0.009983836390382842 0.0021384259479907634 0.015698349780295127 0.99101151050659 -0.07889336879377652 0.007233345710967703 0.03325701396055358
0.11254689453939999 0.007743560492050491 0.035373504432352106 0.9903247466374605 -0.08366103643430847 0.0024138783012363813 0.016610925002322353 -0.0020475258667763696 -0.010570681908197701
 0.9903247466374605 -0.08366103643430847 0.007751538756121366 0.035372796117029766 -0.0020489882089213592 -0.010570577366544216 0.0023631557753182363 0.01661851654463851
 0.0024138783012363813 0.016610925002322353 -0.0020489882089213592 -0.010570577366544216 0.007742615902799164 0.03537212419825344 0.9903246635323215 -0.08366255346232547
 -0.0020475258667763696 -0.010570681908197701 0.0023631557753182363 0.01661851654463851 0.9903246635323215 -0.08366255346232547 0.007752343327824049 0.0353712619471662
0.11879949979160001 0.00828557661702978 0.03750270596659763 0.9896067797768455 -0.08844314948202596 0.0026564008798996884 0.01752849750645921 -0.0022512980184724966 -0.01115628779040144
 0.9896067797768455 -0.08844314948202596 0.008294465793602032 0.0375019189976696 -0.002252922476500938 -0.011156161373167332 0.0025998700333426626 0.017537185773835604
 0.0026564008798996884 0.01752849750645921 -0.002252922476500938 -0.011156161373167332 0.008284525181788812 0.03750126069258173 0.9896066869896805 -0.08844475281699787
 -0.0022512980184724966 -0.01115628779040144 0.0025998700333426626 0.017537185773835604 0.9896066869896805 -0.08844475281699787 0.008295363240963876 0.03750029840335633
0.1250521050438 0.008851904742422024 0.0396463088818664 0.988857344829065 -0.09323795850120861 0.002911293333228346 0.01844426712882417 -0.002465522336461548 -0.011740452956632643
 0.988857344829065 -0.09323795850120861 0.008861754482629353 0.03964543805441572 -0.0024673169360228757 -0.011740302249258403 0.0028486384932472444 0.018454154971996897
 0.002911293333228346 0.01844426712882417 -0.0024673169360228757 -0.011740302249258403 0.008850740855085542 0.03964480045182859 0.9888572417419791 -0.0932396484998296
 -0.002465522336461548 -0.011740452956632643 0.0028486384932472444 0.018454154971996897 0.9888572417419791 -0.0932396484998296 0.008862749983786566 0.03964373079094383
0.131304710296 0.009442884863611618 0.04180391685678311 0.9880761064813752 -0.09804513374434437 0.003178621176665569 0.019358022765798004 -0.0026902666535032526 -0.01232297313997966
 0.9880761064813752 -0.09804513374434437 0.009453744946999723 0.04180295678358411 -0.002692239345465988 -0.01232279562062116 0.003109526859512926 0.019369218036100047
 0.003178621176665569 0.019358022765798004 -0.002692239345465988 -0.01232279562062116 0.009441602943388092 0.04180234726027075 0.9880759924584525 -0.09804691078073464
 -0.0026902666535032526 -0.01232297313997966 0.003109526859512926 0.019369218036100047 0.9880759924584525 -0.09804691078073464 0.009454843699456624 0.04180116258678575
0.1375573155481 0.009929634910596482 0.043694699435980255 0.9873920124285305 -0.10258375004582727 0.0034268041894921935 0.020242447908529602 -0.0028940334291761324 -0.01287650212542684
 0.9873920124285305 -0.10258375004582727 0.009941560174292995 0.043693667922751034 -0.002896196133063089 -0.012876297365162107 0.0033511067207428026 0.020254942487861475
 0.0034268041894921935 0.020242447908529602 -0.002896196133063089 -0.012876297365162107 0.009928230006235307 0.043693070403215004 0.9873918869565081 -0.10258561433578735
 -0.0028940334291761324 -0.01287650212542684 0.0033511067207428026 0.020254942487861475 0.9873918869565081 -0.10258561433578735 0.009942766531753838 0.04369178653752633
0.1438099208003 0.010433699075562923 0.04557434172800707 0.9866834746278016 -0.10710965598747961 0.0036849835159161125 0.021122517924435414 -0.003105900682385786 -0.013426057417829903
 0.9866834746278016 -0.10710965598747961 0.010446740249815824 0.045573234820864464 -0.0031082619554331494 -0.013425822911397683 0.0036023950575231572 0.021136411352905563
 0.0036849835159161125 0.021122517924435414 -0.0031082619554331494 -0.013425822911397683 0.010432165753352419 0.04557265530323561 0.986683337070841 -0.10711160789685631
 -0.003105900682385786 -0.013426057417829903 0.0036023950575231572 0.021136411352905563 0.986683337070841 -0.10711160789685631 0.010448059287400049 0.045571265996338275
0.1500625260525 0.010954881457028534 0.04744265127198224 0.9859506937142688 -0.11162270292367782 0.003953058737819894 0.021998118116104182 -0.00332577128615662 -0.013971532367876743
 0.9859506937142688 -0.11162270292367782 0.01096908942348481 0.047441464769590935 -0.00332833966131567 -0.013971265509277504 0.0038632933746772834 0.02201351359313744
 0.003953058737819894 0.021998118116104182 -0.00332833966131567 -0.013971265509277504 0.010953214314278129 0.047440909583200165 0.9859505434217346 -0.11162474282923557
 -0.00332577128615662 -0.013971532367876743 0.0038632933746772834 0.02201351359313744 0.9859505434217346 -0.11162474282923557 0.01097052622617944 0.04743940824428468
0.15631513130469998 0.011492984541936263 0.049299441345338875 0.985193871584013 -0.11612274353634035 0.004230928123869407 0.022869135997190964 -0.003553546803859244 -0.01451282279782538
 0.985193871584013 -0.11612274353634035 0.011508410338345626 0.04929817079179199 -0.00355633078929863 -0.0145125208808079 0.004133701896254402 0.022886140340983338
