! Created with skrf 1.8.0 (http://scikit-rf.org).
# GHz S RI R 50.0 
!freq ReS11 ImS11 ReS12 ImS12 ReS13 ImS13
! ReS14 ImS14
! ReS21 ImS21 ReS22 ImS22 ReS23 ImS23
! ReS24 ImS24
! ReS31 ImS31 ReS32 ImS32 ReS33 ImS33
! ReS34 ImS34
! ReS41 ImS41 ReS42 ImS42 ReS43 ImS43
! ReS44 ImS44
!
0.0 0.001553003285076 0.0 0.9984469966712 0.0 6.009749869181e-05 0.0 -6.009749894653e-05 7.359820972162939e-21
 0.9984469966712 0.0 0.001553003285067 0.0 -6.009749894568e-05 7.359820972058845e-21 6.009749868971e-05 0.0
 6.009749869181e-05 0.0 -6.009749894568e-05 7.359820972058845e-21 0.001553003306903 0.0 0.9984469966931 0.0
 -6.009749894653e-05 7.359820972162939e-21 6.009749868971e-05 0.0 0.9984469966931 0.0 0.001553003306939 0.0
0.005 0.0016709710007918263 0.0012671541535544033 0.9982977387085583 -0.0032532572164773394 8.472018717353243e-05 0.0006822489348068375 -8.215961797863486e-05 -0.00042472195059977536
 0.9982977387085583 -0.0032532572164773394 0.0016709766182432205 0.0012671508996570113 -8.216139155867443e-05 -0.0004247233513296268 8.468987759596648e-05 0.0006822606616204491
 8.472018717353243e-05 0.0006822489348068375 -8.216139155867443e-05 -0.0004247233513296268 0.001670969538173739 0.001267087784459441 0.9982977383476477 -0.0032533242679679544
 -8.215961797863486e-05 -0.00042472195059977536 8.468987759596648e-05 0.0006822606616204491 0.9982977383476477 -0.0032533242679679544 0.0016709773572155435 0.001267083161508795
0.006252605252188 0.0017019193152334508 0.001588941448489022 0.9982583319307389 -0.004067367132265542 9.17592580876785e-05 0.0008531317841045041 -8.839493141431927e-05 -0.0005314555232447764
 0.9982583319307389 -0.004067367132265542 0.0017019280954338276 0.0015889372567824867 -8.839769095584866e-05 -0.0005314572511225318 9.171190440421468e-05 0.0008531469814817378
 9.17592580876785e-05 0.0008531317841045041 -8.839769095584866e-05 -0.0005314572511225318 0.0017019171079107282 0.0015888584921454623 0.9982583314460424 -0.0040674509449698994
 -8.839493141431927e-05 -0.0005314555232447764 9.171190440421468e-05 0.0008531469814817378 0.9982583314460424 -0.0040674509449698994 0.0017019293304288297 0.0015888525789117783
0.01250521050438 0.0018648901856408982 0.0032112756431922507 0.9980494362655856 -0.008135544466665078 0.00013215028978135696 0.001706557539917371 -0.00012380741052757382 -0.0010654997036294582
 0.9980494362655856 -0.008135544466665078 0.0018649252348959225 0.0032112660042450114 -0.0001238182820422851 -0.0010655029071573927 0.00013196152221132512 0.0017065937727837191
 0.00013215028978135696 0.001706557539917371 -0.0001238182820422851 -0.0010655029071573927 0.0018648819249690088 0.003211110015983998 0.9980494348910424 -0.008135711839330763
 -0.00012380741052757382 -0.0010654997036294582 0.00013196152221132512 0.0017065937727837191 0.9980494348910424 -0.008135711839330763 0.0018649307325114865 0.003211096811059833
0.01875781575657 0.002042274496180235 0.004856770287819498 0.9978200481369125 -0.012214433655777887 0.00018136429204384955 0.0025608685543240172 -0.00016644506862038594 -0.0016013341091807435
 0.9978200481369125 -0.012214433655777887 0.002042353234642556 0.0048567538716538326 -0.0001664693075414378 -0.0016013384884249427 0.0001809404062915253 0.002560932848024107
 0.00018136429204384955 0.0025608685543240172 -0.0001664693075414378 -0.0016013384884249427 0.0020422563424395304 0.004856522143962402 0.9978200454721682 -0.012214684469720813
 -0.00016644506862038594 -0.0016013341091807435 0.0001809404062915253 0.002560932848024107 0.9978200454721682 -0.012214684469720813 0.002042366021802042 0.004856500132285833
0.02501042100875 0.002234420079803239 0.006523111410515086 0.9975698956060913 -0.0163060071119303 0.00023949632077035473 0.00341610279293241 -0.00021641429922729564 -0.0021387075782451142
 0.9975698956060913 -0.0163060071119303 0.0022345598785792863 0.0065230868150191286 -0.00021645709667582203 -0.0021387127802011507 0.000238743673925205 0.0034162033084584103
 0.00023949632077035473 0.00341610279293241 -0.00021645709667582203 -0.0021387127802011507 0.0022343881917231932 0.0065227808906543824 0.9975698912524299 -0.016306341263659
 -0.00021641429922729564 -0.0021387075782451142 0.000238743673925205 0.0034162033084584103 0.9975698912524299 -0.016306341263659 0.002234582981653752 0.006522748425516643
0.03126302626094 0.0024416603684511624 0.008209105628937955 0.9972986929656272 -0.020411105713116343 0.00030664189861277677 0.004272217108425375 -0.0002738183885729733 -0.0026774440018622636
 0.9972986929656272 -0.020411105713116343 0.002441878557203823 0.008209071380262787 -0.00027388488220551264 -0.0026774496198100684 0.00030546681948006275 0.004272363145838161
 0.00030664189861277677 0.004272217108425375 -0.00027388488220551264 -0.0026774496198100684 0.0024416109017864375 0.00820869285895549 0.9972986865271536 -0.02041152311580415
 -0.0002738183885729733 -0.0026774440018622636 0.00030546681948006275 0.004272363145838161 0.9972986865271536 -0.02041152311580415 0.00244191500413251 0.008208648162031654
0.037515631513130004 0.0026643215295274114 0.009913972880385988 0.9970061481096928 -0.02453014601192873 0.000382896044567937 0.005129136315166421 -0.00033875829750583354 -0.0032173932526018568
 0.9970061481096928 -0.02453014601192873 0.0026646354018447444 0.009913927432859786 -0.0003388535772088184 -0.003217398825933969 0.00038120479462934334 0.005129338322609121
 0.000382896044567937 0.005129136315166421 -0.0003388535772088184 -0.003217398825933969 0.0026642506368817574 0.00991347799414167 0.9970061391938869 -0.024530646573052477
 -0.00033875829750583354 -0.0032173932526018568 0.00038120479462934334 0.005129338322609121 0.9970061391938869 -0.024530646573052477 0.0026646882224054995 0.00991341915490174
0.043768236765320004 0.002902725222497845 0.011637131188892189 0.9966919655268391 -0.02866333539829992 0.0004683528224809368 0.005986768113386597 -0.00041133293613953437 -0.003758416264362662
 0.9966919655268391 -0.02866333539829992 0.0029031520396846956 0.011637072925090723 -0.0004114620473627257 -0.0037584212785519646 0.0004660515784571039 0.005987037697836608
 0.0004683528224809368 0.005986768113386597 -0.0004114620473627257 -0.0037584212785519646 0.002902629051099284 0.011636554326804395 0.9966919537431229 -0.028663919021566956
 -0.00041133293613953437 -0.003758416264362662 0.0004660515784571039 0.005987037697836608 0.9966919537431229 -0.028663919021566956 0.002903224263916944 0.01163647930166855
0.050020842017509996 0.0031571898758047962 0.013378107713199416 0.9963558478154927 -0.03281076097965779 0.0005631050696590596 0.006845009246698896 -0.0004916392609284819 -0.00430037888119202
 0.9963558478154927 -0.03281076097965779 0.003157746870182406 0.013378034943918688 -0.0004918072068310897 -0.004300382767804948 0.0005600999175552523 0.006845359185424568
 0.0005631050696590596 0.006845009246698896 -0.0004918072068310897 -0.004300382767804948 0.003157064567484245 0.013377449024246422 0.996355832776294 -0.032811427563625116
 -0.0004916392609284819 -0.00430037888119202 0.0005600999175552523 0.006845359185424568 0.996355832776294 -0.032811427563625116 0.003157841528518066 0.013377355635611635
0.055454545454549996 0.003391616198512947 0.014905222100222418 0.9960457055981519 -0.036426570537648965 0.0006530677362389335 0.0075912554695781774 -0.0005677808154662401 -0.004772021150242358
 0.9960457055981519 -0.036426570537648965 0.003392300295282209 0.014905135297518057 -0.0005679865413189239 -0.004772023553474442 0.0006493745274253865 0.007591686532995103
 0.0006530677362389335 0.0075912554695781774 -0.0005679865413189239 -0.004772023553474442 0.003391462431535335 0.014904492430752139 0.9960456874174135 -0.03642730912910511
 -0.0005677808154662401 -0.004772021150242358 0.0006493745274253865 0.007591686532995103 0.9960456874174135 -0.03642730912910511 0.0033924169105275185 0.014904381210371985
0.056273447269699996 0.0034280313402853257 0.015136495091575271 0.9959974965809756 -0.03697243316592443 0.0006672442000165647 0.007703748535956279 -0.0005797722971317666 -0.0048431488331811485
 0.9959974965809756 -0.03697243316592443 0.00342873571817965 0.015136406055642348 -0.0005799840400459621 -0.004843150969905989 0.0006634411363562388 0.007704192788182392
 0.0006672442000165647 0.007703748535956279 -0.0005799840400459621 -0.004843150969905989 0.003427873031112792 0.01513575473542246 0.9959974779018465 -0.03697318260238997
 -0.0005797722971317666 -0.0048431488331811485 0.0006634411363562388 0.007704192788182392 0.9959974779018465 -0.03697318260238997 0.0034288558409285106 0.015135640670661723
0.06252605252188 0.0037155632385926164 0.01691192744249155 0.9956166130316334 -0.04114830960145376 0.0007808600511299985 0.008562868543128264 -0.0006758251168538512 -0.005386594086293648
 0.9956166130316334 -0.04114830960145376 0.003716432182809184 0.016911820306640814 -0.0006760855792565711 -0.005386593796988163 0.0007761649883497688 0.008563422261811709
 0.0007808600511299985 0.008562868543128264 -0.0006760855792565711 -0.005386593796988163 0.003715368058905849 0.016911105590058147 0.9956165903318465 -0.04114914177547186
 -0.0006758251168538512 -0.005386594086293648 0.0007761649883497688 0.008563422261811709 0.9956165903318465 -0.04114914177547186 0.003716580800282927 0.01691096840035996
0.06877865777407 0.004020097144347888 0.018704066045623986 0.9952128984090938 -0.0453383094207709 0.0009040407498274179 0.009422246568677392 -0.0007798887967922709 -0.005930581863141756
 0.9952128984090938 -0.0453383094207709 0.004021147816951998 0.018703938904106026 -0.0007802028620305761 -0.005930578417875155 0.000898359525411636 0.00942292611219459
 0.0009040407498274179 0.009422246568677392 -0.0007802028620305761 -0.005930578417875155 0.004019861218089862 0.018703162881266028 0.9952128713117208 -0.0453392242090903
 -0.0007798887967922709 -0.005930581863141756 0.000898359525411636 0.00942292611219459 0.9952128713117208 -0.0453392242090903 0.004021327958179169 0.01870299998043975
0.07503126302626001 0.0043419426635568125 0.02051259028126987 0.9947860543243695 -0.0495423222504013 0.0010368725921401465 0.010281755289892147 -0.000892052360667922 -0.0064749780274712095
 0.9947860543243695 -0.0495423222504013 0.004343192208347398 0.02051244115556104 -0.0008924248734369631 -0.006474970642590094 0.0010301109799650745 0.01028257823360959
 0.0010368725921401465 0.010281755289892147 -0.0008924248734369631 -0.006474970642590094 0.004341662107805871 0.020511606003675114 0.9947860224559297 -0.049543319521258615
 -0.000892052360667922 -0.0064749780274712095 0.0010301109799650745 0.01028257823360959 0.9947860224559297 -0.049543319521258615 0.00434340690015723 0.02051141466675488
0.08128386827845 0.004681407453936204 0.02233719159148533 0.9943357830362235 -0.053760214194219724 0.0011794399312799408 0.011141263185045552 -0.0010124027121705924 -0.007019646687762357
 0.9943357830362235 -0.053760214194219724 0.0046828729988284724 0.022337018429776558 -0.0010128384787815882 -0.007019634525948513 0.0011715036548183122 0.011142248332726895
 0.0011794399312799408 0.011141263185045552 -0.0010128384787815882 -0.007019634525948513 0.004681078379129621 0.022336126413738392 0.9943357460278074 -0.053761293807849
 -0.0010124027121705924 -0.007019646687762357 0.0011715036548183122 0.011142248332726895 0.9943357460278074 -0.053761293807849 0.004683125265889074 0.02233590377563839
0.08753647353064001 0.005038797202489563 0.024177569309854957 0.9938617876909287 -0.057991831955346435 0.0013318250699404092 0.01200063484401177 -0.0011410245621464106 -0.0075644499194907925
 0.9938617876909287 -0.057991831955346435 0.0050404958619896315 0.024177369986517348 -0.0011415283507630024 -0.00756443208982503 0.0013226198170966483 0.012001802239026325
 0.0013318250699404092 0.01200063484401177 -0.0011415283507630024 -0.00756443208982503 0.005038415712121082 0.024176423459203386 0.9938617451778894 -0.057992993764916026
 -0.0011410245621464106 -0.0075644499194907925 0.0013226198170966483 0.012001802239026325 0.9938617451778894 -0.057992993764916026 0.0050407887256661895 0.024176166513188012
0.09378907878283 0.005414415574692469 0.026033427683149212 0.9933637725370703 -0.06223700577212698 0.001494108156537708 0.012859731185730612 -0.0012780003507416524 -0.008109247585841185
 0.9933637725370703 -0.06223700577212698 0.005416364452182336 0.02603319999804686 -0.00127857689144362 -0.008109223143878703 0.001483539595777104 0.012861102121987555
 0.001494108156537708 0.012859731185730612 -0.00127857689144362 -0.008109223143878703 0.005413977764884949 0.026032201404971575 0.9933637241593662 -0.062238249620428995
 -0.0012780003507416524 -0.008109247585841185 0.001483539595777104 0.012861102121987555 0.9933637241593662 -0.062238249620428995 0.005416700929577022 0.02603190700107252
0.100041684035 0.005808564142218645 0.027904473690638667 0.9928414431231444 -0.06649555156222539 0.0016663670834713964 0.013718409632334016 -0.001423410166348579 -0.008653897207198653
 0.9928414431231444 -0.06649555156222539 0.005810780332571197 0.027904215368391043 -0.001424064151129404 -0.008653865155045926 0.0016543408811572602 0.013720006664950879
 0.0016663670834713964 0.013718409632334016 -0.001424064151129404 -0.008653865155045926 0.005808066102388384 0.02790316724585087 0.9928413885264161 -0.0664968772850005
 -0.001423410166348579 -0.008653897207198653 0.0016543408811572602 0.013720006664950879 0.9928413885264161 -0.0664968772850005 0.0058111634366956365 0.027902832089115343
0.1059090909091 0.006195550503301339 0.02967380484797335 0.9923289178269382 -0.0705037316359712 0.0018371540516733764 0.014523678251145093 -0.0015676017154407284 -0.00916472941438435
 0.9923289178269382 -0.0705037316359712 0.006198033080226257 0.029673515638772494 -0.001568332606626721 -0.009164689265765684 0.0018236742258366345 0.014525509097463482
 0.0018371540516733764 0.014523678251145093 -0.001568332606626721 -0.009164689265765684 0.00619499238039669 0.029672423429414157 0.992328857076096 -0.07050513403122938
 -0.0015676017154407284 -0.00916472941438435 0.0018236742258366345 0.014525509097463482 0.992328857076096 -0.07050513403122938 0.006198462673575838 0.029672046903025804
0.1062942892872 0.00622154229758023 0.029790415402269687 0.9922945064848276 -0.07076727253434603 0.001848677387521214 0.01457652424329408 -0.0015773316616980232 -0.009198253876202597
 0.9922945064848276 -0.07076727253434603 0.006224042889114385 0.02979012409136904 -0.0015780677444149137 -0.0091982131626049 0.0018350992258595927 0.014578371198980523
 0.001848677387521214 0.01457652424329408 -0.0015780677444149137 -0.0091982131626049 0.0062209801094354165 0.02978902907058242 0.9922944453194219 -0.07076867995772386
 -0.0015773316616980232 -0.009198253876202597 0.0018350992258595927 0.014578371198980523 0.9922944453194219 -0.07076867995772386 0.006224475627169086 0.029788649719293774
0.11254689453939999 0.006653647154529304 0.03169096073390612 0.9917226713208609 -0.07505196040904664 0.002041112150645759 0.015433925831483328 -0.0017398399683090904 -0.009742170196522498
 0.9917226713208609 -0.07505196040904664 0.006656449231692331 0.03169063400575889 -0.0017406627645970125 -0.009742119716946019 0.002025887746967678 0.015436047818676444
 0.002041112150645759 0.015433925831483328 -0.0017406627645970125 -0.009742119716946019 0.006653016892293509 0.03168949481183631 0.9917226032429226 -0.07505344935223868
 -0.0017398399683090904 -0.009742170196522498 0.002025887746967678 0.015436047818676444 0.9917226032429226 -0.07505344935223868 0.006656934604499488 0.031689067675655984
0.11879949979160001 0.007105173440629569 0.03360581647195098 0.9911256481649807 -0.07934939637707701 0.002243741902157552 0.016290462057117375 -0.0019110076093148667 -0.010285496249741635
 0.9911256481649807 -0.07934939637707701 0.007108294086489317 0.033605451819763384 -0.001911921696406301 -0.010285434846478982 0.0022267770287725903 0.016292885475630698
 0.002243741902157552 0.016290462057117375 -0.001911921696406301 -0.010285434846478982 0.0071044711714621026 0.03360427127646121 0.9911255728367299 -0.07935096664954482
 -0.0019110076093148667 -0.010285496249741635 0.0022267770287725903 0.016292885475630698 0.9911255728367299 -0.07935096664954482 0.007108835087931314 0.03360379261434957
0.1250521050438 0.007576413383464878 0.03553468751097057 0.9905031495531027 -0.08365935185135912 0.0024566345217755955 0.017145977514527254 -0.0020909044109017846 -0.010828079575131308
 0.9905031495531027 -0.08365935185135912 0.007579869681540397 0.03553428234857266 -0.002091914327448966 -0.010828006037398672 0.0024378350263357528 0.01714873006501737
 0.0024566345217755955 0.017145977514527254 -0.002091914327448966 -0.010828006037398672 0.007575635166519679 0.035533063378295766 0.9905030666428776 -0.08366100325472085
 -0.0020909044109017846 -0.010828079575131308 0.0024378350263357528 0.01714873006501737 0.9905030666428776 -0.08366100325472085 0.007580469297510631 0.035532529296420826
0.131304710296 0.008067656588801007 0.037477276244162645 0.9898548901866114 -0.08798158907329548 0.00267985514255793 0.018000313809624715 -0.0022795974132418092 -0.011369765164951915
 0.9898548901866114 -0.08798158907329548 0.00807146562589675 0.037476827904647174 -0.0022807076590608158 -0.01136967822902361 0.0026591269695351197 0.018003424502559325
 0.00267985514255793 0.018000313809624715 -0.0022807076590608158 -0.01136967822902361 0.008066798476233964 0.037475573531881204 0.989854799369462 -0.08798332140000953
 -0.0022795974132418092 -0.011369765164951915 0.0026591269695351197 0.018003424502559325 0.989854799369462 -0.08798332140000953 0.008072126833741962 0.037474979981394416
0.1375573155481 0.008467202428462378 0.03917929694116883 0.989292618430074 -0.09206176219819052 0.002885604591172129 0.018827777887078248 -0.002449312361155907 -0.011884863545471337
 0.989292618430074 -0.09206176219819052 0.008471383652983543 0.039178815332871604 -0.00245052971505095 -0.011884763105242516 0.002862894052621532 0.01883124255691563
 0.002885604591172129 0.018827777887078248 -0.00245052971505095 -0.011884763105242516 0.008466261246659548 0.039177515791415755 0.9892925193578397 -0.09206357525768678
 -0.002449312361155907 -0.011884863545471337 0.002862894052621532 0.01883124255691563 0.9892925193578397 -0.09206357525768678 0.008472108686774737 0.03917687171092719
0.1438099208003 0.008880820489655734 0.0408721993985485 0.9887105341659296 -0.09613145088554734 0.0030996682993366595 0.01965183530965373 -0.0026258180062478857 -0.012396846960576925
 0.9887105341659296 -0.09613145088554734 0.008885391373659833 0.04087168276758774 -0.0026271473225350193 -0.012396731769579566 0.003074888773771699 0.01965568060000974
 0.0030996682993366595 0.01965183530965373 -0.0026271473225350193 -0.012396731769579566 0.008879792417443225 0.04087034013569394 0.9887104265195311 -0.09613334445902771
 -0.0026258180062478857 -0.012396846960576925 0.003074888773771699 0.01965568060000974 0.9887104265195311 -0.09613334445902771 0.008886183062768555 0.040869642394888786
0.1500625260525 0.009308363135239047 0.042555837887162974 0.9881087892514241 -0.10019054983406318 0.0033219716246511957 0.02047239981474779 -0.0028090418900559686 -0.012905633981650944
 0.9881087892514241 -0.10019054983406318 0.00931334117306045 0.042555284385079314 -0.0028104880132296985 -0.012905502743198405 0.003295037050224789 0.020476653337108363
 0.0033219716246511957 0.02047239981474779 -0.0028104880132296985 -0.012905502743198405 0.009307244352325661 0.042553900844719154 0.9881086727179739 -0.10019252369751311
 -0.0028090418900559686 -0.012905633981650944 0.003295037050224789 0.020476653337108363 0.9881086727179739 -0.10019252369751311 0.009314202329076671 0.04255314616420233
0.15631513130469998 0.009749681654001063 0.04423007106788726 0.9874875363467409 -0.10423895420454984 0.0035524390269354293 0.021289386623465488 -0.002998910647133601 -0.013411144923524689
 0.9874875363467409 -0.10423895420454984 0.009755084362516105 0.0442294787501609 -0.003000478411660434 -0.013410996290878675 0.00352326391147148 0.021294076945801738
