! Created with skrf 1.8.0 (http://scikit-rf.org).
# GHz S RI R 50.0 
!freq ReS11 ImS11 ReS12 ImS12 ReS13 ImS13
! ReS14 ImS14
! ReS21 ImS21 ReS22 ImS22 ReS23 ImS23
! ReS24 ImS24
! ReS31 ImS31 ReS32 ImS32 ReS33 ImS33
! ReS34 ImS34
! ReS41 ImS41 ReS42 ImS42 ReS43 ImS43
! ReS44 ImS44
!
0.0 0.001619992926286 0.0 0.998380007066 0.0 6.283875304067e-05 0.0 -6.283875311613e-05 7.695527786607937e-21
 0.998380007066 0.0 0.00161999292627 0.0 -6.283875311554e-05 7.695527786535682e-21 6.28387530411e-05 0.0
 6.283875304067e-05 0.0 -6.283875311554e-05 7.695527786535682e-21 0.001619992930134 0.0 0.9983800070699 0.0
 -6.283875311613e-05 7.695527786607937e-21 6.28387530411e-05 0.0 0.9983800070699 0.0 0.001619992930147 0.0
0.005 0.0017432697482822924 0.0013209281546960319 0.9982240047168471 -0.0033934026197275534 8.87698652937917e-05 0.0007175640721369587 -8.60881352518755e-05 -0.000445949949878125
 0.9982240047168471 -0.0033934026197275534 0.0017432588312966816 0.0013209345019036653 -8.608622877257478e-05 -0.0004459484462419301 8.883326539368654e-05 0.0007175397316038855
 8.87698652937917e-05 0.0007175640721369587 -8.608622877257478e-05 -0.0004459484462419301 0.0017432705570493083 0.001320860369846206 0.9982240043546 -0.003393469673195117
 -8.60881352518755e-05 -0.000445949949878125 8.883326539368654e-05 0.0007175397316038855 0.9982240043546 -0.003393469673195117 0.0017432572947357968 0.0013208681734665035
0.006252605252188 0.0017756743689345891 0.0016563657003941434 0.9981827295681014 -0.004242573729272259 9.620577515028075e-05 0.0008972871637301749 -9.268926741223967e-05 -0.0005580153275927611
 0.9981827295681014 -0.004242573729272259 0.0017756573045336745 0.0016563738231049451 -9.268630106579496e-05 -0.0005580134729782425 9.630482930120809e-05 0.0008972555822192042
 9.620577515028075e-05 0.0008972871637301749 -9.268630106579496e-05 -0.0005580134729782425 0.0017756757112031836 0.0016562809566822063 0.9981827290795304 -0.004242657550786093
 -9.268926741223967e-05 -0.0005580153275927611 9.630482930120809e-05 0.0008972555822192042 0.9981827290795304 -0.004242657550786093 0.0017756549799255365 0.0016562909105181736
0.01250521050438 0.0019466831025746686 0.0033474743815228537 0.9979634275267422 -0.008485893608509192 0.0001389949925905541 0.0017948337712450353 -0.00013034152468515008 -0.00111871110995599
 0.9979634275267422 -0.008485893608509192 0.001946614975019412 0.00334749253012952 -0.00013032983845110617 -0.0011187076745686802 0.00013938992215354733 0.0017947580748798083
 0.0001389949925905541 0.0017948337712450353 -0.00013032983845110617 -0.0011187076745686802 0.001946689009218497 0.0033473050641441835 0.9979634261179988 -0.008486060972324955
 -0.00013034152468515008 -0.00111871110995599 0.00013938992215354733 0.0017947580748798083 0.9979634261179988 -0.008486060972324955 0.001946606226187948 0.003347327005223709
0.01875781575657 0.002133407786248599 0.005062637458272269 0.9977218174360026 -0.012740273897472428 0.000191308537075959 0.002693258637797899 -0.0001759152756955603 -0.0016812341816634703
 0.9977218174360026 -0.012740273897472428 0.002133254720319894 0.005062667655419733 -0.00017588922045812326 -0.0016812294932294016 0.00019219552607907552 0.0026931237066012774
 0.000191308537075959 0.002693258637797899 -0.00017588922045812326 -0.0016812294932294016 0.0021334214923373505 0.0050623834968806835 0.9977218146956847 -0.012740524687095283
 -0.0001759152756955603 -0.0016812341816634703 0.00019219552607907552 0.0026931237066012774 0.9977218146956847 -0.012740524687095283 0.0021332354686077037 0.005062419646380189
0.02501042100875 0.002336224724509888 0.00679942610188052 0.9974576042356937 -0.017007756746891187 0.00025324951172638456 0.00359259471914669 -0.00022952594911076061 -0.0022453102767188734
 0.9974576042356937 -0.017007756746891187 0.002335952927693063 0.0067994704816261775 -0.00022947994521403998 -0.002245304722588255 0.00025482470952917924 0.0035923829419361635
 0.00025324951172638456 0.00359259471914669 -0.00022947994521403998 -0.002245304722588255 0.00233624946079137 0.00679908734910631 0.9974575997522424 -0.017008090846703433
 -0.00022952594911076061 -0.0022453102767188734 0.00025482470952917924 0.0035923829419361635 0.9974575997522424 -0.017008090846703433 0.0023359190887605567 0.006799140105233072
0.03126302626094 0.002555494641178461 0.008556579956004905 0.997170478397699 -0.02128920345304196 0.0003249212198566796 0.004492788916580727 -0.00029128542140753437 -0.0028107443100407435
 0.997170478397699 -0.02128920345304196 0.0025550703860037403 0.008556640762441205 -0.00029121394692051196 -0.0028107383378473817 0.0003273809254413742 0.004492480179241488
 0.0003249212198566796 0.004492788916580727 -0.00029121394692051196 -0.0028107383378473817 0.002555533636617937 0.00855615618668674 0.9971704717610229 -0.021289620748971526
 -0.00029128542140753437 -0.0028107443100407435 0.0003273809254413742 0.004492480179241488 0.9971704717610229 -0.021289620748971526 0.0025550178694952698 0.008556228123684225
0.037515631513130004 0.0027915702622170976 0.010333269351191844 0.9968601237890913 -0.025585032181985705 0.0004064261794410579 0.005393754012556455 -0.0003613028548264118 -0.0033773684622638344
 0.9968601237890913 -0.025585032181985705 0.0027909598745452535 0.010333348937854474 -0.0003612004395789376 -0.0033773625800874187 0.0004099669225388343 0.005393325675154529
 0.0004064261794410579 0.005393754012556455 -0.0003612004395789376 -0.0033773625800874187 0.002791626744636864 0.010332760263035895 0.9968601145917391 -0.02558553256059228
 -0.0003613028548264118 -0.0033773684622638344 0.0004099669225388343 0.005393325675154529 0.9968601145917391 -0.02558553256059228 0.0027908845833138616 0.010332854131371179
0.043768236765320004 0.003044799236664478 0.012128870756822707 0.9965262208730816 -0.029895442446996084 0.0004978656539064492 0.006295384473836531 -0.0004396849895710477 -0.00394502639160757
 0.9965262208730816 -0.029895442446996084 0.0030439690864427246 0.012128971586354766 -0.0004395462115922322 -0.003945021168009899 0.000502684231935951 0.006294811344326089
 0.0004978656539064492 0.006295384473836531 -0.0004395462115922322 -0.003945021168009899 0.0030448764362152637 0.01212827598511697 0.9965262087148128 -0.029896025780380298
 -0.0004396849895710477 -0.00394502639160757 0.000502684231935951 0.006294811344326089 0.9965262087148128 -0.029896025780380298 0.0030438669195765175 0.012128394712031525
0.050020842017509996 0.0033155254924955445 0.013942874006693813 0.9961684483474373 -0.03422050781093327 0.0005993393645862123 0.007197562976023442 -0.0005265362424950893 -0.004513566725804933
 0.9961684483474373 -0.03422050781093327 0.0033144419857037283 0.013942998650712721 -0.000526355725786072 -0.004513562789792261 0.0006056328559922737 0.007196817282534276
 0.0005993393645862123 0.007197562976023442 -0.000526355725786072 -0.004513562789792261 0.003315626636322589 0.013942193118758677 0.9961684328304538 -0.03422117396187622
 -0.0005265362424950893 -0.004513566725804933 0.0006056328559922737 0.007196817282534276 0.9961684328304538 -0.03422117396187622 0.0033143088324992217 0.013942339809232327
0.055454545454549996 0.003565269564956637 0.015533897596437534 0.995837897987939 -0.03799101854751463 0.0006957482556563997 0.007981930904247399 -0.0006089699332691947 -0.005008245932027185
 0.995837897987939 -0.03799101854751463 0.0035639386234064025 0.015534045109194766 -0.0006087488128908904 -0.005008243672709999 0.0007034837611071354 0.007981010668400021
 0.0006957482556563997 0.007981930904247399 -0.0006087488128908904 -0.005008243672709999 0.0035653941367983096 0.015533141469565977 0.9958378792330411 -0.037991756547600335
 -0.0006089699332691947 -0.005008245932027185 0.0007034837611071354 0.007981010668400021 0.9958378792330411 -0.037991756547600335 0.0035637751977781107 0.01553331512175645
0.056273447269699996 0.0036040899168467764 0.01577483675195745 0.9957864841115663 -0.03856022136358636 0.0007109452809310772 0.00810016361581213 -0.0006219587214955949 -0.005082839869900479
 0.9957864841115663 -0.03856022136358636 0.0036027194878532546 0.015774987891216192 -0.0006217311344777208 -0.005082837910881146 0.0007189110443708703 0.008099214978392168
 0.0007109452809310772 0.00810016361581213 -0.0006217311344777208 -0.005082837910881146 0.00360421823077453 0.015774069248930055 0.9957864648433352 -0.03856097018337497
 -0.0006219587214955949 -0.005082839869900479 0.0007189110443708703 0.008099214978392168 0.9957864648433352 -0.03856097018337497 0.0036025512299528327 0.01577424718684686
0.06252605252188 0.00391083071678072 0.01762435942408203 0.9953800059178303 -0.042914520692937955 0.0008327794506553038 0.009003053677831802 -0.0007260521955765113 -0.005652696264189744
 0.9953800059178303 -0.042914520692937955 0.003909139821352789 0.01762453984888774 -0.0007257722501128465 -0.005652697031916007 0.0008426151147795201 0.00900186908001483
 0.0008327794506553038 0.009003053677831802 -0.0007257722501128465 -0.005652697031916007 0.003910989424728448 0.017623504741354035 0.9953799825117082 -0.04291535202060215
 -0.0007260521955765113 -0.005652696264189744 0.0008426151147795201 0.00900186908001483 0.9953799825117082 -0.04291535202060215 0.00390893233181934 0.017623717390983132
0.06877865777407 0.004236083599687998 0.019491070316461082 0.9949486918474841 -0.04728330274305854 0.0009649358520222155 0.009906094695249251 -0.0008389140396068509 -0.006222985353736145
 0.9949486918474841 -0.04728330274305854 0.004234038708292648 0.01949128292714279 -0.0008385764902894912 -0.006222989658224335 0.0009768392986097233 0.009904638455620037
 0.0009649358520222155 0.009906094695249251 -0.0008385764902894912 -0.006222989658224335 0.004236275921730058 0.019490127820950078 0.9949486639220221 -0.04728421640767468
 -0.0008389140396068509 -0.006222985353736145 0.0009768392986097233 0.009904638455620037 0.9949486639220221 -0.04728421640767468 0.004233787850081877 0.019490378828592274
0.07503126302626001 0.004580181846633453 0.021374616117842103 0.9944922206829193 -0.05166643322591107 0.0011075062583785452 0.010809143129668398 -0.0009606391642114576 -0.006793554944258514
 0.9944922206829193 -0.05166643322591107 0.004577749437579905 0.021374863925602425 -0.0009602388078801802 -0.0067935636557226965 0.0011216756005115412 0.010807376873664547
 0.0011075062583785452 0.010809143129668398 -0.0009602388078801802 -0.0067935636557226965 0.004580410998892655 0.021373585117357513 0.9944921878633469 -0.05166742903695884
 -0.0009606391642114576 -0.006793554944258514 0.0011216756005115412 0.010807376873664547 0.9944921878633469 -0.05166742903695884 0.004577451063925026 0.021373878313160878
0.08128386827845 0.004943456320613256 0.02327465562962523 0.9940102722200624 -0.05606375285557068 0.001260580111012394 0.011712050831244703 -0.0010913199352812907 -0.007364250783891011
 0.9940102722200624 -0.05606375285557068 0.004940602873380364 0.023274941757619717 -0.0010908516108199852 -0.007364264832652554 0.0012772136670952017 0.01170993346321022
 0.001260580111012394 0.011712050831244703 -0.0010908516108199852 -0.007364264832652554 0.004943725513992303 0.023273535358895037 0.9940102341377796 -0.056064830616584044
 -0.0010913199352812907 -0.007364250783891011 0.0012772136670952017 0.01170993346321022 0.9940102341377796 -0.056064830616584044 0.004940252826417727 0.023273874759107777
0.08753647353064001 0.005326235428388728 0.025190855409738734 0.9935025275372092 -0.06047508166290032 0.0014242443968567498 0.012614665365874241 -0.0012310460866722431 -0.00793491628405802
 0.9935025275372092 -0.06047508166290032 0.005322927417083881 0.02519118309428676 -0.0012305046747929703 -0.007934936660462803 0.0014435406617727083 0.012612153041539753
 0.0014242443968567498 0.012614665365874241 -0.0012305046747929703 -0.007934936660462803 0.005326547868055322 0.025189645044889703 0.9935024838310144 -0.06047624115666933
 -0.0012310460866722431 -0.00793491628405802 0.0014435406617727083 0.012612153041539753 0.9935024838310144 -0.06047624115666933 0.005322521528274269 0.025190034854141768
0.09378907878283 0.00572884505436904 0.027122886681594505 0.9929686692405812 -0.06490022205198281 0.0015985835298366797 0.01351683025883438 -0.0013799046278731657 -0.008505392330506801
 0.9929686692405812 -0.06490022205198281 0.005725048941212412 0.027123259273683913 -0.0013792850511210473 -0.008505420084812549 0.0016207411433018099 0.013513876358132492
 0.0015985835298366797 0.01351683025883438 -0.0013792850511210473 -0.008505420084812549 0.005729203938298224 0.02712158532457897 0.992968619556867 -0.06490146305591074
 -0.0013799046278731657 -0.008505392330506801 0.0016207411433018099 0.013513876358132492 0.992968619556867 -0.06490146305591074 0.0057245830300661615 0.027122029938602233
0.100041684035 0.006151608469817084 0.02907042305330026 0.9924083816887037 -0.06933896105396012 0.0017836792343886494 0.01441838518263612 -0.0015379797482387798 -0.009075517156615049
 0.9924083816887037 -0.06933896105396012 0.006147290698449297 0.02907084402042932 -0.0015372769710065687 -0.009075553398909982 0.0018088969470736373 0.014414940283063891
 0.0017836792343886494 0.01441838518263612 -0.0015372769710065687 -0.009075553398909982 0.006152016988269974 0.029069029743862898 0.9924083256820342 -0.06934028332790065
 -0.0015379797482387798 -0.009075517156615049 0.0018088969470736373 0.014414940283063891 0.9924083256820342 -0.06934028332790065 0.006146760572815759 0.029069533752221977
0.1059090909091 0.006566942328534243 0.03091179095484667 0.9918582946847277 -0.0735164128745538 0.0019672252434377027 0.015263698030156017 -0.001694771294492667 -0.009610052904352769
 0.9918582946847277 -0.0735164128745538 0.006562104494550465 0.03091226057603542 -0.001693985899980399 -0.009610098174520904 0.00199549536338598 0.01525974491169059
 0.0019672252434377027 0.015263698030156017 -0.001693985899980399 -0.009610098174520904 0.00656740031694461 0.03091031042766895 0.9918582324378401 -0.07351781117892078
 -0.001694771294492667 -0.009610052904352769 0.00199549536338598 0.01525974491169059 0.9918582324378401 -0.07351781117892078 0.006561510286554141 0.030910874521039456
0.1062942892872 0.006594846227456107 0.03103313882043477 0.991821351205321 -0.0737910720049006 0.001979610430844095 0.015319166108933996 -0.0017053527184179755 -0.009645126259578444
 0.991821351205321 -0.0737910720049006 0.006589973216134942 0.031033611748646227 -0.0017045617470498992 -0.009645172159652498 0.0020080870683670247 0.015315177959473748
 0.001979610430844095 0.015319166108933996 -0.0017045617470498992 -0.009645172159652498 0.006595307561416199 0.031031652533938064 0.9918212885386402 -0.07379247529312911
 -0.0017053527184179755 -0.009645126259578444 0.0020080870683670247 0.015315177959473748 0.9918212885386402 -0.07379247529312911 0.006589374671370114 0.031032220723332508
0.11254689453939999 0.0070588760425011315 0.033010707667777105 0.9912072662825249 -0.07825631583273807 0.0021864531219627954 0.016219005437387878 -0.001882101789775795 -0.010214052346604512
 0.9912072662825249 -0.07825631583273807 0.007053414177791803 0.03301123626393318 -0.0018812176728282282 -0.01021410913382129 0.0022183875471235566 0.016214418932921894
 0.0021864531219627954 0.016219005437387878 -0.0018812176728282282 -0.01021410913382129 0.007059393363433023 0.03300912730934265 0.9912071966280348 -0.07825779986963581
 -0.001882101789775795 -0.010214052346604512 0.0022183875471235566 0.016214418932921894 0.9912071966280348 -0.07825779986963581 0.007052742996468335 0.03300976466694764
0.11879949979160001 0.007544012664864969 0.03500280166646354 0.9905658177778145 -0.08273444205694919 0.002404280280440571 0.01711773210506072 -0.0020683020923979107 -0.010782125307571397
 0.9905658177778145 -0.08273444205694919 0.007537928294786005 0.035003389760889375 -0.0020673199207306625 -0.010782194270769822 0.0024398713540491187 0.01711248926144454
 0.002404280280440571 0.01711773210506072 -0.0020673199207306625 -0.010782194270769822 0.007544589133016341 0.03500112607385348 0.9905657408172512 -0.08273600656404104
 -0.0020683020923979107 -0.010782125307571397 0.0024398713540491187 0.01711248926144454 0.9905657408172512 -0.08273600656404104 0.007537180246385862 0.035001837791026336
0.1250521050438 0.008050567743101226 0.03700909047735711 0.9898966991059817 -0.08722518959032004 0.0026331617374064226 0.018015171687044508 -0.0022640255319491226 -0.01134917220377961
 0.9898966991059817 -0.08722518959032004 0.008043827170320492 0.037009742026732344 -0.0022629404390963953 -0.01134925469108754 0.0026726082772772918 0.018009211616864425
 0.0026331617374064226 0.018015171687044508 -0.0022629404390963953 -0.01134925469108754 0.008051206506735251 0.03700731842376481 0.9898966145315502 -0.08722683427349737
 -0.0022640255319491226 -0.01134917220377961 0.0026726082772772918 0.018009211616864425 0.9898966145315502 -0.08722683427349737 0.00804299801105765 0.037008109900029285
0.131304710296 0.008578849682088812 0.03902924073371447 0.989199606427493 -0.09172828737038537 0.002873164071470921 0.01891114648861052 -0.0024693406858683816 -0.011915017272465358
 0.989199606427493 -0.09172828737038537 0.008571419157660558 0.03902995982420417 -0.002468147848253611 -0.011915114691201214 0.0029166648102405294 0.01890440537757197
 0.002873164071470921 0.01891114648861052 -0.002468147848253611 -0.011915114691201214 0.00857955387631349 0.03902737092275515 0.9891995139416689 -0.09173001192468772
 -0.0024693406858683816 -0.011915017272465358 0.0029166648102405294 0.01890440537757197 0.9891995139416689 -0.09173001192468772 0.008570504629877171 0.03902824777002268
0.1375573155481 0.009010881894702215 0.04079879925017847 0.9885925738130767 -0.0959791922765843 0.003094692267710851 0.019779083225220272 -0.0026546146089219146 -0.012453147889233714
 0.9885925738130767 -0.0959791922765843 0.009002723841125548 0.04079957138854395 -0.0026533067493899123 -0.012453260401023918 0.0031423537435020838 0.019771568527031384
 0.003094692267710851 0.019779083225220272 -0.0026533067493899123 -0.012453260401023918 0.009011653904297597 0.04079683061309905 0.9885924730733548 -0.0959809964346525
 -0.0026546146089219146 -0.012453147889233714 0.0031423537435020838 0.019771568527031384 0.9885924730733548 -0.0959809964346525 0.009001720506126326 0.04079777942142642
0.1438099208003 0.009458196072144869 0.04255849562684429 0.987964031646625 -0.10021879192926561 0.0033251539750018652 0.02064326236490391 -0.002847290057162623 -0.012987800204042969
 0.987964031646625 -0.10021879192926561 0.009449276065819632 0.0425593236415183 -0.0028458619723691265 -0.012987929201160993 0.0033771581506653573 0.0206349153925717
 0.0033251539750018652 0.02064326236490391 -0.0028458619723691265 -0.012987929201160993 0.009459038876943203 0.042556426826780736 0.9879639223634666 -0.10022067537272702
 -0.002847290057162623 -0.012987800204042969 0.0033771581506653573 0.0206349153925717 0.9879639223634666 -0.10022067537272702 0.009448179790799422 0.04255745194662473
0.1500625260525 0.009920627195110929 0.04430816703499564 0.9873141494972661 -0.10444696520317613 0.00356446503205768 0.02150358758819459 -0.003047284441165854 -0.013518881991476992
 0.9873141494972661 -0.10444696520317613 0.009910910736108012 0.04430905391934617 -0.003045730939523469 -0.013519028922265388 0.00362099272581602 0.02149434750474869
 0.00356446503205768 0.02150358758819459 -0.003045730939523469 -0.013519028922265388 0.009921543753048302 0.04430599667852119 0.9873140313905917 -0.1044489276044298
 -0.003047284441165854 -0.013518881991476992 0.00362099272581602 0.02149434750474869 0.9873140313905917 -0.1044489276044298 0.009909717383086923 0.04430710268640698
0.15631513130469998 0.010398008976879402 0.04604765551465811 0.9866430979042874 -0.10866359174428929 0.0038125402307895334 0.022359964315507627 -0.003254514101488413 -0.014046303064203958
 0.9866430979042874 -0.10866359174428929 0.01038746148640814 0.04604860443080681 -0.0032528300033399025 -0.01404646943285628 0.00387377109744839 0.02234976815750932
