! Created with skrf 1.8.0 (http://scikit-rf.org).
# GHz S RI R 50.0 
!freq ReS11 ImS11 ReS12 ImS12 ReS13 ImS13
! ReS14 ImS14
! ReS21 ImS21 ReS22 ImS22 ReS23 ImS23
! ReS24 ImS24
! ReS31 ImS31 ReS32 ImS32 ReS33 ImS33
! ReS34 ImS34
! ReS41 ImS41 ReS42 ImS42 ReS43 ImS43
! ReS44 ImS44
!
0.0 0.00155020152741 0.0 0.9984497984608 0.0 5.987851392847e-05 0.0 -5.987851614646e-05 7.333003313645536e-21
 0.9984497984608 0.0 0.001550201527432 0.0 -5.987851614751e-05 7.333003313774123e-21 5.987851392458e-05 0.0
 5.987851392847e-05 0.0 -5.987851614751e-05 7.333003313774123e-21 0.001550201533129 0.0 0.9984497984665 0.0
 -5.987851614646e-05 7.333003313645536e-21 5.987851392458e-05 0.0 0.9984497984665 0.0 0.001550201533092 0.0
0.005 0.0016679211796957424 0.001266855099911204 0.9983008598116613 -0.0032472847319316668 8.413096660208218e-05 0.0006678896165882691 -8.163431400063592e-05 -0.0004178018401189553
 0.9983008598116613 -0.0032472847319316668 0.0016679336423731568 0.0012668478364791548 -8.163607260037636e-05 -0.0004178032284431346 8.403714397600246e-05 0.0006679251650665284
 8.413096660208218e-05 0.0006678896165882691 -8.163607260037636e-05 -0.0004178032284431346 0.0016679197330437085 0.001266788723400482 0.9983008594531189 -0.0032473517937171054
 -8.163431400063592e-05 -0.0004178018401189553 8.403714397600246e-05 0.0006679251650665284 0.9983008594531189 -0.0032473517937171054 0.0016679343823645533 0.001266780099781274
0.006252605252188 0.0016988001617554863 0.001588557648850348 0.9982615431886946 -0.004059899675359471 9.106848997575023e-05 0.0008351809423785889 -8.777917842091255e-05 -0.0005227938863654133
 0.9982615431886946 -0.004059899675359471 0.0016988196435279016 0.001588548462907034 -8.778191465404454e-05 -0.0005227955989258879 9.09218986320881e-05 0.0008352271322506276
 9.106848997575023e-05 0.0008351809423785889 -8.778191465404454e-05 -0.0005227955989258879 0.0016987979678916223 0.0015884746924097 0.998261542695984 -0.0040599834984536365
 -8.777917842091255e-05 -0.0005227938863654133 9.09218986320881e-05 0.0008352271322506276 0.998261542695984 -0.0040599834984536365 0.001698820868682059 0.0015884637960069802
0.01250521050438 0.0018613812691207906 0.003210431247898271 0.9980531588801964 -0.008120602024462126 0.0001308990932321145 0.0016706870967672831 -0.00012265715139237257 -0.001048125148557626
 0.9980531588801964 -0.008120602024462126 0.0018614590612548824 0.003210411822570558 -0.00012266793116688033 -0.0010481283235358758 0.00013031445064083522 0.0016707983853527977
 0.0001308990932321145 0.0016706870967672831 -0.00012266793116688033 -0.0010481283235358758 0.0018613730793605567 0.0032102657087922475 0.998053157485108 -0.008120769440770932
 -0.00012265715139237257 -0.001048125148557626 0.00013031445064083522 0.0016707983853527977 0.998053157485108 -0.008120769440770932 0.0018614645364670806 0.0032102427393807752
0.01875781575657 0.0020383018636535265 0.004855411135549926 0.9978243851118925 -0.01219198908713678 0.00017946231250048547 0.0025070830448046194 -0.00016462039248932737 -0.0015752246454706369
 0.9978243851118925 -0.01219198908713678 0.0020384766661555843 0.004855380376678044 -0.00016464442694895056 -0.0015752289853475578 0.00017814881273682152 0.002507282014827571
 0.00017946231250048547 0.0025070830448046194 -0.00016464442694895056 -0.0015752289853475578 0.002038283885994929 0.004855163312994399 0.9978243824035197 -0.012192240054925207
 -0.00016462039248932737 -0.0015752246454706369 0.00017814881273682152 0.002507282014827571 0.9978243824035197 -0.012192240054925207 0.002038489419678017 0.0048551269909261514
0.02501042100875 0.002229908293961147 0.006521189351010447 0.9975749511508784 -0.01627603037045238 0.00023685169225012894 0.003344401630844947 -0.00021377325874421022 -0.00210384907448785
 0.9975749511508784 -0.01627603037045238 0.002230218731232016 0.006521146140625313 -0.00021381569521869802 -0.002103854229037719 0.00023451832518970884 0.0033447144227305827
 0.00023685169225012894 0.003344401630844947 -0.00021381569521869802 -0.002103854229037719 0.0022298767351699375 0.006520859606226384 0.9975749467079346 -0.01627636489839228
 -0.00021377325874421022 -0.00210384907448785 0.00023451832518970884 0.0033447144227305827 0.9975749467079346 -0.01627636489839228 0.0022302417916929894 0.0065208085684982575
0.03126302626094 0.0024365325632770976 0.008206576195106225 0.9973045725186551 -0.02037356626352734 0.00030316128391177997 0.004182597693963252 -0.0002702171047982873 -0.0026338271859884686
 0.9973045725186551 -0.02037356626352734 0.0024370172082315527 0.008206519395811554 -0.0002702830376134742 -0.0026338327516581533 0.00029951657160518446 0.004183054029204607
 0.00030316128391177997 0.004182597693963252 -0.0002702830376134742 -0.0026338327516581533 0.0024364836375018314 0.00820616496285431 0.9973045659178238 -0.020373984399669434
 -0.0002702171047982873 -0.0026338271859884686 0.00029951657160518446 0.004183054029204607 0.9973045659178238 -0.020373984399669434 0.002437053616251595 0.008206097767084738
0.037515631513130004 0.0026584994521922857 0.009910794456854975 0.99701295834253 -0.024485013750299937 0.0003784846707377017 0.005021595216989365 -0.00033405102511504636 -0.003165012632502078
 0.99701295834253 -0.024485013750299937 0.0026591968428991528 0.009910722914448108 -0.0003341455011739642 -0.003165018152234286 0.000373236550152901 0.005022228435768363
 0.0003784846707377017 0.005021595216989365 -0.0003341455011739642 -0.003165018152234286 0.0026584293813295377 0.009910302239684986 0.9970129491570225 -0.0244855155884485
 -0.00033405102511504636 -0.003165012632502078 0.000373236550152901 0.005022228435768363 0.9970129491570225 -0.0244855155884485 0.002659249652428723 0.0099102173661814
0.043768236765320004 0.002896129268344444 0.011633264627967292 0.9966998143375344 -0.02861058112495033 0.0004629145102978954 0.005861301657344443 -0.0004053721172600794 -0.0036972696398166667
 0.9966998143375344 -0.02861058112495033 0.002897077922308528 0.011633177173382437 -0.00040550013932993755 -0.0036972746030314797 0.00045577027905943407 0.005862148760657117
 0.0004629145102978954 0.005861301657344443 -0.00040550013932993755 -0.0036972746030314797 0.0028960342813313315 0.01163269201896111 0.9966998021347719 -0.0286111667826455
 -0.0004053721172600794 -0.0036972696398166667 0.00045577027905943407 0.005862148760657117 0.9966998021347719 -0.0286111667826455 0.0028971502006352014 0.01163258787171054
0.050020842017509996 0.003149739121054839 0.013373516144117675 0.9963648443163952 -0.0327503566785673 0.0005565422582633171 0.006701613870051877 -0.0004842755763352364 -0.004230467089233937
 0.9963648443163952 -0.0327503566785673 0.003150977547688208 0.013373411594955881 -0.00048444210520353595 -0.004230470931826356 0.0005472085535399492 0.006702715563531096
 0.0005565422582633171 0.006701613870051877 -0.00048444210520353595 -0.004230470931826356 0.003149615452886224 0.01337286381227838 0.9963648286551382 -0.03275102631239932
 -0.0004842755763352364 -0.004230467089233937 0.0005472085535399492 0.006702715563531096 0.9963648286551382 -0.03275102631239932 0.003151072374363645 0.013372738719716275
0.055454545454549996 0.00338335587453688 0.014899972213926558 0.9960557890190208 -0.03635949645190102 0.0006454474172335932 0.007432276687380746 -0.0005590753985903988 -0.004694495098417579
 0.9960557890190208 -0.03635949645190102 0.003384877399094814 0.014899851839299266 -0.0005592793882119221 -0.00469449746750718 0.0006339722335456058 0.00743363559621004
 0.0006454474172335932 0.007432276687380746 -0.0005592793882119221 -0.00469449746750718 0.003383204230639279 0.014899251218152923 0.9960557699877084 -0.036360239206269206
 -0.0005590753985903988 -0.004694495098417579 0.0006339722335456058 0.00743363559621004 0.9960557699877084 -0.036360239206269206 0.003384994334083275 0.014899106507269262
0.056273447269699996 0.003419643572184903 0.015131143805576876 0.9960077510807357 -0.036904352208010915 0.0006594579742596985 0.007542421020048132 -0.0005708547115848081 -0.0047644756140751785
 0.9960077510807357 -0.036904352208010915 0.003421210284325303 0.015131020967217567 -0.0005710646674066838 -0.004764477718472616 0.0006476407720597885 0.007543821758653384
 0.0006594579742596985 0.007542421020048132 -0.0005710646674066838 -0.004764477718472616 0.0034194874666144963 0.015130412516222998 0.9960077315117991 -0.03690510599397928
 -0.0005708547115848081 -0.0047644756140751785 0.0006476407720597885 0.007543821758653384 0.9960077315117991 -0.03690510599397928 0.0034213307546388095 0.015130264731224606
0.06252605252188 0.0037061549833011243 0.01690578384422172 0.9956282370117061 -0.04107252688128848 0.0007717501658714906 0.00838360618017125 -0.000665200926420208 -0.005299166014715905
 0.9956282370117061 -0.04107252688128848 0.003708088508881032 0.016905641510527758 -0.0006654591897729467 -0.0052991657099088225 0.000757154793333275 0.008385354213097803
 0.0007717501658714906 0.00838360618017125 -0.0006654591897729467 -0.0052991657099088225 0.0037059626945926145 0.016904974441643465 0.9956282130772386 -0.0410733650327769
 -0.000665200926420208 -0.005299166014715905 0.000757154793333275 0.008385354213097803 0.9956282130772386 -0.0410733650327769 0.003708237734807043 0.01690480214144562
0.06877865777407 0.004009583697439377 0.018697099635920707 0.9952260044997756 -0.04525480146133647 0.0008935056559920035 0.009225047289680632 -0.0007674036749185407 -0.0058344083174606725
 0.9952260044997756 -0.04525480146133647 0.004011922590734384 0.01869693658964365 -0.0007677150874657224 -0.00583440487906625 0.0008758368134394952 0.009227194705260837
 0.0008935056559920035 0.009225047289680632 -0.0007677150874657224 -0.00583440487906625 0.004009351490958414 0.018696213050905665 0.9952259757313882 -0.04525572422223256
 -0.0007674036749185407 -0.0058344083174606725 0.0008758368134394952 0.009227194705260837 0.9952259757313882 -0.04525572422223256 0.004012103701417014 0.018696014336488764
0.07503126302626001 0.004330238121299091 0.020504772638787423 0.9948007562784784 -0.049451067308612005 0.0010248094627739572 0.010066617766473634 -0.0008775504054048316 -0.006370071184393014
 0.9948007562784784 -0.049451067308612005 0.004333020973753765 0.020504587651630792 -0.0008779197703023577 -0.006370063834712641 0.0010037712526861505 0.01006922053688264
 0.0010248094627739572 0.010066617766473634 -0.0008779197703023577 -0.006370063834712641 0.004329962274528557 0.020503809895110015 0.9948007221962701 -0.049452074947377016
 -0.0008775504054048316 -0.006370071184393014 0.0010037712526861505 0.01006922053688264 0.9948007221962701 -0.049452074947377016 0.004333237116602958 0.02050358279029544
0.08128386827845 0.004668424744516451 0.02232849638728865 0.994352195699343 -0.053661192332650834 0.0011657446884971545 0.010908186918197187 -0.0009957264940275105 -0.006906021529196764
 0.994352195699343 -0.053661192332650834 0.004671690196040986 0.022328288219621597 -0.0009961585762454876 -0.006906009437294746 0.0011410406501920496 0.010911304943857192
 0.0011657446884971545 0.010908186918197187 -0.0009961585762454876 -0.006906009437294746 0.004668101548783069 0.022327458593963807 0.9943521558111811 -0.05366228515062319
 -0.0009957264940275105 -0.006906021529196764 0.0011410406501920496 0.010911304943857192 0.9943521558111811 -0.05366228515062319 0.004671944537868014 0.022327201044119685
0.08753647353064001 0.00502444811845978 0.024167972319331394 0.9938800269702315 -0.05788502511608544 0.0013163924125964039 0.011749620238585829 -0.0011220151735133678 -0.007442124252829154
 0.9938800269702315 -0.05788502511608544 0.005028234868456674 0.02416773971947447 -0.001122514700027865 -0.007442106534595174 0.0012877255611028224 0.011753317392082234
 0.0013163924125964039 0.011749620238585829 -0.001122514700027865 -0.007442106534595174 0.005024073880662501 0.024166860678347783 0.9938799807703549 -0.057886203440223494
 -0.0011220151735133678 -0.007442124252829154 0.0012877255611028224 0.011753317392082234 0.9938799807703549 -0.057886203440223494 0.005028530596555372 0.024166570548801336
0.09378907878283 0.005398610806994482 0.026022906807725933 0.9933839553683034 -0.062122397839826954 0.0014768315891336237 0.012590779614290726 -0.001256497456170421 -0.007978242073886933
 0.9933839553683034 -0.062122397839826954 0.005402957625598899 0.026022648510977926 -0.0012570691160147499 -0.007978217792121472 0.0014439044582487252 0.01259512378383099
 0.0014768315891336237 0.012590779614290726 -0.0012570691160147499 -0.007978217792121472 0.0053981818509339415 0.026021722611005306 0.9933839023366091 -0.06212366202613669
 -0.001256497456170421 -0.007978242073886933 0.0014439044582487252 0.01259512378383099 0.9933839023366091 -0.06212366202613669 0.005403297948782436 0.026021397684988484
0.100041684035 0.005791213315708708 0.02789300898342806 0.9928636874359628 -0.06637312842238734 0.0016471389460000682 0.013431523497568296 -0.001399252054572416 -0.0085142353984787
 0.9928636874359628 -0.06637312842238734 0.0057961590548339615 0.0278927237106537 -0.0013999004987996274 -0.008514203562981883 0.0016096536343382217 0.01343658662984188
 0.0016471389460000682 0.013431523497568296 -0.0013999004987996274 -0.008514203562981883 0.00579072598350626 0.02789175361161479 0.9928636270367345 -0.06637447885752448
 -0.001399252054572416 -0.0085142353984787 0.0016096536343382217 0.01343658662984188 0.9928636270367345 -0.06637447885752448 0.005796547204609388 0.02789139158793491
0.1059090909091 0.00617666575122728 0.029661438253834296 0.9923532047300649 -0.07037396374698503 0.001815995646645255 0.01421996558186998 -0.001540803710764411 -0.009016968609136767
 0.9923532047300649 -0.07037396374698503 0.006182208932173906 0.02966112648911534 -0.0015415284052319148 -0.009016928737552037 0.0017739616831158513 0.014225772471485139
 0.001815995646645255 0.01421996558186998 -0.0015415284052319148 -0.009016928737552037 0.006176120330029434 0.02966011742939937 0.9923531369145957 -0.07037539549376186
 -0.001540803710764411 -0.009016968609136767 0.0017739616831158513 0.014225772471485139 0.9923531369145957 -0.07037539549376186 0.006182644921718666 0.029659718422949843
0.1062942892872 0.006202554007006021 0.02977798909526282 0.9923189311657533 -0.07063702212896678 0.0018273888861812984 0.01427170703326644 -0.001550355299137103 -0.009049962241240115
 0.9923189311657533 -0.07063702212896678 0.00620813761202883 0.029777675551070255 -0.0015510851408140512 -0.009049921808899755 0.0017850471061563256 0.014277565175657397
 0.0018273888861812984 0.01427170703326644 -0.0015510851408140512 -0.009049921808899755 0.0062020046606199785 0.02977666402101337 0.9923188628459753 -0.07063845922720668
 -0.001550355299137103 -0.009049962241240115 0.0017850471061563256 0.014277565175657397 0.9923188628459753 -0.07063845922720668 0.006208576843013697 0.029776262511272057
0.11254689453939999 0.006632929002030934 0.03167755726726932 0.9917493961742844 -0.07491387278896042 0.0020176533900470744 0.015111182168859132 -0.0017098810541335608 -0.009585278168989731
 0.9917493961742844 -0.07491387278896042 0.0066391895229455985 0.03167721413786391 -0.0017106968681712706 -0.009585228043886123 0.0019701565193848396 0.015117915510949563
 0.0020176533900470744 0.015111182168859132 -0.0017106968681712706 -0.009585228043886123 0.00663231402545709 0.03167616405539849 0.9917493193635837 -0.07491539699228462
 -0.0017098810541335608 -0.009585278168989731 0.0019701565193848396 0.015117915510949563 0.9917493193635837 -0.07491539699228462 0.006639683114769976 0.03167572058083303
0.11879949979160001 0.007082632075921549 0.033591422526437265 0.9911547938735762 -0.07920346374991837 0.0022180019186526156 0.015949797748820136 -0.001877900631941977 -0.010120036265675852
 0.9911547938735762 -0.07920346374991837 0.007089608678914178 0.0335910484769827 -0.001878806954965439 -0.010119975299191997 0.0021650510543537505 0.01595749066313596
 0.0022180019186526156 0.015949797748820136 -0.001878806954965439 -0.010119975299191997 0.007081947876247573 0.03358996283441354 0.99115470798238 -0.07920507552773323
 -0.001877900631941977 -0.010120036265675852 0.0021650510543537505 0.01595749066313596 0.99115470798238 -0.07920507552773323 0.007090159936676194 0.03358947482230107
0.1250521050438 0.007551954543499898 0.03551929204107299 0.9905348376356565 -0.08350556862753945 0.002428501317718982 0.016787399596917323 -0.002054482706453694 -0.010654087115281848
 0.9905348376356565 -0.08350556862753945 0.0075596865226608455 0.03551888571264256 -0.0020554840365853482 -0.010654014106198182 0.0023697973318890014 0.016796140678870992
 0.002428501317718982 0.016787399596917323 -0.0020554840365853482 -0.010654014106198182 0.00755119755290411 0.03551776761672691 0.9905347420541369 -0.08350726847891198
 -0.002054482706453694 -0.010654087115281848 0.0023697973318890014 0.016796140678870992 0.9905347420541369 -0.08350726847891198 0.007560298778105202 0.03551723239643075
0.131304710296 0.00804118514032086 0.03746087051027072 0.9898892429543005 -0.08781995191121776 0.002649215722094308 0.017623830590823984 -0.0022396932253973675 -0.011187278798283993
 0.9898892429543005 -0.08781995191121776 0.008049711929447667 0.03746043051641898 -0.002240794022010367 -0.011187192492926537 0.0025844593203318586 0.017633712697804442
 0.002649215722094308 0.017623830590823984 -0.002240794022010367 -0.011187192492926537 0.008040351817902578 0.03745928319575431 0.9898891370512983 -0.08782174036106451
 -0.0022396932253973675 -0.011187278798283993 0.0025844593203318586 0.017633712697804442 0.9898891370512983 -0.08782174036106451 0.008050388541924377 0.0374586979942779
0.1375573155481 0.00843887395883519 0.03916251869814855 0.989329506244855 -0.0918929137259058 0.002852780270074541 0.018433636269321978 -0.002406249297964838 -0.011694121744709216
 0.989329506244855 -0.0918929137259058 0.008448238691366875 0.03916205303659898 -0.002407456279000263 -0.011694022037292464 0.0027818285918218217 0.018444645603045536
 0.002852780270074541 0.018433636269321978 -0.002407456279000263 -0.011694022037292464 0.008437961395128046 0.039160869984682926 0.989329389534864 -0.09189479110542983
 -0.002406249297964838 -0.011694121744709216 0.0027818285918218217 0.018444645603045536 0.989329389534864 -0.09189479110542983 0.008448982137168198 0.03916024182600067
0.1438099208003 0.008850567649536146 0.04085509666993349 0.9887500512325476 -0.0959554444617093 0.0030645721913285105 0.019240062607402585 -0.002579464579085645 -0.01219790448887356
 0.9887500512325476 -0.0959554444617093 0.008860810519842739 0.040854604370877914 -0.0025807825547469144 -0.012197790142952095 0.0029871539620555487 0.019252284047202146
 0.0030645721913285105 0.019240062607402585 -0.0025807825547469144 -0.012197790142952095 0.008849572455625234 0.040853388452730184 0.9887499230833294 -0.09595741128955598
 -0.002579464579085645 -0.01219790448887356 0.0029871539620555487 0.019252284047202146 0.9887499230833294 -0.09595741128955598 0.00886162403965234 0.04085271498431172
0.1500625260525 0.009276119636257671 0.04253845986092774 0.9881510286329716 -0.10000743996571074 0.003284517656404663 0.020043023730487296 -0.0027592679982001355 -0.012698547272292075
 0.9881510286329716 -0.10000743996571074 0.009287280992774535 0.04253793985197017 -0.002760701768652049 -0.012698417001691923 0.0032003632519285777 0.020056545246312157
 0.003284517656404663 0.020043023730487296 -0.002760701768652049 -0.012698417001691923 0.0092750384562077 0.04253669410975268 0.9881508883939433 -0.10000949678055412
 -0.0027592679982001355 -0.012698547272292075 0.0032003632519285777 0.020056545246312157 0.9881508883939433 -0.10000949678055412 0.009288167844055504 0.04253597282115667
0.15631513130469998 0.009715382282339334 0.04421246806654757 0.9875325899500005 -0.10404879652423124 0.0035125419455996365 0.02084243523384985 -0.0029455875963200527 -0.013195972041235423
 0.9875325899500005 -0.10404879652423124 0.009727502631934148 0.04421191916661744 -0.002947141951507931 -0.013195824510266919 0.0034213834170602445 0.020857347853507614
