! Created with skrf 1.8.0 (http://scikit-rf.org).
# GHz S RI R 50.0 
!freq ReS11 ImS11 ReS12 ImS12 ReS13 ImS13
! ReS14 ImS14
! ReS21 ImS21 ReS22 ImS22 ReS23 ImS23
! ReS24 ImS24
! ReS31 ImS31 ReS32 ImS32 ReS33 ImS33
! ReS34 ImS34
! ReS41 ImS41 ReS42 ImS42 ReS43 ImS43
! ReS44 ImS44
!
0.0 0.001890584625641 0.0 0.9981094153666 0.0 7.352842311099e-05 0.0 -7.352842336547e-05 9.004634832087429e-21
 0.9981094153666 0.0 0.001890584625625 0.0 -7.352842336556e-05 9.00463483209845e-21 7.35284231094e-05 0.0
 7.352842311099e-05 0.0 -7.352842336556e-05 9.00463483209845e-21 0.001890584626705 0.0 0.9981094153676 0.0
 -7.352842336547e-05 9.004634832087429e-21 7.35284231094e-05 0.0 0.9981094153676 0.0 0.001890584626686 0.0
0.005 0.002035335415269824 0.001544967253852227 0.9979260756927767 -0.003959053647438893 0.00010381125126575888 0.0008132615611661949 -0.00010070143769010954 -0.0005096973768809359
 0.9979260756927767 -0.003959053647438893 0.0020353431284951136 0.0015449626684445766 -0.00010069948533575378 -0.0005096958304686536 0.00010377322130174738 0.0008132760960780095
 0.00010381125126575888 0.0008132615611661949 -0.00010069948533575378 -0.0005096958304686536 0.002035337053660959 0.0015450335397123622 0.9979260760855627 -0.003958986577006737
 -0.00010070143769010954 -0.0005096973768809359 0.00010377322130174738 0.0008132760960780095 0.9979260760855627 -0.003958986577006737 0.0020353422689712674 0.0015450305184942098
0.006252605252188 0.0020736647431695166 0.0019372378806005518 0.9978771653858935 -0.004949726213440796 0.00011266224232575926 0.0010169456094310326 -0.00010854227443266269 -0.0006377589215771568
 0.9978771653858935 -0.004949726213440796 0.00207367680106396 0.0019372320588371262 -0.00010853923683000465 -0.0006377570147292171 0.00011260282543210767 0.0010169644972389895
 0.00011266224232575926 0.0010169456094310326 -0.00010853923683000465 -0.0006377570147292171 0.0020736672292249554 0.0019373207095384017 0.9978771659243552 -0.004949642394436178
 -0.00010854227443266269 -0.0006377589215771568 0.00011260282543210767 0.0010169644972389895 0.9978771659243552 -0.004949642394436178 0.002073675381346664 0.001937316856606588
0.01250521050438 0.0022775658109541195 0.0039145235950475525 0.997614999457223 -0.009899809376329916 0.0001644728877541272 0.0020340609155963456 -0.00015393570824961286 -0.0012783648534297905
 0.997614999457223 -0.009899809376329916 0.0022776139686209174 0.003914511022336119 -0.00015392374270086772 -0.001278361330758595 0.0001642359782532443 0.002034106561817737
 0.0001644728877541272 0.0020340609155963456 -0.00015392374270086772 -0.001278361330758595 0.002277575158815872 0.0039146888905883664 0.9976150010230066 -0.009899641975084816
 -0.00015393570824961286 -0.0012783648534297905 0.0001642359782532443 0.002034106561817737 0.9976150010230066 -0.009899641975084816 0.0022776077050593747 0.003914680421326595
0.01875781575657 0.002502807827958504 0.005919320577735606 0.9973225390578566 -0.01486220448534668 0.00022909120045274024 0.0030519675710093696 -0.0002098633040011757 -0.0019208321634578702
 0.9973225390578566 -0.01486220448534668 0.002502916061129182 0.005919300204223814 -0.00020983662873347598 -0.0019208273815858707 0.00022855908948319392 0.003052049641653782
 0.00022909120045274024 0.0030519675710093696 -0.00020983662873347598 -0.0019208273815858707 0.0025028284183142764 0.00591956804758129 0.9973225421535377 -0.014861953582263422
 -0.0002098633040011757 -0.0019208321634578702 0.00022855908948319392 0.003052049641653782 0.9973225421535377 -0.014861953582263422 0.002502901541793399 0.0059195541645269125
0.02501042100875 0.0027498905796151016 0.007948722630913643 0.9969993889129332 -0.019839216933445213 0.00030664914700895046 0.004070643533909928 -0.00027647281911943883 -0.002564808455252563
 0.9969993889129332 -0.019839216933445213 0.0027500828295037175 0.007948693294066089 -0.00027642572514946604 -0.002564802842159167 0.0003057041497759078 0.004070773439028659
 0.00030664914700895046 0.004070643533909928 -0.00027642572514946604 -0.002564802842159167 0.002749926788008124 0.00794905194519414 0.9969993940409216 -0.019838882561296695
 -0.00027647281911943883 -0.002564808455252563 0.0003057041497759078 0.004070773439028659 0.9969993940409216 -0.019838882561296695 0.002750056634952604 0.007949031822171503
0.03126302626094 0.0030192927971522503 0.01000118381836769 0.9966451366722711 -0.024831772629622773 0.00039727802344832156 0.005089971009320846 -0.00035390650011505605 -0.0032100266891419856
 0.9966451366722711 -0.024831772629622773 0.003019592983605561 0.010001144243795073 -0.0003538333393765318 -0.0032100207447749124 0.00039580238245071514 0.005090161912400434
 0.00039727802344832156 0.005089971009320846 -0.0003538333393765318 -0.0032100207447749124 0.003019348991299722 0.010001594599961828 0.9966451443319353 -0.024831354782748102
 -0.00035390650011505605 -0.0032100266891419856 0.00039580238245071514 0.005090161912400434 0.9966451443319353 -0.024831354782748102 0.0030195516812576225 0.010001567383290529
0.037515631513130004 0.0033114816253383083 0.012075658054944437 0.9962593628713372 -0.02984027836806976 0.0005011070809488778 0.006109793398660052 -0.0004423020776913973 -0.00385624829867326
 0.9962593628713372 -0.02984027836806976 0.0033119136556679658 0.01207560685595827 -0.0004421972570216803 -0.003856242595014939 0.0004989829303529166 0.006110060232129838
 0.0005011070809488778 0.006109793398660052 -0.0004421972570216803 -0.003856242595014939 0.0033115621729943464 0.012076149852513067 0.9962593735678543 -0.029839777028604006
 -0.0004423020776913973 -0.00385624829867326 0.0004989829303529166 0.006110060232129838 0.9962593735678543 -0.029839777028604006 0.0033118538068718805 0.012076114661788593
0.043768236765320004 0.003626916256773124 0.014171337251609432 0.9958416450628744 -0.03486488362954863 0.0006182628520992069 0.007129932648612386 -0.0005417930787231889 -0.004503245910732201
 0.9958416450628744 -0.03486488362954863 0.0036275040331142524 0.014171272928451004 -0.0005416510564856307 -0.004503241091768028 0.0006153722082767966 0.007130292131223908
 0.0006182628520992069 0.007129932648612386 -0.0005416510564856307 -0.004503241091768028 0.0036270255214530655 0.014171909545487082 0.9958416593036212 -0.034864298760591474
 -0.0005417930787231889 -0.004503245910732201 0.0006153722082767966 0.007130292131223908 0.9958416593036212 -0.034864298760591474 0.003627422187651713 0.014171865474011988
0.050020842017509996 0.003966049575611821 0.016287543122396584 0.9953915599610674 -0.03990558872202792 0.0007488687184079022 0.008150196427145501 -0.0006525089015757658 -0.005150796246034692
 0.9953915599610674 -0.03990558872202792 0.0039668170001099295 0.016287464061264467 -0.0006523241853901999 -0.005150793027660661 0.0007450934843459265 0.008150667081913794
 0.0007488687184079022 0.008150196427145501 -0.0006523241853901999 -0.005150793027660661 0.003966191917353655 0.01628819532542835 0.995391578258146 -0.039904920266113725
 -0.0006525089015757658 -0.005150796246034692 0.0007450934843459265 0.008150667081913794 0.995391578258146 -0.039904920266113725 0.003966709697811828 0.016288141440465507
0.055454545454549996 0.004280360528411894 0.018142791764505933 0.9949738077636908 -0.04429911662539336 0.0008733855111259609 0.009036780225617404 -0.0007579376081808579 -0.0057138130831360465
 0.9949738077636908 -0.04429911662539336 0.004281303488650486 0.01814269849538364 -0.0007577113664340688 -0.005713811892881756 0.0008687455540768845 0.00903736395009015
 0.0008733855111259609 0.009036780225617404 -0.0007577113664340688 -0.005713811892881756 0.0042805351523889845 0.018143512880529584 0.994973830005452 -0.04429837546781407
 -0.0007579376081808579 -0.0057138130831360465 0.0008687455540768845 0.00903736395009015 0.994973830005452 -0.04429837546781407 0.004281171244725178 0.018143449689611287
0.056273447269699996 0.004329328961885306 0.01842367409160639 0.9949086847548043 -0.04496229782860156 0.0008930445835097695 0.009170381680969886 -0.0007745747859824986 -0.005798676647763556
 0.9949086847548043 -0.04496229782860156 0.004330299942824691 0.018423578563226194 -0.000774341931413014 -0.005798675817668978 0.0008882665622152972 0.0091709838531034
 0.0008930445835097695 0.009170381680969886 -0.000774341931413014 -0.005798675817668978 0.004329508736184085 0.018424405545085988 0.9949087076252765 -0.04496154571089388
 -0.0007745747859824986 -0.005798676647763556 0.0008882665622152972 0.0091709838531034 0.9949087076252765 -0.04496154571089388 0.004330163712264482 0.018424340887820717
0.06252605252188 0.004717196682449884 0.02057917612214889 0.9943925980123759 -0.05003484814395536 0.0010509066034145003 0.010190276601869422 -0.0009081117260043545 -0.0064466632120282015
 0.9943925980123759 -0.05003484814395536 0.004718395138954171 0.02057906228020865 -0.0009078253356867002 -0.006446665629581046 0.0010450075166147522 0.010191032476588494
 0.0010509066034145003 0.010190276601869422 -0.0009078253356867002 -0.006446665629581046 0.004717418239133866 0.020579986093163805 0.9943926259786787 -0.0500340122741122
 -0.0009081117260043545 -0.0064466632120282015 0.0010450075166147522 0.010191032476588494 0.9943926259786787 -0.0500340122741122 0.004718226496582718 0.020579909678468386
0.06877865777407 0.005130090052078102 0.02275352533241742 0.9938428803628971 -0.05512302723421182 0.0012225669453101613 0.01120966182748783 -0.0010532363532015645 -0.007094529695509083
 0.9938428803628971 -0.05512302723421182 0.005131539919199467 0.022753391211754095 -0.0010528910762818235 -0.0070945362916111 0.001215428456762237 0.011210595447459771
 0.0012225669453101613 0.01120966182748783 -0.0010528910762818235 -0.0070945362916111 0.005130357734480704 0.022754413011771744 0.9938429139537311 -0.05512210750776241
 -0.0010532363532015645 -0.007094529695509083 0.001215428456762237 0.011210595447459771 0.9938429139537311 -0.05512210750776241 0.0051313353692749725 0.022754323827719792
0.07503126302626001 0.005568441458802862 0.024946216992041723 0.9932591150477315 -0.060226584030890006 0.00140813356504787 0.012228311226985502 -0.0012100608006913264 -0.007742046850215837
 0.9932591150477315 -0.060226584030890006 0.005570166692355555 0.024946060506561 -0.0012096513325601866 -0.0077420586271629895 0.0013996373068244426 0.012229448509335784
 0.00140813356504787 0.012228311226985502 -0.0012096513325601866 -0.0077420586271629895 0.005568759603061272 0.024947181497522217 0.9932591547992424 -0.0602255803252034
 -0.0012100608006913264 -0.007742046850215837 0.0013996373068244426 0.012229448509335784 0.9932591547992424 -0.0602255803252034 0.0055699227266328725 0.024947078504769023
0.08128386827845 0.006032678305146377 0.02715675821695286 0.9926408883927335 -0.06534523613938621 0.001607709996072439 0.013245992450233493 -0.0013786925553410025 -0.008388982007304308
 0.9926408883927335 -0.06534523613938621 0.006034702885940262 0.027156577157376783 -0.0013782136374871905 -0.00838900003863464 0.0015977375972044 0.013247361203075706
 0.001607709996072439 0.013245992450233493 -0.0013782136374871905 -0.00838900003863464 0.006033051238464998 0.027157798587714572 0.9926409348487026 -0.06534414831868487
 -0.0013786925553410025 -0.008388982007304308 0.0015977375972044 0.013247361203075706 0.9926409348487026 -0.06534414831868487 0.006034415983013122 0.02715768071846644
0.08753647353064001 0.006523222890242941 0.029384662938651267 0.9919877902272652 -0.07047867488781996 0.00182139514656539 0.01426246732866366 -0.001559234301241846 -0.009035098822121824
 0.9919877902272652 -0.07047867488781996 0.0065255708290773 0.029384454969861574 -0.0015586807213285338 -0.00903512425245324 0.0018098282641975066 0.014264097266965297
 0.00182139514656539 0.01426246732866366 -0.0015586807213285338 -0.00903512425245324 0.006523654930037035 0.029385778135125277 0.9919878439397645 -0.07047750280264381
 -0.001559234301241846 -0.009035098822121824 0.0018098282641975066 0.014264097266965297 0.9919878439397645 -0.07047750280264381 0.006525237453866816 0.029385644291968892
0.09378907878283 0.007040492254244882 0.03162944831353256 0.9912994142689358 -0.0756265689509821 0.002049283101867771 0.01527749219613686 -0.0017517837585985345 -0.009680157112252936
 0.9912994142689358 -0.0756265689509821 0.00704318759615718 0.03162921097184282 -0.0017511503505534967 -0.009680191157111282 0.0020360034539278413 0.015279414957028009
 0.002049283101867771 0.01527749219613686 -0.0017511503505534967 -0.009680191157111282 0.0070409877067333995 0.03163063722070288 0.991299475799156 -0.0756253124342873
 -0.0017517837585985345 -0.009680157112252936 0.0020360034539278413 0.015279414957028009 0.991299475799156 -0.0756253124342873 0.007042804199855596 0.03163048627522971
0.100041684035 0.007584897993858583 0.03389063212682738 0.9905753584838825 -0.08078856699510854 0.002291462931464548 0.016290818144921566 -0.00195643351862953 -0.010323912773969315
 0.9905753584838825 -0.08078856699510854 0.007587964822455246 0.033890362816951444 -0.0019557151629003384 -0.010323956719608953 0.0022763523307217483 0.01629306730236743
 0.002291462931464548 0.016290818144921566 -0.0019557151629003384 -0.010323956719608953 0.007585461153221489 0.033891893549640846 0.9905754284035145 -0.08078722586641736
 -0.00195643351862953 -0.010323912773969315 0.0022763523307217483 0.01629306730236743 0.9905754284035145 -0.08078722586641736 0.007587527842081646 0.03389172434069942
0.1059090909091 0.00812080696677576 0.03602699680242096 0.9898631044166719 -0.08564505331053045 0.00253179609239137 0.01723994579295325 -0.002159558537767381 -0.01092660353740072
 0.9898631044166719 -0.08564505331053045 0.00812424433850557 0.036026695013219784 -0.0021587558531766205 -0.01092665800655578 0.002514859962697309 0.017242533511568937
 0.00253179609239137 0.01723994579295325 -0.0021587558531766205 -0.01092665800655578 0.008121437555054739 0.03602832511501296 0.9898631827379895 -0.0856436326062216
 -0.002159558537767381 -0.01092660353740072 0.002514859962697309 0.017242533511568937 0.9898631827379895 -0.0856436326062216 0.008123753821723432 0.03602813768076049
0.1062942892872 0.008156846057031712 0.03616773084575735 0.9898152254304025 -0.0859642996897418 0.0025480184992915022 0.01730219124852813 -0.002173270876102521 -0.010966117745413933
 0.9898152254304025 -0.0859642996897418 0.0081603084990979 0.036167426837450625 -0.0021724624999632024 -0.010966172948635276 0.002530958889245244 0.017304802327157663
 0.0025480184992915022 0.01730219124852813 -0.0021724624999632024 -0.010966172948635276 0.008157481203556407 0.03616906350893026 0.9898153043213914 -0.0859628737548706
 -0.002173270876102521 -0.010966117745413933 0.002530958889245244 0.017304802327157663 0.9898153043213914 -0.0859628737548706 0.008159814357093636 0.03616887484063374
0.11254689453939999 0.008756736522328041 0.03846025815419047 0.9890186225889863 -0.09115338125439837 0.0028190282770628465 0.018311352761666077 -0.002402377660887262 -0.011606520006441226
 0.9890186225889863 -0.09115338125439837 0.008760618751992763 0.038459916578635435 -0.002401474238749289 -0.011606587894353796 0.0027999017687183585 0.018314363249931995
 0.0028190282770628465 0.018311352761666077 -0.002401474238749289 -0.011606587894353796 0.008757447921404564 0.03846166070287028 0.989018711044977 -0.09115187030435823
 -0.002402377660887262 -0.011606520006441226 0.0027999017687183585 0.018314363249931995 0.989018711044977 -0.09115187030435823 0.008760063856030977 0.03846145134241036
0.11879949979160001 0.00938496336662482 0.040767723836747614 0.9881851626843962 -0.09635541067253331 0.003104565160735291 0.019318039302568354 -0.002643830068407606 -0.012244863609892638
 0.9881851626843962 -0.09635541067253331 0.009389289609743336 0.04076734168274834 -0.0026428266222599446 -0.012244945679728472 0.0030832540705984057 0.019321488665153305
 0.003104565160735291 0.019318039302568354 -0.0026428266222599446 -0.012244945679728472 0.009385755267065775 0.04076919483555654 0.9881852613109452 -0.09635381448413911
 -0.002643830068407606 -0.012244863609892638 0.0030832540705984057 0.019321488665153305 0.9881852613109452 -0.09635381448413911 0.009388670352082264 0.04076896351065403
0.1250521050438 0.010041914223130884 0.043089632907242235 0.9873144639988276 -0.10156997267824917 0.003404696289042004 0.02032198302680346 -0.002897698490666855 -0.012880888735721865
 0.9873144639988276 -0.10156997267824917 0.010046708761257005 0.04308920701711887 -0.002896590090522039 -0.012880986554608918 0.0033810831783210446 0.02032591271608529
 0.003404696289042004 0.02032198302680346 -0.002896590090522039 -0.012880986554608918 0.010042790855951018 0.0430911708379889 0.9873145734147516 -0.10156829101624318
 -0.002897698490666855 -0.012880888735721865 0.0033810831783210446 0.02032591271608529 0.9873145734147516 -0.10156829101624318 0.010046021518875592 0.04309091623406815
0.131304710296 0.010727970132973873 0.04542548493841308 0.9864061506810656 -0.10679663855935573 0.0037194828650579793 0.02132291179851339 -0.0031640473478614403 -0.013514331761573307
 0.9864061506810656 -0.10679663855935573 0.01073325730745338 0.0454250120035205 -0.0031628291122379176 -0.013514446966264906 0.0036934505796470687 0.021327365265287807
 0.0037194828650579793 0.02132291179851339 -0.0031628291122379176 -0.013514446966264906 0.010728935709645148 0.04542708820431745 0.9864062715185619 -0.10679487117178103
 -0.0031640473478614403 -0.013514331761573307 0.0036934505796470687 0.021327365265287807 0.9864062715185619 -0.10679487117178103 0.010732498441503138 0.04542680896145627
0.1375573155481 0.011298653843455035 0.04747132500043451 0.9856047880074107 -0.11173130637658206 0.004012966201866341 0.022291900571322992 -0.003406958174117422 -0.014116282812326197
 0.9856047880074107 -0.11173130637658206 0.011304458239303214 0.047470809641952154 -0.0034056226502590346 -0.014116415773198731 0.003984455357735092 0.022296876376528295
 0.004012966201866341 0.022291900571322992 -0.0034056226502590346 -0.014116415773198731 0.01129971174707044 0.04747299244942385 0.9856049207977257 -0.11172945314632213
 -0.003406958174117422 -0.014116282812326197 0.003984455357735092 0.022296876376528295 0.9856049207977257 -0.11172945314632213 0.011303625121202646 0.04747269445984409
0.1438099208003 0.011889744561075225 0.049503970845875385 0.9847745361577003 -0.11665100396078064 0.004318202871091609 0.023255427093858524 -0.0036594610620190892 -0.014713227288625796
 0.9847745361577003 -0.11665100396078064 0.011896090593874533 0.04950341016996907 -0.0036580029762313814 -0.014713379644925523 0.004287107113330416 0.02326096544840648
 0.004318202871091609 0.023255427093858524 -0.0036580029762313814 -0.014713379644925523 0.011890898829629027 0.04950570086603707 0.9847746815311534 -0.11664906465246437
 -0.0036594610620190892 -0.014713227288625796 0.004287107113330416 0.02326096544840648 0.9847746815311534 -0.11664906465246437 0.011895179743214036 0.04950538316929473
0.1500625260525 0.012500994085966315 0.05152318113771689 0.9839156487886218 -0.12155553575673775 0.004635060810048671 0.02421334404019425 -0.003921427726753697 -0.015305028237040687
 0.9839156487886218 -0.12155553575673775 0.012507906218797491 0.051522572092010534 -0.003919841821402567 -0.015305201694272184 0.004601274715752901 0.02421948659872854
 0.004635060810048671 0.02421334404019425 -0.003919841821402567 -0.015305201694272184 0.012502248730157546 0.05152497205679124 0.9839158073869166 -0.12155351012483118
 -0.003921427726753697 -0.015305028237040687 0.004601274715752901 0.02421948659872854 0.9839158073869166 -0.12155351012483118 0.012506914151600098 0.051524633611655046
0.15631513130469998 0.013132151977446351 0.05352872180284821 0.9830283813773136 -0.1264447086464138 0.00496340611486548 0.025165507234643662 -0.004192728055135031 -0.015891552154070784
 0.9830283813773136 -0.1264447086464138 0.013139654722322718 0.053528061172991345 -0.0041910090887923475 -0.015891748483737825 0.004926825211898212 0.02517229707414084
