! Created with skrf 1.8.0 (http://scikit-rf.org).
# GHz S RI R 50.0 
!freq ReS11 ImS11 ReS12 ImS12 ReS13 ImS13
! ReS14 ImS14
! ReS21 ImS21 ReS22 ImS22 ReS23 ImS23
! ReS24 ImS24
! ReS31 ImS31 ReS32 ImS32 ReS33 ImS33
! ReS34 ImS34
! ReS41 ImS41 ReS42 ImS42 ReS43 ImS43
! ReS44 ImS44
!
0.0 0.001563565725616 0.0 0.998436434263 0.0 6.074941833917e-05 0.0 -6.074941834031e-05 7.439658072052416e-21
 0.998436434263 0.0 0.001563565725604 0.0 -6.07494183398e-05 7.439658071989959e-21 6.074941834092e-05 0.0
 6.074941833917e-05 0.0 -6.07494183398e-05 7.439658071989959e-21 0.001563565721341 0.0 0.9984364342588 0.0
 -6.074941834031e-05 7.439658072052416e-21 6.074941834092e-05 0.0 0.9984364342588 0.0 0.001563565721358 0.0
0.005 0.0016824218139846552 0.0012714621332426301 0.9982860336655703 -0.0032756553690498234 8.628499883558692e-05 0.0007149275170838639 -8.354008773520631e-05 -0.0004407713649714176
 0.9982860336655703 -0.0032756553690498234 0.0016824186750390498 0.0012714638835024516 -8.354022057453047e-05 -0.0004407713948697964 8.631141379630832e-05 0.0007149175439831124
 8.628499883558692e-05 0.0007149275170838639 -8.354022057453047e-05 -0.0004407713948697964 0.0016824224520727545 0.001271528987158262 0.9982860340281577 -0.003275588294968456
 -8.354008773520631e-05 -0.0004407713649714176 8.631141379630832e-05 0.0007149175439831124 0.9982860340281577 -0.003275588294968456 0.0016824187532017503 0.001271531168197782
0.006252605252188 0.0017136155906020143 0.00159436175952365 0.9982463066543957 -0.004095370433109671 9.358927284192278e-05 0.0008939834552508433 -8.999181320581296e-05 -0.0005515431863958451
 0.9982463066543957 -0.004095370433109671 0.0017136106843622892 0.0015943639588759707 -8.999202049976653e-05 -0.0005515432217228532 9.363054466684987e-05 0.0008939704918504936
 9.358927284192278e-05 0.0008939834552508433 -8.999202049976653e-05 -0.0005515432217228532 0.0017136165164034697 0.0015944453031415784 0.998246307149311 -0.0040952866032476975
 -8.999181320581296e-05 -0.0005515431863958451 9.363054466684987e-05 0.0008939704918504936 0.998246307149311 -0.0040952866032476975 0.0017136107339116987 0.001594448053990791
0.01250521050438 0.001877951067510812 0.003222371386176453 0.9980356072283485 -0.008191561967644355 0.00013552453186596 0.0017881824196400067 -0.00012668975146680613 -0.0011057886898818048
 0.9980356072283485 -0.008191561967644355 0.0018779314853054271 0.0032223758887684013 -0.00012669057540798823 -0.0011057887372090103 0.0001356891436948049 0.0017881511353683797
 0.00013552453186596 0.0017881824196400067 -0.00012669057540798823 -0.0011057887372090103 0.0018779541889635855 0.0032225380877860597 0.9980356086255519 -0.00819139454934497
 -0.00012668975146680613 -0.0011057886898818048 0.0001356891436948049 0.0017881511353683797 0.9980356086255519 -0.00819139454934497 0.0018779310920249534 0.0032225438312393456
0.01875781575657 0.0020569361258702 0.004873716890919231 0.997804070523448 -0.012298546188992584 0.00018665283009312164 0.0026832433868404777 -0.00017095852121187414 -0.0016618720311832218
 0.997804070523448 -0.012298546188992584 0.0020568921403572773 0.004873723787192395 -0.000170960368386367 -0.0016618720599962241 0.00018702268102646158 0.0026831873809525526
 0.00018665283009312164 0.0026832433868404777 -0.000170960368386367 -0.0016618720599962241 0.002056942731897414 0.004873966473772017 0.9978040732496479 -0.012298295227075692
 -0.00017095852121187414 -0.0016618720311832218 0.00018702268102646158 0.0026831873809525526 0.9978040732496479 -0.012298295227075692 0.0020568908171134373 0.004873975462925596
0.02501042100875 0.002250923689693172 0.006546063510481409 0.9975514205288012 -0.016418306253924722 0.00024707307837010847 0.0035792118040574583 -0.00022290930100039123 -0.0022195233497072056
 0.9975514205288012 -0.016418306253924722 0.0022508456007454746 0.006546072872510984 -0.00022291257622595524 -0.0022195233220802823 0.0002477301382515248 0.0035791236636128787
 0.00024707307837010847 0.0035792118040574583 -0.00022291257622595524 -0.0022195233220802823 0.0022509350590088953 0.0065463956531491 0.9975514250027724 -0.016417971750086073
 -0.00022290930100039123 -0.0022195233497072056 0.0002477301382515248 0.0035791236636128787 0.9975514250027724 -0.016417971750086073 0.002250842835891355 0.0065464081473447875
0.03126302626094 0.0024602520387835653 0.00823820530185139 0.9972773673519483 -0.02055168526603096 0.000316884616784524 0.004476045108090724 -0.0002826499114190748 -0.002778554409954607
 0.9972773673519483 -0.02055168526603096 0.0024601301668236908 0.00823821718178119 -0.0002826550180754196 -0.0027785542804659455 0.00031791100028806215 0.00447591640069673
 0.000316884616784524 0.004476045108090724 -0.0002826550180754196 -0.0027785542804659455 0.0024602694520596013 0.008238619639132659 0.997277373997825 -0.020551267177462324
 -0.0002826499114190748 -0.002778554409954607 0.00031791100028806215 0.00447591640069673 0.997277373997825 -0.020551267177462324 0.0024601254359344162 0.00823863590279306
0.037515631513130004 0.002685252034540699 0.009949352602932898 0.9969816146896561 -0.02469909875484327 0.00039618621518582275 0.005373666028825617 -0.00035028565887630625 -0.0033388053086732886
 0.9969816146896561 -0.02469909875484327 0.0026850767147699245 0.009949367031895282 -0.00035029299895067753 -0.0033388050243288955 0.00039766421477255656 0.005373487291492555
 0.00039618621518582275 0.005373666028825617 -0.00035029299895067753 -0.0033388050243288955 0.0026852767722904507 0.009949848718085463 0.9969816239372284 -0.024698597001510978
 -0.00035028565887630625 -0.0033388053086732886 0.00039766421477255656 0.005373487291492555 0.9969816239372284 -0.024698597001510978 0.002685069478947243 0.009949869020048562
0.043768236765320004 0.002926249902564763 0.011678915224977224 0.9966638628577811 -0.02886075141428027 0.00048507560220352957 0.006271978811313688 -0.00042591963731635656 -0.0039001282605948314
 0.9966638628577811 -0.02886075141428027 0.002926011480718776 0.011678932212283496 -0.0004259296113951955 -0.003900127760769753 0.00048708770376595657 0.006271739538108431
 0.00048507560220352957 0.006271978811313688 -0.0004259296113951955 -0.003900127760769753 0.002926283243866929 0.011679492634305962 0.9966638751429746 -0.028860165893920063
 -0.00042591963731635656 -0.0039001282605948314 0.00048708770376595657 0.006271739538108431 0.9966638751429746 -0.028860165893920063 0.0029260011856686247 0.011679517247402385
0.050020842017509996 0.003183568524177298 0.01342641281031317 0.9963238103317771 -0.03303672667442083 0.0005836491810083628 0.007170875912469371 -0.000509652837217666 -0.0044623809112504685
 0.9963238103317771 -0.03303672667442083 0.0031832573522799605 0.013426432342713158 -0.0005096658444546518 -0.004462380127612249 0.0005862780701055888 0.007170564541623653
 0.0005836491810083628 0.007170875912469371 -0.0005096658444546518 -0.004462380127612249 0.003183611743248559 0.013427070974560066 0.9963238260955907 -0.03303605725061655
 -0.000509652837217666 -0.0044623809112504685 0.0005862780701055888 0.007170564541623653 0.9963238260955907 -0.03303605725061655 0.0031832434250308617 0.013427100175392935
0.055454545454549996 0.0034206893917655174 0.014959283468232012 0.9960099486021278 -0.036677413575405805 0.0006772510819747597 0.007952429323947 -0.0005890739545535184 -0.00495164162428262
 0.9960099486021278 -0.036677413575405805 0.003420307164279734 0.01495930518371333 -0.000589089920671402 -0.004951640532478648 0.000680483284509482 0.00795204507862258
 0.0006772510819747597 0.007952429323947 -0.000589089920671402 -0.004951640532478648 0.0034207422271750085 0.014960011322146598 0.996009967753712 -0.03667667110712511
 -0.0005890739545535184 -0.00495164162428262 0.000680483284509482 0.00795204507862258 0.996009967753712 -0.03667667110712511 0.003420289602383976 0.014960044737312805
0.056273447269699996 0.003457528093589046 0.015191430871179771 0.9959611546568518 -0.03722703059382994 0.0006920018270875411 0.008070241292903705 -0.00060158416866309 -0.005025423057919664
 0.9959611546568518 -0.03722703059382994 0.003457134525723795 0.015191452912347083 -0.0006016006066628877 -0.005025421914373941 0.0006953303895776586 0.0080698451937126
 0.0006920018270875411 0.008070241292903705 -0.0006016006066628877 -0.005025421914373941 0.003457582460974262 0.01519216918535722 0.9959611743485236 -0.03722627710586963
 -0.00060158416866309 -0.005025423057919664 0.0006953303895776586 0.0080698451937126 0.9959611743485236 -0.03722627710586963 0.0034571163765490056 0.015192203254129798
0.06252605252188 0.003748446467219747 0.016973596597081045 0.9955755930544559 -0.04143161598679075 0.0008102267259928493 0.008969952227849602 -0.0007018104414262971 -0.0055891148556639235
 0.9955755930544559 -0.04143161598679075 0.0037479608559930263 0.01697362108709647 -0.0007018307061721567 -0.005589113268293775 0.0008143380449512655 0.008969457687469476
 0.0008102267259928493 0.008969952227849602 -0.0007018307061721567 -0.005589113268293775 0.003748513247805324 0.01697441439697095 0.9955756171318173 -0.0414307782426864
 -0.0007018104414262971 -0.0055891148556639235 0.0008143380449512655 0.008969457687469476 0.9955756171318173 -0.0414307782426864 0.0037479378765536064 0.0169744536174714
0.06877865777407 0.004056639344079318 0.018772564455708417 0.9951668228635769 -0.04565039676108495 0.0009384152338264707 0.009869880391818978 -0.0008104263198785346 -0.006153315754251611
 0.9951668228635769 -0.04565039676108495 0.0040560520363166425 0.018772591310777076 -0.0008104508056071581 -0.006153313631263353 0.0009433925839627689 0.009869272602110363
 0.0009384152338264707 0.009869880391818978 -0.0008104508056071581 -0.006153313631263353 0.004056719795716996 0.018773461007949823 0.995166851793693 -0.04564947454719903
 -0.0008104263198785346 -0.006153315754251611 0.0009433925839627689 0.009869272602110363 0.995166851793693 -0.04564947454719903 0.004056023598893899 0.01877350566765932
0.07503126302626001 0.0043824203439502335 0.020588007040313515 0.9947345418834631 -0.049883257014398934 0.00107665675171379 0.0107698925500032 -0.0009275242620854198 -0.006717883833396862
 0.9947345418834631 -0.049883257014398934 0.004381721677093003 0.020588036152498827 -0.0009275533611636478 -0.006717881075069864 0.001082583591318473 0.01076915559434886
 0.00107665675171379 0.0107698925500032 -0.0009275533611636478 -0.006717881075069864 0.004382515715949472 0.02058898155115389 0.9947345761438011 -0.049882250086483296
 -0.0009275242620854198 -0.006717883833396862 0.001082583591318473 0.01076915559434886 0.9947345761438011 -0.049882250086483296 0.004381687133457504 0.020589031941387493
0.08128386827845 0.004726101023886178 0.02241960900232457 0.9942784486591376 -0.05413005705082133 0.0012250386064942727 0.011669851029323094 -0.0010531944502051827 -0.007282675363565888
 0.9942784486591376 -0.05413005705082133 0.004725281322007204 0.022419640239429016 -0.0010532285529838794 -0.007282671862197929 0.0012319985686574904 0.011668967869565963
 0.0012250386064942727 0.011669851029323094 -0.0010532285529838794 -0.007282671862197929 0.004726212555983478 0.022420660610701925 0.994278488738585 -0.054128965140596404
 -0.0010531944502051827 -0.007282675363565888 0.0012319985686574904 0.011668967869565963 0.994278488738585 -0.054128965140596404 0.004725240002999878 0.022420717026938684
0.08753647353064001 0.0050879908527943895 0.024267062848098722 0.9937982427280277 -0.05839063753897049 0.0013836459390611548 0.012569614043946197 -0.001187524712380067 -0.00784754451781344
 0.9937982427280277 -0.05839063753897049 0.005087040422615235 0.024267096053676246 -0.0011875642070846289 -0.007847540157679814 0.0013917228208212545 0.012568566507397187
 0.0013836459390611548 0.012569614043946197 -0.0011875642070846289 -0.007847540157679814 0.005088119773525615 0.02426819062974308 0.9937982891277067 -0.058389460349885715
 -0.001187524712380067 -0.00784754451781344 0.0013917228208212545 0.012568566507397187 0.9937982891277067 -0.058389460349885715 0.005086991636790875 0.024268253372032297
0.09378907878283 0.0054683971563081095 0.026130065939864815 0.9932936248408598 -0.06266482247199018 0.0015525615944131804 0.01346903594109716 -0.0013306004409348578 -0.00841234316896455
 0.9932936248408598 -0.06266482247199018 0.005467306283319925 0.02613010093335347 -0.0013306457134730227 -0.008412337826274041 0.0015618393452912875 0.013467804707728528
 0.0015525615944131804 0.01346903594109716 -0.0013306457134730227 -0.008412337826274041 0.0054685446816452035 0.026131268902818337 0.9932936780754941 -0.0626635596836674
 -0.0013306004409348578 -0.00841234316896455 0.0015618393452912875 0.013467804707728528 0.9932936780754941 -0.0626635596836674 0.005467249316377986 0.026131338276319575
0.100041684035 0.005867625041282351 0.028008318298834316 0.9927642971655325 -0.06695242133179446 0.0017318660148216848 0.014367967387654309 -0.0014825045062875435 -0.00897692075187979
 0.9927642971655325 -0.06695242133179446 0.005866383985628595 0.0280083548757973 -0.0014825559401106694 -0.008976914294743791 0.001742428724585735 0.014366531977406253
 0.0017318660148216848 0.014367967387654309 -0.0014825559401106694 -0.008976914294743791 0.005867792373113353 0.028009595386855397 0.9927643577639589 -0.06695107259645229
 -0.0014825045062875435 -0.00897692075187979 0.001742428724585735 0.014366531977406253 0.9927643577639589 -0.06695107259645229 0.005866318099394849 0.028009671702424806
0.1059090909091 0.006259645849962249 0.029784461641318653 0.9922448421099253 -0.07098789689260177 0.0019096421198034283 0.015210937022555007 -0.0016331511652190225 -0.009506379530398101
 0.9922448421099253 -0.07098789689260177 0.006258254979542009 0.029784499497322047 -0.0016332087271902394 -0.00950637190027021 0.0019214872188865605 0.0152092903431977
 0.0019096421198034283 0.015210937022555007 -0.0016332087271902394 -0.00950637190027021 0.006259832847326254 0.029785807267489355 0.9922449101131575 -0.07098646716697658
 -0.0016331511652190225 -0.009506379530398101 0.0019214872188865605 0.0152092903431977 0.9922449101131575 -0.07098646716697658 0.0062581800298301925 0.029785890385948213
0.1062942892872 0.006285977304668935 0.029901520960287496 0.992209963478637 -0.07125323070779231 0.001921637134865565 0.015266255517860938 -0.0016433171683665336 -0.009541124170536803
 0.992209963478637 -0.07125323070779231 0.00628457629729104 0.029901558892773204 -0.0016433751443266475 -0.009541116458924985 0.001933569019894805 0.015264594278087835
 0.001921637134865565 0.015266255517860938 -0.0016433751443266475 -0.009541116458924985 0.0062861656293385386 0.02990287104969491 0.9922100319851129 -0.0712517956535421
 -0.0016433171683665336 -0.009541124170536803 0.001933569019894805 0.015264594278087835 0.9922100319851129 -0.0712517956535421 0.006284500728600862 0.029902954624681732
0.11254689453939999 0.006723754330976849 0.031809374711715646 0.9916303293485857 -0.07556703553958712 0.002121950277037477 0.01616374405773217 -0.0018131159859800028 -0.010104797734497696
 0.9916303293485857 -0.07556703553958712 0.006722183569388399 0.03180941374875373 -0.0018131808821735859 -0.010104788620208308 0.002135335666602311 0.016161834150907186
 0.002121950277037477 0.01616374405773217 -0.0018131808821735859 -0.010104788620208308 0.006723964817818651 0.03181079661514867 0.9916304063237676 -0.07556551376662894
 -0.0018131159859800028 -0.010104797734497696 0.002135335666602311 0.016161834150907186 0.9916304063237676 -0.07556551376662894 0.006722097529226827 0.03181088777428875
0.11879949979160001 0.0071812539800620015 0.03373157912267148 0.9910251023122179 -0.0798936100747131 0.0023328780489506873 0.017060273429277767 -0.0019919757244828084 -0.010667783121878131
 0.9910251023122179 -0.0798936100747131 0.0071795036242541695 0.03373161899095138 -0.0019920479160174484 -0.010667772448539583 0.0023478013704301337 0.017058090820815254
 0.0023328780489506873 0.017060273429277767 -0.0019920479160174484 -0.010667772448539583 0.007181487779942645 0.03373307158375261 0.9910251883343791 -0.07989200116090074
 -0.0019919757244828084 -0.010667783121878131 0.0023478013704301337 0.017058090820815254 0.9910251883343791 -0.07989200116090074 0.00717940629705169 0.03373317066012708
0.1250521050438 0.007658771468067683 0.03566783177247285 0.9903939920469443 -0.08423271863596661 0.002554490240819909 0.017955680844922443 -0.0021799682623141886 -0.011229919358336145
 0.9903939920469443 -0.08423271863596661 0.007656831636262357 0.035667872177101045 -0.0021800481212506904 -0.011229906961324084 0.0025710360045348205 0.017953200291262624
 0.002554490240819909 0.017955680844922443 -0.0021800481212506904 -0.011229906961324084 0.007659029711663857 0.0356693934710452 0.9903940877127795 -0.08423102213172676
 -0.0021799682623141886 -0.011229919358336145 0.0025710360045348205 0.017953200291262624 0.9903940877127795 -0.08423102213172676 0.007656722178629282 0.03566950080728606
0.131304710296 0.008156599241904433 0.03761782764208475 0.9897367105398299 -0.08858411623182084 0.002786853723854197 0.018849800392446443 -0.002377162496671216 -0.011791042812078496
 0.9897367105398299 -0.08858411623182084 0.008154460006667807 0.0376178682674645 -0.0023772503917445288 -0.011791028518552764 0.0028051065073438058 0.01884699542934446
 0.002786853723854197 0.018849800392446443 -0.0023772503917445288 -0.011791028518552764 0.008156883038349301 0.03761945719223186 0.9897368164657202 -0.08858233166245832
 -0.002377162496671216 -0.011791042812078496 0.0028051065073438058 0.01884699542934446 0.9897368164657202 -0.08858233166245832 0.008154337546538673 0.03761957314171318
0.1375573155481 0.008562074152286324 0.03932522169523829 0.9891659720344396 -0.09269138780011381 0.0030010500180099506 0.019716435713873912 -0.002554623908058533 -0.012324995021555336
 0.9891659720344396 -0.09269138780011381 0.008559723502223846 0.03932526121026539 -0.002554720181286295 -0.012324978802357828 0.0030210493290301482 0.01971331011714262
 0.0030010500180099506 0.019716435713873912 -0.002554720181286295 -0.012324978802357828 0.008562383803810619 0.03932691826762903 0.9891660887008444 -0.09268951487008896
 -0.002554623908058533 -0.012324995021555336 0.0030210493290301482 0.01971331011714262 0.9891660887008444 -0.09268951487008896 0.008559588211855448 0.0393270413052387
0.1438099208003 0.008981834099212839 0.0410233427681122 0.9885751055790756 -0.09678800078314113 0.003223901895742101 0.0205795153529182 -0.0027391924098742076 -0.012855680208970889
 0.9885751055790756 -0.09678800078314113 0.00897926169466382 0.04102338087596395 -0.002739297420817008 -0.012855661898793813 0.00324572426857673 0.020576044929719237
 0.003223901895742101 0.0205795153529182 -0.002739297420817008 -0.012855661898793813 0.008982170537925336 0.04102510496402868 0.9885752336031343 -0.09678603902342124
 -0.0027391924098742076 -0.012855680208970889 0.00324572426857673 0.020576044929719237 0.9885752336031343 -0.09678603902342124 0.008979112849239022 0.04102523538587283
0.1500625260525 0.009415727762832627 0.04271204148966185 0.987964266872321 -0.10087384621641055 0.0034553310126322714 0.021438949032891404 -0.0029307914917839797 -0.013383012317624166
 0.987964266872321 -0.10087384621641055 0.009412923202106788 0.04271207790221371 -0.002930905596615502 -0.013382991744853955 0.0034790525248843468 0.02143510870699226
 0.0034553310126322714 0.021438949032891404 -0.002930905596615502 -0.013382991744853955 0.009416091889960659 0.042713867853978 0.9879644068876032 -0.10087179514313553
 -0.0029307914917839797 -0.013383012317624166 0.0034790525248843468 0.02143510870699226 0.9879644068876032 -0.10087179514313553 0.00941276006105059 0.042714005985736644
0.15631513130469998 0.0098636026996333 0.04439117298065549 0.9873336124622017 -0.10494881567844178 0.003695258074057507 0.022294648042448593 -0.003129343674698663 -0.013906907150044693
 0.9873336124622017 -0.10494881567844178 0.009860555517393078 0.04439120742061565 -0.0031294672260871095 -0.013906884136889513 0.0037209543402444735 0.022290411863332183
