! Created with skrf 1.8.0 (http://scikit-rf.org).
# GHz S RI R 50.0 
!freq ReS11 ImS11 ReS12 ImS12 ReS13 ImS13
! ReS14 ImS14
! ReS21 ImS21 ReS22 ImS22 ReS23 ImS23
! ReS24 ImS24
! ReS31 ImS31 ReS32 ImS32 ReS33 ImS33
! ReS34 ImS34
! ReS41 ImS41 ReS42 ImS42 ReS43 ImS43
! ReS44 ImS44
!
0.0 0.001748433370668 0.0 0.9982515666279 0.0 6.797725166891e-05 0.0 -6.797725155762e-05 8.324812353487375e-21
 0.9982515666279 0.0 0.001748433370633 0.0 -6.797725155725e-05 8.324812353442064e-21 6.797725166798e-05 0.0
 6.797725166891e-05 0.0 -6.797725155725e-05 8.324812353442064e-21 0.001748433371372 0.0 0.9982515666286 0.0
 -6.797725155762e-05 8.324812353487375e-21 6.797725166798e-05 0.0 0.9982515666286 0.0 0.001748433371356 0.0
0.005 0.0018818978966551898 0.0014260814312998106 0.9980826106376568 -0.003662021129488873 9.610127850816313e-05 0.00077089065986276 -9.323551350139911e-05 -0.0004799050034969626
 0.9980826106376568 -0.003662021129488873 0.0018818721799954538 0.0014260965344887104 -9.323212492382837e-05 -0.0004799025340589166 9.625845799915031e-05 0.0007708305964387744
 9.610127850816313e-05 0.00077089065986276 -9.323212492382837e-05 -0.0004799025340589166 0.0018818993589270238 0.001426147936129354 0.9980826110156339 -0.0036619540609253896
 -9.323551350139911e-05 -0.0004799050034969626 9.625845799915031e-05 0.0007708305964387744 0.9980826110156339 -0.0036619540609253896 0.001881871467691299 0.0014261641613365075
0.006252605252188 0.0019171074007370303 0.0017882002891753284 0.998037729960006 -0.00457839119812531 0.00010422381549619705 0.0009639649967874762 -0.00010046503534149287 -0.0006004941755563586
 0.998037729960006 -0.00457839119812531 0.001917067200697447 0.001788219533882894 -0.00010045976142804898 -0.0006004911345427007 0.00010446938952684529 0.0009638869857557422
 0.00010422381549619705 0.0009639649967874762 -0.00010045976142804898 -0.0006004911345427007 0.0019171096046274603 0.0017882834088762392 0.9980377304696084 -0.004578307380450338
 -0.00010046503534149287 -0.0006004941755563586 0.00010446938952684529 0.0009638869857557422 0.9980377304696084 -0.004578307380450338 0.0019170660063763175 0.0017883040373260029
0.01250521050438 0.0021036550011488647 0.0036136891782524933 0.9977982531537631 -0.009157368448824588 0.0001512689915174292 0.001928145172903641 -0.00014201088662328635 -0.0012037823561517607
 0.9977982531537631 -0.009157368448824588 0.002103494473451302 0.0036137313619906694 -0.00014199009050333122 -0.0012037767828505911 0.0001522481791227753 0.0019279572348257462
 0.0001512689915174292 0.001928145172903641 -0.00014199009050333122 -0.0012037767828505911 0.0021036632437872464 0.0036138552223094257 0.9977982546444548 -0.009157201050834193
 -0.00014201088662328635 -0.0012037823561517607 0.0001522481791227753 0.0019279572348257462 0.9977982546444548 -0.009157201050834193 0.0021034891686520386 0.0036138999995755246
0.01875781575657 0.0023085252160163685 0.005464902203732927 0.9975328088903159 -0.013748029872554036 0.00020922970405664028 0.00289318069396966 -0.00019275187587349917 -0.0018089337900174533
 0.9975328088903159 -0.013748029872554036 0.002308164483161783 0.005464971282576327 -0.00019270548392771625 -0.00180892630823151 0.0002114290891462669 0.002892844016357241
 0.00020922970405664028 0.00289318069396966 -0.00019270548392771625 -0.00180892630823151 0.00230854328772909 0.0054651510775994665 0.997532811819048 -0.013747778965157097
 -0.00019275187587349917 -0.0018089337900174533 0.0002114290891462669 0.002892844016357241 0.997532811819048 -0.013747778965157097 0.002308152156845265 0.0054652238267739305
0.02501042100875 0.0025321512820258136 0.007339186743312198 0.9972410558805153 -0.01835254635608475 0.00027822339560978546 0.003859086024797383 -0.0002528195734687929 -0.002415634752539955
 0.9972410558805153 -0.01835254635608475 0.0025315106144043406 0.007339286911656582 -0.0002527376285007601 -0.0024156261108045146 0.00028212956212160214 0.003858555114301507
 0.00027822339560978546 0.003859086024797383 -0.0002527376285007601 -0.0024156261108045146 0.002532182955264865 0.007339518333744486 0.9972410607109383 -0.018352211965163193
 -0.0002528195734687929 -0.002415634752539955 0.00028212956212160214 0.003858555114301507 0.9972410607109383 -0.018352211965163193 0.0025314883745399626 0.007339623153014337
0.03126302626094 0.0027749484152645833 0.009235150032446135 0.9969226370830259 -0.022971813512943588 0.00035836720227897835 0.004825783243075005 -0.00032234109909309974 -0.0030236554180289683
 0.9969226370830259 -0.022971813512943588 0.0027739481864172194 0.00923528571863487 -0.00032221374116811534 -0.003023646490847959 0.0003644671705158213 0.0048250058875580785
 0.00035836720227897835 0.004825783243075005 -0.00032221374116811534 -0.003023646490847959 0.002774997440329856 0.009235564186013312 0.9969226442801044 -0.022971395640853
 -0.00032234109909309974 -0.0030236554180289683 0.0003644671705158213 0.0048250058875580785 0.9969226442801044 -0.022971395640853 0.0027739131508899666 0.009235705443866368
0.037515631513130004 0.003037322270485219 0.011151862970309106 0.9965771885419011 -0.02760624782016691 0.0004497768808109534 0.0057931574917596705 -0.0004014400543135367 -0.003632794456656857
 0.9965771885419011 -0.02760624782016691 0.003035882925368222 0.011152038835086362 -0.000401257511286359 -0.00363278624491376 0.0004585582912446296 0.0057920746960626775
 0.0004497768808109534 0.0057931574917596705 -0.000401257511286359 -0.00363278624491376 0.0030373923775362448 0.011152359496843206 0.9965771985735057 -0.027605746441951132
 -0.0004014400543135367 -0.003632794456656857 0.0004585582912446296 0.0057920746960626775 0.9965771985735057 -0.027605746441951132 0.0030358322208142363 0.011152541830711916
0.043768236765320004 0.0033196721911116058 0.01308861787031481 0.9962043430112715 -0.032256028800410085 0.0005525662885889371 0.0067610738331546774 -0.0004902368309701099 -0.004242862219686319
 0.9962043430112715 -0.032256028800410085 0.0033177142204451476 0.01308883880626617 -0.0004899894130630165 -0.004242855850830645 0.0005645174777333848 0.006759619746756584
 0.0005525662885889371 0.0067610738331546774 -0.0004899894130630165 -0.004242855850830645 0.0033197670895702023 0.01308919653288833 0.9962043563480694 -0.03225544387356744
 -0.0004902368309701099 -0.004242862219686319 0.0005645174777333848 0.006759619746756584 0.9962043563480694 -0.03225544387356744 0.0033176449798391254 0.01308942484890103
0.050020842017509996 0.0036223926988510438 0.015044828333898821 0.9958037318232341 -0.036921199080653354 0.0006668470518721311 0.007729384229862539 -0.0005888487047751742 -0.00485367379945746
 0.9958037318232341 -0.036921199080653354 0.0036198366163018468 0.015045099465795743 -0.0005885268013708631 -0.004853670527604073 0.0006824570705392678 0.0077274860714202755
 0.0006668470518721311 0.007729384229862539 -0.0005885268013708631 -0.004853670527604073 0.0036225160789654736 0.015045488856337472 0.9958037489407878 -0.036920530537097866
 -0.0005888487047751742 -0.00485367379945746 0.0006824570705392678 0.0077274860714202755 0.9958037489407878 -0.036920530537097866 0.0036197459785842043 0.015045768330163837
0.055454545454549996 0.0039023127352189706 0.01676023414070833 0.9954327528891815 -0.04098783796670756 0.0007755777186679195 0.008571073052474162 -0.000682605209521151 -0.00538494908422814
 0.9954327528891815 -0.04098783796670756 0.0038991723244447274 0.01676055323749422 -0.000682210830976584 -0.005384949620667501 0.0007947650825508902 0.008568724434157543
 0.0007755777186679195 0.008571073052474162 -0.000682210830976584 -0.005384949620667501 0.0039024638485392724 0.01676096553380243 0.9954327736822726 -0.04098709669558568
 -0.000682605209521151 -0.00538494908422814 0.0007947650825508902 0.008568724434157543 0.9954327736822726 -0.04098709669558568 0.003899060771632681 0.016761293879143328
0.056273447269699996 0.00394587423738026 0.017019980112285494 0.9953749860135466 -0.04160171346711204 0.0007927283174107326 0.008697930981931157 -0.0006973898324446846 -0.005465045638391609
 0.9953749860135466 -0.04160171346711204 0.003942640558127003 0.01702030679818036 -0.0006969839101404438 -0.005465046844363075 0.0008124869138067299 0.008695508962680086
 0.0007927283174107326 0.008697930981931157 -0.0006969839101404438 -0.005465046844363075 0.003946029769730019 0.017020722161663886 0.9953750073921336 -0.041600961230357045
 -0.0006973898324446846 -0.005465045638391609 0.0008124869138067299 0.008695508962680086 0.9953750073921336 -0.041600961230357045 0.00394252566615483 0.01702105824014896
0.06252605252188 0.004290503549317215 0.019013604096419355 0.9949177370861707 -0.04629746589843426 0.0009303165464259709 0.009666548623575319 -0.0008159711984506598 -0.00607679368518897
 0.9949177370861707 -0.04629746589843426 0.0042865127696202895 0.019013991929476393 -0.0008154717999208282 -0.006076800876530822 0.0009547141262313658 0.009663515870534899
 0.0009303165464259709 0.009666548623575319 -0.0008154717999208282 -0.006076800876530822 0.004290694884311938 0.019014427296810726 0.9949177632110506 -0.04629662986940863
 -0.0008159711984506598 -0.00607679368518897 0.0009547141262313658 0.009663515870534899 0.9949177632110506 -0.04629662986940863 0.004286370768526739 0.019014825700437027
0.06877865777407 0.0046566638502570715 0.021025260229070288 0.9944316175792385 -0.051008305484625004 0.0010797153318999177 0.010635065068768532 -0.0009447005335193456 -0.006688732309805564
 0.9944316175792385 -0.051008305484625004 0.00465183642743947 0.02102571504011569 -0.0009440982769718234 -0.006688747120783459 0.0011092429014835316 0.010631327548363066
 0.0010797153318999177 0.010635065068768532 -0.0009440982769718234 -0.006688747120783459 0.004656894618978659 0.021026164150987084 0.9944316489424054 -0.051007385551830396
 -0.0009447005335193456 -0.006688732309805564 0.0011092429014835316 0.010631327548363066 0.9944316489424054 -0.051007385551830396 0.0046516644641436565 0.021026630877035653
0.07503126302626001 0.0050447348852159166 0.02305452729748975 0.9939162615187837 -0.05573404667411446 0.0012410252290454022 0.011603302354667952 -0.001083682216119652 -0.007300673628838486
 0.9939162615187837 -0.05573404667411446 0.0050389912178175145 0.02305505515831566 -0.0010829677951009389 -0.007300697820398309 0.001276174326263709 0.011598758797070528
 0.0012410252290454022 0.011603302354667952 -0.0010829677951009389 -0.007300697820398309 0.005045008698277037 0.02305551146485012 0.9939162986187569 -0.05573304270625663
 -0.001083682216119652 -0.007300673628838486 0.001276174326263709 0.011598758797070528 0.9939162986187569 -0.05573304270625663 0.005038786439180138 0.02305605279139547
0.08128386827845 0.00545509290715111 0.025100996163573606 0.9933713047992071 -0.06047447599273892 0.0014143435950217842 0.012571077143359186 -0.001233017161995347 -0.00791242708117265
 0.9933713047992071 -0.06047447599273892 0.005448353315233077 0.025101603391025476 -0.0012321813455907276 -0.007912462540889651 0.0014556062100630515 0.01256561896792898
 0.0014143435950217842 0.012571077143359186 -0.0012321813455907276 -0.007912462540889651 0.005455413354698519 0.02510206004696048 0.9933713481420561 -0.06047338784520939
 -0.001233017161995347 -0.00791242708117265 0.0014556062100630515 0.01256561896792898 0.9933713481420561 -0.06047338784520939 0.005448112866749001 0.025102682537668394
0.08753647353064001 0.005888110607357159 0.027164265082472102 0.9927963855202342 -0.06522935670432473 0.0015997644332162565 0.01353820109216429 -0.0013928027070853027 -0.008523799144087034
 0.9927963855202342 -0.06522935670432473 0.005880295313102592 0.027164958243263062 -0.0013918363403155436 -0.008523847886073419 0.001647632921433324 0.013531712334059247
 0.0015997644332162565 0.01353820109216429 -0.0013918363403155436 -0.008523847886073419 0.005888481259100598 0.027165408101982785 0.9927964356202909 -0.06522818421592184
 -0.0013928027070853027 -0.008523799144087034 0.001647632921433324 0.013531712334059247 0.9927964356202909 -0.06522818421592184 0.005880016337855671 0.027166118611699687
0.09378907878283 0.006344157009671157 0.02924393637063816 0.9921911442918939 -0.06999843213218689 0.0017973782425268535 0.01450448112872404 -0.0015631324840092915 -0.009134593153718144
 0.9921911442918939 -0.06999843213218689 0.006335186117695394 0.029244722287049763 -0.0015620264883539489 -0.009134657318521196 0.0018523452304445936 0.014496838366943201
 0.0017973782425268535 0.01450448112872404 -0.0015620264883539489 -0.009134657318521196 0.006344581414206832 0.02924515789397719 0.9921912016725966 -0.06999717512680355
 -0.0015631324840092915 -0.009134593153718144 0.0018523452304445936 0.014496838366943201 0.9921912016725966 -0.06999717512680355 0.006334865755297157 0.02924596357511867
0.100041684035 0.006823597340965454 0.031339613967715674 0.991555224519826 -0.07478142809765148 0.0020072718684997445 0.015469719674074484 -0.0017440962956934052 -0.009744609187021497
 0.991555224519826 -0.07478142809765148 0.006813390818690042 0.031340499724017604 -0.0017428416698772003 -0.009744691041478931 0.0020698301537563192 0.01546079196111402
 0.0020072718684997445 0.015469719674074484 -0.0017428416698772003 -0.009744691041478931 0.006824079025439331 0.03134091331052338 0.9915552897138019 -0.07478008638359201
 -0.0017440962956934052 -0.009744609187021497 0.0020698301537563192 0.01546079196111402 0.9915552897138019 -0.07478008638359201 0.0068130262036022555 0.031341821620408945
0.1059090909091 0.007295099641835043 0.033320389706399424 0.9909302645014989 -0.07928216509151956 0.0022154771600090294 0.016374366647926766 -0.0019236596988806357 -0.010316155966295856
 0.9909302645014989 -0.07928216509151956 0.0072836606833964436 0.03332137583476001 -0.00192225748239525 -0.010316256594638926 0.0022856073268733095 0.016364107284356225
 0.0022154771600090294 0.016374366647926766 -0.00192225748239525 -0.010316256594638926 0.007295638265946436 0.03332176140677924 0.9909303375214228 -0.07928074369794574
 -0.0019236596988806357 -0.010316155966295856 0.0022856073268733095 0.016364107284356225 0.9909303375214228 -0.07928074369794574 0.007283251930376729 0.03332277308397192
0.1062942892872 0.007326792881768306 0.03345090161713056 0.990888272674055 -0.07957805475097543 0.002229528357264534 0.016433714822192996 -0.0019357799855228436 -0.010353643996904418
 0.990888272674055 -0.07957805475097543 0.007315270539802329 0.03345189456694311 -0.0019343678063436561 -0.01035374593397878 0.0023001708036192794 0.016423363615367306
 0.002229528357264534 0.016433714822192996 -0.0019343678063436561 -0.01035374593397878 0.007327335351559669 0.033452278043459766 0.9908883462246226 -0.079576628120317
 -0.0019357799855228436 -0.010353643996904418 0.0023001708036192794 0.016423363615367306 0.9908883462246226 -0.079576628120317 0.007314858800491116 0.033453296752468685
0.11254689453939999 0.00785410080434279 0.03557740148500145 0.990189938549342 -0.08438800797540882 0.0024642268106045686 0.017396260500757314 -0.0021382653064510324 -0.010961490975966192
 0.990189938549342 -0.08438800797540882 0.007841182276595608 0.035578509259532 -0.00213668672969877 -0.010961615514544148 0.0025434462379656598 0.01738433959530003
 0.0024642268106045686 0.017396260500757314 -0.00213668672969877 -0.010961615514544148 0.007854707542472032 0.035578854205186805 0.9901900210108147 -0.08438649620590645
 -0.0021382653064510324 -0.010961490975966192 0.0025434462379656598 0.01738433959530003 0.9901900210108147 -0.08438649620590645 0.007840720534074992 0.03557999140582847
0.11879949979160001 0.00840587399859237 0.037718713093401995 0.9894598755159151 -0.08921097048888386 0.0027114422430779064 0.018357146611541968 -0.002351629787968455 -0.011567940150519195
 0.9894598755159151 -0.08921097048888386 0.00839147872265125 0.037719943610489456 -0.002349876049539084 -0.011568089935173756 0.002799731313472572 0.01834350207571055
 0.0027114422430779064 0.018357146611541968 -0.002349876049539084 -0.011568089935173756 0.00840654846530721 0.03772024126407718 0.9894599674541563 -0.08920937334371111
 -0.002351629787968455 -0.011567940150519195 0.002799731313472572 0.01834350207571055 0.9894599674541563 -0.08920937334371111 0.008390964089290165 0.03772150538101053
0.1250521050438 0.008982460890293703 0.03987443248908881 0.9886977407652611 -0.09404661272189994 0.002971245440100603 0.019316159160859492 -0.0025759466032244088 -0.01217277819470767
 0.9886977407652611 -0.09404661272189994 0.008966508087474567 0.03987579396329821 -0.002574009020201428 -0.012172955995452523 0.0030690965395437147 0.019300629273075385
 0.002971245440100603 0.019316159160859492 -0.002574009020201428 -0.012172955995452523 0.008983206522693375 0.0398760352139936 0.9886978427589104 -0.09404492994880408
 -0.0025759466032244088 -0.01217277819470767 0.0030690965395437147 0.019300629273075385 0.9886978427589104 -0.09404492994880408 0.00896593766606689 0.039877435014927624
0.131304710296 0.009584205252524429 0.04204415159036094 0.987903195551358 -0.09889459352984584 0.0032437028176723797 0.02027308038267064 -0.0028112844351289436 -0.012775788462240785
 0.987903195551358 -0.09889459352984584 0.00956661390821648 0.04204565254390458 -0.002809154406930076 -0.01277599717422441 0.00335160793447088 0.02025549557076196
 0.0032437028176723797 0.02027308038267064 -0.002809154406930076 -0.01277599717422441 0.009585025463857356 0.0420458279178611 0.987903308192263 -0.09889282486347334
 -0.0028112844351289436 -0.012775788462240785 0.00335160793447088 0.02025549557076196 0.987903308192263 -0.09889282486347334 0.00956598479043526 0.04204737252551227
0.1375573155481 0.010080774773466947 0.04394437758931772 0.9872066448043408 -0.10347129153668048 0.0034960967853948023 0.02119997839016112 -0.003024816707270374 -0.013349162187764213
 0.9872066448043408 -0.10347129153668048 0.010061458437735451 0.04394599219601058 -0.003022481768939114 -0.013349402327047372 0.00361430853328105 0.021180350984715036
 0.0034960967853948023 0.02119997839016112 -0.003022481768939114 -0.013349402327047372 0.010081674355934801 0.04394612581932723 0.9872067685864018 -0.10346943683644165
 -0.003024816707270374 -0.013349162187764213 0.00361430853328105 0.021180350984715036 0.9872067685864018 -0.10346943683644165 0.010060766511739993 0.04394779170003846
0.1438099208003 0.010595022826230817 0.045833226859235715 0.9864851860240391 -0.1080350173291279 0.003758629653776181 0.022122397411143347 -0.003246839808312562 -0.013918345603171366
 0.9864851860240391 -0.1080350173291279 0.01057389939471802 0.0458349615586259 -0.0032442907816880844 -0.013918620032843212 0.00388759630080482 0.022100570946007262
 0.003758629653776181 0.022122397411143347 -0.0032442907816880844 -0.013918620032843212 0.010596005411035793 0.0458350459098927 0.9864853215375985 -0.10803307633890835
 -0.003246839808312562 -0.013918345603171366 0.00388759630080482 0.022100570946007262 0.9864853215375985 -0.10803307633890835 0.0105731415171327 0.04583684031502254
0.1500625260525 0.01112674766704539 0.0477105011617219 0.9857390260739749 -0.11258561660179751 0.004031197084641199 0.023040220027396204 -0.0034772504743015077 -0.014483225476899451
 0.9857390260739749 -0.11258561660179751 0.011103734793969422 0.047712362794439266 -0.0034744782137238225 -0.014483537174166726 0.0041713637724759365 0.023016032310058946
 0.004031197084641199 0.023040220027396204 -0.0034744782137238225 -0.014483537174166726 0.01112781687949994 0.04771238990457378 0.9857391739203295 -0.1125835890561154
 -0.0034772504743015077 -0.014483225476899451 0.0041713637724759365 0.023016032310058946 0.9857391739203295 -0.1125835890561154 0.011102907795790937 0.04771432052913881
0.15631513130469998 0.011675745863825521 0.049576008167915506 0.9849683731567804 -0.1171229365179065 0.0043136933659989685 0.023953331142357353 -0.003715944031078424 -0.015043691233713814
 0.9849683731567804 -0.1171229365179065 0.011650760956086805 0.04957800398735165 -0.0037129394241082352 -0.015044043289110624 0.004465502055734556 0.02392661432072662
