! Created with skrf 1.8.0 (http://scikit-rf.org).
# GHz S RI R 50.0 
!freq ReS11 ImS11 ReS12 ImS12 ReS13 ImS13
! ReS14 ImS14
! ReS21 ImS21 ReS22 ImS22 ReS23 ImS23
! ReS24 ImS24
! ReS31 ImS31 ReS32 ImS32 ReS33 ImS33
! ReS34 ImS34
! ReS41 ImS41 ReS42 ImS42 ReS43 ImS43
! ReS44 ImS44
!
0.0 0.001893378102439 0.0 0.9981066218976 0.0 7.360944349445e-05 0.0 -7.360944380532e-05 9.01455697432021e-21
 0.9981066218976 0.0 0.001893378102454 0.0 -7.360944380556e-05 9.014556974349603e-21 7.360944349475e-05 0.0
 7.360944349445e-05 0.0 -7.360944380556e-05 9.014556974349603e-21 0.001893378086817 0.0 0.9981066218819 0.0
 -7.360944380532e-05 9.01455697432021e-21 7.360944349475e-05 0.0 0.9981066218819 0.0 0.001893378086819 0.0
0.005 0.0020383651868247266 0.0015478149333644766 0.9979230091978053 -0.003964860408540644 0.00010372115947943556 0.0008106778690778203 -0.00010074739769796284 -0.0005086601000469104
 0.9979230091978053 -0.003964860408540644 0.0020383330847603713 0.0015478337516264332 -0.00010074909810356948 -0.0005086614571026805 0.00010391537267966341 0.0008106038192829826
 0.00010372115947943556 0.0008106778690778203 -0.00010074909810356948 -0.0005086614571026805 0.0020383644338980928 0.0015478827046827084 0.9979230095931357 -0.003964793349861115
 -0.00010074739769796284 -0.0005086601000469104 0.00010391537267966341 0.0008106038192829826 0.9979230095931357 -0.003964793349861115 0.002038334613178742 0.0015479000827394206
0.006252605252188 0.0020767656812611035 0.0019408053318433168 0.9978740227024895 -0.004956985308566437 0.00011249123990523463 0.001013718487702333 -0.00010857798519970617 -0.0006364600774980975
 0.9978740227024895 -0.004956985308566437 0.002076715499187531 0.001940829215944534 -0.00010858063072181039 -0.000636461751074564 0.00011279467504193665 0.0010136222351894983
 0.00011249123990523463 0.001013718487702333 -0.00010858063072181039 -0.000636461751074564 0.0020767644275595104 0.001940890042106419 0.9978740232444652 -0.004956901488989446
 -0.00010857798519970617 -0.0006364600774980975 0.00011279467504193665 0.0010136222351894983 0.9978740232444652 -0.004956901488989446 0.0020767178126924785 0.0019409121119374501
0.01250521050438 0.0022810941284135537 0.003921704835716104 0.9976114294230848 -0.009914320200311922 0.00016367106022643804 0.0020276409557503966 -0.00015391139893760413 -0.00127575651608123
 0.9976114294230848 -0.009914320200311922 0.0022808937375233007 0.003921756275585926 -0.00015392181905502097 -0.0012757596102784983 0.00016488099256251957 0.0020274080750873583
 0.00016367106022643804 0.0020276409557503966 -0.00015392181905502097 -0.0012757596102784983 0.0022810885259010425 0.0039218740109983885 0.9976114310050844 -0.009914152771449063
 -0.00015391139893760413 -0.00127575651608123 0.00016488099256251957 0.0020274080750873583 0.9976114310050844 -0.009914152771449063 0.0022809023946431324 0.003921921655325587
0.01875781575657 0.0025068845766265256 0.005930143583821577 0.9973184625661107 -0.014883975975510636 0.0002272807415295564 0.003042388108035396 -0.00020976418222408798 -0.0019169101538865979
 0.9973184625661107 -0.014883975975510636 0.002506434259172888 0.005930226596987171 -0.00020978741081728163 -0.0019169143590005626 0.00022999847634177056 0.0030419690253172507
 0.0002272807415295564 0.003042388108035396 -0.00020978741081728163 -0.0019169143590005626 0.0025068715330859273 0.00593039708418257 0.9973184656993008 -0.01488372496430292
 -0.00020976418222408798 -0.0019169101538865979 0.00022999847634177056 0.0030419690253172507 0.9973184656993008 -0.01488372496430292 0.0025064532883649292 0.005930474072598195
0.02501042100875 0.0027546379643478666 0.007963210554443491 0.9969947258229241 -0.019868260745300497 0.0003034521798227301 0.004057941864924989 -0.00027628398466134714 -0.002559570006319784
 0.9969947258229241 -0.019868260745300497 0.002753838175735041 0.007963329469189368 -0.0002763249918820347 -0.002559574950837344 0.00030827902581346807 0.004057278057727501
 0.0003034521798227301 0.004057941864924989 -0.0002763249918820347 -0.002559574950837344 0.0027546143773152574 0.007963548226043433 0.9969947310254804 -0.019867926112966745
 -0.00027628398466134714 -0.002559570006319784 0.00030827902581346807 0.004057278057727501 0.9969947310254804 -0.019867926112966745 0.0027538715980982348 0.007963658560686867
0.03126302626094 0.0030248341597969974 0.010019356881713978 0.9966398057763202 -0.0248681011773534 0.00039231627219075336 0.005074189157125349 -0.00035361294972219065 -0.0032034697126067323
 0.9966398057763202 -0.0248681011773534 0.00302358546667043 0.010019516331334908 -0.0003536766522931865 -0.003203474962712163 0.00039985405403292185 0.005073213099326461
 0.00039231627219075336 0.005074189157125349 -0.0003536766522931865 -0.003203474962712163 0.0030247969071270984 0.010019778549592039 0.9966398135691699 -0.024867682826759115
 -0.00035361294972219065 -0.0032034697126067323 0.00039985405403292185 0.005073213099326461 0.9966398135691699 -0.024867682826759115 0.003023637289975583 0.010019926458625875
0.037515631513130004 0.00331794144201608 0.012097534221777286 0.9962532818891713 -0.029883904085877405 0.0004940017425557213 0.00609097842852758 -0.00044188869996789634 -0.0038483711177718294
 0.9962532818891713 -0.029883904085877405 0.003316144478822422 0.012097739142714666 -0.00044197996654556494 -0.0038483761772645565 0.0005048530040971913 0.00608961350345475
 0.0004940017425557213 0.00609097842852758 -0.00044197996654556494 -0.0038483761772645565 0.0033178873868475994 0.01209803967461519 0.9962532928041881 -0.029883401876837395
 -0.00044188869996789634 -0.0038483711177718294 0.0005048530040971913 0.00608961350345475 0.9962532928041881 -0.029883401876837395 0.0033162187023006886 0.012098229609535941
0.043768236765320004 0.0036344201328169985 0.014196932534914709 0.9958347306388965 -0.034915818594453085 0.0006086345464793526 0.007108136853667865 -0.0005412446517881957 -0.004494047130076815
 0.9958347306388965 -0.034915818594453085 0.003631975565964424 0.014197188166983813 -0.0005413683060199046 -0.004494051440421326 0.0006234026215030707 0.007106297257725606
 0.0006086345464793526 0.007108136853667865 -0.0005413683060199046 -0.004494051440421326 0.003634346118902633 0.014197521530531141 0.9958347452182735 -0.03491523233864491
 -0.0005412446517881957 -0.004494047130076815 0.0006234026215030707 0.007106297257725606 0.9958347452182735 -0.03491523233864491 0.0036320761758606586 0.014197758165282046
0.050020842017509996 0.003974724244950566 0.016316871756289767 0.9953837276715711 -0.03996384441216805 0.0007363374828967656 0.008125477466479581 -0.0006518100897992971 -0.0051402746710503015
 0.9953837276715711 -0.03996384441216805 0.003971532739665598 0.016317183644380593 -0.0006519709121855015 -0.0051402776114641766 0.0007556264944992923 0.00812306810934195
 0.0007363374828967656 0.008125477466479581 -0.0006519709121855015 -0.0051402776114641766 0.003974627093837093 0.01631754401678639 0.9953837464684899 -0.039963173878371706
 -0.0006518100897992971 -0.0051402746710503015 0.0007556264944992923 0.00812306810934195 0.9953837464684899 -0.039963173878371706 0.003971663706589326 0.016317832248218183
0.055454545454549996 0.0042901564500137405 0.01817537503287206 0.9949651084345956 -0.04436374298938124 0.0008580225298857192 0.00900957201289412 -0.000757095560667168 -0.00570214111574558
 0.9949651084345956 -0.04436374298938124 0.004286235137387145 0.018175740551253018 -0.0007572925331593085 -0.005702142313224859 0.0008817315748105478 0.009006583002625454
 0.0008580225298857192 0.00900957201289412 -0.0007572925331593085 -0.005702142313224859 0.004290036593907847 0.018176119396568522 0.9949651313572145 -0.0443629989978787
 -0.000757095560667168 -0.00570214111574558 0.0008817315748105478 0.009006583002625454 0.9949651313572145 -0.0443629989978787 0.004286395697440054 0.018176456618250948
0.056273447269699996 0.00433930228379881 0.018456748610509985 0.9948998491151799 -0.04502788497308014 0.0008772298958139822 0.009142802676876139 -0.0007737101345961927 -0.005786831245859139
 0.9948998491151799 -0.04502788497308014 0.004335264474298966 0.018457122607336215 -0.0007739128638082133 -0.005786832133410568 0.0009016447126173158 0.009139719080669833
 0.0008772298958139822 0.009142802676876139 -0.0007739128638082133 -0.005786832133410568 0.004339178795357272 0.01845750382034133 0.9948998726974635 -0.04502712988968897
 -0.0007737101345961927 -0.005786831245859139 0.0009016447126173158 0.009139719080669833 0.9948998726974635 -0.04502712988968897 0.004335429752616238 0.01845784876985499
0.06252605252188 0.004728597638304316 0.02061600740405221 0.9943826724873309 -0.050107776608032964 0.001031427420522425 0.010159906231618391 -0.0009070656569716165 -0.006433493079426027
 0.9943826724873309 -0.050107776608032964 0.004723614097739281 0.02061644967426397 -0.0009073149905830292 -0.0064334911691499 0.0010615735838326282 0.010156034430368381
 0.001031427420522425 0.010159906231618391 -0.0009073149905830292 -0.0064334911691499 0.004728444588274395 0.020616845208681896 0.9943827014389633 -0.050106936664985884
 -0.0009070656569716165 -0.006433493079426027 0.0010615735838326282 0.010156034430368381 0.9943827014389633 -0.050106936664985884 0.004723817622977341 0.02061725222509046
0.06877865777407 0.005143048742429863 0.022794122616315204 0.9938317773799886 -0.0552033059296167 0.0011990417551499227 0.011176574405373828 -0.0010519931607411682 -0.007080034033454534
 0.9938317773799886 -0.0552033059296167 0.005137019954794678 0.02279463964163217 -0.001052293755794494 -0.007080028518461316 0.001235525385476288 0.011171790845488933
 0.0011990417551499227 0.011176574405373828 -0.001052293755794494 -0.007080028518461316 0.005142862880429036 0.02279504262694233 0.9938318123019192 -0.055202380774355686
 -0.0010519931607411682 -0.007080034033454534 0.001235525385476288 0.011171790845488933 0.9938318123019192 -0.055202380774355686 0.005137265640378796 0.022795517290573098
0.07503126302626001 0.005583089098845585 0.02499058788027896 0.9932467460107234 -0.06031422084043221 0.0013801804487465587 0.01219258677218798 -0.001208604645772046 -0.007726224954946653
 0.9932467460107234 -0.06031422084043221 0.005575915429640378 0.024991186466090807 -0.0012089611189612338 -0.007726214966569459 0.0014236081359579964 0.012186758214399483
 0.0013801804487465587 0.01219258677218798 -0.0012089611189612338 -0.007726214966569459 0.005582867147082171 0.024991589671739083 0.9932467875237544 -0.06031321008096087
 -0.001208604645772046 -0.007726224954946653 0.0014236081359579964 0.012186758214399483 0.9932467875237544 -0.06031321008096087 0.005576207165542647 0.024992137799544723
0.08128386827845 0.0060491472197675596 0.027204908664546605 0.9926271636979452 -0.06544023785423796 0.001574946696497419 0.01320771675928015 -0.001377007460592209 -0.008371833254662174
 0.9926271636979452 -0.06544023785423796 0.006040728888700333 0.027205595947361716 -0.0013774243885079532 -0.008371817862574557 0.001625925378096323 0.013200700182404554
 0.001574946696497419 0.01320771675928015 -0.0013774243885079532 -0.008371817862574557 0.006048885871057219 0.027205991776431165 0.9926272124436664 -0.06543914105884902
 -0.001377007460592209 -0.008371833254662174 0.001625925378096323 0.013200700182404554 0.9926272124436664 -0.06543914105884902 0.006041070537568885 0.027206619428500313
0.08753647353064001 0.006541646508470665 0.029436597235277997 0.9919726192808782 -0.07058104715144863 0.0017834391437264545 0.014221732037738011 -0.0015573041455970128 -0.009016622661365239
 0.9919726192808782 -0.07058104715144863 0.006531883560812073 0.029437380691657758 -0.0015577860646690414 -0.009016600873717707 0.0018425759721224463 0.014213374544694828
 0.0017834391437264545 0.014221732037738011 -0.0015577860646690414 -0.009016600873717707 0.006541342424744114 0.029437761174694804 0.9919726759237242 -0.07057986384700174
 -0.0015573041455970128 -0.009016622661365239 0.0018425759721224463 0.014213374544694828 0.9919726759237242 -0.07057986384700174 0.0065322789559672636 0.02943847466196117
0.09378907878283 0.007061005102159917 0.03168516906647799 0.9912827055050263 -0.07573631620159546 0.002005751693310119 0.015234394842107214 -0.0017495922715259364 -0.009660353060303163
 0.9912827055050263 -0.07573631620159546 0.007049797380794224 0.03168605652318222 -0.0017501436779695147 -0.009660323823874 0.0020736538946255763 0.015224533568213752
 0.002005751693310119 0.015234394842107214 -0.0017501436779695147 -0.009660323823874 0.0070606549130418465 0.031686413305794844 0.9912827707345945 -0.07573504587703106
 -0.0017495922715259364 -0.009660353060303163 0.0020736538946255763 0.015224533568213752 0.9912827707345945 -0.07573504587703106 0.007050250323444049 0.031687219198996724
0.100041684035 0.00760763568726867 0.03395014022841006 0.9905570193853503 -0.08090569242333485 0.002241973317139285 0.016245462223796824 -0.0019539642742373094 -0.010302780411076162
 0.9905570193853503 -0.08090569242333485 0.007594882804592523 0.03395113987388288 -0.001954589623818381 -0.01030274261143797 0.0023192480422768694 0.016233924247724258
 0.002241973317139285 0.016245462223796824 -0.001954589623818381 -0.01030274261143797 0.007607235987799566 0.0339514642057872 0.9905570939174603 -0.08090433453044471
 -0.0019539642742373094 -0.010302780411076162 0.0023192480422768694 0.016233924247724258 0.9905570939174603 -0.08090433453044471 0.007595397060787496 0.03395236934571833
0.1059090909091 0.008145756745636548 0.036090058188294735 0.9898431504489811 -0.08576910412481983 0.002476367172539187 0.01719256993309124 -0.002156813564812123 -0.010904224366644857
 0.9898431504489811 -0.08576910412481983 0.008131462361614624 0.036091170891647574 -0.002157512318501616 -0.010904177463386063 0.0025629890104751658 0.017179292245592163
 0.002476367172539187 0.01719256993309124 -0.002157512318501616 -0.010904177463386063 0.00814530745763644 0.036091456454399574 0.9898432343873389 -0.08576766352337996
 -0.002156813564812123 -0.010904224366644857 0.0025629890104751658 0.017179292245592163 0.9898432343873389 -0.08576766352337996 0.008132037545598025 0.0360924611993725
0.1062942892872 0.008181945292395012 0.036231025444504995 0.9897951625489775 -0.08608880519207103 0.0024921878702726477 0.017254686272707383 -0.0021705072872639005 -0.010943656710847089
 0.9897951625489775 -0.08608880519207103 0.008167546602226558 0.03623214584158771 -0.0021712109951574784 -0.010943609172511349 0.0025794420391854526 0.01724128853020383
 0.0024921878702726477 0.017254686272707383 -0.0021712109951574784 -0.010943609172511349 0.008181492642130677 0.03623242856882485 0.9897952471283056 -0.08608735914192184
 -0.0021705072872639005 -0.010943656710847089 0.0025794420391854526 0.01724128853020383 0.9897952471283056 -0.08608735914192184 0.008168125900224926 0.03623344007810904
0.11254689453939999 0.008784335067375073 0.03852733662530846 0.9889967415687172 -0.09128526738708678 0.002756473908273503 0.01826181431097712 -0.0023993029727268017 -0.011582729999130239
 0.9889967415687172 -0.09128526738708678 0.008768189637051841 0.038528586725402804 -0.0024000894132110225 -0.011582671485700425 0.0028543140479088598 0.01824636351160628
 0.002756473908273503 0.01826181431097712 -0.0024000894132110225 -0.011582671485700425 0.008783825988346384 0.03852881827158372 0.9889968369702445 -0.09128373255616323
 -0.0023993029727268017 -0.011582729999130239 0.0028543140479088598 0.01824636351160628 0.9889968369702445 -0.09128373255616323 0.008768837664149489 0.03852994356759762
0.11879949979160001 0.009415200049160426 0.04083858174069423 0.9881613682845216 -0.09649467661702794 0.0030349045062095653 0.019266589076936486 -0.002640427352226743 -0.012219744386181303
 0.9881613682845216 -0.09649467661702794 0.009397206631378545 0.04083997089933003 -0.0026413008583590324 -0.012219673600599933 0.0031439365830941285 0.019248881623932058
 0.0030349045062095653 0.019266589076936486 -0.0026413008583590324 -0.012219673600599933 0.009414631024222731 0.04084014125691274 0.9881614753155294 -0.09649305234215098
 -0.002640427352226743 -0.012219744386181303 0.0031439365830941285 0.019248881623932058 0.9881614753155294 -0.09649305234215098 0.009397927031079566 0.04084138806628526
0.1250521050438 0.01007492891918667 0.04316426395679086 0.9872886601192248 -0.10171661619810729 0.0033275470807118106 0.020268748896493213 -0.002893950637298103 -0.012854440108075977
 0.9872886601192248 -0.10171661619810729 0.010054985923984128 0.04316580195063 -0.002894915500527585 -0.012854355692744504 0.0034483763282550195 0.02024857080990486
 0.0033275470807118106 0.020268748896493213 -0.002894915500527585 -0.012854355692744504 0.010074296390758393 0.04316590066155841 0.9872887796213984 -0.10171490178055133
 -0.002893950637298103 -0.012854440108075977 0.0034483763282550195 0.02024857080990486 0.9872887796213984 -0.10171490178055133 0.01005578229350203 0.04316727703602877
0.131304710296 0.010763903753721622 0.045503880962627107 0.9863782403880293 -0.1069506559599287 0.0036344632143608738 0.02126802784861973 -0.003159937060860857 -0.013486553601661445
 0.9863782403880293 -0.1069506559599287 0.010741909220816125 0.045505578007829506 -0.0031609975306996917 -0.013486454138658982 0.0037676939551027295 0.021245154691914108
 0.0036344632143608738 0.02126802784861973 -0.0031609975306996917 -0.013486454138658982 0.01076320412169638 0.045505594146876376 0.9863783732389927 -0.10694885066561492
 -0.003159937060860857 -0.013486553601661445 0.0037676939551027295 0.021245154691914108 0.9863783732389927 -0.10694885066561492 0.010742785107053624 0.045507108480782286
0.1375573155481 0.011337367078090271 0.04755315675499562 0.9855749582632111 -0.11189235200762263 0.003919931107782915 0.022235377983637315 -0.0034025228580768737 -0.014087188650073742
 0.9855749582632111 -0.11189235200762263 0.01131321275729887 0.047554990652504035 -0.003403685450724718 -0.014087073815578485 0.004065865960732172 0.022209816206861285
 0.003919931107782915 0.022235377983637315 -0.003403685450724718 -0.014087073815578485 0.011336597876836546 0.04755494554245615 0.98557510511642 -0.11189045537124083
 -0.0034025228580768737 -0.014087188650073742 0.004065865960732172 0.022209816206861285 0.98557510511642 -0.11189045537124083 0.011314170960623742 0.04755657454346752
0.1438099208003 0.011931356478917866 0.04958920197093209 0.9847427126551092 -0.11681904495877314 0.004216805619109454 0.023197391616412107 -0.0036546849995991557 -0.014682818524180073
 0.9847427126551092 -0.11681904495877314 0.011904939038381562 0.04959118136846543 -0.0036559543113489365 -0.014682686896571737 0.004375993320359364 0.02316893335432216
 0.004216805619109454 0.023197391616412107 -0.0036559543113489365 -0.014682686896571737 0.011930514250477486 0.04959106556154087 0.9847428743938882 -0.1168170562596625
 -0.0036546849995991557 -0.014682818524180073 0.004375993320359364 0.02316893335432216 0.9847428743938882 -0.1168170562596625 0.011905982901088963 0.049592816082643425
0.1500625260525 0.012545623210296659 0.05161177418878485 0.9838817579609835 -0.12173053861418254 0.004524957267624499 0.024153925972633845 -0.00391629516146923 -0.015273306360483619
 0.9838817579609835 -0.12173053861418254 0.012516838955423633 0.05161390829335275 -0.00391767577526535 -0.015273156460444401 0.004697942242262635 0.02412235577239096
 0.004524957267624499 0.024153925972633845 -0.00391767577526535 -0.015273156460444401 0.012544704468531162 0.05161371175464159 0.9838819355000623 -0.12172845710599076
 -0.00391629516146923 -0.015273306360483619 0.004697942242262635 0.02412235577239096 0.9838819355000623 -0.12172845710599076 0.012517971763382799 0.05161559113756886
0.15631513130469998 0.01317991628319365 0.05362063826164856 0.9829923504037702 -0.12662663922444345 0.004844254778936641 0.025104841375701046 -0.0041872231902179 -0.015858518745957093
 0.9829923504037702 -0.12662663922444345 0.013148661148380805 0.053622936857668516 -0.0041887196754025885 -0.015858349036730057 0.005031577061957682 0.025069936293147976
