! Created with skrf 1.8.0 (http://scikit-rf.org).
# GHz S RI R 50.0 
!freq ReS11 ImS11 ReS12 ImS12 ReS13 ImS13
! ReS14 ImS14
! ReS21 ImS21 ReS22 ImS22 ReS23 ImS23
! ReS24 ImS24
! ReS31 ImS31 ReS32 ImS32 ReS33 ImS33
! ReS34 ImS34
! ReS41 ImS41 ReS42 ImS42 ReS43 ImS43
! ReS44 ImS44
!
0.0 0.001511062088626 0.0 0.9984889378715 0.0 5.818700870475e-05 0.0 -5.818700710671e-05 7.125853200519669e-21
 0.9984889378715 0.0 0.001511062088623 0.0 -5.818700710656e-05 7.1258532005013e-21 5.818700870596e-05 0.0
 5.818700870475e-05 0.0 -5.818700710656e-05 7.1258532005013e-21 0.001511062108534 0.0 0.9984889378914 0.0
 -5.818700710671e-05 7.125853200519669e-21 5.818700870596e-05 0.0 0.9984889378914 0.0 0.001511062108538 0.0
0.005 0.0016256773823508715 0.0012370966543117225 0.998343960001142 -0.0031653030678772997 8.132494755817106e-05 0.0006362085180234531 -7.903622622404448e-05 -0.000400208909907469
 0.998343960001142 -0.0031653030678772997 0.0016256804057753814 0.0012370948526200254 -7.903650095797057e-05 -0.0004002090531959148 8.129847399426423e-05 0.0006362184533390987
 8.132494755817106e-05 0.0006362085180234531 -7.903650095797057e-05 -0.0004002090531959148 0.0016256772413031002 0.0012370294232345155 0.9983439596499059 -0.003165370132888948
 -7.903622622404448e-05 -0.000400208909907469 8.129847399426423e-05 0.0006362184533390987 0.9983439596499059 -0.003165370132888948 0.0016256798536046454 0.0012370279627020384
0.006252605252188 0.0016557096312434583 0.0015512371227148413 0.9983057386076543 -0.003957406972137253 8.79133304036486e-05 0.0007955732432041794 -8.490717305788457e-05 -0.0005007789969907032
 0.9983057386076543 -0.003957406972137253 0.0016557143579959213 0.0015512348696506274 -8.49076010975012e-05 -0.0005007791722282058 8.787196618223577e-05 0.0007955861659328731
 8.79133304036486e-05 0.0007955732432041794 -8.49076010975012e-05 -0.0005007791722282058 0.0016557094789118527 0.001551153091843939 0.9983057381262717 -0.003957490793419354
 -8.490717305788457e-05 -0.0005007789969907032 8.787196618223577e-05 0.0007955861659328731 0.9983057381262717 -0.003957490793419354 0.0016557135621942023 0.001551151277874632
0.01250521050438 0.0018136435790469475 0.0031349784020173643 0.9981034434458205 -0.007915640793626185 0.00012558023378202382 0.0015915330703902169 -0.00011813455792251242 -0.0010039984116484823
 0.9981034434458205 -0.007915640793626185 0.0018136624621895837 0.00313497389349753 -0.00011813625139478911 -0.0010039987188975516 0.00012541522993562455 0.001591564324724374
 0.00012558023378202382 0.0015915330703902169 -0.00011813625139478911 -0.0010039987188975516 0.0018136435384829542 0.0031348105739661177 0.9981034420798981 -0.007915808207621205
 -0.00011813455792251242 -0.0010039984116484823 0.00012541522993562455 0.001591564324724374 0.9981034420798981 -0.007915808207621205 0.0018136598367715473 0.0031348070770029052
0.01875781575657 0.0019852035380729972 0.0047412828431499104 0.9978818046262786 -0.011884339670243757 0.0001712745633854913 0.0023884097082390453 -0.00015797017282641183 -0.0015089439520993165
 0.9978818046262786 -0.011884339670243757 0.0019852459855421176 0.004741276081291199 -0.0001579739585788733 -0.001508944337573564 0.0001709037770306913 0.0023884657154427218
 0.0001712745633854913 0.0023884097082390453 -0.0001579739585788733 -0.001508944337573564 0.0019852038871998328 0.004741031337888564 0.9978818019717188 -0.011884590624116644
 -0.00015797017282641183 -0.0015089439520993165 0.0001709037770306913 0.0023884657154427218 0.9978818019717188 -0.011884590624116644 0.0019852404952607834 0.004741026313228017
0.02501042100875 0.002170719352037358 0.006367909667059399 0.9976405647105302 -0.015865431577241376 0.0002250843095421964 0.003186237932480993 -0.00020451188608153832 -0.0020153913681268507
 0.9976405647105302 -0.015865431577241376 0.002170794762816536 0.006367900663887066 -0.00020451858405838477 -0.0020153917668081795 0.0002244254956216434 0.0031863260979779063
 0.0002250843095421964 0.003186237932480993 -0.00020451858405838477 -0.0020153917668081795 0.0021707203844919345 0.006367574616001122 0.9976405603631923 -0.015865766068862763
 -0.00020451188608153832 -0.0020153913681268507 0.0002244254956216434 0.0031863260979779063 0.9976405603631923 -0.015865766068862763 0.0021707853732900644 0.006367568248815206
0.03126302626094 0.002370507221085671 0.008013708087829089 0.9973794529364206 -0.019859744451616018 0.0002870979125471244 0.0039849799062198175 -0.0002578548930877743 -0.002523183609115078
 0.9973794529364206 -0.019859744451616018 0.002370624992177411 0.008013696866704584 -0.0002578653176244885 -0.002523183944617254 0.000286068652152979 0.00398510862712115
 0.0002870979125471244 0.0039849799062198175 -0.0002578653176244885 -0.002523183944617254 0.0023705092457724755 0.008013289639266837 0.9973794464890756 -0.019860162524182413
 -0.0002578548930877743 -0.002523183609115078 0.000286068652152979 0.00398510862712115 0.9973794464890756 -0.019860162524182413 0.0023706106685135796 0.008013282146451035
0.037515631513130004 0.0025848765536929373 0.00967792953305725 0.9970981922772117 -0.02386769391057404 0.0003574034219264338 0.004784569112766362 -0.00031809239362327874 -0.0030321868910542396
 0.9970981922772117 -0.02386769391057404 0.0025850460839330906 0.009677916129684551 -0.0003181073538842386 -0.0030321870755347204 0.00035592109095963596 0.00478474778901805
 0.0003574034219264338 0.004784569112766362 -0.0003181073538842386 -0.0030321870755347204 0.0025848798918612975 0.009677427871698216 0.9970981833158454 -0.02386819563323481
 -0.00031809239362327874 -0.0030321868910542396 0.00035592109095963596 0.00478474778901805 0.9970981833158454 -0.02386819563323481 0.002585025788992097 0.009677419503198977
0.043768236765320004 0.0028141326094763192 0.011360018367159358 0.9967965022946917 -0.027889492458464123 0.00043608809870005437 0.0055849237109367855 -0.0003853158360074778 -0.003542277340764616
 0.9967965022946917 -0.027889492458464123 0.002814363303686515 0.011360002830183808 -0.0003853361363095422 -0.00354227727485125 0.00043406985364654406 0.005585162757559072
 0.00043608809870005437 0.0055849237109367855 -0.0003853361363095422 -0.00354227727485125 0.002814137599561607 0.011359433708600706 0.9967964904013414 -0.02789007793191186
 -0.0003853158360074778 -0.003542277340764616 0.00043406985364654406 0.005585162757559072 0.9967964904013414 -0.02789007793191186 0.0028143360028634024 0.01135942474843321
0.050020842017509996 0.003058577733273621 0.013059525378419855 0.9964741005857993 -0.031925235927807265 0.0005232381779426879 0.006385952050779057 -0.00045961500315887813 -0.004053335481362819
 0.9964741005857993 -0.031925235927807265 0.0030588790055010246 0.013059507770012701 -0.0004596414431147686 -0.004053335054093371 0.0005206009508874129 0.006386262910543915
 0.0005232381779426879 0.006385952050779057 -0.0004596414431147686 -0.004053335054093371 0.00305858473008539 0.013058857973101396 0.9964740853362003 -0.03192590528038315
 -0.00045961500315887813 -0.004053335481362819 0.0005206009508874129 0.006386262910543915 0.9964740853362003 -0.03192590528038315 0.003058843666141764 0.013058848740303929
0.055454545454549996 0.003283576429919292 0.014550293834555174 0.9961768830999307 -0.035443762388076124 0.0006059152565660217 0.00708254057005916 -0.0005299980780873243 -0.00449815487864452
 0.9961768830999307 -0.035443762388076124 0.0032839466917464755 0.014550274487233747 -0.0005300304993661129 -0.004498154038184547 0.0006026724800686544 0.007082923938426799
 0.0006059152565660217 0.00708254057005916 -0.0005300304993661129 -0.004498154038184547 0.003283585472304352 0.01454955475176757 0.996176864583669 -0.03544450475839957
 -0.0005299980780873243 -0.00449815487864452 0.0006026724800686544 0.007082923938426799 0.996176864583669 -0.03544450475839957 0.0032839035305764737 0.014549545568849045
0.056273447269699996 0.0033185119890728303 0.014776065339948118 0.9961307036323244 -0.0359749458475419 0.000618938697571083 0.007187555389058778 -0.0005410780324739 -0.004565243520677941
 0.9961307036323244 -0.0359749458475419 0.0033188932660474547 0.014776045736123731 -0.0005411114070446222 -0.0045652426094421016 0.000615599196641869 0.007187950545346503
 0.000618938697571083 0.007187555389058778 -0.0005411114070446222 -0.0045652426094421016 0.003318521364886026 0.014775315472267403 0.9961306845952697 -0.03597569923619986
 -0.0005410780324739 -0.004565243520677941 0.000615599196641869 0.007187950545346503 0.9961306845952697 -0.03597569923619986 0.0033188488589401166 0.014775306321581957
0.06252605252188 0.003594233497469659 0.016509293644433456 0.9957660273586529 -0.04003859273974798 0.0007232733640504242 0.007989629369205907 -0.0006297913977631335 -0.005077883878513181
 0.9957660273586529 -0.04003859273974798 0.003594704221861869 0.016509272135330138 -0.0006298324972429012 -0.005077882348989745 0.000719148077709789 0.007990122358893074
 0.0007232733640504242 0.007989629369205907 -0.0006298324972429012 -0.005077882348989745 0.003594245642323162 0.01650846164183895 0.9957660040947418 -0.04003943034092225
 -0.0006297913977631335 -0.005077883878513181 0.000719148077709789 0.007990122358893074 0.9957660040947418 -0.04003943034092225 0.0035946497219434548 0.01650845296440832
0.06877865777407 0.003886038618597149 0.01825889241209237 0.9953797875377824 -0.04411610994646789 0.0008363244356233046 0.008792064916328357 -0.0007258398726254103 -0.005591138302438025
 0.9953797875377824 -0.04411610994646789 0.0038866082519418586 0.018258869102210345 -0.0007258894826137233 -0.00559113600855221 0.0008313296394015444 0.008792670342694061
 0.0008363244356233046 0.008792064916328357 -0.0007258894826137233 -0.00559113600855221 0.0038860539414452217 0.018257978630140326 0.9953797595987903 -0.04411703197103847
 -0.0007258398726254103 -0.005591138302438025 0.0008313296394015444 0.008792670342694061 0.9953797595987903 -0.04411703197103847 0.0038865426397490755 0.018257970854065306
0.07503126302626001 0.004194222034910537 0.020024561650893547 0.9949717001013243 -0.04820740240809691 0.0009581726170417714 0.009594748804621677 -0.0008293064808627016 -0.006104887315176742
 0.9949717001013243 -0.04820740240809691 0.00419490006121927 0.020024536659102046 -0.0008293653822091205 -0.006104884099037555 0.0009522243823497502 0.009595482350140478
 0.0009581726170417714 0.009594748804621677 -0.0008293653822091205 -0.006104884099037555 0.0041942409649923535 0.020023566486492696 0.9949716670299341 -0.04820840908807374
 -0.0008293064808627016 -0.006104887315176742 0.0009522243823497502 0.009595482350140478 0.9949716670299341 -0.04820840908807374 0.0041948223245330705 0.020023560077280754
0.08128386827845 0.004519076779827696 0.021806013395904694 0.9945414813989869 -0.05231235246702534 0.001088896961891227 0.01039756403514751 -0.0009402724380617491 -0.0066190098557008074
 0.9945414813989869 -0.05231235246702534 0.004519872708368848 0.021805986855427596 -0.0009403414067341194 -0.0066190055475640695 0.001081911166383013 0.010398442474198914
 0.001088896961891227 0.01039756403514751 -0.0009403414067341194 -0.0066190055475640695 0.0045190997664646656 0.02180493728032762 0.994541442726631 -0.0523134440623754
 -0.0009402724380617491 -0.0066190098557008074 0.001081911166383013 0.010398442474198914 0.994541442726631 -0.0523134440623754 0.004519781842668858 0.021804932741187173
0.08753647353064001 0.004860894222505658 0.023602967642810602 0.9940888484169764 -0.056430823881382194 0.001228574778534745 0.011200390108694992 -0.0010588170883040848 -0.007133383029552195
 0.9940888484169764 -0.056430823881382194 0.004861817591086841 0.0236029397011006 -0.0010588968953211635 -0.007133377447769216 0.0012204671175207575 0.011201431320148763
 0.001228574778534745 0.011200390108694992 -0.0010588968953211635 -0.007133377447769216 0.0048609217369966345 0.02360181104651194 0.9940888036640027 -0.056432000675109194
 -0.0010588170883040848 -0.007133383029552195 0.0012204671175207575 0.011201431320148763 0.9940888036640027 -0.056432000675109194 0.004861712601579979 0.023601808918629657
0.09378907878283 0.005219964028269258 0.025415149453875255 0.9936135189765177 -0.06056266467148833 0.001377281539200935 0.012003103219646611 -0.001185017836337414 -0.0076478819426428635
 0.9936135189765177 -0.06056266467148833 0.005221024406651033 0.025415120272386866 -0.0011851092476317252 -0.007647874893626372 0.001367967538391576 0.012004326199269017
 0.001377281539200935 0.012003103219646611 -0.0011851092476317252 -0.007647874893626372 0.005219996563927527 0.02541391288315525 0.9936134676506589 -0.06056392697279556
 -0.001185017836337414 -0.0076478819426428635 0.001367967538391576 0.012004326199269017 0.9936134676506589 -0.06056392697279556 0.005220904308814424 0.025413913745784892
0.100041684035 0.005596574098386251 0.027242286830924035 0.9931152119140817 -0.06470770920431287 0.001535090791501174 0.012805576404494041 -0.0013189500763710433 -0.00816237958493457
 0.9931152119140817 -0.06470770920431287 0.005597781091180699 0.02724225658477472 -0.0013190538526263518 -0.008162370863118298 0.0015244858205428777 0.012807001277193392
 0.001535090791501174 0.012805576404494041 -0.0013190538526263518 -0.008162370863118298 0.005596612171866853 0.027240970829802556 0.9931151535095043 -0.0647090573464126
 -0.0013189500763710433 -0.00816237958493457 0.0015244858205428777 0.012807001277193392 0.9931151535095043 -0.0647090573464126 0.005597644912736608 0.02724097530029516
0.1059090909091 0.005966190228485772 0.028970222279199553 0.9926264562746611 -0.06860924435789321 0.0016915204021814175 0.013558278404252522 -0.0014517283179535287 -0.008645064825555113
 0.9926264562746611 -0.06860924435789321 0.005967543572811184 0.02897019120500041 -0.001451844384505886 -0.00864505433633402 0.0016796268957650423 0.013559912052001848
 0.0016915204021814175 0.013558278404252522 -0.001451844384505886 -0.00864505433633402 0.005966233990307826 0.0289688322657842 0.9926263907551257 -0.0686106733803765
 -0.0014517283179535287 -0.008645064825555113 0.0016796268957650423 0.013559912052001848 0.9926263907551257 -0.0686106733803765 0.005967391431951935 0.028968840717193963
0.1062942892872 0.005991010494194435 0.02908410911756698 0.992593647249507 -0.06886577975385126 0.0017020740703507997 0.013607679665158738 -0.00146068711941382 -0.008676746744049548
 0.992593647249507 -0.06886577975385126 0.005992373744429292 0.029084077995053744 -0.0014608040159839943 -0.008676736131855926 0.0016900933570518652 0.013609327697055184
 0.0017020740703507997 0.013607679665158738 -0.0014608040159839943 -0.008676736131855926 0.005991054646549816 0.029082714263677013 0.9925935812463805 -0.06886721409783214
 -0.00146068711941382 -0.008676746744049548 0.0016900933570518652 0.013609327697055184 0.9925935812463805 -0.06886721409783214 0.005992220526335271 0.029082722997368558
0.11254689453939999 0.006403557352438115 0.03094034578100616 0.9920485463485815 -0.073036687687604 0.0018783008118243864 0.014409280061812779 -0.0016103001176934345 -0.009190851954231477
 0.9920485463485815 -0.073036687687604 0.006405086544789265 0.0309403139830736 -0.0016104308843985803 -0.009190839222043532 0.0018648594573347369 0.014411173672077697
 0.0018783008118243864 0.014409280061812779 -0.0016104308843985803 -0.009190839222043532 0.00640360814968141 0.030938872689841423 0.9920484722115822 -0.07303820861782287
 -0.0016103001176934345 -0.009190851954231477 0.0018648594573347369 0.014411173672077697 0.9920484722115822 -0.07303820861782287 0.006404915342632731 0.03093888637983853
0.11879949979160001 0.006834496790002789 0.03281072546059962 0.9914796320774896 -0.07722023439188991 0.0020638382669256492 0.015210241796929556 -0.001767857988558344 -0.00970456145893801
 0.9914796320774896 -0.07722023439188991 0.00683620165398532 0.03281069320014046 -0.0017680033695341465 -0.009704546365070722 0.0020488512613612325 0.015212404569426628
 0.0020638382669256492 0.015210241796929556 -0.0017680033695341465 -0.009704546365070722 0.006834554824354451 0.032809174785604044 0.9914795492550781 -0.07722184231544904
 -0.001767857988558344 -0.00970456145893801 0.0020488512613612325 0.015212404569426628 0.9914795492550781 -0.07722184231544904 0.006836011539638728 0.032809194162404215
0.1250521050438 0.007284108802633126 0.034694975222141336 0.9908866289544059 -0.08141621199729811 0.002258751416285386 0.01601042628900306 -0.0019334273366335582 -0.010217739188831461
 0.9908866289544059 -0.08141621199729811 0.007285999116158301 0.034694942723198584 -0.001933588070152322 -0.010217721479517872 0.002242133655185256 0.016012882983657436
 0.002258751416285386 0.01601042628900306 -0.001933588070152322 -0.010217721479517872 0.007284174693000782 0.03469334764914809 0.9908865368775421 -0.08141790734922498
 -0.0019334273366335582 -0.010217739188831461 0.002242133655185256 0.016012882983657436 0.9908865368775421 -0.08141790734922498 0.007285789178629986 0.03469337348018667
0.131304710296 0.007752671157613974 0.03659281995838528 0.9902692632975688 -0.08562440396401273 0.0024631028851349094 0.016809692237368997 -0.002107072375466635 -0.010730246753779978
 0.9902692632975688 -0.08562440396401273 0.007754756750261412 0.03659278745524756 -0.002107249193827274 -0.010730226163148164 0.002444769186167093 0.016812468801357863
 0.0024631028851349094 0.016809692237368997 -0.002107249193827274 -0.010730226163148164 0.007752745551131188 0.036591116209876366 0.9902691613789747 -0.08562618720239878
 -0.002107072375466635 -0.010730246753779978 0.002444769186167093 0.016812468801357863 0.9902691613789747 -0.08562618720239878 0.007754526097651955 0.03659114929894347
0.1375573155481 0.008132339698596265 0.03825680421378267 0.9897354240338049 -0.08959729718789582 0.002650995467630505 0.0175831925396664 -0.002262924520288044 -0.011217239046639333
 0.9897354240338049 -0.08959729718789582 0.008134630634971062 0.03825677141980039 -0.002263118310314261 -0.011217215543210108 0.002630908443338818 0.0175862845915487
 0.002650995467630505 0.0175831925396664 -0.002263118310314261 -0.011217215543210108 0.008132422224830436 0.038255025317918405 0.9897353118142922 -0.08959916859613451
 -0.002262924520288044 -0.011217239046639333 0.002630908443338818 0.0175862845915487 0.9897353118142922 -0.08959916859613451 0.00813437917158834 0.03825506508530005
0.1438099208003 0.008525351892655958 0.039912145435410856 0.9891828450659046 -0.09356023663951683 0.0028464764585091895 0.01835361344528272 -0.0024250107493198263 -0.011701408859317204
 0.9891828450659046 -0.09356023663951683 0.008527858093946237 0.03991211244638948 -0.0024252222627644303 -0.011701382186230496 0.0028245594494524 0.018357044605693245
 0.0028464764585091895 0.01835361344528272 -0.0024252222627644303 -0.011701382186230496 0.008525443054998522 0.039910292201238186 0.9891827219576775 -0.09356219667037215
 -0.0024250107493198263 -0.011701408859317204 0.0028245594494524 0.018357044605693245 0.9891827219576775 -0.09356219667037215 0.008527585099074761 0.03991033923389876
0.1500625260525 0.0089315711308806 0.04155870865989202 0.9886116669813088 -0.09751312726408362 0.0030494793847442923 0.019120878133788467 -0.0025932664964520586 -0.01218268352523855
 0.9886116669813088 -0.09751312726408362 0.008934302565024798 0.041558675559727164 -0.0025934964812499325 -0.012182653415574852 0.003025656211214438 0.019124672875504893
 0.0030494793847442923 0.019120878133788467 -0.0025934964812499325 -0.012182653415574852 0.008931671447966149 0.04155678193065017 0.988611532381233 -0.09751517638651246
 -0.0025932664964520586 -0.01218268352523855 0.003025656211214438 0.019124672875504893 0.988611532381233 -0.09751517638651246 0.008934007345603238 0.04155683682068539
0.15631513130469998 0.009350859856346332 0.04319636300969097 0.9880220310585041 -0.10145587427383582 0.0032599369981188824 0.01988491107353922 -0.0027676264104869227 -0.012660991898698655
 0.9880220310585041 -0.10145587427383582 0.00935382653896646 0.04319632986864974 -0.0027678756106870885 -0.012660958075575858 0.003234131967330827 0.01988909471211928
