! Created with skrf 1.8.0 (http://scikit-rf.org).
# GHz S RI R 50.0 
!freq ReS11 ImS11 ReS12 ImS12 ReS13 ImS13
! ReS14 ImS14
! ReS21 ImS21 ReS22 ImS22 ReS23 ImS23
! ReS24 ImS24
! ReS31 ImS31 ReS32 ImS32 ReS33 ImS33
! ReS34 ImS34
! ReS41 ImS41 ReS42 ImS42 ReS43 ImS43
! ReS44 ImS44
!
0.0 0.001398623072726 0.0 0.9986013769273 0.0 5.379116453425e-05 0.0 -5.379116471808e-05 6.587517769440471e-21
 0.9986013769273 0.0 0.001398623072687 0.0 -5.379116471668e-05 6.5875177692690205e-21 5.379116453412e-05 0.0
 5.379116453425e-05 0.0 -5.379116471668e-05 6.5875177692690205e-21 0.001398623071715 0.0 0.9986013769263 0.0
 -5.379116471808e-05 6.587517769440471e-21 5.379116453412e-05 0.0 0.9986013769263 0.0 0.00139862307175 0.0
0.005 0.0015044380075571898 0.0011429053240676486 0.9984675674453981 -0.0029302614895612734 7.537614966350439e-05 0.0006024154249416019 -7.318862986931337e-05 -0.0003764956297349344
 0.9984675674453981 -0.0029302614895612734 0.0015044421917769686 0.0011429029087396735 -7.318889523863284e-05 -0.0003764958889861393 7.534695869746921e-05 0.0006024265068838902
 7.537614966350439e-05 0.0006024154249416019 -7.318889523863284e-05 -0.0003764958889861393 0.0015044372569945146 0.0011428385359881239 0.9984675671076397 -0.00293032856675366
 -7.318862986931337e-05 -0.0003764956297349344 7.534695869746921e-05 0.0006024265068838902 0.9984675671076397 -0.00293032856675366 0.0015044422720478913 0.0011428355473045515
0.006252605252188 0.0015320770832745773 0.0014331507276239587 0.9984324135730966 -0.003663561978139782 8.147743092647187e-05 0.0007533139677009238 -7.861317943775582e-05 -0.00047111519603927496
 0.9984324135730966 -0.003663561978139782 0.0015320836237989052 0.0014331476658369971 -7.861359193192471e-05 -0.00047111551690907417 8.143182207149639e-05 0.0007533283559432135
 8.147743092647187e-05 0.0007533139677009238 -7.861359193192471e-05 -0.00047111551690907417 0.0015320759701676974 0.0014330672751300439 0.9984324131055239 -0.0036636457998608547
 -7.861317943775582e-05 -0.00047111519603927496 8.143182207149639e-05 0.0007533283559432135 0.9984324131055239 -0.0036636457998608547 0.0015320838103138868 0.0014330634857409351
0.01250521050438 0.001676917426324087 0.0028965488765626715 0.9982470597963156 -0.007328047393856238 0.00011612128280918305 0.001507001302470769 -0.00010911184805044507 -0.0009445963255334651
 0.9982470597963156 -0.007328047393856238 0.0016769435385258612 0.002896542329007183 -0.00010911346836186318 -0.0009445969331124586 0.00011593938699325813 0.0015070358205133128
 0.00011612128280918305 0.001507001302470769 -0.00010911346836186318 -0.0009445969331124586 0.0016769135421915917 0.002896382309956832 0.9982470584944041 -0.007328214797417835
 -0.00010911184805044507 -0.0009445963255334651 0.00011593938699325813 0.0015070358205133128 0.9982470584944041 -0.007328214797417835 0.001676944857324126 0.002896374189594513
0.01875781575657 0.0018334373675556951 0.004381006371378667 0.9980451016223021 -0.011002400815005833 0.00015779925508633386 0.0022615925160487157 -0.00014537632491857082 -0.0014197633481524154
 0.9980451016223021 -0.011002400815005833 0.0018334960339494242 0.0043809958937426185 -0.00014537993096980017 -0.0014197642040589549 0.00015739060397154672 0.002261653941238907
 0.00015779925508633386 0.0022615925160487157 -0.00014537993096980017 -0.0014197642040589549 0.0018334290488150747 0.004380756916760596 0.9980450991137552 -0.011002651726036481
 -0.00014537632491857082 -0.0014197633481524154 0.00015739060397154672 0.002261653941238907 0.9980450991137552 -0.011002651726036481 0.0018334994332477167 0.004380743876802692
0.02501042100875 0.002001922757820828 0.005884466837117749 0.9978263172976951 -0.014688427088701755 0.00020658904414415155 0.0030171370657996184 -0.0001874932302789434 -0.0018964128778908972
 0.9978263172976951 -0.014688427088701755 0.0020020269298063782 0.005884451970152474 -0.0001874995883585967 -0.0018964139385877514 0.00020586310975878236 0.0030172331724314556
 0.00020658904414415155 0.0030171370657996184 -0.0001874995883585967 -0.0018964139385877514 0.002001908343360966 0.005884134727794484 0.9978263132132671 -0.014688761478695071
 -0.0001874932302789434 -0.0018964128778908972 0.00020586310975878236 0.0030172331724314556 0.9978263132132671 -0.014688761478695071 0.002002033370918936 0.005884116138603809
0.03126302626094 0.0021826475220278214 0.007405883989981104 0.9975904729534049 -0.01838691291973397 0.00026256899137882655 0.003773614258088641 -0.00023554696517920522 -0.0023744072627445044
 0.9975904729534049 -0.01838691291973397 0.0021828101274307806 0.0074058642607509485 -0.00023555683199047217 -0.002374408479456279 0.00026143510305926703 0.0037737538228681915
 0.00026256899137882655 0.003773614258088641 -0.00023555683199047217 -0.002374408479456279 0.0021826253486481816 0.0074054694831731495 0.997590466921405 -0.018387330789666045
 -0.00023554696517920522 -0.0023744072627445044 0.00026143510305926703 0.0037737538228681915 0.997590466921405 -0.018387330789666045 0.002182820580291138 0.007405444675158744
0.037515631513130004 0.0023758798043701027 0.008944584660229552 0.9973373289046359 -0.02209826379143987 0.00032581731628154707 0.004530975934347442 -0.000289620347113177 -0.0028536318912113635
 0.9973373289046359 -0.02209826379143987 0.0023761137523838063 0.008944559582831201 -0.00028963447083891553 -0.002853633209921535 0.00032418462367471694 0.004531168746344621
 0.00032581731628154707 0.004530975934347442 -0.00028963447083891553 -0.002853633209921535 0.0023758482081186077 0.008944088052525893 0.9973373205518055 -0.022098765156678326
 -0.000289620347113177 -0.0028536318912113635 0.00032418462367471694 0.004531168746344621 0.9973373205518055 -0.022098765156678326 0.002376129197033442 0.008944056316547443
0.043768236765320004 0.002581884347595666 0.010500075005432525 0.99706664218713 -0.025822697688544314 0.00039641176591587293 0.005289159453610737 -0.0003497948410500723 -0.0033339822021511136
 0.99706664218713 -0.025822697688544314 0.0025822025326315227 0.010500044081663586 -0.0003498139619958853 -0.0033339835636454675 0.0003941892215954582 0.00528941632557794
 0.00039641176591587293 0.005289159453610737 -0.0003498139619958853 -0.0033339835636454675 0.0025818416630539 0.01049949662212154 0.9970666311366628 -0.025823282590027637
 -0.0003497948410500723 -0.0033339822021511136 0.0003941892215954582 0.00528941632557794 0.9970666311366628 -0.025823282590027637 0.0025822239585664092 0.01049945720958656
0.050020842017509996 0.0028009236024456206 0.012071960378913673 0.9967781678257956 -0.029560325163003075 0.0004744294076782503 0.00604809305193552 -0.0004161506501496944 -0.003815358318864772
 0.9967781678257956 -0.029560325163003075 0.0028013389078330496 0.01207192309868954 -0.00041617550128814925 -0.00381535965875748 0.0004715257601744892 0.006048425832161421
 0.0004744294076782503 0.00604809305193552 -0.00041617550128814925 -0.00381535965875748 0.0028008681652176813 0.012071300580977048 0.9967781536985969 -0.029560993660591815
 -0.0004161506501496944 -0.003815358318864772 0.0004715257601744892 0.006048425832161421 0.9967781536985969 -0.029560993660591815 0.0028013673156615246 0.012071252704041923
0.055454545454549996 0.0030020636720423707 0.013451030108336575 0.99651283789952 -0.03281918566679296 0.0005483168793688265 0.0067081778538425965 -0.0004788972052652984 -0.004234445833998633
 0.99651283789952 -0.03281918566679296 0.0030025738343704015 0.013450986880928373 -0.0004789276258972293 -0.004234447098837798 0.0005447470662467065 0.0067085870362185085
 0.0005483168793688265 0.0067081778538425965 -0.0004789276258972293 -0.004234447098837798 0.0030019958005204233 0.013450299887042558 0.9965128207873553 -0.03281992686799818
 -0.0004788972052652984 -0.004234445833998633 0.0005447470662467065 0.0067085870362185085 0.9965128207873553 -0.03281992686799818 0.0030026091300821268 0.013450243983865717
0.056273447269699996 0.0030332583070462474 0.013659906019495946 0.9964716595757119 -0.03331118857862678 0.0005599464853193529 0.006807698468265028 -0.000488766743758967 -0.004297662418516285
 0.9964716595757119 -0.03331118857862678 0.0030337836079363297 0.013659861861191603 -0.0004887980510197849 -0.004297663667285966 0.0005562702785477738 0.006808120052628244
 0.0005599464853193529 0.006807698468265028 -0.0004887980510197849 -0.004297663667285966 0.0030331884528208676 0.013659165214354221 0.9964716419886152 -0.03331194074076374
 -0.000488766743758967 -0.004297662418516285 0.0005562702785477738 0.006808120052628244 0.9964716419886152 -0.03331194074076374 0.003033820008489576 0.013659108045772674
0.06252605252188 0.003279147802126122 0.01526361543916447 0.9961468704024022 -0.037075283659185276 0.000653038306650355 0.0075678923878013055 -0.0005677208532944828 -0.004780797286242822
 0.9961468704024022 -0.037075283659185276 0.003279795968634745 0.015263563869906741 -0.000567759335869779 -0.004780798369276415 0.000648497883283288 0.007568416731922352
 0.000653038306650355 0.0075678923878013055 -0.000567759335869779 -0.004780798369276415 0.0032790618682772862 0.015262794068753187 0.9961468489684454 -0.03707611957523691
 -0.0005677208532944828 -0.004780797286242822 0.000648497883283288 0.007568416731922352 0.9961468489684454 -0.03707611957523691 0.0032798413839851643 0.01526272674174416
0.06877865777407 0.0035388502050748825 0.016882817527051192 0.9958035528235974 -0.0408525723222381 0.0007537791488096613 0.008328587304685482 -0.0006530894494828126 -0.005264665452496335
 0.9958035528235974 -0.0408525723222381 0.003539634104859921 0.016882758002957875 -0.00065313582002941 -0.005264666290126401 0.0007482826568861158 0.008329229436054408
 0.0007537791488096613 0.008328587304685482 -0.00065313582002941 -0.005264666290126401 0.0035387465310610395 0.016881916076661226 0.9958035271513198 -0.040853492094029366
 -0.0006530894494828126 -0.005264665452496335 0.0007482826568861158 0.008329229436054408 0.9958035271513198 -0.040853492094029366 0.0035396895683987017 0.01688183768471862
0.07503126302626001 0.003812622501292009 0.01851725838296451 0.9954414591712998 -0.04464299078609448 0.0008622421741621263 0.00908969206252816 -0.0007449477081592807 -0.00574916865524486
 0.9954414591712998 -0.04464299078609448 0.0038135550027818365 0.01851719034913556 -0.0007450026729780606 -0.005749169162786391 0.0008556975755937181 0.009090468092558195
 0.0008622421741621263 0.00908969206252816 -0.0007450026729780606 -0.005749169162786391 0.0038124994294361915 0.018516277375803938 0.9954414288642655 -0.04464399453364964
 -0.0007449477081592807 -0.00574916865524486 0.0008556975755937181 0.009090468092558195 0.9954414288642655 -0.04464399453364964 0.0038136215595283795 0.01851618697232666
0.08128386827845 0.004100720581123992 0.020166695873165226 0.9950603418025284 -0.04844645495698438 0.0009784993520705553 0.009851112224564923 -0.0008433694687940661 -0.006234207475404623
 0.9950603418025284 -0.04844645495698438 0.004101814555951684 0.020166618763777795 -0.0008434337280168531 -0.006234207563186579 0.0009708144330697224 0.00985203936054512
 0.0009784993520705553 0.009851112224564923 -0.0008434337280168531 -0.006234207563186579 0.004100576457598991 0.0201656358758679 0.9950603064588694 -0.04844754281337962
 -0.0008433694687940661 -0.006234207475404623 0.0009708144330697224 0.00985203936054512 0.9950603064588694 -0.04844754281337962 0.0041018932628544575 0.020165532473886714
0.08753647353064001 0.0044033992441899535 0.021830895871643233 0.9946599532799416 -0.052262864134168946 0.0011026213848885126 0.010612750323012362 -0.0009484271878267403 -0.0067196810960947345
 0.9946599532799416 -0.052262864134168946 0.004404667570304236 0.021830809109843644 -0.0009485014355326198 -0.006719680669498396 0.0010937037676925796 0.010613846879907766
 0.0011026213848885126 0.010612750323012362 -0.0009485014355326198 -0.006719680669498396 0.004403232419478343 0.021829757494062997 0.9946599124918042 -0.05226403624601339
 -0.0009484271878267403 -0.0067196810960947345 0.0010937037676925796 0.010613846879907766 0.9946599124918042 -0.05226403624601339 0.004404759496287805 0.021829640065667944
0.09378907878283 0.004720912177699462 0.023509629575740983 0.9942400465293834 -0.056092103643725584 0.0012346776364998745 0.011374506045561852 -0.0010601918882410246 -0.00720548712782981
 0.9942400465293834 -0.056092103643725584 0.004722367741930046 0.023509532573506985 -0.0010602768125763903 -0.0072054860873256394 0.0012244347922846482 0.011375791457704494
 0.0012346776364998745 0.011374506045561852 -0.0010602768125763903 -0.0072054860873256394 0.0047207210074129615 0.02350841346794138 0.994239999882004 -0.056093360174466575
 -0.0010601918882410246 -0.00720548712782981 0.0012244347922846482 0.011375791457704494 0.994239999882004 -0.056093360174466575 0.004722473968262128 0.02350828094378789
0.100041684035 0.005053511918595458 0.025202671524816946 0.9938003749838581 -0.05993404677288803 0.0013747360627814 0.012136276371309472 -0.0011787331061419199 -0.007691521487600766
 0.9938003749838581 -0.05993404677288803 0.00505516761942302 0.025202563682714584 -0.00117882938942092 -0.007691519728775226 0.0013630753255704019 0.012137771203812793
 0.0013747360627814 0.012136276371309472 -0.00117882938942092 -0.007691519728775226 0.005053294764800122 0.02520137838094137 0.9938003220560939 -0.05993538789917173
 -0.0011787331061419199 -0.007691521487600766 0.0013630753255704019 0.012137771203812793 0.9938003220560939 -0.05993538789917173 0.005055289240489029 0.02520122964960001
0.1059090909091 0.005379566688615755 0.026804225820747752 0.993369594931637 -0.06355073452510841 0.0015135031690574827 0.012851036254722004 -0.0012961952232248585 -0.008147726565837395
 0.993369594931637 -0.06355073452510841 0.005381421940442012 0.026804107250870117 -0.0012963027811522879 -0.00814772403365651 0.001500427501710227 0.012852747326995146
 0.0015135031690574827 0.012851036254722004 -0.0012963027811522879 -0.00814772403365651 0.005379323668470989 0.02680286105618488 0.9933695357202179 -0.06355215520898105
 -0.0012961952232248585 -0.008147726565837395 0.001500427501710227 0.012852747326995146 0.9933695357202179 -0.06355215520898105 0.005381559014431349 0.026802696067190955
0.1062942892872 0.005401449802843025 0.02690979812405971 0.9933406927177766 -0.06378855620284155 0.0015228631430639595 0.012897955677643385 -0.0013041188353573561 -0.008177678310176883
 0.9933406927177766 -0.06378855620284155 0.005403318553344877 0.02690967883084185 -0.0013042271541969257 -0.00817767572376256 0.0015096917244017984 0.012899681637711758
 0.0015228631430639595 0.012897955677643385 -0.0013042271541969257 -0.00817767572376256 0.005401205034456813 0.026908428680922792 0.9933406330804657 -0.0637899821161074
 -0.0013041188353573561 -0.008177678310176883 0.0015096917244017984 0.012899681637711758 0.9933406330804657 -0.0637899821161074 0.005403456676214628 0.026908262588190898
0.11254689453939999 0.005764975905075147 0.02863078650613453 0.9928607545732967 -0.06765548510732398 0.0016791238122993693 0.013659435826390027 -0.0014364154702541105 -0.008663849883669257
 0.9928607545732967 -0.06765548510732398 0.005767070635614743 0.028630655138365622 -0.001436536495622969 -0.008663846355581845 0.0016643488169290031 0.01366141577438843
 0.0016791238122993693 0.013659435826390027 -0.001436536495622969 -0.008663846355581845 0.005764701898857343 0.02862934154424475 0.9928606877895498 -0.06765699601302748
 -0.0014364154702541105 -0.008663849883669257 0.0016643488169290031 0.01366141577438843 0.9928606877895498 -0.06765699601302748 0.005767226380775827 0.028629156892312494
0.11879949979160001 0.0061443389697765785 0.030365413647857425 0.9923603162820065 -0.0715346780003333 0.001843581394011587 0.014420606232817702 -0.0015756877470869122 -0.009149926605699972
 0.9923603162820065 -0.0715346780003333 0.006146672630978229 0.03036526956934731 -0.0015758221444226426 -0.009149922017053795 0.001827109835977879 0.014422864193064487
 0.001843581394011587 0.014420606232817702 -0.0015758221444226426 -0.009149922017053795 0.006144034111547748 0.03036389399092186 0.9923602419062083 -0.07153627411856238
 -0.0015756877470869122 -0.009149926605699972 0.001827109835977879 0.014422864193064487 0.9923602419062083 -0.07153627411856238 0.006146847132668336 0.030363689537500748
0.1250521050438 0.006539786337949479 0.03211345566996659 0.9918391345828914 -0.07542597140455663 0.002016297533235818 0.015181353926344508 -0.0017219986843559512 -0.009635796951388817
 0.9918391345828914 -0.07542597140455663 0.006542371903304588 0.032113298231136886 -0.0017221471136148268 -0.009635791178534733 0.001998036352889869 0.015183915097747126
 0.002016297533235818 0.015181353926344508 -0.0017221471136148268 -0.009635791178534733 0.006539449023027922 0.03211186218570215 0.9918390521602886 -0.07542765296933299
 -0.0017219986843559512 -0.009635796951388817 0.001998036352889869 0.015183915097747126 0.9918390521602886 -0.07542765296933299 0.006542566309715322 0.03211163664301203
0.131304710296 0.006951563867257744 0.03387468727769741 0.9912969673373819 -0.07932919438331154 0.002197332130017954 0.015941563603239024 -0.0018754095220597914 -0.0101213474531211
 0.9912969673373819 -0.07932919438331154 0.00695441433625615 0.033874515814823654 -0.0018755726377967653 -0.010121340367672106 0.0021771882114819336 0.015944454369558846
 0.002197332130017954 0.015941563603239024 -0.0018755726377967653 -0.010121340367672106 0.006951192501702563 0.033873020875861484 0.99129687640376 -0.07933096164466022
 -0.0018754095220597914 -0.0101213474531211 0.0021771882114819336 0.015944454369558846 0.99129687640376 -0.07933096164466022 0.0069546298097128085 0.03387277290957711
0.1375573155481 0.007282010067484983 0.03541858566760459 0.9908315110458187 -0.08301378735648711 0.0023629741876498075 0.016677587961614452 -0.0020122370773777527 -0.010582928725221812
 0.9908315110458187 -0.08301378735648711 0.00728513997760085 0.035418403498327665 -0.0020124160062350085 -0.010582920337031896 0.00234090236362125 0.0166808025718529
 0.0023629741876498075 0.016677587961614452 -0.0020124160062350085 -0.010582920337031896 0.00728160379202193 0.0354168468505202 0.9908314112118102 -0.0830156404548211
 -0.0020122370773777527 -0.010582928725221812 0.00234090236362125 0.0166808025718529 0.9908314112118102 -0.0830156404548211 0.007285376814093454 0.03541657976029126
0.1438099208003 0.007623962037635061 0.03695492331661312 0.9903499070720075 -0.08668962870975268 0.0025353160051510997 0.017411005553721496 -0.002154553477604109 -0.011042127131523978
 0.9903499070720075 -0.08668962870975268 0.0076273846733691825 0.036954730004087735 -0.002154748951383591 -0.011042117312053274 0.00251123175336983 0.017414567953086407
 0.0025353160051510997 0.017411005553721496 -0.002154748951383591 -0.011042117312053274 0.007623519406759469 0.03695311299374665 0.9903497978747786 -0.08669156788776829
 -0.002154553477604109 -0.011042127131523978 0.00251123175336983 0.017414567953086407 0.9903497978747786 -0.08669156788776829 0.007627643898406863 0.03695282572504726
0.1500625260525 0.007977307188822414 0.038483589047296415 0.9898522715616666 -0.09035664482455215 0.0027143032520860325 0.01814175363014247 -0.002302306025676005 -0.011498882916692117
 0.9898522715616666 -0.09035664482455215 0.00798103587125622 0.03848338411996778 -0.002302518776654841 -0.011498871531978233 0.002688122554828769 0.01814568862299421
 0.0027143032520860325 0.01814175363014247 -0.002302518776654841 -0.011498871531978233 0.007976826776053207 0.03848170816147905 0.9898521525301257 -0.0903586703359391
 -0.002302306025676005 -0.011498882916692117 0.002688122554828769 0.01814568862299421 0.9898521525301257 -0.0903586703359391 0.007981318513932642 0.03848139960284927
0.15631513130469998 0.008341932224956767 0.04000447512334779 0.9893387211493692 -0.09401476199463657 0.0028998810116259042 0.01886977041225683 -0.0024554414263254086 -0.011953137521904304
