! Created with skrf 1.8.0 (http://scikit-rf.org).
# GHz S RI R 50.0 
!freq ReS11 ImS11 ReS12 ImS12 ReS13 ImS13
! ReS14 ImS14
! ReS21 ImS21 ReS22 ImS22 ReS23 ImS23
! ReS24 ImS24
! ReS31 ImS31 ReS32 ImS32 ReS33 ImS33
! ReS34 ImS34
! ReS41 ImS41 ReS42 ImS42 ReS43 ImS43
! ReS44 ImS44
!
0.0 0.001763113933034 0.0 0.9982368860669 0.0 6.834549510239e-05 0.0 -6.834549570189e-05 8.369909254745878e-21
 0.9982368860669 0.0 0.001763113933054 0.0 -6.834549570233e-05 8.369909254799762e-21 6.834549510276e-05 0.0
 6.834549510239e-05 0.0 -6.834549570233e-05 8.369909254799762e-21 0.001763113918165 0.0 0.9982368860521 0.0
 -6.834549570189e-05 8.369909254745878e-21 6.834549510276e-05 0.0 0.9982368860521 0.0 0.001763113918163 0.0
0.005 0.0018976765082562748 0.001442206889949463 0.9980665259371366 -0.0036924808213250775 9.609990458057377e-05 0.0007499202186222256 -9.32857527003686e-05 -0.0004711264662195731
 0.9980665259371366 -0.0036924808213250775 0.0018976897964503383 0.0014421990732793653 -9.328248520458718e-05 -0.0004711239372983258 9.60340186648041e-05 0.0007499454159598003
 9.609990458057377e-05 0.0007499202186222256 -9.328248520458718e-05 -0.0004711239372983258 0.0018976786787137214 0.001442272859274852 0.9980665263185172 -0.0036924137654914054
 -9.32857527003686e-05 -0.0004711264662195731 9.60340186648041e-05 0.0007499454159598003 0.9980665263185172 -0.0036924137654914054 0.001897688387257995 0.0014422672164413877
0.006252605252188 0.00193318231766391 0.0018083994468968837 0.9980212573196172 -0.004616469109231996 0.00010414623509137971 0.0009377510699333939 -0.00010042435240129685 -0.0005895033722247555
 0.9980212573196172 -0.004616469109231996 0.0019332030897679577 0.001808389512327222 -0.00010041926810138948 -0.0005895002546202448 0.00010404329655830693 0.0009377837950349961
 0.00010414623509137971 0.0009377510699333939 -0.00010041926810138948 -0.0005895002546202448 0.001933185632792151 0.0018084819055348745 0.9980212578376441 -0.004616385287215866
 -0.00010042435240129685 -0.0005895033722247555 0.00010404329655830693 0.0009377837950349961 0.9980212578376441 -0.004616385287215866 0.0019332008083795956 0.0018084746989650608
0.01250521050438 0.002121338824462056 0.0036543381492938243 0.9977796254711795 -0.009233483941000119 0.00015090789372290654 0.0018757688180889274 -0.00014144809232647735 -0.0011817178962399936
 0.9977796254711795 -0.009233483941000119 0.002121421773363347 0.003654316598308907 -0.00014142805819804778 -0.001181712143552017 0.0001504974510307994 0.0018758476515522238
 0.00015090789372290654 0.0018757688180889274 -0.00014142805819804778 -0.001181712143552017 0.002121351486131757 0.0036545027442814897 0.9977796269584126 -0.009233316549107352
 -0.00014144809232647735 -0.0011817178962399936 0.0001504974510307994 0.0018758476515522238 0.9977796269584126 -0.009233316549107352 0.0021214120754972894 0.0036544867927988662
0.01875781575657 0.002328039013761454 0.005526159322180125 0.9975116585150295 -0.013862227509782643 0.00020874536396286064 0.002814641403742783 -0.00019155177140907427 -0.001775761858238165
 0.9975116585150295 -0.013862227509782643 0.002328225415127148 0.005526124277813079 -0.00019150709917301325 -0.0017757540577176773 0.00020782347742835975 0.002814782642068705
 0.00020874536396286064 0.002814641403742783 -0.00019150709917301325 -0.0017757540577176773 0.0023280670576176425 0.005526405811403419 0.9975116614381649 -0.013861976666470276
 -0.00019155177140907427 -0.001775761858238165 0.00020782347742835975 0.002814782642068705 0.9975116614381649 -0.013861976666470276 0.002328203192313608 0.005526379490834425
0.02501042100875 0.0025537222481859328 0.007421187610396634 0.9972170102172423 -0.018504885698473403 0.00027777490354391054 0.0037543693338801245 -0.00025086513395619603 -0.002371332726075585
 0.9972170102172423 -0.018504885698473403 0.0025540533025870255 0.007421137013847362 -0.00025078625361662403 -0.002371323579361436 0.0002761376518626923 0.0037545920951684215
 0.00027777490354391054 0.0037543693338801245 -0.00025078625361662403 -0.002371323579361436 0.0025537716948274155 0.007421515758865617 0.997217015032582 -0.018504551463846247
 -0.00025086513395619603 -0.002371332726075585 0.0002761376518626923 0.0037545920951684215 0.997217015032582 -0.018504551463846247 0.002554013439197166 0.00742147736751615
0.03126302626094 0.0027988095982376436 0.009338017293999877 0.9968953184202813 -0.023162359045497603 0.0003581126563054284 0.0046948661239721605 -0.0003195135921089962 -0.0029682064942052446
 0.9968953184202813 -0.023162359045497603 0.002799326452950611 0.009337948906079004 -0.000319391032397756 -0.0029681968184072072 0.0003555559570006322 0.004695192363076445
 0.0003581126563054284 0.0046948661239721605 -0.000319391032397756 -0.0029681968184072072 0.0027988864659800133 0.00933842681619447 0.9968953255839681 -0.023161941478469488
 -0.0003195135921089962 -0.0029682064942052446 0.0003555559570006322 0.004695192363076445 0.9968953255839681 -0.023161941478469488 0.002799263834156006 0.009338374576895181
0.037515631513130004 0.0030637124216109147 0.01127570985947381 0.9965462139973807 -0.027835065117444626 0.0004498734628840012 0.005636010335694334 -0.0003976190952653363 -0.0035661856772778453
 0.9965462139973807 -0.027835065117444626 0.0030644561852538233 0.011275621260472782 -0.00039744347378224606 -0.003566176405240478 0.0004461929988075793 0.005636464870405726
 0.0004498734628840012 0.005636010335694334 -0.00039744347378224606 -0.003566176405240478 0.0030638227276925715 0.011276200426289842 0.99654622396538 -0.027834564268028397
 -0.0003976190952653363 -0.0035661856772778453 0.0004461929988075793 0.005636464870405726 0.99654622396538 -0.027834564268028397 0.0030643656961362904 0.011276132487407293
0.043768236765320004 0.0033488356473460167 0.01323354985783869 0.9961693245149196 -0.03252318258310503 0.000553170284934026 0.006577661393936278 -0.00048530041735108217 -0.004165083527494697
 0.9961693245149196 -0.03252318258310503 0.0033498474009091214 0.013233438446830637 -0.0004850624347625245 -0.004165075707841396 0.0005481614762418686 0.006578271934514545
 0.000553170284934026 0.006577661393936278 -0.0004850624347625245 -0.004165075707841396 0.003348985406660171 0.013234121087851568 0.9961693377416178 -0.03252259850027647
 -0.00048530041735108217 -0.004165083527494697 0.0005481614762418686 0.006578271934514545 0.9961693377416178 -0.03252259850027647 0.003349723924794922 0.013234035523939104
0.050020842017509996 0.0036545792828106124 0.015210943974533512 0.9957642761225474 -0.03722675207532544 0.0006681138423508115 0.007519666146843581 -0.0005826732402788021 -0.004764717514219889
 0.9957642761225474 -0.03722675207532544 0.0036559000894486695 0.01521080696824759 -0.0005823636768225992 -0.004764712311309167 0.0006615718427256959 0.007520463326762919
 0.0006681138423508115 0.007519666146843581 -0.0005823636768225992 -0.004764712311309167 0.0036547745106877954 0.015211595444498427 0.9957642930630576 -0.03722608479560479
 -0.0005826732402788021 -0.004764717514219889 0.0006615718427256959 0.007520463326762919 0.9957642930630576 -0.03722608479560479 0.0036557385095182765 0.01521149025664407
0.055454545454549996 0.003937333587675683 0.016944834062772165 0.9953891177457497 -0.04132680983390246 0.00077754595955664 0.008338458053309546 -0.0006752513720674182 -0.005286274504713823
 0.9953891177457497 -0.04132680983390246 0.003938956311623933 0.016944672410230368 -0.0006748721750951583 -0.005286272611258123 0.0007695050113987075 0.008339444600346494
 0.00077754595955664 0.008338458053309546 -0.0006748721750951583 -0.005286272611258123 0.003937573212963476 0.01694555487214637 0.9953891382823662 -0.04132607028811391
 -0.0006752513720674182 -0.005286274504713823 0.0007695050113987075 0.008339444600346494 0.9953891382823662 -0.04132607028811391 0.003938757461629052 0.016945430950083735
0.056273447269699996 0.003981339166536759 0.01720737153900592 0.9953306946953336 -0.04194572561744436 0.00079481234701066 0.00846186208972093 -0.0006898501439452923 -0.005364906146385496
 0.9953306946953336 -0.04194572561744436 0.003983010080064545 0.01720720597022432 -0.0006894598570677674 -0.005364904840226286 0.0007865320545860248 0.008462879496809517
 0.00079481234701066 0.00846186208972093 -0.0006894598570677674 -0.005364904840226286 0.0039815858765689235 0.017208102765903326 0.9953307158035587 -0.04194497518182662
 -0.0006898501439452923 -0.005364906146385496 0.0007865320545860248 0.008462879496809517 0.9953307158035587 -0.04194497518182662 0.003982805277819003 0.017207975881759718
0.06252605252188 0.004329507347617532 0.019222357283644426 0.99486820660724 -0.04667999380683081 0.0009333712841640714 0.009404079150775636 -0.0008069405489120295 -0.0059654672405997635
 0.99486820660724 -0.04667999380683081 0.004331569420607455 0.019222159999386777 -0.0008064604718019699 -0.005965471226750723 0.0009231473623862649 0.009405353358324969
 0.0009333712841640714 0.009404079150775636 -0.0008064604718019699 -0.005965471226750723 0.0043298115528630065 0.0192231677327762 0.994868232337238 -0.046679160251820076
 -0.0008069405489120295 -0.0059654672405997635 0.0009231473623862649 0.009405353358324969 0.994868232337238 -0.046679160251820076 0.00433131627727628 0.019223017006238123
0.06877865777407 0.0046994722608867555 0.021255455125671657 0.9943764393071427 -0.05142940198357428 0.001083893220001145 0.010346140768112818 -0.000934050632610172 -0.006566216906133964
 0.9943764393071427 -0.05142940198357428 0.0047019665524843605 0.021255222784974947 -0.0009334717732986064 -0.006566227695579847 0.001071520125500806 0.010347711365714926
 0.001083893220001145 0.010346140768112818 -0.0009334717732986064 -0.006566227695579847 0.00469983997312997 0.021256344203682755 0.9943764701125324 -0.05142848534704628
 -0.000934050632610172 -0.006566216906133964 0.001071520125500806 0.010347711365714926 0.9943764701125324 -0.05142848534704628 0.004701659948583924 0.021256167414328037
0.07503126302626001 0.005091618781208748 0.023306237899456846 0.993855021777398 -0.056193760457633773 0.0012464776253784968 0.011287864587848324 -0.0010712832286251341 -0.0071669689172980215
 0.993855021777398 -0.056193760457633773 0.005094586364640236 0.02330596697088649 -0.0010705966695182454 -0.007166988136314394 0.0012317496410867326 0.011289774211834205
 0.0012464776253784968 0.011287864587848324 -0.0010705966695182454 -0.007166988136314394 0.005092056011019594 0.023307204956738707 0.9938550581118302 -0.0561927607755722
 -0.0010712832286251341 -0.0071669689172980215 0.0012317496410867326 0.011289774211834205 0.9938550581118302 -0.0561927607755722 0.005094221180442692 0.02330699980897196
0.08128386827845 0.005506328201615645 0.025374290515841492 0.9933035849229431 -0.060972851318678724 0.0014212207091439115 0.012229062945434438 -0.001218737715538298 -0.007767534311558132
 0.9933035849229431 -0.060972851318678724 0.005509810171681916 0.02537397727466494 -0.001217934613166441 -0.007767563701557272 0.001403931981723423 0.012231357308718122
 0.0014212207091439115 0.012229062945434438 -0.001217934613166441 -0.007767563701557272 0.005506840958171902 0.025375334846755793 0.9933036272401308 -0.060971768623861694
 -0.001218737715538298 -0.007767534311558132 0.001403931981723423 0.012231357308718122 0.9933036272401308 -0.060971768623861694 0.005509381288087092 0.02537509896854697
0.08753647353064001 0.005943978160202198 0.02745920525449544 0.9927217619123503 -0.06576643312303679 0.0016082152583793707 0.013169543210837322 -0.0013765098981382384 -0.008367721132879516
 0.9927217619123503 -0.06576643312303679 0.005948015640144228 0.0274588457795228 -0.0013755814831840586 -0.008367762550250386 0.0015881598390526967 0.013172271132133156
 0.0016082152583793707 0.013169543210837322 -0.0013755814831840586 -0.008367762550250386 0.005944572450182089 0.027460326091782845 0.9927218106658264 -0.0657652674497261
 -0.0013765098981382384 -0.008367721132879516 0.0015881598390526967 0.013172271132133156 0.9927218106658264 -0.0657652674497261 0.005947517938416151 0.027460057033104997
0.09378907878283 0.006404942531852484 0.02956057840070215 0.9921091884899386 -0.07057424424703301 0.0018075504829203855 0.014109108055645959 -0.0015446918838119175 -0.008967334262580099
 0.9921091884899386 -0.07057424424703301 0.00640957668080542 0.029560168570741882 -0.0015436294613283622 -0.008967389678500899 0.0017845223712140825 0.014112321488035696
 0.0018075504829203855 0.014109108055645959 -0.0015436294613283622 -0.008967389678500899 0.006405624359462378 0.029561774918205132 0.9921092441333007 -0.07057299562718215
 -0.0015446918838119175 -0.008967334262580099 0.0017845223712140825 0.014112321488035696 0.9921092441333007 -0.07057299562718215 0.0064090050434948255 0.029561470149175827
0.100041684035 0.0068895912941089425 0.03167800779631021 0.9914655032641799 -0.07539600533701493 0.002019311862964453 0.015047555665816878 -0.0017233719555138154 -0.009566175314170129
 0.9914655032641799 -0.07539600533701493 0.0068948633141443574 0.03167754328636395 -0.0017221669052871955 -0.009566246814407651 0.0019931050530289543 0.015051309724409753
 0.002019311862964453 0.015047555665816878 -0.0017221669052871955 -0.009566246814407651 0.006890366660773478 0.03167927910434811 0.9914655662515611 -0.07539467380393024
 -0.0017233719555138154 -0.009566175314170129 0.0019931050530289543 0.015051309724409753 0.9914655662515611 -0.07539467380393024 0.0068942126255869636 0.031678936013057934
0.1059090909091 0.007366249468336874 0.033679235202836284 0.9908328579399404 -0.07993314126260712 0.0022294016514288664 0.015926989541816896 -0.0019006673171770836 -0.010127242290819193
 0.9908328579399404 -0.07993314126260712 0.007372157579979052 0.03367871526273341 -0.0018993206529482026 -0.010127330883342429 0.0022000246481308143 0.01593130388774219
 0.0022294016514288664 0.015926989541816896 -0.0018993206529482026 -0.010127330883342429 0.007367118066464086 0.033680575830114856 0.9908329282319831 -0.07993173195295392
 -0.0019006673171770836 -0.010127242290819193 0.0022000246481308143 0.01593130388774219 0.9908329282319831 -0.07993173195295392 0.0073714280596665245 0.03368019432645298
0.1062942892872 0.007398290375253721 0.033811090999089584 0.9907903479840819 -0.08023142116262404 0.002243581000166071 0.015984679915599348 -0.0019126344412928346 -0.010164042576768305
 0.9907903479840819 -0.08023142116262404 0.007404241518462831 0.03381056727611962 -0.0019112782183341535 -0.010164132361457278 0.002213989529299651 0.015989032904485487
 0.002243581000166071 0.015984679915599348 -0.0019112782183341535 -0.010164132361457278 0.0073991652788057355 0.033812436146602044 0.9907904187696686 -0.08023000674791209
 -0.0019126344412928346 -0.010164042576768305 0.002213989529299651 0.015989032904485487 0.9907904187696686 -0.08023000674791209 0.0074035066653346596 0.0338120520363648
0.11254689453939999 0.007931401487884548 0.035959423895898755 0.9900833678027473 -0.08508018202785565 0.0024804354694428913 0.016920270524816143 -0.002112559583383712 -0.010760730985124813
 0.9900833678027473 -0.08508018202785565 0.007938073063355543 0.035958836214253116 -0.0021110437184684214 -0.010760841368535346 0.0024472534685674066 0.01692528396302224
 0.0024804354694428913 0.016920270524816143 -0.0021110437184684214 -0.010760841368535346 0.007932381921907596 0.0359608418688283 0.9900834468409608 -0.08507868476199985
 -0.002112559583383712 -0.010760730985124813 0.0024472534685674066 0.01692528396302224 0.9900834468409608 -0.08507868476199985 0.007937248934817936 0.03596041395534678
0.11879949979160001 0.008489281950958464 0.038122599628140595 0.9893442115339719 -0.08994196488199037 0.0027299486735454788 0.017854113196193688 -0.0023232234050922546 -0.011356032119777919
 0.9893442115339719 -0.08994196488199037 0.008496715331612892 0.0381219430246265 -0.002321539505386272 -0.011356165530048009 0.0026929704196643578 0.01785985184274711
 0.0027299486735454788 0.017854113196193688 -0.002321539505386272 -0.011356165530048009 0.008490373904290091 0.03812408934644762 0.989344299279709 -0.08994038479632971
 -0.0023232234050922546 -0.011356032119777919 0.0026929704196643578 0.01785985184274711 0.989344299279709 -0.08994038479632971 0.008495796820616972 0.038123614754405455
0.1250521050438 0.009072284503729823 0.040300207752078945 0.9885725319027194 -0.09481643420784347 0.002992189698594733 0.018785989745893024 -0.0025446975776222762 -0.011949734224134853
 0.9885725319027194 -0.09481643420784347 0.009080521133384267 0.040299477040652606 -0.002542837327529647 -0.011949893203003985 0.0029512096688398947 0.018792521623867974
 0.002992189698594733 0.018785989745893024 -0.002542837327529647 -0.011949893203003985 0.009073493959867767 0.04030176807199186 0.9885726288114217 -0.09481477133150956
 -0.0025446975776222762 -0.011949734224134853 0.0029512096688398947 0.018792521623867974 0.9885726288114217 -0.09481477133150956 0.009079503136771982 0.040301243831313255
0.131304710296 0.009680757112971346 0.042491833586825054 0.9877679857915609 -0.09970324273515725 0.003267223171793812 0.01971567822518942 -0.0027770492863127866 -0.012541622240854366
 0.9877679857915609 -0.09970324273515725 0.009689838513170101 0.04249102335285909 -0.0027750044481133413 -0.012541809443351495 0.0032220360990740304 0.01972307464471378
 0.003267223171793812 0.01971567822518942 -0.0027750044481133413 -0.012541809443351495 0.00968209004907375 0.04249346329745134 0.9877680923191171 -0.09970149709740946
 -0.0027770492863127866 -0.012541622240854366 0.0032220360990740304 0.01972307464471378 0.9877680923191171 -0.09970149709740946 0.009688715932484694 0.042492886339146434
0.1375573155481 0.01018291569570508 0.044412249696132916 0.9870624277541452 -0.10431705648207355 0.0035226963521969305 0.02061553854664137 -0.0029879857135062895 -0.013104048419525002
 0.9870624277541452 -0.10431705648207355 0.010192885230731082 0.04441136947624583 -0.002985743931827757 -0.013104264329452664 0.0034731964858264303 0.020623794630868247
 0.0035226963521969305 0.02061553854664137 -0.002985743931827757 -0.013104264329452664 0.010184377373043228 0.04441394777353328 0.9870625443314807 -0.1043152281602201
 -0.0029879857135062895 -0.013104048419525002 0.0034731964858264303 0.020623794630868247 0.9870625443314807 -0.1043152281602201 0.01019165373506818 0.04441332970750656
0.1438099208003 0.01070295820139212 0.04632115799230589 0.9863316124072378 -0.10891775143089522 0.0037884430263200896 0.021510847164329824 -0.0032072966413276296 -0.013662312508002377
 0.9863316124072378 -0.10891775143089522 0.010713857743926879 0.046320203227618706 -0.0032048490498174354 -0.01366255976642274 0.0037344434005452077 0.021520028735206757
 0.0037884430263200896 0.021510847164329824 -0.0032048490498174354 -0.01366255976642274 0.01070455446320527 0.0463229232157346 0.9863317394846931 -0.10891584046736819
 -0.0032072966413276296 -0.013662312508002377 0.0037344434005452077 0.021520028735206757 0.9863317394846931 -0.10891584046736819 0.010712512379678688 0.04632226187100934
0.1500625260525 0.011240679530362466 0.04821835739846412 0.9855757497959114 -0.11350517060953923 0.004064357177419753 0.02240148354652917 -0.0034348793449992033 -0.014216302287731648
 0.9855757497959114 -0.11350517060953923 0.011252551029240465 0.048217323284368466 -0.0034322171028490518 -0.01421658364215248 0.004005672213054884 0.022411658819810096
 0.004064357177419753 0.02240148354652917 -0.0034322171028490518 -0.01421658364215248 0.011242416206863714 0.048220188500259886 0.9855758878237753 -0.11350317704634225
 -0.0034348793449992033 -0.014216302287731648 0.004005672213054884 0.022411658819810096 0.9855758878237753 -0.11350317704634225 0.011251086856402859 0.048219481557414165
0.15631513130469998 0.011795872863748101 0.050103652840794696 0.9847950513242832 -0.11807915856282115 0.004350331377550576 0.02328732953725672 -0.0036706296949911314 -0.014765908185273213
 0.9847950513242832 -0.11807915856282115 0.011808758346151516 0.05010253432237177 -0.0036677439874005925 -0.014766226489144364 0.004286776907449165 0.023298569092523466
