! Created with skrf 1.8.0 (http://scikit-rf.org).
# GHz S RI R 50.0 
!freq ReS11 ImS11 ReS12 ImS12 ReS13 ImS13
! ReS14 ImS14
! ReS21 ImS21 ReS22 ImS22 ReS23 ImS23
! ReS24 ImS24
! ReS31 ImS31 ReS32 ImS32 ReS33 ImS33
! ReS34 ImS34
! ReS41 ImS41 ReS42 ImS42 ReS43 ImS43
! ReS44 ImS44
!
0.0 0.001244796403142 0.0 0.9987552035969 0.0 4.760125968454e-05 0.0 -4.760125941847e-05 5.829472998221209e-21
 0.9987552035969 0.0 0.001244796403135 0.0 -4.760125941796e-05 5.829472998158752e-21 4.760125968479e-05 0.0
 4.760125968454e-05 0.0 -4.760125941796e-05 5.829472998158752e-21 0.001244796395403 0.0 0.9987552035891 0.0
 -4.760125941847e-05 5.829472998221209e-21 4.760125968479e-05 0.0 0.9987552035891 0.0 0.001244796395421 0.0
0.005 0.0013386057305589246 0.0010171339860999276 0.9986366297910643 -0.0026085394392295477 6.652697699145716e-05 0.0005346553555321215 -6.46226680612862e-05 -0.0003339455056644321
 0.9986366297910643 -0.0026085394392295477 0.0013386078576847545 0.0010171328096850534 -6.462183251598106e-05 -0.00033394492952351683 6.650494745251636e-05 0.0005346635691823966
 6.652697699145716e-05 0.0005346553555321215 -6.462183251598106e-05 -0.00033394492952351683 0.0013386061496668126 0.0010172010322835163 0.9986366301159175 -0.002608472384037924
 -6.46226680612862e-05 -0.0003339455056644321 6.650494745251636e-05 0.0005346635691823966 0.9986366301159175 -0.002608472384037924 0.0013386080888364215 0.001017199875985962
0.006252605252188 0.0013630018506234722 0.0012754557997000841 0.9986056319602048 -0.003261345284465913 7.181606778903035e-05 0.0006685868041610097 -6.933324407467296e-05 -0.00041787814779355257
 0.9986056319602048 -0.003261345284465913 0.0013630051755566456 0.0012754543525858783 -6.93319433493625e-05 -0.00041787743847186996 7.178164617509575e-05 0.0006685974858210714
 7.181606778903035e-05 0.0006685868041610097 -6.93319433493625e-05 -0.00041787743847186996 0.0013630024420149612 0.001275539608849547 0.9986056324046302 -0.0032612614705062907
 -6.933324407467296e-05 -0.00041787814779355257 7.178164617509575e-05 0.0006685974858210714 0.9986056324046302 -0.0032612614705062907 0.0013630054739006705 0.0012755381756326288
0.01250521050438 0.0014902217946369549 0.0025780005566353207 0.9984430741326665 -0.006523687686484295 0.00010152509959080604 0.001337572599917522 -9.554939324839747e-05 -0.0008379242521076064
 0.9984430741326665 -0.006523687686484295 0.0014902350646732586 0.002577997907167629 -9.554426032274327e-05 -0.000837922951332661 0.0001013877634161145 0.0013375983620139914
 0.00010152509959080604 0.001337572599917522 -9.554426032274327e-05 -0.000837922951332661 0.001490223588083029 0.002578168000689075 0.9984430753457151 -0.006523520303023452
 -9.554939324839747e-05 -0.0008379242521076064 0.0001013877634161145 0.0013375983620139914 0.9984430753457151 -0.006523520303023452 0.0014902357019414474 0.002578165265680645
0.01875781575657 0.0016266906958403104 0.0038994749249951955 0.9982673591470211 -0.009795012366739264 0.00013679004645691055 0.0020074438414039125 -0.0001263211239397745 -0.0012595461537431626
 0.9982673591470211 -0.009795012366739264 0.0016267204997948267 0.003899471338287893 -0.00012630966735328018 -0.0012595443999886269 0.0001364813688331241 0.0020074897836479667
 0.00013679004645691055 0.0020074438414039125 -0.00012630966735328018 -0.0012595443999886269 0.0016266942903067363 0.0038997259782762735 0.9982673614501482 -0.009794761524623196
 -0.0001263211239397745 -0.0012595461537431626 0.0001364813688331241 0.0020074897836479667 0.9982673614501482 -0.009794761524623196 0.0016267215240028158 0.0038997220899313644
0.02501042100875 0.0017726383145357288 0.005238069746475546 0.9980783105858866 -0.01307694859861254 0.0001776735503701019 0.0026782592297393414 -0.00016171817003196026 -0.0016825763143028468
 0.9980783105858866 -0.01307694859861254 0.0017726912210627905 0.005238065513468864 -0.000161697924422263 -0.0016825742690279393 0.0001771249737492206 0.002678331130568957
 0.0001776735503701019 0.0026782592297393414 -0.000161697924422263 -0.0016825742690279393 0.0017726443003897017 0.005238404428502915 0.9980783142990631 -0.013076614378847443
 -0.00016171817003196026 -0.0016825763143028468 0.0001771249737492206 0.002678331130568957 0.9980783142990631 -0.013076614378847443 0.0017726926885321065 0.005238399556752634
0.03126302626094 0.0019282846121666379 0.006592875850299214 0.9978757415897684 -0.016370219939870843 0.0002242389730124852 0.0033500154215167855 -0.00020180867171367718 -0.002106906093083971
 0.9978757415897684 -0.016370219939870843 0.0019283671749389959 0.006592871289432412 -0.00020177719318274065 -0.0021069039410958105 0.0002233817460245951 0.003350119743846109
 0.0002242389730124852 0.0033500154215167855 -0.00020177719318274065 -0.0021069039410958105 0.0019282935728730298 0.006593294208199753 0.9978757470328775 -0.016369802411253385
 -0.00020180867171367718 -0.002106906093083971 0.0002233817460245951 0.003350119743846109 0.9978757470328775 -0.016369802411253385 0.0019283691508666578 0.006593288545930756
0.037515631513130004 0.0020938449679515506 0.007963317028177 0.9976594601729285 -0.019675211210671187 0.0002765497899313939 0.004022685016508778 -0.0002466596947984057 -0.002532447748376633
 0.9976594601729285 -0.019675211210671187 0.0020939637292484146 0.007963312486581785 -0.0002466145585470995 -0.0025324456979918357 0.00027531493695446196 0.004022828916250332
 0.0002765497899313939 0.004022685016508778 -0.0002466145585470995 -0.0025324456979918357 0.0020938574794048246 0.00796381912912588 0.9976594676643737 -0.019674710437419952
 -0.0002466596947984057 -0.002532447748376633 0.00027531493695446196 0.004022828916250332 0.9976594676643737 -0.019674710437419952 0.0020939662864470185 0.007963812893113044
0.043768236765320004 0.0022695322056649086 0.009348977447795786 0.9974292713502508 -0.022992141027249034 0.0003346693149374678 0.0046962281051165615 -0.0002963374290264344 -0.00295912287824632
 0.9974292713502508 -0.022992141027249034 0.0022696936994472776 0.009348973302189293 -0.00029627622794386 -0.002959121161390305 0.00033298761967206873 0.004696419440554646
 0.0003346693149374678 0.0046962281051165615 -0.00029627622794386 -0.002959121161390305 0.0022695488356882926 0.00934956337428234 0.9974292812058684 -0.022991557073730576
 -0.0002963374290264344 -0.00295912287824632 0.00033298761967206873 0.004696419440554646 0.9974292812058684 -0.022991557073730576 0.0022696969173751787 0.009349556805924336
0.050020842017509996 0.0024555575390599375 0.010749530340139726 0.9971849781839472 -0.02632113305973623 0.00039866054156860437 0.0053705970395672605 -0.000350907271724584 -0.003386857637826449
 0.9971849781839472 -0.02632113305973623 0.0024557682939009926 0.01074952699763477 -0.0003508276155740141 -0.0033868565101050985 0.0003964625380148012 0.005370844381143262
 0.00039866054156860437 0.0053705970395672605 -0.0003508276155740141 -0.0033868565101050985 0.002455578850366463 0.010750200189822796 0.9971849907193385 -0.026320465990629364
 -0.000350907271724584 -0.003386857637826449 0.0003964625380148012 0.005370844381143262 0.9971849907193385 -0.026320465990629364 0.0024557722606667423 0.010750193555879816
0.055454545454549996 0.002625778190173855 0.011978534982365993 0.9969610715967279 -0.029223974571910043 0.0004590880009647967 0.005957273673173748 -0.0004023533279655119 -0.003759376990570473
 0.9969610715967279 -0.029223974571910043 0.002626037053861644 0.011978532692575124 -0.0004022557052596337 -0.0037593766008561192 0.0004563846975142501 0.005957577206617576
 0.0004590880009647967 0.005957273673173748 -0.0004022557052596337 -0.0037593766008561192 0.002625804021193652 0.011979277853905363 0.9969610867154779 -0.029223235326660265
 -0.0004023533279655119 -0.003759376990570473 0.0004563846975142501 0.005957577206617576 0.9969610867154779 -0.029223235326660265 0.0026260417481748775 0.011979271399731952
0.056273447269699996 0.002652131073703342 0.012164702995584826 0.9969263823889336 -0.029662250980880992 0.0004685860369251769 0.006045738768472809 -0.0004104338596991202 -0.0038155803940694553
 0.9969263823889336 -0.029662250980880992 0.0026523976151314557 0.012164700894435854 -0.0004103333744933537 -0.0038155801348424313 0.0004658020047568305 0.00604605140874831
 0.0004685860369251769 0.006045738768472809 -0.0004103333744933537 -0.0038155801348424313 0.0026521576221146368 0.012165456881530985 0.9969263979174927 -0.02966150086096071
 -0.0004104338596991202 -0.0038155803940694553 0.0004658020047568305 0.00604605140874831 0.9969263979174927 -0.02966150086096071 0.002652402425586149 0.012165450474699623
0.06252605252188 0.0028594620855420913 0.013594257520259362 0.996653284717192 -0.03301551765502586 0.0005445078612152876 0.006721596116561631 -0.0004749810750182219 -0.004245220436462509
 0.996653284717192 -0.03301551765502586 0.002859790938703166 0.01359425713050904 -0.00047485740262010416 -0.004245221348894617 0.0005410678240873122 0.006721984080313038
 0.0005445078612152876 0.006721596116561631 -0.00047485740262010416 -0.004245221348894617 0.002859494421906822 0.01359509556716348 0.9966533035511993 -0.033014684552884824
 -0.0004749810750182219 -0.004245220436462509 0.0005410678240873122 0.006721984080313038 0.9966533035511993 -0.033014684552884824 0.0028597966961213636 0.013595089706560747
0.06877865777407 0.0030777591827241763 0.015037979361204629 0.9963654852265708 -0.03638092655902828 0.0006264875005609406 0.007398108547574841 -0.0005446120368798444 -0.004675707205906412
 0.9963654852265708 -0.03638092655902828 0.0030781568750504547 0.01503798118525428 -0.0005444628348208828 -0.004675709617021571 0.0006223212264677241 0.007398582601934205
 0.0006264875005609406 0.007398108547574841 -0.0005444628348208828 -0.004675709617021571 0.0030777978524507707 0.015038901707746454 0.9963655076766376 -0.03638001054476497
 -0.0005446120368798444 -0.004675707205906412 0.0006223212264677241 0.007398582601934205 0.9963655076766376 -0.03638001054476497 0.003078163689670836 0.015038896739463554
0.07503126302626001 0.0033072303960833133 0.01649567002739258 0.9960627834810999 -0.03975844900869855 0.00071458580955805 0.008075212644340954 -0.0006193890831334421 -0.005106969807872662
 0.9960627834810999 -0.03975844900869855 0.0033077034593391756 0.01649567460055591 -0.0006192120243967692 -0.005106974068601154 0.0007096228125156342 0.008075784309000945
 0.00071458580955805 0.008075212644340954 -0.0006192120243967692 -0.005106974068601154 0.0033072759399189735 0.016496676824403103 0.9960628098562841 -0.039757450155697815
 -0.0006193890831334421 -0.005106969807872662 0.0007096228125156342 0.008075784309000945 0.9960628098562841 -0.039757450155697815 0.0033077114492636806 0.016496673121914825
0.08128386827845 0.0035480832269881627 0.01796714225301522 0.9957449787106987 -0.04314803894438657 0.0008088629575684966 0.008752842429299827 -0.0006993737468581477 -0.005538936686705258
 0.9957449787106987 -0.04314803894438657 0.0035486382003226246 0.017967150143983274 -0.0006991665198524623 -0.005538943171928379 0.000803032500711333 0.00875352398670829
 0.0008088629575684966 0.008752842429299827 -0.0006991665198524623 -0.005538943171928379 0.003548136181302214 0.017968233663185874 0.995745009318254 -0.04314695732953616
 -0.0006993737468581477 -0.005538936686705258 0.000803032500711333 0.00875352398670829 0.995745009318254 -0.04314695732953616 0.003548647490914604 0.01796823162773986
0.08753647353064001 0.003800524665706089 0.01945221664255451 0.9954118699423519 -0.04654963623619993 0.000909378379138693 0.009430929583361286 -0.0007846267282719738 -0.005971535403234993
 0.9954118699423519 -0.04654963623619993 0.0038011680975548108 0.019452228453869624 -0.0007843870367444233 -0.005971544511825578 0.0009026094785042056 0.009431734088940782
 0.000909378379138693 0.009430929583361286 -0.0007843870367444233 -0.005971544511825578 0.0038005855629993854 0.019453392838107115 0.9954119050879707 -0.04654847194226714
 -0.0007846267282719738 -0.005971535403234993 0.0009026094785042056 0.009431734088940782 0.9954119050879707 -0.04654847194226714 0.0038011788220857013 0.019453392899065503
0.09378907878283 0.004064761190978236 0.02095071927429321 0.9950632561163446 -0.049963169032821754 0.00101619072616505 0.010109403604759383 -0.000875207863689392 -0.006404692474145209
 0.9950632561163446 -0.049963169032821754 0.004065499642103186 0.020950735642639724 -0.0008749334268124311 -0.006404704628999497 0.001008412155374007 0.010110344897100314
 0.00101619072616505 0.010109403604759383 -0.0008749334268124311 -0.006404704628999497 0.004064830559834355 0.020951980443949657 0.9950632961032323 -0.04996192214130392
 -0.000875207863689392 -0.006404692474145209 0.001008412155374007 0.010110344897100314 0.9950632961032323 -0.04996192214130392 0.0040655119407264715 0.020951983059073646
0.100041684035 0.004340998753788355 0.022462479949607015 0.9946989361863785 -0.05338855546603617 0.0011293578215554728 0.010788191924449976 -0.0009711760922927314 -0.006838333256590185
 0.9946989361863785 -0.05338855546603617 0.004341838799577528 0.022462501546178543 -0.0009708646446721426 -0.0068383489046630426 0.001120498117077387 0.01078928463549263
 0.0011293578215554728 0.010788191924449976 -0.0009708646446721426 -0.0068383489046630426 0.004341077119952759 0.022463826291150128 0.9946989813164637 -0.05338722606471791
 -0.0009711760922927314 -0.006838333256590185 0.001120498117077387 0.01078928463549263 0.9946989813164637 -0.05338722606471791 0.004341852820403129 0.02246383194684512
0.1059090909091 0.00461131619468725 0.023893015537141994 0.9943425970509262 -0.05661361748654443 0.0012413834518148277 0.0114253822377907 -0.0010661832825059909 -0.007245631484836274
 0.9943425970509262 -0.05661361748654443 0.0046122575717122685 0.023893042681246514 -0.0010658350576985799 -0.0072456508388849955 0.001231444016602326 0.01142663106244418
 0.0012413834518148277 0.0114253822377907 -0.0010658350576985799 -0.0072456508388849955 0.004611403479121036 0.023894441994035474 0.9943426472797123 -0.056612210741152434
 -0.0010661832825059909 -0.007245631484836274 0.001231444016602326 0.01142663106244418 0.9943426472797123 -0.056612210741152434 0.004612273349642107 0.02389445097103426
0.1062942892872 0.004629442753076463 0.02398733086078958 0.9943187092157234 -0.05682570493906575 0.0012489366137735484 0.01146721999346919 -0.0010725894210529179 -0.0072723818627463506
 0.9943187092157234 -0.05682570493906575 0.004630390986004764 0.02398735839152676 -0.0010722387128049595 -0.007272401475083466 0.0012389240807356362 0.011468479558664943
 0.0012489366137735484 0.01146721999346919 -0.0010722387128049595 -0.007272401475083466 0.004629530639078155 0.023988762583584265 0.9943187597884215 -0.05682429311925406
 -0.0010725894210529179 -0.0072723818627463506 0.0012389240807356362 0.011468479558664943 0.9943187597884215 -0.05682429311925406 0.004630406884301261 0.0239887717950613
0.11254689453939999 0.0049302980009611735 0.025525105582932608 0.9939223744635662 -0.06027451909252305 0.0013749831318537289 0.01214641135144348 -0.001179504888274983 -0.007706761095096204
 0.9939223744635662 -0.06027451909252305 0.004931361033536957 0.025525139788725833 -0.0011791126851758598 -0.007706785166847312 0.0013637458504172134 0.012147854019857419
 0.0013749831318537289 0.01214641135144348 -0.0011791126851758598 -0.007706785166847312 0.004930395926812994 0.02552662290639297 0.9939224307761262 -0.060273024950640235
 -0.001179504888274983 -0.007706761095096204 0.0013637458504172134 0.012147854019857419 0.9939224307761262 -0.060273024950640235 0.004931378971737454 0.025526636217861866
0.11879949979160001 0.005243768683921714 0.027075638278817264 0.993509731469414 -0.06373489255986788 0.001507552440992884 0.012825687680591422 -0.0012919785259264788 -0.008141392398265142
 0.993509731469414 -0.06373489255986788 0.005244953151132049 0.02707567993560096 -0.0012915426095027782 -0.008141421448709722 0.0014950182730529753 0.012827330524982746
 0.001507552440992884 0.012825687680591422 -0.0012915426095027782 -0.008141421448709722 0.005243877167499825 0.02707724143639434 0.9935097938167069 -0.06373331619325155
 -0.0012919785259264788 -0.008141392398265142 0.0014950182730529753 0.012827330524982746 0.9935097938167069 -0.06373331619325155 0.005244973299077784 0.027077259421074966
0.1250521050438 0.005570058317589905 0.028638763073749265 0.9930805801328887 -0.06720671355469182 0.00164669859815491 0.013504968850818016 -0.0014100653209952376 -0.008576195821769644
 0.9930805801328887 -0.06720671355469182 0.005571370879561133 0.028638812992655298 -0.0014095834886846707 -0.008576230394325663 0.0016327951945131012 0.013506829777661869
 0.00164669859815491 0.013504968850818016 -0.0014095834886846707 -0.008576230394325663 0.005570177875254318 0.028640452307338422 0.9930806488077071 -0.06720505506717588
 -0.0014100653209952376 -0.008576195821769644 0.0016327951945131012 0.013506829777661869 0.9930806488077071 -0.06720505506717588 0.005571393414616826 0.028640475567545013
0.131304710296 0.005909369698748753 0.030214313548105297 0.9926347207932597 -0.0706898643431396 0.0017924746077752228 0.014184172956461728 -0.0015338191761018823 -0.00901108999315118
 0.9926347207932597 -0.0706898643431396 0.00591081704347578 0.030214372575387907 -0.0015332892413863868 -0.00901113065539425 0.0017771294157117546 0.014186270715917744
 0.0017924746077752228 0.014184172956461728 -0.0015332892413863868 -0.00901113065539425 0.005909500845209338 0.030216089112133495 0.9926347960855135 -0.07068812384081169
 -0.0015338191761018823 -0.00901108999315118 0.0017771294157117546 0.014186270715917744 0.9926347960855135 -0.07068812384081169 0.005910842150183667 0.03021611827918937
0.1375573155481 0.006177432249668602 0.031595665944453975 0.9922564486241274 -0.07397770176582545 0.0019246839565814678 0.014841728296845108 -0.0016430680539160573 -0.009424500841570468
 0.9922564486241274 -0.07397770176582545 0.006179022666231798 0.03159573231263814 -0.0016424870044409034 -0.009424547560819846 0.00190786667171176 0.014844057373154446
 0.0019246839565814678 0.014841728296845108 -0.0016424870044409034 -0.009424547560819846 0.00617757630545988 0.03159752768549661 0.9922565308308363 -0.07397587935469226
 -0.0016430680539160573 -0.009424500841570468 0.00190786667171176 0.014844057373154446 0.9922565308308363 -0.07397587935469226 0.006179049715682324 0.03159756161304437
0.1438099208003 0.006454680184556903 0.032970806009948395 0.9918653151018333 -0.07725829731237836 0.0020622372552700796 0.01549730529696882 -0.0017567042824780095 -0.009836103867585811
 0.9918653151018333 -0.07725829731237836 0.00645642067733114 0.0329708802779523 -0.0017560698058758392 -0.009836157189208983 0.002043882685294228 0.015499882525011851
 0.0020622372552700796 0.01549730529696882 -0.0017560698058758392 -0.009836157189208983 0.006454837809675724 0.03297275415640599 0.9918654045101308 -0.07725639310554407
 -0.0017567042824780095 -0.009836103867585811 0.002043882685294228 0.015499882525011851 0.9918654045101308 -0.07725639310554407 0.0064564497176013815 0.03297279327347172
0.1500625260525 0.0067410292759426714 0.034339650860585366 0.9914614073866442 -0.08053160235940422 0.002205095428082503 0.016150859497922415 -0.001874689932241852 -0.010245856137695634
 0.9914614073866442 -0.08053160235940422 0.006742926891985981 0.034339733600152536 -0.0018739997215020641 -0.01024591662855647 0.0021851386795742195 0.016153702318672702
 0.002205095428082503 0.016150859497922415 -0.0018739997215020641 -0.01024591662855647 0.006741201139054713 0.03434168564922764 0.9914615042811522 -0.08052961647428399
 -0.001874689932241852 -0.010245856137695634 0.0021851386795742195 0.016153702318672702 0.9914615042811522 -0.08052961647428399 0.0067429579685256485 0.03434173039546593
0.15631513130469998 0.007036394852856211 0.035702120304274984 0.9910448129105248 -0.08379756784331971 0.00235321903437818 0.016802347050700044 -0.0019969866938667727 -0.010653715533771337
