! Created with skrf 1.8.0 (http://scikit-rf.org).
# GHz S RI R 50.0 
!freq ReS11 ImS11 ReS12 ImS12 ReS13 ImS13
! ReS14 ImS14
! ReS21 ImS21 ReS22 ImS22 ReS23 ImS23
! ReS24 ImS24
! ReS31 ImS31 ReS32 ImS32 ReS33 ImS33
! ReS34 ImS34
! ReS41 ImS41 ReS42 ImS42 ReS43 ImS43
! ReS44 ImS44
!
0.0 0.001861952621971 0.0 0.9981380473525 0.0 7.253098907664e-05 0.0 -7.253098907681e-05 8.8824843611907e-21
 0.9981380473525 0.0 0.001861952621945 0.0 -7.25309890766e-05 8.882484361164982e-21 7.253098907677e-05 0.0
 7.253098907664e-05 0.0 -7.25309890766e-05 8.882484361164982e-21 0.00186195262765 0.0 0.9981380473582 0.0
 -7.253098907681e-05 8.8824843611907e-21 7.253098907677e-05 0.0 0.9981380473582 0.0 0.001861952627639 0.0
0.005 0.002004433682053478 0.0015188542618067207 0.9979575676356589 -0.003899290548333846 0.00010291563712349357 0.000819553720178761 -9.961722501017068e-05 -0.0005106622271316617
 0.9979575676356589 -0.003899290548333846 0.0020044725939338077 0.0015188315671727972 -9.962262552132232e-05 -0.0005106663629614552 0.000102659750638354 0.0008196513601051512
 0.00010291563712349357 0.000819553720178761 -9.962262552132232e-05 -0.0005106663629614552 0.0020044305682004842 0.0015187888314678198 0.997957567249416 -0.0038993576129905706
 -9.961722501017068e-05 -0.0005106622271316617 0.000102659750638354 0.0008196513601051512 0.997957567249416 -0.0038993576129905706 0.0020044749445502076 0.001518762875352974
0.006252605252188 0.0020421292349930287 0.001904511931425155 0.9979094583827068 -0.004875014571188876 0.00011181482259043159 0.0010248054215387466 -0.00010742310370970593 -0.0006389720116494897
 0.9979094583827068 -0.004875014571188876 0.0020421900608164354 0.0019044830668413647 -0.00010743150732473624 -0.0006389771085895637 0.00011141503074934926 0.0010249323102520683
 0.00011181482259043159 0.0010248054215387466 -0.00010743150732473624 -0.0006389771085895637 0.002042124447567577 0.001904430162076768 0.99790945785942 -0.004875098391617574
 -0.00010742310370970593 -0.0006389720116494897 0.00011141503074934926 0.0010249323102520683 0.99790945785942 -0.004875098391617574 0.0020421938162906443 0.001904397211497868
0.01250521050438 0.002242470779903714 0.0038485435643288617 0.9976518020488316 -0.009750446491431003 0.00016400047274105992 0.0020497183609108007 -0.00015256238760706203 -0.001280833243367903
 0.9976518020488316 -0.009750446491431003 0.002242713656724172 0.0038484808441783718 -0.00015259550454827455 -0.0012808426261752034 0.00016240634288074642 0.002050025026933493
 0.00016400047274105992 0.0020497183609108007 -0.00015259550454827455 -0.0012808426261752034 0.002242452197315758 0.0038483803900798206 0.9976518004945528 -0.009750613901877625
 -0.00015256238760706203 -0.001280833243367903 0.00016240634288074642 0.002050025026933493 0.9976518004945528 -0.009750613901877625 0.0022427291961994284 0.0038483093502931272
0.01875781575657 0.002463483253431321 0.005819750562525501 0.9973647101141125 -0.01463808089419848 0.00022921628029128258 0.0030753852636141313 -0.00020810237103391553 -0.0019245772730114104
 0.9973647101141125 -0.01463808089419848 0.0024640290132796065 0.005819648676533717 -0.00020817621934888147 -0.0019245899448546945 0.00022563560911797924 0.003075936518287969
 0.00022921628029128258 0.0030753852636141313 -0.00020817621934888147 -0.0019245899448546945 0.002463441915684668 0.005819506330872653 0.9973647070400083 -0.014638331824139525
 -0.00020810237103391553 -0.0019245772730114104 0.00022563560911797924 0.003075936518287969 0.9973647070400083 -0.014638331824139525 0.002464064368245539 0.005819391579204739
0.02501042100875 0.0027056532365035734 0.007815276814240905 0.9970477981642349 -0.019540196199787113 0.0003075928805678956 0.004101789287178731 -0.00027418976631105285 -0.0025698509113970046
 0.9970477981642349 -0.019540196199787113 0.002706622482332177 0.00781513017265717 -0.00027432016888110896 -0.002569865673987782 0.0003012334729953529 0.0041026615293849895
 0.0003075928805678956 0.004101789287178731 -0.00027432016888110896 -0.002569865673987782 0.0027055801946598277 0.007814951954287115 0.9970477930730497 -0.019540530636569315
 -0.00027418976631105285 -0.0025698509113970046 0.0003012334729953529 0.0041026615293849895 0.9970477930730497 -0.019540530636569315 0.002706685673296738 0.00781478743126557
0.03126302626094 0.002969446802315904 0.009833606601793951 0.9967006649720558 -0.024457711967126268 0.00039926069592714195 0.005128815101471277 -0.00035096584562452907 -0.003216389276185952
 0.9967006649720558 -0.024457711967126268 0.002970959984450567 0.009833409343378624 -0.0003511684619741586 -0.0032164047280246223 0.0003893296801339747 0.005130096387665743
 0.00039926069592714195 0.005128815101471277 -0.0003511684619741586 -0.0032164047280246223 0.0029693331230339686 0.00983320164564806 0.9967006573653837 -0.024458129935192276
 -0.00035096584562452907 -0.003216389276185952 0.0003893296801339747 0.005130096387665743 0.9967006573653837 -0.024458129935192276 0.0029710590333143745 0.009832980862283486
0.037515631513130004 0.0032553188106465318 0.011873716882158738 0.9963229022532635 -0.02939103657123591 0.0005043483785035665 0.006156307596647223 -0.0004385674694883132 -0.003863957125056164
 0.9963229022532635 -0.02939103657123591 0.0032574962820412236 0.011873462877951593 -0.00043885781172582557 -0.0038639716610034324 0.0004900519288623567 0.006158097753215215
 0.0005043483785035665 0.006156307596647223 -0.00043885781172582557 -0.0038639716610034324 0.0032551555717253563 0.011873232480832444 0.9963228916261831 -0.02939153811743384
 -0.0004385674694883132 -0.003863957125056164 0.0004900519288623567 0.006158097753215215 0.9963228916261831 -0.02939153811743384 0.003257639210841097 0.011872948520669276
0.043768236765320004 0.0035637164565227902 0.013934819340934837 0.9959140986829569 -0.034340325094748124 0.0006229820599627304 0.007184089753603223 -0.0005371274180071109 -0.00451233104230949
 0.9959140986829569 -0.034340325094748124 0.003566678519638989 0.013934502195683113 -0.0005375208599519657 -0.004512342853547818 0.0006035252956922848 0.007186500501937275
 0.0006229820599627304 0.007184089753603223 -0.0005375208599519657 -0.004512342853547818 0.003563494750284755 0.013934256254838705 0.9959140845273077 -0.03434091029908381
 -0.0005371274180071109 -0.00451233104230949 0.0006035252956922848 0.007186500501937275 0.9959140845273077 -0.03434091029908381 0.003566873355731075 0.013933901773251234
0.050020842017509996 0.003895080892817378 0.016016253782845862 0.9954738419942722 -0.03930558588366591 0.0007552848808850945 0.008211970050854542 -0.0006467744796387282 -0.005161292099565789
 0.9954738419942722 -0.03930558588366591 0.0038989478420242657 0.01601586683482386 -0.0006472862623911379 -0.005161299173668248 0.000729871858215267 0.008215125137184951
 0.0007552848808850945 0.008211970050854542 -0.0006472862623911379 -0.005161299173668248 0.003894791823992066 0.016015612902840804 0.9954738237947852 -0.03930625483965175
 -0.0006467744796387282 -0.005161292099565789 0.000729871858215267 0.008215125137184951 0.9954738237947852 -0.03930625483965175 0.003899202616868404 0.01601518012455267
0.055454545454549996 0.004202037140328027 0.01784114025708056 0.9950653818579183 -0.04363345428865673 0.0008814541892582449 0.009105151931929773 -0.0007511621990515099 -0.005725566450285664
 0.9950653818579183 -0.04363345428865673 0.00420678818098171 0.017840687029934684 -0.0007517891007903428 -0.0057255676153095455 0.0008502178046829196 0.009109063805488997
 0.0008814541892582449 0.009105151931929773 -0.0007517891007903428 -0.0057255676153095455 0.004201682318968208 0.017840432584128693 0.9950653597207156 -0.04363419612729504
 -0.0007511621990515099 -0.005725566450285664 0.0008502178046829196 0.009109063805488997 0.9950653597207156 -0.04363419612729504 0.004207101571942449 0.017839925111647927
0.056273447269699996 0.004249848021234417 0.018117435827396836 0.9950017202515113 -0.0442867328045306 0.0009013766462551611 0.009239746111821559 -0.0007676334290070949 -0.005810622286531086
 0.9950017202515113 -0.0442867328045306 0.004254740183582899 0.01811697214664369 -0.0007682786644892394 -0.005810622407609946 0.0008692104076503612 0.00924378143849571
 0.0009013766462551611 0.009239746111821559 -0.0007682786644892394 -0.005810622407609946 0.0042494827095503436 0.018116718158677398 0.9950016974861948 -0.04428748563664923
 -0.0007676334290070949 -0.005810622286531086 0.0008692104076503612 0.00924378143849571 0.9950016974861948 -0.04428748563664923 0.00425506293502871 0.018116198873655082
0.06252605252188 0.004628448880949563 0.020237828164261142 0.9944973227269339 -0.04928361395122598 0.001061373543284899 0.010267206738462275 -0.0008998249494529195 -0.006460102566293438
 0.9944973227269339 -0.04928361395122598 0.0046344866546508 0.020237280549442682 -0.0009006186224188956 -0.006460093315189233 0.0010216562049671072 0.010272270495075893
 0.001061373543284899 0.010267206738462275 -0.0009006186224188956 -0.006460093315189233 0.00462799846129034 0.020237034839080664 0.994497294866051 -0.04928445080360596
 -0.0008998249494529195 -0.006460102566293438 0.0010216562049671072 0.010272270495075893 0.994497294866051 -0.04928445080360596 0.004634885427834532 0.020236420396853586
0.06877865777407 0.0050313098129132075 0.022376923421159507 0.993960240560872 -0.05429602875030246 0.0012353878946062692 0.011294133140800971 -0.0010434655235414178 -0.007109511746111648
 0.993960240560872 -0.05429602875030246 0.0050386137068590894 0.022376284394828312 -0.0010444224929016391 -0.007109490500609801 0.0011873207614116034 0.011300385934197795
 0.0012353878946062692 0.011294133140800971 -0.0010444224929016391 -0.007109490500609801 0.005030765436972644 0.022376055702851488 0.9939602070656354 -0.0542969497839719
 -0.0010434655235414178 -0.007109511746111648 0.0011873207614116034 0.011300385934197795 0.9939602070656354 -0.0542969497839719 0.0050390965541978975 0.02237533700537287
0.07503126302626001 0.005458852491561825 0.02453423333294142 0.9933900672929635 -0.059323738777272275 0.001423527932723902 0.012320299740301327 -0.001198667304391212 -0.007758625786077759
 0.9933900672929635 -0.059323738777272275 0.005467543162736264 0.024533495135334777 -0.0011998023036138828 -0.007758589721154634 0.0013663116336067114 0.012327914722872254
 0.001423527932723902 0.012320299740301327 -0.0011998023036138828 -0.007758589721154634 0.005458205328722968 0.024533292606389673 0.9933900276145945 -0.05932474418095837
 -0.001198667304391212 -0.007758625786077759 0.0013663116336067114 0.012327914722872254 0.9933900276145945 -0.05932474418095837 0.005468118145154967 0.02453246009929242
0.08128386827845 0.005911493872927582 0.026709281529054087 0.9927863993165583 -0.06436647496749812 0.0016258975876426614 0.013345474731192727 -0.0013655379745521577 -0.00840721736194232
 0.9927863993165583 -0.06436647496749812 0.005921692165023676 0.026708436110402356 -0.0013668656117835102 -0.0084071634500423 0.001558732227805716 0.013354637726864935
 0.0016258975876426614 0.013345474731192727 -0.0013668656117835102 -0.0084071634500423 0.005910735112726103 0.026708269310717334 0.9927863528959334 -0.06436756494885215
 -0.0013655379745521577 -0.00840721736194232 0.001558732227805716 0.013354637726864935 0.9927863528959334 -0.06436756494885215 0.00592236735270674 0.026707312973105385
0.08753647353064001 0.006389646086875843 0.028901598583373815 0.9921488362818274 -0.06942394257858565 0.001842596284128949 0.014369420488989681 -0.0015441805964075577 -0.009055055593122785
 0.9921488362818274 -0.06942394257858565 0.006401473068121473 0.028900637594524253 -0.0015457153540413212 -0.009054980604468852 0.0017646816106197218 0.014380330116712263
 0.001842596284128949 0.014369420488989681 -0.0015457153540413212 -0.009054980604468852 0.006388766939282968 0.028900516518308793 0.9921487825473425 -0.06942511736832739
 -0.0015441805964075577 -0.009055055593122785 0.0017646816106197218 0.014380330116712263 0.9921487825473425 -0.06942511736832739 0.006402256540280676 0.02889942585085376
0.09378907878283 0.006893716290729379 0.03111071846840091 0.9914769814640677 -0.07449582476241583 0.0020737187450251588 0.015391893891764631 -0.001734693457174935 -0.009701905870642537
 0.9914769814640677 -0.07449582476241583 0.006907293292683845 0.031109633249797267 -0.0017364496912623002 -0.00970180637358168 0.0019842543238560288 0.015404761685955056
 0.0020737187450251588 0.015391893891764631 -0.0017364496912623002 -0.00970180637358168 0.00689270798918589 0.03110956833824146 0.9914769198319199 -0.0744970846074537
 -0.001734693457174935 -0.009701905870642537 0.0019842543238560288 0.015404761685955056 0.9914769198319199 -0.0744970846074537 0.006908193138768272 0.03110833234964626
0.100041684035 0.007424106496052352 0.03333617599945642 0.9907704421100357 -0.07958178516203263 0.002319354799835573 0.016412646578138228 -0.0019371699099838453 -0.010347529761144919
 0.9907704421100357 -0.07958178516203263 0.007439555151323224 0.033334957568570224 -0.0019391618493086742 -0.010347402122515607 0.002217540202842827 0.016427697106082904
 0.002319354799835573 0.016412646578138228 -0.0019391618493086742 -0.010347402122515607 0.00742296029860332 0.033334959716149054 0.9907703719825449 -0.07958313033267041
 -0.0019371699099838453 -0.010347529761144919 0.002217540202842827 0.016427697106082904 0.9907703719825449 -0.07958313033267041 0.007440579471001572 0.03333356690813217
0.1059090909091 0.00794611262550121 0.03543897543469487 0.9900755385715935 -0.08436690853356132 0.002563133698853796 0.01736872409621 -0.0021381320290090066 -0.010952048125955132
 0.9900755385715935 -0.08436690853356132 0.007963428554749765 0.035437623528335606 -0.002140357979255692 -0.010951890595998867 0.0024490019687664765 0.017386038839397315
 0.002563133698853796 0.01736872409621 -0.002140357979255692 -0.010951890595998867 0.007944829100145621 0.035437698932643105 0.9900754599152254 -0.08436833403691903
 -0.0021381320290090066 -0.010952048125955132 0.0024490019687664765 0.017386038839397315 0.9900754599152254 -0.08436833403691903 0.007964577055868416 0.035436148042045076
0.1062942892872 0.007981213374082493 0.03557750490820186 0.9900288297659683 -0.08468146989421065 0.002579589196574217 0.017431425170983762 -0.002151698212551893 -0.0109916849583342
 0.9900288297659683 -0.08468146989421065 0.00799865565529767 0.03557614394507847 -0.002153939957519024 -0.010991525343888739 0.002464624197725322 0.017448896146701025
 0.002579589196574217 0.017431425170983762 -0.002153939957519024 -0.010991525343888739 0.007979920565273586 0.03557622451792034 0.9900287505305606 -0.08468290068136441
 -0.002151698212551893 -0.0109916849583342 0.002464624197725322 0.017448896146701025 0.9900287505305606 -0.08468290068136441 0.007999812559033962 0.03557466286810748
0.11254689453939999 0.008565428047150521 0.03783423639917006 0.989251760594463 -0.0897945090646306 0.002854501417651552 0.01844797147302537 -0.0023783613641970716 -0.011634125275674059
 0.989251760594463 -0.0897945090646306 0.0085849863050314 0.03783272323035336 -0.002380866885584523 -0.011633929650545152 0.002725586196596843 0.018468113867536926
 0.002854501417651552 0.01844797147302537 -0.002380866885584523 -0.011633929650545152 0.008563979939934145 0.03783289408443207 0.9892516716229842 -0.08979602577853059
 -0.0023783613641970716 -0.011634125275674059 0.002725586196596843 0.018468113867536926 0.9892516716229842 -0.08979602577853059 0.008586283914392244 0.03783115102781309
0.11879949979160001 0.009177135867074233 0.04010589804050641 0.9884388556817103 -0.09492051796455725 0.0031441654979720963 0.01946202264823933 -0.002617236942254336 -0.012274600666812905
 0.9884388556817103 -0.09492051796455725 0.009198932869552555 0.040104222621005166 -0.0026200200797878094 -0.012274364795996381 0.003000500851455315 0.01948510079593606
 0.0031441654979720963 0.01946202264823933 -0.0026200200797878094 -0.012274364795996381 0.00917552380522213 0.04010449611983739 0.9884387563290347 -0.09492212093585495
 -0.002617236942254336 -0.012274600666812905 0.003000500851455315 0.01948510079593606 0.9884387563290347 -0.09492212093585495 0.009200379317360714 0.04010255852828289
0.1250521050438 0.00981671618603065 0.04239201290571262 0.9875897413378911 -0.1000590980326927 0.0034486498462657504 0.020473311391727585 -0.002868396938142603 -0.012912857270843821
 0.9875897413378911 -0.1000590980326927 0.009840875156495135 0.04239016479924357 -0.002871471398988705 -0.012912576719761837 0.0032894374059876256 0.020499603092698375
 0.0034486498462657504 0.020473311391727585 -0.002871471398988705 -0.012912576719761837 0.009814931545744868 0.04239055383639622 0.9875896309410991 -0.10006078761054489
 -0.002868396938142603 -0.012912857270843821 0.0032894374059876256 0.020499603092698375 0.9875896309410991 -0.10006078761054489 0.009842478587237103 0.04238840799633452
0.131304710296 0.010484542119388863 0.044692098911525494 0.9867040493921424 -0.10520983763733295 0.0037680170686504445 0.021481566096107636 -0.003131907594066665 -0.013548637474867344
 0.9867040493921424 -0.10520983763733295 0.01051118677566375 0.04469006726872332 -0.0031352869512878173 -0.013548307609908062 0.0035924595255920314 0.021511362714204257
 0.0037680170686504445 0.021481566096107636 -0.0031352869512878173 -0.013548307609908062 0.01048257631195737 0.044690585288576765 0.9867039272697673 -0.10521161419100741
 -0.003131907594066665 -0.013548637474867344 0.0035924595255920314 0.021511362714204257 0.9867039272697673 -0.10521161419100741 0.0105129553456031 0.04468821687681326
0.1375573155481 0.011039021632230576 0.046706024641154115 0.9859234509941457 -0.11007248520780498 0.004066262113824286 0.022458045933551603 -0.003371968011227485 -0.014153084499427981
 0.9859234509941457 -0.11007248520780498 0.011068286341189153 0.04670384464584877 -0.00337567256966682 -0.014152704315590715 0.0038739567211105892 0.022491336472380004
 0.004066262113824286 0.022458045933551603 -0.00337567256966682 -0.014152704315590715 0.011036866575633445 0.046704458952911365 0.9859233165928593 -0.11007434893568313
 -0.003371968011227485 -0.014153084499427981 0.0038739567211105892 0.022491336472380004 0.9859233165928593 -0.11007434893568313 0.011070227474751582 0.04670189962408039
0.1438099208003 0.011613290546566476 0.04870711268634559 0.9851147566916325 -0.11492054810418016 0.004376491931367591 0.023429053798606995 -0.003621524804135618 -0.014752630085482185
 0.9851147566916325 -0.11492054810418016 0.011645301262169469 0.04870477595170998 -0.0036255691546796826 -0.014752194961765322 0.004166713915892735 0.023466107921925456
 0.004376491931367591 0.023429053798606995 -0.0036255691546796826 -0.014752194961765322 0.011610937787469825 0.04870549761499515 0.9851146093299057 -0.11492249936232993
 -0.003621524804135618 -0.014752630085482185 0.004166713915892735 0.023466107921925456 0.9851146093299057 -0.11492249936232993 0.011647423003541565 0.048702735397013766
0.1500625260525 0.012207109431233185 0.05069513038793243 0.9842782110812546 -0.11975383867184888 0.004698575640746039 0.0243944413457579 -0.00388045312627282 -0.015347140215193936
 0.9842782110812546 -0.11975383867184888 0.012241992618760224 0.05069262791773519 -0.0038848518115169937 -0.015346645344586577 0.004470605746092384 0.02443553857458291
 0.004698575640746039 0.0243944413457579 -0.0038848518115169937 -0.015346645344586577 0.012204550554374078 0.05069346872478896 0.9842780500615579 -0.11975587782723335
 -0.00388045312627282 -0.015347140215193936 0.004470605746092384 0.02443553857458291 0.9842780500615579 -0.11975587782723335 0.012244303015932366 0.05069049088752643
0.15631513130469998 0.01282023671039037 0.05266985210049312 0.9834140604926622 -0.12457217150848345 0.005032380541633838 0.025354063307252983 -0.0041486263618177805 -0.01593648420473688
 0.9834140604926622 -0.12457217150848345 0.012858119358418567 0.05266717426501208 -0.004153393875053033 -0.015935924595268318 0.004785505127857063 0.025399492897816466
