! Created with skrf 1.8.0 (http://scikit-rf.org).
# GHz S RI R 50.0 
!freq ReS11 ImS11 ReS12 ImS12 ReS13 ImS13
! ReS14 ImS14
! ReS21 ImS21 ReS22 ImS22 ReS23 ImS23
! ReS24 ImS24
! ReS31 ImS31 ReS32 ImS32 ReS33 ImS33
! ReS34 ImS34
! ReS41 ImS41 ReS42 ImS42 ReS43 ImS43
! ReS44 ImS44
!
0.0 0.00160326874676 0.0 0.9983967312305 0.0 6.217749035584e-05 0.0 -6.217749097777e-05 7.614546530493946e-21
 0.9983967312305 0.0 0.001603268746735 0.0 -6.217749097702e-05 7.614546530402098e-21 6.217749035547e-05 0.0
 6.217749035584e-05 0.0 -6.217749097702e-05 7.614546530402098e-21 0.001603268758114 0.0 0.9983967312419 0.0
 -6.217749097777e-05 7.614546530493946e-21 6.217749035547e-05 0.0 0.9983967312419 0.0 0.00160326875813 0.0
0.005 0.0017252165520075474 0.0013070786618282191 0.9982424063963893 -0.003358440289630731 8.790513041799588e-05 0.0007115756376146878 -8.518464722052835e-05 -0.00044198302037272864
 0.9982424063963893 -0.003358440289630731 0.0017252243627196382 0.0013070741185321614 -8.518760901485933e-05 -0.00044198531672476717 8.785001607086315e-05 0.0007115966788910075
 8.790513041799588e-05 0.0007115756376146878 -8.518760901485933e-05 -0.00044198531672476717 0.001725214568196571 0.0013070125900071022 0.9982424060350709 -0.0033585073501448404
 -8.518464722052835e-05 -0.00044198302037272864 8.785001607086315e-05 0.0007115966788910075 0.9982424060350709 -0.0033585073501448404 0.00172522562922791 0.0013070060736480689
0.006252605252188 0.0017572542020521278 0.0016390026762652435 0.998201596187615 -0.0041988648795333655 9.529078730016113e-05 0.0008897980284388472 -9.170962461171056e-05 -0.0005530528343170029
 0.998201596187615 -0.0041988648795333655 0.0017572664112578838 0.0016389968775546923 -9.171423323436251e-05 -0.0005530556659274062 9.520467706938795e-05 0.0008898253471328252
 9.529078730016113e-05 0.0008897980284388472 -9.171423323436251e-05 -0.0005530556659274062 0.0017572511663846463 0.001638920104261276 0.9982015956885497 -0.004198948694169777
 -9.170962461171056e-05 -0.0005530528343170029 9.520467706938795e-05 0.0008898253471328252 0.9982015956885497 -0.004198948694169777 0.0017572684572659833 0.001638911830065137
0.01250521050438 0.0019262241402534424 0.003312417558674412 0.9979848848297883 -0.00839849487352693 0.00013783227052637808 0.0017798466571568026 -0.0001288882488577966 -0.0011087741326827763
 0.9979848848297883 -0.00839849487352693 0.0019262728870867462 0.0033124047675956243 -0.00012890640898374073 -0.0011087793691216606 0.00013748890436687437 0.0017799123001225679
 0.00013783227052637808 0.0017798466571568026 -0.00012890640898374073 -0.0011087793691216606 0.0019262125941896379 0.003312252740213855 0.9979848834157227 -0.00839866227407586
 -0.0001288882488577966 -0.0011087741326827763 0.00013748890436687437 0.0017799123001225679 0.9979848834157227 -0.00839866227407586 0.001926281643858309 0.003312234877559107
0.01875781575657 0.0021105597896872376 0.005009669340724484 0.9977463192068601 -0.012609101851040272 0.0001899017373537542 0.002670761034799727 -0.0001738311740133615 -0.0016663184375752778
 0.9977463192068601 -0.012609101851040272 0.002110669317120017 0.0050096483161891185 -0.00017387166877254952 -0.0016663255674646909 0.00018913045562488816 0.0026708782330867654
 0.0001899017373537542 0.002670761034799727 -0.00017387166877254952 -0.0016663255674646909 0.0021105342629454842 0.0050094225382275774 0.9977463164528657 -0.012609352753141526
 -0.0001738311740133615 -0.0016663184375752778 0.00018913045562488816 0.0026708782330867654 0.9977463164528657 -0.012609352753141526 0.0021106894341118396 0.005009393636510662
0.02501042100875 0.002310630368897482 0.006728357767151796 0.9974856100562931 -0.016832710632883864 0.00025160052264132626 0.0035625741780197784 -0.0002266519598143769 -0.0022254157442141965
 0.9974856100562931 -0.016832710632883864 0.002310824865630856 0.006728327227782446 -0.00022672346629888998 -0.002225424162723604 0.0002502306400821235 0.0035627583113058657
 0.00025160052264132626 0.0035625741780197784 -0.00022672346629888998 -0.002225424162723604 0.0023105853982910863 0.0067280292710812884 0.9974856055361482 -0.01683304500334335
 -0.0002266519598143769 -0.0022254157442141965 0.0002502306400821235 0.0035627583113058657 0.9974856055361482 -0.01683304500334335 0.0023108609926055304 0.006727987754907305
0.03126302626094 0.0025267897982370795 0.008467239184775207 0.997202453824568 -0.02107017741628163 0.00032303036175959025 0.0044552336342266775 -0.0002874607002295047 -0.002785874817434487
 0.997202453824568 -0.02107017741628163 0.0025270934119535405 0.008467197810761655 -0.00028757180738836897 -0.002785883825212392 0.00032089101299457396 0.00445550224217364
 0.00032303036175959025 0.0044552336342266775 -0.00028757180738836897 -0.002785883825212392 0.002526719929385636 0.008466829342322877 0.9972024471140345 -0.02107059524477868
 -0.0002874607002295047 -0.002785874817434487 0.00032089101299457396 0.00445550224217364 0.9972024471140345 -0.02107059524477868 0.0025271502052657906 0.008466773513068683
0.037515631513130004 0.002759384178852175 0.010225496303324656 0.9968965404119629 -0.02532191995359056 0.00040429233486218187 0.005348653080319501 -0.00035636485015054444 -0.0033475316005318985
 0.9968965404119629 -0.02532191995359056 0.002759821026722314 0.010225442737466877 -0.00035652406798979293 -0.003347540403413871 0.00040121240825785506 0.005349025882961697
 0.00040429233486218187 0.005348653080319501 -0.00035652406798979293 -0.003347540403413871 0.002759283960929879 0.010225005512974337 0.9968965310834069 -0.025322421258780165
 -0.00035636485015054444 -0.0033475316005318985 0.00040121240825785506 0.005349025882961697 0.9968965310834069 -0.025322421258780165 0.0027599031455211405 0.010224933548893441
0.043768236765320004 0.0030087546691456267 0.012002515978644095 0.996567556315715 -0.029588139698708212 0.0004954863639349262 0.006242728035510458 -0.00043346952065352373 -0.003910233512117894
 0.996567556315715 -0.029588139698708212 0.0030093488450161836 0.012002448827312764 -0.00043368528560122784 -0.003910241221028245 0.0004912944730448394 0.006243226956425553
 0.0004954863639349262 0.006242728035510458 -0.00043368528560122784 -0.003910241221028245 0.003008618656625448 0.012001944710088133 0.9965675439392913 -0.029588724509079976
 -0.00043346952065352373 -0.003910233512117894 0.0004912944730448394 0.006243226956425553 0.9965675439392913 -0.029588724509079976 0.0030094609541230295 0.01200185466618825
0.050020842017509996 0.0032752388195326923 0.013797797387962312 0.996215186236283 -0.033868913560362875 0.0005967109091963497 0.00713734234299822 -0.0005188775804781115 -0.004473832977405511
 0.996215186236283 -0.033868913560362875 0.0032760144017367227 0.01379771522160776 -0.0005191582588744635 -0.004473838608352633 0.000591235384557431 0.007137991533494344
 0.0005967109091963497 0.00713734234299822 -0.0005191582588744635 -0.004473838608352633 0.0032750615722216417 0.013797146175440159 0.9962151703791486 -0.03386958192173311
 -0.0005188775804781115 -0.004473832977405511 0.000591235384557431 0.007137991533494344 0.9962151703791486 -0.03386958192173311 0.003276161171738115 0.013797035982754056
0.055454545454549996 0.003520979955950591 0.01537244416068845 0.9958897281574397 -0.03760085494040377 0.0006928993228932026 0.00791513067482705 -0.0005999213602850369 -0.004964233715776434
 0.9958897281574397 -0.03760085494040377 0.0035219327330443355 0.01537234775729093 -0.0006002651921850245 -0.004964236668092226 0.0006861686479987864 0.007915931816644725
 0.0006928993228932026 0.00791513067482705 -0.0006002651921850245 -0.004964236668092226 0.0035207624604347595 0.015371723960991348 0.995889708920866 -0.03760159595879269
 -0.0005999213602850369 -0.004964233715776434 0.0006861686479987864 0.007915931816644725 0.995889708920866 -0.03760159595879269 0.003522113422154628 0.015371594481264914
0.056273447269699996 0.0035591712496183545 0.015610906946718746 0.9958391140294673 -0.03816423891559253 0.0007080627526714029 0.008032371355692658 -0.0006126896720430043 -0.00503818425965222
 0.9958391140294673 -0.03816423891559253 0.003560152307388342 0.015610808300312131 -0.0006130435623646434 -0.005038186733758067 0.0007011316457121476 0.008033197219423535
 0.0007080627526714029 0.008032371355692658 -0.0006130435623646434 -0.005038186733758067 0.0035589473329019914 0.015610176390946 0.9958390942550782 -0.038164990889955216
 -0.0006126896720430043 -0.00503818425965222 0.0007011316457121476 0.008033197219423535 0.9958390942550782 -0.038164990889955216 0.003560338415163709 0.01561004385571591
0.06252605252188 0.003860884004727472 0.017441453526908512 0.9954390233424106 -0.042474058325552774 0.0008296368236166845 0.008927683697520323 -0.0007150041853056381 -0.005603141720887555
 0.9954390233424106 -0.042474058325552774 0.0038620946047639485 0.017441336900137258 -0.0007154395197550867 -0.005603139864425333 0.0008210779185771434 0.008928714915154633
 0.0008296368236166845 0.008927683697520323 -0.0007154395197550867 -0.005603139864425333 0.0038606079903624134 0.01744064430015931 0.9954389992100809 -0.042474893986848526
 -0.0007150041853056381 -0.005603141720887555 0.0008210779185771434 0.008928714915154633 0.9954389992100809 -0.042474893986848526 0.003862324733805555 0.01744048710271727
0.06877865777407 0.004180706737490267 0.019289073699767314 0.9950145980796944 -0.04679827423205684 0.0009615260489619209 0.009823142309260412 -0.000825917205742909 -0.0061685588033921195
 0.9950145980796944 -0.04679827423205684 0.0041821709503853275 0.019288937556988895 -0.0008264421512518664 -0.006168551347850661 0.0009511668806599653 0.009824409863030513
 0.0009615260489619209 0.009823142309260412 -0.0008264421512518664 -0.006168551347850661 0.004180373203982676 0.019288186538942324 0.9950145691436919 -0.04679919367383572
 -0.000825917205742909 -0.0061685588033921195 0.0009511668806599653 0.009824409863030513 0.9950145691436919 -0.04679919367383572 0.004182449790898542 0.019288002232419856
0.07503126302626001 0.004518966781964599 0.02115342235406294 0.994565522764924 -0.05113675828372522 0.0011038212173216677 0.010718605129717952 -0.0009455224476426402 -0.006734287381416226
 0.994565522764924 -0.05113675828372522 0.004520708688317291 0.021153265124096123 -0.0009461451065202046 -0.006734272963560609 0.0010914890931976765 0.010720142327748136
 0.0011038212173216677 0.010718605129717952 -0.0009461451065202046 -0.006734272963560609 0.004518570316086381 0.021152458073632602 0.994565488574918 -0.05113776160703628
 -0.0009455224476426402 -0.006734287381416226 0.0010914890931976765 0.010720142327748136 0.994565488574918 -0.05113776160703628 0.004521040938298458 0.021152244082378018
0.08128386827845 0.00487598916550083 0.02303416648550751 0.9940914828454339 -0.055489357497206536 0.0012566108520106606 0.011613925549556935 -0.001073911177103791 -0.007300177346106402
 0.9940914828454339 -0.055489357497206536 0.004878032862369121 0.02303398656119513 -0.001074639587452289 -0.0073001545080734875 0.0012421328776569436 0.011615768049833492
 0.0012566108520106606 0.011613925549556935 -0.001074639587452289 -0.0073001545080734875 0.00487552436240865 0.023033125968853013 0.9940914429449065 -0.055490444819985246
 -0.001073911177103791 -0.007300177346106402 0.0012421328776569436 0.011615768049833492 0.9940914429449065 -0.055490444819985246 0.004878423226901696 0.023032879586680884
0.08753647353064001 0.005252096574310705 0.02493098088734924 0.993592164953489 -0.05985589852377134 0.0014199810901273327 0.01250895273299501 -0.0012111721279558052 -0.007866076328612213
 0.993592164953489 -0.05985589852377134 0.0052544661813926355 0.024930776624824874 -0.0012120142638222225 -0.00786604351798669 0.0014031841974351668 0.0125111385670099
 0.0014199810901273327 0.01250895273299501 -0.0012120142638222225 -0.00786604351798669 0.0052515580392760485 0.02492986509094335 0.993592118880418 -0.05985706997736358
 -0.0012111721279558052 -0.007866076328612213 0.0014031841974351668 0.0125111385670099 0.993592118880418 -0.05985706997736358 0.005254919373925306 0.02492958347914068
0.09378907878283 0.00564760929162366 0.02684354507811082 0.9930672571448983 -0.0642361906853005 0.0015940155648037774 0.013403531860753047 -0.0013573914132165384 -0.008431829508234265
 0.9930672571448983 -0.0642361906853005 0.005650328957526508 0.026843314795985024 -0.0013583551846247804 -0.008431785078160902 0.0015747265426058687 0.013406101456591279
 0.0015940155648037774 0.013403531860753047 -0.0013583551846247804 -0.008431785078160902 0.005646991639656115 0.026842355032697583 0.9930672044294132 -0.06423744641402748
 -0.0013573914132165384 -0.008431829508234265 0.0015747265426058687 0.013406101456591279 0.9930672044294132 -0.06423744641402748 0.005650849698549349 0.02684203521779368
0.100041684035 0.006062845110800851 0.02877154105456676 0.9925164491155845 -0.0686300281924661 0.001778795290386053 0.014297504315557338 -0.0015126524328424624 -0.0089972794843509
 0.9925164491155845 -0.0686300281924661 0.006065939019394982 0.028771283032690675 -0.0015137456856933267 -0.00899722169363881 0.0017568408169819217 0.014300500520594372
 0.001778795290386053 0.014297504315557338 -0.0015137456856933267 -0.00899722169363881 0.006062142969360988 0.02877027786723113 0.9925163892811127 -0.06863136835209172
 -0.0015126524328424624 -0.0089972794843509 0.0017568408169819217 0.014300500520594372 0.9925163892811127 -0.06863136835209172 0.006066532038181224 0.028769916738573046
0.1059090909091 0.006470718646522057 0.030594513255125314 0.9919757434400949 -0.07276530288835083 0.001962033921763357 0.015135706386844019 -0.001666643618267976 -0.009527476003949308
 0.9919757434400949 -0.07276530288835083 0.006474185774178661 0.030594227602242067 -0.0016678654541599533 -0.009527404008179927 0.0019374205026324671 0.015139144063088509
 0.001962033921763357 0.015135706386844019 -0.0016678654541599533 -0.009527404008179927 0.006469932345418924 0.03059318250475682 0.991975676484514 -0.07276672243191773
 -0.001666643618267976 -0.009527476003949308 0.0019374205026324671 0.015139144063088509 0.991975676484514 -0.07276672243191773 0.00647485092617153 0.030592779653831666
0.1062942892872 0.006498119235593193 0.030714651606387807 0.9919394324086587 -0.07303719180816688 0.001974398549740032 0.015190707830864377 -0.0016770357784782373 -0.009562266191764781
 0.9919394324086587 -0.07303719180816688 0.006501611612430406 0.0307143640844629 -0.0016782662943225276 -0.009562193205016348 0.0019496052272433158 0.015194175933866814
 0.001974398549740032 0.015190707830864377 -0.0016782662943225276 -0.009562193205016348 0.006497327244543088 0.030713316458573846 0.9919393649705857 -0.07303861656862976
 -0.0016770357784782373 -0.009562266191764781 0.0019496052272433158 0.015194175933866814 0.9919393649705857 -0.07303861656862976 0.006502281646111986 0.03071291076560479
0.11254689453939999 0.006953744165875308 0.03267255902986972 0.9913359006107518 -0.07745745011984001 0.0021809007824162836 0.016082976617333482 -0.0018506191367418188 -0.010126626844918244
 0.9913359006107518 -0.07745745011984001 0.006957659284419121 0.03267224020587646 -0.0018519946324375802 -0.010126536732674446 0.002153095172756457 0.016086964370019864
 0.0021809007824162836 0.016082976617333482 -0.0018519946324375802 -0.010126536732674446 0.006952856978938016 0.03267115317731652 0.9913358250759837 -0.0774589596658694
 -0.0018506191367418188 -0.010126626844918244 0.002153095172756457 0.016086964370019864 0.9913358250759837 -0.0774589596658694 0.006958411078791603 0.03267069952661203
0.11879949979160001 0.007430029574871118 0.03464494413206327 0.9907055495425173 -0.08189056052900903 0.0023983744746570433 0.016974141470342582 -0.0020334771902695056 -0.010690195907999895
 0.9907055495425173 -0.08189056052900903 0.007434391763140414 0.03464459216025495 -0.0020350053176190408 -0.010690086646900628 0.0023673831369037967 0.016978699108291573
 0.0023983744746570433 0.016974141470342582 -0.0020350053176190408 -0.010690086646900628 0.007429041860714731 0.03464346891020157 0.9907054654088828 -0.08189215505521802
 -0.0020334771902695056 -0.010690195907999895 0.0023673831369037967 0.016978699108291573 0.9907054654088828 -0.08189215505521802 0.007435230072287169 0.03464296376228311
0.1250521050438 0.00792728217868917 0.03663148544781213 0.9900480774445491 -0.08633627003591111 0.0026268890496617676 0.017864029866967956 -0.002225681518306783 -0.011252805082418863
 0.9900480774445491 -0.08633627003591111 0.007932115825580916 0.03663109843657533 -0.0022273698636506452 -0.01125267455533397 0.0025925385786892984 0.017869210129911765
 0.0026268890496617676 0.017864029866967956 -0.0022273698636506452 -0.01125267455533397 0.0079261886222193 0.03662994226692542 0.9900479842003074 -0.08633794975224388
 -0.002225681518306783 -0.011252805082418863 0.0025925385786892984 0.017869210129911765 0.9900479842003074 -0.08633794975224388 0.007933045412113678 0.03662938193284942
0.131304710296 0.008445805599373024 0.03863185861545834 0.989363185158694 -0.09079431587382158 0.0028665107587724113 0.018752466057319946 -0.0024273004963148983 -0.01181428330709728
 0.989363185158694 -0.09079431587382158 0.008451135161043798 0.038631434624859635 -0.0024291565799519368 -0.011814129303339731 0.002828627825353605 0.01875832420871854
 0.0028665107587724113 0.018752466057319946 -0.0024291565799519368 -0.011814129303339731 0.008444600903021215 0.038630248964491465 0.9893630822822281 -0.090796081002147
 -0.0024273004963148983 -0.01181428330709728 0.002828627825353605 0.01875832420871854 0.9893630822822281 -0.090796081002147 0.008452160796581894 0.03862962960206913
0.1375573155481 0.008869200010004949 0.040384082135367656 0.988767324950326 -0.09500264532446563 0.0030879333454422453 0.019613113099515918 -0.0026090750351743072 -0.012348284707890957
 0.988767324950326 -0.09500264532446563 0.00887505271223609 0.04038363080307604 -0.0026111100808801956 -0.012348106983076862 0.0030464297257909857 0.019619642080682256
 0.0030879333454422453 0.019613113099515918 -0.0026111100808801956 -0.012348106983076862 0.008867879493289363 0.04038240732545217 0.9887672119978176 -0.09500449597386816
 -0.0026090750351743072 -0.012348284707890957 0.0030464297257909857 0.019619642080682256 0.9887672119978176 -0.09500449597386816 0.008876178411292044 0.04038173685520963
0.1438099208003 0.009307548468919027 0.04212662963939405 0.9881503798394803 -0.0991998724175959 0.0033183001704188294 0.02047003207741413 -0.002798114025857845 -0.012878890352954699
 0.9881503798394803 -0.0991998724175959 0.009313949291766873 0.042126149765099236 -0.0028003361258291557 -0.012878686724333252 0.003273018009174468 0.020477282572742173
 0.0033183001704188294 0.02047003207741413 -0.0028003361258291557 -0.012878686724333252 0.009306106969030297 0.042124891194669924 0.9881502562909263 -0.0992018088020564
 -0.002798114025857845 -0.012878890352954699 0.003273018009174468 0.020477282572742173 0.9881502562909263 -0.0992018088020564 0.009315179701970029 0.04212416648052991
0.1500625260525 0.009760690211266593 0.04385934265415984 0.9875125150072751 -0.103385879937521 0.00355752826647551 0.02132312715029368 -0.0029943371703507323 -0.013406010470880862
 0.9875125150072751 -0.103385879937521 0.009767664216450124 0.043858832946378844 -0.00299675439796686 -0.013405778667814044 0.0035083107638572463 0.02133115168162029
 0.00355752826647551 0.02132312715029368 -0.00299675439796686 -0.013405778667814044 0.009759122588637223 0.04385754215941806 0.9875123803343974 -0.10338790227875266
 -0.0029943371703507323 -0.013406010470880862 0.0035083107638572463 0.02133115168162029 0.9875123803343974 -0.10338790227875266 0.009769003985123842 0.043856759896169675
0.15631513130469998 0.010228463249967774 0.04558206746078048 0.9868538965653453 -0.10756055136193104 0.003805533636709248 0.02217230417600641 -0.003197663137398745 -0.013929557262784432
 0.9868538965653453 -0.10756055136193104 0.01023603558355628 0.04558152653309792 -0.0032002835470030196 -0.013929294927089815 0.003752225066644572 0.022181157080940733
