! Created with skrf 1.8.0 (http://scikit-rf.org).
# GHz S RI R 50.0 
!freq ReS11 ImS11 ReS12 ImS12 ReS13 ImS13
! ReS14 ImS14
! ReS21 ImS21 ReS22 ImS22 ReS23 ImS23
! ReS24 ImS24
! ReS31 ImS31 ReS32 ImS32 ReS33 ImS33
! ReS34 ImS34
! ReS41 ImS41 ReS42 ImS42 ReS43 ImS43
! ReS44 ImS44
!
0.0 0.001298070131974 0.0 0.9987019298538 0.0 4.981782094516e-05 0.0 -4.981782076862e-05 6.100923474478702e-21
 0.9987019298538 0.0 0.00129807013198 0.0 -4.981782076808e-05 6.100923474412571e-21 4.981782094684e-05 0.0
 4.981782094516e-05 0.0 -4.981782076808e-05 6.100923474412571e-21 0.001298070139072 0.0 0.9987019298609 0.0
 -4.981782076862e-05 6.100923474478702e-21 4.981782094684e-05 0.0 0.9987019298609 0.0 0.001298070139106 0.0
0.005 0.0013960473366747819 0.0010593227524744774 0.9985780680603645 -0.0027200654966517885 6.986259563612056e-05 0.0005670974631689059 -6.783199691314528e-05 -0.0003528867008039386
 0.9985780680603645 -0.0027200654966517885 0.0013960428844305875 0.0010593252852868053 -6.783192118067659e-05 -0.00035288658789317854 6.989989750915927e-05 0.0005670834123772448
 6.986259563612056e-05 0.0005670974631689059 -6.783192118067659e-05 -0.00035288658789317854 0.0013960479777946051 0.001059389577803451 0.9985780683927101 -0.00271999844402011
 -6.783199691314528e-05 -0.0003528867008039386 6.989989750915927e-05 0.0005670834123772448 0.9985780683927101 -0.00271999844402011 0.001396042901364603 0.001059392558655057
0.006252605252188 0.0014215677245798307 0.0013283596382034242 0.9985456308114405 -0.0034007761497825187 7.547993015909723e-05 0.0007091501543392614 -7.283712239834394e-05 -0.00044157935849476355
 0.9985456308114405 -0.0034007761497825187 0.0014215607651758048 0.001328362820957348 -7.283700499167617e-05 -0.0004415792181145328 7.553821321717193e-05 0.0007091319014734172
 7.547993015909723e-05 0.0007091501543392614 -7.283700499167617e-05 -0.0004415792181145328 0.0014215686602764795 0.0013284431615468077 0.9985456312640917 -0.003400692334060007
 -7.283712239834394e-05 -0.00044157935849476355 7.553821321717193e-05 0.0007091319014734172 0.9985456312640917 -0.003400692334060007 0.0014215607243273389 0.001328446914591303
0.01250521050438 0.001554887383702683 0.0026849211394549817 0.9983751946857236 -0.00680253645858441 0.0001071168523561363 0.001418674889777158 -0.00010080112763424246 -0.0008854316910199084
 0.9983751946857236 -0.00680253645858441 0.0015548596015418604 0.002684927660770979 -0.0001008006702514561 -0.0008854314178169387 0.00010734933648172389 0.00141863103835826
 0.0001071168523561363 0.001418674889777158 -0.0001008006702514561 -0.0008854314178169387 0.0015548905661904725 0.0026850878636648476 0.9983751959355168 -0.00680236904289889
 -0.00010080112763424246 -0.0008854316910199084 0.00010734933648172389 0.00141863103835826 0.9983751959355168 -0.00680236904289889 0.0015548588716947816 0.0026850956348448652
0.01875781575657 0.0016982834281484942 0.004061167375335553 0.9981904359624815 -0.01021360093171527 0.00014479612165363624 0.0021290942970963603 -0.0001337882475508861 -0.0013309162717642976
 0.9981904359624815 -0.01021360093171527 0.0016982210156600921 0.004061177385150204 -0.00013378723495315208 -0.0013309158728147684 0.00014531852548541372 0.002129016265940869
 0.00014479612165363624 0.0021290942970963603 -0.00013378723495315208 -0.0013309158728147684 0.0016982901720943991 0.0040614170454074654 0.9981904383571815 -0.010213350002158405
 -0.0001337882475508861 -0.0013309162717642976 0.00014531852548541372 0.002129016265940869 0.9981904383571815 -0.010213350002158405 0.0016982189422947891 0.0040614291139813375
0.02501042100875 0.001852004598818244 0.00545520370900657 0.9979911628946763 -0.013635660627184505 0.00018858605807836682 0.0028404682008211354 -0.0001718748721010939 -0.0017778490146172746
 0.9979911628946763 -0.013635660627184505 0.0018518937845635945 0.005455217344111054 -0.00017187309405533664 -0.0017778484968559276 0.00018951424313372355 0.002840346218025169
 0.00018858605807836682 0.0028404682008211354 -0.00017187309405533664 -0.0017778484968559276 0.0018520162153287678 0.005455536088834961 0.9979911667788259 -0.01363532618865041
 -0.0001718748721010939 -0.0017778490146172746 0.00018951424313372355 0.002840346218025169 0.9979911667788259 -0.01363532618865041 0.001851889698026408 0.005455552740815626
0.03126302626094 0.00201628912569303 0.006866073907850375 0.9977771727088581 -0.017069461708976903 0.00023855562558152438 0.0035527895658608215 -0.00021513554420763182 -0.002226109093264716
 0.9977771727088581 -0.017069461708976903 0.0020161161658127807 0.006866091289835964 -0.00021513279465343093 -0.0022261084634976995 0.00024000570536846825 0.00355261266064938
 0.00023855562558152438 0.0035527895658608215 -0.00021513279465343093 -0.0022261084634976995 0.0020163069293938625 0.006866488715723461 0.9977771784311017 -0.017069043749323883
 -0.00021513554420763182 -0.002226109093264716 0.00024000570536846825 0.00355261266064938 0.9977771784311017 -0.017069043749323883 0.0020161093878917143 0.006866510242036791
0.037515631513130004 0.0021913702649602814 0.008293168700837577 0.9975482572614138 -0.020515396838697467 0.0002947737967373383 0.004266025378788182 -0.00026364354102795305 -0.0026755980538243724
 0.9975482572614138 -0.020515396838697467 0.0021911214369992995 0.008293189934735 -0.000263639617556807 -0.0026755973187097097 0.00029686218842994467 0.004265781368065807
 0.0002947737967373383 0.004266025378788182 -0.000263639617556807 -0.0026755973187097097 0.002191395571087438 0.008293665621720358 0.997548265173302 -0.020514895316135137
 -0.00026364354102795305 -0.0026755980538243724 0.00029686218842994467 0.004265781368065807 0.997548265173302 -0.020514895316135137 0.002191111278401439 0.008293692317014704
0.043768236765320004 0.002377478444351034 0.009736045822199457 0.9973042053030924 -0.023973685074995848 0.0003573092647808741 0.004980129076296522 -0.0003174710904982758 -0.00312622737685157
 0.9973042053030924 -0.023973685074995848 0.002377140042711862 0.009736070995194794 -0.00031746579413591264 -0.0031262265428510516 0.00036015271633356525 0.004979804549489366
 0.0003573092647808741 0.004980129076296522 -0.00031746579413591264 -0.0031262265428510516 0.002377512567616122 0.009736624498150293 0.9973042157583485 -0.023973099927101275
 -0.0003174710904982758 -0.00312622737685157 0.00036015271633356525 0.004979804549489366 0.9973042157583485 -0.023973099927101275 0.0023771258012437553 0.009736656660043677
0.050020842017509996 0.002574842264566758 0.011194355624117129 0.9970448036010897 -0.02744444620178926 0.00042623027418188617 0.005695045680775743 -0.0003766894624289365 -0.003577913331951793
 0.9970448036010897 -0.02744444620178926 0.002574400596061944 0.011194384804663277 -0.0003766825973582115 -0.0035779124052980676 0.00042994587864614916 0.00569462598398401
 0.00042623027418188617 0.005695045680775743 -0.0003766825973582115 -0.0035779124052980676 0.002574886520302728 0.011195015654753341 0.9970448169582703 -0.027443777344761364
 -0.0003766894624289365 -0.003577913331951793 0.00042994587864614916 0.00569462598398401 0.9970448169582703 -0.027443777344761364 0.002574381558345554 0.011195053583172316
0.055454545454549996 0.0027556749237532692 0.012473975276143853 0.9968067431759668 -0.030470817708606143 0.0004913631422145747 0.00631694288330659 -0.0004325846830936218 -0.003971236939062667
 0.9968067431759668 -0.030470817708606143 0.0027551323991911146 0.012474007979686282 -0.00043257629806793703 -0.0039712359367351305 0.0004959320406111047 0.006316427602354152
 0.0004913631422145747 0.00631694288330659 -0.00043257629806793703 -0.0039712359367351305 0.0027557290525871254 0.012474705650945625 0.9968067593499703 -0.03047007601813968
 -0.0004325846830936218 -0.003971236939062667 0.0004959320406111047 0.006316427602354152 0.9968067593499703 -0.03047007601813968 0.0027551086043846934 0.012474748835619758
0.056273447269699996 0.0027836890282318017 0.012667804570219916 0.9967698375897327 -0.03092773717584785 0.0005016045087076085 0.006410714301993223 -0.00044136899841222944 -0.004030574467167733
 0.9967698375897327 -0.03092773717584785 0.0027831304079948913 0.012667837807087684 -0.0004413603718140694 -0.004030573453813431 0.0005063097104342669 0.0064101835218023945
 0.0005016045087076085 0.006410714301993223 -0.0004413603718140694 -0.004030573453813431 0.0027837447308396482 0.012668545517585676 0.9967698542119362 -0.030926984499104058
 -0.00044136899841222944 -0.004030574467167733 0.0005063097104342669 0.0064101835218023945 0.9967698542119362 -0.030926984499104058 0.002783105847925281 0.012668589514241628
0.06252605252188 0.0030042450315089287 0.0141561351734123 0.9964790917876059 -0.03442357213058261 0.00058349900018035 0.0071270695259375745 -0.0005115791181207913 -0.0044841302125637385
 0.9964790917876059 -0.03442357213058261 0.0030035557789981613 0.014156172494918554 -0.0005115685400088839 -0.004484129118141917 0.0005893115963304535 0.007126410473010151
 0.00058349900018035 0.0071270695259375745 -0.0005115685400088839 -0.004484129118141917 0.0030043134936850197 0.01415695654528434 0.9964791120429188 -0.034422735513160684
 -0.0005115791181207913 -0.0044841302125637385 0.0005893115963304535 0.007126410473010151 0.9964791120429188 -0.034422735513160684 0.003003524957293808 0.014157006913280118
0.06877865777407 0.003236735730240737 0.015659114014731537 0.9961723500903413 -0.037931934300140455 0.0006719800559412605 0.007844042232033575 -0.000587388305150912 -0.004938500057059573
 0.9961723500903413 -0.037931934300140455 0.0032359021658087276 0.01565915542811314 -0.0005873755883018 -0.004938498886844557 0.0006790181941933089 0.007843236424637542
 0.0006719800559412605 0.007844042232033575 -0.0005873755883018 -0.004938498886844557 0.003236818262226257 0.015660015281083593 0.9961723743520622 -0.03793101359376738
 -0.000587388305150912 -0.004938500057059573 0.0006790181941933089 0.007843236424637542 0.9961723743520622 -0.03793101359376738 0.003235864329023415 0.015660072324587916
0.07503126302626001 0.003481385832148355 0.017176524161446147 0.9958493959918948 -0.041452783545936886 0.0007671131924633299 0.008561560112663541 -0.0006688640849974462 -0.005393603024818185
 0.9958493959918948 -0.041452783545936886 0.0034803942729688814 0.017176569652174966 -0.0006688490448110631 -0.005393601783675822 0.0007754953660886224 0.008560587760143961
 0.0007671131924633299 0.008561560112663541 -0.0006688490448110631 -0.005393601783675822 0.0034814837412577592 0.017177504741071166 0.9958494246398077 -0.041451778588112595
 -0.0006688640849974462 -0.005393603024818185 0.0007754953660886224 0.008560587760143961 0.9958494246398077 -0.041451778588112595 0.003480348653472773 0.017177568765059794
0.08128386827845 0.003738419340384845 0.018708160121126912 0.9955100127600387 -0.04498606134898854 0.0008689630752652445 0.009279548018892195 -0.0007560729951505784 -0.005849357327341873
 0.9955100127600387 -0.04498606134898854 0.0037372560968006708 0.01870820965249476 -0.0007560554495195568 -0.005849356019698108 0.0008788081162874664 0.009278388005185743
 0.0008689630752652445 0.009279548018892195 -0.0007560554495195568 -0.005849356019698108 0.003738533930092007 0.018709219389908348 0.9955100461806372 -0.04498497195434736
 -0.0007560729951505784 -0.005849357327341873 0.0008788081162874664 0.009278388005185743 0.9955100461806372 -0.04498497195434736 0.003737201912316382 0.018709290700077128
0.08753647353064001 0.004008059568585701 0.020253824339443297 0.995153983584834 -0.0485316942605955 0.0009775934616191694 0.009997928199603252 -0.0008490805511394978 -0.006305680124311673
 0.995153983584834 -0.0485316942605955 0.0040067109404855325 0.02025387785205002 -0.0008490603204119258 -0.006305678754103562 0.0009890205321872948 0.00999655806674575
 0.0009775934616191694 0.009997928199603252 -0.0008490603204119258 -0.006305678754103562 0.004008192137728748 0.020254961622189826 0.9951540221715951 -0.04853052022876144
 -0.0008490805511394978 -0.006305680124311673 0.0009890205321872948 0.00999655806674575 0.9951540221715951 -0.04853052022876144 0.004006647393099758 0.020255040524839306
0.09378907878283 0.004290529133584329 0.021813324704776583 0.9947810917071988 -0.05208959634836896 0.0010930671456793777 0.01071662047138093 -0.0009479512089098453 -0.006762487355753337
 0.9947810917071988 -0.05208959634836896 0.004288981406336697 0.021813382116328165 -0.0009479281157392273 -0.006762485926397367 0.0011061957281679564 0.01071501640312184
 0.0010930671456793777 0.01071662047138093 -0.0009479281157392273 -0.006762485926397367 0.004290680975488151 0.021814539282973354 0.994781135861949 -0.05208833745597602
 -0.0009479512089098453 -0.006762487355753337 0.0011061957281679564 0.01071501640312184 0.994781135861949 -0.05208833745597602 0.004288907682379179 0.021814626085110048
0.100041684035 0.004586049932635621 0.023386472720305203 0.994391120535274 -0.055659670977361624 0.0012154459048362791 0.011435542345721991 -0.0010527483247242456 -0.007219693619251436
 0.994391120535274 -0.055659670977361624 0.004584289373514138 0.023386533925283087 -0.0010527221940646438 -0.00721969213359723 0.001230395790815622 0.011433679151188996
 0.0012154459048362791 0.011435542345721991 -0.0010527221940646438 -0.00721969213359723 0.004586222334677548 0.023387763826892595 0.9943911706681804 -0.05565832698292148
 -0.0010527483247242456 -0.007219693619251436 0.001230395790815622 0.011433679151188996 0.9943911706681804 -0.05565832698292148 0.00458420464273021 0.023387858836351826
0.1059090909091 0.004875431816509752 0.02487495171652961 0.9940094478244027 -0.05902078385434059 0.0013366195718492939 0.012110307678649387 -0.0011565347868135627 -0.007649018786115676
 0.9940094478244027 -0.05902078385434059 0.004873459027877056 0.024875016364509075 -0.0011565056485076935 -0.007649017249691181 0.0013533877719400938 0.01210817717199036
 0.0013366195718492939 0.012110307678649387 -0.0011565056485076935 -0.007649017249691181 0.0048756246763599735 0.02487631389412933 0.9940095039483084 -0.05901935976667944
 -0.0011565347868135627 -0.007649018786115676 0.0013533877719400938 0.01210817717199036 0.9940095039483084 -0.05901935976667944 0.004873363197964289 0.024876416886176415
0.1062942892872 0.004894843110307064 0.02497308211806469 0.9939838537507839 -0.059241812151313314 0.0013447904466870595 0.012154609127811446 -0.0011635341135167172 -0.007677212077818572
 0.9939838537507839 -0.059241812151313314 0.004892855964550748 0.02497314698764049 -0.0011635047724727825 -0.007677210538117949 0.0013616817248896526 0.012152460225260694
 0.0013447904466870595 0.012154609127811446 -0.0011635047724727825 -0.007677210538117949 0.004895037352468935 0.02497444893480974 0.993983910281001 -0.0592403827977359
 -0.0011635341135167172 -0.007677212077818572 0.0013616817248896526 0.012152460225260694 0.993983910281001 -0.0592403827977359 0.004892759379499767 0.02497455246046239
0.11254689453939999 0.005217129016031734 0.02657296780537538 0.9935590754095674 -0.06283590552446795 0.0014811603570349546 0.012873733990050209 -0.001280369605177019 -0.008134954395463091
 0.9935590754095674 -0.06283590552446795 0.0052149015028085536 0.026573036187408923 -0.0012803368829368313 -0.008134952803330634 0.0015001134003059125 0.012871271390777135
 0.0014811603570349546 0.012873733990050209 -0.0012803368829368313 -0.008134952803330634 0.005217346370545215 0.026574409468023783 0.9935591387664435 -0.06283439053365425
 -0.001280369605177019 -0.008134954395463091 0.0015001134003059125 0.012871271390777135 0.9935591387664435 -0.06283439053365425 0.005214792198699683 0.026574521820114955
0.11879949979160001 0.005553127155672412 0.028185945038543478 0.9931165700382003 -0.06644182918859669 0.001624614048059449 0.01359282803331235 -0.0014033145995375322 -0.008592830687496689
 0.9931165700382003 -0.06644182918859669 0.0055506454644046275 0.028186016757612245 -0.0014032783273422646 -0.008592829043874569 0.0016457494997807983 0.013590022325676718
 0.001624614048059449 0.01359282803331235 -0.0014032783273422646 -0.008592829043874569 0.005553368886015434 0.028187460635281613 0.9931166406611308 -0.06644022826278691
 -0.0014033145995375322 -0.008592830687496689 0.0016457494997807983 0.013590022325676718 0.9931166406611308 -0.06644022826278691 0.005550522557982216 0.028187582125900067
0.1250521050438 0.005903056137411547 0.029811828772533428 0.9926561227259223 -0.07005945428689477 0.001775208706636131 0.014311800337391427 -0.0015324276206797637 -0.009050749484189633
 0.9926561227259223 -0.07005945428689477 0.005900306423472152 0.029811903630165486 -0.0015323876316799393 -0.00905074778931548 0.0017986474661723089 0.014308620670931053
 0.001775208706636131 0.014311800337391427 -0.0015323876316799393 -0.00905074778931548 0.0059033234971684135 0.029813417342040453 0.9926562010654474 -0.07005776711055327
 -0.0015324276206797637 -0.009050749484189633 0.0017986474661723089 0.014308620670931053 0.9926562010654474 -0.07005776711055327 0.005900169012766761 0.02981354828562475
0.131304710296 0.006267133613359845 0.03145043313255439 0.9921775192156889 -0.07368864550890611 0.0019330002426903906 0.015030558005321023 -0.001667765870102724 -0.00950861770313129
 0.9921775192156889 -0.07368864550890611 0.006264101994324202 0.031450510907482854 -0.001667721999336644 -0.009508615956503257 0.0019588634503162924 0.015026972075076202
 0.0019330002426903906 0.015030558005321023 -0.001667721999336644 -0.009508615956503257 0.006267427845386489 0.03145209366446357 0.9921776057337425 -0.07368687174812558
 -0.001667765870102724 -0.00950861770313129 0.0019588634503162924 0.015026972075076202 0.9921776057337425 -0.07368687174812558 0.006263949157622287 0.03145223437845021
0.1375573155481 0.006556532496762734 0.03288665723918702 0.9917696164455332 -0.07711427649096786 0.002076381967046904 0.015726629850632744 -0.0017876932428891742 -0.009943995597715565
 0.9917696164455332 -0.07711427649096786 0.006553202789605626 0.032886736343965724 -0.0017876450856921064 -0.009943993784999047 0.002104725226163184 0.01572264623153457
 0.002076381967046904 0.015726629850632744 -0.0017876450856921064 -0.009943993784999047 0.006556854159157132 0.032888389135127455 0.9917697115154129 -0.07711241593907395
 -0.0017876932428891742 -0.009943995597715565 0.002104725226163184 0.01572264623153457 0.9917697115154129 -0.07711241593907395 0.006553034445816139 0.03288853793649831
0.1438099208003 0.006855909934219698 0.03431621305818939 0.9913477391627725 -0.08053215205486092 0.0022255563124387433 0.01642051194151025 -0.0019124386730365215 -0.010377354228638133
 0.9913477391627725 -0.08053215205486092 0.006852267818292269 0.0343162932725939 -0.0019123860240664212 -0.010377352351715835 0.0022564892413013305 0.01641610148467266
 0.0022255563124387433 0.01642051194151025 -0.0019123860240664212 -0.010377352351715835 0.006856260130523336 0.03431801529939204 0.9913478432454492 -0.08053020438083347
 -0.0019124386730365215 -0.010377354228638133 0.0022564892413013305 0.01641610148467266 0.9913478432454492 -0.08053020438083347 0.006852083169829322 0.034318172453604585
0.1500625260525 0.007165172345278193 0.035739008317583296 0.9909119841671247 -0.08394221528584157 0.0023804791223505178 0.01711215394022288 -0.002041958907077873 -0.010808644478805241
 0.9909119841671247 -0.08394221528584157 0.00716120344314645 0.035739089430385736 -0.0020419015599260483 -0.01080864253973032 0.002414110805310425 0.01710728644317804
 0.0023804791223505178 0.01711215394022288 -0.0020419015599260483 -0.01080864253973032 0.007165552160622375 0.0357408798437121 0.9909120977335094 -0.08394018014699713
 -0.002041958907077873 -0.010808644478805241 0.002414110805310425 0.01710728644317804 0.9909120977335094 -0.08394018014699713 0.007161001683495058 0.035741045642953814
0.15631513130469998 0.007484225621650956 0.03715495368409031 0.9904624486009977 -0.08734440893814573 0.0025411058033566734 0.017801506233053935 -0.002176210235351506 -0.011237818182003841
