! Created with skrf 1.8.0 (http://scikit-rf.org).
# GHz S RI R 50.0 
!freq ReS11 ImS11 ReS12 ImS12 ReS13 ImS13
! ReS14 ImS14
! ReS21 ImS21 ReS22 ImS22 ReS23 ImS23
! ReS24 ImS24
! ReS31 ImS31 ReS32 ImS32 ReS33 ImS33
! ReS34 ImS34
! ReS41 ImS41 ReS42 ImS42 ReS43 ImS43
! ReS44 ImS44
!
0.0 0.001873823511207 0.0 0.9981261764684 0.0 7.287568804058e-05 0.0 -7.287568904006e-05 8.924697931856734e-21
 0.9981261764684 0.0 0.001873823511247 0.0 -7.287568904084e-05 8.924697931952255e-21 7.287568804193e-05 0.0
 7.287568804058e-05 0.0 -7.287568904084e-05 8.924697931952255e-21 0.001873823521364 0.0 0.9981261764786 0.0
 -7.287568904006e-05 8.924697931856734e-21 7.287568804193e-05 0.0 0.9981261764786 0.0 0.001873823521364 0.0
0.005 0.0020172214285698524 0.0015310004052066647 0.9979445378447214 -0.003923967581963875 0.0001030387907432807 0.0008084294232707362 -9.982413073148644e-05 -0.0005062838261622657
 0.9979445378447214 -0.003923967581963875 0.002017263771559176 0.0015309757217474495 -9.982552691671892e-05 -0.0005062849545719285 0.00010276260168885426 0.0008085346475529003
 0.0001030387907432807 0.0008084294232707362 -9.982552691671892e-05 -0.0005062849545719285 0.0020172200332393485 0.001530933997034962 0.9979445374510624 -0.003924034635003888
 -9.982413073148644e-05 -0.0005062838261622657 0.00010276260168885426 0.0008085346475529003 0.9979445374510624 -0.003924034635003888 0.0020172643870046843 0.0015309080297795828
0.006252605252188 0.0020551701865286188 0.0019197289823810713 0.9978961056369573 -0.004905863632719537 0.0001118781688213224 0.0010109010186097553 -0.00010759241211707553 -0.0006334893758750138
 0.9978961056369573 -0.004905863632719537 0.0020552363764249158 0.001919697658830573 -0.00010759458423195626 -0.000633490767815192 0.00011144665487302976 0.0010110377966298081
 0.0001118781688213224 0.0010109010186097553 -0.00010759458423195626 -0.000633490767815192 0.002055168091802466 0.001919645982109241 0.9978961051082935 -0.004905947449135626
 -0.00010759241211707553 -0.0006334893758750138 0.00011144665487302976 0.0010110377966298081 0.9978961051082935 -0.004905947449135626 0.002055237425844597 0.001919613039727835
0.01250521050438 0.002256918779971482 0.00387918465881542 0.9976366401047048 -0.009812113815761098 0.00016373930450292004 0.002021950046448693 -0.00015252522454252678 -0.0012698211821188493
 0.9976366401047048 -0.009812113815761098 0.0022571830781014657 0.003879117281467457 -0.00015253377864464464 -0.0012698237598053998 0.00016201862778649653 0.0020222809647228073
 0.00016373930450292004 0.002021950046448693 -0.00015253377864464464 -0.0012698237598053998 0.002256910963515922 0.003879019023840206 0.9976366385466533 -0.009812281216048557
 -0.00015252522454252678 -0.0012698211821188493 0.00016201862778649653 0.0020222809647228073 0.9976366385466533 -0.009812281216048557 0.002257187832749017 0.003878948243459389
0.01875781575657 0.0024795808956751177 0.00586594571814242 0.9973474075559113 -0.014730604865177037 0.00022858714335977545 0.003033765411597084 -0.00020782673476336735 -0.0019080160646760807
 0.9973474075559113 -0.014730604865177037 0.0024801747944447035 0.00586583720206612 -0.00020784580185197413 -0.001908019576653045 0.00022472209170570776 0.003034360785601897
 0.00022858714335977545 0.003033765411597084 -0.00020784580185197413 -0.001908019576653045 0.0024795637450843538 0.005865697741556772 0.9973474044758497 -0.014730855775992757
 -0.00020782673476336735 -0.0019080160646760807 0.00022472209170570776 0.003034360785601897 0.9973474044758497 -0.014730855775992757 0.00248018592299601 0.005865583800735717
0.02501042100875 0.002723648385014499 0.007877136424675402 0.9970280192408548 -0.019663626744604545 0.00030655198588109325 0.004046323708337191 -0.0002736428572499916 -0.0025477263352399627
 0.9970280192408548 -0.019663626744604545 0.0027247031332500904 0.007876981377670038 -0.0002736765154634138 -0.002547730480594369 0.00029968727819549613 0.00404726645569126
 0.00030655198588109325 0.004046323708337191 -0.0002736765154634138 -0.002547730480594369 0.002723618286152607 0.007876806433139736 0.9970280141400646 -0.019663961144975414
 -0.0002736428572499916 -0.0025477263352399627 0.00029968727819549613 0.00404726645569126 0.9970280141400646 -0.019663961144975414 0.0027247233081934084 0.007876643632060778
0.03126302626094 0.0029895923778524174 0.009911229460793154 0.9966780694800483 -0.024612102248095354 0.0003977638590642069 0.005059506096257243 -0.0003501141218138082 -0.003188689540000869
 0.9966780694800483 -0.024612102248095354 0.0029912390653996385 0.009911022192977716 -0.00035016640512707816 -0.00318869396795267 0.0003870434108449493 0.005060891816150307
 0.0003977638590642069 0.005059506096257243 -0.00035016640512707816 -0.00318869396795267 0.002989545722875768 0.009910817838323623 0.9966780618612539 -0.02461252014611989
 -0.0003501141218138082 -0.003188689540000869 0.0003870434108449493 0.005060891816150307 0.9966780618612539 -0.02461252014611989 0.0029912709728883943 0.009910600108896014
0.037515631513130004 0.003277872649628725 0.011967193093521584 0.9962971455001599 -0.029576439792174145 0.0005023509784882392 0.006073155076520838 -0.0004373766592983978 -0.003830671725067832
 0.9962971455001599 -0.029576439792174145 0.0032802422689878325 0.01196692762131529 -0.00043745156191648876 -0.00383067603492387 0.00048691760599428607 0.006075092174066422
 0.0005023509784882392 0.006073155076520838 -0.00043745156191648876 -0.00383067603492387 0.003277805830222679 0.011966700285182458 0.9962971348594735 -0.029576941222041245
 -0.0004373766592983978 -0.003830671725067832 0.00048691760599428607 0.006075092174066422 0.9962971348594735 -0.029576941222041245 0.0032802886027168163 0.011966421194114089
0.043768236765320004 0.0035889412062029263 0.0140442316350479 0.9958848314944952 -0.034556792900559845 0.0006204389999758739 0.007087091787032189 -0.000535562520003541 -0.004473450199564172
 0.9958848314944952 -0.034556792900559845 0.0035921647035888197 0.014043901682783196 -0.0005356639989520022 -0.004473453940758051 0.0005994343124915767 0.007089701611247826
 0.0006204389999758739 0.007087091787032189 -0.0005356639989520022 -0.004473453940758051 0.003588850618662669 0.014043658156580867 0.9958848173249977 -0.03455737791365255
 -0.000535562520003541 -0.004473450199564172 0.0005994343124915767 0.007089701611247826 0.9958848173249977 -0.03455737791365255 0.003592228169823929 0.014043310905969757
0.050020842017509996 0.003923243911486108 0.0161416782218571 0.9954407107345475 -0.039553167371406406 0.0007521505513953547 0.008101123160529128 -0.0006447997528349398 -0.005116806446688592
 0.9954407107345475 -0.039553167371406406 0.003927452234167585 0.016141277221262153 -0.0006449317296088646 -0.0051168091188662276 0.0007247149443129194 0.00810454014725514
 0.0007521505513953547 0.008101123160529128 -0.0006449317296088646 -0.0051168091188662276 0.003923125956842887 0.016141024651532613 0.9954406925248134 -0.03955383604513379
 -0.0006447997528349398 -0.005116806446688592 0.0007247149443129194 0.00810454014725514 0.9954406925248134 -0.03955383604513379 0.003927535551482074 0.01614060207730235
0.055454545454549996 0.004232974324626335 0.017980536600421548 0.9950286019735627 -0.043908111917095566 0.0008777685629265849 0.008982266020954047 -0.000748801706412807 -0.0056762026106710346
 0.9950286019735627 -0.043908111917095566 0.004238144869560156 0.017980068293586338 -0.0007489633446739583 -0.005676203908884784 0.0008440452852991497 0.00898650390735456
 0.0008777685629265849 0.008982266020954047 -0.0007489633446739583 -0.005676203908884784 0.004232829668188621 0.017979813954075826 0.995028579832315 -0.043908853370026577
 -0.000748801706412807 -0.0056762026106710346 0.0008440452852991497 0.00898650390735456 0.995028579832315 -0.043908853370026577 0.004238247655220333 0.017979319816447285
0.056273447269699996 0.004281221290834073 0.01825894216528167 0.994964366864323 -0.04456547387948068 0.000897604888934369 0.00911504545639575 -0.000765212377256241 -0.005760522671677254
 0.994964366864323 -0.04456547387948068 0.004286545431248084 0.018258463253329752 -0.0007653787388724063 -0.005760523724782636 0.0008628775981958593 0.009119417272827373
 0.000897604888934369 0.00911504545639575 -0.0007653787388724063 -0.005760523724782636 0.004281072374950836 0.018258209153953465 0.9949643440963485 -0.044566226307933735
 -0.000765212377256241 -0.005760522671677254 0.0008628775981958593 0.009119417272827373 0.9949643440963485 -0.044566226307933735 0.004286651330292069 0.018257703722624367
0.06252605252188 0.004663308917047814 0.020395480048038456 0.9944553847836076 -0.049593556842102426 0.0010569176135970526 0.010128646234234156 -0.0008969203030876343 -0.006404379919095915
 0.9944553847836076 -0.049593556842102426 0.004669879956110015 0.020394916063080443 -0.000897124902802293 -0.006404378753475966 0.0010140368110399477 0.010134133923263839
 0.0010569176135970526 0.010128646234234156 -0.000897124902802293 -0.006404378753475966 0.0046631254528983 0.02039466831814744 0.9944553569335376 -0.04959439313767827
 -0.0008969203030876343 -0.006404379919095915 0.0010140368110399477 0.010134133923263839 0.9944553569335376 -0.04959439313767827 0.004670011181138285 0.020394072121898844
0.06877865777407 0.005069937575858582 0.022550778491811318 0.9939133513166498 -0.05463721162505499 0.0012302004242945035 0.011141705538505974 -0.0010400392176126323 -0.00704815699061732
 0.9939133513166498 -0.05463721162505499 0.005077886725028644 0.02255012196819454 -0.0010402858754111604 -0.007048152957126668 0.0011783033425800241 0.011148483661861056
 0.0012302004242945035 0.011141705538505974 -0.0010402858754111604 -0.007048152957126668 0.005069715983688713 0.022549888838268122 0.9939133178524673 -0.05463813191817808
 -0.0010400392176126323 -0.00704815699061732 0.0011783033425800241 0.011148483661861056 0.9939133178524673 -0.05463813191817808 0.005078046033092582 0.02254919358852609
0.07503126302626001 0.005501533294682115 0.024724343246415204 0.9933378557508912 -0.059696195439696474 0.0014175608912113007 0.012153996683221221 -0.0011946804546148987 -0.007691629774604259
 0.9933378557508912 -0.059696195439696474 0.005510991938185374 0.024723586407278484 -0.001194972957446723 -0.0076916221747102 0.0013557839712706407 0.012162253462727512
 0.0014175608912113007 0.012153996683221221 -0.001194972957446723 -0.0076916221747102 0.005501270004119072 0.024723376535651778 0.9933378161328129 -0.059697199880282215
 -0.0011946804546148987 -0.007691629774604259 0.0013557839712706407 0.012162253462727512 0.9933378161328129 -0.059697199880282215 0.005511182100905593 0.02472257355471669
0.08128386827845 0.0059585172892996545 0.026915691952573192 0.9927284902979594 -0.06477023457930572 0.0016191022425799688 0.013165286797766419 -0.001360950851602967 -0.00833457082686388
 0.9927284902979594 -0.06477023457930572 0.005969617025774438 0.026914826701039365 -0.0013612929535685237 -0.008334558912761624 0.00154658129835796 0.013175224254202022
 0.0016191022425799688 0.013165286797766419 -0.0013612929535685237 -0.008334558912761624 0.005958208739928227 0.026914649124267522 0.9927284439766604 -0.0647713233356249
 -0.001360950851602967 -0.00833457082686388 0.00154658129835796 0.013175224254202022 0.9927284439766604 -0.0647713233356249 0.005969840828678057 0.026913729335537682
0.08753647353064001 0.006441305851552282 0.02912434914234356 0.992084850501648 -0.06985902943223257 0.0018349231609139623 0.014175337223336136 -0.0015389525982029723 -0.008976749113336981
 0.992084850501648 -0.06985902943223257 0.006454178536036239 0.0291233670509191 -0.0015393480206143013 -0.008976732088069326 0.0017507935592072801 0.014187171312470801
 0.0018349231609139623 0.014175337223336136 -0.0015393480206143013 -0.008976732088069326 0.006440948495280457 0.02912323121374493 0.9920847969184118 -0.06986020268694516
 -0.0015389525982029723 -0.008976749113336981 0.0017507935592072801 0.014187171312470801 0.9920847969184118 -0.06986020268694516 0.006454438779893491 0.02912218512997142
0.09378907878283 0.006950310201047004 0.03134984269382962 0.9914065356135007 -0.07496225805483707 0.0020651175852536355 0.015183903828524662 -0.0017287830799444265 -0.009617929846379639
 0.9914065356135007 -0.07496225805483707 0.006965087987002445 0.031348734992056246 -0.0017292355112743072 -0.009617906863956164 0.0019685144377152393 0.015197864574030813
 0.0020651175852536355 0.015183903828524662 -0.0017292355112743072 -0.009617906863956164 0.00694990050292561 0.03134865075503886 0.991406474198783 -0.07496351601011711
 -0.0017287830799444265 -0.009617929846379639 0.0019685144377152393 0.015197864574030813 0.991406474198783 -0.07496351601011711 0.006965387487844968 0.031347468464948965
0.100041684035 0.007485936307374056 0.03359170124372663 0.9906931489434773 -0.08007957880190275 0.002309774518617239 0.016190737265145815 -0.001930534717928727 -0.010257874393835959
 0.9906931489434773 -0.08007957880190275 0.00750275168820784 0.03359045880395772 -0.001931047813805052 -0.010257844559353739 0.002199832884446496 0.016207068888147977
 0.002309774518617239 0.016190737265145815 -0.001931047813805052 -0.010257844559353739 0.007485470746949136 0.03359043646079786 0.9906930791156698 -0.08008092167662766
 -0.001930534717928727 -0.010257874393835959 0.002199832884446496 0.016207068888147977 0.9906930791156698 -0.08008092167662766 0.007503093277259575 0.033589107613943035
0.1059090909091 0.008013133647950282 0.035709910590626226 0.9899914643033435 -0.08489413830909227 0.0025525873806308986 0.017133740853645732 -0.0021307772222759107 -0.010857054199467461
 0.9899914643033435 -0.08489413830909227 0.008031981937039339 0.03570853307969649 -0.0021313505406488076 -0.010857017077699366 0.0024293424772484622 0.017152532167590412
 0.0025525873806308986 0.017133740853645732 -0.0021313505406488076 -0.010857017077699366 0.008012612479789075 0.035708578579153195 0.9899913860412446 -0.08489556108608111
 -0.0021307772222759107 -0.010857054199467461 0.0024293424772484622 0.017152532167590412 0.9899913860412446 -0.08489556108608111 0.008032365611181503 0.03570710238435496
0.1062942892872 0.008048584690881782 0.03584945225626082 0.989944298192975 -0.08521063231604961 0.0025689778391765994 0.017195583185383934 -0.002144294806225898 -0.010896340240095045
 0.989944298192975 -0.08521063231604961 0.008067570542679875 0.03584806557748309 -0.0021448721891651375 -0.010896302609879591 0.002444832937629813 0.017214544230169024
 0.0025689778391765994 0.017195583185383934 -0.0021448721891651375 -0.010896302609879591 0.008048059764450326 0.0358481158713279 0.9899442193586926 -0.08521206034590938
 -0.002144294806225898 -0.010896340240095045 0.002444832937629813 0.017214544230169024 0.9899442193586926 -0.08521206034590938 0.008067957067809006 0.035846629660817655
0.11254689453939999 0.00863865021110552 0.03812262057418067 0.9891595957777958 -0.0903550430506339 0.002842806114615677 0.018198182438538175 -0.002370145347972773 -0.011533080980799105
 0.9891595957777958 -0.0903550430506339 0.008659939834331692 0.038121079764127735 -0.002370790607310945 -0.011533034562553184 0.0027035935459875024 0.018220045894446563
 0.002842806114615677 0.018198182438538175 -0.002370790607310945 -0.011533034562553184 0.008638062432439315 0.038121213905315796 0.9891595073299191 -0.09035655648854984
 -0.002370145347972773 -0.011533080980799105 0.0027035935459875024 0.018220045894446563 0.9891595073299191 -0.09035655648854984 0.00866037415939726 0.03811955904884223
0.11879949979160001 0.009256521840425096 0.040410727301675296 0.9883386591401002 -0.09551242047734332 0.0031313324198045936 0.01919827124976515 -0.0026081628904197616 -0.012167846349224786
 0.9883386591401002 -0.09551242047734332 0.009280249002535164 0.040409022056651395 -0.0026088795820848405 -0.012167790102135315 0.002976188394447459 0.019223324668884264
 0.0031313324198045936 0.01919827124976515 -0.0026088795820848405 -0.012167790102135315 0.009255867742942282 0.04040925174443651 0.9883385604573959 -0.09551401959193563
 -0.0026081628904197616 -0.012167846349224786 0.002976188394447459 0.019223324668884264 0.9883385604573959 -0.09551401959193563 0.009280734008297811 0.040407416463287785
0.1250521050438 0.009902582430314241 0.04271328894328084 0.9874811110534084 -0.10068236005385303 0.0034346241567492215 0.02019558139091767 -0.002858418360505316 -0.012800382264101606
 0.9874811110534084 -0.10068236005385303 0.009928881407771154 0.04271140852619879 -0.0028592100067420085 -0.012800315099018716 0.0032626857312741744 0.020224127001334358
 0.0034346241567492215 0.02019558139091767 -0.0028592100067420085 -0.012800315099018716 0.00990185856854483 0.04271174596977239 0.987481001499828 -0.10068404513039164
 -0.002858418360505316 -0.012800382264101606 0.0032626857312741744 0.020224127001334358 0.987481001499828 -0.10068404513039164 0.009929419992249475 0.04270971796580017
0.131304710296 0.010577208470419089 0.04502981673560508 0.9865865799231167 -0.10586444401547053 0.0037527428777755206 0.021189840346119312 -0.0031209769004102495 -0.013430430896473791
 0.9865865799231167 -0.10586444401547053 0.01060621409089593 0.04502774995187907 -0.003121846989481182 -0.013430351676089048 0.0035631481980802795 0.02122219516069906
 0.0037527428777755206 0.021189840346119312 -0.003121846989481182 -0.013430351676089048 0.010576411421470654 0.04502820789577354 0.9865864588465918 -0.10586621535468281
 -0.0031209769004102495 -0.013430430896473791 0.0035631481980802795 0.02122219516069906 0.9865864588465918 -0.10586621535468281 0.010606809169527503 0.045025974326363905
0.1375573155481 0.011137609577820225 0.0470587251212096 0.985797936491429 -0.11075696208008537 0.004049905261429753 0.022152385933242157 -0.0033602804162198353 -0.014029201792965063
 0.985797936491429 -0.11075696208008537 0.011169467751425714 0.04705650325151698 -0.0033612343320508866 -0.014029110266575027 0.003842225115246935 0.02218853903923674
 0.004049905261429753 0.022152385933242157 -0.0033612343320508866 -0.014029110266575027 0.011136736775836232 0.0470570514588824 0.9857978033529121 -0.1107588198364753
 -0.0033602804162198353 -0.014029201792965063 0.003842225115246935 0.02218853903923674 0.9857978033529121 -0.1107588198364753 0.01117012118302358 0.04705464273065978
0.1438099208003 0.011718024987042995 0.04907466625855732 0.9849808868485832 -0.11563475560160413 0.004359001150919933 0.023109450138041044 -0.003609041047507536 -0.014623067142420993
 0.9849808868485832 -0.11563475560160413 0.011752872915627427 0.049072280120432715 -0.0036100825700413125 -0.014622962169125732 0.004132453105792182 0.023149694955945304
 0.004359001150919933 0.023109450138041044 -0.0036100825700413125 -0.014622962169125732 0.01171707319401529 0.04907292933000826 0.984980740996884 -0.115636700062646
 -0.003609041047507536 -0.014623067142420993 0.004132453105792182 0.023149694955945304 0.984980740996884 -0.115636700062646 0.011753587450075851 0.04907033465049415
0.1500625260525 0.012318212036400067 0.05107740443091928 0.9841356787825951 -0.12049763418142025 0.004679899152622151 0.024060884163889573 -0.003867133633586057 -0.015211892921563384
 0.9841356787825951 -0.12049763418142025 0.01235618748670109 0.051074844176599236 -0.00386826653272073 -0.015211773314031533 0.004433706754158811 0.024105524845127912
 0.004679899152622151 0.024060884163889573 -0.00386826653272073 -0.015211773314031533 0.012317178045504081 0.05107560585269176 0.9841355195538131 -0.12049966564347414
 -0.003867133633586057 -0.015211892921563384 0.004433706754158811 0.024105524845127912 0.9841355195538131 -0.12049966564347414 0.012356965878995596 0.05107281370133281
0.15631513130469998 0.012937925886568362 0.05306671102632011 0.9832625618400137 -0.12534540973162703 0.005012466040505622 0.025006542320565744 -0.004134431237293568 -0.015795548455385503
 0.9832625618400137 -0.12534540973162703 0.012979167204151779 0.05306396611629695 -0.004135659272707986 -0.01579541298003827 0.004745858919917773 0.02505589361509693
