! Created with skrf 1.8.0 (http://scikit-rf.org).
# GHz S RI R 50.0 
!freq ReS11 ImS11 ReS12 ImS12 ReS13 ImS13
! ReS14 ImS14
! ReS21 ImS21 ReS22 ImS22 ReS23 ImS23
! ReS24 ImS24
! ReS31 ImS31 ReS32 ImS32 ReS33 ImS33
! ReS34 ImS34
! ReS41 ImS41 ReS42 ImS42 ReS43 ImS43
! ReS44 ImS44
!
0.0 0.002069808694964 0.0 0.9979301913022 0.0 8.076853794797e-05 0.0 -8.076853714807e-05 9.891293049019801e-21
 0.9979301913022 0.0 0.002069808694986 0.0 -8.076853714865e-05 9.891293049090832e-21 8.076853794748e-05 0.0
 8.076853794797e-05 0.0 -8.076853714865e-05 9.891293049090832e-21 0.002069808693556 0.0 0.9979301913008 0.0
 -8.076853714807e-05 9.891293049019801e-21 8.076853794748e-05 0.0 0.9979301913008 0.0 0.002069808693546 0.0
0.005 0.00222894800741089 0.001690168147613124 0.9977284765414071 -0.004333745949926104 0.00011464975783091092 0.000896705555823016 -0.00011102248515347055 -0.0005612975605226973
 0.9977284765414071 -0.004333745949926104 0.0022289904280940217 0.001690143296427401 -0.00011101931175362833 -0.000561295091050283 0.0001143918248099933 0.0008968039579744178
 0.00011464975783091092 0.000896705555823016 -0.00011101931175362833 -0.000561295091050283 0.0022289502237917693 0.001690234100196811 0.9977284769510407 -0.004333678877912848
 -0.00011102248515347055 -0.0005612975605226973 0.0001143918248099933 0.0008968039579744178 0.9977284769510407 -0.004333678877912848 0.0022289890167236557 0.0016902114744604601
0.006252605252188 0.0022712878413132134 0.002119279302963339 0.9976743698758368 -0.0054181435646956455 0.00012469674497582526 0.0011212707504006463 -0.0001198481474110062 -0.0007023114115829962
 0.9976743698758368 -0.0054181435646956455 0.002271354153696171 0.0021192477803964 -0.00011984320970492188 -0.0007023083681878756 0.0001242937587247042 0.0011213987257918537
 0.00012469674497582526 0.0011212707504006463 -0.00011984320970492188 -0.0007023083681878756 0.002271291225908736 0.002119361713799177 0.997674370436063 -0.0054180597408741435
 -0.0001198481474110062 -0.0007023114115829962 0.0001242937587247042 0.0011213987257918537 0.997674370436063 -0.0054180597408741435 0.0022713518665902583 0.0021193329874644395
0.01250521050438 0.0024976791503984307 0.004282074265143469 0.9973826843406873 -0.010836315651255793 0.00018425031303295812 0.0022425381080987423 -0.00017144542321615163 -0.0014076161212389145
 0.9973826843406873 -0.010836315651255793 0.0024979439572637933 0.004282006552967803 -0.0001714259695400699 -0.0014076105223799298 0.00018264349441371065 0.0022428488285429174
 0.00018425031303295812 0.0022425381080987423 -0.0001714259695400699 -0.0014076105223799298 0.0024976921027034396 0.0042822386609702645 0.9973826860136814 -0.010836148227569873
 -0.00017144542321615163 -0.0014076161212389145 0.00018264349441371065 0.0022428488285429174 0.9973826860136814 -0.010836148227569873 0.00249793424715154 0.004282176729075473
0.01875781575657 0.0027495993410597886 0.00647460030093849 0.9970546867640662 -0.01626754327397503 0.0002595817471816192 0.0033644464484761175 -0.00023574295304765218 -0.0021147863882383425
 0.9970546867640662 -0.01626754327397503 0.0027501944244101633 0.006474491268002608 -0.0002356995803856274 -0.002114778842424175 0.00025597270954002405 0.003365007985144382
 0.0002595817471816192 0.0033644464484761175 -0.0002356995803856274 -0.002114778842424175 0.0027496280237185827 0.006474846273394774 0.9970546901043895 -0.01626729228377091
 -0.00023574295304765218 -0.0021147863882383425 0.00025597270954002405 0.003365007985144382 0.9970546901043895 -0.01626729228377091 0.0027501721554190586 0.006474746322574812
0.02501042100875 0.0030276383906033223 0.008693614398306036 0.9966899088193557 -0.021714286872093962 0.0003508453071747977 0.004486926287977167 -0.0003129140478815459 -0.002823394885158657
 0.9966899088193557 -0.021714286872093962 0.003028695319376372 0.008693458496247525 -0.0003128374713127531 -0.0028233861306415048 0.00034443582174910234 0.004487819690032728
 0.0003508453071747977 0.004486926287977167 -0.0003128374713127531 -0.0028233861306415048 0.0030276889556118997 0.008693941432607327 0.9966899143891614 -0.021713952284030977
 -0.0003129140478815459 -0.002823394885158657 0.00034443582174910234 0.004487819690032728 0.9966899143891614 -0.021713952284030977 0.0030286553510250284 0.00869379835786485
0.03126302626094 0.003332360714943259 0.01093736083696195 0.9962878636581236 -0.027177494675592485 0.00045819383621370193 0.005609801093367371 -0.0004031245682680951 -0.0035331078533454054
 0.9962878636581236 -0.027177494675592485 0.0033340109331320778 0.010937152107340073 -0.0004030056021747688 -0.0035330987590287523 0.0004481851866626 0.005611120468849622
 0.00045819383621370193 0.005609801093367371 -0.0004030056021747688 -0.0035330987590287523 0.0033324392987883326 0.010937768290253204 0.9962878720237424 -0.027177076414654132
 -0.0004031245682680951 -0.0035331078533454054 0.0004481851866626 0.005611120468849622 0.9962878720237424 -0.027177076414654132 0.0033339481115920765 0.010937576702798277
0.037515631513130004 0.003664316009959692 0.013204629137676623 0.9958480574414185 -0.03265754475835412 0.0005817769198485946 0.006732850381136709 -0.000506534066127225 -0.00424362211969854
 0.9958480574414185 -0.03265754475835412 0.0036666909011683537 0.013204361212897931 -0.000506363614896616 -0.004243613685245536 0.0005673696671520968 0.006734703019971703
 0.0005817769198485946 0.006732850381136709 -0.000506363614896616 -0.004243613685245536 0.0036644287356867957 0.013205116251347997 0.9958480691783477 -0.03265704269256868
 -0.000506534066127225 -0.00424362211969854 0.0005673696671520968 0.006734703019971703 0.9958480691783477 -0.03265704269256868 0.0036666000597864795 0.013204870481126778
0.043768236765320004 0.004024043363951013 0.015494467479970103 0.9953699941484229 -0.038154531608920524 0.0007217399658510785 0.00785582895211379 -0.000623296123668528 -0.004954645996520204
 0.9953699941484229 -0.038154531608920524 0.00402727430606172 0.015494133581494976 -0.0006230651764447627 -0.004954639352261691 0.0007021338908528131 0.00785833546155592
 0.0007217399658510785 0.00785582895211379 -0.0006230651764447627 -0.004954639352261691 0.0040241963382882644 0.015495033349188234 0.9953700098417957 -0.03815394557875131
 -0.000623296123668528 -0.004954645996520204 0.0007021338908528131 0.00785833546155592 0.9953700098417957 -0.03815394557875131 0.004027150261974874 0.015494727444795327
0.050020842017509996 0.004412073101222716 0.017806064237368757 0.994853178125497 -0.043668384589059195 0.0008782236134349369 0.008978474877935023 -0.0007535584042246061 -0.005665891445410542
 0.994853178125497 -0.043668384589059195 0.004416291515821025 0.01780565717138662 -0.0007532580317313744 -0.0056658878521885685 0.0008526177529687355 0.008981769321830318
 0.0008782236134349369 0.008978474877935023 -0.0007532580317313744 -0.0056658878521885685 0.004412272414073378 0.01780670782563092 0.994853198373087 -0.043667714391868354
 -0.0007535584042246061 -0.005665891445410542 0.0008526177529687355 0.008981769321830318 0.994853198373087 -0.043667714391868354 0.0044161290699233115 0.0178063355518631
0.055454545454549996 0.004772673636800173 0.019832014359509143 0.9943721938815704 -0.048473651313203976 0.0010277347047273659 0.009953604995393248 -0.0008778342881213051 -0.006283941454597656
 0.9943721938815704 -0.048473651313203976 0.004777856995359042 0.019831537539211297 -0.0008774663932072027 -0.006283941637993281 0.0009962638626895273 0.009957703610774051
 0.0010277347047273659 0.009953604995393248 -0.0008774663932072027 -0.006283941637993281 0.004772918149396046 0.019832724540092012 0.994372218582976 -0.048472907777482005
 -0.0008778342881213051 -0.006283941454597656 0.0009962638626895273 0.009957703610774051 0.994372218582976 -0.048472907777482005 0.004777656940147185 0.019832289301791123
0.056273447269699996 0.004828927653708376 0.020138689893370577 0.9942971156705804 -0.04919892602414465 0.0010513632815826886 0.01010051347179449 -0.0008974625796254207 -0.00637707027350948
 0.9942971156705804 -0.04919892602414465 0.00483426505408085 0.02013820204442986 -0.0008970839322612565 -0.00637707112248036 0.0010189560246511328 0.010104743510420238
 0.0010513632815826886 0.01010051347179449 -0.0008970839322612565 -0.00637707112248036 0.004829179374807154 0.02013941002709952 0.9942971410838354 -0.049198171418750394
 -0.0008974625796254207 -0.00637707027350948 0.0010189560246511328 0.010104743510420238 0.9942971410838354 -0.049198171418750394 0.004834058988210771 0.020138964860423592
0.06252605252188 0.005275121951913835 0.022491665125067353 0.9937013161444253 -0.05474590314271161 0.0012412887948777557 0.011221659505417567 -0.0010551441903063781 -0.007087892101129439
 0.9937013161444253 -0.05474590314271161 0.005281709988784743 0.022491088447660224 -0.001054678497079099 -0.007087898913551577 0.0012012780167967741 0.011226986534145543
 0.0012412887948777557 0.011221659505417567 -0.001054678497079099 -0.007087898913551577 0.005275432128708896 0.022492460489257807 0.9937013473502349 -0.054745063852840205
 -0.0010551441903063781 -0.007087892101129439 0.0012012780167967741 0.011226986534145543 0.9937013473502349 -0.054745063852840205 0.0052814550642891955 0.02249193561126212
0.06877865777407 0.005751163552023501 0.02486434181831942 0.9930652928242945 -0.06030900710331544 0.0014481240479647262 0.012341618581527505 -0.0012267324711437214 -0.007798063192367553
 0.9930652928242945 -0.06030900710331544 0.0057591340584001085 0.024863667826402914 -0.0012261710391211756 -0.007798077619352584 0.0013997072732880467 0.012348217867111507
 0.0014481240479647262 0.012341618581527505 -0.0012261710391211756 -0.007798077619352584 0.005751538206950425 0.02486521096079815 0.9930653304666751 -0.06030808281265294
 -0.0012267324711437214 -0.007798063192367553 0.0013997072732880467 0.012348217867111507 0.9930653304666751 -0.06030808281265294 0.00575882501457835 0.024864599249714722
0.07503126302626001 0.006257552606102812 0.0272560910544416 0.9923885636080112 -0.06588788507077582 0.0016719866967548637 0.013460088050551754 -0.001412350154425041 -0.008507285760274092
 0.9923885636080112 -0.06588788507077582 0.006267037642279442 0.027255310808963713 -0.0014116843686015983 -0.008507309582539853 0.0016143612838924206 0.013468148864574914
 0.0016719866967548637 0.013460088050551754 -0.0014116843686015983 -0.008507309582539853 0.0062579977342770285 0.02725703237722447 0.9923886083502751 -0.06588687543105289
 -0.001412350154425041 -0.008507285760274092 0.0016143612838924206 0.013468148864574914 0.9923886083502751 -0.06588687543105289 0.006266669195258407 0.027256326397270162
0.08128386827845 0.006794781733113552 0.029666295149998828 0.991670651622364 -0.07148214826094267 0.0019129878657723762 0.014576757659284985 -0.0016121132598263446 -0.009215257559732896
 0.991670651622364 -0.07148214826094267 0.006805913630860438 0.029665399244140654 -0.0016113345832516896 -0.009215292687322968 0.0018453512092418004 0.014586483407822304
 0.0019129878657723762 0.014576757659284985 -0.0016113345832516896 -0.009215292687322968 0.00679530329908554 0.029667306916417703 0.9916707041485009 -0.071481052884274
 -0.0016121132598263446 -0.009215257559732896 0.0018453512092418004 0.014586483407822304 0.9916707041485009 -0.071481052884274 0.006805480471907978 0.029666498905031095
0.08753647353064001 0.007363335823941381 0.03209434220088059 0.9909110857712401 -0.07709137750380363 0.0021712318676808673 0.0156913100542465 -0.0018261308757783125 -0.009921671645221172
 0.9909110857712401 -0.07709137750380363 0.007376247230669658 0.03209332074335653 -0.00182523084992324 -0.009921720117213761 0.002092781614463572 0.015702918403704042
 0.0021712318676808673 0.0156913100542465 -0.00182523084992324 -0.009921720117213761 0.007363939758858275 0.03209542252802941 0.9909111467879694 -0.07709019596996945
 -0.0018261308757783125 -0.009921671645221172 0.002092781614463572 0.015702918403704042 0.9909111467879694 -0.07709019596996945 0.007375744024942277 0.03209450438095403
0.09378907878283 0.00796369180194801 0.03453962219643362 0.9901094012427837 -0.08271512726016063 0.0024468159313799326 0.016803421183714525 -0.002054504935687016 -0.010626216250142014
 0.9901094012427837 -0.08271512726016063 0.007978515724804467 0.03453846479246541 -0.0020534751810716255 -0.010626280234347713 0.0023567502097008096 0.016817144182254357
 0.0024468159313799326 0.016803421183714525 -0.0020534751810716255 -0.010626280234347713 0.00796438400084869 0.03454076905751543 0.9901094714814341 -0.08271385911402818
 -0.002054504935687016 -0.010626216250142014 0.0023567502097008096 0.016817144182254357 0.9901094714814341 -0.08271385911402818 0.007977937109872376 0.034539732311722963
0.100041684035 0.008596318350500667 0.03700152422492336 0.9892651399860541 -0.08835292857095224 0.002739829937518868 0.01791276063930972 -0.002297329991152959 -0.011328574746965803
 0.9892651399860541 -0.08835292857095224 0.008613188200397325 0.037000219954896246 -0.0022961622079807832 -0.01132865653954534 0.0026373475964129732 0.0179288448334292
 0.002739829937518868 0.01791276063930972 -0.0022961622079807832 -0.01132865653954534 0.008597104669093839 0.03700273544961531 0.9892652202042362 -0.08835157332208403
 -0.002297329991152959 -0.011328574746965803 0.0026373475964129732 0.0179288448334292 0.9892652202042362 -0.08835157332208403 0.00861252878518094 0.03700157126381483
0.1059090909091 0.009219731010980314 0.0393263289237651 0.9884337655804912 -0.0936557505349843 0.003030718235936877 0.01895093761443924 -0.0025384161224698758 -0.011985389157183253
 0.9884337655804912 -0.0936557505349843 0.009238642480070985 0.03932487641616158 -0.002537111337276227 -0.011985489863414193 0.0029158564372897705 0.018969474784764986
 0.003030718235936877 0.01895093761443924 -0.002537111337276227 -0.011985489863414193 0.009220610938556141 0.039327598443429805 0.9884338558773134 -0.09365431307374784
 -0.0025384161224698758 -0.011985389157183253 0.0029158564372897705 0.018969474784764986 0.9884338558773134 -0.09365431307374784 0.009237902312200293 0.039326306271688635
0.1062942892872 0.00926167561848577 0.03947943440638951 0.9883778511674656 -0.09400429130355684 0.0030503561599258123 0.019018991962909126 -0.002554692984076209 -0.012028425662508268
 0.9883778511674656 -0.09400429130355684 0.009280725253746016 0.039477971802370906 -0.002553378953064775 -0.01202852768764859 0.0029346570183879056 0.019037698509184502
 0.0030503561599258123 0.019018991962909126 -0.002553378953064775 -0.01202852768764859 0.009262561869789075 0.03948070767908416 0.9883779421509575 -0.09400284842807535
 -0.002554692984076209 -0.012028425662508268 0.0029346570183879056 0.019037698509184502 0.9883779421509575 -0.09400284842807535 0.009279979616865148 0.039479406812043476
0.11254689453939999 0.009960214907664642 0.04197273433940811 0.9874470916109855 -0.09966870590958445 0.003378469013018127 0.020121772927568532 -0.0028266730183529394 -0.012725442739984383
 0.9874470916109855 -0.09966870590958445 0.009981578677899693 0.04197110135915239 -0.002825204601693414 -0.012725567549488503 0.00324875411778236 0.020143377698980048
 0.003378469013018127 0.020121772927568532 -0.002825204601693414 -0.012725567549488503 0.009961206859160965 0.041974067198991605 0.987447194175518 -0.09966717485068466
 -0.0028266730183529394 -0.012725442739984383 0.00324875411778236 0.020143377698980048 0.987447194175518 -0.09966717485068466 0.00998074136657466 0.041972619985340485
0.11879949979160001 0.010692378348665387 0.04448079994127292 0.9864724262256973 -0.1053456448143667 0.003724234804248293 0.021220755805750793 -0.003113341133234383 -0.013419295034493201
 0.9864724262256973 -0.1053456448143667 0.010716191138142277 0.04447898393985067 -0.0031117102755115976 -0.013419445307382922 0.0035797066955198923 0.021245549492491442
 0.003724234804248293 0.021220755805750793 -0.0031117102755115976 -0.013419445307382922 0.010693481718914244 0.04448218978178145 0.9864725412193278 -0.1053440249820342
 -0.003113341133234383 -0.013419295034493201 0.0035797066955198923 0.021245549492491442 0.9864725412193278 -0.1053440249820342 0.01071525666709566 0.044480586105461024
0.1250521050438 0.011458598567122934 0.04700300056912562 0.9854534284241365 -0.1110345635513125 0.004087711491898256 0.022315587628690067 -0.0034147600782515174 -0.014109647038307029
 0.9854534284241365 -0.1110345635513125 0.01148499583752459 0.04700098826822825 -0.003412958807585208 -0.014109825580346435 0.0039275744764563515 0.02234387583316405
 0.004087711491898256 0.022315587628690067 -0.003412958807585208 -0.014109825580346435 0.011459819022579976 0.04700444463773637 0.9854535567285204 -0.11103285432496005
 -0.0034147600782515174 -0.014109647038307029 0.0039275744764563515 0.02234387583316405 0.9854535567285204 -0.11103285432496005 0.011483958687571372 0.04700267390307266
0.131304710296 0.012259298343394178 0.049538698345384366 0.9843896805312232 -0.11673490171813453 0.0044689484486290275 0.02340591044474048 -0.003730984090869535 -0.014796158827904454
 0.9843896805312232 -0.11673490171813453 0.012288416177156973 0.049536475799904854 -0.003729004520088463 -0.014796368571129157 0.004292408879708359 0.02343801377047173
 0.0044689484486290275 0.02340591044474048 -0.003729004520088463 -0.014796368571129157 0.012260641494835101 0.04954019374312027 0.984389823063928 -0.11673310244671654
 -0.003730984090869535 -0.014796158827904454 0.004292408879708359 0.02343801377047173 0.984389823063928 -0.11673310244671654 0.012287270793987908 0.0495382448430716
0.1375573155481 0.012931497367708083 0.05175822574679468 0.9834442753337574 -0.12211679917929606 0.004826705903715268 0.024461460829612272 -0.004020988424151275 -0.015448461875993762
 0.9834442753337574 -0.12211679917929606 0.012963480044228422 0.051755819560321215 -0.004018818555835528 -0.015448703657056433 0.004633366670124237 0.02449738503502103
 0.004826705903715268 0.024461460829612272 -0.004018818555835528 -0.015448703657056433 0.012932968110818174 0.05175977007585033 0.9834444327919878 -0.12211490946676759
 -0.004020988424151275 -0.015448461875993762 0.004633366670124237 0.02449738503502103 0.9834444327919878 -0.12211490946676759 0.012962221971885554 0.051757671833362676
0.1438099208003 0.013627796978482367 0.05396192458412803 0.9824645320931346 -0.1274808453745519 0.005198719339197501 0.025509984464261917 -0.004322341685527911 -0.016094429540937302
 0.9824645320931346 -0.1274808453745519 0.01366278251202892 0.05395932247979546 -0.004319973016053067 -0.016094706309550278 0.004987860890329385 0.025550027795273902
 0.005198719339197501 0.025509984464261917 -0.004319973016053067 -0.016094706309550278 0.013629400719993506 0.053963514872636384 0.982464705399989 -0.12747886458650767
 -0.004322341685527911 -0.016094429540937302 0.004987860890329385 0.025550027795273902 0.982464705399989 -0.12747886458650767 0.013661406340939559 0.053961257865500024
0.1500625260525 0.014347877868574875 0.056149489835267984 0.9814507758110551 -0.13282678270264306 0.005584810868392317 0.02655128748724998 -0.004634873448636089 -0.0167338865379641
 0.9814507758110551 -0.13282678270264306 0.01438600486076447 0.05614667869276407 -0.004632297506866896 -0.016734201363022998 0.005355720091209593 0.02659575903737551
 0.005584810868392317 0.02655128748724998 -0.004632297506866896 -0.016734201363022998 0.01434961995404506 0.05615112299676721 0.9814509659197348 -0.1328247101844658
 -0.004634873448636089 -0.0167338865379641 0.005355720091209593 0.02659575903737551 0.9814509659197348 -0.1328247101844658 0.014384505159500042 0.05614869707436597
0.15631513130469998 0.015091417600377709 0.05832062590071166 0.9804033340932898 -0.13815435766366854 0.005984800004389861 0.02758518061359945 -0.004958410763941385 -0.0173666624264258
 0.9804033340932898 -0.13815435766366854 0.015132825252647574 0.05831759172516809 -0.004955619111999702 -0.017367018495346363 0.00573677034860213 0.027634400172186806
