! Created with skrf 1.8.0 (http://scikit-rf.org).
# GHz S RI R 50.0 
!freq ReS11 ImS11 ReS12 ImS12 ReS13 ImS13
! ReS14 ImS14
! ReS21 ImS21 ReS22 ImS22 ReS23 ImS23
! ReS24 ImS24
! ReS31 ImS31 ReS32 ImS32 ReS33 ImS33
! ReS34 ImS34
! ReS41 ImS41 ReS42 ImS42 ReS43 ImS43
! ReS44 ImS44
!
0.0 0.001766924273654 0.0 0.9982330757042 0.0 6.867062326598e-05 0.0 -6.867062358825e-05 8.409725937280309e-21
 0.9982330757042 0.0 0.001766924273629 0.0 -6.86706235877e-05 8.409725937212954e-21 6.867062326606e-05 0.0
 6.867062326598e-05 0.0 -6.86706235877e-05 8.409725937212954e-21 0.001766924274531 0.0 0.9982330757051 0.0
 -6.867062358825e-05 8.409725937280309e-21 6.867062326606e-05 0.0 0.9982330757051 0.0 0.001766924274535 0.0
0.005 0.001901826568513699 0.0014421686093255006 0.9980622656710851 -0.0037005637407454893 9.709974385804332e-05 0.000772801405843096 -9.410277769629786e-05 -0.0004821152775871949
 0.9980622656710851 -0.0037005637407454893 0.0019018456768041822 0.0014421575033963028 -9.410221348475886e-05 -0.0004821149301688699 9.698464837424242e-05 0.0007728453426704407
 9.709974385804332e-05 0.000772801405843096 -9.410221348475886e-05 -0.0004821149301688699 0.0019018260566299235 0.001442101689894288 0.9980622652882133 -0.003700630808062298
 -9.410277769629786e-05 -0.0004821152775871949 9.698464837424242e-05 0.0007728453426704407 0.9980622652882133 -0.003700630808062298 0.0019018454376442926 0.0014420903033863079
0.006252605252188 0.001937426362073371 0.0018083653404059393 0.9980168678886986 -0.004626575250122003 0.00010535621376447869 0.0009663532353074587 -0.00010138862802000369 -0.0006032574058792926
 0.9980168678886986 -0.004626575250122003 0.00193745623117058 0.0018083512219098004 -0.00010138774938474768 -0.0006032569795384056 0.00010517639046084066 0.0009664103118019747
 0.00010535621376447869 0.0009663532353074587 -0.00010138774938474768 -0.0006032569795384056 0.0019374256413604819 0.00180828172076255 0.9980168673699265 -0.004626659069490193
 -0.00010138862802000369 -0.0006032574058792926 0.00010517639046084066 0.0009664103118019747 0.9980168673699265 -0.004626659069490193 0.0019374559377969786 0.0018082672361763945
0.01250521050438 0.0021261061934835694 0.003654377408475289 0.997774491950837 -0.009253706585687617 0.000153413854695967 0.0019329011821195186 -0.00014329291288577982 -0.0012093038470674935
 0.997774491950837 -0.009253706585687617 0.002126225452690288 0.0036543467840389745 -0.00014328944213335616 -0.0012093030834615917 0.0001526968232129579 0.0019330388109270622
 0.000153413854695967 0.0019329011821195186 -0.00014328944213335616 -0.0012093030834615917 0.0021261038743580316 0.003654210568750002 0.997774490440435 -0.009253874024956846
 -0.00014329291288577982 -0.0012093038470674935 0.0001526968232129579 0.0019330388109270622 0.997774490440435 -0.009253874024956846 0.002126224857864507 0.0036541790509767576
0.01875781575657 0.002333421894925271 0.0055263471091340595 0.9975056141939057 -0.013892603219983065 0.0002129606452660695 0.002900269045814036 -0.00019452224922990573 -0.0018172090178452264
 0.9975056141939057 -0.013892603219983065 0.002333689861637562 0.005526297404970356 -0.00019451449824420895 -0.0018172080287793965 0.00021135006591495344 0.0029005158030978714
 0.0002129606452660695 0.002900269045814036 -0.00019451449824420895 -0.0018172080287793965 0.0023334170922677477 0.005526097423307422 0.9975056112090414 -0.01389285423571426
 -0.00019452224922990573 -0.0018172090178452264 0.00021135006591495344 0.0029005158030978714 0.9975056112090414 -0.01389285423571426 0.002333688968976233 0.005526046115552967
0.02501042100875 0.0025598151333401805 0.0074215899470036805 0.997209886575851 -0.018545453897994738 0.00028411538478556673 0.0038684597282951415 -0.00025520975266241715 -0.002426656214082608
 0.997209886575851 -0.018545453897994738 0.0025602910011282426 0.007421518422623509 -0.0002551960502256995 -0.0024266551355664138 0.00028125490492269026 0.0038688491355284506
 0.00028411538478556673 0.0038684597282951415 -0.0002551960502256995 -0.0024266551355664138 0.002559806972376384 0.007421257826568063 0.9972098816377624 -0.01854578854014493
 -0.00025520975266241715 -0.002426656214082608 0.00028125490492269026 0.0038688491355284506 0.9972098816377624 -0.01854578854014493 0.002560289842566673 0.007421183782959831
0.03126302626094 0.0028057091642501243 0.009338694192780515 0.9968869451458992 -0.023213158726697145 0.00036699683369088404 0.004837384101443317 -0.0003254839728539983 -0.0030374120253051015
 0.9968869451458992 -0.023213158726697145 0.0028064520382038204 0.009338597944698632 -0.0003254626619283004 -0.0030374110177855095 0.0003625297729034113 0.004837954653995819
 0.00036699683369088404 0.004837384101443317 -0.0003254626619283004 -0.0030374110177855095 0.0028056967692312905 0.009338280132841504 0.99688693776502 -0.023213577093032838
 -0.0003254839728539983 -0.0030374120253051015 0.0003625297729034113 0.004837954653995819 0.99688693776502 -0.023213577093032838 0.0028064506618443105 0.00933818022171979
0.037515631513130004 0.0030715174071651655 0.011276716495111586 0.9965364190005621 -0.027896133509636798 0.00046172242258333456 0.005806916102696398 -0.00040546981963280476 -0.003649271268739149
 0.9965364190005621 -0.027896133509636798 0.0030725863287258477 0.011276592458193924 -0.00040543925613043783 -0.0036492705172308858 0.0004552916425148654 0.005807711317367275
 0.00046172242258333456 0.005806916102696398 -0.00040543925613043783 -0.0036492705172308858 0.003071499908719221 0.011276221073057618 0.9965364086797086 -0.027896635747542323
 -0.00040546981963280476 -0.003649271268739149 0.0004552916425148654 0.005807711317367275 0.9965364086797086 -0.027896635747542323 0.0030725848051797807 0.011276091977906959
0.043768236765320004 0.0033576467561637954 0.01323493707437733 0.9961579339783247 -0.03259455448803643 0.0005684076274033574 0.006776909516258226 -0.0004952888746542301 -0.004262040244270181
 0.9961579339783247 -0.03259455448803643 0.003359100723485104 0.013234782022315254 -0.0004952474267913952 -0.004262039958433344 0.0005596554800737861 0.006777977984701459
 0.0005684076274033574 0.006776909516258226 -0.0004952474267913952 -0.004262039958433344 0.0033576232908848593 0.013234360960258656 0.9961579202088655 -0.0325951407846612
 -0.0004952888746542301 -0.004262040244270181 0.0005596554800737861 0.006777977984701459 0.9961579202088655 -0.0325951407846612 0.003359099144546386 0.013234199179835673
0.050020842017509996 0.0036644990902882056 0.015212758550140527 0.9957511145600992 -0.03730845944809764 0.0006871655822246195 0.007747204907829486 -0.000595059481317456 -0.0048755298424794655
 0.9957511145600992 -0.03730845944809764 0.0036663970759680028 0.01521256909524435 -0.0005950055292770278 -0.004875530256695708 0.000675733900704234 0.0077486003520713664
 0.0006871655822246195 0.007747204907829486 -0.0005950055292770278 -0.004875530256695708 0.0036644688064073174 0.015212102497391059 0.995751096823552 -0.03730913003990227
 -0.000595059481317456 -0.0048755298424794655 0.000675733900704234 0.0077486003520713664 0.995751096823552 -0.03730913003990227 0.003666395559621895 0.015211904345157696
0.055454545454549996 0.003948301576584371 0.016947054940561458 0.9953742733464349 -0.041417522585840104 0.0008002602890889914 0.008590535016648148 -0.0006899345120801698 -0.00540911021218239
 0.9953742733464349 -0.041417522585840104 0.00395063331364336 0.016946832711339555 -0.0006898683872753288 -0.005409111444350003 0.0007862087445740948 0.008592262268513725
 0.0008002602890889914 0.008590535016648148 -0.0006898683872753288 -0.005409111444350003 0.003948264683478218 0.01694633010674954 0.9953742517298435 -0.041418266651994586
 -0.0006899345120801698 -0.00540911021218239 0.0007862087445740948 0.008592262268513725 0.9953742517298435 -0.041418266651994586 0.003950631965828481 0.016946097207553832
0.056273447269699996 0.003992472028248056 0.017209656297092243 0.9953155850194285 -0.04203779730416968 0.0008181067953847588 0.008717633039974765 -0.000704896737505084 -0.005489552179400255
 0.9953155850194285 -0.04203779730416968 0.0039948729963963335 0.017209428889411328 -0.0007048286733474555 -0.005489553552826573 0.0008036369099200654 0.00871941436873541
 0.0008181067953847588 0.008717633039974765 -0.0007048286733474555 -0.005489553552826573 0.003992434084414846 0.017208921155436645 0.9953155627824611 -0.04203855246446384
 -0.000704896737505084 -0.005489552179400255 0.0008036369099200654 0.00871941436873541 0.9953155627824611 -0.04203855246446384 0.003994871684286423 0.01720868275829716
0.06252605252188 0.004341959305163483 0.019225151168178797 0.9948509702009223 -0.04678245532183822 0.0009613389173776801 0.009688016769004985 -0.0008249124385952884 -0.006103918757899135
 0.9948509702009223 -0.04678245532183822 0.004344922227549072 0.0192248820939589 -0.0008248286662118887 -0.006103921374518015 0.0009434716887813955 0.009690248134030913
 0.0009613389173776801 0.009688016769004985 -0.0008248286662118887 -0.006103921374518015 0.00434191287529955 0.019224337876913442 0.9948509429157525 -0.04678329536753529
 -0.0008249124385952884 -0.006103918757899135 0.0009434716887813955 0.009690248134030913 0.9948509429157525 -0.04678329536753529 0.004344921289400091 0.019224055173449214
0.06877865777407 0.004713350948917854 0.021258793220552005 0.9943568961027586 -0.05154227534607805 0.0011169665385099114 0.01065817218473104 -0.0009552149913400148 -0.006718439394795081
 0.9943568961027586 -0.05154227534607805 0.004716934820823381 0.021258478600275226 -0.0009551139265807127 -0.006718443563459146 0.0010953424035651201 0.010660923036725846
 0.0011169665385099114 0.01065817218473104 -0.0009551139265807127 -0.006718443563459146 0.004713295223798639 0.02125790281132343 0.9943568632051633 -0.05154320063520361
 -0.0009552149913400148 -0.006718439394795081 0.0010953424035651201 0.010660923036725846 0.9943568632051633 -0.05154320063520361 0.0047169344546884335 0.021257571549399206
0.07503126302626001 0.005107033331729641 0.023310151425446818 0.9938329903402822 -0.0563170640551792 0.0012850910035235813 0.011627909351109569 -0.0010959093105338154 -0.007332921556045834
 0.9938329903402822 -0.0563170640551792 0.005111297187256043 0.02330978721117167 -0.0010957893813047879 -0.007332927610516204 0.0012593500297559811 0.011631254495093871
 0.0012850910035235813 0.011627909351109569 -0.0010957893813047879 -0.007332927610516204 0.005106967520999471 0.02330918502242833 0.9938329512474379 -0.056318074986555174
 -0.0010959093105338154 -0.007332921556045834 0.0012593500297559811 0.011631254495093871 0.9938329512474379 -0.056318074986555174 0.005111297621108878 0.02330880075629224
0.08128386827845 0.005523389145255031 0.025378806813185835 0.993278882538373 -0.06110659978916079 0.0014658102369776514 0.012597032815311927 -0.0012470967045903995 -0.00794716993297463
 0.993278882538373 -0.06110659978916079 0.005528392073098005 0.025378388785217688 -0.0012469563511156205 -0.007947178231936138 0.0014355921845241512 0.012601052464966222
 0.0014658102369776514 0.012597032815311927 -0.0012469563511156205 -0.007947178231936138 0.005523312480469905 0.0253777656325568 0.9932788366473408 -0.06110769680296957
 -0.0012470967045903995 -0.00794716993297463 0.0014355921845241512 0.012601052464966222 0.9932788366473408 -0.06110769680296957 0.005528393566359787 0.025377323719317675
0.08753647353064001 0.005962797325619663 0.027464347755414543 0.992694204677412 -0.06591063725169782 0.001659218576113678 0.013565341975782685 -0.0014088747530844957 -0.008560986168919345
 0.992694204677412 -0.06591063725169782 0.005968598484226865 0.02746387151847668 -0.0014087124280890491 -0.008560997096004547 0.0016241629658453112 0.013570121806973187
 0.001659218576113678 0.013565341975782685 -0.0014087124280890491 -0.008560997096004547 0.005962709062826837 0.027463233107673308 0.9926941513638154 -0.06591182082679051
 -0.0014088747530844957 -0.008560986168919345 0.0016241629658453112 0.013570121806973187 0.9926941513638154 -0.06591182082679051 0.005968601329884052 0.02746272870315833
0.09378907878283 0.00642563294215688 0.02956636659902626 0.9920785914081701 -0.07072891087108657 0.0018654066090142323 0.014532631364861106 -0.0015813371789620153 -0.009174168681329895
 0.9920785914081701 -0.07072891087108657 0.006432291575129471 0.02956582757780049 -0.0015811513479682834 -0.009174182645125222 0.00182515279532492 0.014538262567840634
 0.0018654066090142323 0.014532631364861106 -0.0015811513479682834 -0.009174182645125222 0.006425532364196376 0.029565179886315497 0.9920785300238615 -0.07073018152741155
 -0.0015813371789620153 -0.009174168681329895 0.00182515279532492 0.014538262567840634 0.9920785300238615 -0.07073018152741155 0.006432296100740867 0.02956460794037033
0.100041684035 0.006912267060927291 0.03168445720572281 0.9914316803453606 -0.07556113726724452 0.002084461015649023 0.015498690873650706 -0.0017645737174196846 -0.009786512551552853
 0.9914316803453606 -0.07556113726724452 0.006919842512669876 0.031683850639555686 -0.001764362859033799 -0.009786529985592377 0.0020386482640671263 0.015505270204141483
 0.002084461015649023 0.015498690873650706 -0.001764362859033799 -0.009786529985592377 0.006912153480204773 0.03168319992391527 0.9914316102169937 -0.07556249556331548
 -0.0017645737174196846 -0.009786512551552853 0.0020386482640671263 0.015505270204141483 0.9914316102169937 -0.07556249556331548 0.006919849082327256 0.031682555174962795
0.1059090909091 0.007390892938640688 0.03368631562313852 0.9907958379626484 -0.08010809267115038 0.002301795816250379 0.016403925624764577 -0.0019463970300584556 -0.010360184067483373
 0.9907958379626484 -0.08010809267115038 0.007399382803768311 0.03368564117331402 -0.0019461613143475756 -0.010360205174486641 0.0022504384990236306 0.016411487671926198
 0.002301795816250379 0.016403925624764577 -0.0019461613143475756 -0.010360205174486641 0.0073907665594767314 0.033684993562605355 0.9907957589928702 -0.0801095337506571
 -0.0019463970300584556 -0.010360184067483373 0.0022504384990236306 0.016411487671926198 0.9907957589928702 -0.0801095337506571 0.007399391656565173 0.033684275516866875
0.1062942892872 0.007423066589398475 0.03381821311972167 0.9907531123454805 -0.08040701710204613 0.0023164644126044257 0.016463305939956523 -0.001958669981686671 -0.010397809461823703
 0.9907531123454805 -0.08040701710204613 0.007431618320397601 0.03381753405686218 -0.0019584325879275213 -0.010397830824582234 0.0022647319808531984 0.01647093576878387
 0.0023164644126044257 0.016463305939956523 -0.0019584325879275213 -0.010397830824582234 0.007422939350497169 0.033816886857739994 0.990753032773026 -0.08040846363496686
 -0.001958669981686671 -0.010397809461823703 0.0022647319808531984 0.01647093576878387 0.990753032773026 -0.08040846363496686 0.007431627336161559 0.03381616382683223
0.11254689453939999 0.007958394107882311 0.0359672261738407 0.9900425317755684 -0.08526623650349989 0.002561495199472652 0.01742625771150841 -0.002163707327411247 -0.011007847667354367
 0.9900425317755684 -0.08526623650349989 0.007967981709674032 0.035966469464959724 -0.002163441903930587 -0.011007873442241026 0.002503482422226413 0.017435046072809032
 0.002561495199472652 0.01742625771150841 -0.002163441903930587 -0.011007873442241026 0.007958252589920311 0.03596583261068714 0.9900424420298182 -0.08526777191125352
 -0.002163707327411247 -0.011007847667354367 0.002503482422226413 0.017435046072809032 0.9900424420298182 -0.08526777191125352 0.007967993613636277 0.035965025594753446
0.11879949979160001 0.008518607687797624 0.03813108541468787 0.9892995867715386 -0.09013846818312163 0.002819627407403228 0.018387323194406148 -0.0023797627154976356 -0.011616411993770314
 0.9892995867715386 -0.09013846818312163 0.008529290899340746 0.03813024570549047 -0.0023794677820919378 -0.011616442689055907 0.0027549737843952015 0.01839738383228172
 0.002819627407403228 0.018387323194406148 -0.0023794677820919378 -0.011616442689055907 0.008518451307582177 0.038129626321873555 0.9892994860926495 -0.0901400931412571
 -0.0023797627154976356 -0.011616411993770314 0.0027549737843952015 0.01839738383228172 0.9892994860926495 -0.0901400931412571 0.008529306174804286 0.038128729386355094
0.1250521050438 0.009104060704360978 0.04030937627040712 0.9885239294928335 -0.09502337232331749 0.003090930549747631 0.01934627538879039 -0.0026069085746086057 -0.012223283857921409
 0.9885239294928335 -0.09502337232331749 0.009115899426651078 0.04030844799381723 -0.0026065826654804156 -0.012223320006739318 0.003019275836360167 0.019357727802404974
 0.003090930549747631 0.01934627538879039 -0.0026065826654804156 -0.012223320006739318 0.009103888918723282 0.04030785351096314 0.988523817088717 -0.09502508754498133
 -0.0026069085746086057 -0.012223283857921409 0.003019275836360167 0.019357727802404974 0.988523817088717 -0.09502508754498133 0.009115918600137008 0.040306860481767445
0.131304710296 0.009715101639534823 0.04250167989115198 0.9877152163706766 -0.0999205973050436 0.003375469473945267 0.020302883420811244 -0.0028452126633513315 -0.012828241303264529
 0.9877152163706766 -0.0999205973050436 0.009728155951509698 0.04250065725853241 -0.002844854327495851 -0.012828283463528578 0.003296453774952632 0.020315852907682057
 0.003375469473945267 0.020302883420811244 -0.002844854327495851 -0.012828283463528578 0.009714913948282161 0.042500095419274075 0.987715091414755 -0.0999224035401616
 -0.0028452126633513315 -0.012828241303264529 0.003296453774952632 0.020315852907682057 0.987715091414755 -0.0999224035401616 0.00972817959442083 0.0424989998739437
0.1375573155481 0.010219579247296133 0.044421853647555055 0.9870056676130753 -0.10454389564343401 0.0036400464431414615 0.021229268337199955 -0.00306157367055609 -0.013403368371577235
 0.9870056676130753 -0.10454389564343401 0.010233914731703106 0.044420752931585775 -0.0030611809789657905 -0.013403416652161009 0.0035534869629690277 0.02124374645109224
 0.0036400464431414615 0.021229268337199955 -0.0030611809789657905 -0.013403416652161009 0.010219376028948294 0.04442020867633548 0.9870055294959741 -0.10454579337605327
 -0.00306157367055609 -0.013403368371577235 0.0035534869629690277 0.02124374645109224 0.9870055294959741 -0.10454579337605327 0.010233942162452018 0.044419027352328264
0.1438099208003 0.010742013272312922 0.0463304356659084 0.9862707174841863 -0.10915397714945263 0.00391526943181308 0.02215092637754812 -0.003286526269225367 -0.01397421323871888
 0.9862707174841863 -0.10915397714945263 0.010757691091169695 0.04632925230601979 -0.0032860977056803123 -0.013974268186257733 0.0038208386909071397 0.022167028752666556
 0.00391526943181308 0.02215092637754812 -0.0032860977056803123 -0.013974268186257733 0.010741794248025488 0.046328732176578694 0.9862705653743099 -0.10915596712012707
 -0.003286526269225367 -0.01397421323871888 0.0038208386909071397 0.022167028752666556 0.9862705653743099 -0.10915596712012707 0.010757722719269886 0.04632745998666297
0.1500625260525 0.011282196183480314 0.048227222914943996 0.9855105785259749 -0.11375068258002903 0.004201028179334408 0.023067731628270294 -0.0035199642684847795 -0.014540660030144313
 0.9855105785259749 -0.11375068258002903 0.011299277698598039 0.048225952054765805 -0.0035194983251083524 -0.014540722212546337 0.004098401062969974 0.02308557811844029
 0.004201028179334408 0.023067731628270294 -0.0035194983251083524 -0.014540722212546337 0.01128196112689447 0.04822546296197811 0.9855104115623156 -0.1137527655562031
 -0.0035199642684847795 -0.014540660030144313 0.004098401062969974 0.02308557811844029 0.9855104115623156 -0.1137527655562031 0.01129931396245326 0.04822409450753084
0.15631513130469998 0.011839918692036617 0.05011201843933672 0.9847254646765615 -0.11833385427925185 0.004497210943019269 0.023979560653702797 -0.003761780015300807 -0.015102595623552222
 0.9847254646765615 -0.11833385427925185 0.011858465469482913 0.050110654917333665 -0.0037612751926876316 -0.015102665629773184 0.00438606474327928 0.023999275281366857
