! Created with skrf 1.8.0 (http://scikit-rf.org).
# GHz S RI R 50.0 
!freq ReS11 ImS11 ReS12 ImS12 ReS13 ImS13
! ReS14 ImS14
! ReS21 ImS21 ReS22 ImS22 ReS23 ImS23
! ReS24 ImS24
! ReS31 ImS31 ReS32 ImS32 ReS33 ImS33
! ReS34 ImS34
! ReS41 ImS41 ReS42 ImS42 ReS43 ImS43
! ReS44 ImS44
!
0.0 0.001467780873595 0.0 0.9985322191264 0.0 5.697546110044e-05 0.0 -5.69754611057e-05 6.977481607304002e-21
 0.9985322191264 0.0 0.001467780873589 0.0 -5.69754611056e-05 6.977481607291756e-21 5.697546109974e-05 0.0
 5.697546110044e-05 0.0 -5.69754611056e-05 6.977481607291756e-21 0.001467780858488 0.0 0.9985322191113 0.0
 -5.69754611057e-05 6.977481607304002e-21 5.697546109974e-05 0.0 0.9985322191113 0.0 0.001467780858487 0.0
0.005 0.0015791112290226273 0.001191873671357716 0.9983913751112594 -0.0030753417214792163 8.108389899042992e-05 0.0006824756375151079 -7.843844726523125e-05 -0.00041886488131366985
 0.9983913751112594 -0.0030753417214792163 0.001579113541116859 0.0011918723486395739 -7.843844684424877e-05 -0.00041886494754874207 8.107332436078063e-05 0.00068247975363632
 8.108389899042992e-05 0.0006824756375151079 -7.843844684424877e-05 -0.00041886494754874207 0.001579110565445349 0.0011918068449800082 0.9983913747592745 -0.0030754087871130817
 -7.843844726523125e-05 -0.00041886488131366985 8.107332436078063e-05 0.00068247975363632 0.9983913747592745 -0.0030754087871130817 0.0015791135115911508 0.001191805055915969
0.006252605252188 0.0016082513064896691 0.0014945810400589365 0.9983542828237126 -0.0038449426757287994 8.794082547579377e-05 0.0008534035913976438 -8.447828148153148e-05 -0.000524138880155383
 0.9983542828237126 -0.0038449426757287994 0.0016082549203211382 0.0014945793376476136 -8.447828031587698e-05 -0.0005241389632249571 8.792430460661037e-05 0.0008534089207580008
 8.794082547579377e-05 0.0008534035913976438 -8.447828031587698e-05 -0.0005241389632249571 0.0016082503436993137 0.001494497529676273 0.9983542823481893 -0.003845026496796419
 -8.447828148153148e-05 -0.000524138880155383 8.792430460661037e-05 0.0008534089207580008 0.9983542823481893 -0.003845026496796419 0.0016082549493553243 0.001494495232464184
0.01250521050438 0.0017613105428606675 0.003020892732765925 0.9981581890160599 -0.007690798565775447 0.0001271009787746088 0.0017070264011236275 -0.00011864049673999862 -0.0010509107555300126
 0.9981581890160599 -0.007690798565775447 0.001761324965655643 0.0030208888330642172 -0.00011864048564575256 -0.0010509109254461047 0.00012703512840786827 0.0017070390505494978
 0.0001271009787746088 0.0017070264011236275 -0.00011864048564575256 -0.0010509109254461047 0.0017613072423730701 0.003020726084567184 0.9981581876636167 -0.00769096599329254
 -0.00011864049673999862 -0.0010509107555300126 0.00012703512840786827 0.0017070390505494978 0.9981581876636167 -0.00769096599329254 0.0017613256404059904 0.003020720868213105
0.01875781575657 0.00192728152136883 0.004569267972013254 0.9979437021442831 -0.01154694985161018 0.0001745438521835691 0.002561509637716008 -0.00015956613767403028 -0.0015794899855745084
 0.9979437021442831 -0.01154694985161018 0.0019273139160637025 0.004569261349372492 -0.00015956610392003893 -0.0015794902491449638 0.00017439600003254079 0.0025615319894287656
 0.0001745438521835691 0.002561509637716008 -0.00015956610392003893 -0.0015794902491449638 0.001927274521344837 0.004569018496014242 0.997943699523649 -0.011547200839935275
 -0.00015956613767403028 -0.0015794899855745084 0.00017439600003254079 0.0025615319894287656 0.997943699523649 -0.011547200839935275 0.0019273158779294453 0.004569009683719597
0.02501042100875 0.0021064782801938253 0.006137531804339714 0.9977105777434462 -0.015415277212775087 0.00023035881369761868 0.0034169115570837722 -0.0002073557760885344 -0.00210962846857498
 0.9977105777434462 -0.015415277212775087 0.0021065357858529197 0.00613752190358913 -0.00020735570417467936 -0.0021096288354851183 0.00023009632009406375 0.003416946365274902
 0.00023035881369761868 0.0034169115570837722 -0.00020735570417467936 -0.0021096288354851183 0.0021064662145652067 0.006137199847790318 0.9977105734545281 -0.015415611785559852
 -0.0002073557760885344 -0.00210962846857498 0.00023009632009406375 0.003416946365274902 0.9977105734545281 -0.015415611785559852 0.0021065396850691548 0.006137186709314507
0.03126302626094 0.0022992017782692592 0.007724569976565292 0.9974585584841202 -0.019296591248429893 0.00029463589976234055 0.004273205381117823 -0.00026210711504459747 -0.00264115772556295
 0.9974585584841202 -0.019296591248429893 0.0022992915134055357 0.007724556213051011 -0.0002621069871802063 -0.0026411582083992946 0.000294226126489615 0.00427325577237993
 0.00029463589976234055 0.004273205381117823 -0.0002621069871802063 -0.0026411582083992946 0.0022991832825713077 0.007724155950261505 0.9974585521222902 -0.019297009472730164
 -0.00026210711504459747 -0.00264115772556295 0.000294226126489615 0.00427325577237993 0.9974585521222902 -0.019297009472730164 0.002299298015083148 0.007724137701712173
0.037515631513130004 0.0025057465008254012 0.009329659774614505 0.9971873809717642 -0.023191301580616865 0.00036746488018548636 0.005130331019809288 -0.0003239157743729354 -0.003173937177173689
 0.9971873809717642 -0.023191301580616865 0.0025058755654030233 0.009329641534165442 -0.00032391557076074827 -0.0031739377914771936 0.0003668751776178858 0.005130400495622199
 0.00036746488018548636 0.005130331019809288 -0.00032391557076074827 -0.0031739377914771936 0.0025057202139126523 0.009329164154357467 0.9971873721268733 -0.023191803565959113
 -0.0003239157743729354 -0.003173937177173689 0.0003668751776178858 0.005130400495622199 0.9971873721268733 -0.023191803565959113 0.0025058853512850894 0.009329139957747201
0.043768236765320004 0.002726403007532013 0.010952266397450373 0.9968967784878602 -0.02709962041444463 0.0004489348192547213 0.005988210816953646 -0.00039287558407233785 -0.003707838396033447
 0.9968967784878602 -0.02709962041444463 0.002726578484260452 0.010952243036370539 -0.0003928752831119809 -0.0037078391603609082 0.00044813252071202397 0.005988303256744113
 0.0004489348192547213 0.005988210816953646 -0.0003928752831119809 -0.0037078391603609082 0.0027263675721299016 0.010951689735380146 0.9968967667427767 -0.027100206302026263
 -0.00039287558407233785 -0.003707838396033447 0.00044813252071202397 0.005988303256744113 0.9968967667427767 -0.027100206302026263 0.002726592253136644 0.010951658698166902
0.050020842017509996 0.0029614591215711226 0.012591958801647601 0.9965864823767892 -0.031021646626012565 0.0005391338208958418 0.006846756042731053 -0.00046907869317148977 -0.0042427386136899125
 0.9965864823767892 -0.031021646626012565 0.002961688077641479 0.012591929646602548 -0.00046907827171279175 -0.004242739549661854 0.0005380862415723325 0.006846875707185391
 0.0005391338208958418 0.006846756042731053 -0.00046907827171279175 -0.004242739549661854 0.002961413186303462 0.012591301717132316 0.9965864673068341 -0.031022316598252882
 -0.00046907869317148977 -0.0042427386136899125 0.0005380862415723325 0.006846875707185391 0.9965864673068341 -0.031022316598252882 0.002961706546550378 0.012591262891778861
0.055454545454549996 0.003177646184061307 0.01403048954176991 0.9963006225118077 -0.0344411604785298 0.0006246761237224112 0.0075933233982202804 -0.0005412542786298917 -0.004708300962169207
 0.9963006225118077 -0.0344411604785298 0.003177927342879826 0.01403045478174446 -0.0005412537324924911 -0.004708302067292583 0.0006233888305567666 0.007593470480555847
 0.0006246761237224112 0.0075933233982202804 -0.0005412537324924911 -0.004708302067292583 0.003177590031274083 0.014029763134935636 0.9963006042001759 -0.03444190369145713
 -0.0005412542786298917 -0.004708300962169207 0.0006233888305567666 0.007593470480555847 0.9963006042001759 -0.03444190369145713 0.003177950493193471 0.014029716728803468
0.056273447269699996 0.0032112005406309423 0.014248368381147153 0.996256222856092 -0.034957407015830395 0.0006381488485292502 0.007705870085964418 -0.0005526156034347729 -0.004778517530411902
 0.996256222856092 -0.034957407015830395 0.0032114900279280223 0.014248332729175165 -0.0005526150368273421 -0.004778518662779817 0.0006368232865035442 0.007706021620378359
 0.0006381488485292502 0.007705870085964418 -0.0005526150368273421 -0.004778518662779817 0.0032111427600664045 0.014247631576199111 0.9962562040269475 -0.034958161281509775
 -0.0005526156034347729 -0.004778517530411902 0.0006368232865035442 0.007706021620378359 0.9962562040269475 -0.034958161281509775 0.0032115139327352515 0.01424758395961009
0.06252605252188 0.0034759111678429114 0.015921166278645517 0.9959057295512638 -0.03890687893313265 0.0007460655852248808 0.008565450204726738 -0.0006435751608896228 -0.00531505556973283
 0.9959057295512638 -0.03890687893313265 0.0034762682244542137 0.015921123396870622 -0.0006435744231886662 -0.0053150569264193825 0.0007444293244082851 0.008565638642369
 0.0007460655852248808 0.008565450204726738 -0.0006435744231886662 -0.0053150569264193825 0.0034758402055928513 0.015920350522007406 0.995905706519266 -0.03890771774364823
 -0.0006435751608896228 -0.00531505556973283 0.0007444293244082851 0.008565638642369 0.995905706519266 -0.03890771774364823 0.003476298322116866 0.015920293054989914
0.06877865777407 0.003755873289538443 0.01761004982937264 0.9955347318798183 -0.042870003770460276 0.0008629683143819247 0.009425388574676665 -0.0007420445256532995 -0.0058522328387444105
 0.9955347318798183 -0.042870003770460276 0.0037563049403551226 0.017609998954986977 -0.0007420435897555842 -0.005852234450907079 0.0008609886285137978 0.009425619340113845
 0.0008629683143819247 0.009425388574676665 -0.0007420435897555842 -0.005852234450907079 0.00375578781829224 0.017609155971316324 0.9955347041895445 -0.042870927405384326
 -0.0007420445256532995 -0.0058522328387444105 0.0008609886285137978 0.009425619340113845 0.9955347041895445 -0.042870927405384326 0.003756342008573294 0.017609087538071045
0.07503126302626001 0.004051367660348923 0.019314733986593037 0.995142959346943 -0.04684669548022112 0.000988939813475381 0.010285572953071443 -0.0008481091271514807 -0.006389928476467407
 0.995142959346943 -0.04684669548022112 0.004051880917927615 0.019314674326641666 -0.0008481079649019791 -0.0063899303785463595 0.0009865839709315388 0.010285851865414683
 0.000988939813475381 0.010285572953071443 -0.0008481079649019791 -0.0063899303785463595 0.0040512663636636985 0.019313762954199353 0.9951429265303643 -0.04684770425243942
 -0.0008481091271514807 -0.006389928476467407 0.0009865839709315388 0.010285851865414683 0.9951429265303643 -0.04684770425243942 0.004051925756791862 0.01931368238161851
0.08128386827845 0.004362673531851543 0.021034945611641678 0.9947301417869949 -0.05083684623065257 0.001124061255371714 0.01114588712844949 -0.000961852610187739 -0.006928020220482405
 0.9947301417869949 -0.05083684623065257 0.004363275397131383 0.02103487634277862 -0.0009618511925181906 -0.006928022450241396 0.0011212965247913156 0.011146220404546643
 0.001124061255371714 0.01114588712844949 -0.0009618511925181906 -0.006928022450241396 0.004362555106372853 0.02103389840795954 0.9947301033631332 -0.050837940487370115
 -0.000961852610187739 -0.006928020220482405 0.0011212965247913156 0.011146220404546643 0.9947301033631332 -0.050837940487370115 0.004363328830731181 0.02103380446510504
0.08753647353064001 0.004690068644810444 0.022770419520776443 0.9942960095726233 -0.0548403303089627 0.001268412114671527 0.012006211230041397 -0.0010833567747521545 -0.007466384117984852
 0.9942960095726233 -0.0548403303089627 0.004690766107804576 0.02277033978903015 -0.0010833550717877576 -0.007466386716567426 0.0012652057710273218 0.012006605487489878
 0.001268412114671527 0.012006211230041397 -0.0010833550717877576 -0.007466386716567426 0.004689931801404361 0.022769297228882004 0.9942959650456465 -0.05484151042790188
 -0.0010833567747521545 -0.007466384117984852 0.0012652057710273218 0.012006605487489878 0.9942959650456465 -0.05484151042790188 0.004690828985189841 0.02276918862624857
0.09378907878283 0.005033829194175922 0.024520895668810924 0.9938402937989648 -0.058857006892310215 0.001422070077435476 0.012866421956744693 -0.001212701510999936 -0.008004894321488744
 0.9938402937989648 -0.058857006892310215 0.005034629234847527 0.02452080458934637 -0.0012126994922205434 -0.008004897333457744 0.0014183894086745915 0.01286688421689138
 0.001422070077435476 0.012866421956744693 -0.0012126994922205434 -0.008004897333457744 0.005033672659300829 0.024519699445497034 0.9938402426571471 -0.05885827328815922
 -0.001212701510999936 -0.008004894321488744 0.0014183894086745915 0.01286688421689138 0.9938402426571471 -0.05885827328815922 0.005034702430619926 0.024519574834415837
0.100041684035 0.005394229774758954 0.026286117077429498 0.9933627264524868 -0.06288672207870782 0.001585110952966892 0.013726392750377474 -0.0013499647311483642 -0.008543422944651128
 0.9933627264524868 -0.06288672207870782 0.005395139363639259 0.026286013734185192 -0.0013499623654762208 -0.008543426418032646 0.001580923266935082 0.013726930441177175
 0.001585110952966892 0.013726392750377474 -0.0013499623654762208 -0.008543426418032646 0.0053940522923128665 0.026284848162041553 0.9933626681671932 -0.0628880751943557
 -0.0013499647311483642 -0.008543422944651128 0.001580923266935082 0.013726930441177175 0.9933626681671932 -0.0628880751943557 0.005395223779650592 0.026284706133888648
0.1059090909091 0.0057478045642288915 0.02795577321796279 0.9928944685626154 -0.06667989359437629 0.0017467069848793866 0.014533050433596852 -0.0014860410845222091 -0.009048675896404243
 0.9928944685626154 -0.06667989359437629 0.005748823284320669 0.027955657505203468 -0.0014860383647057368 -0.0090486798495649 0.0017420138079581923 0.014533666028222113
 0.0017467069848793866 0.014533050433596852 -0.0014860383647057368 -0.0090486798495649 0.005747606299736359 0.027954437284098497 0.9928944030771217 -0.0666813285206359
 -0.0014860410845222091 -0.009048675896404243 0.0017420138079581923 0.014533666028222113 0.9928944030771217 -0.0666813285206359 0.005748919075066295 0.027954277576736505
0.1062942892872 0.005771543314181513 0.028065828283716125 0.9928630405692126 -0.06692931040254227 0.0017576085870929647 0.014585993928493812 -0.0014952222986389931 -0.009081839963153104
 0.9928630405692126 -0.06692931040254227 0.005772569413017708 0.028065711729067425 -0.0014952195546041782 -0.009081843949466886 0.0017528812188677594 0.014586614887145554
 0.0017576085870929647 0.014585993928493812 -0.0014952195546041782 -0.009081843949466886 0.005771343647645256 0.028064487992489243 0.9928629745937853 -0.06693075071471881
 -0.0014952222986389931 -0.009081839963153104 0.0017528812188677594 0.014586614887145554 0.9928629745937853 -0.06693075071471881 0.0057726659796823055 0.028064327078021194
0.11254689453939999 0.006166040994878298 0.02985977415615129 0.9923409703848428 -0.07098459598763729 0.0019396347766550866 0.015445092794866503 -0.0016485479551577315 -0.009620013142320517
 0.9923409703848428 -0.07098459598763729 0.00616719055737156 0.029859643410531274 -0.0016485448009398143 -0.009620017696633317 0.0019343350963527733 0.01544580527043502
 0.0019396347766550866 0.015445092794866503 -0.0016485448009398143 -0.009620017696633317 0.006165817928014737 0.029858363881931308 0.9923408961530441 -0.07098612400722631
 -0.0016485479551577315 -0.009620013142320517 0.0019343350963527733 0.01544580527043502 0.9923408961530441 -0.07098612400722631 0.0061673002345784406 0.02985818255039707
0.11879949979160001 0.006577992167622888 0.03166769896405142 0.9917962514797056 -0.07505239345218977 0.002131259184717513 0.01630355373104177 -0.0018100132462699012 -0.010157807988628151
 0.9917962514797056 -0.07505239345218977 0.006579272139933545 0.0316675530155375 -0.0018100096499241802 -0.010157813169573074 0.0021253546051563615 0.016304366386895145
 0.002131259184717513 0.01630355373104177 -0.0018100096499241802 -0.010157813169573074 0.00657774450693143 0.03166622018014735 0.9917961684048805 -0.07505400972012766
 -0.0018100132462699012 -0.010157807988628151 0.0021253546051563615 0.016304366386895145 0.9917961684048805 -0.07505400972012766 0.00657939591826801 0.03166601683864606
0.1250521050438 0.007007664258120795 0.03348934565618735 0.991228620918834 -0.07913250860967248 0.0023325492561151384 0.017161238275069476 -0.0019796874456900686 -0.010695087718734744
 0.991228620918834 -0.07913250860967248 0.0070090815797927185 0.0334891834600025 -0.001979683375181128 -0.010695093588545574 0.0023260072412545217 0.01716216019110966
 0.0023325492561151384 0.017161238275069476 -0.001979683375181128 -0.010695093588545574 0.00700739083437726 0.03348779991466183 0.9912285283923946 -0.07913421369853857
 -0.0019796874456900686 -0.010695087718734744 0.0023260072412545217 0.01716216019110966 0.9912285283923946 -0.07913421369853857 0.007009220481991754 0.033487572907152735
0.131304710296 0.007455322669391961 0.0353244552748481 0.9906378173905955 -0.08322473904008007 0.002543570133753992 0.01801800519107737 -0.0021576374784935564 -0.01123171324258292
 0.9906378173905955 -0.08322473904008007 0.007456884273858402 0.03532427575286913 -0.0021576329018982254 -0.01123171986712043 0.0025363582070975026 0.018019045865880632
 0.002543570133753992 0.01801800519107737 -0.0021576329018982254 -0.01123171986712043 0.007455022339249507 0.03532284420461594 0.9906377147806663 -0.0832265335556538
 -0.0021576374784935564 -0.01123171324258292 0.0025363582070975026 0.018019045865880632 0.9906377147806663 -0.0832265335556538 0.00745703935566629 0.03532259181116869
0.1375573155481 0.007817128051375953 0.03693105801133524 0.9901277210579985 -0.08708706583799918 0.002737428745005377 0.018848673636458486 -0.0023169821644126267 -0.011742516984894362
 0.9901277210579985 -0.08708706583799918 0.007818842113813087 0.036930865132457594 -0.002316977225227726 -0.011742524381602988 0.0027295276645049244 0.01884983128053806
 0.002737428745005377 0.018848673636458486 -0.002316977225227726 -0.011742524381602988 0.007816800396528923 0.03692938271308761 0.9901276078924838 -0.08708895017632032
 -0.0023169821644126267 -0.011742516984894362 0.0027295276645049244 0.01884983128053806 0.9901276078924838 -0.08708895017632032 0.007819013428688888 0.03692910902650143
0.1438099208003 0.00819159025757252 0.038529366417614404 0.9895997966050362 -0.09093981934528808 0.0029391364458073535 0.01967623207608349 -0.002482726591495594 -0.01225048341685297
 0.9895997966050362 -0.09093981934528808 0.00819346391115871 0.03852915947578564 -0.002482721289226349 -0.012250491646428021 0.0029305162135526285 0.019677515375457585
 0.0029391364458073535 0.01967623207608349 -0.002482721289226349 -0.012250491646428021 0.008191234303832909 0.03852762855688041 0.9895996722508617 -0.09094179410750068
 -0.002482726591495594 -0.01225048341685297 0.0029305162135526285 0.019677515375457585 0.9895996722508617 -0.09094179410750068 0.008193652382258929 0.03852733229495496
0.1500625260525 0.008578580311185444 0.04011925306087567 0.9890541769740584 -0.09478291067790778 0.0031486267069791873 0.02050060342521925 -0.0026548061262441245 -0.012755539187138796
 0.9890541769740584 -0.09478291067790778 0.008580620694858489 0.04011903131258902 -0.002654800462527457 -0.012755548312460755 0.003139257535918698 0.020502021375142024
 0.0031486267069791873 0.02050060342521925 -0.002654800462527457 -0.012755548312460755 0.008578195118522052 0.04011745436716188 0.9890540407784426 -0.09478497648947909
 -0.0026548061262441245 -0.012755539187138796 0.003139257535918698 0.020502021375142024 0.9890540407784426 -0.09478497648947909 0.008580827266151017 0.04011713418955735
0.15631513130469998 0.008977968347030588 0.041700594392459066 0.9884909957562457 -0.09861625113116092 0.003365832236201192 0.021321711844333183 -0.002833155357224353 -0.013257612469217413
