! Created with skrf 1.8.0 (http://scikit-rf.org).
# GHz S RI R 50.0 
!freq ReS11 ImS11 ReS12 ImS12 ReS13 ImS13
! ReS14 ImS14
! ReS21 ImS21 ReS22 ImS22 ReS23 ImS23
! ReS24 ImS24
! ReS31 ImS31 ReS32 ImS32 ReS33 ImS33
! ReS34 ImS34
! ReS41 ImS41 ReS42 ImS42 ReS43 ImS43
! ReS44 ImS44
!
0.0 0.001472771384303 0.0 0.998527228593 0.0 5.651737602247e-05 0.0 -5.651737646718e-05 6.921382418673793e-21
 0.998527228593 0.0 0.001472771384264 0.0 -5.651737646587e-05 6.921382418513365e-21 5.651737602241e-05 0.0
 5.651737602247e-05 0.0 -5.651737646587e-05 6.921382418513365e-21 0.001472771395634 0.0 0.9985272286043 0.0
 -5.651737646718e-05 6.921382418673793e-21 5.651737602241e-05 0.0 0.9985272286043 0.0 0.001472771395659 0.0
0.005 0.0015843497980402765 0.0012082515829353773 0.9983861223460908 -0.0030850802435802537 7.853448333696155e-05 0.0006033968833991479 -7.644663239232441e-05 -0.00038214418947592606
 0.9983861223460908 -0.0030850802435802537 0.0015843478942778888 0.0012082527302584726 -7.644864582439437e-05 -0.0003821457640917576 7.855011652346477e-05 0.0006033911076971337
 7.853448333696155e-05 0.0006033968833991479 -7.644864582439437e-05 -0.0003821457640917576 0.0015843482580132232 0.0012081852537768182 0.99838612199147 -0.003085147302909958
 -7.644663239232441e-05 -0.00038214418947592606 7.855011652346477e-05 0.0006033911076971337 0.99838612199147 -0.003085147302909958 0.0015843487265137224 0.0012081849408748001
0.006252605252188 0.0016135547504916438 0.0015150606068273882 0.9983489692555217 -0.0038571127068515623 8.477719284989508e-05 0.0007545519579442921 -8.204080559528001e-05 -0.0004781732321218192
 0.9983489692555217 -0.0038571127068515623 0.0016135517737151917 0.0015150620059668587 -8.204393846505343e-05 -0.0004781751743672343 8.480162038238822e-05 0.0007545444309049246
 8.477719284989508e-05 0.0007545519579442921 -8.204393846505343e-05 -0.0004781751743672343 0.001613552425338453 0.0015149776996304153 0.9983489687836611 -0.0038571965315753903
 -8.204080559528001e-05 -0.0004781732321218192 8.480162038238822e-05 0.0007545444309049246 0.9983489687836611 -0.0038571965315753903 0.001613553157581848 0.0015149772643079783
0.01250521050438 0.0017669541556609087 0.0030618261304000477 0.9981526012306293 -0.007715071093993862 0.00012032779593483314 0.0015095502738764943 -0.00011360641074073097 -0.0009586832038981931
 0.9981526012306293 -0.007715071093993862 0.001766942260617818 0.0030618285744760556 -0.00011361875479599334 -0.0009586868041474078 0.0001204252727961271 0.0015095319342607763
 0.00012032779593483314 0.0015095502738764943 -0.00011361875479599334 -0.0009586868041474078 0.0017669454164096427 0.0030616606372179085 0.9981525998973091 -0.007715238482579638
 -0.00011360641074073097 -0.0009586832038981931 0.0001204252727961271 0.0015095319342607763 0.9981525998973091 -0.007715238482579638 0.0017669483433163232 0.0030616592993572556
0.01875781575657 0.0019332924908663435 0.004630618369332315 0.9979378888832862 -0.011583273728064752 0.00016325067059591588 0.0022654862042686607 -0.00015130836443586816 -0.0014408722736844984
 0.9979378888832862 -0.011583273728064752 0.0019332657483839863 0.004630621496992222 -0.0001513358891683321 -0.0014408771956303272 0.00016346979507405186 0.002265453182978427
 0.00016325067059591588 0.0022654862042686607 -0.0001513358891683321 -0.0014408771956303272 0.0019332732624558124 0.004630370479584055 0.9979378863064963 -0.011583524587759072
 -0.00015130836443586816 -0.0014408722736844984 0.00016346979507405186 0.002265453182978427 0.9979378863064963 -0.011583524587759072 0.0019332798483599443 0.004630367700428536
0.02501042100875 0.002112883777297087 0.0062192618761053205 0.9977045875770469 -0.015463607172288188 0.00021362813225403638 0.0030223939042970005 -0.00019523809449910193 -0.001924534967446344
 0.9977045875770469 -0.015463607172288188 0.00211283626093876 0.006219265313211605 -0.00019528669738539517 -0.001924540816597109 0.00021401761084214807 0.003022341760348976
 0.00021362813225403638 0.0030223939042970005 -0.00019528669738539517 -0.001924540816597109 0.00211284998840337 0.006218931784219736 0.9977045833770295 -0.015463941440154332
 -0.00019523809449910193 -0.001924534967446344 0.00021401761084214807 0.003022341760348976 0.9977045833770295 -0.015463941440154332 0.0021128616990790127 0.006218926951117223
0.03126302626094 0.002306029037990289 0.007826643457216145 0.9974524397625792 -0.01935688645083362 0.0002715428936167657 0.0037802405763732536 -0.00024548464569642517 -0.0024095278456896722
 0.9974524397625792 -0.01935688645083362 0.0023059548198586036 0.00782664681549903 -0.0002455601645363705 -0.0024095341686276596 0.0002721515815017617 0.003780164291178497
 0.0002715428936167657 0.0037802405763732536 -0.0002455601645363705 -0.0024095341686276596 0.0023059766144754067 0.007826231379260513 0.9974524335565523 -0.019357304077394274
 -0.00024548464569642517 -0.0024095278456896722 0.0002721515815017617 0.003780164291178497 0.9974524335565523 -0.019357304077394274 0.0023059949160430934 0.007826223804033148
0.037515631513130004 0.0025130228936090346 0.009452042074004274 0.9971811817615754 -0.023263525087175246 0.000337077334336025 0.004538967002005335 -0.0003021352970217679 -0.002895728970479511
 0.9971811817615754 -0.023263525087175246 0.002512916041069559 0.009452044950305029 -0.00030224351630760084 -0.0028957352546357625 0.00033795425298435147 0.0045388609719318775
 0.000337077334336025 0.004538967002005335 -0.00030224351630760084 -0.0028957352546357625 0.0025129477626781188 0.009451548251622127 0.9971811731685841 -0.023264026032941188
 -0.0003021352970217679 -0.002895728970479511 0.00033795425298435147 0.0045388609719318775 0.9971811731685841 -0.023264026032941188 0.0025129741193696906 0.00945153716926221
0.043768236765320004 0.002734156116089659 0.011094924928961764 0.9968905465099648 -0.027183738949051104 0.00041031315522365586 0.005298499865200449 -0.0003652757847131099 -0.003383025579065225
 0.9968905465099648 -0.027183738949051104 0.0027340106892960697 0.011094926904739507 -0.00036542243939893614 -0.0033830312526486853 0.00041150750052076907 0.005298357893616826
 0.00041031315522365586 0.005298499865200449 -0.00036542243939893614 -0.0033830312526486853 0.0027340542056990516 0.011094349629415702 0.9968905351500397 -0.027184323184909705
 -0.0003652757847131099 -0.003383025579065225 0.00041150750052076907 0.005298357893616826 0.9968905351500397 -0.027184323184909705 0.0027340900780998866 0.011094334196827602
0.050020842017509996 0.0029697168176520106 0.012754863165641757 0.9965802649378248 -0.031117630477572933 0.0004913311697963283 0.006058756845885776 -0.00043499038349177377 -0.003871308988499359
 0.9965802649378248 -0.031117630477572933 0.0029695268674598866 0.012754863806623289 -0.0004351811614847207 -0.00387131342049213 0.0004928923150084049 0.006058572134997292
 0.0004913311697963283 0.006058756845885776 -0.0004351811614847207 -0.00387131342049213 0.0029695840538638356 0.012754206692838384 0.996580250429593 -0.031118297974381637
 -0.00043499038349177377 -0.003871308988499359 0.0004928923150084049 0.006058572134997292 0.996580250429593 -0.031118297974381637 0.0029696308965458966 0.012754185987613298
0.055454545454549996 0.0031863653010795953 0.01421096527779357 0.9962944557515362 -0.034547434232241325 0.0005681203602305733 0.006719962409411379 -0.0005009778314505872 -0.004296360287928776
 0.9962944557515362 -0.034547434232241325 0.003186131818164483 0.014210964393681866 -0.0005012115379033994 -0.004296363082471096 0.0005700405004688596 0.006719734563018062
 0.0005681203602305733 0.006719962409411379 -0.0005012115379033994 -0.004296363082471096 0.0031862024163433955 0.01421023853334844 0.9962944381977741 -0.03454817406691087
 -0.0005009778314505872 -0.004296360287928776 0.0005700405004688596 0.006719734563018062 0.9962944381977741 -0.03454817406691087 0.0031862599674762704 0.014210212434559411
0.056273447269699996 0.003219991063852098 0.014431490522750312 0.9962500667774623 -0.035065229963050254 0.0005802111565269444 0.006819649104351461 -0.000511361924193639 -0.004360472111428575
 0.9962500667774623 -0.035065229963050254 0.00321975062934747 0.014431489378666736 -0.0005116024679792616 -0.0043604746115800804 0.0005821886521005235 0.00681941424693358
 0.0005802111565269444 0.006819649104351461 -0.0005116024679792616 -0.0043604746115800804 0.0032198233726875663 0.014430753210755654 0.9962500487395655 -0.03506598069863918
 -0.000511361924193639 -0.004360472111428575 0.0005821886521005235 0.00681941424693358 0.9962500487395655 -0.03506598069863918 0.003219882632036388 0.014430726230128107
0.06252605252188 0.0034852632054184316 0.016124480580762282 0.995899681092736 -0.03902651823012436 0.0006770317388086346 0.007581082666174449 -0.0005944717812424746 -0.004850408074092185
 0.995899681092736 -0.03902651823012436 0.0034849663119565747 0.01612447718521143 -0.0005947676890482048 -0.004850407892951043 0.0006794753101363359 0.007580789637311229
 0.0006770317388086346 0.007581082666174449 -0.0005947676890482048 -0.004850407892951043 0.003485056513485815 0.016123662796935622 0.995899659144392 -0.039027352186804184
 -0.0005944717812424746 -0.004850408074092185 0.0006794753101363359 0.007580789637311229 0.995899659144392 -0.039027352186804184 0.0034851296253290624 0.01612362845670611
0.06877865777407 0.0037658160590555135 0.017833533202811357 0.9955288366612188 -0.0430014401314015 0.0007818702833012288 0.00834295923292652 -0.0006843998397774 -0.00534100941169465
 0.9955288366612188 -0.0430014401314015 0.0037654567161450538 0.01783352707314812 -0.0006847566663537644 -0.005341005740644137 0.0007848298270781849 0.008342599381713887
 0.0007818702833012288 0.00834295923292652 -0.0006847566663537644 -0.005341005740644137 0.003765566291959846 0.017832635351194594 0.9955288104202524 -0.043002357293079156
 -0.0006843998397774 -0.00534100941169465 0.0007848298270781849 0.008342599381713887 0.9955288104202524 -0.043002357293079156 0.003765654679270867 0.017832592484762717
0.07503126302626001 0.004061930993657437 0.019558365939877524 0.9951372622650911 -0.046989913080017376 0.0008948028072120992 0.009105176706999623 -0.0007812244521437549 -0.005832167552962143
 0.9951372622650911 -0.046989913080017376 0.004061503192969843 0.019558356577233055 -0.0007816477093521447 -0.005832159524248368 0.0008983283865156138 0.009104740748327688
 0.0008948028072120992 0.009105176706999623 -0.0007816477093521447 -0.005832159524248368 0.004061634078419444 0.01955738845821797 0.9951372313499264 -0.0469909134357619
 -0.0007812244521437549 -0.005832167552962143 0.0008983283865156138 0.009104740748327688 0.9951372313499264 -0.0469909134357619 0.0040617391485602596 0.01955733581567939
0.08128386827845 0.004373887964038838 0.0212987083039425 0.9947246869328905 -0.05099183271794869 0.001015903891483512 0.009867629540970825 -0.0008850223867318432 -0.006323772483733874
 0.9947246869328905 -0.05099183271794869 0.00437338567725979 0.021298695193246966 -0.0008855175438916387 -0.006323759170520144 0.0010200457301804248 0.009867107547323305
 0.001015903891483512 0.009867629540970825 -0.0008855175438916387 -0.006323759170520144 0.004373539827138815 0.021297651670746487 0.994724650960185 -0.050992916255504325
 -0.0008850223867318432 -0.006323772483733874 0.0010200457301804248 0.009867107547323305 0.994724650960185 -0.050992916255504325 0.00437366296938927 0.021297587918035446
0.08753647353064001 0.004701965502159841 0.023054297817065743 0.9942908401417048 -0.0550070768122961 0.0011452465978927964 0.01063020898156759 -0.0009958687714951625 -0.006815712519651016
 0.9942908401417048 -0.0550070768122961 0.0047013826792364774 0.023054280427074126 -0.0009964412556317563 -0.006815692936055323 0.0011500550742859744 0.010629590374879917
 0.0011452465978927964 0.01063020898156759 -0.0009964412556317563 -0.006815692936055323 0.004701562071672668 0.02305316254637384 0.9942907987279433 -0.055008243523865186
 -0.0009958687714951625 -0.006815712519651016 0.0011500550742859744 0.010629590374879917 0.9942907987279433 -0.055008243523865186 0.004701704654729427 0.023053086264482874
0.09378907878283 0.005046440686721913 0.024824877184600393 0.9938354520008845 -0.05903550803154515 0.0012829023888184473 0.011392803247904953 -0.0011138370335667062 -0.007307874148369716
 0.9938354520008845 -0.05903550803154515 0.005045771253265832 0.024824854968186386 -0.0011144922295023036 -0.0073078472495293955 0.0012884280285382146 0.011392076791532889
 0.0012829023888184473 0.011392803247904953 -0.0011144922295023036 -0.0073078472495293955 0.005045977892107566 0.024823663826699826 0.9938354047619062 -0.05903675791366698
 -0.0011138370335667062 -0.007307874148369716 0.0012884280285382146 0.011392076791532889 0.9938354047619062 -0.05903675791366698 0.005046141261048576 0.02482357351095238
0.100041684035 0.005407589090868926 0.026610192214822102 0.9933582534177018 -0.0630769759799663 0.001428941047949962 0.012155297669796533 -0.0012389988364359364 -0.007800141915703042
 0.9933582534177018 -0.0630769759799663 0.005406826946521222 0.026610164609174244 -0.0012397420868334832 -0.007800106597836553 0.0014352345165823512 0.012154451460523383
 0.001428941047949962 0.012155297669796533 -0.0012397420868334832 -0.007800106597836553 0.005407062863119626 0.02660890136128494 0.993358199968209 -0.06307830902899926
 -0.0012389988364359364 -0.007800141915703042 0.0014352345165823512 0.012154451460523383 0.993358199968209 -0.06307830902899926 0.0054072483369821305 0.026608795420726878
0.1059090909091 0.005761896774076939 0.028298697871989877 0.9928903779347101 -0.06688117764456934 0.0015736675880635557 0.012870622412948715 -0.001363054591799128 -0.00826207492055111
 0.9928903779347101 -0.06688117764456934 0.005761042057138242 0.028298664683502513 -0.0013638852934806135 -0.008262030646008344 0.001580727780111311 0.012869652401748427
 0.0015736675880635557 0.012870622412948715 -0.0013638852934806135 -0.008262030646008344 0.005761307322451248 0.02829733486955943 0.9928903183060499 -0.06688258873621014
 -0.001363054591799128 -0.00826207492055111 0.001580727780111311 0.012869652401748427 0.9928903183060499 -0.06688258873621014 0.005761514713136479 0.02829721274244751
0.1062942892872 0.00578568471711039 0.028409990266891096 0.9928589762524078 -0.06713131870813116 0.0015834306028712428 0.012917574791456603 -0.0013714240144054172 -0.008292398350428559
 0.9928589762524078 -0.06713131870813116 0.005784823733286072 0.028409956693789203 -0.0013722606197229146 -0.00829235345089472 0.0015905426979330706 0.012916596251625685
 0.0015834306028712428 0.012917574791456603 -0.0013722606197229146 -0.00829235345089472 0.00578509098960326 0.028408622547721283 0.9928589162061329 -0.06713273492367261
 -0.0013714240144054172 -0.008292398350428559 0.0015905426979330706 0.012916596251625685 0.9928589162061329 -0.06713273492367261 0.005785299858318816 0.028408499304524697
0.11254689453939999 0.006180999922197282 0.030224019057342913 0.9923373534667198 -0.0711983638698118 0.0017464372478082444 0.013679514459212552 -0.0015111805057345935 -0.008784523909228535
 0.9923373534667198 -0.0711983638698118 0.006180033940117458 0.030223978923561802 -0.0015121157241404135 -0.00878446820660761 0.0017544188903912922 0.013678390328947552
 0.0017464372478082444 0.013679514459212552 -0.0015121157241404135 -0.00878446820660761 0.006180334630897888 0.03022257514288279 0.9923372864361675 -0.07119986325332135
 -0.0015111805057345935 -0.008784523909228535 0.0017544188903912922 0.013678390328947552 0.9923372864361675 -0.07119986325332135 0.006180568152498878 0.030222432831874473
0.11879949979160001 0.006593805332603569 0.03205202573266136 0.9917931192649756 -0.07527792961761522 0.0019180252671139072 0.014440993896260537 -0.0016583342842583222 -0.009276396938865903
 0.9917931192649756 -0.07527792961761522 0.006592728160906296 0.03205197843040077 -0.0016593733314411638 -0.009276329153042748 0.0019269274931550979 0.014439710225797422
 0.0019180252671139072 0.014440993896260537 -0.0016593733314411638 -0.009276329153042748 0.0065930644166134365 0.03205050633441972 0.9917930448614127 -0.07527951217209666
 -0.0016583342842583222 -0.009276396938865903 0.0019269274931550979 0.014439710225797422 0.9917930448614127 -0.07527951217209666 0.0065933238142864056 0.03205034310262953
0.1250521050438 0.007024369753955548 0.03389375613582801 0.9912260092330931 -0.07936982530977875 0.002098256959198354 0.015201887763097879 -0.0018129492897892138 -0.009767893657075718
 0.9912260092330931 -0.07936982530977875 0.007023175166712389 0.0338937010432554 -0.0018140973387715167 -0.00976781244932956 0.0021081309103320356 0.015200429905258425
 0.002098256959198354 0.015201887763097879 -0.0018140973387715167 -0.00976781244932956 0.00702354915599525 0.03389216200412544 0.9912259270664877 -0.07937149104271353
 -0.0018129492897892138 -0.009767893657075718 0.0021081309103320356 0.015200429905258425 0.9912259270664877 -0.07937149104271353 0.0070238356151756534 0.03389197591048034
0.131304710296 0.007472960075012849 0.03574895421956567 0.9906357604737637 -0.0834738520756302 0.002287192560470749 0.015962068218029552 -0.001975087357914513 -0.010258888137782684
 0.9906357604737637 -0.0834738520756302 0.007471641809498103 0.03574889070135995 -0.0019763495388495254 -0.010258792110883166 0.0022980894746202434 0.015960420820749537
 0.002287192560470749 0.015962068218029552 -0.0019763495388495254 -0.010258792110883166 0.007472055742062428 0.03574728614856787 0.9906356701523917 -0.08347560099439598
 -0.001975087357914513 -0.010258888137782684 0.0022980894746202434 0.015960420820749537 0.9906356701523917 -0.08347560099439598 0.007472370407135277 0.03574707516364002
0.1375573155481 0.007835217628889467 0.03737626729682005 0.9901267730119465 -0.0873486092594456 0.0024603997430096697 0.01669734522095267 -0.002120302487103837 -0.010725213028627728
 0.9901267730119465 -0.0873486092594456 0.007833769442522627 0.03737619883700333 -0.0021216864661324163 -0.010725102109785027 0.0024723387854150717 0.016695511219119493
 0.0024603997430096697 0.01669734522095267 -0.0021216864661324163 -0.010725102109785027 0.00783422617399117 0.03737452589838764 0.9901266741685724 -0.08735044133225804
 -0.002120302487103837 -0.010725213028627728 0.0024723387854150717 0.016695511219119493 0.9901266741685724 -0.08735044133225804 0.0078345688299365 0.03737429239171473
0.1438099208003 0.00821017805996273 0.03899534545840754 0.989599985065985 -0.09121386513060953 0.0026405935682462627 0.017429799771159563 -0.002271324007018599 -0.01118893600902055
 0.989599985065985 -0.09121386513060953 0.008208593650590191 0.03899527183153143 -0.002272835309399082 -0.011188808825810316 0.002653620320225498 0.017427765264463498
 0.0026405935682462627 0.017429799771159563 -0.002272835309399082 -0.011188808825810316 0.008209095555388997 0.03899353152840326 0.9895998773123561 -0.09121578035658673
 -0.002271324007018599 -0.01118893600902055 0.002653620320225498 0.017427765264463498 0.9895998773123561 -0.09121578035658673 0.008209467052204 0.03899327386889164
0.1500625260525 0.008597714010175717 0.04060606289478506 0.9890555278511611 -0.09506953308504928 0.002827713897057954 0.018159362517500225 -0.0024280931981321644 -0.011649990984322492
 0.9890555278511611 -0.09506953308504928 0.008595987043576865 0.04060598387474331 -0.0024297373385546426 -0.011649846109075174 0.002841873659678014 0.01815711310692542
 0.002827713897057954 0.018159362517500225 -0.0024297373385546426 -0.011649846109075174 0.008596536539904522 0.04060417725813911 0.9890554107983246 -0.0950715314653218
 -0.0024280931981321644 -0.011649990984322492 0.002841873659678014 0.01815711310692542 0.9890554107983246 -0.0950715314653218 0.00859693767526037 0.040603893758389506
0.15631513130469998 0.008997697275350724 0.04220829763079644 0.9884935331874456 -0.09891552663604793 0.0030216999064819417 0.018885965247263825 -0.0025905506442659722 -0.01210831322140029
