! Created with skrf 1.8.0 (http://scikit-rf.org).
# GHz S RI R 50.0 
!freq ReS11 ImS11 ReS12 ImS12 ReS13 ImS13
! ReS14 ImS14
! ReS21 ImS21 ReS22 ImS22 ReS23 ImS23
! ReS24 ImS24
! ReS31 ImS31 ReS32 ImS32 ReS33 ImS33
! ReS34 ImS34
! ReS41 ImS41 ReS42 ImS42 ReS43 ImS43
! ReS44 ImS44
!
0.0 0.001605232707141 0.0 0.9983947672815 0.0 6.234414503616e-05 0.0 -6.234414545834e-05 7.634955818113309e-21
 0.9983947672815 0.0 0.001605232707195 0.0 -6.234414545891e-05 7.634955818183113e-21 6.234414503738e-05 0.0
 6.234414503616e-05 0.0 -6.234414545891e-05 7.634955818183113e-21 0.001605232695612 0.0 0.9983947672699 0.0
 -6.234414545834e-05 7.634955818113309e-21 6.234414503738e-05 0.0 0.9983947672699 0.0 0.001605232695634 0.0
0.005 0.0017273556276434573 0.0013069759717048838 0.998240212380214 -0.003362707673275455 8.839186383323628e-05 0.0007232591818433243 -8.560022086766389e-05 -0.00044759475310021907
 0.998240212380214 -0.003362707673275455 0.0017273626612143672 0.0013069717842223122 -8.560194335931484e-05 -0.0004475959768254028 8.835067160356133e-05 0.0007232749461314894
 8.839186383323628e-05 0.0007232591818433243 -8.560194335931484e-05 -0.0004475959768254028 0.0017273555980919111 0.0013070431970111202 0.9982402127485879 -0.0033626406208315893
 -8.560022086766389e-05 -0.00044759475310021907 8.835067160356133e-05 0.0007232749461314894 0.9982402127485879 -0.0033626406208315893 0.0017273634283035473 0.0013070386668338062
0.006252605252188 0.001759441856409954 0.0016388814490331525 0.9981993366737825 -0.004204200456820434 9.587109253563068e-05 0.0009044033542311783 -9.219910570722654e-05 -0.0005600768133452297
 0.9981993366737825 -0.004204200456820434 0.0017594528516729645 0.0016388760994914455 -9.220178683714064e-05 -0.0005600783199376096 9.58067345002058e-05 0.0009044238156921452
 9.587109253563068e-05 0.0009044033542311783 -9.220178683714064e-05 -0.0005600783199376096 0.0017594417236660247 0.0016389654837042672 0.9981993371624337 -0.004204116631628058
 -9.219910570722654e-05 -0.0005600768133452297 9.58067345002058e-05 0.0009044238156921452 0.9981993371624337 -0.004204116631628058 0.0017594539631745926 0.001638959721328581
0.01250521050438 0.0019286830417558213 0.0033122312788121766 0.9979822509472626 -0.00840917187465275 0.00013896042510644265 0.00180902666097697 -0.0001298165184100269 -0.0011228632600196562
 0.9979822509472626 -0.00840917187465275 0.0019287269551957309 0.0033122194167573573 -0.00012982709411074708 -0.0011228660183086657 0.00013870380791563687 0.0018090757707526816
 0.00013896042510644265 0.00180902666097697 -0.00012982709411074708 -0.0011228660183086657 0.0019286819748778946 0.003312399018340769 0.9979822523523044 -0.008409004496660695
 -0.0001298165184100269 -0.0011228632600196562 0.00013870380791563687 0.0018090757707526816 0.9979822523523044 -0.008409004496660695 0.0019287308386366666 0.0033123864839866126
0.01875781575657 0.002113338678244114 0.005009457629514835 0.9977432312798737 -0.012625140124750148 0.00019171320900124135 0.0027145056845625988 -0.00017531593086336146 -0.001687489613241074
 0.9977432312798737 -0.012625140124750148 0.0021134373734899366 0.005009438014050695 -0.00017533952829921714 -0.0016874933137392028 0.00019113681094232098 0.0027145932956211573
 0.00019171320900124135 0.0027145056845625988 -0.00017533952829921714 -0.0016874933137392028 0.002113335876308122 0.005009708933391372 0.9977432340126813 -0.01262488929888851
 -0.00017531593086336146 -0.001687489613241074 0.00019113681094232098 0.0027145932956211573 0.9977432340126813 -0.01262488929888851 0.002113445658902773 0.0050096885335156735
0.02501042100875 0.002313779095819407 0.0067281557465045435 0.9974819875323488 -0.016854131904733696 0.00025423205705869605 0.003620876371159025 -0.0002288125162017399 -0.0022536791651163726
 0.9974819875323488 -0.016854131904733696 0.0023139544027425984 0.0067281270646478075 -0.00022885420528649146 -0.002253683438859925 0.0002532083467399023 0.0036210139437104186
 0.00025423205705869605 0.003620876371159025 -0.00022885420528649146 -0.002253683438859925 0.0023137737767286873 0.006728490504941658 0.9974819920094372 -0.01685379772594731
 -0.0002288125162017399 -0.0022536791651163726 0.0002532083467399023 0.0036210139437104186 0.9974819920094372 -0.01685379772594731 0.0023139687147788446 0.0067284610697953785
0.03126302626094 0.0025303592698769236 0.008467079141918384 0.9971982152598627 -0.021097003553026638 0.0003266199912417717 0.004528086636667714 -0.00029041789106210817 -0.0028212364315262943
 0.9971982152598627 -0.021097003553026638 0.0025306329960303573 0.008467040009376212 -0.0002904826940921181 -0.0028212408493958835 0.0003250213074546514 0.004528287246763968
 0.0003266199912417717 0.004528086636667714 -0.0002904826940921181 -0.0028212408493958835 0.002530350658344947 0.00846749728700188 0.9971982218915475 -0.02109658609471864
 -0.00029041789106210817 -0.0028212364315262943 0.0003250213074546514 0.004528287246763968 0.9971982218915475 -0.02109658609471864 0.0025306549441181 0.008467457571925893
0.037515631513130004 0.002763426309941941 0.010225408314020433 0.9968916034683374 -0.02535417226935069 0.00040897936271608033 0.005436049555026627 -0.0003602409721033535 -0.0033899939733308265
 0.9968916034683374 -0.02535417226935069 0.00276382024773779 0.01022535727555876 -0.0003603338685014723 -0.0033899980458072868 0.00040667786069957903 0.005436327910223352
 0.00040897936271608033 0.005436049555026627 -0.0003603338685014723 -0.0033899980458072868 0.0027634136439148673 0.010225909793817921 0.996891612665473 -0.025353671609190824
 -0.0003602409721033535 -0.0033899939733308265 0.00040667786069957903 0.005436327910223352 0.996891612665473 -0.025353671609190824 0.0027638514343834766 0.010225858479609015
0.043768236765320004 0.003013322351876974 0.012002528178333841 0.9965618377765442 -0.029625838614045323 0.0005014113425059853 0.006344659532939339 -0.0004383882779555345 -0.0039597962324379584
 0.9965618377765442 -0.029625838614045323 0.0030138582842158274 0.012002463707751182 -0.00043851420696117935 -0.003959799409450598 0.0004982789684993485 0.006345031990139163
 0.0005014113425059853 0.006344659532939339 -0.00043851420696117935 -0.003959799409450598 0.003013304878322693 0.012003112961073079 0.9965618499468576 -0.029625254829556105
 -0.0004383882779555345 -0.0039597962324379584 0.0004982789684993485 0.006345031990139163 0.9965618499468576 -0.029625254829556105 0.00301390030246219 0.012003048654079961
0.050020842017509996 0.003280385888634615 0.01379793610625049 0.9962086020208866 -0.033912078398328556 0.0006040156122114546 0.0072537989991556424 -0.0005249640350085653 -0.0045304928564039275
 0.9962086020208866 -0.033912078398328556 0.0032810855941479253 0.013797856606323652 -0.000525127897345619 -0.004530494527248588 0.0005999240933090891 0.007254283583364122
 0.0006040156122114546 0.0072537989991556424 -0.000525127897345619 -0.004530494527248588 0.0032803628652618515 0.01379860417612711 0.9962086175705869 -0.03391141157103017
 -0.0005249640350085653 -0.0045304928564039275 0.0005999240933090891 0.007254283583364122 0.9962086175705869 -0.03391141157103017 0.0032811400301817743 0.013798525408093927
0.055454545454549996 0.003526674960184138 0.015372712864268083 0.9958823227055795 -0.0376487845630176 0.0007015191112509268 0.008044200867469811 -0.0006071251623749575 -0.005027056574367304
 0.9958823227055795 -0.0376487845630176 0.003527534676460444 0.015372618950925924 -0.000607325940718752 -0.005027056393197033 0.0006964897218083016 0.008044798841898885
 0.0007015191112509268 0.008044200867469811 -0.000607325940718752 -0.005027056393197033 0.003526646518220403 0.01537345331260767 0.9958823415201359 -0.03764804563837479
 -0.0006071251623749575 -0.005027056574367304 0.0006964897218083016 0.008044798841898885 0.9958823415201359 -0.03764804563837479 0.0035276011868844224 0.015373360726920478
0.056273447269699996 0.0035649524534902654 0.01561119678045079 0.9958315792160614 -0.03821288776006074 0.0007168901443434664 0.008163341684935021 -0.000620070194529744 -0.005101935436090731
 0.9958315792160614 -0.03821288776006074 0.003565837710906959 0.015611100582703593 -0.000620276853353314 -0.005101934929362144 0.0007117109871786599 0.008163958108412942
 0.0007168901443434664 0.008163341684935021 -0.000620276853353314 -0.005101934929362144 0.003564923147114282 0.015611948137630772 0.9958315985488075 -0.03821213797536258
 -0.000620070194529744 -0.005101935436090731 0.0007117109871786599 0.008163958108412942 0.9958315985488075 -0.03821213797536258 0.0035659061440829185 0.01561185336537962
0.06252605252188 0.0038673549731699252 0.01744191738450332 0.9954304521909784 -0.04252820790913566 0.0008401310245966959 0.00907315443814872 -0.0007238064068310126 -0.0056739757145899145
 0.9954304521909784 -0.04252820790913566 0.003868447566165514 0.01744180274876355 -0.0007240606883941272 -0.005673972298138556 0.0008337355203358149 0.009073924119712954
 0.0008401310245966959 0.00907315443814872 -0.0007240606883941272 -0.005673972298138556 0.0038673186606681485 0.017442752045171095 0.9954304757081348 -0.04252737525620799
 -0.0007238064068310126 -0.0056739757145899145 0.0008337355203358149 0.009073924119712954 0.9954304757081348 -0.04252737525620799 0.003868531570261295 0.017442639650071007
0.06877865777407 0.004187923950230227 0.019289732805625796 0.995004904057224 -0.04685793986463016 0.0009738323004192975 0.009983098305684746 -0.0008362699684340816 -0.006246464533217424
 0.995004904057224 -0.04685793986463016 0.004189245671009641 0.019289597919546604 -0.000836576662296498 -0.0062464574141092985 0.00096609153377485 0.009984044390036704
 0.0009738323004192975 0.009983098305684746 -0.000836576662296498 -0.0062464574141092985 0.004187879917572322 0.019290650801003534 0.9950049321578676 -0.04685702443726155
 -0.0008362699684340816 -0.006246464533217424 0.00096609153377485 0.009984044390036704 0.9950049321578676 -0.04685702443726155 0.004189346815074204 0.019290519088359877
0.07503126302626001 0.004526987537603029 0.021154296261926296 0.9945546185751515 -0.05120195377316125 0.0011180858424300916 0.01089302922984814 -0.0009575557547321138 -0.006819251169185888
 0.9945546185751515 -0.05120195377316125 0.004528560191481233 0.021154139240278938 -0.0009579196139273087 -0.006819239493686027 0.001108870704011378 0.010894176606829826
 0.0011180858424300916 0.01089302922984814 -0.0009579196139273087 -0.006819239493686027 0.004526935079327273 0.021155297639818514 0.9945546516546783 -0.05120095566812444
 -0.0009575557547321138 -0.006819251169185888 0.001108870704011378 0.010894176606829826 0.9945546516546783 -0.05120095566812444 0.004528680039815003 0.021155144837995972
0.08128386827845 0.004884871546969536 0.02303527306759984 0.9940792804561922 -0.055560095095337776 0.0012729812159396603 0.011802798518479598 -0.0010877561414623673 -0.007392182905574182
 0.9940792804561922 -0.055560095095337776 0.004886716956155423 0.023035091951532433 -0.0010881818823813888 -0.007392165759136681 0.0012621624170632598 0.011804173842153343
 0.0012729812159396603 0.011802798518479598 -0.0010881818823813888 -0.007392165759136681 0.004884809967306038 0.02303635788896105 0.9940793189083741 -0.05555901441582578
 -0.0010877561414623673 -0.007392182905574182 0.0012621624170632598 0.011804173842153343 0.9940793189083741 -0.05555901441582578 0.004886857070753953 0.023036182148411376
0.08753647353064001 0.005261899416686679 0.02493233632202225 0.9935785756304405 -0.05993218887494885 0.0014386055574511266 0.012712253177730084 -0.00122696091985672 -0.007965104744703468
 0.9935785756304405 -0.05993218887494885 0.005264039424586462 0.024932129078038767 -0.0012274532221465703 -0.007965081151977508 0.001426053646885504 0.012713884885388401
 0.0014386055574511266 0.012712253177730084 -0.0012274532221465703 -0.007965081151977508 0.005261828028208 0.02493350466218978 0.9935786198453908 -0.05993102572916237
 -0.00122696091985672 -0.007965104744703468 0.001426053646885504 0.012713884885388401 0.9935786198453908 -0.05993102572916237 0.005264201364297792 0.0249333040542724
0.09378907878283 0.005658392145752323 0.026845163836383804 0.993052191483053 -0.06431804277755775 0.0016150434555181267 0.01362123616063193 -0.0013752572063318723 -0.008537859212258135
 0.993052191483053 -0.06431804277755775 0.00566084862102816 0.026844928355243155 -0.0013758207125729113 -0.008537828137109004 0.00160062883805212 0.01362315449140641
 0.0016150434555181267 0.01362123616063193 -0.0013758207125729113 -0.008537828137109004 0.005658310269762451 0.026846415782550207 0.9930522418478729 -0.06431679728112837
 -0.0013752572063318723 -0.008537859212258135 0.00160062883805212 0.01362315449140641 0.9930522418478729 -0.06431679728112837 0.005661033943312779 0.026846188298206463
0.100041684035 0.006074668208228744 0.028773435881945326 0.9924998170745245 -0.06871744931438686 0.0018023768341267796 0.014529586557449263 -0.001532729348624122 -0.009110286225970782
 0.9924998170745245 -0.06871744931438686 0.0060774630487534405 0.028773169977449015 -0.0015333686640028985 -0.009110246571510551 0.0017859697906111665 0.014531823570830783
 0.0018023768341267796 0.014529586557449263 -0.0015333686640028985 -0.009110246571510551 0.006074575174389257 0.028774771538841292 0.9924998739730467 -0.06871612158474617
 -0.001532729348624122 -0.009110286225970782 0.0017859697906111665 0.014531823570830783 0.9924998739730467 -0.06871612158474617 0.006077673310057542 0.02877451508703413
0.1059090909091 0.006483573255141205 0.030596677180023363 0.9919575590930926 -0.0728579550357144 0.001988149198657464 0.015381255141989144 -0.0016889182145085754 -0.00964700548180303
 0.9919575590930926 -0.0728579550357144 0.006486705561189616 0.030596380668205855 -0.0016896328234606577 -0.00964695672488085 0.001969754404596005 0.015383822000449835
 0.001988149198657464 0.015381255141989144 -0.0016896328234606577 -0.00964695672488085 0.006483469148525621 0.03059809149559584 0.9919576224683818 -0.0728565502529215
 -0.0016889182145085754 -0.00964700548180303 0.001969754404596005 0.015383822000449835 0.9919576224683818 -0.0728565502529215 0.006486940640251014 0.03059780588464515
0.1062942892872 0.006511043450875038 0.030716833501312202 0.991921143348635 -0.07313018751108667 0.0020006848380416404 0.015437139751572198 -0.0016994588293116825 -0.009682223005583525
 0.991921143348635 -0.07313018751108667 0.006514198588023635 0.030716534908753288 -0.0017001785212549054 -0.009682173614216074 0.001982155546482218 0.015439729345547293
 0.0020006848380416404 0.015437139751572198 -0.0017001785212549054 -0.009682173614216074 0.006510938597129913 0.030718252985402445 0.9919212071608692 -0.07312877767298112
 -0.0016994588293116825 -0.009682223005583525 0.001982155546482218 0.015439729345547293 0.9919212071608692 -0.07312877767298112 0.006514435344388558 0.03071796539144637
0.11254689453939999 0.006967830978544561 0.0326750372239318 0.9913158633299773 -0.07755602417949521 0.0022100437196142606 0.01634372754682684 -0.0018755241671092504 -0.010253504018158185
 0.9913158633299773 -0.07755602417949521 0.006971368380972101 0.03267470359864145 -0.0018763287647846315 -0.010253443671651777 0.0021892622775536844 0.01634670547574701
 0.0022100437196142606 0.01634372754682684 -0.0018763287647846315 -0.010253443671651777 0.006967713650714554 0.03267654066492039 0.9913159344322722 -0.07755453236354815
 -0.0018755241671092504 -0.010253504018158185 0.0021892622775536844 0.01634670547574701 0.9913159344322722 -0.07755453236354815 0.006971633188956198 0.032676219668572155
0.11879949979160001 0.007445341029630322 0.034647726067835324 0.9906836723161796 -0.08199471491144476 0.0024305267265426265 0.017249178279432082 -0.002061000816801566 -0.010823960945756208
 0.9906836723161796 -0.08199471491144476 0.007449282707780159 0.03464735498331449 -0.0020618948106222185 -0.010823888365308431 0.0024073631745648843 0.01725258217152743
 0.0024305267265426265 0.017249178279432082 -0.0020618948106222185 -0.010823888365308431 0.007445210581710744 0.03464931360962922 0.9906837510811877 -0.08199314125303626
 -0.002061000816801566 -0.010823960945756208 0.0024073631745648843 0.01725258217152743 0.9906837510811877 -0.08199314125303626 0.0074495771254279985 0.034648956862946834
0.1250521050438 0.007943880844923607 0.03663457675628908 0.9900242680649174 -0.08644600486555397 0.0026622039908669706 0.01815331691822257 -0.0022559610678085295 -0.011393422671812068
 0.9900242680649174 -0.08644600486555397 0.007948248855172969 0.03663416570227184 -0.0022569489089288965 -0.011393336518169693 0.002636528336920037 0.018157186292758476
 0.0026622039908669706 0.01815331691822257 -0.0022569489089288965 -0.011393336518169693 0.007943736638570252 0.03663624855683215 0.9900243548612749 -0.08644434950491046
 -0.0022559610678085295 -0.011393422671812068 0.002636528336920037 0.018157186292758476 0.9900243548612749 -0.08644434950491046 0.007948574442315394 0.03663585362190983
0.131304710296 0.008463754529299936 0.038635263095285116 0.9893373509771692 -0.09090962940161632 0.002905142418634837 0.019055965156774754 -0.0024604739421795617 -0.011961715282927998
 0.9893373509771692 -0.09090962940161632 0.008468570977738843 0.03863480947564776 -0.002461560041892061 -0.011961614156483362 0.0028768246631947925 0.01906034144086253
 0.002905142418634837 0.019055965156774754 -0.002461560041892061 -0.011961614156483362 0.008463595933628588 0.038637019326425694 0.9893374461691816 -0.09090789248378889
 -0.0024604739421795617 -0.011961715282927998 0.0028768246631947925 0.01906034144086253 0.9893374461691816 -0.09090789248378889 0.008468929296999085 0.0386365836728942
0.1375573155481 0.008888384634355208 0.04038732793081894 0.9887395523071956 -0.09512305893458549 0.0031296466804511328 0.019930623859189874 -0.0026448810351569316 -0.012502339878723002
 0.9887395523071956 -0.09512305893458549 0.00889367210742541 0.04038683999427795 -0.0026460716642392225 -0.012502223609819077 0.0030986190526304867 0.019935501967401906
 0.0031296466804511328 0.019930623859189874 -0.0026460716642392225 -0.012502223609819077 0.008888209938563558 0.040389169407676215 0.9887396562664057 -0.09512124061063107
 -0.0026448810351569316 -0.012502339878723002 0.0030986190526304867 0.019935501967401906 0.9887396562664057 -0.09512124061063107 0.008894065796801506 0.04038870010116061
0.1438099208003 0.009328010822546738 0.04212967899026674 0.9881205974286161 -0.09932534250707363 0.003363221282423938 0.020801503238371245 -0.0028366607988918615 -0.013039518420953569
 0.9881205974286161 -0.09932534250707363 0.009333791526927506 0.042129154875617414 -0.00283796064643864 -0.013039385636695044 0.003329365010576819 0.020806921223816523
 0.003363221282423938 0.020801503238371245 -0.00283796064643864 -0.013039385636695044 0.009327819211561682 0.04213160597754515 0.98812071051353 -0.09932344293318729
 -0.0028366607988918615 -0.013039518420953569 0.003329365010576819 0.020806921223816523 0.98812071051353 -0.09932344293318729 0.009334222350479805 0.04213110108333124
0.1500625260525 0.009782471388282562 0.04386215689692204 0.9874806525201439 -0.10351636192334863 0.0036057820476020613 0.021668506054888487 -0.0030357316023983884 -0.013573159595879554
 0.9874806525201439 -0.10351636192334863 0.009788767572107159 0.04386159463998741 -0.003037145341708563 -0.013573008869013593 0.003568979070490853 0.021674503369348536
 0.0036057820476020613 0.021668506054888487 -0.003037145341708563 -0.013573008869013593 0.009782262041588392 0.04386416967490214 0.9874807750851898 -0.10351438126056589
 -0.0030357316023983884 -0.013573159595879554 0.003568979070490853 0.021674503369348536 0.9874807750851898 -0.10351438126056589 0.009789237310307532 0.04386362714548446
0.15631513130469998 0.010251603389817584 0.04558460705861458 0.9868198847052361 -0.10769599970142824 0.003857243753263024 0.02253153679592438 -0.0032420107613900205 -0.01410317409818246
 0.9868198847052361 -0.10769599970142824 0.010258437344449225 0.04558400459002477 -0.0032435430497184587 -0.014103003947520868 0.0038173767311377943 0.022538154275528147
