! Created with skrf 1.8.0 (http://scikit-rf.org).
# GHz S RI R 50.0 
!freq ReS11 ImS11 ReS12 ImS12 ReS13 ImS13
! ReS14 ImS14
! ReS21 ImS21 ReS22 ImS22 ReS23 ImS23
! ReS24 ImS24
! ReS31 ImS31 ReS32 ImS32 ReS33 ImS33
! ReS34 ImS34
! ReS41 ImS41 ReS42 ImS42 ReS43 ImS43
! ReS44 ImS44
!
0.0 0.001801991978773 0.0 0.9981980079587 0.0 6.965981912893e-05 0.0 -6.965981939477e-05 8.53086748509878e-21
 0.9981980079587 0.0 0.0018019919788 0.0 -6.965981939518e-05 8.530867485148989e-21 6.965981912813e-05 0.0
 6.965981912893e-05 0.0 -6.965981939518e-05 8.530867485148989e-21 0.001801992010047 0.0 0.9981980079899 0.0
 -6.965981939477e-05 8.53086748509878e-21 6.965981912813e-05 0.0 0.9981980079899 0.0 0.001801992010053 0.0
0.005 0.001939597357886302 0.0014786046028408756 0.9980237975603069 -0.0037734375366852307 9.72734558860643e-05 0.0007363500232877038 -9.46057098110591e-05 -0.0004674841078523487
 0.9980237975603069 -0.0037734375366852307 0.001939607125678891 0.0014785989599715166 -9.460427225966217e-05 -0.000467483102064258 9.722457301382269e-05 0.0007363688183542757
 9.72734558860643e-05 0.0007363500232877038 -9.460427225966217e-05 -0.000467483102064258 0.001939597213010165 0.001478537484798326 0.9980237971777999 -0.0037735045850793556
 -9.46057098110591e-05 -0.0004674841078523487 9.722457301382269e-05 0.0007363688183542757 0.9980237971777999 -0.0037735045850793556 0.0019396065107726958 0.0014785319848769495
0.006252605252188 0.001975943628931766 0.001854011975007241 0.9979774564014431 -0.004717675953498583 0.00010528863251426237 0.0009207930670579161 -0.00010175540374413676 -0.0005849372009137641
 0.9979774564014431 -0.004717675953498583 0.0019759588967119134 0.0018540047722672586 -0.00010175316604633465 -0.0005849359634414641 0.00010521226038714751 0.000920817463408609
 0.00010528863251426237 0.0009207930670579161 -0.00010175316604633465 -0.0005849359634414641 0.001975943474367956 0.0018539280750832928 0.9979774558758863 -0.00471775977663124
 -0.00010175540374413676 -0.0005849372009137641 0.00010521226038714751 0.000920817463408609 0.9979774558758863 -0.00471775977663124 0.0019759580084676635 0.0018539210343550988
0.01250521050438 0.0021687711617396437 0.003746281351785083 0.9977298184952672 -0.009435819789854118 0.00015192004165040607 0.0018419258545697699 -0.00014289298744521754 -0.0011725140226796556
 0.9977298184952672 -0.009435819789854118 0.0021688321112943855 0.003746265417879652 -0.00014288415985433384 -0.0011725117685256184 0.00015161556449425897 0.0018419845091533658
 0.00015192004165040607 0.0018419258545697699 -0.00014288415985433384 -0.0011725117685256184 0.0021687711231706775 0.0037461139119386766 0.9977298169830876 -0.009435987191811325
 -0.00014289298744521754 -0.0011725140226796556 0.00015161556449425897 0.0018419845091533658 0.9977298169830876 -0.009435987191811325 0.0021688291630636634 0.0037460981353126875
0.01875781575657 0.0023809484517350386 0.005664893631222805 0.9974547489853561 -0.014165845478241764 0.00020967046131063316 0.0027639381014371097 -0.0001932085259936571 -0.0017618886491176493
 0.9974547489853561 -0.014165845478241764 0.0023810853810760516 0.005664867281486861 -0.00019318882817138513 -0.0017618856521748548 0.00020898667161529965 0.002764043083298723
 0.00020967046131063316 0.0027639381014371097 -0.00019318882817138513 -0.0017618856521748548 0.002380948769310502 0.005664642888207767 0.9974547460059011 -0.014166096371361446
 -0.0001932085259936571 -0.0017618886491176493 0.00020898667161529965 0.002764043083298723 0.9974547460059011 -0.014166096371361446 0.002381079199789265 0.005664616522789452
0.02501042100875 0.0026129320628540064 0.0076071076495572675 0.9971518875596583 -0.018909977027027753 0.0002786573578716072 0.0036868165143109865 -0.000252832642527574 -0.0023527635648958466
 0.9971518875596583 -0.018909977027027753 0.0026131751930224146 0.007607069050968804 -0.00025279784208637657 -0.002352760156123033 0.00027744311515684163 0.003686982026447726
 0.0002786573578716072 0.0036868165143109865 -0.00025279784208637657 -0.002352760156123033 0.0026129329775012285 0.0076067738250992206 0.9971518826404244 -0.018910311373001237
 -0.000252832642527574 -0.0023527635648958466 0.00027744311515684163 0.003686982026447726 0.9971518826404244 -0.018910311373001237 0.002613164631150143 0.00760673486672804
0.03126302626094 0.002865159563135612 0.009571478691170957 0.9968208576067848 -0.023669125364395752 0.0003589978564257344 0.0046104656333541775 -0.00032189157236853206 -0.002944914710170098
 0.9968208576067848 -0.023669125364395752 0.0028655390540617337 0.009571425863311044 -0.00032183747706836404 -0.00294491127813851 0.0003571019517582268 0.004610708022720774
 0.0003589978564257344 0.0046104656333541775 -0.00032183747706836404 -0.00294491127813851 0.0028651613070347234 0.009571062017862206 0.9968208502727947 -0.023669543148901014
 -0.00032189157236853206 -0.002944914710170098 0.0003571019517582268 0.004610708022720774 0.9968208502727947 -0.023669543148901014 0.0028655229783481548 0.009571008311460972
0.037515631513130004 0.0031380583436855665 0.011557038965918781 0.9964612754399944 -0.028443707805328466 0.0004508075978817456 0.0055347567560427 -0.00040050798871501733 -0.0035381425944512185
 0.9964612754399944 -0.028443707805328466 0.0031386043049149307 0.011556969780944924 -0.00040043044269988984 -0.003538139585549642 0.0004480786983471694 0.005535094532308612
 0.0004508075978817456 0.0055347567560427 -0.00040043044269988984 -0.003538139585549642 0.003138061145319316 0.011556539688286611 0.9964612652164053 -0.028444209037289843
 -0.00040050798871501733 -0.0035381425944512185 0.0004480786983471694 0.005535094532308612 0.9964612652164053 -0.028444209037289843 0.003138581599926759 0.011556468927625125
0.043768236765320004 0.0034320490096854633 0.013563048211972812 0.9960727540940599 -0.033233897380988246 0.0005542001748778248 0.006459542833378603 -0.0004888012719783684 -0.0041322574408635395
 0.9960727540940599 -0.033233897380988246 0.0034327915079273444 0.013562960394283397 -0.0004886961536590836 -0.004132255359407636 0.0005504868020544689 0.006459996690294996
 0.0005542001748778248 0.006459542833378603 -0.0004886961536590836 -0.004132255359407636 0.0034320530902695037 0.013562466600168558 0.9960727405016623 -0.03323448207924248
 -0.0004888012719783684 -0.0041322574408635395 0.0005504868020544689 0.006459996690294996 0.9960727405016623 -0.03323448207924248 0.0034327610716765804 0.013562376327230277
0.050020842017509996 0.0037475469234412874 0.015588890632666606 0.9956549052805754 -0.03803972583397345 0.0006692867757308086 0.007384664628889654 -0.0005868875768393862 -0.004727073073184276
 0.9956549052805754 -0.03803972583397345 0.003748515990269084 0.015588781758221724 -0.0005867507977217869 -0.004727072481498046 0.0006644373027415004 0.007385257466655235
 0.0006692867757308086 0.007384664628889654 -0.0005867507977217869 -0.004727072481498046 0.0037475525007812137 0.015588226978931035 0.9956548878378871 -0.03804039403104968
 -0.0005868875768393862 -0.004727073073184276 0.0006644373027415004 0.007385257466655235 0.9956548878378871 -0.03804039403104968 0.003748476736831906 0.0155881145830685
0.055454545454549996 0.004039509911067299 0.017365093878516164 0.9952676628300037 -0.042228792930494315 0.0007788818469225468 0.008188765561937959 -0.0006801684527480947 -0.005244410908615543
 0.9952676628300037 -0.042228792930494315 0.004040700239110315 0.01736496462053709 -0.0006800008642607401 -0.005244412113343173 0.000772921819619654 0.008189499506725262
 0.0007788818469225468 0.008188765561937959 -0.0006800008642607401 -0.005244412113343173 0.004039516963629763 0.017364359178555108 0.9952676416478587 -0.04222953373160918
 -0.0006801684527480947 -0.005244410908615543 0.000772921819619654 0.008189499506725262 0.9952676416478587 -0.04222953373160918 0.004040652453637399 0.01736422531780444
0.056273447269699996 0.004084962976391859 0.017634024320591756 0.995207340577283 -0.042861134131173144 0.0007961759170039529 0.00830995375378821 -0.0006948798123653527 -0.005322403933889245
 0.995207340577283 -0.042861134131173144 0.004086188613945824 0.01763389181599506 -0.0006947073163704489 -0.005322405452343781 0.0007900385766870796 0.008310710701710444
 0.0007961759170039529 0.00830995375378821 -0.0006947073163704489 -0.005322405452343781 0.004084970265095049 0.01763327893600858 0.9952073187993785 -0.04286188587677519
 -0.0006948798123653527 -0.005322403933889245 0.0007900385766870796 0.008310710701710444 0.9952073187993785 -0.04286188587677519 0.0040861394729607235 0.017633141653000586
0.06252605252188 0.0044447039721104845 0.01969795345454766 0.9947296722346206 -0.04769800021088952 0.0009349732216043709 0.00923523436030124 -0.00081288757661912 -0.0059180634520531825
 0.9947296722346206 -0.04769800021088952 0.004446216158708469 0.019697794596013816 -0.0008126753397355287 -0.005918067759115431 0.0009273961216403321 0.00923618279947734
 0.0009349732216043709 0.00923523436030124 -0.0008126753397355287 -0.005918067759115431 0.0044447131843926655 0.019697126674369483 0.9947296456326967 -0.047698835566790776
 -0.00081288757661912 -0.0059180634520531825 0.0009273961216403321 0.00923618279947734 0.9947296456326967 -0.047698835566790776 0.0044461560755995255 0.019696961585090943
0.06877865777407 0.004827172801394349 0.02178021172999481 0.9942215137800995 -0.052550155505369116 0.0010857812228565742 0.0101603241487996 -0.0009410170639068494 -0.006513863106209266
 0.9942215137800995 -0.052550155505369116 0.0048290014975962345 0.021780023641902867 -0.0009407610941231777 -0.006513870938456731 0.001076612366933207 0.010161493734587121
 0.0010857812228565742 0.0101603241487996 -0.0009407610941231777 -0.006513870938456731 0.004827184147359974 0.021779303914459376 0.9942214818600332 -0.05255107454473686
 -0.0009410170639068494 -0.006513863106209266 0.001076612366933207 0.010161493734587121 0.9942214818600332 -0.05255107454473686 0.00482892943284832 0.021779107943461412
0.07503126302626001 0.0052327684887594535 0.023880351872890247 0.9936824804991271 -0.057417395389702565 0.0012486991832046021 0.011085035040887507 -0.0010793709571733925 -0.007109611830328686
 0.9936824804991271 -0.057417395389702565 0.005234943642341184 0.023880131526284865 -0.0010790672945354513 -0.007109623982466928 0.0012377864955797591 0.011086457725045988
 0.0012486991832046021 0.011085035040887507 -0.0010790672945354513 -0.007109623982466928 0.005232782178172456 0.02387936340692012 0.9936824427620915 -0.05741839819753439
 -0.0010793709571733925 -0.007109611830328686 0.0012377864955797591 0.011086457725045988 0.9936824427620915 -0.05741839819753439 0.005234858572799046 0.02387913332072963
0.08128386827845 0.005661886163436375 0.025997938658676382 0.9931121898461462 -0.06229948613616088 0.0014238229227936845 0.012009173629089086 -0.0012280483091713027 -0.007705115652733376
 0.9931121898461462 -0.06229948613616088 0.005664437714826126 0.025997682869392087 -0.001227693026024039 -0.007705132977588341 0.0014110142762752476 0.012010883681577806
 0.0014238229227936845 0.012009173629089086 -0.001227693026024039 -0.007705132977588341 0.005661902406462405 0.025996869949761206 0.9931121457877043 -0.06230057281148727
 -0.0012280483091713027 -0.007705115652733376 0.0014110142762752476 0.012010883681577806 0.9931121457877043 -0.06230057281148727 0.005664338633417805 0.025996602355095124
0.08753647353064001 0.00611491697527258 0.028132544100494317 0.9925102618052297 -0.06719616971042769 0.0016112446539225799 0.012932541517191379 -0.0013871444172328079 -0.008300177454138127
 0.9925102618052297 -0.06719616971042769 0.006117874862854039 0.028132249527154502 -0.001386733618520594 -0.008300200862637663 0.0015963879004251686 0.012934575547379165
 0.0016112446539225799 0.012932541517191379 -0.001386733618520594 -0.008300200862637663 0.006114935983188199 0.028131395584404775 0.9925102109145094 -0.06719734036058223
 -0.0013871444172328079 -0.008300177454138127 0.0015963879004251686 0.012934575547379165 0.9925102109145094 -0.06719734036058223 0.006117760778650503 0.028131086926041986
0.09378907878283 0.006592247975310439 0.030283744025091257 0.9918763192200365 -0.0721071671918332 0.0018110528204989475 0.013854935573632928 -0.0015567506925927405 -0.008894596822685065
 0.9918763192200365 -0.0721071671918332 0.006595642140170281 0.030283407166809627 -0.0015562805162108915 -0.00889462728383624 0.0017939958237835401 0.013857332551033887
 0.0018110528204989475 0.013854935573632928 -0.0015562805162108915 -0.00889462728383624 0.006592269961474575 0.030282516159672878 0.9918762609792748 -0.07210842193873762
 -0.0015567506925927405 -0.008894596822685065 0.0017939958237835401 0.013857332551033887 0.9918762609792748 -0.07210842193873762 0.006595512078984386 0.030282162718076277
0.100041684035 0.007094261969291161 0.03245111556669395 0.9912099881007718 -0.07703218128767189 0.0020233319400879465 0.014776148141821398 -0.0017369545269051109 -0.00948816996222512
 0.9912099881007718 -0.07703218128767189 0.00709812236056907 0.03245073276051692 -0.0017364211441966279 -0.009488208503063188 0.0020039226103478517 0.014778949416225142
 0.0020233319400879465 0.014776148141821398 -0.0017364211441966279 -0.009488208503063188 0.007094287150410388 0.03244980883618879 0.9912099219853315 -0.07703352026344645
 -0.0017369545269051109 -0.00948816996222512 0.0020039226103478517 0.014778949416225142 0.9912099219853315 -0.07703352026344645 0.007097975365151313 0.03244940672501192
0.1059090909091 0.007588134901259222 0.03449929461573995 0.9905549198929591 -0.08166625331273145 0.0022339472799379565 0.015639345082748033 -0.0019157692772924274 -0.010044221210873101
 0.9905549198929591 -0.08166625331273145 0.007592460046696184 0.03449886521406999 -0.0019151731302868207 -0.010044268319339954 0.0022121922843052954 0.01564256549168607
 0.0022339472799379565 0.015639345082748033 -0.0019151731302868207 -0.010044268319339954 0.007588163281050581 0.034497914341559244 0.9905548459033388 -0.08166767145857023
 -0.0019157692772924274 -0.010044221210873101 0.0022121922843052954 0.01564256549168607 0.9905548459033388 -0.08166767145857023 0.007592296304608994 0.034497462873494714
0.1062942892872 0.0076213373529913616 0.034634235297764895 0.9905108979179805 -0.08197089822310881 0.0022481624491917274 0.01569596721538354 -0.001927839155748368 -0.01008068964623178
 0.9905108979179805 -0.08197089822310881 0.007625693933013285 0.03463380271584462 -0.001927238772036732 -0.010080737351751204 0.0022262487792642535 0.01569921653639756
 0.0022481624491917274 0.01569596721538354 -0.001927238772036732 -0.010080737351751204 0.007621365949586966 0.03463285021145629 0.9905108233948049 -0.08197232157129769
 -0.001927839155748368 -0.01008068964623178 0.0022262487792642535 0.01569921653639756 0.9905108233948049 -0.08197232157129769 0.007625529062826182 0.03463239537473056
0.11254689453939999 0.008173847931449218 0.036832677814365306 0.989778681882011 -0.08692298918927464 0.0024856205498580836 0.016614176592215136 -0.002129483521280194 -0.0106719452034546
 0.989778681882011 -0.08692298918927464 0.008178730680375874 0.03683219146095977 -0.0021288123763145753 -0.010672003216532309 0.0024610506531075834 0.016617920127982976
 0.0024856205498580836 0.016614176592215136 -0.0021288123763145753 -0.010672003216532309 0.008173880169232378 0.03683121490574229 0.9897785984098909 -0.08692449706561944
 -0.002129483521280194 -0.0106719452034546 0.0024610506531075834 0.016617920127982976 0.9897785984098909 -0.08692449706561944 0.008178547012626661 0.03683070311483471
0.11879949979160001 0.008752162728026506 0.03904601463927554 0.9890129772168945 -0.09188811148675141 0.002735778058715652 0.017530556016858215 -0.0023419621332023354 -0.011261722525951118
 0.9890129772168945 -0.09188811148675141 0.008757601649222001 0.03904547034736177 -0.0023412165018743105 -0.011261792047261824 0.0027084002082841865 0.01753484237224433
 0.002735778058715652 0.017530556016858215 -0.0023412165018743105 -0.011261792047261824 0.008752198838506375 0.03904447446899283 0.9890128842453766 -0.09188970405598178
 -0.0023419621332023354 -0.011261722525951118 0.0027084002082841865 0.01753484237224433 0.9890128842453766 -0.09188970405598178 0.008757398278512666 0.03904390131930111
0.1250521050438 0.009356645784075874 0.041273813379693665 0.9882134254273391 -0.09686590942790299 0.0029987022574611572 0.01844488131190237 -0.002565344930020312 -0.01184980409908242
 0.9882134254273391 -0.09686590942790299 0.009362670908781635 0.04127320680734785 -0.0025645211228663596 -0.011849886386984147 0.0029683649264670995 0.018449761545809455
 0.0029987022574611572 0.01844488131190237 -0.0025645211228663596 -0.011849886386984147 0.009356686005896429 0.04127219653184751 0.9882133223965572 -0.09686758686727591
 -0.002565344930020312 -0.01184980409908242 0.0029683649264670995 0.018449761545809455 0.9882133223965572 -0.09686758686727591 0.009362446947961853 0.041271557439248555
0.131304710296 0.009987655951619701 0.043515637055864635 0.9873796725604425 -0.10185601508191501 0.0032744557451576824 0.019356924506536914 -0.0027996971394557567 -0.012435969045364545
 0.9873796725604425 -0.10185601508191501 0.00999429734376717 0.04351496368244534 -0.0027987915034094427 -0.012436065415744 0.0032410076484447304 0.019362452148433577
 0.0032744557451576824 0.019356924506536914 -0.0027987915034094427 -0.012436065415744 0.00998770053130476 0.04351394413961303 0.9873795589002159 -0.10185777757926165
 -0.0027996971394557567 -0.012435969045364545 0.0032410076484447304 0.019362452148433577 0.9873795589002159 -0.10185777757926165 0.009994051923836721 0.04351323433669149
0.1375573155481 0.01050956686396991 0.04548105646131668 0.986647419255885 -0.10656788325374697 0.003530718957453058 0.020238991566985536 -0.003012742353281482 -0.01299252423729633
 0.986647419255885 -0.10656788325374697 0.010516857882213702 0.04548032611768707 -0.0030117496999122095 -0.01299263496085273 0.0034940784094041532 0.02024516389452779
 0.003530718957453058 0.020238991566985536 -0.0030117496999122095 -0.01299263496085273 0.01050961713242193 0.045479287338467934 0.986647294476499 -0.10656973088564105
 -0.003012742353281482 -0.01299252423729633 0.0034940784094041532 0.02024516389452779 0.986647294476499 -0.10656973088564105 0.010516588904852485 0.04547851772461977
0.1438099208003 0.01105010726803748 0.04743452651225136 0.9858888864299158 -0.11126615223222783 0.0037972638949479286 0.021116413324109285 -0.003234222437934596 -0.013544816691582093
 0.9858888864299158 -0.11126615223222783 0.011058078543351129 0.04743373556018328 -0.0032331388896057107 -0.013544943069665057 0.0037572924973362227 0.021123279903461807
 0.0037972638949479286 0.021116413324109285 -0.0032331388896057107 -0.013544943069665057 0.011050163678468828 0.04743268173226782 0.9858887499638036 -0.11126808517565645
 -0.003234222437934596 -0.013544816691582093 0.0037572924973362227 0.021123279903461807 0.9858887499638036 -0.11126808517565645 0.011057784942175217 0.047431848566604415
0.1500625260525 0.011609061252797625 0.04937583570019331 0.9851042950109483 -0.11595065551632751 0.00407398127276661 0.021989066327450738 -0.0034640312886553577 -0.014092731474474637
 0.9851042950109483 -0.11595065551632751 0.011617743470647006 0.049374980305127526 -0.003462852984045635 -0.014092874860119972 0.004030541655802265 0.021996678536166332
 0.00407398127276661 0.021989066327450738 -0.003462852984045635 -0.014092874860119972 0.011609124278604593 0.049373915831370234 0.9851041462824753 -0.11595267395311627
 -0.0034640312886553577 -0.014092731474474637 0.004030541655802265 0.021996678536166332 0.9851041462824753 -0.11595267395311627 0.011617424182089437 0.049373015178648234
0.15631513130469998 0.012186211071236063 0.05130477882105133 0.9842938673834294 -0.12062122832742321 0.0043607603335333416 0.02285682962754767 -0.00370206133611761 -0.014636156406000958
 0.9842938673834294 -0.12062122832742321 0.01219563497291405 0.0513038549487342 -0.0037007844306595687 -0.014636318203502394 0.004313716174912573 0.022865240632132793
