! Created with skrf 1.8.0 (http://scikit-rf.org).
# GHz S RI R 50.0 
!freq ReS11 ImS11 ReS12 ImS12 ReS13 ImS13
! ReS14 ImS14
! ReS21 ImS21 ReS22 ImS22 ReS23 ImS23
! ReS24 ImS24
! ReS31 ImS31 ReS32 ImS32 ReS33 ImS33
! ReS34 ImS34
! ReS41 ImS41 ReS42 ImS42 ReS43 ImS43
! ReS44 ImS44
!
0.0 0.00153914902735 0.0 0.9984608509442 0.0 5.950418807806e-05 0.0 -5.950418825531e-05 7.287161368272692e-21
 0.9984608509442 0.0 0.001539149027379 0.0 -5.95041882555e-05 7.28716136829596e-21 5.950418807747e-05 0.0
 5.950418807806e-05 0.0 -5.95041882555e-05 7.28716136829596e-21 0.00153914904155 0.0 0.9984608509584 0.0
 -5.950418825531e-05 7.287161368272692e-21 5.950418807747e-05 0.0 0.9984608509584 0.0 0.001539149041571 0.0
0.005 0.0016560246713137007 0.0012565166509013403 0.9983129943705755 -0.003224244233546081 8.3712458942231e-05 0.0006717173487502503 -8.125932148014031e-05 -0.0004188095338864882
 0.9983129943705755 -0.003224244233546081 0.0016560140137903668 0.0012565228450876049 -8.125754056567039e-05 -0.0004188081285264622 8.377912471263635e-05 0.0006716918710400444
 8.3712458942231e-05 0.0006717173487502503 -8.125754056567039e-05 -0.0004188081285264622 0.001656025417925131 0.0012564488983717037 0.9983129940124497 -0.003224311305844483
 -8.125932148014031e-05 -0.0004188095338864882 8.377912471263635e-05 0.0006716918710400444 0.9983129940124497 -0.003224311305844483 0.0016560125586667217 0.0012564564606207915
0.006252605252188 0.0016866767549508974 0.0015756012095658471 0.9982739754217231 -0.004031095456714175 9.061193935963312e-05 0.0008399657878198218 -8.740189267138378e-05 -0.0005240571645194509
 0.9982739754217231 -0.004031095456714175 0.001686660095925816 0.00157560911194268 -8.739912171017946e-05 -0.0005240554309208626 9.071609739526442e-05 0.0008399327212584112
 9.061193935963312e-05 0.0008399657878198218 -8.739912171017946e-05 -0.0005240554309208626 0.001686677998407365 0.0015755165287648827 0.998273974937711 -0.004031179285826795
 -8.740189267138378e-05 -0.0005240571645194509 9.071609739526442e-05 0.0008399327212584112 0.998273974937711 -0.004031179285826795 0.0016866578968491347 0.001575526151321232
0.01250521050438 0.0018480306867470714 0.00318430802099365 0.9980672376288418 -0.00806301071113507 0.00013009154195531565 0.0016802528997732992 -0.0001222554948546099 -0.0010506712927430592
 0.9980672376288418 -0.00806301071113507 0.0018479641749466686 0.0031843254307827094 -0.00012224457822164597 -0.0010506680784346878 0.00013050686746615377 0.0016801736020069155
 0.00013009154195531565 0.0016802528997732992 -0.00012224457822164597 -0.0010506680784346878 0.001848036212406864 0.0031841389074716378 0.9980672362468818 -0.008063178121442116
 -0.0001222554948546099 -0.0010506712927430592 0.00013050686746615377 0.0016801736020069155 0.9980672362468818 -0.008063178121442116 0.0018479559413580049 0.003184159878889624
0.01875781575657 0.002023563132798328 0.004815983069650656 0.9978403805078113 -0.012105561299785433 0.000178035279809838 0.0025214432071297135 -0.00016417264522768449 -0.0015790619969312993
 0.9978403805078113 -0.012105561299785433 0.0020234136926702913 0.004816011684342171 -0.00016414830548005675 -0.0015790576022926077 0.0001789681852208725 0.0025213019225687255
 0.000178035279809838 0.0025214432071297135 -0.00016414830548005675 -0.0015790576022926077 0.002023575989851144 0.004815729606567007 0.9978403778218807 -0.01210581223823423
 -0.00016417264522768449 -0.0015790619969312993 0.0001789681852208725 0.0025213019225687255 0.9978403778218807 -0.01210581223823423 0.0020233956069020025 0.00481576380753675
0.02501042100875 0.0022136160027903585 0.006468336101820375 0.9975931368626347 -0.016160705030143704 0.0002345363175622718 0.003363576989845382 -0.00021325742977211138 -0.0021089845405459695
 0.9975931368626347 -0.016160705030143704 0.002213350635709472 0.006468377701967856 -0.00021321445403173653 -0.002108979318884504 0.00023619324290458953 0.003363355467707844
 0.0002345363175622718 0.003363576989845382 -0.00021321445403173653 -0.002108979318884504 0.0022136392435156147 0.006467998363769267 0.9975931324617638 -0.016161039483863465
 -0.00021325742977211138 -0.0021089845405459695 0.00023619324290458953 0.003363355467707844 0.9975931324617638 -0.016161039483863465 0.0022133188815580203 0.006468047817058674
0.03126302626094 0.0024185170573686817 0.008140187461489546 0.9973252258689483 -0.02022927845949403 0.00029968815740522855 0.004206615187316622 -0.00026961095805290767 -0.0026402676629073167
 0.9973252258689483 -0.02022927845949403 0.002418102824108788 0.008140243908709347 -0.0002695441869875035 -0.002640262021084044 0.00030227576116043494 0.004206292669262522
 0.00029968815740522855 0.004206615187316622 -0.0002695441869875035 -0.002640262021084044 0.0024185537412783967 0.008139765515508234 0.9973252193383392 -0.02022969645483512
 -0.00026961095805290767 -0.0026402676629073167 0.00030227576116043494 0.004206292669262522 0.9973252193383392 -0.02022969645483512 0.0024180535884882268 0.008139832384324077
0.037515631513130004 0.0026385869542562626 0.009830767191782974 0.9970363603495452 -0.024311697731871886 0.0003735837823763132 0.005050487427192679 -0.0003333321118419928 -0.0031727655611659303
 0.9970363603495452 -0.024311697731871886 0.002637990963248572 0.009830840427634838 -0.00033323643405349713 -0.0031727599597679928 0.0003773090250288238 0.005050040623846846
 0.0003735837823763132 0.005050487427192679 -0.00033323643405349713 -0.0031727599597679928 0.0026386401514132077 0.009830261105945363 0.9970363512719095 -0.02431219932574686
 -0.0003333321118419928 -0.0031727655611659303 0.0003773090250288238 0.005050040623846846 0.9970363512719095 -0.02431219932574686 0.002637920438168542 0.009830347693487916
0.043768236765320004 0.0028741419643865955 0.011539501736443592 0.9967262497199574 -0.028408171806263406 0.0004563152517233034 0.0058951066275577165 -0.00040451781117452373 -0.0037063432931830702
 0.9967262497199574 -0.028408171806263406 0.0028733313623219453 0.011539593781758214 -0.0004043881598221233 -0.0037063382465634264 0.00046138543328260584 0.005894509691697072
 0.0004563152517233034 0.0058951066275577165 -0.0004043881598221233 -0.0037063382465634264 0.0028742147549853493 0.011538911595783463 0.9967262376732825 -0.0284087570700847
 -0.00040451781117452373 -0.0037063432931830702 0.00046138543328260584 0.005894509691697072 0.9967262376732825 -0.0284087570700847 0.0028732357441161554 0.01153902034537176
0.050020842017509996 0.0031254952348029963 0.013265925798111727 0.9963946014828449 -0.032518790526550545 0.00054797345284019 0.00674037503957543 -0.0004832631114637468 -0.004240870740535645
 0.9963946014828449 -0.032518790526550545 0.0031244371988325362 0.013266038752459422 -0.000483094462167005 -0.00424086681679646 0.0005545962262664967 0.006739599537930114
 0.00054797345284019 0.00674037503957543 -0.000483094462167005 -0.00424086681679646 0.0031255907106582503 0.013265251685361048 0.9963945860402702 -0.03251945956520213
 -0.0004832631114637468 -0.004240870740535645 0.0005545962262664967 0.006739599537930114 0.9963945860402702 -0.03251945956520213 0.0031243126888837965 0.013265385180867577
0.055454545454549996 0.0033570003013541315 0.014780294610784018 0.9960886699906097 -0.036102542185099784 0.0006349463821385605 0.00747538439348374 -0.0005579069216839028 -0.004706062963345143
 0.9960886699906097 -0.036102542185099784 0.0033557005992195946 0.014780427501879898 -0.0005577003333839029 -0.004706060518518876 0.0006430873176495883 0.007474428591425668
 0.0006349463821385605 0.00747538439348374 -0.0005577003333839029 -0.004706060518518876 0.003357118011168755 0.014779547598293677 0.9960886512450543 -0.03610328412852213
 -0.0005579069216839028 -0.004706062963345143 0.0006430873176495883 0.007474428591425668 0.9960886512450543 -0.03610328412852213 0.003355547900846178 0.014779704806865319
0.056273447269699996 0.0033929574361321367 0.015009639057282037 0.9960411221101753 -0.03664356783177405 0.0006486479255294151 0.007586187199505838 -0.0005696612221407147 -0.004776219664645028
 0.9960411221101753 -0.03664356783177405 0.0033916191658594245 0.015009775098837743 -0.0005694485914469573 -0.004776217485611915 0.0006570312952126234 0.007585202084068123
 0.0006486479255294151 0.007586187199505838 -0.0005694485914469573 -0.004776217485611915 0.0033930787005532967 0.015008881062862882 0.9960411028381585 -0.03664432077342642
 -0.0005696612221407147 -0.004776219664645028 0.0006570312952126234 0.007585202084068123 0.9960411028381585 -0.03664432077342642 0.0033914619710912488 0.015009042029440851
0.06252605252188 0.0036768371054292388 0.01677028239735139 0.9956655176246679 -0.040782465463378686 0.0007584267183646887 0.008432431567771261 -0.000663803488631866 -0.005312262079351378
 0.9956655176246679 -0.040782465463378686 0.0036751858162865597 0.01677044378287458 -0.0006635419330617147 -0.0053122623205245955 0.0007687790289792024 0.008431203146939154
 0.0007584267183646887 0.008432431567771261 -0.0006635419330617147 -0.0053122623205245955 0.0036769872752687323 0.016769440625231502 0.9956654940836014 -0.04078330245335892
 -0.000663803488631866 -0.005312262079351378 0.0007687790289792024 0.008431203146939154 0.9956654940836014 -0.04078330245335892 0.003674992150951235 0.016769631930215658
0.06877865777407 0.003977440827919496 0.018547523720525982 0.9952674940240139 -0.044935407085414054 0.0008773962657772041 0.009278991498203317 -0.0007657793506266145 -0.005848869297293485
 0.9952674940240139 -0.044935407085414054 0.003975443744272604 0.018547712785507264 -0.0007654639659951977 -0.005848872687793454 0.0008899261841522784 0.009277483408006946
 0.0008773962657772041 0.009278991498203317 -0.0007654639659951977 -0.005848872687793454 0.003977623033102491 0.018546598280269257 0.9952674657662545 -0.04493632829370921
 -0.0007657793506266145 -0.005848869297293485 0.0008899261841522784 0.009277483408006946 0.9952674657662545 -0.04493632829370921 0.003975209829639961 0.018546822934356562
0.07503126302626001 0.004295073318384336 0.020341048958251094 0.9948467576081845 -0.04910228721421505 0.0010056412760039261 0.010125745860379579 -0.0008756762870276278 -0.006385911327539534
 0.9948467576081845 -0.04910228721421505 0.0042926976665621985 0.020341268117445396 -0.000875302207931046 -0.006385918650051372 0.0010205577676354795 0.010123919035940386
 0.0010056412760039261 0.010125745860379579 -0.000875302207931046 -0.006385918650051372 0.004295290703547594 0.020340039967645978 0.9948467241781385 -0.04910329283261039
 -0.0008756762870276278 -0.006385911327539534 0.0010205577676354795 0.010123919035940386 0.9948467241781385 -0.04910329283261039 0.0042924197331866126 0.020340301126325462
0.08128386827845 0.00463003744358098 0.022150556090484254 0.9944030152514525 -0.05328297714449666 0.0011432446251647829 0.010972569462183304 -0.0009935797522865454 -0.00692325647757941
 0.9944030152514525 -0.05328297714449666 0.004627250445414954 0.022150807838510252 -0.0009931421518148901 -0.006923268568290406 0.0011607569270612632 0.010970382109465491
 0.0011432446251647829 0.010972569462183304 -0.0009931421518148901 -0.006923268568290406 0.004630293168320794 0.022149463674082194 0.994402976184317 -0.05328406738747549
 -0.0009935797522865454 -0.00692325647757941 0.0011607569270612632 0.010970382109465491 0.994402976184317 -0.05328406738747549 0.004626924733651971 0.02214976463920481
0.08753647353064001 0.0049826342017048495 0.02397575100947124 0.9939359746355961 -0.05747732903572685 0.0012902872569773985 0.011819333340854407 -0.0011195731057014055 -0.007460771091689479
 0.9939359746355961 -0.05747732903572685 0.00497940306805381 0.023976037921713062 -0.001119067195292221 -0.007460788840209742 0.0013106048468363826 0.011816740908831556
 0.0012902872569773985 0.011819333340854407 -0.001119067195292221 -0.007460788840209742 0.004982931441461288 0.0239745753000329 0.9939359294566332 -0.05747850413869624
 -0.0011195731057014055 -0.007460771091689479 0.0013106048468363826 0.011816740908831556 0.9939359294566332 -0.05747850413869624 0.004979025829086927 0.0239749195216731
0.09378907878283 0.005353162675402791 0.02581634456885994 0.9934453444591318 -0.061685178818808376 0.0014468480843026813 0.012665904981147337 -0.0012537375370282578 -0.007998319367098258
 0.9934453444591318 -0.061685178818808376 0.005349454599458842 0.025816669302608786 -0.0012531585663333377 -0.00799834371639509 0.0014701806471472468 0.012662860134436618
 0.0014468480843026813 0.012665904981147337 -0.0012531585663333377 -0.00799834371639509 0.005353504621861577 0.02581508570645345 0.9934452926826479 -0.06168643903839918
 -0.0012537375370282578 -0.007998319367098258 0.0014701806471472468 0.012662860134436618 0.9934452926826479 -0.06168643903839918 0.005349022096578153 0.02581547678506216
0.100041684035 0.005741919963859165 0.027672050419617285 0.9929308346298856 -0.0659063483215649 0.0016130038931662749 0.013512148482496579 -0.001396151988346061 -0.008535763226293068
 0.9929308346298856 -0.0659063483215649 0.005737702114297634 0.02767241571548308 -0.001395495245236584 -0.008535795172604258 0.0016395612854926416 0.013508601074468708
 0.0016130038931662749 0.013512148482496579 -0.001395495245236584 -0.008535795172604258 0.005742309825833687 0.02767070855175383 0.9929307757589618 -0.06590769393502167
 -0.001396151988346061 -0.008535763226293068 0.0016395612854926416 0.013508601074468708 0.9929307757589618 -0.06590769393502167 0.005737210624315537 0.027671150240429692
0.1059090909091 0.00612356919335899 0.029426923958895887 0.9924260462524934 -0.06987941262782561 0.0017777164775402065 0.01430583589768094 -0.0015373644265240431 -0.009039877251734128
 0.9924260462524934 -0.06987941262782561 0.006118843088157188 0.029427329886158517 -0.001536630450736531 -0.009039917280478997 0.001807491011887886 0.014301768754041185
 0.0017777164775402065 0.01430583589768094 -0.001536630450736531 -0.009039917280478997 0.006124006953429035 0.0294255043372976 0.9924259802613916 -0.0698808386470488
 -0.0015373644265240431 -0.009039877251734128 0.001807491011887886 0.014301768754041185 0.9924259802613916 -0.0698808386470488 0.006118292872039712 0.029425997069864276
0.1062942892872 0.006149201099360248 0.02954258338519957 0.9923921564451385 -0.07014064686098591 0.0017888292479983979 0.014357924688134181 -0.0015468930734898407 -0.009072962232708983
 0.9923921564451385 -0.07014064686098591 0.006144440613987879 0.029542992068681183 -0.0015461538841397328 -0.00907300282544935 0.001818821459850583 0.014353821734645316
 0.0017888292479983979 0.014357924688134181 -0.0015461538841397328 -0.00907300282544935 0.006149642103627914 0.02954115866394351 0.9923920899705669 -0.07014207816842091
 -0.0015468930734898407 -0.009072962232708983 0.001818821459850583 0.014353821734645316 0.9923920899705669 -0.07014207816842091 0.006143886428386498 0.029541654871096026
0.11254689453939999 0.006575298953306802 0.03142765822040045 0.991829022764231 -0.0743878724578067 0.0019743963976900317 0.015203091295824556 -0.0017060349956570266 -0.009609773530087287
 0.991829022764231 -0.0743878724578067 0.0065699629323048465 0.03142811320386647 -0.001705208724623012 -0.009609823871765524 0.002008033512973911 0.01519837694951201
 0.0019743963976900317 0.015203091295824556 -0.001705208724623012 -0.009609823871765524 0.006575794345002244 0.031426150805338664 0.9918289481631307 -0.07438938977864704
 -0.0017060349956570266 -0.009609773530087287 0.002008033512973911 0.01519837694951201 0.9918289481631307 -0.07438938977864704 0.006569342358518495 0.03142670559749813
0.11879949979160001 0.007020504132901755 0.03332698864804179 0.9912411481743909 -0.07864781277978489 0.00216977518273208 0.016047502948907524 -0.001873649463233219 -0.010146051807155054
 0.9912411481743909 -0.07864781277978489 0.0070145596323113475 0.03332749293282402 -0.001872731513667074 -0.010146113053257504 0.0022072673376223656 0.01604211847412014
 0.00216977518273208 0.016047502948907524 -0.001872731513667074 -0.010146113053257504 0.007021057176423965 0.033325398703372214 0.9912410649102492 -0.07864941645489183
 -0.001873649463233219 -0.010146051807155054 0.0022072673376223656 0.01604211847412014 0.9912410649102492 -0.07864941645489183 0.007013868994927972 0.033326016308314374
0.1250521050438 0.007485104870672122 0.03524028660257661 0.9906282491529261 -0.08292024588426865 0.00237503294227788 0.016891011318809882 -0.002049805604891836 -0.01068164927638298
 0.9906282491529261 -0.08292024588426865 0.007478518895400931 0.0352408432814642 -0.00204879141865341 -0.01068172263526287 0.0024165902823097864 0.016884895067238732
 0.00237503294227788 0.016891011318809882 -0.00204879141865341 -0.01068172263526287 0.00748571884996857 0.03523861429663165 0.9906281566739727 -0.08292193627581357
 -0.002049805604891836 -0.01068164927638298 0.0024165902823097864 0.016884895067238732 0.9906281566739727 -0.08292193627581357 0.007477754537580396 0.03523929910680293
0.131304710296 0.007969386907920742 0.03716726161771864 0.9899900442255023 -0.08720494082375777 0.0025902344222809358 0.01773346517856586 -0.0022345698833399425 -0.01121641566743213
 0.9899900442255023 -0.08720494082375777 0.007962126405195601 0.03716787387767768 -0.0022334549412895252 -0.011216502400202801 0.00263606705791291 0.017726552565624085
 0.0025902344222809358 0.01773346517856586 -0.0022334549412895252 -0.011216502400202801 0.007970065127604578 0.03716550712452881 0.9899899419645858 -0.08720671831279342
 -0.0022345698833399425 -0.01121641566743213 0.00263606705791291 0.017726552565624085 0.9899899419645858 -0.08720671831279342 0.007961284690372472 0.03716626370066971
0.1375573155481 0.008362934817586041 0.03885581330158977 0.989436998267533 -0.09124972595764767 0.002788134732974754 0.01854933410942894 -0.0024006534519118304 -0.011724878473026204
 0.989436998267533 -0.09124972595764767 0.008354963207283949 0.03885646883341663 -0.002399430951253831 -0.01172497867760928 0.002838350941111889 0.018541634962905444
 0.002788134732974754 0.01854933410942894 -0.002399430951253831 -0.01172497867760928 0.008363679733130867 0.03885397688054153 0.9894368857694669 -0.09125159077567191
 -0.0024006534519118304 -0.011724878473026204 0.002838350941111889 0.018541634962905444 0.9894368857694669 -0.09125159077567191 0.008354041150488654 0.038854793888382054
0.1438099208003 0.008770339079168755 0.040535396937070055 0.9888644886752688 -0.09528419682475586 0.0029940225700177117 0.01936193385882356 -0.0025733844347904967 -0.012230309102386492
 0.9888644886752688 -0.09528419682475586 0.008761622674304623 0.040536097912654945 -0.0025720495013629528 -0.012230424021604026 0.0030488140109577663 0.01935338906998074
 0.0029940225700177117 0.01936193385882356 -0.0025720495013629528 -0.012230424021604026 0.008771153871899397 0.04053347880220483 0.9888643653730635 -0.0952861493475736
 -0.0025733844347904967 -0.012230309102386492 0.0030488140109577663 0.01935338906998074 0.9888643653730635 -0.0952861493475736 0.008760616784570881 0.04053435978402849
0.1500625260525 0.00919145565884185 0.0422058701159441 0.9882726636733405 -0.0993082513858639 0.0032078265799075838 0.020171182514330928 -0.0027526926764874847 -0.012732628585034272
 0.9882726636733405 -0.0993082513858639 0.009181960692848004 0.0422066188424511 -0.002751240446056462 -0.012732759511734654 0.003267383701092589 0.0201617308306504
 0.0032078265799075838 0.020171182514330928 -0.002751240446056462 -0.012732759511734654 0.009192343520188733 0.04220387049015127 0.9882725289863229 -0.09931029200251966
 -0.0027526926764874847 -0.012732628585034272 0.003267383701092589 0.0201617308306504 0.9882725289863229 -0.09931029200251966 0.009180867505892034 0.04220481917817507
0.15631513130469998 0.009626139489361215 0.043867094718953004 0.9876616722534499 -0.10332178800167512 0.0034294745643375325 0.020976999568664473 -0.00293850715116363 -0.013231759628131353
 0.9876616722534499 -0.10332178800167512 0.009615832114002068 0.04386789364256632 -0.0029369327696025663 -0.013231907904926754 0.003493986580437282 0.020966577618167587
