! Created with skrf 1.8.0 (http://scikit-rf.org).
# GHz S RI R 50.0 
!freq ReS11 ImS11 ReS12 ImS12 ReS13 ImS13
! ReS14 ImS14
! ReS21 ImS21 ReS22 ImS22 ReS23 ImS23
! ReS24 ImS24
! ReS31 ImS31 ReS32 ImS32 ReS33 ImS33
! ReS34 ImS34
! ReS41 ImS41 ReS42 ImS42 ReS43 ImS43
! ReS44 ImS44
!
0.0 0.00158210570259 0.0 0.9984178942907 0.0 6.151949756086e-05 0.0 -6.151949745067e-05 7.533965563811678e-21
 0.9984178942907 0.0 0.001582105702613 0.0 -6.151949745122e-05 7.533965563879034e-21 6.151949756306e-05 0.0
 6.151949756086e-05 0.0 -6.151949745122e-05 7.533965563879034e-21 0.001582105698251 0.0 0.9984178942863 0.0
 -6.151949745067e-05 7.533965563811678e-21 6.151949756306e-05 0.0 0.9984178942863 0.0 0.001582105698241 0.0
0.005 0.0017024290819594797 0.0012861351129763686 0.9982656239642117 -0.0033144545290802485 8.747880508425757e-05 0.0007260982839506691 -8.466702080870954e-05 -0.0004473049531038948
 0.9982656239642117 -0.0033144545290802485 0.001702429157384595 0.0012861349928338529 -8.466640464459238e-05 -0.00044730441889100363 8.748461120210139e-05 0.0007260961091603643
 8.747880508425757e-05 0.0007260982839506691 -8.466640464459238e-05 -0.00044730441889100363 0.001702430045032396 0.0012862017631185961 0.9982656243242591 -0.0033143874704644966
 -8.466702080870954e-05 -0.0004473049531038948 8.748461120210139e-05 0.0007260961091603643 0.9982656243242591 -0.0033143874704644966 0.001702428904879492 0.001286202450215512
0.006252605252188 0.0017340240517422641 0.0016127604329590458 0.998225379073694 -0.004143876381944458 9.491744924912623e-05 0.0009079496765404842 -9.122833318658593e-05 -0.0005597181531630338
 0.998225379073694 -0.004143876381944458 0.0017340241701951046 0.001612760273977458 -9.1227374859011e-05 -0.0005597174932084121 9.492652119884354e-05 0.0009079468473788769
 9.491744924912623e-05 0.0009079496765404842 -9.1227374859011e-05 -0.0005597174932084121 0.001734025484583666 0.001612843731013344 0.9982253795636461 -0.004143792562629106
 -9.122833318658593e-05 -0.0005597181531630338 9.492652119884354e-05 0.0009079468473788769 0.9982253795636461 -0.004143792562629106 0.0017340237020800676 0.0016128445931911876
0.01250521050438 0.0019005668133300834 0.0032595455143659344 0.9980117956468764 -0.008288557551340586 0.0001376933588878871 0.0018160959779626922 -0.00012859540650432238 -0.0011221688688555019
 0.9980117956468764 -0.008288557551340586 0.0019005672958560453 0.0032595450972949685 -0.00012859163573563495 -0.0011221676340370187 0.00013772954747954413 0.0018160891264174253
 0.0001376933588878871 0.0018160959779626922 -0.00012859163573563495 -0.0011221676340370187 0.0019005719901415512 0.0032597117486778925 0.9980117970553035 -0.008288390130637657
 -0.00012859540650432238 -0.0011221688688555019 0.00013772954747954413 0.0018160891264174253 0.9980117970553035 -0.008288390130637657 0.001900564867059159 0.00325971350810173
0.01875781575657 0.0020821063176186213 0.0049299166982841695 0.9977768725203965 -0.01244412947321137 0.00018994705075059542 0.0027250941175031183 -0.0001737388492089543 -0.0016864693203346001
 0.9977768725203965 -0.01244412947321137 0.0020821074202822037 0.004929915895025775 -0.0001737304484365899 -0.0016864676102582344 0.0001900283740681015 0.0027250818167031325
 0.00018994705075059542 0.0027250941175031183 -0.0001737304484365899 -0.0016864676102582344 0.0020821175385694842 0.004930165562523694 0.997776875269528 -0.012443878516761169
 -0.0001737388492089543 -0.0016864693203346001 0.0001900283740681015 0.0027250818167031325 0.997776875269528 -0.012443878516761169 0.00208210152167808 0.004930168265194666
0.02501042100875 0.0022790033626004813 0.006621507379229323 0.9975203273073798 -0.0166125945697873 0.0002517797377833347 0.003634987080618675 -0.00022677249096222132 -0.002252342242364772
 0.9975203273073798 -0.0166125945697873 0.002279005351171734 0.006621506032405535 -0.00022675766695559986 -0.002252340173134215 0.0002519242414665221 0.003634967675645758
 0.0002517797377833347 0.003634987080618675 -0.00022675766695559986 -0.002252340173134215 0.0022790229265320697 0.006621838550793656 0.9975203318229167 -0.016612260063015288
 -0.00022677249096222132 -0.002252342242364772 0.0002519242414665221 0.003634967675645758 0.9975203318229167 -0.016612260063015288 0.0022789944629002215 0.006621842252296266
0.03126302626094 0.0024916037802987026 0.008333093081269876 0.9972418635647229 -0.02079480150430167 0.0003232930472154355 0.004545728141662219 -0.0002878066596145209 -0.0028195934446923004
 0.9972418635647229 -0.02079480150430167 0.002491606929449011 0.00833309100350949 -0.00028778363933704447 -0.0028195911490924864 0.00032351882311561393 0.004545699747254407
 0.0003232930472154355 0.004545728141662219 -0.00028778363933704447 -0.0028195911490924864 0.0024916339845217628 0.008333506165952641 0.9972418702769901 -0.020794383407279494
 -0.0002878066596145209 -0.0028195934446923004 0.00032351882311561393 0.004545699747254407 0.9972418702769901 -0.020794383407279494 0.0024915895195079954 0.008333510931180071
0.037515631513130004 0.002720245768313277 0.010063870425022608 0.9969411783815901 -0.024991166154178856 0.00040458797413508096 0.005457235159578838 -0.0003569490452305538 -0.003388057527770646
 0.9969411783815901 -0.024991166154178856 0.0027202503602029183 0.010063867398501642 -0.0003569160736590507 -0.0033880551552926412 0.00040491317035266797 0.005457195656927794
 0.00040458797413508096 0.005457235159578838 -0.0003569160736590507 -0.0033880551552926412 0.0027202889074895253 0.010064364971562288 0.9969411877256811 -0.02499066438654038
 -0.0003569490452305538 -0.003388057527770646 0.00040491317035266797 0.005457195656927794 0.9969411877256811 -0.02499066438654038 0.002720224883157528 0.010064370874717182
0.043768236765320004 0.002965262727780541 0.011813237730406325 0.996617965474723 -0.02920189093957097 0.0004957643876285535 0.006369407098011197 -0.0004343050081004117 -0.0039575813725742206
 0.996617965474723 -0.02920189093957097 0.00296526905113645 0.011813233506213943 -0.000434260346893968 -0.003957579089381562 0.0004962072146671455 0.00636935413120131
 0.0004957643876285535 0.006369407098011197 -0.000434260346893968 -0.003957579089381562 0.0029653210920330486 0.011813813218682127 0.9966179778912466 -0.02920130539175953
 -0.0004343050081004117 -0.0039575813725742206 0.0004962072146671455 0.00636935413120131 0.9966179778912466 -0.02920130539175953 0.002965233946258093 0.011813820343276545
0.050020842017509996 0.0032269845698063293 0.013580704336025467 0.996271916756504 -0.03342705543372667 0.000596920733425427 0.00728213084989304 -0.0005199776875528451 -0.004528017328128945
 0.996271916756504 -0.03342705543372667 0.003226992918533981 0.013580698633654348 -0.0005199196141607064 -0.004528015317020158 0.0005974994681322293 0.007282061822217668
 0.000596920733425427 0.00728213084989304 -0.0005199196141607064 -0.004528015317020158 0.0032270604447755652 0.013581360173380698 0.9962719326932461 -0.033426385970128654
 -0.0005199776875528451 -0.004528017328128945 0.0005974994681322293 0.007282061822217668 0.9962719326932461 -0.033426385970128654 0.003226946610154243 0.013581368612359958
0.055454545454549996 0.0034682492886494703 0.015131054624568558 0.9959524045212248 -0.03711058059586443 0.0006930088191507793 0.008075669150961614 -0.0006012624839756818 -0.005024371171201263
 0.9959524045212248 -0.03711058059586443 0.0034682596393605415 0.015131047384865318 -0.0006011913678498873 -0.005024369557873017 0.0006937205587329437 0.008075583867191417
 0.0006930088191507793 0.008075669150961614 -0.0006011913678498873 -0.005024369557873017 0.0034683422322324114 0.015131779753869843 0.9959524238869567 -0.037109838072342596
 -0.0006012624839756818 -0.005024371171201263 0.0006937205587329437 0.008075583867191417 0.9959524238869567 -0.037109838072342596 0.0034682023023491554 0.01513178941792036
0.056273447269699996 0.0035057383852686017 0.015365846090694748 0.9959027232692462 -0.03766666080336624 0.0007081538204953213 0.008195284588041947 -0.0006140680240594937 -0.005099219876848911
 0.9959027232692462 -0.03766666080336624 0.0035057490572929844 0.015365838597518885 -0.0006139948310951492 -0.0050992183372013935 0.0007088868092735481 0.008195196658197292
 0.0007081538204953213 0.008195284588041947 -0.0006139948310951492 -0.0050992183372013935 0.0035058340499743187 0.015366581616605698 0.9959027431815703 -0.03766590725711065
 -0.0006140680240594937 -0.005099219876848911 0.0007088868092735481 0.008195196658197292 0.9959027431815703 -0.03766590725711065 0.0035056899529340583 0.015366591472391427
0.06252605252188 0.003801848796645522 0.01716828089776935 0.9955100758064606 -0.041920654199675604 0.0008295586514278141 0.0091087396135744 -0.0007166747356820815 -0.005671043806633598
 0.9955100758064606 -0.041920654199675604 0.003801862092831056 0.017168271268447523 -0.0007165847304863705 -0.005671042954343406 0.0008304643124932592 0.00910862969170292
 0.0008295586514278141 0.0091087396135744 -0.0007165847304863705 -0.005671042954343406 0.0038019665229596248 0.01716909537929642 0.9955101001588261 -0.04191981637669535
 -0.0007166747356820815 -0.005671043806633598 0.0008304643124932592 0.00910862969170292 0.9955101001588261 -0.04191981637669535 0.0038017885828538988 0.017169106763996363
0.06877865777407 0.00411563813728712 0.01898765411875338 0.9950936653650403 -0.046188943294756424 0.0009612282753437983 0.010022361462119466 -0.0008278942699361888 -0.006243343130114686
 0.9950936653650403 -0.046188943294756424 0.004115654359716866 0.018987641974859387 -0.00082778577419668 -0.006243343197557359 0.0009623251004250492 0.010022226205872222
 0.0009612282753437983 0.010022361462119466 -0.00082778577419668 -0.006243343197557359 0.00411578018787175 0.01898854674917642 0.9950936946311768 -0.04618802097475214
 -0.0008278942699361888 -0.006243343130114686 0.0009623251004250492 0.010022226205872222 0.9950936946311768 -0.04618802097475214 0.004115564815992891 0.0189885597846556
0.07503126302626001 0.004447426528828943 0.020823629338027883 0.9946531834998366 -0.05047140546220408 0.0011032536552828122 0.010936010611420615 -0.0009478207393223603 -0.006815970408041242
 0.9946531834998366 -0.05047140546220408 0.0044474459796878685 0.020823614267546166 -0.0009476920888189696 -0.006815971644003283 0.001104560210841321 0.01093584642188111
 0.0011032536552828122 0.010936010611420615 -0.0009476920888189696 -0.006815971644003283 0.0044475951561447034 0.020824599239749938 0.9946532181645155 -0.05047039839535604
 -0.0009478207393223603 -0.006815970408041242 0.001104560210841321 0.01093584642188111 0.9946532181645155 -0.05047039839535604 0.004447338754989847 0.02082461405788274
0.08128386827845 0.004797531893746937 0.022675882209691228 0.9941883226174957 -0.05476789388137077 0.0012557235440742748 0.01184954295785639 -0.0010765458464779664 -0.00738877630928656
 0.9941883226174957 -0.05476789388137077 0.004797554873962602 0.022675863766503844 -0.0010763953908744324 -0.007388778978918622 0.001257258472640593 0.011849345975382524
 0.0012557235440742748 0.01184954295785639 -0.0010763953908744324 -0.007388778978918622 0.00479772933844914 0.022676928428981325 0.9941883631769244 -0.05476680179324312
 -0.0010765458464779664 -0.00738877630928656 0.001257258472640593 0.011849345975382524 0.9941883631769244 -0.05476680179324312 0.004797428300850387 0.022676945171777776
0.08753647353064001 0.005166269925911256 0.02454409621024982 0.9936987762317332 -0.059078241741892516 0.0014187243654592194 0.01276281015612096 -0.0012141588030874786 -0.007961609313598007
 0.9936987762317332 -0.059078241741892516 0.005166296733502667 0.024544073913815013 -0.0012139849057752324 -0.00796161369835811 0.0014205063861383923 0.012762576256242289
 0.0014187243654592194 0.01276281015612096 -0.0012139849057752324 -0.00796161369835811 0.005166498415523714 0.024545217720751734 0.9936988231949635 -0.0590770643296491
 -0.0012141588030874786 -0.007961609313598007 0.0014205063861383923 0.012762576256242289 0.9936988231949635 -0.0590770643296491 0.005166149123549123 0.024545236540627093
0.09378907878283 0.005553954031220616 0.026427959606786122 0.9931842391924319 -0.06340226523922406 0.0015923400994874574 0.013675659869556551 -0.0013607462426920365 -0.008534315509803245
 0.9931842391924319 -0.06340226523922406 0.005553984960021443 0.02642793294168502 -0.0013605472806264927 -0.008534321907407143 0.0015943880087273125 0.013675384658680907
 0.0015923400994874574 0.013675659869556551 -0.0013605472806264927 -0.008534321907407143 0.005554215778588513 0.026429155306498343 0.9931842930823329 -0.06340100217449327
 -0.0013607462426920365 -0.008534315509803245 0.0015943880087273125 0.013675384658680907 0.9931842930823329 -0.06340100217449327 0.005553814603102571 0.02642917636642984
0.100041684035 0.005960895247097152 0.028327163233867407 0.9926444078973671 -0.06773976576824774 0.0017766521697119596 0.014587935961306071 -0.0015163921306082149 -0.009106738459312163
 0.9926444078973671 -0.06773976576824774 0.0059609305851516265 0.028327131649512484 -0.0015161664942347803 -0.00910674718367679 0.0017789848421750042 0.014587614772453222
 0.0017766521697119596 0.014587935961306071 -0.0015161664942347803 -0.00910674718367679 0.005961192448541672 0.028328431944691944 0.9926444692514156 -0.06773841669740087
 -0.0015163921306082149 -0.009106738459312163 0.0017789848421750042 0.014587614772453222 0.9926444692514156 -0.06773841669740087 0.0059607357479560434 0.02832845541853799
0.1059090909091 0.0063605554539161845 0.03012304157248511 0.9921145597219099 -0.0718221187047631 0.0019594078903520024 0.015443346328334063 -0.0016707602200046491 -0.009643497419508412
 0.9921145597219099 -0.0718221187047631 0.006360595185101212 0.03012300483944697 -0.0016705081006968621 -0.00964350862717886 0.001962025018517595 0.01544297750210782
 0.0019594078903520024 0.015443346328334063 -0.0016705081006968621 -0.00964350862717886 0.006360887907287894 0.030124377659261535 0.9921146285835627 -0.07182068858005675
 -0.0016707602200046491 -0.009643497419508412 0.001962025018517595 0.01544297750210782 0.9921146285835627 -0.07182068858005675 0.006360375778576629 0.030124403566337127
0.1062942892872 0.006387402145353629 0.030241398832420358 0.9920789804899125 -0.07209053156188629 0.0019717393332618328 0.015499478650215134 -0.0016811776707787171 -0.009678719101351485
 0.9920789804899125 -0.07209053156188629 0.006387442173433095 0.030241361742596846 -0.0016809237639705075 -0.009678730482538124 0.0019743757214230875 0.0154991065386766
 0.0019717393332618328 0.015499478650215134 -0.0016809237639705075 -0.009678730482538124 0.0063877369798913414 0.030242739302453043 0.9920790498618819 -0.07208909610362893
 -0.0016811776707787171 -0.009678719101351485 0.0019743757214230875 0.0154991065386766 0.9920790498618819 -0.07208909610362893 0.00638722109928459 0.030242765375193645
0.11254689453939999 0.006833780725078992 0.03217035777300466 0.991487657051076 -0.0764543389524798 0.002177677571010378 0.016410124638809025 -0.0018551812105984838 -0.010250095692546528
 0.991487657051076 -0.0764543389524798 0.006833825714996739 0.03217031455569228 -0.0018548974505532177 -0.010250110076716628 0.00218063670589844 0.016409696377755353
 0.002177677571010378 0.016410124638809025 -0.0018548974505532177 -0.010250110076716628 0.006834155351834945 0.03217176867589327 0.9914877350112408 -0.07645281669854923
 -0.0018551812105984838 -0.010250095692546528 0.00218063670589844 0.016409696377755353 0.9914877350112408 -0.07645281669854923 0.006833576622236934 0.03217179754395631
0.11879949979160001 0.0073003342941496295 0.03411373007887579 0.9908701397818844 -0.08083095334108396 0.002394539979844858 0.017319707222296175 -0.0020384781440782656 -0.010820703772162862
 0.9908701397818844 -0.08083095334108396 0.007300384507134259 0.034113680075909245 -0.0020381629612898043 -0.010820721521527485 0.0023978409709099736 0.017319217298340395
 0.002394539979844858 0.017319707222296175 -0.0020381629612898043 -0.010820721521527485 0.007300750851382275 0.034115210009742186 0.9908702269187428 -0.0808293438603804
 -0.0020384781440782656 -0.010820703772162862 0.0023978409709099736 0.017319217298340395 0.9908702269187428 -0.0808293438603804 0.007300105588572884 0.034115241881276175
0.1250521050438 0.007787363344252111 0.03607120364609341 0.9902261331827397 -0.08522012997703177 0.00262239666497304 0.01822805638805726 -0.0022311408139551246 -0.011390376143583248
 0.9902261331827397 -0.08522012997703177 0.007787419029309336 0.03607114616297383 -0.002230792652162623 -0.011390397636328283 0.0026260587004772193 0.018227498996762515
 0.00262239666497304 0.01822805638805726 -0.002230792652162623 -0.011390397636328283 0.0077878239474394 0.0360727511266637 0.9902262301038365 -0.08521843281057051
 -0.0022311408139551246 -0.011390376143583248 0.0026260587004772193 0.018227498996762515 0.9902262301038365 -0.08521843281057051 0.007787108451268065 0.03607278622190146
0.131304710296 0.00829516541984595 0.03804246363026509 0.9895553442294505 -0.08962161457903772 0.002861314633764474 0.019134998905808488 -0.0024332384128940773 -0.011958942872006923
 0.9895553442294505 -0.08962161457903772 0.008295226812223404 0.03804239793588367 -0.0024328557291216843 -0.011958968502270784 0.0028653569803297643 0.01913436794712314
 0.002861314633764474 0.019134998905808488 -0.0024328557291216843 -0.011958968502270784 0.00829567216024502 0.038044077105798345 0.9895554515626643 -0.08961982924329807
 -0.0024332384128940773 -0.011958942872006923 0.0028653569803297643 0.01913436794712314 0.9895554515626643 -0.08961982924329807 0.008294882713614431 0.03804411565741677
0.1375573155481 0.00870934586995614 0.039768318667299074 0.9889722199500243 -0.0937761426945743 0.0030817987914054496 0.020014108571796273 -0.002615277223362024 -0.012500004316429083
 0.9889722199500243 -0.0937761426945743 0.008709411797940042 0.0397682446639275 -0.002614857557222302 -0.012500034112195234 0.0030862302616245533 0.020013404754144003
 0.0030817987914054496 0.020014108571796273 -0.002614857557222302 -0.012500034112195234 0.008709900086560408 0.03976999706850549 0.988972338183973 -0.09377426888668938
 -0.002615277223362024 -0.012500004316429083 0.0030862302616245533 0.020013404754144003 0.988972338183973 -0.09377426888668938 0.008709033312043623 0.039770039237806115
0.1438099208003 0.009138131835252023 0.04148469548494828 0.988368499330842 -0.09791978241105237 0.0033111906758627654 0.02088952637149048 -0.0028046019537020664 -0.013037688613934397
 0.988368499330842 -0.09791978241105237 0.009138202266843476 0.04148461251032537 -0.0028041436162755846 -0.01303772296771681 0.0033160287591033704 0.020888744093020124
 0.0033111906758627654 0.02088952637149048 -0.0028041436162755846 -0.01303772296771681 0.009138735448200448 0.041486437230558754 0.9883686290940038 -0.09791781965470883
 -0.0028046019537020664 -0.013037688613934397 0.0033160287591033704 0.020888744093020124 0.9883686290940038 -0.09791781965470883 0.009137787672271566 0.041486483267994693
0.1500625260525 0.009581367096983241 0.043191440062062186 0.9877443430682001 -0.10205242031942686 0.0035494084632190894 0.021761157855015336 -0.0030011329835865387 -0.01357190642380932
 0.9877443430682001 -0.10205242031942686 0.00958144197209654 0.04319134743244384 -0.003000634287686713 -0.013571945744195584 0.003554670604232936 0.021760291296038452
 0.0035494084632190894 0.021761157855015336 -0.003000634287686713 -0.013571945744195584 0.009582021994232 0.043193243511271476 0.9877444850065424 -0.10205036811884843
 -0.0030011329835865387 -0.01357190642380932 0.003554670604232936 0.021760291296038452 0.9877444850065424 -0.10205036811884843 0.009580989532372653 0.04319329368020339
0.15631513130469998 0.010038894257582028 0.04488840301126402 0.9870999127576947 -0.10617394363745716 0.0037963693211022645 0.022628910229515038 -0.0032047896723135273 -0.01410257035521628
 0.9870999127576947 -0.10617394363745716 0.010038973487074455 0.044888300022075826 -0.0032042489325629837 -0.014102615066856184 0.003802072920345786 0.022627953353248017
