! Created with skrf 1.8.0 (http://scikit-rf.org).
# GHz S RI R 50.0 
!freq ReS11 ImS11 ReS12 ImS12 ReS13 ImS13
! ReS14 ImS14
! ReS21 ImS21 ReS22 ImS22 ReS23 ImS23
! ReS24 ImS24
! ReS31 ImS31 ReS32 ImS32 ReS33 ImS33
! ReS34 ImS34
! ReS41 ImS41 ReS42 ImS42 ReS43 ImS43
! ReS44 ImS44
!
0.0 0.001992983089831 0.0 0.9980070168972 0.0 7.77138256676e-05 0.0 -7.771382550152e-05 9.517198764993242e-21
 0.9980070168972 0.0 0.001992983089811 0.0 -7.771382550072e-05 9.517198764895271e-21 7.771382566775e-05 0.0
 7.77138256676e-05 0.0 -7.771382550072e-05 9.517198764895271e-21 0.001992983096129 0.0 0.9980070169035 0.0
 -7.771382550152e-05 9.517198764993242e-21 7.771382566775e-05 0.0 0.9980070169035 0.0 0.001992983096151 0.0
0.005 0.0021459463229758467 0.0016271098374356923 0.9978131807922962 -0.004173125047993843 0.00011025408114735392 0.0008669077442512899 -0.00010676293653251787 -0.0005419856670482734
 0.9978131807922962 -0.004173125047993843 0.002145986560554767 0.0016270863914205158 -0.00010676159516337167 -0.0005419847463208193 0.00011000289748351378 0.0008670035842267372
 0.00011025408114735392 0.0008669077442512899 -0.00010676159516337167 -0.0005419847463208193 0.0021459460787748162 0.0016270427622368572 0.9978131803953274 -0.004173192108567077
 -0.00010676293653251787 -0.0005419856670482734 0.00011000289748351378 0.0008670035842267372 0.9978131803953274 -0.004173192108567077 0.002145986015356552 0.0016270193483210638
0.006252605252188 0.002186559079572322 0.0020402261413019827 0.9977613070238279 -0.005217346289890037 0.00011985867342539648 0.001084014457130292 -0.00011519937465372442 -0.0006781541611946767
 0.9977613070238279 -0.005217346289890037 0.0021866219780636185 0.002040196381814347 -0.00011519728655754745 -0.0006781530291386883 0.00011946623106663938 0.0010841390648200196
 0.00011985867342539648 0.001084014457130292 -0.00011519728655754745 -0.0006781530291386883 0.0021865587692485406 0.00204014230870476 0.9977613064750972 -0.005217430114955684
 -0.00011519937465372442 -0.0006781541611946767 0.00011946623106663938 0.0010841390648200196 0.9977613064750972 -0.005217430114955684 0.0021866211983252843 0.002040112571028693
0.01250521050438 0.0024032348140932114 0.00412249846353988 0.9974823321738708 -0.010434874805807745 0.00017656243548465084 0.0021680755358352267 -0.00016432546618076372 -0.0013592627586441247
 0.9974823321738708 -0.010434874805807745 0.00240348596705047 0.004122434367635248 -0.0001643172275281637 -0.0013592607072212008 0.0001749976415900766 0.002168377557730243
 0.00017656243548465084 0.0021680755358352267 -0.0001643172275281637 -0.0013592607072212008 0.0024032341388228575 0.004122331177395759 0.9974823305551515 -0.010435042196775178
 -0.00016432546618076372 -0.0013592627586441247 0.0001749976415900766 0.002168377557730243 0.9974823305551515 -0.010435042196775178 0.002403483438132552 0.004122266938758363
0.01875781575657 0.0026435849634566196 0.006233567533765159 0.9971696746249167 -0.01566515559305806 0.00024796846463611273 0.0032528277529459814 -0.00022526352650427726 -0.0020422470805063777
 0.9971696746249167 -0.01566515559305806 0.002644149321298599 0.006233464133177454 -0.00022524514163875067 -0.002042244378370527 0.0002444537694622762 0.00325337248794478
 0.00024796846463611273 0.0032528277529459814 -0.00022524514163875067 -0.002042244378370527 0.002643583855898413 0.006233317023200956 0.9971696714125493 -0.01566540647283844
 -0.00022526352650427726 -0.0020422470805063777 0.0002444537694622762 0.00325337248794478 0.9971696714125493 -0.01566540647283844 0.002644144089074377 0.0062332131189010015
0.02501042100875 0.0029081603216679066 0.008370335881527097 0.9968228978306476 -0.020910584290118585 0.00033422207639684584 0.004338222513239302 -0.0002981767153538549 -0.002726709412580003
 0.9968228978306476 -0.020910584290118585 0.0029091626062080164 0.008370187860261608 -0.0002981442337008047 -0.0027267063879606664 0.00032798002665386397 0.004339087432480418
 0.00033422207639684584 0.004338222513239302 -0.0002981442337008047 -0.0027267063879606664 0.0029081587070391305 0.008370002385925194 0.9968228925005752 -0.020910918604334305
 -0.0002981767153538549 -0.002726709412580003 0.00032798002665386397 0.004339087432480418 0.9968228925005752 -0.020910918604334305 0.0029091537319295637 0.008369853292230627
0.03126302626094 0.0031974881038121794 0.010531139055657742 0.9964415473156831 -0.026172101127752232 0.0004354676609828891 0.005424107670351191 -0.0003832215666764154 -0.0034123434101966527
 0.9964415473156831 -0.026172101127752232 0.0031990528904339106 0.010530940757858735 -0.0003831710756700744 -0.0034123404513882703 0.00042572025227315753 0.005425382492786025
 0.0004354676609828891 0.005424107670351191 -0.0003831710756700744 -0.0034123404513882703 0.003197485901579727 0.010530722811581412 0.9964415393434981 -0.026172518858390195
 -0.0003832215666764154 -0.0034123434101966527 0.00042572025227315753 0.005425382492786025 0.9964415393434981 -0.026172518858390195 0.003199039450987573 0.010530522652908493
0.037515631513130004 0.0035120821946054526 0.012714838475943733 0.9960251615220012 -0.03145009805923373 0.0005518469626037328 0.006510288808358626 -0.00048054908140944785 -0.004098872901228199
 0.9960251615220012 -0.03145009805923373 0.0035143339739571395 0.012714583907968216 -0.00048047670337664726 -0.004098870456734133 0.0005378153920700769 0.006512075617516803
 0.0005518469626037328 0.006510288808358626 -0.00048047670337664726 -0.004098870456734133 0.0035120793194872756 0.012714339746576297 0.9960251503814306 -0.031450599195377044
 -0.00048054908140944785 -0.004098872901228199 0.0005378153920700769 0.006512075617516803 0.9960251503814306 -0.031450599195377044 0.0035143150597057287 0.012714082297611782
0.043768236765320004 0.0038524470581367963 0.014920545428142855 0.9955732763224131 -0.03674469473332686 0.0006834982290912297 0.007596547921661374 -0.0005903050637538786 -0.004786033307385217
 0.9955732763224131 -0.03674469473332686 0.0038555102871362405 0.01492022825835136 -0.0005902069541596638 -0.004786031886018159 0.0006644028204237472 0.007598961294801224
 0.0006834982290912297 0.007596547921661374 -0.0005902069541596638 -0.004786031886018159 0.003852443422066382 0.01491996448925938 0.9955732614857274 -0.03674527928556428
 -0.0005903050637538786 -0.004786033307385217 0.0006644028204237472 0.007598961294801224 0.9955732614857274 -0.03674527928556428 0.0038554850024880905 0.014919643174414613
0.050020842017509996 0.00421907949679794 0.017147506994848346 0.9950854273922223 -0.04205585253493909 0.0008305556692342884 0.008682651162161667 -0.0007126301879999774 -0.005473564011760793
 0.9950854273922223 -0.04205585253493909 0.004223078645797303 0.017147120551129123 -0.0007125025345791534 -0.005473564182662903 0.0008056158898112972 0.008685818303639846
 0.0008305556692342884 0.008682651162161667 -0.0007125025345791534 -0.005473564182662903 0.004219075009445412 0.017146844148724732 0.9950854083291799 -0.04205652052163304
 -0.0007126301879999774 -0.005473564011760793 0.0008056158898112972 0.008685818303639846 0.9950854083291799 -0.04205652052163304 0.0042230461079882 0.017146452039614832
0.055454545454549996 0.004559407391293182 0.01909954129486305 0.9946319052571769 -0.04668475173997885 0.0009709656358769304 0.009626190513797112 -0.000829247469882844 -0.006071147577765704
 0.9946319052571769 -0.04668475173997885 0.004564321012384696 0.019099088963756613 -0.0008290910707582783 -0.0060711496414760134 0.0009403124230066374 0.009630125916217487
 0.0009709656358769304 0.009626190513797112 -0.0008290910707582783 -0.0060711496414760134 0.0045594020903118974 0.019098807535376898 0.9946318820880375 -0.046685492254294976
 -0.000829247469882844 -0.006071147577765704 0.0009403124230066374 0.009630125916217487 0.9946318820880375 -0.046685492254294976 0.004564281464142641 0.019098348000020388
0.056273447269699996 0.004612469495482695 0.01939505010610723 0.9945611516737343 -0.04738343051603875 0.000993149046047487 0.009768352673574933 -0.0008476599454621307 -0.006161204653214156
 0.9945611516737343 -0.04738343051603875 0.004617529093020159 0.019394587371537788 -0.0008474989678679524 -0.006161207045872916 0.0009615835805876717 0.009772413549158468
 0.000993149046047487 0.009768352673574933 -0.0008474989678679524 -0.006161207045872916 0.004612464065831004 0.019394305678167065 0.9945611278506914 -0.04738418196677047
 -0.0008476599454621307 -0.006161204653214156 0.0009615835805876717 0.009772413549158468 0.9945611278506914 -0.04738418196677047 0.004617488431772506 0.019393835489298118
0.06252605252188 0.005033100614237938 0.021662550785043477 0.9939999883954891 -0.05272721614495332 0.001171403339391316 0.010853396734060819 -0.0009955245299324855 -0.006848693127252674
 0.9939999883954891 -0.05272721614495332 0.0050393452904113145 0.021662004391857892 -0.000995326479647742 -0.006848698431487055 0.0011324302014927398 0.010858504204533085
 0.001171403339391316 0.010853396734060819 -0.000995326479647742 -0.006848698431487055 0.00503309415167359 0.021661725126205702 0.9939999592751225 -0.05272805109839386
 -0.0009955245299324855 -0.006848693127252674 0.0011324302014927398 0.010858504204533085 0.9939999592751225 -0.05272805109839386 0.005039295647534016 0.021661169208919955
0.06877865777407 0.005481450132192093 0.023949415860340367 0.993401479849935 -0.058086943604861566 0.0013654384463157164 0.01193751906929617 -0.0011563486895307315 -0.00753576443190579
 0.993401479849935 -0.058086943604861566 0.005489004661322245 0.023948778081988156 -0.0011561098500157002 -0.007535773397842297 0.0013182751175616905 0.011943839022359777
 0.0013654384463157164 0.01193751906929617 -0.0011561098500157002 -0.007535773397842297 0.0054814425475138324 0.02394850934145497 0.9934014448906814 -0.05808786211431114
 -0.0011563486895307315 -0.00753576443190579 0.0013182751175616905 0.011943839022359777 0.9934014448906814 -0.05808786211431114 0.005488945190297531 0.023947859676017664
0.07503126302626001 0.005957989043181241 0.026255071370476786 0.9927651720289217 -0.06346230541725197 0.0015753689061699825 0.013020447719177783 -0.0013302515568651414 -0.008222149975873647
 0.9927651720289217 -0.06346230541725197 0.005966978386050826 0.026254334111978254 -0.0013299682439555781 -0.00822216341389016 0.001519232495545713 0.013028159199040589
 0.0015753689061699825 0.013020447719177783 -0.0013299682439555781 -0.00822216341389016 0.005957980250901553 0.0262540843904071 0.9927651306849365 -0.06346330754259508
 -0.0013302515568651414 -0.008222149975873647 0.001519232495545713 0.013028159199040589 0.9927651306849365 -0.06346330754259508 0.005966908251923166 0.026253332576558586
0.08128386827845 0.006463181959479805 0.028578954891976142 0.9920906151728309 -0.06885296015988995 0.0018013036399129746 0.014101903652250423 -0.0015173464667576758 -0.00890757715544637
 0.9920906151728309 -0.06885296015988995 0.006473731305564973 0.02857810967825575 -0.0015170150289892086 -0.008907595936102582 0.001735411060516188 0.01411119898624883
 0.0018013036399129746 0.014101903652250423 -0.0015170150289892086 -0.008907595936102582 0.006463171877820937 0.02857788787182189 0.9920905668925153 -0.06885404597328332
 -0.0015173464667576758 -0.00890757715544637 0.001735411060516188 0.01411119898624883 0.9920905668925153 -0.06885404597328332 0.006473649684353491 0.028577025117231262
0.08753647353064001 0.006997486950736747 0.03092051024763655 0.9913773642588841 -0.07425853782340046 0.002043345701023676 0.015181601228200642 -0.001717740764956836 -0.009591769099977202
 0.9913773642588841 -0.07425853782340046 0.007009721759748304 0.03091954821017443 -0.0017173575841626096 -0.009591794153930622 0.0019669138599081337 0.015192686150171778
 0.002043345701023676 0.015181601228200642 -0.0017173575841626096 -0.009591794153930622 0.006997475504244055 0.030919363637200215 0.9913773084852712 -0.07425970740274443
 -0.001717740764956836 -0.009591769099977202 0.0019669138599081337 0.015192686150171778 0.9913773084852712 -0.07425970740274443 0.007009627838773052 0.030918380744198264
0.09378907878283 0.007561355343732882 0.03327918376842022 0.9906249794556907 -0.07967864363414102 0.00230159203340372 0.016259248564415504 -0.0019315356117753993 -0.010274444530438593
 0.9906249794556907 -0.07967864363414102 0.0075754013882247725 0.03327809562965168 -0.0019310971036789874 -0.010274476848306159 0.002213838033655062 0.01627234233437972
 0.00230159203340372 0.016259248564415504 -0.0019310971036789874 -0.010274476848306159 0.00756134246350522 0.03327795803844439 0.9906249156252794 -0.07967989707063577
 -0.0019315356117753993 -0.010274444530438593 0.002213838033655062 0.01627234233437972 0.9906249156252794 -0.07967989707063577 0.007575294364826043 0.03327684538887895
0.100041684035 0.008155231488432387 0.035654421561742054 0.9898330265465954 -0.08511286089059442 0.002576133236188022 0.017334547844447896 -0.0021588257820207572 -0.010955317693150031
 0.9898330265465954 -0.08511286089059442 0.00817121489531026 0.035653197617726014 -0.002158328396899846 -0.010955358325420795 0.002476274588834677 0.017349883364459195
 0.002576133236188022 0.017334547844447896 -0.002158328396899846 -0.010955358325420795 0.00815521711442177 0.03565311721010393 0.9898329540892763 -0.08511419828230148
 -0.0021588257820207572 -0.010955317693150031 0.002476274588834677 0.017349883364459195 0.9898329540892763 -0.08511419828230148 0.008171093977718204 0.03565186474813669
0.1059090909091 0.008740202463161564 0.03789789997093873 0.9890534944682218 -0.09022474304792273 0.0028486559771498336 0.018341196372603834 -0.002384465993872721 -0.01159234731427797
 0.9890534944682218 -0.09022474304792273 0.008758118942850187 0.03789653936552871 -0.002383910161879479 -0.011592396757262067 0.0027367272943758796 0.018358859609379406
 0.0028486559771498336 0.018341196372603834 -0.002383910161879479 -0.011592396757262067 0.008740186641300864 0.03789652231463464 0.9890534133903239 -0.0902261593213288
 -0.002384465993872721 -0.01159234731427797 0.0027367272943758796 0.018358859609379406 0.9890534133903239 -0.0902261593213288 0.008757984275590032 0.03789512910124272
0.1062942892872 0.008779552503763733 0.03804566749986742 0.9890010773361178 -0.09056075310049527 0.0028670533330133045 0.01840719558797987 -0.0023996994634991327 -0.011634098349759602
 0.9890010773361178 -0.09056075310049527 0.0087975997964586 0.038044297600731435 -0.0023991396868910026 -0.01163414840655052 0.002754308178158117 0.018425019513659872
 0.0028670533330133045 0.01840719558797987 -0.0023991396868910026 -0.01163414840655052 0.00877953658548187 0.0380442850484586 0.9890009956744246 -0.09056217455519773
 -0.0023996994634991327 -0.011634098349759602 0.002754308178158117 0.018425019513659872 0.9890009956744246 -0.09056217455519773 0.008797464202692224 0.0380428822614472
0.11254689453939999 0.009434748006983107 0.04045236170621315 0.9881287100416511 -0.09602186564108448 0.0031744295461769542 0.019476882895997104 -0.0026542380544320025 -0.012310491809381399
 0.9881287100416511 -0.09602186564108448 0.009454986147201569 0.04045083523453964 -0.002653612407885478 -0.012310552460329655 0.003048016882475404 0.019497455743664235
 0.0031744295461769542 0.019476882895997104 -0.002653612407885478 -0.012310552460329655 0.0094347305053296 0.04045090170093699 0.988128618590342 -0.0960233712759416
 -0.0026542380544320025 -0.012310491809381399 0.003048016882475404 0.019497455743664235 0.988128618590342 -0.0960233712759416 0.00945483510545272 0.04044933759816229
0.11879949979160001 0.010121239829631283 0.042873939404952155 0.9872155096734371 -0.10149572707755805 0.003498332075295289 0.0205432956822412 -0.0029225159612056894 -0.012984198992408947
 0.9872155096734371 -0.10149572707755805 0.01014379625925991 0.042872245252081755 -0.002921821003019852 -0.012984271466412666 0.0033574719965778228 0.020566891931374908
 0.003498332075295289 0.0205432956822412 -0.002921821003019852 -0.012984271466412666 0.010121220717884398 0.042872402416611055 0.9872154078387857 -0.10149731701774446
 -0.0029225159612056894 -0.012984198992408947 0.0033574719965778228 0.020566891931374908 0.9872154078387857 -0.10149731701774446 0.010143629007226384 0.04287066550601966
0.1250521050438 0.010839441725012085 0.045309830043511974 0.9862610684062469 -0.10698185023046143 0.003838823879500458 0.021606114895706074 -0.003204600397258285 -0.013654916521043755
 0.9862610684062469 -0.10698185023046143 0.010864444407727927 0.04530795658353883 -0.0032038327233451123 -0.013655002106058987 0.003682737818821234 0.021633023086423724
 0.003838823879500458 0.021606114895706074 -0.0032038327233451123 -0.013655002106058987 0.01083942099048599 0.04530821666618724 0.9862609555856954 -0.10698352461035153
 -0.003204600397258285 -0.013654916521043755 0.003682737818821234 0.021633023086423724 0.9862609555856954 -0.10698352461035153 0.010864260192864036 0.04530629492888721
0.131304710296 0.011589759068870045 0.04775945662508478 0.9852649859439868 -0.11247973305507032 0.004195960464531515 0.022665016738995562 -0.003500551183512984 -0.014322336832021606
 0.9852649859439868 -0.11247973305507032 0.011617336531570373 0.04775739168675577 -0.00349970742830043 -0.014322436874734092 0.004023871444171062 0.02269553956445961
 0.004195960464531515 0.022665016738995562 -0.00349970742830043 -0.014322436874734092 0.01158973671424381 0.047757767476950874 0.9852648615256517 -0.1124814920168553
 -0.003500551183512984 -0.014322336832021606 0.004023871444171062 0.02269553956445961 0.9852648615256517 -0.1124814920168553 0.011617134610383608 0.047755648339687255
0.1375573155481 0.012217232354396344 0.049903990017287306 0.9843823203892897 -0.11767038172631664 0.004530514578781549 0.023690268094996362 -0.0037713479239510263 -0.014956621389242234
 0.9843823203892897 -0.11767038172631664 0.01224752366254857 0.0499017623495235 -0.0037704233081092687 -0.014956736239442155 0.004342032078272493 0.023724405230668103
 0.004530514578781549 0.023690268094996362 -0.0037704233081092687 -0.014956736239442155 0.012217209551604385 0.04990222492281329 0.984382183841085 -0.117672225306548
 -0.0037713479239510263 -0.014956621389242234 0.004342032078272493 0.023724405230668103 0.984382183841085 -0.117672225306548 0.012247301973797925 0.04989993813979812
0.1438099208003 0.01286717504044083 0.05203385275230184 0.9834676896814643 -0.12284444263177205 0.0048784438052957195 0.024709109359747357 -0.004052786985576755 -0.015585134965813402
 0.9834676896814643 -0.12284444263177205 0.012900311020667082 0.05203145202654738 -0.004051777944061493 -0.015585265959854756 0.0046728625593285165 0.024747141927639715
 0.0048784438052957195 0.024709109359747357 -0.004051777944061493 -0.015585265959854756 0.012867152025349046 0.05203201225826869 0.9834675403954969 -0.12284637095824624
 -0.004052786985576755 -0.015585134965813402 0.0046728625593285165 0.024747141927639715 0.9834675403954969 -0.12284637095824624 0.01290006859284055 0.052029547255800286
0.1500625260525 0.013539299366031815 0.054148767956968276 0.9825213870878049 -0.12800168556482644 0.005239589204877247 0.025721364636386263 -0.004344716217695047 -0.016207718405295217
 0.9825213870878049 -0.12800168556482644 0.013575411414151249 0.05414618311196915 -0.004343619205302336 -0.016207866931706734 0.005016209851675353 0.025763584017916147
 0.005239589204877247 0.025721364636386263 -0.004343619205302336 -0.016207866931706734 0.01353927640337342 0.05414685262437502 0.9825212244488464 -0.12800369876958098
 -0.004344716217695047 -0.016207718405295217 0.005016209851675353 0.025763584017916147 0.9825212244488464 -0.12800369876958098 0.01357514726835497 0.05414419809701042
0.15631513130469998 0.014233314832961284 0.05624846721234768 0.9815437081301576 -0.1331418836644104 0.005613789552095777 0.02672686198946312 -0.0046469812472397475 -0.016824216778340343
 0.9815437081301576 -0.1331418836644104 0.014272534927067048 0.05624568642594181 -0.004645792739209114 -0.016824384277208986 0.005371918744934115 0.02677356968970068
