! Created with skrf 1.8.0 (http://scikit-rf.org).
# GHz S RI R 50.0 
!freq ReS11 ImS11 ReS12 ImS12 ReS13 ImS13
! ReS14 ImS14
! ReS21 ImS21 ReS22 ImS22 ReS23 ImS23
! ReS24 ImS24
! ReS31 ImS31 ReS32 ImS32 ReS33 ImS33
! ReS34 ImS34
! ReS41 ImS41 ReS42 ImS42 ReS43 ImS43
! ReS44 ImS44
!
0.0 0.001500034331616 0.0 0.9984999656684 0.0 5.803056304582e-05 0.0 -5.803056299001e-05 7.10669432184346e-21
 0.9984999656684 0.0 0.001500034331619 0.0 -5.803056299044e-05 7.10669432189612e-21 5.803056304558e-05 0.0
 5.803056304582e-05 0.0 -5.803056299044e-05 7.10669432189612e-21 0.001500034324509 0.0 0.9984999656613 0.0
 -5.803056299001e-05 7.10669432184346e-21 5.803056304558e-05 0.0 0.9984999656613 0.0 0.001500034324488 0.0
0.005 0.001613851673055345 0.0012227280311300321 0.9983559874307251 -0.0031425436413962246 8.187538040117444e-05 0.000666795200888758 -7.941052147808944e-05 -0.0004137654043382446
 0.9983559874307251 -0.0031425436413962246 0.0016138424075564308 0.001222733458535101 -7.940999008905894e-05 -0.0004137650703429225 8.193946777234529e-05 0.0006667709287009601
 8.187538040117444e-05 0.000666795200888758 -7.940999008905894e-05 -0.0004137650703429225 0.0016138512325237298 0.0012226610749069091 0.998355987078411 -0.003142610709381922
 -7.941052147808944e-05 -0.0004137654043382446 8.193946777234529e-05 0.0006667709287009601 0.998355987078411 -0.003142610709381922 0.0016138421538599175 0.001222666289831362
0.006252605252188 0.0016436695027921616 0.001533245801259138 0.9983180366136996 -0.0039289556601324665 8.86556969667644e-05 0.0008338074239262689 -8.543404962872854e-05 -0.0005177500579324122
 0.9983180366136996 -0.0039289556601324665 0.001643655018674684 0.0015332526681456477 -8.543322216121279e-05 -0.00051774964766579 8.875582928678013e-05 0.0008337758919208682
 8.86556969667644e-05 0.0008338074239262689 -8.543322216121279e-05 -0.00051774964766579 0.0016436688822433082 0.0015331621268942469 0.9983180361311923 -0.003929039485878868
 -8.543404962872854e-05 -0.0005177500579324122 8.875582928678013e-05 0.0008337758919208682 0.9983180361311923 -0.003929039485878868 0.0016436546909660784 0.0015331687152306515
0.01250521050438 0.0018004446644617094 0.0030988277638891795 0.9981172139495315 -0.007858775186514464 0.00012737074922422394 0.0016679146530344518 -0.00011954191784383475 -0.0010380587994043644
 0.9981172139495315 -0.007858775186514464 0.0018003868213609508 0.003098842320136526 -0.0001195386495650573 -0.0010380580588070754 0.00012777010537291558 0.0016678387678736438
 0.00012737074922422394 0.0016679146530344518 -0.0001195386495650573 -0.0010380580588070754 0.001800442744079978 0.0030986607923805744 0.9981172125840541 -0.00785894261462433
 -0.00011954191784383475 -0.0010380587994043644 0.00012777010537291558 0.0016678387678736438 0.9981172125840541 -0.00785894261462433 0.0018003860861622234 0.0030986746569971212
0.01875781575657 0.001970695565986746 0.004686869469002944 0.9978972526898148 -0.01179903494290946 0.0001742648041177299 0.0025029168263919206 -0.00016045843332166453 -0.0015601439399420042
 0.9978972526898148 -0.01179903494290946 0.001970565574861217 0.004686892580950753 -0.00016045113475881894 -0.0015601429666084947 0.0001751620374383405 0.0025027813330102543
 0.0001742648041177299 0.0025029168263919206 -0.00016045113475881894 -0.0015601429666084947 0.001970691662624194 0.0046866195047589035 0.9978972500372149 -0.011799285916870881
 -0.00016045843332166453 -0.0015601439399420042 0.0001751620374383405 0.0025027813330102543 0.9978972500372149 -0.011799285916870881 0.001970564366086312 0.0046866413625365946
0.02501042100875 0.0021547484260969222 0.006295145139417306 0.9976578983937338 -0.01575165077257525 0.00022942788414559106 0.0033388618038243862 -0.00020828446313278794 -0.002083764878696133
 0.9976578983937338 -0.01575165077257525 0.0021545175449609313 0.006295177705873561 -0.00020827156043422537 -0.0020837637892887682 0.0002310218014487968 0.003338649093133912
 0.00022942788414559106 0.0033388618038243862 -0.00020827156043422537 -0.0020837637892887682 0.0021547418573097817 0.006294812501980727 0.9976578940490244 -0.015751985315238012
 -0.00020828446313278794 -0.002083764878696133 0.0002310218014487968 0.003338649093133912 0.9976578940490244 -0.015751985315238012 0.0021545158143445775 0.006294843086864399
0.03126302626094 0.0023529159403983405 0.007922511965989849 0.997398883413446 -0.019717445636064534 0.00029295045208116026 0.004175717422216861 -0.00026311802555517745 -0.0026087555055661527
 0.997398883413446 -0.019717445636064534 0.0023525554575016135 0.007922554915421697 -0.00026309795786045144 -0.0026087544360568556 0.0002954401990659193 0.004175407515361267
 0.00029295045208116026 0.004175717422216861 -0.00026309795786045144 -0.0026087544360568556 0.0023529060230709636 0.00792209703133481 0.9973988769671122 -0.019717863808829453
 -0.00026311802555517745 -0.0026087555055661527 0.0002954401990659193 0.004175407515361267 0.9973988769671122 -0.019717863808829453 0.00235255317239646 0.007922137091171653
0.037515631513130004 0.0025655040723028765 0.009568226807259956 0.9971199338945527 -0.023696832851106887 0.0003649225602266659 0.005013420069557796 -0.00032505504369580965 -0.003134975633991662
 0.9971199338945527 -0.023696832851106887 0.002564985294096002 0.009568281096291062 -0.00032502626178952866 -0.0031349747397810598 0.00036850770688204917 0.005012990592304601
 0.0003649225602266659 0.005013420069557796 -0.00032502626178952866 -0.0031349747397810598 0.0025654901229743834 0.009567730018580852 0.9971199249303482 -0.023697334743593663
 -0.00032505504369580965 -0.003134975633991662 0.00036850770688204917 0.005012990592304601 0.9971199249303482 -0.023697334743593663 0.0025649824376113585 0.009567780313284466
0.043768236765320004 0.002792814677738497 0.011231738239230373 0.9968207726098245 -0.027690023974222502 0.0004454334577016488 0.005851889427874531 -0.00039418961151829843 -0.0036622962597533198
 0.9968207726098245 -0.027690023974222502 0.002792108919597333 0.011231804851588482 -0.000394150577132042 -0.0036622957157561903 0.00045031404066141244 0.005851315581906
 0.0004454334577016488 0.005851889427874531 -0.000394150577132042 -0.0036622957157561903 0.0027927960155764873 0.01123116009574741 0.9968207607056041 -0.027690609715970836
 -0.00039418961151829843 -0.0036622962597533198 0.00045031404066141244 0.005851315581906 0.9968207607056041 -0.027690609715970836 0.002792105493012829 0.011231221395906325
0.050020842017509996 0.003035146723872802 0.012912600622777036 0.9965011203888319 -0.03169711466313986 0.0005345713477153864 0.006691034586524931 -0.00047061409797275453 -0.004190593449843187
 0.9965011203888319 -0.03169711466313986 0.0030342253013468353 0.012912680568538323 -0.0004705632833688356 -0.004190593450566544 0.0005409478901472747 0.0066902891194041665
 0.0005345713477153864 0.006691034586524931 -0.0004705632833688356 -0.004190593450566544 0.003035122671759836 0.012911941687392377 0.9965011051152715 -0.03169778441634782
 -0.00047061409797275453 -0.004190593449843187 0.0005409478901472747 0.0066902891194041665 0.9965011051152715 -0.03169778441634782 0.003034221324793066 0.012912014773220983
0.055454545454549996 0.0032581703501558066 0.014387114213557421 0.9962064741211731 -0.03519070441891601 0.0006191086411547781 0.007420749632319105 -0.0005430200573969218 -0.004650398157606314
 0.9962064741211731 -0.03519070441891601 0.0032570382074194413 0.014387206586912763 -0.000542957772691517 -0.004650398804931067 0.0006269484495123564 0.007419830959851621
 0.0006191086411547781 0.007420749632319105 -0.000542957772691517 -0.004650398804931067 0.0032581410678163133 0.014386385575876652 0.9962064555645449 -0.035191447336349116
 -0.0005430200573969218 -0.004650398157606314 0.0006269484495123564 0.007419830959851621 0.9962064555645449 -0.035191447336349116 0.0032570337845721584 0.014386469544336002
0.056273447269699996 0.0032927969176357766 0.014610431907278312 0.9961606969604255 -0.03571812680393216 0.0006324232197496626 0.00753075702702399 -0.0005544191701612393 -0.004719745362076782
 0.9961606969604255 -0.03571812680393216 0.003291631138278558 0.01461052622244521 -0.0005543550578668935 -0.00471974612167628 0.0006404967373341768 0.007529810201534094
 0.0006324232197496626 0.00753075702702399 -0.0005543550578668935 -0.00471974612167628 0.0032927668030302264 0.014609692809308421 0.996160677879817 -0.035718880761166
 -0.0005544191701612393 -0.004719745362076782 0.0006404967373341768 0.007529810201534094 0.996160677879817 -0.035718880761166 0.0032916266513648416 0.014609778469863723
0.06252605252188 0.0035660600430285298 0.01632489045474861 0.9957992215084149 -0.039753031620131045 0.000739074712843685 0.008370952275887394 -0.0006456937810043346 -0.005249630599757362
 0.9957992215084149 -0.039753031620131045 0.0035646211987131345 0.016325000200944375 -0.0006456148637193112 -0.005249632352104965 0.000749046710956427 0.008369771839076588
 0.000739074712843685 0.008370952275887394 -0.0006456148637193112 -0.005249632352104965 0.0035660232001683075 0.016324071887760538 0.9957991981740215 -0.03975387000677192
 -0.0006456937810043346 -0.005249630599757362 0.000749046710956427 0.008369771839076588 0.9957991981740215 -0.03975387000677192 0.00356461626217606 0.016324170920421793
0.06877865777407 0.003855229140538757 0.018055661200939595 0.9954164130716999 -0.0438017634481743 0.0008546099999700586 0.00921151088042804 -0.0007445251329732962 -0.005780127246995991
 0.9954164130716999 -0.0438017634481743 0.003853488500187168 0.0180557874653708 -0.0007444299135525534 -0.005780130245725224 0.0008666824643424551 0.009210062032545511
 0.0008546099999700586 0.00921151088042804 -0.0007444299135525534 -0.005780130245725224 0.003855184910291894 0.018054763926999323 0.9954163850253378 -0.04380268651856197
 -0.0007445251329732962 -0.005780127246995991 0.0008666824643424551 0.009210062032545511 0.9954163850253378 -0.04380268651856197 0.003853483195187018 0.01805487713708388
0.07503126302626001 0.004160595590471229 0.019802446898560453 0.995011990851746 -0.04786422843444567 0.0009791116815524626 0.010052319041365226 -0.0008509986301503455 -0.006311112251090379
 0.995011990851746 -0.04786422843444567 0.004158524392011262 0.019802590794261582 -0.0008508856215590909 -0.006311116769655899 0.0009934870642705925 0.010050564404798927
 0.0009791116815524626 0.010052319041365226 -0.0008508856215590909 -0.006311116769655899 0.004160543323095162 0.019801471746925363 0.9950119576242854 -0.04786523647339099
 -0.0008509986301503455 -0.006311112251090379 0.0009934870642705925 0.010050564404798927 0.9950119576242854 -0.04786523647339099 0.004158518823021548 0.019801599947611558
0.08128386827845 0.004482449140465407 0.021564962288413668 0.9945856744694029 -0.05194031030885759 0.001112660687240995 0.01089325903120092 -0.0009651978198722185 -0.006842461023287744
 0.9945856744694029 -0.05194031030885759 0.00448001858383968 0.021565124954546135 -0.0009650655453210861 -0.006842467355009132 0.001129541889042457 0.010891158619516126
 0.001112660687240995 0.01089325903120092 -0.0009650655453210861 -0.006842467355009132 0.004482388196542297 0.021563910153746847 0.9945856355788113 -0.05194140363359616
 -0.0009651978198722185 -0.006842461023287744 0.001129541889042457 0.010891158619516126 0.9945856355788113 -0.05194140363359616 0.004480012878658127 0.02156405416613419
0.08753647353064001 0.004821077891938325 0.023342930054553023 0.9941371841816502 -0.05602987437863835 0.0012553361815141617 0.011734209487123596 -0.0010872043288701907 -0.007374047169313271
 0.9941371841816502 -0.05602987437863835 0.0048182591315197604 0.023343112657077947 -0.0010870513219021073 -0.007374055627407407 0.0012749265310723322 0.011731720674287873
 0.0012553361815141617 0.011734209487123596 -0.0010870513219021073 -0.007374055627407407 0.00482100764426903 0.023341801900865992 0.9941371391323068 -0.05603105333514375
 -0.0010872043288701907 -0.007374047169313271 0.0012749265310723322 0.011731720674287873 0.9941371391323068 -0.05603105333514375 0.00481825344283571 0.0233419625544017
0.09378907878283 0.005176768260981213 0.025136077956857624 0.9936662410775072 -0.06013277034984756 0.001407215472131088 0.012575045630952755 -0.0012170977949227664 -0.00790574229740773
 0.9936662410775072 -0.06013277034984756 0.005173532397779765 0.02513628168941718 -0.0012169225995027754 -0.007905753215040699 0.0014297187028625008 0.012572123120700766
 0.001407215472131088 0.012575045630952755 -0.0012169225995027754 -0.007905753215040699 0.0051766880953331585 0.02513487481633799 0.9936661893589953 -0.060134035314009786
 -0.0012170977949227664 -0.00790574229740773 0.0014297187028625008 0.012572123120700766 0.9936661893589953 -0.060134035314009786 0.00517352690389076 0.02513505294930258
0.100041684035 0.0055498049178922424 0.026944136711976843 0.9931725672560796 -0.06424883440545409 0.0015683739204694323 0.013415639430887263 -0.0013549557951551229 -0.008437415889089929
 0.9931725672560796 -0.06424883440545409 0.005546122992488915 0.02694436279690809 -0.0013547569659052511 -0.00843742961939411 0.0015939941452310729 0.013412235226402329
 0.0015683739204694323 0.013415639430887263 -0.0013547569659052511 -0.00843742961939411 0.005549714235326302 0.02694285968435348 0.9931725083417839 -0.06425018578368283
 -0.0013549557951551229 -0.008437415889089929 0.0015939941452310729 0.013412235226402329 0.9931725083417839 -0.06425018578368283 0.005546117898483719 0.02694305614475136
0.1059090909091 0.005915888499863876 0.028654130680063776 0.9926883868799843 -0.06812314374166112 0.0017281086686739707 0.01420411035618333 -0.0014916317948441926 -0.008936197364784333
 0.9926883868799843 -0.06812314374166112 0.005911761593166806 0.02865437887879484 -0.0014914094827574345 -0.00893621407346967 0.0017568398142541893 0.014200208048171542
 0.0017281086686739707 0.01420411035618333 -0.0014914094827574345 -0.00893621407346967 0.005915787418288118 0.028652785378461224 0.9926883207195344 -0.06812457660635213
 -0.0014916317948441926 -0.008936197364784333 0.0017568398142541893 0.014200208048171542 0.9926883207195344 -0.06812457660635213 0.005911757086245997 0.02865299981800078
0.1062942892872 0.005940470714519473 0.028766838412670373 0.9926558859937751 -0.06837789075009393 0.0017388848532896813 0.014255859731233545 -0.0015008537718726076 -0.00896893520678484
 0.9926558859937751 -0.06837789075009393 0.005936313698883799 0.028767088102376867 -0.001500629874146885 -0.008968952122894381 0.0017678265371995866 0.014251923105109282
 0.0017388848532896813 0.014255859731233545 -0.001500629874146885 -0.008968952122894381 0.005940368932567078 0.02876548866621052 0.9926558193404663 -0.06837932897841362
 -0.0015008537718726076 -0.00896893520678484 0.0017678265371995866 0.014251923105109282 0.9926558193404663 -0.06837932897841362 0.005936309238232182 0.028765704312771048
0.11254689453939999 0.006349046598984521 0.03060391531167201 0.9921159219041058 -0.07251975279615577 0.0019188194752468597 0.015095572357892644 -0.0016548649564010634 -0.00950016523050918
 0.9921159219041058 -0.07251975279615577 0.006344385389190008 0.03060418989018049 -0.0016546145665659881 -0.009500185725577842 0.0019512874068334971 0.015091049822395978
 0.0019188194752468597 0.015095572357892644 -0.0016546145665659881 -0.009500185725577842 0.006348933153223992 0.030602494082576287 0.9921158469501365 -0.07252127834061975
 -0.0016548649564010634 -0.00950016523050918 0.0019512874068334971 0.015091049822395978 0.9921158469501365 -0.07252127834061975 0.006344381824136649 0.030602729786128526
0.11879949979160001 0.0067758115226911894 0.03245509888105274 0.9915524010909093 -0.07667422407962952 0.0021082467821580495 0.015934640207272133 -0.001817060291438915 -0.010030968616130957
 0.9915524010909093 -0.07667422407962952 0.006770616931000786 0.032455399665848095 -0.001816781997010402 -0.010030993103345563 0.002144446043030756 0.015929475484983354
 0.0021082467821580495 0.015934640207272133 -0.001816781997010402 -0.010030993103345563 0.00677568586840999 0.03245360747481302 0.9915523172551508 -0.07667583743473586
 -0.001817060291438915 -0.010030968616130957 0.002144446043030756 0.015929475484983354 0.9915523172551508 -0.07667583743473586 0.006770614554229058 0.03245386411984095
0.1250521050438 0.007221042340187194 0.03432011907226392 0.990965051297755 -0.08084109898128923 0.0023072334746458444 0.01677292332372165 -0.0019875083522305804 -0.010561205670207938
 0.990965051297755 -0.08084109898128923 0.007215285087267712 0.03432044741637548 -0.0019872007521549886 -0.010561234582806 0.0023473694077370717 0.016767057318539696
 0.0023072334746458444 0.01677292332372165 -0.0019872007521549886 -0.010561234582806 0.007220903954050511 0.034318558861616506 0.9909649579787766 -0.08084280067186003
 -0.0019875083522305804 -0.010561205670207938 0.0023473694077370717 0.016767057318539696 0.9909649579787766 -0.08084280067186003 0.007215284222802216 0.03431883734812578
0.131304710296 0.007685013703517931 0.03619870371775346 0.990353602054278 -0.08502016331216751 0.0025158438723267697 0.017610278971403142 -0.00216627526668325 -0.011090734335509382
 0.990353602054278 -0.08502016331216751 0.007678664410177168 0.03619906101216781 -0.0021659369714728174 -0.011090768126762934 0.002560122048922171 0.01760364973997989
 0.0025158438723267697 0.017610278971403142 -0.0021659369714728174 -0.011090768126762934 0.007684862085087838 0.036197076144438824 0.9903534986288214 -0.08502195389119971
 -0.00216627526668325 -0.011090734335509382 0.002560122048922171 0.01760364973997989 0.9903534986288214 -0.08502195389119971 0.007678665414950447 0.03619737739009601
0.1375573155481 0.008060921344507631 0.037844477913908436 0.989824902628729 -0.08896498206902168 0.002707402271056529 0.018421484613893032 -0.0023266375999205073 -0.011594387450820377
 0.989824902628729 -0.08896498206902168 0.008053948943116786 0.03784485833476097 -0.002326266767427826 -0.011594426163641728 0.0027559213823198135 0.018414102490804312
 0.002707402271056529 0.018421484613893032 -0.002326266767427826 -0.011594426163641728 0.008060756787581511 0.03784278382003332 0.9898247886229327 -0.0889668618926654
 -0.0023266375999205073 -0.011594387450820377 0.0027559213823198135 0.018414102490804312 0.9898247886229327 -0.0889668618926654 0.008053951120220003 0.03784310244226383
0.1438099208003 0.008450024585976363 0.03948167284954098 0.9892776649692973 -0.092899915610011 0.002906698377962025 0.019229570172974327 -0.0024934276618923047 -0.012095152229878456
 0.9892776649692973 -0.092899915610011 0.008442399321596974 0.03948207742385918 -0.00249302283752402 -0.012095196304494805 0.0029596450031560187 0.019221378624701548
 0.002906698377962025 0.019229570172974327 -0.00249302283752402 -0.012095196304494805 0.008449846767188211 0.039479913693450185 0.9892775397587805 -0.09290188522722474
 -0.0024934276618923047 -0.012095152229878456 0.0029596450031560187 0.019221378624701548 0.9892775397587805 -0.09290188522722474 0.008442402884696493 0.039480250332685186
0.1500625260525 0.008852188221675066 0.04111015482339564 0.9887120283563331 -0.09682486973109267 0.003113664807982555 0.020034458245393016 -0.0026665793003302447 -0.012592953913453808
 0.9887120283563331 -0.09682486973109267 0.008843880239157356 0.041110584659158435 -0.002666139035089063 -0.012593003807466283 0.003171224507382255 0.02002539866706373
 0.003113664807982555 0.020034458245393016 -0.002666139035089063 -0.012593003807466283 0.008851996849666616 0.04110833211965884 0.9887118912980544 -0.09682692971199604
 -0.0026665793003302447 -0.012592953913453808 0.003171224507382255 0.02002539866706373 0.9887118912980544 -0.09682692971199604 0.008843885421177285 0.04110868748479719
0.15631513130469998 0.009267276102378605 0.042729794183250985 0.9881281327619967 -0.10073975049156413 0.0033282333938149055 0.020836072719538325 -0.0028460255576648868 -0.013087719308137126
 0.9881281327619967 -0.10073975049156413 0.009258255442995383 0.042730250473055356 -0.002845548408237153 -0.013087775496337325 0.0033905906951721184 0.0208260844546256
