! Created with skrf 1.8.0 (http://scikit-rf.org).
# GHz S RI R 50.0 
!freq ReS11 ImS11 ReS12 ImS12 ReS13 ImS13
! ReS14 ImS14
! ReS21 ImS21 ReS22 ImS22 ReS23 ImS23
! ReS24 ImS24
! ReS31 ImS31 ReS32 ImS32 ReS33 ImS33
! ReS34 ImS34
! ReS41 ImS41 ReS42 ImS42 ReS43 ImS43
! ReS44 ImS44
!
0.0 0.001520349134924 0.0 0.998479650831 0.0 5.866667749204e-05 0.0 -5.866667740369e-05 7.184595869903932e-21
 0.998479650831 0.0 0.001520349134909 0.0 -5.866667740312e-05 7.184595869834126e-21 5.866667749244e-05 0.0
 5.866667749204e-05 0.0 -5.866667740312e-05 7.184595869834126e-21 0.001520349151962 0.0 0.998479650848 0.0
 -5.866667740369e-05 7.184595869903932e-21 5.866667749244e-05 0.0 0.998479650848 0.0 0.001520349151978 0.0
0.005 0.0016357245081639763 0.001242692156653868 0.9983337058711729 -0.0031848392327092027 8.228003986875036e-05 0.0006534032779343031 -7.992174041361422e-05 -0.00040891000463654973
 0.9983337058711729 -0.0031848392327092027 0.0016357163794682816 0.0012426969132233142 -7.992481898970069e-05 -0.00040891238424503015 8.233182531513346e-05 0.0006533837576977244
 8.228003986875036e-05 0.0006534032779343031 -7.992481898970069e-05 -0.00040891238424503015 0.0016357225004047903 0.0012426260897134525 0.998333705521615 -0.0031849062999173457
 -7.992174041361422e-05 -0.00040891000463654973 8.233182531513346e-05 0.0006533837576977244 0.998333705521615 -0.0031849062999173457 0.001635717686830582 0.0012426288426967476
0.006252605252188 0.0016659662228220742 0.0015582615483522406 0.9982952159774555 -0.003981831510495612 8.900050070864263e-05 0.0008170695866909843 -8.591301548550844e-05 -0.0005116688926631555
 0.9982952159774555 -0.003981831510495612 0.0016659535154487056 0.0015582675226401025 -8.591780591635051e-05 -0.0005116718270881621 8.908141309849909e-05 0.0008170442104894646
 8.900050070864263e-05 0.0008170695866909843 -8.591780591635051e-05 -0.0005116718270881621 0.001665963151243934 0.0015581789783135 0.998295215498311 -0.00398191533367803
 -8.591301548550844e-05 -0.0005116688926631555 8.908141309849909e-05 0.0008170442104894646 0.998295215498311 -0.00398191533367803 0.0016659556267167783 0.001558182440067985
0.01250521050438 0.0018250615574931781 0.0031492349405717593 0.9980914221096313 -0.00796449203928871 0.00012740555762834392 0.0016344940414632172 -0.00011985406616793071 -0.001025837257107375
 0.9980914221096313 -0.00796449203928871 0.0018250108090615879 0.00314924717730197 -0.00011987294377093966 -0.0010258426870304906 0.00012772829340841954 0.001634432792894009
 0.00012740555762834392 0.0016344940414632172 -0.00011987294377093966 -0.0010258426870304906 0.0018250498419182483 0.003149070105349474 0.9980914207514988 -0.00796465941576516
 -0.00011985406616793071 -0.001025837257107375 0.00012772829340841954 0.001634432792894009 0.9980914207514988 -0.00796465941576516 0.0018250197996148609 0.003149077207006937
0.01875781575657 0.0019979790357440314 0.004762912808999572 0.9978680183091655 -0.011957679462755786 0.00017397107598932822 0.0024528318667678363 -0.0001605938496767924 -0.0015417575958380663
 0.9978680183091655 -0.011957679462755786 0.0019978649880525467 0.004762931642782667 -0.0001606359461407804 -0.0015417649989544725 0.00017469624657048396 0.002452722256476917
 0.00017397107598932822 0.0024528318667678363 -0.0001606359461407804 -0.0015417649989544725 0.001997953123159464 0.004762665870955016 0.9978680156823541 -0.011957930288930435
 -0.0001605938496767924 -0.0015417575958380663 0.00017469624657048396 0.002452722256476917 0.9978680156823541 -0.011957930288930435 0.0019978856240009607 0.004762676750181517
0.02501042100875 0.0021850526037172184 0.006397037552591541 0.9976247438261888 -0.015963331672383115 0.00022878716898956105 0.003272122293907225 -0.00020823302068355713 -0.0020591960459122524
 0.9976247438261888 -0.015963331672383115 0.0021848500383446134 0.006397063351756211 -0.00020830735835061838 -0.0020592048073178786 0.00023007555713686016 0.0032719498981368437
 0.00022878716898956105 0.003272122293907225 -0.00020830735835061838 -0.0020592048073178786 0.0021850069416404563 0.006396708683856266 0.9976247395395738 -0.01596366585659614
 -0.00020823302068355713 -0.0020591960459122524 0.00023007555713686016 0.0032719498981368437 0.9976247395395738 -0.01596366585659614 0.0021848870787162297 0.0063967234295687955
0.03126302626094 0.002386602393321243 0.00805044852540889 0.9973613244813039 -0.0199822793496384 0.0002919443135450125 0.004092328497976999 -0.000262869418632387 -0.002577989212990987
 0.9973613244813039 -0.0199822793496384 0.0023862861156450257 0.00805048168938238 -0.00026298492913091567 -0.002577998624024801 0.0002939570209632566 0.004092076943997978
 0.0002919443135450125 0.004092328497976999 -0.00026298492913091567 -0.002577998624024801 0.0023865314300309344 0.008050037907494912 0.9973613181449897 -0.019982696812720586
 -0.000262869418632387 -0.002577989212990987 0.0002939570209632566 0.004092076943997978 0.9973613181449897 -0.019982696812720586 0.002386344317381262 0.008050056557100548
0.037515631513130004 0.002602941639151966 0.009722389814215917 0.997077479800395 -0.02401493812657035 0.00036353252807088754 0.004913383644738937 -0.00032459878451444375 -0.0030979981308115003
 0.997077479800395 -0.02401493812657035 0.0026024864676991535 0.009722430772162874 -0.0003247643182957214 -0.003098007388722572 0.00036643104376445746 0.0049130345886353845
 0.00036353252807088754 0.004913383644738937 -0.0003247643182957214 -0.003098007388722572 0.0026028398238870346 0.009721897647853644 0.997077471027918 -0.024015438792529827
 -0.00032459878451444375 -0.0030979981308115003 0.00036643104376445746 0.0049130345886353845 0.997077471027918 -0.024015438792529827 0.00260257058796572 0.009721920185030881
0.043768236765320004 0.0028343793514147573 0.011412299602864072 0.9967729259051548 -0.028061519151214562 0.00044364098325826173 0.005735204896661325 -0.0003935150183499273 -0.0036190942574642034
 0.9967729259051548 -0.028061519151214562 0.0028337601092747935 0.011412348812937864 -0.00039373935031536276 -0.003619102465305467 0.00044758721729170665 0.005734737998701497
 0.00044364098325826173 0.005735204896661325 -0.00039373935031536276 -0.003619102465305467 0.0028342411315162483 0.011411726117819865 0.9967729143112167 -0.028062102938115764
 -0.0003935150183499273 -0.0036190942574642034 0.00044758721729170665 0.005734737998701497 0.9967729143112167 -0.028062102938115764 0.0028338749038289085 0.01141175247058346
0.050020842017509996 0.003081221552776311 0.01311972312773807 0.9964473769694602 -0.03212211606022239 0.0005323577643747499 0.006557699195207564 -0.0004697102739417243 -0.004141153696194336
 0.9964473769694602 -0.03212211606022239 0.0030804130596390348 0.013119781076618105 -0.00047000210709700625 -0.004141159862781212 0.0005375140638866316 0.006557092094253202
 0.0005323577643747499 0.006557699195207564 -0.00047000210709700625 -0.004141159862781212 0.0030810413746480696 0.01311906857507057 0.996447362171812 -0.0321227828884836
 -0.0004697102739417243 -0.004141153696194336 0.0005375140638866316 0.006557092094253202 0.996447362171812 -0.0321227828884836 0.0030805632841678526 0.013119098614343872
0.055454545454549996 0.003308481138133717 0.014617444807218707 0.9961471917277269 -0.03566229643981848 0.0006165138201831746 0.007272940408026753 -0.0005419079896196899 -0.0045955266611130184
 0.9961471917277269 -0.03566229643981848 0.003307487723091787 0.014617510767695248 -0.00054226549721906 -0.0045955301756459375 0.0006228538924998114 0.00727219171685404
 0.0006165138201831746 0.007272940408026753 -0.00054226549721906 -0.0045955301756459375 0.003308259984940399 0.014616720033193384 0.9961471738373189 -0.03566303536294767
 -0.0005419079896196899 -0.0045955266611130184 0.0006228538924998114 0.00727219171685404 0.9961471738373189 -0.03566303536294767 0.0033076725987053702 0.014616753125865063
0.056273447269699996 0.003343771919796807 0.01484426992374899 0.9961005460837201 -0.03619674766200987 0.0006297697030126223 0.0073807661024566686 -0.000553274978531555 -0.004664054359356574
 0.9961005460837201 -0.03619674766200987 0.0033427489852167792 0.01484433712653403 -0.0005536429463628981 -0.0046640573992834215 0.0006362988573340927 0.00737999438982919
 0.0006297697030126223 0.0073807661024566686 -0.0005536429463628981 -0.0046640573992834215 0.003343544227368161 0.014843534585786562 0.9961005277024242 -0.03619749744529396
 -0.000553274978531555 -0.004664054359356574 0.0006362988573340927 0.00737999438982919 0.9961005277024242 -0.03619749744529396 0.003342939394323732 0.014843568123911483
0.06252605252188 0.003622332122076394 0.01658559035939481 0.9957321458209587 -0.0402853813336099 0.0007359622406001002 0.008204299359858017 -0.0006442978167752785 -0.005187674418497268
 0.9957321458209587 -0.0402853813336099 0.0036210695384755387 0.01658566735958642 -0.000644750484895343 -0.005187673152169106 0.0007440274791096818 0.008203336552919499
 0.0007359622406001002 0.008204299359858017 -0.000644750484895343 -0.005187673152169106 0.0036220513563348807 0.016584774546470216 0.9957321234778249 -0.04028621398269634
 -0.0006442978167752785 -0.005187674418497268 0.0007440274791096818 0.008203336552919499 0.9957321234778249 -0.04028621398269634 0.003621304885213155 0.01658481133595638
0.06877865777407 0.003917202003098482 0.018343361610062645 0.9953418886469151 -0.044387946982373534 0.0008510193114130858 0.009028187824429101 -0.000742865692230993 -0.005711891380670013
 0.9953418886469151 -0.044387946982373534 0.003915674538922515 0.018343448979895805 -0.0007434115594728312 -0.0057118845343463644 0.0008607842963870678 0.009027005340138058
 0.0008510193114130858 0.009028187824429101 -0.0007434115594728312 -0.0057118845343463644 0.003916862601771764 0.018342465664686804 0.9953418619662833 -0.04438886240187157
 -0.000742865692230993 -0.005711891380670013 0.0008607842963870678 0.009027005340138058 0.9953418619662833 -0.04438886240187157 0.003915959574527611 0.018342505397250807
0.07503126302626001 0.004228679664080922 0.020117278793833 0.9949294872386868 -0.048504345849628865 0.0009750232357697598 0.009852316062212993 -0.0008490636764454224 -0.006236581511579478
 0.9949294872386868 -0.048504345849628865 0.004226862057395813 0.02011737713462438 -0.0008497111756213853 -0.00623656771742636 0.0009866520511156026 0.009850883190619948
 0.0009750232357697598 0.009852316062212993 -0.0008497111756213853 -0.00623656771742636 0.00422827606219227 0.0201163030892733 0.9949294558479219 -0.04850534394008944
 -0.0008490636764454224 -0.006236581511579478 0.0009866520511156026 0.009850883190619948 0.9949294558479219 -0.04850534394008944 0.004227201531383601 0.020116345394953494
0.08128386827845 0.004557061489106343 0.021907049052520885 0.9944946547466834 -0.052634456373165585 0.0011080546199979224 0.010676564749351842 -0.0009629749487201806 -0.006761619455379458
 0.9944946547466834 -0.052634456373165585 0.004554928441091464 0.021907158995381027 -0.0009637324470365017 -0.0067615972515539325 0.0011217117578466757 0.010674848627124638
 0.0011080546199979224 0.010676564749351842 -0.0009637324470365017 -0.0067615972515539325 0.004556588118236047 0.021905993995806245 0.9944946182760531 -0.05263553702899328
 -0.0009629749487201806 -0.006761619455379458 0.0011217117578466757 0.010674848627124638 0.9944946182760531 -0.05263553702899328 0.0045553271004451406 0.02190603844224527
0.08753647353064001 0.004902642128689016 0.023712387474152066 0.9940371050193123 -0.0567781382133515 0.0012501922608890873 0.011500810954276243 -0.0010846807304519155 -0.0072868779777677814
 0.9940371050193123 -0.0567781382133515 0.004900168297283446 0.02371250968076038 -0.001085556529778425 -0.0072868458084871645 0.0012660426048144591 0.011498776538424906
 0.0012501922608890873 0.011500810954276243 -0.001085556529778425 -0.0072868458084871645 0.004902093417234 0.023711253505579347 0.994037063102126 -0.056779301324001365
 -0.0010846807304519155 -0.0072868779777677814 0.0012660426048144591 0.011498776538424906 0.994037063102126 -0.056779301324001365 0.0049006308860069575 0.023711299597578197
0.09378907878283 0.005265714457758715 0.025533014172217393 0.9935565528052298 -0.06093523512734528 0.0014015130528118615 0.012324928341140764 -0.0012142602144762662 -0.007812227792548621
 0.9935565528052298 -0.06093523512734528 0.005262874450828065 0.025533149335878007 -0.001215262551392417 -0.007812184008182332 0.001419721859791469 0.012322538382787471
 0.0014015130528118615 0.012324928341140764 -0.001215262551392417 -0.007812184008182332 0.005265084830722554 0.025531801768709925 0.9935565050778838 -0.060936480574809236
 -0.0012142602144762662 -0.007812227792548621 0.001419721859791469 0.012322538382787471 0.9935565050778838 -0.060936480574809236 0.005263405709472776 0.025531848947956192
0.100041684035 0.0056465695119317875 0.027368652151899597 0.9930527139368138 -0.0651055770617069 0.0015620918964739307 0.013148787331141875 -0.0013517904919513946 -0.008337537435046163
 0.9930527139368138 -0.0651055770617069 0.005643337880882601 0.02736880099879578 -0.001352927537671834 -0.008337480292227235 0.0015828247766703691 0.013146002349508744
 0.0015620918964739307 0.013148787331141875 -0.001352927537671834 -0.008337480292227235 0.0056458533905420095 0.027367361823916518 0.9930526600391674 -0.06510690472449786
 -0.0013517904919513946 -0.008337537435046163 0.0015828247766703691 0.013146002349508744 0.9930526600391674 -0.06510690472449786 0.0056439425455761735 0.02736740946885888
0.1059090909091 0.0060203923492017095 0.029104610680512136 0.9925584836118757 -0.06903088462440359 0.001721263098378559 0.013921538437224516 -0.0014881459909040164 -0.00883032919020584
 0.9925584836118757 -0.06903088462440359 0.006016770019195005 0.029104773058605208 -0.0014894168198122907 -0.008830257842919848 0.0017445154700489562 0.01391834485003144
 0.001721263098378559 0.013921538437224516 -0.0014894168198122907 -0.008830257842919848 0.006019589985447479 0.02910324772525553 0.9925584235995597 -0.0690322893222158
 -0.0014881459909040164 -0.00883032919020584 0.0017445154700489562 0.01391834485003144 0.9925584235995597 -0.0690322893222158 0.006017447871078152 0.029103295185702028
0.1062942892872 0.006045496409891 0.02921902569604911 0.9925253055042002 -0.069288981730881 0.001732001609163383 0.013972255225496553 -0.001497346476202274 -0.008862673178703236
 0.9925253055042002 -0.069288981730881 0.006041847643049119 0.029219188986625965 -0.001498626336405983 -0.008862600840441992 0.0017554245045483575 0.013969033482158078
 0.001732001609163383 0.013972255225496553 -0.001498626336405983 -0.008862600840441992 0.006044688212249767 0.029217657991213918 0.9925252450795464 -0.06929039148120822
 -0.001497346476202274 -0.008862673178703236 0.0017554245045483575 0.013969033482158078 0.9925252450795464 -0.06929039148120822 0.0060425304454415655 0.029217705417202745
0.11254689453939999 0.00646278226482123 0.031083859146582602 0.991974046019478 -0.07348525580574759 0.0019113128357068627 0.014795196307353015 -0.0016510008250120837 -0.009387498977929721
 0.991974046019478 -0.07348525580574759 0.006458690780696613 0.031084037677286597 -0.0016524315395720593 -0.009387409513745627 0.00193759199732322 0.014791493780586239
 0.0019113128357068627 0.014795196307353015 -0.0016524315395720593 -0.009387409513745627 0.006461876405687597 0.031082414650307894 0.9919739787153491 -0.07348674750979932
 -0.0016510008250120837 -0.009387498977929721 0.00193759199732322 0.014791493780586239 0.9919739787153491 -0.07348674750979932 0.0064594564471439795 0.031082461109946866
0.11879949979160001 0.006898712086609875 0.032962875942818964 0.9913986555769873 -0.07769419585143406 0.0021000939604814603 0.015617471929396807 -0.001812823861223754 -0.00991187643018031
 0.9913986555769873 -0.07769419585143406 0.006894152227390269 0.032963070547913545 -0.001814413403856364 -0.009911767816244858 0.0021293959240457276 0.015613242288990975
 0.0021000939604814603 0.015617471929396807 -0.001814413403856364 -0.009911767816244858 0.006897702977308629 0.0329613552785882 0.9913985810444298 -0.07769576936995781
 -0.001812823861223754 -0.00991187643018031 0.0021293959240457276 0.015613242288990975 0.9913985810444298 -0.07769576936995781 0.006895005478132205 0.03296139996227425
0.1250521050438 0.007353568677261706 0.034855797876577894 0.9907988560071485 -0.08191558905425081 0.0022984110192518464 0.01643894059020372 -0.0019828834923070384 -0.010435664754726154
 0.9907988560071485 -0.08191558905425081 0.0073485147018748165 0.034856009430280985 -0.00198463977013525 -0.010435534874029692 0.002330902580277924 0.016434135172370853
 0.0022984110192518464 0.01643894059020372 -0.00198463977013525 -0.010435534874029692 0.00735245072601619 0.03485420170799557 0.9907987739016372 -0.08191724424140835
 -0.0019828834923070384 -0.010435664754726154 0.002330902580277924 0.016434135172370853 0.9907987739016372 -0.08191724424140835 0.007349460250673708 0.03485424374467743
0.131304710296 0.007827632520603377 0.036762344487901215 0.9901743710291445 -0.08614921381433105 0.0025063276120275996 0.017259458004044846 -0.0021612451290142264 -0.010958720783148811
 0.9901743710291445 -0.08614921381433105 0.007822058597927405 0.03676257390669359 -0.0021631759820951208 -0.010958567425671029 0.002542175799386399 0.017254025786763112
 0.0025063276120275996 0.017259458004044846 -0.0021631759820951208 -0.010958567425671029 0.007826400132495491 0.036760673517055587 0.9901742810103021 -0.08615095052021224
 -0.0021612451290142264 -0.010958720783148811 0.002542175799386399 0.017254025786763112 0.9901742810103021 -0.08615095052021224 0.007823101151160068 0.0367607119753111
0.1375573155481 0.008212215822035155 0.0384334283255933 0.9896339349669904 -0.09014592226487088 0.0026973730271471715 0.01805385133734948 -0.002321396435453212 -0.011455919017182554
 0.9896339349669904 -0.09014592226487088 0.008206094845305476 0.03843367487871694 -0.002323513515086626 -0.011455742020428284 0.0027366545864747453 0.018047800414162412
 0.0026973730271471715 0.01805385133734948 -0.002323513515086626 -0.011455742020428284 0.00821086403743508 0.03843168320560691 0.9896338366841303 -0.09014774034014449
 -0.002321396435453212 -0.011455919017182554 0.0027366545864747453 0.018047800414162412 0.9896338366841303 -0.09014774034014449 0.008207238484110438 0.03843171558134732
0.1438099208003 0.008610325191428977 0.040095755630525524 0.9890745113175635 -0.09413255081752514 0.0028961291197574057 0.018845106670247184 -0.0024879568599238105 -0.011950210484493453
 0.9890745113175635 -0.09413255081752514 0.008603631022746755 0.04009602031855133 -0.002490268596078532 -0.01195000767562363 0.002938995099950711 0.018838390474853348
 0.0028961291197574057 0.018845106670247184 -0.002490268596078532 -0.01195000767562363 0.008608848523226227 0.04009393706455014 0.9890744044355922 -0.09413445010202724
 -0.0024879568599238105 -0.011950210484493453 0.002938995099950711 0.018838390474853348 0.9890744044355922 -0.09413445010202724 0.00860488032990498 0.040093962462896544
0.1500625260525 0.009021821480315589 0.04174918882064857 0.988496243331649 -0.09810900193991487 0.0031025277864920302 0.019633145854075208 -0.0026608596062668703 -0.012441519984643481
 0.988496243331649 -0.09810900193991487 0.009014527891586254 0.041749472717751965 -0.0026633744105053246 -0.012441289103611307 0.0031491284154417476 0.019625716111001838
 0.0031025277864920302 0.019633145854075208 -0.0026633744105053246 -0.012441289103611307 0.009020214444870712 0.041747297539297776 0.9884961275197184 -0.09811098226834103
 -0.0026608596062668703 -0.012441519984643481 0.0031491284154417476 0.019625716111001838 0.9884961275197184 -0.09811098226834103 0.009015887435281984 0.04174731506160365
0.15631513130469998 0.00944656456278204 0.04339359446728401 0.9878992749781829 -0.10207517841609381 0.0033165001264522484 0.0204178920652267 -0.002840037060141221 -0.012929773900975213
 0.9878992749781829 -0.10207517841609381 0.00943864523338668 0.04339389872432196 -0.0028427633252538598 -0.012929512600959502 0.0033669848005591667 0.020409698805617535
