! Created with skrf 1.8.0 (http://scikit-rf.org).
# GHz S RI R 50.0 
!freq ReS11 ImS11 ReS12 ImS12 ReS13 ImS13
! ReS14 ImS14
! ReS21 ImS21 ReS22 ImS22 ReS23 ImS23
! ReS24 ImS24
! ReS31 ImS31 ReS32 ImS32 ReS33 ImS33
! ReS34 ImS34
! ReS41 ImS41 ReS42 ImS42 ReS43 ImS43
! ReS44 ImS44
!
0.0 0.001520511549105 0.0 0.9984794884367 0.0 5.8833604301e-05 0.0 -5.883360456694e-05 7.205038551520418e-21
 0.9984794884367 0.0 0.001520511549134 0.0 -5.883360456772e-05 7.205038551615939e-21 5.883360430082e-05 0.0
 5.8833604301e-05 0.0 -5.883360456772e-05 7.205038551615939e-21 0.001520511547712 0.0 0.9984794884353 0.0
 -5.883360456694e-05 7.205038551520418e-21 5.883360430082e-05 0.0 0.9984794884353 0.0 0.001520511547712 0.0
0.005 0.0016359254822714048 0.0012398347367427308 0.9983334693540223 -0.003185349278325223 8.304405710496205e-05 0.000673238519351566 -8.048642284932996e-05 -0.0004182302982534675
 0.9983334693540223 -0.003185349278325223 0.0016359372567810342 0.0012398279010237014 -8.048711082634499e-05 -0.00041823088186326363 8.296700492670392e-05 0.0006732678330410969
 8.304405710496205e-05 0.000673238519351566 -8.048711082634499e-05 -0.00041823088186326363 0.001635924503759659 0.0012397680868523953 0.9983334689994506 -0.00318541633917821
 -8.048642284932996e-05 -0.0004182302982534675 8.296700492670392e-05 0.0006732678330410969 0.9983334689994506 -0.00318541633917821 0.0016359375278251287 0.001239760429140811
0.006252605252188 0.001666175633039255 0.001554692381332496 0.9982949561729819 -0.003982470331704995 8.99574030612452e-05 0.0008418634413010196 -8.659433681043565e-05 -0.0005233353843322564
 0.9982949561729819 -0.003982470331704995 0.0016661940383925547 0.0015546837010661306 -8.65954069200279e-05 -0.0005233361051056761 8.983701563867921e-05 0.0008419015054925787
 8.99574030612452e-05 0.0008418634413010196 -8.65954069200279e-05 -0.0005233361051056761 0.0016661741765473979 0.0015546090775870472 0.9982949556921831 -0.0039825541550385845
 -8.659433681043565e-05 -0.0005233353843322564 8.983701563867921e-05 0.0008419015054925787 0.9982949556921831 -0.0039825541550385845 0.0016661945361098386 0.001554599358406586
0.01250521050438 0.0018253061329500803 0.0031421314324204612 0.9980910176710526 -0.007965784902598989 0.00012958499315529016 0.0016840131374209627 -0.0001212204477938154 -0.0010492431934825224
 0.9980910176710526 -0.007965784902598989 0.0018253796209763164 0.0031421127146612675 -0.00012122465972342804 -0.001049244539981638 0.0001291049003254362 0.0016841045905934514
 0.00012958499315529016 0.0016840131374209627 -0.00012122465972342804 -0.001049244539981638 0.0018253008647484445 0.0031419651527971066 0.9980910163056312 -0.007965952288010109
 -0.0001212204477938154 -0.0010492431934825224 0.0001291049003254362 0.0016841045905934514 0.9980910163056312 -0.007965952288010109 0.001825382170269852 0.003141944230143232
0.01875781575657 0.001998247639452382 0.004752303208633652 0.9978674215673136 -0.011959646065767464 0.000177806944251908 0.002527042052737281 -0.00016281856310150424 -0.0015769340566272891
 0.9978674215673136 -0.011959646065767464 0.0019984127611786797 0.004752273020400352 -0.0001628279485628553 -0.0015769359176156772 0.00017672843056178213 0.0025272051811500583
 0.000177806944251908 0.002527042052737281 -0.0001628279485628553 -0.0015769359176156772 0.0019982362151246876 0.004752054134194544 0.9978674189258468 -0.011959896921826953
 -0.00016281856310150424 -0.0015769340566272891 0.00017672843056178213 0.0025272051811500583 0.9978674189258468 -0.011959896921826953 0.0019984189313470824 0.004752020408811363
0.02501042100875 0.0021853347237632565 0.0063829479307222995 0.9976239067032913 -0.015965991725759767 0.00023471543084830384 0.0033709928285718723 -0.00021149176753405938 -0.0021061632262573643
 0.9976239067032913 -0.015965991725759767 0.0021856279526282496 0.006382904776438033 -0.00021150833165250327 -0.002106165472120897 0.00023279966666411267 0.0033712487771690273
 0.00023471543084830384 0.0033709928285718723 -0.00021150833165250327 -0.002106165472120897 0.002185314789866103 0.006382616238328134 0.9976239023885316 -0.015966325987816932
 -0.00021149176753405938 -0.0021061632262573643 0.00023279966666411267 0.0033712487771690273 0.9976239023885316 -0.015966325987816932 0.002185639312667099 0.006382568010368005
0.03126302626094 0.0023868880777076665 0.008032903359783912 0.9973601984847693 -0.01998565193772552 0.0003004032339192769 0.004215827554981181 -0.00026734020500473804 -0.002636760763178121
 0.9973601984847693 -0.01998565193772552 0.0023873458305776994 0.008032845684281809 -0.00026736593085298707 -0.0026367632456942174 0.0002974110532350941 0.0042162003443042845
 0.0003004032339192769 0.004215827554981181 -0.00026736593085298707 -0.0026367632456942174 0.0023868572773132323 0.008032489234980116 0.9973601921002292 -0.019986069555314647
 -0.00026734020500473804 -0.002636760763178121 0.0002974110532350941 0.0042162003443042845 0.9973601921002292 -0.019986069555314647 0.002387363955928303 0.008032424706759087
0.037515631513130004 0.0026032214516204986 0.009701412211203598 0.9970760160338877 -0.024019041433604445 0.000374962767529717 0.005061476580138845 -0.0003304618385520153 -0.0031685827245238898
 0.9970760160338877 -0.024019041433604445 0.002603880102874912 0.009701338401415242 -0.00033049868947324546 -0.0031685852768267527 0.0003706545677634954 0.005061993135534179
 0.000374962767529717 0.005061476580138845 -0.00033049868947324546 -0.0031685852768267527 0.0026031774256388023 0.009700915854164547 0.9970760071852197 -0.024019542364980793
 -0.0003304618385520153 -0.0031685827245238898 0.0003706545677634954 0.005061993135534179 0.9970760071852197 -0.024019542364980793 0.0026039065775053513 0.009700833131252347
0.043768236765320004 0.0028346443309370654 0.011387911381574096 0.9967710750834203 -0.02806637032637642 0.00045848562603241673 0.005907853351262832 -0.0004009527224905531 -0.003701496322725321
 0.9967710750834203 -0.02806637032637642 0.0028355402241857556 0.01138781976761973 -0.00040100264360261653 -0.003701498759327608 0.0004526213201449542 0.005908543535919317
 0.00045848562603241673 0.005907853351262832 -0.00040100264360261653 -0.003701498759327608 0.0028345847154394653 0.011387333005813198 0.9967710633752521 -0.02806695454015346
 -0.0004009527224905531 -0.003701496322725321 0.0004526213201449542 0.005908543535919317 0.9967710633752521 -0.02806695454015346 0.002835576637489831 0.011387230097613728
0.050020842017509996 0.0030814631770439064 0.013091944846183673 0.9964450894379857 -0.032127731141696335 0.0005510623124901752 0.006754860550040482 -0.0004789071037376692 -0.004235373792535233
 0.9964450894379857 -0.032127731141696335 0.00308263263527005 0.013091833702206688 -0.0004789720228331823 -0.004235375909363899 0.0005434013087372023 0.0067557571996228975
 0.0005510623124901752 0.006754860550040482 -0.0004789720228331823 -0.004235375909363899 0.0030813856048666887 0.013091284690050432 0.996445074475755 -0.032128398605875595
 -0.0004789071037376692 -0.004235373792535233 0.0005434013087372023 0.0067557571996228975 0.996445074475755 -0.032128398605875595 0.0030826805839437926 0.013091159509977576
0.055454545454549996 0.00330869585701864 0.01458673620677324 0.9961444840847282 -0.035668587474562224 0.0006389364024158964 0.007491366008445493 -0.0005527849518044143 -0.004700014596097987
 0.9961444840847282 -0.035668587474562224 0.003310132541336034 0.014586606645877404 -0.0005528644572549056 -0.004700016254904083 0.0006295182291261364 0.007492471084009762
 0.0006389364024158964 0.007491366008445493 -0.0005528644572549056 -0.004700016254904083 0.0033086007543280237 0.014586005185414764 0.996144465973895 -0.035669327268193454
 -0.0005527849518044143 -0.004700014596097987 0.0006295182291261364 0.007492471084009762 0.996144465973895 -0.035669327268193454 0.0033101918161549623 0.014585858881146973
0.056273447269699996 0.0033439820673912797 0.014813120915173521 0.9960977718387188 -0.03620314149210393 0.0006527820486422208 0.007602393099575574 -0.0005644174449086682 -0.004770089389762914
 0.9960977718387188 -0.03620314149210393 0.003345461402474763 0.014812988459787131 -0.0005644992731136409 -0.0047700909642079846 0.0006430832471506506 0.0076035320575289864
 0.0006527820486422208 0.007602393099575574 -0.0005644992731136409 -0.0047700909642079846 0.0033438841673444062 0.014812379231312086 0.9960977532275466 -0.03620389218507719
 -0.0005644174449086682 -0.004770089389762914 0.0006430832471506506 0.0076035320575289864 0.9960977532275466 -0.03620389218507719 0.0033455224896352643 0.01481222959657532
0.06252605252188 0.003622503037300785 0.01655108871081579 0.9957288345334449 -0.040292567532711654 0.0007637326242961989 0.008450339822078086 -0.000657574409111736 -0.00530551774290177
 0.9957288345334449 -0.040292567532711654 0.0036243285587423545 0.016550933107365277 -0.0006576750414281431 -0.005305518533863361 0.0007517544243690099 0.008451759975261808
 0.0007637326242961989 0.008450339822078086 -0.0006576750414281431 -0.005305518533863361 0.003622382434413084 0.016550265778270214 0.9957288118781102 -0.04029340143158304
 -0.000657574409111736 -0.00530551774290177 0.0007517544243690099 0.008451759975261808 0.9957288118781102 -0.04029340143158304 0.0036244043933714924 0.016550089409607126
0.06877865777407 0.003917326258448119 0.01830552417359523 0.9953379896875326 -0.04439593789169765 0.0008840002691299508 0.009298584429096458 -0.0007584668218300259 -0.005841532876281932
 0.9953379896875326 -0.04439593789169765 0.003919534282349326 0.018305343530087927 -0.0007585881374087091 -0.005841532624221585 0.0008695005848519334 0.009300327743392529
 0.0008840002691299508 0.009298584429096458 -0.0007585881374087091 -0.005841532624221585 0.003917180574608479 0.01830462029178042 0.9953379625929837 -0.04439685497880552
 -0.0007584668218300259 -0.005841532876281932 0.0008695005848519334 0.009300327743392529 0.9953379625929837 -0.04439685497880552 0.003919626480375918 0.01830441481266348
0.07503126302626001 0.004228750123682551 0.020076121166000927 0.9949249497043392 -0.04851315250697581 0.0010136695382839107 0.010147006150806673 -0.0008671816186486368 -0.0063780075983753326
 0.9949249497043392 -0.04851315250697581 0.004231376981239523 0.020075913534846387 -0.0008673254811163051 -0.006378006025376027 0.0009964058194395617 0.010149117706678945
 0.0010136695382839107 0.010147006150806673 -0.0008673254811163051 -0.006378006025376027 0.004228576977285649 0.02007513665834927 0.9949249177747456 -0.048514152766693096
 -0.0008671816186486368 -0.0063780075983753326 0.0009964058194395617 0.010149117706678945 0.9949249177747456 -0.048514152766693096 0.004231487164292748 0.020074899594076857
0.08128386827845 0.004557071270092672 0.02186258556972645 0.994489427488259 -0.05264408847426163 0.0011528232049495938 0.010995480161685925 -0.0009838037846878396 -0.006914813098274574
 0.994489427488259 -0.05264408847426163 0.004560153316280665 0.021862348947109568 -0.0009839720423197075 -0.006914809908085139 0.0011325524628929373 0.010998008189469319
 0.0011528232049495938 0.010995480161685925 -0.0009839720423197075 -0.006914809908085139 0.004556868276232858 0.021861520783542965 0.9944893903271369 -0.052645171893559176
 -0.0009838037846878396 -0.006914813098274574 0.0011325524628929373 0.010998008189469319 0.9944893903271369 -0.052645171893559176 0.004560283111730021 0.021861249560060046
0.08753647353064001 0.004902584562801952 0.02366463119456089 0.9940311366712026 -0.05678860408811632 0.0013015421590887165 0.011843877878632707 -0.0011084162870789178 -0.00745181867429806
 0.9940311366712026 -0.05678860408811632 0.004906158184900023 0.023664363519660964 -0.0011086107729764848 -0.007451813552392126 0.001278020996091516 0.011846873793561034
 0.0013015421590887165 0.011843877878632707 -0.0011086107729764848 -0.007451813552392126 0.00490234933419819 0.023663486503021074 0.9940310938815456 -0.056789770655093406
 -0.0011084162870789178 -0.00745181867429806 0.001278020996091516 0.011846873793561034 0.9940310938815456 -0.056789770655093406 0.00490630922616308 0.02366317844543053
0.09378907878283 0.005265583050916277 0.02548197686542103 0.993549791814956 -0.06094654171012509 0.0014599053091933689 0.012692067180110806 -0.0012411000032696762 -0.007988891546442611
 0.993549791814956 -0.06094654171012509 0.0052696846770274725 0.025481676019306086 -0.0012413225354526878 -0.007988884160074214 0.0014328899509711893 0.012695585616924543
 0.0014599053091933689 0.012692067180110806 -0.0012413225354526878 -0.007988884160074214 0.005265313197558658 0.02548075266555853 0.9935497429991653 -0.06094779141635988
 -0.0012411000032696762 -0.007988891546442611 0.0014328899509711893 0.012695585616924543 0.9935497429991653 -0.06094779141635988 0.0052698586029643925 0.025480404996384494
0.100041684035 0.005646357903570327 0.027314344280044808 0.9930451085975605 -0.06511772987181381 0.0016279894864683136 0.013539912573662903 -0.0013819336459801657 -0.008525896725397842
 0.9930451085975605 -0.06511772987181381 0.005651024011203557 0.02731400808422775 -0.0013821860274788281 -0.008525886723656492 0.0015972358172002463 0.013544011420855234
 0.0016279894864683136 0.013539912573662903 -0.0013821860274788281 -0.008525886723656492 0.005646051033075726 0.02731304099436161 0.9930450533567524 -0.0651190627112608
 -0.0013819336459801657 -0.008525896725397842 0.0015972358172002463 0.013544011420855234 0.9930450533567524 -0.0651190627112608 0.00565122246588249 0.02731265083153033
0.1059090909091 0.006020099777595926 0.029047242070654018 0.9925500388047593 -0.06904383526618824 0.0017946263614020334 0.014335089231136078 -0.0015215714998613752 -0.009029635298872041
 0.9925500388047593 -0.06904383526618824 0.006025328819025963 0.02904687066706242 -0.0015218535183431805 -0.009029622507596745 0.0017601423918419594 0.014339788308909944
 0.0017946263614020334 0.014335089231136078 -0.0015218535183431805 -0.009029622507596745 0.0060197559932275435 0.02904586497971769 0.9925499771715507 -0.06904524611289371
 -0.0015215714998613752 -0.009029635298872041 0.0017601423918419594 0.014339788308909944 0.9925499771715507 -0.06904524611289371 0.006025551791314573 0.029045432224662535
0.1062942892872 0.0060451983311357775 0.029161456402554495 0.9925168039871372 -0.06930198484716159 0.0018058693507466068 0.014387275327165541 -0.001530993685346071 -0.009062696922901686
 0.9925168039871372 -0.06930198484716159 0.006050465456102877 0.02916108261732148 -0.0015312777042875152 -0.00906268393676605 0.0017711329506349728 0.014392015760709365
 0.0018058693507466068 0.014387275327165541 -0.0015312777042875152 -0.00906268393676605 0.006044852049524314 0.029160074481036552 0.9925167419219095 -0.06930340081457946
 -0.001530993685346071 -0.009062696922901686 0.0017711329506349728 0.014392015760709365 0.9925167419219095 -0.06930340081457946 0.006050690088911499 0.02915963883554173
0.11254689453939999 0.006462391495653571 0.031023036240581905 0.991964596408412 -0.0734991118476904 0.0019936172973879 0.015234013577848083 -0.0016883542695336699 -0.009599152489525099
 0.991964596408412 -0.0734991118476904 0.006468296240407426 0.031022622563015533 -0.0016886716991177727 -0.009599136131928013 0.0019546534820846207 0.01523946009439565
 0.0019936172973879 0.015234013577848083 -0.0016886716991177727 -0.009599136131928013 0.006462003407204601 0.031021576159247784 0.9919645271180928 -0.07350061094045549
 -0.0016883542695336699 -0.009599152489525099 0.0019546534820846207 0.01523946009439565 0.9919645271180928 -0.07350061094045549 0.006468548705816446 0.031021091932536847
0.11879949979160001 0.006898222411660158 0.032898805889556015 0.9913882059026226 -0.07770890595608164 0.002191303365204444 0.016079982424597922 -0.0018540871433584006 -0.01013512137449774
 0.9913882059026226 -0.07770890595608164 0.006904801454681283 0.03289834995114411 -0.0018544397419619377 -0.010135101240377713 0.0021478672272737726 0.016086202874138353
 0.002191303365204444 0.016079982424597922 -0.0018544397419619377 -0.010135101240377713 0.0068977901195806735 0.03289726815086421 0.9913881289853209 -0.07771048817422119
 -0.0018540871433584006 -0.01013512137449774 0.0021478672272737726 0.016086202874138353 0.9913881289853209 -0.07771048817422119 0.006905083411728227 0.03289673213187703
0.1250521050438 0.007352973841206988 0.03478848578028107 0.990787354283934 -0.08193115286287436 0.0023989951450226845 0.016925034008054594 -0.002028261566071767 -0.010670459103107932
 0.990787354283934 -0.08193115286287436 0.007360263945061224 0.03478798514435553 -0.0020286510771728625 -0.010670434769473927 0.002350841596937399 0.016932099625980506
 0.0023989951450226845 0.016925034008054594 -0.0020286510771728625 -0.010670434769473927 0.00735249494778873 0.0347868709145772 0.9907872693366807 -0.0819328182080292
 -0.002028261566071767 -0.010670459103107932 0.002350841596937399 0.016932099625980506 0.9907872693366807 -0.0819328182080292 0.007360577057577956 0.034786279776583516
0.131304710296 0.007826926181752267 0.0366917940824621 0.9901617652922909 -0.08616562945356544 0.0026167576885610367 0.017769017584790537 -0.002210944228015364 -0.011205018765587521
 0.9901617652922909 -0.08616562945356544 0.007834964202757125 0.03669124624118382 -0.0022113723802893765 -0.011204989791569002 0.0025636415075433335 0.0177770030233148
 0.0026167576885610367 0.017769017584790537 -0.0022113723802893765 -0.011204989791569002 0.007826398288850542 0.036690102648320205 0.9901616719105018 -0.08616737792906357
 -0.002210944228015364 -0.011205018765587521 0.0025636415075433335 0.0177770030233148 0.9901616719105018 -0.08616737792906357 0.007835310138719546 0.03668945294527389
0.1375573155481 0.008211388877713444 0.038359277178968955 0.9896201738286081 -0.09016282816686737 0.002817378713448846 0.01858657679240766 -0.0023749901519179973 -0.011713420870304178
 0.9896201738286081 -0.09016282816686737 0.008220215138983999 0.038358692316091444 -0.0023754596632204294 -0.011713387234196742 0.002759178176935039 0.01859547019002683
 0.002817378713448846 0.01858657679240766 -0.0023754596632204294 -0.011713387234196742 0.008210810396583801 0.038357509369142465 0.9896200716320435 -0.09016465973147321
 -0.0023749901519179973 -0.011713420870304178 0.002759178176935039 0.01859547019002683 0.9896200716320435 -0.09016465973147321 0.008220594710187963 0.03835681098762674
0.1438099208003 0.00860935913092994 0.04001797554911127 0.9890595545883413 -0.09414991315988061 0.0030261188701613093 0.019400865463397043 -0.0025456081254399713 -0.012218849495562492
 0.9890595545883413 -0.09414991315988061 0.008619011156343523 0.04001735190945818 -0.0025461208809729055 -0.01221881076070607 0.0029626108809692737 0.019410735050122318
 0.0030261188701613093 0.019400865463397043 -0.0025461208809729055 -0.01221881076070607 0.008608727807557604 0.04001613189345803 0.9890594431762211 -0.09415182780852936
 -0.0025456081254399713 -0.012218849495562492 0.0029626108809692737 0.019410735050122318 0.9890594431762211 -0.09415182780852936 0.008619425881521346 0.04001538218341617
0.1500625260525 0.009020696953207164 0.04166775096018518 0.9884800515911552 -0.09812678603922032 0.0032429072750624734 0.020211801342304207 -0.002722729668434977 -0.012721227380195696
 0.9884800515911552 -0.09812678603922032 0.00903121237807499 0.04166708666591531 -0.0027232875510043238 -0.012721183092225285 0.0031738700363129466 0.02022271783840957
 0.0032429072750624734 0.020211801342304207 -0.0027232875510043238 -0.012721183092225285 0.00902001054218726 0.04166583200821114 0.9884799305619988 -0.0981287837667587
 -0.002722729668434977 -0.012721227380195696 0.0031738700363129466 0.02022271783840957 0.9884799305619988 -0.0981287837667587 0.009031663769967562 0.041665028162689154
0.15631513130469998 0.009445261361985292 0.04330846936166941 0.9878818095893925 -0.10209334874560917 0.0034676722106943628 0.021019303549827284 -0.0029062854592413383 -0.013220478893685295
