! Created with skrf 1.8.0 (http://scikit-rf.org).
# GHz S RI R 50.0 
!freq ReS11 ImS11 ReS12 ImS12 ReS13 ImS13
! ReS14 ImS14
! ReS21 ImS21 ReS22 ImS22 ReS23 ImS23
! ReS24 ImS24
! ReS31 ImS31 ReS32 ImS32 ReS33 ImS33
! ReS34 ImS34
! ReS41 ImS41 ReS42 ImS42 ReS43 ImS43
! ReS44 ImS44
!
0.0 0.001618069917823 0.0 0.9983819300566 0.0 6.255404087853e-05 0.0 -6.255404070146e-05 7.660660571877624e-21
 0.9983819300566 0.0 0.001618069917833 0.0 -6.25540407012e-05 7.660660571845783e-21 6.255404087934e-05 0.0
 6.255404087853e-05 0.0 -6.25540407012e-05 7.660660571845783e-21 0.001618069930619 0.0 0.9983819300694 0.0
 -6.255404070146e-05 7.660660571877624e-21 6.255404087934e-05 0.0 0.9983819300694 0.0 0.001618069930643 0.0
0.005 0.0017411393248562266 0.0013232385018899227 0.9982261970287307 -0.003389160790580851 8.781274622892962e-05 0.000691111755032368 -8.525735247092595e-05 -0.00043342815501933523
 0.9982261970287307 -0.003389160790580851 0.0017411459901877006 0.0013232346401745717 -8.525850822786936e-05 -0.00043342909229772994 8.776965162361328e-05 0.0006911282178511782
 8.781274622892962e-05 0.000691111755032368 -8.525850822786936e-05 -0.00043342909229772994 0.0017411381245182622 0.0013231719883059555 0.9982261966729571 -0.0033892278475345134
 -8.525735247092595e-05 -0.00043342815501933523 8.776965162361328e-05 0.0006911282178511782 0.9982261966729571 -0.0033892278475345134 0.0017411464837966677 0.0013231670433610117
0.006252605252188 0.0017734834346210112 0.0016592452856689136 0.9981850004617083 -0.004237269219789827 9.506287016341098e-05 0.0008642194284223751 -9.16966979233473e-05 -0.0005423418819435197
 0.9981850004617083 -0.004237269219789827 0.0017734938532867495 0.001659240362471938 -9.169849597785834e-05 -0.0005423430385402596 9.499553964965479e-05 0.000864240802043682
 9.506287016341098e-05 0.0008642194284223751 -9.169849597785834e-05 -0.0005423430385402596 0.0017734816165286028 0.0016591621608285769 0.9981849999642247 -0.004237353031547487
 -9.16966979233473e-05 -0.0005423418819435197 9.499553964965479e-05 0.000864240802043682 0.9981849999642247 -0.004237353031547487 0.0017734946840941713 0.00165915587183777
0.01250521050438 0.0019441381927718284 0.0033531571334919886 0.9979661575944768 -0.008475267231665308 0.0001368193724382621 0.0017287625978260732 -0.00012839012369767055 -0.0010872699275045541
 0.9979661575944768 -0.008475267231665308 0.0019441797879593918 0.0033531463215734593 -0.00012839720487478487 -0.0010872720761931245 0.00013655089543890094 0.0017288139549843833
 0.0001368193724382621 0.0017287625978260732 -0.00012839720487478487 -0.0010872720761931245 0.0019441314960654758 0.003352991208155453 0.9979661561762341 -0.008475434629040181
 -0.00012839012369767055 -0.0010872699275045541 0.00013655089543890094 0.0017288139549843833 0.9979661561762341 -0.008475434629040181 0.0019441836825702685 0.003352977529230622
0.01875781575657 0.002130421387294324 0.0050710673788831005 0.9977251190945303 -0.012724292220757926 0.0001879225597777212 0.0025941986550154423 -0.0001727503184694723 -0.0016339866687956842
 0.9977251190945303 -0.012724292220757926 0.0021305148411360545 0.005071049655255984 -0.00017276610302209214 -0.0016339896135335208 0.00018731950934473585 0.0025942903609776635
 0.0001879225597777212 0.0025941986550154423 -0.00017276610302209214 -0.0016339896135335208 0.002130406752300284 0.005070818892147657 0.9977251163294354 -0.01272454312033829
 -0.0001727503184694723 -0.0016339866687956842 0.00018731950934473585 0.0025942903609776635 0.9977251163294354 -0.01272454312033829 0.002130524033008374 0.005070796611483457
0.02501042100875 0.0023327078895984134 0.006810553221460559 0.9974615910356843 -0.01698638476026671 0.00024847276691982405 0.003460551807503879 -0.0002248892149579131 -0.0021822329275026373
 0.9974615910356843 -0.01698638476026671 0.0023328738348696197 0.006810527512181672 -0.00022491708003894117 -0.002182236437171284 0.0002474017061091147 0.0034606959221490795
 0.00024847276691982405 0.003460551807503879 -0.00022491708003894117 -0.002182236437171284 0.0023326822573389735 0.006810222438894504 0.9974615864970676 -0.016986719108919177
 -0.0002248892149579131 -0.0021822329275026373 0.0002474017061091147 0.0034606959221490795 0.9974615864970676 -0.016986719108919177 0.0023328905635512593 0.0068101902421898
0.03126302626094 0.002551357076310415 0.00857035835321476 0.9971752650447065 -0.021262406658528462 0.0003185706138190674 0.004327766106706391 -0.00028491539105747357 -0.002731823023722962
 0.9971752650447065 -0.021262406658528462 0.002551616108386969 0.008570323534708137 -0.00028495867802874055 -0.0027318268317218755 0.0003168979766518284 0.0043279763931138296
 0.0003185706138190674 0.004327766106706391 -0.00028495867802874055 -0.0027318268317218755 0.0025513173895181673 0.008569945551491636 0.9971752583060153 -0.021262824449092783
 -0.00028491539105747357 -0.002731823023722962 0.0003168979766518284 0.0043279763931138296 0.9971752583060153 -0.021262824449092783 0.0025516426220941603 0.008569902023015325
0.037515631513130004 0.0027867203853853165 0.010349656422445149 0.9968658261288221 -0.02555277743321268 0.0003983160100485432 0.005195753727573439 -0.0003529348433893859 -0.0032825965057165707
 0.9968658261288221 -0.02555277743321268 0.002787093069959696 0.010349611322216299 -0.00035299686161952134 -0.0032826003098918033 0.0003959080514847359 0.0051960456676060154
 0.0003983160100485432 0.005195753727573439 -0.00035299686161952134 -0.0032826003098918033 0.0027866635868923585 0.01034916192611952 0.9968658167614228 -0.0255532786682596
 -0.0003529348433893859 -0.0032825965057165707 0.0003959080514847359 0.0051960456676060154 0.9968658167614228 -0.0255532786682596 0.002787131624165557 0.010349105548821286
0.043768236765320004 0.003039144233871154 0.012147826911282304 0.9965329558666615 -0.0298576983619124 0.0004878076770279455 0.006064409661638104 -0.0004290512601643261 -0.0038344034674420912
 0.9965329558666615 -0.0298576983619124 0.0030396511132183483 0.012147770308490007 -0.0004291352892275849 -0.0038344069300850717 0.00048453045260617666 0.006064800473719509
 0.0004878076770279455 0.006064409661638104 -0.0004291352892275849 -0.0038344069300850717 0.0030390672674196497 0.012147251086354515 0.9965329434401737 -0.02985828306079503
 -0.0004290512601643261 -0.0038344034674420912 0.00048453045260617666 0.006064800473719509 0.9965329434401737 -0.02985828306079503 0.0030397039718711998 0.01214718024163843
0.050020842017509996 0.0033089713648710773 0.013964362506795946 0.9961763340324817 -0.03417724503785236 0.0005871428575800239 0.006933617789764602 -0.0005133661110675098 -0.004387098489473669
 0.9961763340324817 -0.03417724503785236 0.003309632963777518 0.013964293132447252 -0.0005134754022727347 -0.004387101237345639 0.000582862218977652 0.006934126447442224
 0.0005871428575800239 0.006933617789764602 -0.0005134754022727347 -0.004387101237345639 0.0033088711756303676 0.013963705764965978 0.9961763181139537 -0.034177913232935245
 -0.0005133661110675098 -0.004387098489473669 0.000582862218977652 0.006934126447442224 0.9961763181139537 -0.034177913232935245 0.0033097023989797783 0.013963618732254254
0.055454545454549996 0.003557856851167499 0.015557559109207137 0.9958468803266171 -0.037942937739054446 0.0006815365336954238 0.007689338110332034 -0.000593373550076178 -0.0048680166648215305
 0.9958468803266171 -0.037942937739054446 0.003558669564772218 0.015557477568152352 -0.0005935074140966916 -0.004868018460862312 0.0006762747981911906 0.007689965965518814
 0.0006815365336954238 0.007689338110332034 -0.0005935074140966916 -0.004868018460862312 0.003557734001100734 0.015556832419075583 0.9958468610192782 -0.037943678530594896
 -0.000593373550076178 -0.0048680166648215305 0.0006762747981911906 0.007689965965518814 0.9958468610192782 -0.037943678530594896 0.0035587552572162806 0.015556729841535078
0.056273447269699996 0.003596541532976896 0.015798823642899133 0.9957956395631867 -0.03851141275664112 0.000696417106004777 0.007803253859466303 -0.000605978657761353 -0.00494053767950633
 0.9957956395631867 -0.03851141275664112 0.0035973783635770353 0.015798740180026825 -0.0006061164351297585 -0.0049405393038856335 0.0006909987059461379 0.007803901110225682
 0.000696417106004777 0.007803253859466303 -0.0006061164351297585 -0.0049405393038856335 0.0035964150678768976 0.015798086441725534 0.9957956197164063 -0.03851216449370831
 -0.000605978657761353 -0.00494053767950633 0.0006909987059461379 0.007803901110225682 0.9957956197164063 -0.03851216449370831 0.00359746665578542 0.015797981397863165
0.06252605252188 0.003902191863400375 0.01765081350045682 0.995390551203393 -0.042860141448842023 0.0008157241181325919 0.008673187132267725 -0.0007069859236557766 -0.0054945770476659125
 0.995390551203393 -0.042860141448842023 0.00390322443033503 0.01765071458400503 -0.0007071553846356331 -0.00549457710439729 0.0008090334218046733 0.008673995516356552
 0.0008157241181325919 0.008673187132267725 -0.0007071553846356331 -0.00549457710439729 0.0039020360726085244 0.017649996343276412 0.995390526989184 -0.04286097678777824
 -0.0007069859236557766 -0.0054945770476659125 0.0008090334218046733 0.008673995516356552 0.995390526989184 -0.04286097678777824 0.0039033338690802302 0.01764987136163113
0.06877865777407 0.004226257033162681 0.01951996310967955 0.9949607479771198 -0.04722333051520572 0.0009451555846620623 0.009543281370228472 -0.000816482639412745 -0.006049071547933734
 0.9949607479771198 -0.04722333051520572 0.004227505838300941 0.019519847326274414 -0.000816686955361534 -0.00604906955746612 0.0009370578857286425 0.009544275239342197
 0.0009451555846620623 0.009543281370228472 -0.000816686955361534 -0.00604906955746612 0.004226068869712456 0.01951906655183582 0.9949607189519349 -0.0472242495241999
 -0.000816482639412745 -0.006049071547933734 0.0009370578857286425 0.009544275239342197 0.9949607189519349 -0.0472242495241999 0.004227638721346479 0.019518919601382464
0.07503126302626001 0.004569069346865853 0.021405921911902572 0.9945059095583623 -0.05160084820808406 0.001084801057502601 0.01041339546684544 -0.0009345611743305884 -0.006603874480792344
 0.9945059095583623 -0.05160084820808406 0.004570554893856345 0.02140578779951916 -0.0009348034908761541 -0.006603869928251988 0.001075161497336241 0.010414601002583049
 0.001084801057502601 0.01041339546684544 -0.0009348034908761541 -0.006603869928251988 0.0045688457681586 0.021404946553514537 0.9945058752741042 -0.05160185097139147
 -0.0009345611743305884 -0.006603874480792344 0.001075161497336241 0.010414601002583049 0.9945058752741042 -0.05160185097139147 0.0045707135279157395 0.02140477549766524
0.08128386827845 0.004930958745465639 0.023308351472044284 0.9940257165784938 -0.05599253786843427 0.0012347478241195443 0.011283383875834246 -0.0010613114582135367 -0.0071588371038996314
 0.9940257165784938 -0.05599253786843427 0.004932701544704299 0.023308197519357893 -0.0010615948955315123 -0.007158829439127401 0.0012234314139633012 0.01128482910785188
 0.0012347478241195443 0.011283383875834246 -0.0010615948955315123 -0.007158829439127401 0.004930696713933892 0.023307297966435245 0.9940256765823501 -0.055993624478402726
 -0.0010613114582135367 -0.0071588371038996314 0.0012234314139633012 0.01128482910785188 0.9940256765823501 -0.055993624478402726 0.004932888245046903 0.02330710056176446
0.08753647353064001 0.005312252770849584 0.025226921142704736 0.993519850894306 -0.06039822221769791 0.0013950807877893974 0.01215309691588098 -0.0011968208964143463 -0.007713808372873069
 0.993519850894306 -0.06039822221769791 0.005314273343826605 0.025226745788399615 -0.0011971485493478418 -0.007713797010489386 0.0013819524329070586 0.012154811739631127
 0.0013950807877893974 0.01215309691588098 -0.0011971485493478418 -0.007713797010489386 0.005311949255580908 0.02522579019089326 0.9935198047287139 -0.060399392780775635
 -0.0011968208964143463 -0.007713808372873069 0.0013819524329070586 0.012154811739631127 0.9935198047287139 -0.060399392780775635 0.0053144904354431545 0.02522556408561176
0.09378907878283 0.005713276500970129 0.02716130496408531 0.9929879958300482 -0.06481770642105113 0.0015658823506193896 0.013022380997768802 -0.0013411742807306712 -0.008268634765930576
 0.9929879958300482 -0.06481770642105113 0.00571559538518234 0.0271611065958761 -0.001341549218931042 -0.008268619085382956 0.0015508068764836127 0.013024397191939383
 0.0015658823506193896 0.013022380997768802 -0.001341549218931042 -0.008268619085382956 0.0057129284775348 0.027160097319420866 0.9929879430309964 -0.06481896105343564
 -0.0013411742807306712 -0.008268634765930576 0.0015508068764836127 0.013024397191939383 0.9929879430309964 -0.06481896105343564 0.005715845201405997 0.02715984005175735
0.100041684035 0.006134352461515934 0.029111179396606103 0.992429836399422 -0.06925078032482895 0.001747232299946216 0.013891078800669381 -0.0014944536962225607 -0.008823160165865802
 0.992429836399422 -0.06925078032482895 0.006136990214781355 0.02911095635012606 -0.0014948789641370916 -0.008823139511505266 0.0017300744798872242 0.013893430044062748
 0.001747232299946216 0.013891078800669381 -0.0014948789641370916 -0.008823139511505266 0.006133956913361907 0.029109895863878823 0.9924297764966546 -0.0692521191538158
 -0.0014944536962225607 -0.008823160165865802 0.0017300744798872242 0.013893430044062748 0.9924297764966546 -0.0692521191538158 0.006137275098239081 0.02910960486024009
0.1059090909091 0.006548009845831709 0.030954730712918977 0.991881860522307 -0.0734229105007516 0.0019270723147405224 0.014705583046517728 -0.0016464789598527574 -0.009343108276534675
 0.991881860522307 -0.0734229105007516 0.006550965543521376 0.030954482947239494 -0.0016469542033760922 -0.00934308232724889 0.001907837425857266 0.014708281035663278
 0.0019270723147405224 0.014705583046517728 -0.0016469542033760922 -0.00934308232724889 0.00654756696545588 0.030953376745405582 0.9918817935200093 -0.07342432846494656
 -0.0016464789598527574 -0.009343108276534675 0.001907837425857266 0.014708281035663278 0.9918817935200093 -0.07342432846494656 0.006551285472531212 0.03095305164211363
0.1062942892872 0.006575800521495109 0.031076221620128838 0.991845059515563 -0.07369722013522118 0.0019392076957525396 0.014759029413409654 -0.0016567384260232987 -0.009377225783638494
 0.991845059515563 -0.07369722013522118 0.006578777726893816 0.031075972177637863 -0.0016572170429541948 -0.009377199464768773 0.0019198322800659548 0.014761751301424353
 0.0019392076957525396 0.014759029413409654 -0.0016572170429541948 -0.009377199464768773 0.006575354441266499 0.031074863055494388 0.99184499203232 -0.07369864329963657
 -0.0016567384260232987 -0.009377225783638494 0.0019198322800659548 0.014761751301424353 0.99184499203232 -0.07369864329963657 0.006579100029355386 0.03107453562845406
0.11254689453939999 0.0070379377773521195 0.0330561082376322 0.9912333541930656 -0.078156789700131 0.0021418827598155095 0.01562606845575365 -0.0018281048538984533 -0.00993067010867022
 0.9912333541930656 -0.078156789700131 0.007041275047762338 0.033055830626465374 -0.0018286398139823027 -0.009930637399614802 0.002120154506210413 0.015629198516272178
 0.0021418827598155095 0.01562606845575365 -0.0018286398139823027 -0.009930637399614802 0.007037438167633241 0.0330546755492147 0.9912332786453723 -0.07815829734995842
 -0.0018281048538984533 -0.00993067010867022 0.002120154506210413 0.015629198516272178 0.9912332786453723 -0.07815829734995842 0.007041637130145766 0.033054308895355225
0.11879949979160001 0.007521078426209956 0.035050514269636505 0.9905944117414747 -0.08262924150831802 0.002355328765828926 0.016492028181579337 -0.0020086263655054457 -0.010483328884062292
 0.9905944117414747 -0.08262924150831802 0.007524796409033351 0.03505020666048865 -0.0020092206376023172 -0.010483289024220487 0.0023311124709082267 0.01649560589042896
 0.002355328765828926 0.016492028181579337 -0.0020092206376023172 -0.010483289024220487 0.007520522300541549 0.035049008418271674 0.9905943276375397 -0.0826308338043185
 -0.0020086263655054457 -0.010483328884062292 0.0023311124709082267 0.01649560589042896 0.9905943276375397 -0.0826308338043185 0.007525200641310303 0.03504859961571979
0.1250521050438 0.008025533632513524 0.03705911236507054 0.9899279259560125 -0.08711431748027595 0.0025796139302538294 0.01735673757420258 -0.002198373248619368 -0.011035035096762593
 0.9899279259560125 -0.08711431748027595 0.008029653014128864 0.03705877287009558 -0.002199029776271344 -0.011034987290702127 0.002552774462168622 0.01736080436989763
 0.0025796139302538294 0.01735673757420258 -0.002199029776271344 -0.011034987290702127 0.008024918016449011 0.03705753436509375 0.9899278327958534 -0.08711599459335474
 -0.002198373248619368 -0.011035035096762593 0.002552774462168622 0.01736080436989763 0.9899278327958534 -0.08711599459335474 0.00803010177561129 0.0370570803710282
0.131304710296 0.008551611387066308 0.0390815721728245 0.9892335933027883 -0.09161174960697523 0.0028148033041244017 0.018220022433263 -0.002397412592493472 -0.0115856189831043
 0.9892335933027883 -0.09161174960697523 0.008556152897829261 0.039081198843437366 -0.0023981342937811423 -0.011585562400620185 0.0027852056361569915 0.018224621731285563
 0.0028148033041244017 0.018220022433263 -0.0023981342937811423 -0.011585562400620185 0.008550933319515296 0.03907992308997174 0.9892334905776977 -0.09161351172048557
 -0.002397412592493472 -0.0115856189831043 0.0027852056361569915 0.018224621731285563 0.9892334905776977 -0.09161351172048557 0.008556648577051832 0.039079420737825506
0.1375573155481 0.00898149890680612 0.040854143754923286 0.9886292805730637 -0.09585771334024501 0.0030321038425180262 0.019055702111082054 -0.0025769898407809384 -0.012108897534173196
 0.9886292805730637 -0.09585771334024501 0.008986485660338961 0.04085374388367123 -0.002577781190509931 -0.012108832079673393 0.0029996790181440664 0.019060828609259367
 0.0030321038425180262 0.019055702111082054 -0.002577781190509931 -0.012108832079673393 0.008980756206913397 0.040852424272246814 0.9886291678440813 -0.0958595605357608
 -0.0025769898407809384 -0.012108897534173196 0.0029996790181440664 0.019060828609259367 0.9886291678440813 -0.0958595605357608 0.008987029740825471 0.04085188024204418
0.1438099208003 0.009426592839017141 0.04261691517038161 0.9880035559139727 -0.10009244098812606 0.003258171156552367 0.019887695799941554 -0.00276373308183323 -0.012628803647664713
 0.9880035559139727 -0.10009244098812606 0.009432046002280895 0.04261648738275198 -0.0027645972416399382 -0.012628728497045869 0.0032227962260368485 0.019893389338784002
 0.003258171156552367 0.019887695799941554 -0.0027645972416399382 -0.012628728497045869 0.009425782704688617 0.04261512635177803 0.9880034326748169 -0.10009437343946287
 -0.00276373308183323 -0.012628803647664713 0.0032227962260368485 0.019893389338784002 0.9880034326748169 -0.10009437343946287 0.009432640721490035 0.042614538083737254
0.1500625260525 0.009886729654342667 0.04436972516939428 0.9873565872682375 -0.10431581307542356 0.0034929229479499393 0.020715908749593625 -0.0029575625033821783 -0.013145248370553156
 0.9873565872682375 -0.10431581307542356 0.009892670452755593 0.04436926800061587 -0.0029585026292002683 -0.013145162666120867 0.0034544758255889304 0.020722210607550154
 0.0034929229479499393 0.020715908749593625 -0.0029585026292002683 -0.013145162666120867 0.00988584930525419 0.04436786812012279 0.9873564530052817 -0.10431783096198562
 -0.0029575625033821783 -0.013145248370553156 0.0034544758255889304 0.020722210607550154 0.9873564530052817 -0.10431783096198562 0.009893318046275738 0.04436723291914964
0.15631513130469998 0.010361744580629263 0.04611241732795391 0.9866885435226216 -0.10852771085583009 0.0037362758939886455 0.02154024791491943 -0.0031583972648595473 -0.013658144705341883
 0.9866885435226216 -0.10852771085583009 0.01036819429914599 0.046111929220149714 -0.0031594165068152933 -0.013658047555925945 0.003694635373570747 0.021547200790462122
