! Created with skrf 1.8.0 (http://scikit-rf.org).
# GHz S RI R 50.0 
!freq ReS11 ImS11 ReS12 ImS12 ReS13 ImS13
! ReS14 ImS14
! ReS21 ImS21 ReS22 ImS22 ReS23 ImS23
! ReS24 ImS24
! ReS31 ImS31 ReS32 ImS32 ReS33 ImS33
! ReS34 ImS34
! ReS41 ImS41 ReS42 ImS42 ReS43 ImS43
! ReS44 ImS44
!
0.0 0.001258086900954 0.0 0.998741913089 0.0 4.82089263827e-05 0.0 -4.820892536093e-05 5.903890613359659e-21
 0.998741913089 0.0 0.001258086900948 0.0 -4.820892536085e-05 5.9038906133498614e-21 4.820892638197e-05 0.0
 4.82089263827e-05 0.0 -4.820892536085e-05 5.9038906133498614e-21 0.001258086905935 0.0 0.998741913094 0.0
 -4.820892536093e-05 5.903890613359659e-21 4.820892638197e-05 0.0 0.998741913094 0.0 0.001258086905928 0.0
0.005 0.001352945959297065 0.0010267075659871482 0.9986220029356387 -0.0026363539698832194 6.759713162999065e-05 0.0005494898920426445 -6.560782503114198e-05 -0.00034183301262660494
 0.9986220029356387 -0.0026363539698832194 0.0013529490458659896 0.001026705790650256 -6.560872530763492e-05 -0.0003418337444894784 6.757415666565617e-05 0.0005494986161203556
 6.759713162999065e-05 0.0005494898920426445 -6.560872530763492e-05 -0.0003418337444894784 0.0013529449668794114 0.0010266409324225026 0.9986220026005028 -0.0026364210281046635
 -6.560782503114198e-05 -0.00034183301262660494 6.757415666565617e-05 0.0005494986161203556 0.9986220026005028 -0.0026364210281046635 0.0013529493739461971 0.0010266383138825238
0.006252605252188 0.001377624807270646 0.001287465435869008 0.9985906410006814 -0.003296119751057171 7.302272586398596e-05 0.0006871330020803835 -7.042862078569017e-05 -0.00042774932146941326
 0.9985906410006814 -0.003296119751057171 0.001377629631853991 0.0012874631789707024 -7.043002138495352e-05 -0.00042775022501369763 7.298682888823203e-05 0.00068714432292252
 7.302272586398596e-05 0.0006871330020803835 -7.043002138495352e-05 -0.00042775022501369763 0.0013776233300983065 0.0012873821514046856 0.9985906405512979 -0.0032962035735565843
 -7.042862078569017e-05 -0.00042774932146941326 7.298682888823203e-05 0.00068714432292252 0.9985906405512979 -0.0032962035735565843 0.0013776302196513658 0.00128737883187553
0.01250521050438 0.0015063763060397016 0.002602308707699829 0.9984260884434114 -0.006593239717066486 0.00010353760601116205 0.0013746401701430974 -9.728971555429343e-05 -0.0008577192509959784
 0.9984260884434114 -0.006593239717066486 0.0015063955667855753 0.0026023038201034077 -9.729523174347372e-05 -0.0008577209365807883 0.0001033944403206655 0.0013746672406472096
 0.00010353760601116205 0.0013746401701430974 -9.729523174347372e-05 -0.0008577209365807883 0.0015063709707618881 0.002602142471318001 0.9984260872152867 -0.006593407126099472
 -9.728971555429343e-05 -0.0008577192509959784 0.0001033944403206655 0.0013746672406472096 0.9984260872152867 -0.006593407126099472 0.0015063984884197685 0.0026021353618035144
0.01875781575657 0.001644580910087511 0.003936279658109054 0.99824808075905 -0.009899429844477982 0.0001398171477131705 0.0020630291033769963 -0.0001288661655502035 -0.0012892916600952353
 0.99824808075905 -0.009899429844477982 0.0016446241817231148 0.003936271755305079 -0.00012887846236269804 -0.0012892939881163528 0.00013949550200836763 0.0020630770902823215
 0.0001398171477131705 0.0020630291033769963 -0.00012887846236269804 -0.0012892939881163528 0.0016445693317199929 0.003936030696232267 0.9982480784150972 -0.009899680774966245
 -0.0001288661655502035 -0.0012892916600952353 0.00013949550200836763 0.0020630770902823215 0.9982480784150972 -0.009899680774966245 0.0016446311801118893 0.003936019282730662
0.02501042100875 0.0017924732108806855 0.005287547349376075 0.9980564376456694 -0.01321633496487876 0.00018192595919763586 0.002752360972052462 -0.00016523009700588053 -0.0017222915815968095
 0.9980564376456694 -0.01321633496487876 0.0017925500443380761 0.005287536039619226 -0.0001652518065739045 -0.0017222943915120097 0.00018135456825478144 0.002752435748343196
 0.00018192595919763586 0.002752360972052462 -0.0001652518065739045 -0.0017222943915120097 0.0017924530081599487 0.005287215912058193 0.9980564338494584 -0.013216669392185782
 -0.00016523009700588053 -0.0017222915815968095 0.00018135456825478144 0.002752435748343196 0.9980564338494584 -0.013216669392185782 0.001792562871424118 0.005287199642163525
0.03126302626094 0.0019502778122485406 0.00665519058737308 0.9978509682065974 -0.01654468424173383 0.00022992939667811283 0.0034426321858132486 -0.0002064519439773977 -0.002156605521603849
 0.9978509682065974 -0.01654468424173383 0.001950397739518392 0.006655175472772186 -0.0002064856712216253 -0.002156608631586202 0.00022903687399816034 0.003442740334262942
 0.00022992939667811283 0.0034426321858132486 -0.0002064856712216253 -0.002156608631586202 0.001950246607811116 0.00665477695174351 0.9978509626232698 -0.016545102178592674
 -0.0002064519439773977 -0.002156605521603849 0.00022903687399816034 0.003442740334262942 0.9978509626232698 -0.016545102178592674 0.0019504181585746484 0.006654755235451739
0.037515631513130004 0.002118214637513312 0.00803862466985554 0.9976314763616153 -0.019884864374280293 0.00028389292519276463 0.004133814043365449 -0.0002526009977823178 -0.002592141798508376
 0.9976314763616153 -0.019884864374280293 0.0021183871751825076 0.008038605346886643 -0.00025264932345164234 -0.0025921450053346244 0.00028260773193810825 0.004133962863550691
 0.00028389292519276463 0.004133814043365449 -0.00025264932345164234 -0.0025921450053346244 0.002118170052190372 0.008038129154983266 0.9976314686510664 -0.019885365856293954
 -0.0002526009977823178 -0.002592141798508376 0.00028260773193810825 0.004133962863550691 0.9976314686510664 -0.019885365856293954 0.0021184169554638826 0.00803810136498109
0.043768236765320004 0.0022965009811836434 0.009437426955539398 0.9973977630033593 -0.023237093974544338 0.0003438818274337295 0.004825864792586752 -0.0003037456172781447 -0.0030288184711296266
 0.9973977630033593 -0.023237093974544338 0.0022967356330787416 0.009437403015621144 -0.00030381109976872304 -0.0030288215501637077 0.0003421322568746665 0.004826062308966372
 0.0003438818274337295 0.004825864792586752 -0.00030381109976872304 -0.0030288215501637077 0.0022964406375627555 0.009436849926536973 0.9973977528231476 -0.023237679056528713
 -0.0003037456172781447 -0.0030288184711296266 0.0003421322568746665 0.004826062308966372 0.9973977528231476 -0.023237679056528713 0.0022967765538040633 0.00943681539824422
0.050020842017509996 0.002485352470679762 0.010851264769591517 0.997149627064937 -0.02660149560593855 0.00040996103828797915 0.005518734598424123 -0.0003599533156917999 -0.0034665583594537305
 0.997149627064937 -0.02660149560593855 0.00248565873009017 0.010851235799539966 -0.0003600384922435292 -0.0034665610646454023 0.0004076752084503062 0.005518989568887581
 0.00040996103828797915 0.005518734598424123 -0.0003600384922435292 -0.0034665610646454023 0.00248527399280934 0.010850606634385708 0.9971496140691726 -0.02660216436571318
 -0.0003599533156917999 -0.0034665583594537305 0.0004076752084503062 0.005518989568887581 0.9971496140691726 -0.02660216436571318 0.0024857125802832296 0.010850564665928484
0.055454545454549996 0.0026582169193075096 0.012091926393710727 0.9969221193419844 -0.02953519691546098 0.00047238203672220094 0.006121481662504233 -0.00041296317266634175 -0.003847772863675241
 0.9969221193419844 -0.02953519691546098 0.0026585931109450152 0.01209189271345717 -0.00041306750872034415 -0.0038477750275427917 0.0004695716663084526 0.006121794250968169
 0.00047238203672220094 0.006121481662504233 -0.00041306750872034415 -0.0038477750275427917 0.002658120754224958 0.012091198144990996 0.9969221036153834 -0.029535938469459695
 -0.00041296317266634175 -0.003847772863675241 0.0004695716663084526 0.006121794250968169 0.9969221036153834 -0.029535938469459695 0.002658659658227598 0.012091149111752016
0.056273447269699996 0.0026849835745474207 0.012279860013100117 0.9968868661370206 -0.029978131117812886 0.0004821950317048137 0.006212367990583063 -0.00042129079551236686 -0.003905286586521307
 0.9968868661370206 -0.029978131117812886 0.0026853709263875156 0.01227982559549506 -0.00042139818307636865 -0.003905288650421394 0.00047930088282811454 0.006212689915175204
 0.0004821950317048137 0.006212367990583063 -0.00042139818307636865 -0.003905288650421394 0.00268488458867909 0.012279121226425561 0.996886849975922 -0.029978883652621694
 -0.00042129079551236686 -0.003905286586521307 0.00047930088282811454 0.006212689915175204 0.996886849975922 -0.029978883652621694 0.0026854395055963096 0.012279071078526401
0.06252605252188 0.002895607885074276 0.013722969710014337 0.9966092768605144 -0.03336702104289569 0.0005606477363795147 0.006906705193564174 -0.000487823954083565 -0.004344929239201579
 0.9966092768605144 -0.03336702104289569 0.002896085807545642 0.013722929423548233 -0.00048795604990511265 -0.004344930372975411 0.0005570730318016643 0.006907104323297685
 0.0005606477363795147 0.006906705193564174 -0.00048795604990511265 -0.004344930372975411 0.0028954860198990053 0.013722150777174761 0.9966092571795202 -0.033367857466097196
 -0.000487823954083565 -0.004344929239201579 0.0005570730318016643 0.006907104323297685 0.9966092571795202 -0.033367857466097196 0.0028961709261914464 0.01372209167299976
0.06877865777407 0.003117438280653164 0.015180374412156002 0.9963166552016989 -0.036768156137683576 0.0006453824654739714 0.007601682924464536 -0.0005596178746020945 -0.004785412562631051
 0.9963166552016989 -0.036768156137683576 0.003118016247409889 0.01518032783195572 -0.000559777156692841 -0.004785412456092433 0.0006410547945789709 0.007602170270125885
 0.0006453824654739714 0.007601682924464536 -0.000559777156692841 -0.004785412456092433 0.0031172911676817156 0.015179475885771015 0.996316631641079 -0.03676907658248147
 -0.0005596178746020945 -0.004785412562631051 0.0006410547945789709 0.007602170270125885 0.996316631641079 -0.03676907658248147 0.003118119726999569 0.01517940701067274
0.07503126302626001 0.0033506870161772767 0.016651870839376106 0.9960087966570902 -0.04018150468904383 0.0007364618548647283 0.008297234897386194 -0.0006367368075625723 -0.005226662449608443
 0.9960087966570902 -0.04018150468904383 0.003351374497927008 0.016651817537230357 -0.0006369257350497901 -0.005226660771239905 0.0007313086379210095 0.008297822238361532
 0.0007364618548647283 0.008297234897386194 -0.0006369257350497901 -0.005226660771239905 0.0033505122914181413 0.016650893323350704 0.9960087688519871 -0.04018250930496768
 -0.0006367368075625723 -0.005226662449608443 0.0007313086379210095 0.008297822238361532 0.9960087688519871 -0.04018250930496768 0.0033514981724059234 0.01665081382460881
0.08128386827845 0.0035955657714999132 0.01813726698754196 0.9956854964188293 -0.043607017354572127 0.0008339478076587921 0.008993292153426929 -0.000719244145217929 -0.005668604106116967
 0.9956854964188293 -0.043607017354572127 0.0035963722377614043 0.018137206532106404 -0.0007194651585886819 -0.005668600503101513 0.0008278963017649368 0.008993992046456113
 0.0008339478076587921 0.008993292153426929 -0.0007194651585886819 -0.005668600503101513 0.0035953610749292152 0.018136211133650538 0.9956854639978374 -0.04360810631127907
 -0.000719244145217929 -0.005668604106116967 0.0008278963017649368 0.008993992046456113 0.9956854639978374 -0.04360810631127907 0.0035965179530529244 0.01813612012017148
0.08753647353064001 0.0038522856672272596 0.01963637873864464 0.9953465495091394 -0.047044630502458 0.0009379014412207931 0.0096897832948439 -0.0008072023923545638 -0.00611116181446099
 0.9953465495091394 -0.047044630502458 0.0038532205882525613 0.0196363106956094 -0.0008074579136507895 -0.00611115591270589 0.0009308787475072525 0.00969060908270338
 0.0009379014412207931 0.0096897832948439 -0.0008074579136507895 -0.00611115591270589 0.0038520486441111453 0.019635245249835752 0.995346512094437 -0.04704580398681089
 -0.0008072023923545638 -0.00611116181446099 0.0009308787475072525 0.00969060908270338 0.995346512094437 -0.04704580398681089 0.003853390203219404 0.01963514179173744
0.09378907878283 0.00412105726276426 0.021149027443522362 0.9949917508994081 -0.05049426858060801 0.0010483830369961962 0.010386634647607732 -0.0009006731335437854 -0.006554258769832835
 0.9949917508994081 -0.05049426858060801 0.004122130111169202 0.021148951375692834 -0.0009009655665036405 -0.006554250174014464 0.0010403161085179734 0.010387600467730355
 0.0010483830369961962 0.010386634647607732 -0.0009009655665036405 -0.006554250174014464 0.004120785564706826 0.021147817076563272 0.9949917081063029 -0.050495526794441414
 -0.0009006731335437854 -0.006554258769832835 0.0010403161085179734 0.010387600467730355 0.9949917081063029 -0.050495526794441414 0.0041223254985607366 0.021147700204790107
0.100041684035 0.004402090539497294 0.022675038142630822 0.9946208956161968 -0.05395584584975792 0.0011654519917548678 0.01108377038347627 -0.0009997169978811938 -0.00699781695935642
 0.9946208956161968 -0.05395584584975792 0.004403310792139499 0.02267495361001155 -0.0010000487280742998 -0.006997805252945093 0.0011562676421964704 0.011084891176448513
 0.0011654519917548678 0.01108377038347627 -0.0010000487280742998 -0.006997805252945093 0.004401781824399929 0.022673751700550873 0.9946208470520556 -0.05395718901782382
 -0.0009997169978811938 -0.00699781695935642 0.0011562676421964704 0.011084891176448513 0.9946208470520556 -0.05395718901782382 0.004403533838027345 0.02267362040637313
0.1059090909091 0.004677148844550714 0.024119036131278672 0.9942581014448487 -0.05721494335059986 0.0012813520106406489 0.011738147618322543 -0.0010977809910664312 -0.007414398131275002
 0.9942581014448487 -0.05721494335059986 0.004678516044839431 0.024118943252663547 -0.0010981517510522604 -0.00741438310821186 0.001271052401854345 0.011739428148005953
 0.0012813520106406489 0.011738147618322543 -0.0010981517510522604 -0.00741438310821186 0.004676803269613423 0.024117679082727963 0.9942580471007422 -0.05721636645378472
 -0.0010977809910664312 -0.007414398131275002 0.001271052401854345 0.011739428148005953 0.9942580471007422 -0.05721636645378472 0.004678766773611915 0.024117533301445546
0.1062942892872 0.004695594872660548 0.024214238226047707 0.9942337788382183 -0.05742926767944199 0.0012891667693259122 0.011781112612938432 -0.0011043936224027955 -0.0074417570722082466
 0.9942337788382183 -0.05742926767944199 0.0046969720123389135 0.024214144785828194 -0.0011047670172767718 -0.007441741817502766 0.0012787916823806859 0.011782404130904856
 0.0012891667693259122 0.011781112612938432 -0.0011047670172767718 -0.007441741817502766 0.004695246806095035 0.02421287656912136 0.994233724102138 -0.057430696038611694
 -0.0011043936224027955 -0.0074417570722082466 0.0012787916823806859 0.011782404130904856 0.994233724102138 -0.057430696038611694 0.004697224617365061 0.024212729803637593
0.11254689453939999 0.005001778995779564 0.025766456414231476 0.993830195987693 -0.0609144315253352 0.0014195848536098113 0.01247858145569053 -0.00121476161331395 -0.007885998434266397
 0.993830195987693 -0.0609144315253352 0.005003322513145408 0.025766353620724894 -0.0012151790222440122 -0.007885979172437404 0.0014079455929216838 0.012480060270659423
 0.0014195848536098113 0.01247858145569053 -0.0012151790222440122 -0.007885979172437404 0.005001389251491986 0.025765020452410005 0.9938301346700084 -0.06091594533258973
 -0.00121476161331395 -0.007885998434266397 0.0014079455929216838 0.012480060270659423 0.9938301346700084 -0.06091594533258973 0.0050036065928025925 0.025764857125948795
0.11879949979160001 0.005320850958589373 0.027331521953064073 0.9934099428166892 -0.06441122769455272 0.0015567627014752214 0.013176095098910823 -0.0013308785065462502 -0.008330458957126549
 0.9934099428166892 -0.06441122769455272 0.0053225703538003315 0.027331409357642097 -0.0013313422608692115 -0.008330435208256498 0.0015437857210508239 0.013177778610885447
 0.0015567627014752214 0.013176095098910823 -0.0013313422608692115 -0.008330435208256498 0.005320417219463092 0.027330012649464407 0.9934098744985623 -0.06441282722377575
 -0.0013308785065462502 -0.008330458957126549 0.0015437857210508239 0.013177778610885447 0.9934098744985623 -0.06441282722377575 0.005322887838937643 0.02732983163094601
0.1250521050438 0.005653018080167854 0.02890926398240379 0.9929728154918241 -0.06791953994005157 0.0017007556961357157 0.01387356984382 -0.0014528007270009566 -0.008775055100992616
 0.9929728154918241 -0.06791953994005157 0.005654922864803023 0.028909141133287995 -0.0014533131400172987 -0.008775026364113604 0.0016863673512432181 0.013875476288814128
 0.0017007556961357157 0.01387356984382 -0.0014533131400172987 -0.008775026364113604 0.0056525380389974055 0.028907682351984456 0.9929727397442664 -0.06792122548349513
 -0.0014528007270009566 -0.008775055100992616 0.0016863673512432181 0.013875476288814128 0.9929727397442664 -0.06792122548349513 0.005655275702134368 0.02890748246823529
0.131304710296 0.00599848689736184 0.03049951102524005 0.9925186106746968 -0.07143924593656621 0.0018516181005692133 0.01457092014584478 -0.0015805835469948713 -0.009219701846162488
 0.9925186106746968 -0.07143924593656621 0.00600058659621162 0.030499377467286936 -0.0015811469139656049 -0.009219667599301701 0.0018357446590873412 0.014573068603750348
 0.0018516181005692133 0.01457092014584478 -0.0015811469139656049 -0.009219667599301701 0.0059979582577399165 0.030497858137579183 0.9925185270580491 -0.07144101780234566
 -0.0015805835469948713 -0.009219701846162488 0.0018357446590873412 0.014573068603750348 0.9925185270580491 -0.07144101780234566 0.006000976748831626 0.030497638172611818
0.1375573155481 0.006271864794501105 0.03189340042691403 0.9921327466638998 -0.07476146499847222 0.0019885910584038365 0.01524625720116672 -0.0016934896720850526 -0.009642508137904425
 0.9921327466638998 -0.07476146499847222 0.006274170113009013 0.03189325933887715 -0.0016941074816904985 -0.009642468433486451 0.0019711965392509782 0.01524864211517902
 0.0019885910584038365 0.01524625720116672 -0.0016941074816904985 -0.009642468433486451 0.006271285858901413 0.03189167706757847 0.9921326548209857 -0.0747633233772425
 -0.0016934896720850526 -0.009642508137904425 0.0019711965392509782 0.01524864211517902 0.9921326548209857 -0.0747633233772425 0.006274598801523242 0.031891439833561096
0.1438099208003 0.006554623034382989 0.03328095831746839 0.9917337371321139 -0.07807630810511405 0.0021311041130457346 0.015919542081136426 -0.0018109329350636026 -0.010063440228031012
 0.9917337371321139 -0.07807630810511405 0.006557143707700213 0.03328080948237915 -0.0018116076716760887 -0.010063394559908945 0.0021121214973755043 0.015922180637730793
 0.0021311041130457346 0.015919542081136426 -0.0018116076716760887 -0.010063394559908945 0.006553991630308361 0.033279165577578845 0.9917336366245615 -0.07807825330345504
 -0.0018109329350636026 -0.010063440228031012 0.0021121214973755043 0.015922180637730793 0.9917336366245615 -0.07807825330345504 0.006557612784440754 0.033278910117471104
0.1500625260525 0.0068466749665998805 0.03466209935217363 0.9913216717310986 -0.08138372443687751 0.0022791164711915943 0.016590728326959816 -0.0019328737616434272 -0.010482453243257587
 0.9913216717310986 -0.08138372443687751 0.006849420752227102 0.03466194253391124 -0.0019336079067266226 -0.010482401085083554 0.002258479098183129 0.01659363832579621
 0.0022791164711915943 0.016590728326959816 -0.0019336079067266226 -0.010482401085083554 0.006845988939232368 0.03466023836633829 0.9913215621119067 -0.08138575677369715
 -0.0019328737616434272 -0.010482453243257587 0.002258479098183129 0.01659363832579621 0.9913215621119067 -0.08138575677369715 0.006849932076886662 0.03465996367525398
0.15631513130469998 0.00714793347443381 0.03603674094196324 0.9908966404038579 -0.0846836627630361 0.0024325869525075395 0.017259770123553488 -0.0020592721755969207 -0.010899503167073303
