! Created with skrf 1.8.0 (http://scikit-rf.org).
# GHz S RI R 50.0 
!freq ReS11 ImS11 ReS12 ImS12 ReS13 ImS13
! ReS14 ImS14
! ReS21 ImS21 ReS22 ImS22 ReS23 ImS23
! ReS24 ImS24
! ReS31 ImS31 ReS32 ImS32 ReS33 ImS33
! ReS34 ImS34
! ReS41 ImS41 ReS42 ImS42 ReS43 ImS43
! ReS44 ImS44
!
0.0 0.001178531835698 0.0 0.9988214681643 0.0 4.472427592137e-05 0.0 -4.472427559953e-05 5.477144095714849e-21
 0.9988214681643 0.0 0.001178531835704 0.0 -4.472427559948e-05 5.477144095708725e-21 4.472427592164e-05 0.0
 4.472427592137e-05 0.0 -4.472427559948e-05 5.477144095708725e-21 0.001178531818463 0.0 0.9988214681471 0.0
 -4.472427559953e-05 5.477144095714849e-21 4.472427592164e-05 0.0 0.9988214681471 0.0 0.001178531818468 0.0
0.005 0.0012671480843612136 0.0009668693455746431 0.998709490943251 -0.0024696820895219324 6.186290750639708e-05 0.00047955489295192506 -6.023387323215755e-05 -0.00030345935103072734
 0.998709490943251 -0.0024696820895219324 0.0012671534342328955 0.0009668662721896803 -6.023473700307707e-05 -0.0003034600493950655 6.181623884854853e-05 0.0004795724626446493
 6.186290750639708e-05 0.00047955489295192506 -6.023473700307707e-05 -0.0003034600493950655 0.0012671477807895354 0.0009669367961818904 0.998709491266459 -0.0024696150380190012
 -6.023387323215755e-05 -0.00030345935103072734 6.181623884854853e-05 0.0004795724626446493 0.998709491266459 -0.0024696150380190012 0.0012671543833232923 0.0009669329245793364
0.006252605252188 0.0012901482337386162 0.001212413954505365 0.9986802838148603 -0.00308774287905687 6.662759185063698e-05 0.0005996968812150323 -6.450177885340265e-05 -0.0003797270638546702
 0.9986802838148603 -0.00308774287905687 0.001290156596397465 0.0012124100885165447 -6.45031227033842e-05 -0.00037972792605928563 6.655467299853657e-05 0.0005997196980117818
 6.662759185063698e-05 0.0005996968812150323 -6.45031227033842e-05 -0.00037972792605928563 0.0012901476908844002 0.0012124982756970867 0.9986802842521094 -0.0030876590606322843
 -6.450177885340265e-05 -0.0003797270638546702 6.655467299853657e-05 0.0005997196980117818 0.9986802842521094 -0.0030876590606322843 0.0012901580123503363 0.001212493403933356
0.01250521050438 0.0014098214833032643 0.0024505019606396445 0.9985274995753219 -0.006176478519736666 9.325608743601422e-05 0.0011998614718681502 -8.81212574286287e-05 -0.0007614298726901887
 0.9985274995753219 -0.006176478519736666 0.0014098548693944584 0.0024504939971718587 -8.81265505832419e-05 -0.0007614314816523099 9.296521324461155e-05 0.0011999161646995197
 9.325608743601422e-05 0.0011998614718681502 -8.81265505832419e-05 -0.0007614314816523099 0.0014098187426307216 0.0024506703998034996 0.9985275007541224 -0.006176311128691319
 -8.81212574286287e-05 -0.0007614298726901887 9.296521324461155e-05 0.0011999161646995197 0.9985275007541224 -0.006176311128691319 0.0014098599611186596 0.002450660335567554
0.01875781575657 0.0015377620420710578 0.003706552287059118 0.9983629620900484 -0.009273771352486405 0.00012466348872699364 0.0018009098949169845 -0.00011564427279030432 -0.0011446061883398854
 0.9983629620900484 -0.009273771352486405 0.0015378370465344545 0.0037065399941317244 -0.00011565607316817435 -0.0011446084122952237 0.00012400985565784954 0.0018010069355826966
 0.00012466348872699364 0.0018009098949169845 -0.00011565607316817435 -0.0011446084122952237 0.0015377554510046952 0.0037068048009311883 0.9983629643175927 -0.009273520487392703
 -0.00011564427279030432 -0.0011446061883398854 0.00012400985565784954 0.0018010069355826966 0.9983629643175927 -0.009273520487392703 0.0015378480767468034 0.0037067891931564447
0.02501042100875 0.0016741766849989563 0.004978861955963283 0.9981865134556609 -0.012381172238424588 0.00016090435620610678 0.0024028940862513178 -0.0001471311785400858 -0.0015291154302340489
 0.9981865134556609 -0.012381172238424588 0.001674309859514076 0.004978845109488486 -0.00014715201277544672 -0.0015291181183724805 0.00015974296283201091 0.002403045301969533
 0.00016090435620610678 0.0024028940862513178 -0.00014715201277544672 -0.0015291181183724805 0.0016741645834575916 0.004979198547153795 0.9981865170346917 -0.012380837963820564
 -0.0001471311785400858 -0.0015291154302340489 0.00015974296283201091 0.002403045301969533 0.9981865170346917 -0.012380837963820564 0.0016743290884334923 0.004979177024350201
0.03126302626094 0.0018192632383549003 0.006266579856209323 0.9979979860488047 -0.015499375331178527 0.00020203394100868052 0.0030058131968596666 -0.0001826410696159563 -0.0019148672357082721
 0.9979979860488047 -0.015499375331178527 0.0018194711006576589 0.00626655824243766 -0.000182673438577739 -0.0019148702178164898 0.00020021944891649793 0.0030060317790666733
 0.00020203394100868052 0.0030058131968596666 -0.000182673438577739 -0.0019148702178164898 0.001819243967199744 0.00626700055465879 0.9979979912870357 -0.01549895769605871
 -0.0001826410696159563 -0.0019148672357082721 0.00020021944891649793 0.0030060317790666733 0.9979979912870357 -0.01549895769605871 0.0018195007959119261 0.006266972727309216
0.037515631513130004 0.0019732154190416616 0.007569170204136245 0.9977972074441639 -0.018628754573705362 0.0002481076648312164 0.003609645943864657 -0.00022223221462952625 -0.002301789095383279
 0.9977972074441639 -0.018628754573705362 0.001973514459580231 0.007569143621319464 -0.00022227859627466047 -0.002301792181744746 0.00024549433139702713 0.0036099464636025766
 0.0002481076648312164 0.003609645943864657 -0.00022227859627466047 -0.002301792181744746 0.0019731873103611404 0.007569675065570083 0.9977972146446374 -0.018628253613115982
 -0.00022223221462952625 -0.002301789095383279 0.00024549433139702713 0.0036099464636025766 0.9977972146446374 -0.018628253613115982 0.0019735568872789643 0.007569640527447282
0.043768236765320004 0.0021362247023384647 0.008886249268261951 0.9975840023607816 -0.021769526925895132 0.0002991808876863271 0.004214360444388308 -0.00026596221961443976 -0.0026898165065725056
 0.9975840023607816 -0.021769526925895132 0.002136631389119491 0.008886217528075585 -0.0002660250707581115 -0.0026898194879324384 0.0002956225293412179 0.004214758869722641
 0.0002991808876863271 0.004214360444388308 -0.0002660250707581115 -0.0026898194879324384 0.0021361860845010793 0.008886838362068118 0.9975840118271376 -0.021768942673171844
 -0.00026596221961443976 -0.0026898165065725056 0.0002956225293412179 0.004214758869722641 0.9975840118271376 -0.021768942673171844 0.0021366888191127905 0.008886796691312612
0.050020842017509996 0.0023084812023419768 0.010217517889693871 0.9973581936234429 -0.0249218197946497 0.00035530877357439327 0.004819918275532867 -0.00031388809995266774 -0.0030788889010251196
 0.9973581936234429 -0.0249218197946497 0.0023090119857560724 0.010217480818388908 -0.00031396985744571994 -0.0030788915485825134 0.0003506587451926244 0.004820431989860692
 0.00035530877357439327 0.004819918275532867 -0.00031396985744571994 -0.0030788915485825134 0.002308430400314857 0.010218191298563946 0.9973582056604693 -0.02492115228183776
 -0.00031388809995266774 -0.0030788889010251196 0.0003506587451926244 0.004820431989860692 0.9973582056604693 -0.02492115228183776 0.002309086691857956 0.010218142058407821
0.055454545454549996 0.0024658341670206942 0.011385761005931817 0.9971515846594984 -0.027670670022761204 0.00040823324292700515 0.005346817981796971 -0.0003589885631963075 -0.0034178076932179437
 0.9971515846594984 -0.027670670022761204 0.002466486143132291 0.011385719172803815 -0.00035908871500587127 -0.0034178098496980337 0.00040251505976911635 0.005347447116515913
 0.00040823324292700515 0.005346817981796971 -0.00035908871500587127 -0.0034178098496980337 0.0024657714117459497 0.011386507769514323 0.9971515991772801 -0.02766993017474281
 -0.0003589885631963075 -0.0034178076932179437 0.00040251505976911635 0.005347447116515913 0.9971515991772801 -0.02766993017474281 0.002466577710731797 0.011386451585555879
0.056273447269699996 0.002490174139286396 0.011562728355552733 0.997119602711858 -0.028085704110313955 0.0004165462031868417 0.005426276460351502 -0.0003660663074088188 -0.003468947647359607
 0.997119602711858 -0.028085704110313955 0.00249084545594066 0.011562685795092129 -0.0003661693889325124 -0.003468949712772073 0.00041065738729764744 0.005426924281155377
 0.0004165462031868417 0.005426276460351502 -0.0003661693889325124 -0.003468949712772073 0.0024901094723526447 0.011563486183870927 0.9971196176234646 -0.028084953359993333
 -0.0003660663074088188 -0.003468947647359607 0.00041065738729764744 0.005426924281155377 0.9971196176234646 -0.028084953359993333 0.0024909397140007858 0.011563428923339236
0.06252605252188 0.0026814921015332034 0.012921666198275058 0.9968680501072047 -0.031261212477470275 0.0004829477068947209 0.006033388554823148 -0.000422552737749933 -0.003859934953296289
 0.9968680501072047 -0.031261212477470275 0.0026823203782578397 0.012921618007334093 -0.0004226795424308192 -0.003859936168689852 0.00047567250896850933 0.006034190752701173
 0.0004829477068947209 0.006033388554823148 -0.0004226795424308192 -0.003859936168689852 0.002681411884076894 0.012922508564308486 0.9968680681967182 -0.031260378510614764
 -0.000422552737749933 -0.003859934953296289 0.00047567250896850933 0.006034190752701173 0.9968680681967182 -0.031260378510614764 0.0026824364666372556 0.012922442818786701
0.06877865777407 0.0028826231991347976 0.014294139336079795 0.9966033555310986 -0.03444834998514558 0.0005545674107375408 0.006641205297573485 -0.0004834027252263411 -0.004251793206132283
 0.9966033555310986 -0.03444834998514558 0.0028836248568964323 0.014294085390909093 -0.00048355563408501983 -0.004251793284119136 0.0005457577590016144 0.006642183615396334
 0.0005545674107375408 0.006641205297573485 -0.00048355563408501983 -0.004251793284119136 0.0028825257414395906 0.014295066374732403 0.9966033771023892 -0.03444743281851112
 -0.0004834027252263411 -0.004251793206132283 0.0005457577590016144 0.006642183615396334 0.9966033771023892 -0.03444743281851112 0.0028837650571844915 0.01429499166642187
0.07503126302626001 0.003093755153699259 0.015679971193341292 0.9963253381225667 -0.037647101037734235 0.0006314589891605813 0.0072496750171105314 -0.0005486710300827555 -0.004644464556748008
 0.9963253381225667 -0.037647101037734235 0.0030949466111878953 0.015679911388662437 -0.000548852406345571 -0.004644463190442321 0.0006209663375662498 0.0072508526892531375
 0.0006314589891605813 0.0072496750171105314 -0.000548852406345571 -0.004644463190442321 0.003093638761683217 0.015680983051778875 0.9963253634800444 -0.037646100688379994
 -0.0005486710300827555 -0.004644464556748008 0.0006209663375662498 0.0072508526892531375 0.9963253634800444 -0.037646100688379994 0.0030951132079506615 0.015680898890093654
0.08128386827845 0.003315075348478217 0.017078996110740124 0.9960338165780701 -0.040857433897357985 0.0007136756225824959 0.007858743902546959 -0.0006184118205717378 -0.005037890641252329
 0.9960338165780701 -0.040857433897357985 0.0033164730261144217 0.01707893036044057 -0.0006186240099827568 -0.005037887504286816 0.0007013509563697515 0.00786014567416322
 0.0007136756225824959 0.007858743902546959 -0.0006186240099827568 -0.005037887504286816 0.003314938323396654 0.017080092950667317 0.9960338460257787 -0.04085635038047729
 -0.0006184118205717378 -0.005037890641252329 0.0007013509563697515 0.00786014567416322 0.9960338460257787 -0.04085635038047729 0.003316668305990166 0.01707999883251815
0.08753647353064001 0.0035467708517058377 0.018491056179967297 0.9957286092648056 -0.04407930380259622 0.000801269957617277 0.008468356188962543 -0.0006926786519279228 -0.005432012389194142
 0.9957286092648056 -0.04407930380259622 0.0035483911750800057 0.018490984417819253 -0.0006929239828859587 -0.005432007135744614 0.0007869638007138244 0.00847000833524759
 0.000801269957617277 0.008468356188962543 -0.0006929239828859587 -0.005432007135744614 0.0035466114906021863 0.018492238178869413 0.9957286431072009 -0.044078137130469715
 -0.0006926786519279228 -0.005432012389194142 0.0007869638007138244 0.00847000833524759 0.9957286431072009 -0.044078137130469715 0.003548617427451663 0.018492133588907715
0.09378907878283 0.0037890284216216003 0.019915998977727806 0.9954095343186373 -0.04731265518925478 0.0008942940690055752 0.009078454289337163 -0.0007715244427282239 -0.00582676988645395
 0.9954095343186373 -0.04731265518925478 0.0037908878255066914 0.01991592115795306 -0.0007718052264793252 -0.005826762151261972 0.0008778564931336958 0.009080384634773333
 0.0008942940690055752 0.009078454289337163 -0.0007718052264793252 -0.005826762151261972 0.0037888450174882746 0.019917266328498478 0.9954095728607086 -0.04731140537171726
 -0.0007715244427282239 -0.00582676988645395 0.0008778564931336958 0.009080384634773333 0.9954095728607086 -0.04731140537171726 0.00379114734215984 0.01991715073925587
0.100041684035 0.004042034499825759 0.02135367590464167 0.9950764097315167 -0.05055742330748906 0.000992799422810004 0.009688978893577498 -0.0008550014494668166 -0.006222102272341456
 0.9950764097315167 -0.05055742330748906 0.004044149431691506 0.021353592002451644 -0.0008553199801977073 -0.006222091670733921 0.0009740800578907793 0.009691216831136917
 0.000992799422810004 0.009688978893577498 -0.0008553199801977073 -0.006222091670733921 0.0040418253414156785 0.021355028813749777 0.9950764532785242 -0.05055609035389308
 -0.0008550014494668166 -0.006222102272341456 0.0009740800578907793 0.009691216831136917 0.9950764532785242 -0.05055609035389308 0.004044444506454134 0.02135490168568079
0.1059090909091 0.004289395307310048 0.022714234648434046 0.9947508674573011 -0.05361261275366237 0.0010902666588809404 0.010262225096767674 -0.0009375937509009212 -0.006593547534334773
 0.9947508674573011 -0.05361261275366237 0.0042917649988377625 0.022714145035009892 -0.0009379497745991985 -0.006593533875774756 0.0010692689337399078 0.010264779823489934
 0.0010902666588809404 0.010262225096767674 -0.0009379497745991985 -0.006593533875774756 0.0042891604212935645 0.022715668046832903 0.994750915978628 -0.053611201791907946
 -0.0009375937509009212 -0.006593547534334773 0.0010692689337399078 0.010264779823489934 0.994750915978628 -0.053611201791907946 0.004292095528917703 0.022715529589344943
0.1062942892872 0.004305975193922697 0.022803940923140385 0.9947290534303136 -0.0538135354414518 0.0010968368407036496 0.010299869037325118 -0.0009431612391909683 -0.006617947668284639
 0.9947290534303136 -0.0538135354414518 0.004308362118152439 0.022803850935084517 -0.0009435197941304971 -0.00661793379620241 0.0010756848865352054 0.010302445547587429
 0.0010968368407036496 0.010299869037325118 -0.0009435197941304971 -0.00661793379620241 0.004305738566035224 0.022805379613961774 0.9947291022877695 -0.05381211935748622
 -0.0009431612391909683 -0.006617947668284639 0.0010756848865352054 0.010302445547587429 0.9947291022877695 -0.05381211935748622 0.004308695046728384 0.02280524039545708
0.11254689453939999 0.004581036253494015 0.024266649609645998 0.9943672833494429 -0.05708091181590476 0.0012064564641542494 0.010911062161351744 -0.0010360546617285572 -0.007014243117313605
 0.9943672833494429 -0.05708091181590476 0.004583711654889459 0.024266553554025405 -0.0010364555011841048 -0.007014225551337621 0.001182720702941583 0.010914009831571278
 0.0012064564641542494 0.010911062161351744 -0.0010364555011841048 -0.007014225551337621 0.004580770437089246 0.024268174317465745 0.9943673378233684 -0.057079412608716434
 -0.0010360546617285572 -0.007014243117313605 0.001182720702941583 0.010914009831571278 0.9943673378233684 -0.057079412608716434 0.004584084734888382 0.024268022444696717
0.11879949979160001 0.0048674030408281275 0.025741658393322493 0.9939909175014273 -0.06035946631812682 0.0013217077194377772 0.011522494153602101 -0.0011337318201328872 -0.007410924542332104
 0.9939909175014273 -0.06035946631812682 0.004870383428882626 0.025741556310391815 -0.0011341771875557714 -0.007410902839712912 0.001295236529479606 0.011525847196651137
 0.0013217077194377772 0.011522494153602101 -0.0011341771875557714 -0.007410902839712912 0.0048671063134451235 0.02574326937077636 0.9939909778987565 -0.06035788399104312
 -0.0011337318201328872 -0.007410924542332104 0.001295236529479606 0.011525847196651137 0.9939909778987565 -0.06035788399104312 0.0048707989596208714 0.025743104267510843
0.1250521050438 0.005165260497023427 0.0272288239680742 0.9935997740431279 -0.06364910704784581 0.0014426392826493036 0.01213409938492686 -0.0012362420407928726 -0.0078079267122145996
 0.9935997740431279 -0.06364910704784581 0.005168562409547045 0.027228715920210894 -0.0012367341627722182 -0.007807900410900125 0.001413280652559163 0.012137893658153697
 0.0014426392826493036 0.01213409938492686 -0.0012367341627722182 -0.007807900410900125 0.005164931132313745 0.027230521482405557 0.9935998406712764 -0.0636474416032336
 -0.0012362420407928726 -0.0078079267122145996 0.001413280652559163 0.012137893658153697 0.9935998406712764 -0.0636474416032336 0.0051690226915063735 0.027230342559751153
0.131304710296 0.005474793103904528 0.028728002809693825 0.9931936713405325 -0.06694973676406364 0.001569299044498348 0.012745810739128645 -0.0013436338427271072 -0.008205183215092969
 0.9931936713405325 -0.06694973676406364 0.005478433111243809 0.028727888881453608 -0.0013441749289865598 -0.008205151833763868 0.0015369005885489027 0.012750083763071785
 0.001569299044498348 0.012745810739128645 -0.0013441749289865598 -0.008205151833763868 0.0054744293721264515 0.02872978714420959 0.9931937445073983 -0.06694798820201392
 -0.0013436338427271072 -0.008205183215092969 0.0015369005885489027 0.012750083763071785 0.9931937445073983 -0.06694798820201392 0.005478940446259666 0.028729593800187216
0.1375573155481 0.0057172742823394535 0.030043438939435077 0.992851356251008 -0.07006559002317427 0.001683680418770409 0.013337406965854228 -0.0014379436867659897 -0.008582454559901547
 0.992851356251008 -0.07006559002317427 0.005721271592258392 0.030043321284111364 -0.0014385370786226973 -0.00858241817056958 0.001648172420291406 0.013342146194990172
 0.001683680418770409 0.013337406965854228 -0.0014385370786226973 -0.00858241817056958 0.005716875093854205 0.030045310228577506 0.9928514362505072 -0.07006375837285617
 -0.0014379436867659897 -0.008582454559901547 0.001648172420291406 0.013342146194990172 0.9928514362505072 -0.07006375837285617 0.005721827669835787 0.03004510427552529
0.1438099208003 0.005967996823467588 0.03135321537892058 0.9924975246221144 -0.07317482447161518 0.0018026768827259303 0.013927321030222003 -0.0015360310711896724 -0.008958192409217266
 0.9924975246221144 -0.07317482447161518 0.005972368495323606 0.03135309412442476 -0.001536679158148582 -0.008958150547800118 0.001763921404734527 0.013932560075001276
 0.0018026768827259303 0.013927321030222003 -0.001536679158148582 -0.008958150547800118 0.005967560560100633 0.03135517390210396 0.9924976117599912 -0.07317290973716281
 -0.0015360310711896724 -0.008958192409217266 0.001763921404734527 0.013932560075001276 0.9924976117599912 -0.07317290973716281 0.005972975508288287 0.03135495479818384
0.1500625260525 0.00622688752295107 0.03265726035247012 0.9921322522908443 -0.07627740117200016 0.0019262561140496615 0.014515516576085187 -0.0016378647721055689 -0.009332361803689349
 0.9921322522908443 -0.07627740117200016 0.006231650671272033 0.032657135614311265 -0.0016385699412119102 -0.00933231398761799 0.0018841158291650793 0.014521290253122338
 0.0019262561140496615 0.014515516576085187 -0.0016385699412119102 -0.00933231398761799 0.006226412571054361 0.0326593063984695 0.992132346873321 -0.07627540335917801
 -0.0016378647721055689 -0.009332361803689349 0.0018841158291650793 0.014521290253122338 0.992132346873321 -0.07627540335917801 0.006232310806507191 0.03265907356372873
0.15631513130469998 0.006493872830250132 0.03395550448757122 0.9917556152863685 -0.07937328063046553 0.0020543855125213745 0.015101957722439227 -0.0017434132761217948 -0.009704928431446696
