! Created with skrf 1.8.0 (http://scikit-rf.org).
# GHz S RI R 50.0 
!freq ReS11 ImS11 ReS12 ImS12 ReS13 ImS13
! ReS14 ImS14
! ReS21 ImS21 ReS22 ImS22 ReS23 ImS23
! ReS24 ImS24
! ReS31 ImS31 ReS32 ImS32 ReS33 ImS33
! ReS34 ImS34
! ReS41 ImS41 ReS42 ImS42 ReS43 ImS43
! ReS44 ImS44
!
0.0 0.001513220836219 0.0 0.9984867791638 0.0 5.854299706114e-05 0.0 -5.854299697786e-05 7.169449386142942e-21
 0.9984867791638 0.0 0.001513220836231 0.0 -5.854299697811e-05 7.169449386173558e-21 5.854299706132e-05 0.0
 5.854299706114e-05 0.0 -5.854299697811e-05 7.169449386173558e-21 0.001513220821842 0.0 0.9984867791494 0.0
 -5.854299697786e-05 7.169449386142942e-21 5.854299706132e-05 0.0 0.9984867791494 0.0 0.001513220821845 0.0
0.005 0.0016280605203057947 0.0012337673814997168 0.9983414883020659 -0.003170170900636033 8.264407032635244e-05 0.0006703513518108562 -8.008487927666369e-05 -0.00041636749528706733
 0.9983414883020659 -0.003170170900636033 0.001628073256325473 0.0012337600077706597 -8.00894948040536e-05 -0.0004163710319650825 8.2544467640891e-05 0.0006703891629353877
 8.264407032635244e-05 0.0006703513518108562 -8.00894948040536e-05 -0.0004163710319650825 0.0016280585532029552 0.0012338358215371952 0.998341488655903 -0.003170103842635686
 -8.008487927666369e-05 -0.00041636749528706733 8.2544467640891e-05 0.0006703891629353877 0.998341488655903 -0.003170103842635686 0.0016280759312685324 0.0012338256854507277
0.006252605252188 0.0016581538306429768 0.001547085674013994 0.9983031759084842 -0.0039634946238728255 8.95259163373124e-05 0.0008382530971049121 -8.615811941196702e-05 -0.0005210049383403683
 0.9983031759084842 -0.0039634946238728255 0.001658173738918096 0.0015470763096008726 -8.616530164523532e-05 -0.0005210092990279035 8.937029478819572e-05 0.00083830220601821
 8.95259163373124e-05 0.0008382530971049121 -8.616530164523532e-05 -0.0005210092990279035 0.0016581506835148276 0.0015471712312011788 0.9983031763896909 -0.003963410797751112
 -8.615811941196702e-05 -0.0005210049383403683 8.937029478819572e-05 0.00083830220601821 0.9983031763896909 -0.003963410797751112 0.0016581778489392993 0.001547158408046328
0.01250521050438 0.001816422421853131 0.0031267717675995655 0.9981003505916826 -0.007927839830349075 0.00012897129587586116 0.0016767914039785778 -0.00012056961535221064 -0.0010445755200010718
 0.9981003505916826 -0.007927839830349075 0.0018165019104905268 0.003126751586502917 -0.00012059792139089008 -0.0010445835826125437 0.00012835066547310292 0.001676909491191466
 0.00012897129587586116 0.0016767914039785778 -0.00012059792139089008 -0.0010445835826125437 0.001816409286328235 0.003126942665289348 0.9981003519484378 -0.00792767245274165
 -0.00012056961535221064 -0.0010445755200010718 0.00012835066547310292 0.001676909491191466 0.9981003519484378 -0.00792767245274165 0.0018165177616011553 0.00312691547121021
0.01875781575657 0.0019883680739169627 0.004729093329183237 0.9978780541615067 -0.011902693172210562 0.00017696884213587962 0.0025162059452778886 -0.00016188328491534632 -0.0015699260958498195
 0.9978780541615067 -0.011902693172210562 0.001988546677976325 0.004729060849954034 -0.0001619464108417845 -0.0015699370763831186 0.00017557454803869606 0.0025164166945030896
 0.00017696884213587962 0.0025162059452778886 -0.0001619464108417845 -0.0015699370763831186 0.0019883381262405784 0.0047293496021558875 0.9978780567862513 -0.011902442333723317
 -0.00016188328491534632 -0.0015699260958498195 0.00017557454803869606 0.0025164166945030896 0.9978780567862513 -0.011902442333723317 0.0019885818807347695 0.004729306345096127
0.02501042100875 0.0021743223785774066 0.006351802745136202 0.9976360278691659 -0.01588998472325113 0.00023360995777417377 0.003356539462143765 -0.00021020140221047906 -0.0020968136899417915
 0.9976360278691659 -0.01588998472325113 0.002174639548037834 0.006351756471445187 -0.00021031288157830812 -0.002096826665338837 0.00023113315150892418 0.003356870242973929
 0.00023360995777417377 0.003356539462143765 -0.00021031288157830812 -0.002096826665338837 0.0021742688048596993 0.006352144498934664 0.9976360321546445 -0.015889650507575914
 -0.00021020140221047906 -0.0020968136899417915 0.00023113315150892418 0.003356870242973929 0.9976360321546445 -0.015889650507575914 0.0021747017050938212 0.00635208336377885
0.03126302626094 0.0023746031769075614 0.007993744746692929 0.9973739996225672 -0.019890542045265063 0.00029898669066287205 0.004197754460278838 -0.0002656233228051606 -0.0026250698856177383
 0.9973739996225672 -0.019890542045265063 0.0023750983011949977 0.007993683171422078 -0.0002657965544547785 -0.002625083792044737 0.00029511804012029617 0.004198236351734952
 0.00029898669066287205 0.004197754460278838 -0.0002657965544547785 -0.002625083792044737 0.0023745191666720822 0.007994172168291538 0.9973740059584835 -0.019890124518510986
 -0.0002656233228051606 -0.0026250698856177383 0.00029511804012029617 0.004198236351734952 0.9973740059584835 -0.019890124518510986 0.0023751950070983806 0.007994091220707118
0.037515631513130004 0.002589521433938025 0.009654167149319286 0.9970916910698576 -0.023904779388970846 0.0003731907529993041 0.005039781829933591 -0.00032824624222362666 -0.003154552199948444
 0.9970916910698576 -0.023904779388970846 0.0025902338582107164 0.009654088757493188 -0.00032849450437247047 -0.0031545658322407293 0.00036762030872775997 0.0050404496597701515
 0.0003731907529993041 0.005039781829933591 -0.00032849450437247047 -0.0031545658322407293 0.0025894001796062183 0.00965468049710201 0.9970916998441279 -0.02390427861014256
 -0.00032824624222362666 -0.003154552199948444 0.00036762030872775997 0.0050404496597701515 0.9970916998441279 -0.02390427861014256 0.0025903727028437915 0.009654577685456312
0.043768236765320004 0.0028193839022904953 0.01133251107231295 0.9967888204779436 -0.02793290740599055 0.0004563130619607568 0.005882535642865433 -0.0003981654718332333 -0.003685129285397669
 0.9967888204779436 -0.02793290740599055 0.0028203529424075547 0.011332414343281192 -0.0003985019305707412 -0.003685141296867806 0.0004487301909110538 0.005883428031782323
 0.0004563130619607568 0.005882535642865433 -0.0003985019305707412 -0.003685141296867806 0.002819218600966957 0.011333110663493498 0.9967888320784168 -0.0279323234401135
 -0.0003981654718332333 -0.003685129285397669 0.0004487301909110538 0.005883428031782323 0.9967888320784168 -0.0279323234401135 0.0028205415136898235 0.01133298381962242
0.050020842017509996 0.0030644943543174175 0.013028324243579942 0.9964651041800444 -0.0319750197736411 0.0005484434683845963 0.006725919262003105 -0.00047547453968483375 -0.004216674821732907
 0.9964651041800444 -0.0319750197736411 0.003065759309484913 0.013028207652876343 -0.0004759122542111595 -0.0042166837240884885 0.0005385368231488933 0.006727078670004799
 0.0005484434683845963 0.006725919262003105 -0.0004759122542111595 -0.0042166837240884885 0.0030642782048853736 0.01302901046508245 0.9964651189928788 -0.03197435268158484
 -0.00047547453968483375 -0.004216674821732907 0.0005385368231488933 0.006727078670004799 0.9964651189928788 -0.03197435268158484 0.0030660051925574605 0.013028857304590287
0.055454545454549996 0.003290120149819016 0.01451592181043992 0.9961666345170216 -0.03549911118904431 0.0006358921002959725 0.007459275775659845 -0.0005487312317507075 -0.004679293960103025
 0.9961666345170216 -0.03549911118904431 0.0032916741764330397 0.014515786719450204 -0.0005492674660544613 -0.004679298841869568 0.0006237126103850838 0.007460704731466515
 0.0006358921002959725 0.007459275775659845 -0.0005492674660544613 -0.004679298841869568 0.003289854290284191 0.01451668368640395 0.9961666524338957 -0.0354983719027969
 -0.0005487312317507075 -0.004679293960103025 0.0006237126103850838 0.007460704731466515 0.9961666524338957 -0.0354983719027969 0.0032919760232616446 0.014516505710415378
0.056273447269699996 0.0033251542189855258 0.014741218466384614 0.9961202574340153 -0.03603113565884739 0.000649670565961553 0.007569828333270904 -0.0005602652153392087 -0.004749064529137261
 0.9961202574340153 -0.03603113565884739 0.0033267543843464222 0.014741080487233374 -0.0005608171416147368 -0.004749068692456731 0.0006371280750643602 0.007571301107016529
 0.000649670565961553 0.007569828333270904 -0.0005608171416147368 -0.004749068692456731 0.003324880422503388 0.014741991775592848 0.9961202758436796 -0.03603038549725595
 -0.0005602652153392087 -0.004749064529137261 0.0006371280750643602 0.007571301107016529 0.9961202758436796 -0.03603038549725595 0.003327065161846785 0.014741809897724398
0.06252605252188 0.0036016629204297986 0.016470846214922022 0.9957539949850771 -0.040101223055816614 0.0007600815405491652 0.008414152442092846 -0.0006526274958500434 -0.005282174520317155
 0.9957539949850771 -0.040101223055816614 0.003603637598759625 0.016470685319386835 -0.0006533064890305119 -0.005282172173057544 0.0007445904131765109 0.008415988862718722
 0.0007600815405491652 0.008414152442092846 -0.0006533064890305119 -0.005282172173057544 0.003601324681367811 0.01647170713038251 0.99575401737524 -0.04010038988710012
 -0.0006526274958500434 -0.005282174520317155 0.0007445904131765109 0.008415988862718722 0.99575401737524 -0.04010038988710012 0.0036040208521745643 0.01647149401764387
0.06877865777407 0.0038943180586939324 0.018216886698316514 0.9953660314745358 -0.04418521265875252 0.0008797620429993479 0.009258776095664674 -0.0007526495685320803 -0.005815880330838459
 0.9953660314745358 -0.04418521265875252 0.0038967065723563826 0.01821670135821258 -0.00075346838448784 -0.005815869559884798 0.0008610087836980176 0.009261030426761605
 0.0008797620429993479 0.009258776095664674 -0.00075346838448784 -0.005815869559884798 0.00389390858376476 0.01821783580631417 0.9953660582273405 -0.04418429654535613
 -0.0007526495685320803 -0.005815880330838459 0.0008610087836980176 0.009261030426761605 0.9953660582273405 -0.04418429654535613 0.003897169881685807 0.018217588823448976
0.07503126302626001 0.004203415492787301 0.019979037010197872 0.9949560817548836 -0.048283006652969 0.001008796074783587 0.010103579351843348 -0.0008604177603738366 -0.006350056307065754
 0.9949560817548836 -0.048283006652969 0.004206257195624713 0.01997882569755034 -0.0008613890568958402 -0.006350035057765756 0.0009864665053041341 0.01010630988745983
 0.001008796074783587 0.010103579351843348 -0.0008613890568958402 -0.006350035057765756 0.004202927991584266 0.019980074961460963 0.9949561132507672 -0.048282007661262706
 -0.0008604177603738366 -0.006350056307065754 0.0009864665053041341 0.01010630988745983 0.9949561132507672 -0.048282007661262706 0.0042068081387791265 0.019979791354414068
0.08128386827845 0.004529249366022493 0.021757006252016948 0.994523861150333 -0.05239448453664496 0.0011472658815904003 0.01094843824257778 -0.0009760164786185869 -0.0068845752039739
 0.994523861150333 -0.05239448453664496 0.004532583654806306 0.021756767439309262 -0.000977152815931095 -0.006884541280223505 0.0011210451688122849 0.01095170735501599
 0.0011472658815904003 0.01094843824257778 -0.000977152815931095 -0.006884541280223505 0.004528677051840906 0.021758133765805026 0.9945238977688382 -0.052393402733672274
 -0.0009760164786185869 -0.0068845752039739 0.0011210451688122849 0.01095170735501599 0.9945238977688382 -0.052393402733672274 0.004533229809073193 0.021757810660105806
0.08753647353064001 0.004872112090792417 0.023550511463437937 0.9940690856807027 -0.05651950714036844 0.0012952518531628746 0.011793225070483465 -0.0010995281441682366 -0.007419307914407344
 0.9940690856807027 -0.05651950714036844 0.004875978417207711 0.023550243623456642 -0.0011008419853180183 -0.007419258978733324 0.0012648245414879336 0.011797099257900418
 0.0012952518531628746 0.011793225070483465 -0.0011008419853180183 -0.007419258978733324 0.004871448180325492 0.02355172932659456 0.994069127799373 -0.05651834259549874
 -0.0010995281441682366 -0.007419307914407344 0.0012648245414879336 0.011797099257900418 0.994069127799373 -0.05651834259549874 0.004876727358011189 0.023551363725511427
0.09378907878283 0.0052322943057366645 0.025359274719343364 0.993591472260521 -0.06065791948504027 0.0014528324255593627 0.012637808626281081 -0.0012310331215392872 -0.007954123282229
 0.993591472260521 -0.06065791948504027 0.005236732188456374 0.02535897632465676 -0.0012325368324467843 -0.007954056855892074 0.0014178824733505312 0.012642358559895539
 0.0014528324255593627 0.012637808626281081 -0.0012325368324467843 -0.007954056855892074 0.005231532019644363 0.025360583786836203 0.9935915202554457 -0.06065667227020133
 -0.0012310331215392872 -0.007954123282229 0.0014178824733505312 0.012642358559895539 0.9935915202554457 -0.06065667227020133 0.005237591489517223 0.025360172569033994
0.100041684035 0.005610084813581189 0.027183021002201678 0.9930907388825806 -0.06480955286972388 0.0016200839867690387 0.013482054353493601 -0.0013706096446469166 -0.008488887972993592
 0.9930907388825806 -0.06480955286972388 0.0056151338500612805 0.027182690524327792 -0.0013723154939755914 -0.008488801436117986 0.001580294805915157 0.01348735492444344
 0.0016200839867690387 0.013482054353493601 -0.0013723154939755914 -0.008488801436117986 0.005609217377228939 0.027184422196690244 0.9930907931284748 -0.06480822306053798
 -0.0013706096446469166 -0.008488887972993592 0.001580294805915157 0.01348735492444344 0.9930907931284748 -0.06480822306053798 0.0056161110835151445 0.02718396211373825
0.1059090909091 0.005980871269675496 0.028907796524473565 0.9925995762578135 -0.06871728390483331 0.001785893661703827 0.014273859493370553 -0.0015089961436924701 -0.008990541058515244
 0.9925995762578135 -0.06871728390483331 0.005986529903563547 0.028907434547757366 -0.0015109027497813069 -0.008990433141687387 0.00174127499536878 0.014279936370301028
 0.001785893661703827 0.014273859493370553 -0.0015109027497813069 -0.008990433141687387 0.005979899003750811 0.028909285071479857 0.9925996367086026 -0.06871587666068192
 -0.0015089961436924701 -0.008990541058515244 0.00174127499536878 0.014279936370301028 0.9925996367086026 -0.06871587666068192 0.0059876246889303646 0.028908776063404293
0.1062942892872 0.006005770504270976 0.029021476602161783 0.9925666047898877 -0.06897422643724244 0.001797080783075982 0.014325824483860033 -0.001518333740784908 -0.009023466379033443
 0.9925666047898877 -0.06897422643724244 0.006011470383053135 0.029021112510323608 -0.001520253899617028 -0.009023356970754697 0.0017521352816686913 0.014331954849557616
 0.001797080783075982 0.014325824483860033 -0.001520253899617028 -0.009023356970754697 0.006004791147791034 0.029022970916646837 0.9925666656595519 -0.06897281411114443
 -0.001518333740784908 -0.009023466379033443 0.0017521352816686913 0.014331954849557616 0.9925666656595519 -0.06897281411114443 0.006012573118928797 0.02902245858989026
0.11254689453939999 0.006419636266988291 0.03087436789325883 0.9920187906391812 -0.07315174836947189 0.0019838948274296915 0.01516897813999735 -0.0016742791518762762 -0.009557720562281118
 0.9920187906391812 -0.07315174836947189 0.00642602678015192 0.030873968652705155 -0.0016764256933031046 -0.009557585380903252 0.0019334754549998562 0.01517602176998711
 0.0019838948274296915 0.01516897813999735 -0.0016764256933031046 -0.009557585380903252 0.006418538226030085 0.030875956391486145 0.9920188585035424 -0.0731502536059647
 -0.0016742791518762762 -0.009557720562281118 0.0019334754549998562 0.01517602176998711 0.9920188585035424 -0.0731502536059647 0.006427262586115421 0.03087538830876169
0.11879949979160001 0.0068519648930807815 0.032741420391025525 0.9914470186583548 -0.07734191680685899 0.0021805958081602362 0.016011371429519403 -0.0018385172548499996 -0.010091510210893814
 0.9914470186583548 -0.07734191680685899 0.0068590859484327586 0.03274098446105232 -0.001840902153418632 -0.010091346214085247 0.002124384603079043 0.01601941615077119
 0.0021805958081602362 0.016011371429519403 -0.001840902153418632 -0.010091346214085247 0.006850741409482121 0.03274310420774048 0.9914470938867783 -0.0773403396880691
 -0.0018385172548499996 -0.010091510210893814 0.002124384603079043 0.01601941615077119 0.9914470938867783 -0.0773403396880691 0.006860462389662611 0.032742476719498474
0.1250521050438 0.0073030369728231395 0.03462235799746301 0.99085101280074 -0.08154452058697051 0.0023872509986075886 0.01685285752378972 -0.002011116980329537 -0.010624692616610346
 0.99085101280074 -0.08154452058697051 0.007310928606708211 0.03462188382895505 -0.0020137521113522874 -0.010624496621605545 0.002324929637911851 0.01686199556537215
 0.0023872509986075886 0.01685285752378972 -0.0020137521113522874 -0.010624496621605545 0.007301681294810173 0.034624138338453035 0.9908510957604203 -0.08154286119823932
 -0.002011116980329537 -0.010624692616610346 0.002324929637911851 0.01686199556537215 0.9908510957604203 -0.08154286119823932 0.007312453245409497 0.03462344765358957
0.131304710296 0.007773130785798657 0.03651690240788296 0.9902304988953173 -0.08575933982713731 0.00260392516716464 0.01769328673082354 -0.002192144730671608 -0.01115712266325896
 0.9902304988953173 -0.08575933982713731 0.0077818331757143495 0.03651638844042303 -0.0021950418695500505 -0.011156891347097844 0.002535175018233305 0.01770361476790666
 0.00260392516716464 0.01769328673082354 -0.0021950418695500505 -0.011156891347097844 0.007771636169011182 0.0365187805523669 0.9902305899515516 -0.08575759825537696
 -0.002192144730671608 -0.01115712266325896 0.002535175018233305 0.01770361476790666 0.9902305899515516 -0.08575759825537696 0.00778351357082793 0.03651802273359492
0.1375573155481 0.00815422657740771 0.038176700918941 0.9896935396236253 -0.08973796987805166 0.0028035565863081574 0.018507400491988228 -0.0023546227697363504 -0.01166350352739432
 0.9896935396236253 -0.08973796987805166 0.008163784622874657 0.03817615951575876 -0.002357799318848095 -0.011663236661344644 0.002728221577635102 0.018518902998365235
 0.0028035565863081574 0.018507400491988228 -0.002357799318848095 -0.011663236661344644 0.008152586785465746 0.038178678311835544 0.9896936391376359 -0.0897361462268084
 -0.0023546227697363504 -0.01166350352739432 0.002728221577635102 0.018518902998365235 0.9896936391376359 -0.0897361462268084 0.008165627840145498 0.038177863054623104
0.1438099208003 0.00854870377127012 0.03982778959946639 0.9891377285719731 -0.09370656841883282 0.0030112693804387252 0.019318262056199135 -0.002523609687233253 -0.01216694286469055
 0.9891377285719731 -0.09370656841883282 0.00855915858699604 0.03982722000820399 -0.002527078291758656 -0.012166637186057271 0.002929059817915521 0.019331027365488647
 0.0030112693804387252 0.019318262056199135 -0.002527078291758656 -0.012166637186057271 0.008546912161370601 0.039829867586571525 0.9891378369048316 -0.09370466278265079
 -0.002523609687233253 -0.01216694286469055 0.002929059817915521 0.019331027365488647 0.9891378369048316 -0.09370466278265079 0.008561172094481923 0.03982899166110721
0.1500625260525 0.008956424037223926 0.0414700319169695 0.9885632080656616 -0.09766503857102266 0.003226993299089006 0.020125789564997935 -0.002699037826230203 -0.012667364367412616
 0.9885632080656616 -0.09766503857102266 0.008967816904717053 0.041469433290474506 -0.0027028111033737968 -0.01266701648270397 0.0031376210734145424 0.020139909253052844
 0.003226993299089006 0.020125789564997935 -0.0027028111033737968 -0.01266701648270397 0.008954473979156776 0.04147221189811307 0.9885633255756914 -0.09766305104993009
 -0.002699037826230203 -0.012667364367412616 0.0031376210734145424 0.020139909253052844 0.9885633255756914 -0.09766305104993009 0.00897000816227617 0.041471271877610565
0.15631513130469998 0.0093772480674895 0.043103295475567564 0.9879701211477193 -0.10161328376515406 0.003450657266881964 0.02092990251876995 -0.0028808387002567165 -0.013164693336492513
 0.9879701211477193 -0.10161328376515406 0.009389620439590449 0.04310266686599775 -0.002884929238703336 -0.013164299722009809 0.003353835874800556 0.020945471372957606
