! Created with skrf 1.8.0 (http://scikit-rf.org).
# GHz S RI R 50.0 
!freq ReS11 ImS11 ReS12 ImS12 ReS13 ImS13
! ReS14 ImS14
! ReS21 ImS21 ReS22 ImS22 ReS23 ImS23
! ReS24 ImS24
! ReS31 ImS31 ReS32 ImS32 ReS33 ImS33
! ReS34 ImS34
! ReS41 ImS41 ReS42 ImS42 ReS43 ImS43
! ReS44 ImS44
!
0.0 0.001218621255402 0.0 0.9987813787445 0.0 4.631676576353e-05 0.0 -4.631676681843e-05 5.672168023104463e-21
 0.9987813787445 0.0 0.001218621255407 0.0 -4.631676681821e-05 5.672168023077521e-21 4.631676576369e-05 0.0
 4.631676576353e-05 0.0 -4.631676681821e-05 5.672168023077521e-21 0.001218621245009 0.0 0.9987813787342 0.0
 -4.631676681843e-05 5.672168023104463e-21 4.631676576369e-05 0.0 0.9987813787342 0.0 0.001218621245029 0.0
0.005 0.0013103523072860567 0.0010000424150718586 0.9986654639061604 -0.0025535335977501105 6.401474403065912e-05 0.0004946375703447895 -6.238487747784298e-05 -0.0003133365159279753
 0.9986654639061604 -0.0025535335977501105 0.0013103425209723318 0.0010000481628783086 -6.238482255988486e-05 -0.00031333652405971755 6.407074020566541e-05 0.0004946162564909459
 6.401474403065912e-05 0.0004946375703447895 -6.238482255988486e-05 -0.00031333652405971755 0.0013103523951307268 0.0010001096563732768 0.9986654642331396 -0.0025534665330085365
 -6.238487747784298e-05 -0.0003133365159279753 6.407074020566541e-05 0.0004946162564909459 0.9986654642331396 -0.0025534665330085365 0.001310343083352057 0.001000115047843912
0.006252605252188 0.0013341906168601926 0.0012540060852698107 0.9986351907066816 -0.0031925747350889577 6.893450925887006e-05 0.0006185584838870273 -6.68185939905628e-05 -0.0003920846338178587
 0.9986351907066816 -0.0031925747350889577 0.0013341753189138788 0.0012540133985150896 -6.681850814017609e-05 -0.00039208464488086644 6.902199927117842e-05 0.0006185308388385676
 6.893450925887006e-05 0.0006185584838870273 -6.681850814017609e-05 -0.00039208464488086644 0.0013341906911628041 0.0012540901305949708 0.9986351911551506 -0.003192490913768557
 -6.68185939905628e-05 -0.0003920846338178587 6.902199927117842e-05 0.0006185308388385676 0.9986351911551506 -0.003192490913768557 0.0013341761356135938 0.0012540969886174734
0.01250521050438 0.00145839962367676 0.0025345133969401135 0.9984766036786525 -0.006386130772633932 9.642845693201469e-05 0.0012375994072797041 -9.142240592894075e-05 -0.0007861909318743662
 0.9984766036786525 -0.006386130772633932 0.0014583385341507059 0.002534529321099403 -9.142206265180931e-05 -0.0007861909640815454 9.677736886644211e-05 0.0012375334456643386
 9.642845693201469e-05 0.0012375994072797041 -9.142206265180931e-05 -0.0007861909640815454 0.001458399325963376 0.0025346812676714887 0.998476604882998 -0.006385963374570345
 -9.142240592894075e-05 -0.0007861909318743662 9.677736886644211e-05 0.0012375334456643386 0.998476604882998 -0.006385963374570345 0.0014583412134862327 0.002534696178777845
0.01875781575657 0.0015914726204296985 0.003833544344743314 0.9983054540399336 -0.009588483637554462 0.00012885598076684668 0.0018575479444257826 -0.00012019363356774789 -0.0011818000812126698
 0.9983054540399336 -0.009588483637554462 0.0015913353403212147 0.0038335702720970846 -0.0001201928610968601 -0.0011818001476846369 0.0001296398280151809 0.0018574312443477162
 0.00012885598076684668 0.0018575479444257826 -0.0001201928610968601 -0.0011818001476846369 0.001591471513037123 0.003833795973188982 0.9983054563237438 -0.009588232736171437
 -0.00012019363356774789 -0.0011818000812126698 0.0001296398280151809 0.0018574312443477162 0.9983054563237438 -0.009588232736171437 0.0015913409473978027 0.003833820211305032
0.02501042100875 0.0017336297211214859 0.005149333332498771 0.9981215730981297 -0.012801231559251626 0.0001662748566688132 0.0024784552035992686 -0.0001531963343127028 -0.0015787644725608438
 0.9981215730981297 -0.012801231559251626 0.0017333859088254928 0.0051493707402025 -0.0001531949606346929 -0.0015787645894813408 0.00016766726616083082 0.0024782736732937303
 0.0001662748566688132 0.0024784552035992686 -0.0001531949606346929 -0.0015787645894813408 0.0017336273571883995 0.005149668654480784 0.9981215767845227 -0.01280089720521105
 -0.0001531963343127028 -0.0015787644725608438 0.00016766726616083082 0.0024782736732937303 0.9981215767845227 -0.01280089720521105 0.001733395510611748 0.005149703563008629
0.03126302626094 0.0018850816154023682 0.006480995310280284 0.9979247820117708 -0.01602508688590118 0.00020874337438840334 0.0031003180282290106 -0.00019049320130048281 -0.001976987940116253
 0.9979247820117708 -0.01602508688590118 0.0018847009722112716 0.006481045758722391 -0.00019049105407337 -0.001976988126765383 0.00021091825723502168 0.0031000558983847936
 0.00020874337438840334 0.0031003180282290106 -0.00019049105407337 -0.001976988126765383 0.0018850775335323498 0.0064814142839102916 0.997924787418782 -0.01602466908826265
 -0.00019049320130048281 -0.001976987940116253 0.00021091825723502168 0.0031000558983847936 0.997924787418782 -0.01602466908826265 0.0018847156331541107 0.006481461273854085
0.037515631513130004 0.0020460346198170032 0.007827971059177874 0.9977148969347782 -0.01926043075362035 0.0002563198788701857 0.0037231122026722997 -0.0002321460061297061 -0.002376392550115733
 0.9977148969347782 -0.01926043075362035 0.0020454868814827848 0.007828036191244269 -0.00023214291283010926 -0.002376392828923501 0.00025945151128496245 0.00372275200978263
 0.0002563198788701857 0.0037231122026722997 -0.00023214291283010926 -0.002376392828923501 0.0020460283543572463 0.007828473629861523 0.9977149043857245 -0.01925992951479811
 -0.0002321460061297061 -0.002376392550115733 0.00025945151128496245 0.00372275200978263 0.9977149043857245 -0.01925992951479811 0.002045507672609512 0.007828534178799241
0.043768236765320004 0.002216692645059894 0.009189858387660552 0.9974917310754114 -0.022507481838872117 0.00030906255388261434 0.004346802555945102 -0.00027821577271287785 -0.0027769084868977654
 0.9974917310754114 -0.022507481838872117 0.0022159475749778243 0.009189939928270018 -0.00027821156058121686 -0.002776908883470239 0.0003133256204963468 0.004346325122957407
 0.00030906255388261434 0.004346802555945102 -0.00027821156058121686 -0.002776908883470239 0.002216683719222935 0.009190444500750941 0.9974917408930287 -0.022506897141937793
 -0.00027821577271287785 -0.0027769084868977654 0.0003133256204963468 0.004346325122957407 0.9974917408930287 -0.022506897141937793 0.002215975567697113 0.009190520152167377
0.050020842017509996 0.002397258110186446 0.010566342366060334 0.9972550957035752 -0.025766366070959508 0.0003670293000897179 0.004971347123074263 -0.0003287628468296519 -0.003178469880604164
 0.9972550957035752 -0.025766366070959508 0.0023962854943880836 0.010566442121934038 -0.00032875734301150434 -0.0031784704237674084 0.0003725989171001309 0.004970731538839446
 0.0003670293000897179 0.004971347123074263 -0.00032875734301150434 -0.0031784704237674084 0.0023972460392319137 0.010567011956863314 0.997255108212761 -0.02576569788950572
 -0.0003287628468296519 -0.003178469880604164 0.0003725989171001309 0.004970731538839446 0.997255108212761 -0.02576569788950572 0.00239632176266911 0.010567104319638181
0.055454545454549996 0.0025623774726081126 0.011774198555251638 0.997038365899417 -0.028608098590981623 0.0004216914361100962 0.0055147528178183915 -0.0003763722861560637 -0.003528238225071325
 0.997038365899417 -0.028608098590981623 0.002561182589489595 0.01177431567144171 -0.0003763655193699717 -0.0035282389215638534 0.00042853904436133646 0.00551399883089428
 0.0004216914361100962 0.0055147528178183915 -0.0003763655193699717 -0.0035282389215638534 0.0025623622682089905 0.01177494063502243 0.9970383810136548 -0.028607357825559957
 -0.0003763722861560637 -0.003528238225071325 0.00042853904436133646 0.00551399883089428 0.9970383810136548 -0.028607357825559957 0.0025612269233962395 0.011775048877526093
0.056273447269699996 0.0025879324299731502 0.01195716108556721 0.997004800731932 -0.029037150819436284 0.00043027764956737126 0.00559669918857193 -0.0003838469243923515 -0.0035810127530536344
 0.997004800731932 -0.029037150819436284 0.002586702072631333 0.011957280945097803 -0.0003838399559399564 -0.003581013474889653 0.00043732937572771974 0.005595922786739624
 0.00043027764956737126 0.00559669918857193 -0.0003838399559399564 -0.003581013474889653 0.0025879167204544322 0.011957914086015965 0.9970048162600961 -0.029036399111001043
 -0.0003838469243923515 -0.0035810127530536344 0.00043732937572771974 0.005595922786739624 0.9970048162600961 -0.029036399111001043 0.002586747692409073 0.011958024833972026
0.06252605252188 0.00278891628860959 0.013362086835769683 0.9967406550855833 -0.03231986366355384 0.0004988647004102994 0.006222808404992738 -0.0004435270561950822 -0.003984473889344741
 0.9967406550855833 -0.03231986366355384 0.0027873980078825075 0.013362228768952069 -0.000443518450158147 -0.003984474825223733 0.0005075745404701353 0.006221846742606843
 0.0004988647004102994 0.006222808404992738 -0.000443518450158147 -0.003984474825223733 0.0027888964378412913 0.013362923164103627 0.9967406739622579 -0.0323190283797653
 -0.0004435270561950822 -0.003984473889344741 0.0005075745404701353 0.006221846742606843 0.9967406739622579 -0.0323190283797653 0.0027874540559536714 0.01336305403578023
0.06877865777407 0.0030004097968892485 0.01478091486919471 0.9964624669566664 -0.03561450357515651 0.0005728470626032727 0.006849621458371358 -0.0005078616396689083 -0.004388790163596108
 0.9964624669566664 -0.03561450357515651 0.0029985734207987657 0.014781080927778207 -0.0005078512231180894 -0.00438879135221709 0.0005833914648365679 0.00684844829432684
 0.0005728470626032727 0.006849621458371358 -0.0005078512231180894 -0.00438879135221709 0.0030003852927702338 0.014781834441030015 0.9964624895138009 -0.03561358465071664
 -0.0005078616396689083 -0.004388790163596108 0.0005833914648365679 0.00684844829432684 0.9964624895138009 -0.03561358465071664 0.002998640974719588 0.014781987239474515
0.07503126302626001 0.0032226125830727504 0.016213456297558812 0.9961700439950405 -0.03892104797112242 0.0006522808091756402 0.007477082486340198 -0.000576908403133231 -0.004793898113212774
 0.9961700439950405 -0.03892104797112242 0.003220427946322595 0.01621364861512616 -0.0005768960032927665 -0.004793899596628008 0.0006648366592858872 0.007475669759806891
 0.0006522808091756402 0.007477082486340198 -0.0005768960032927665 -0.004793899596628008 0.0032225829045344364 0.016214459017142465 0.9961700705677092 -0.03892004533249046
 -0.000576908403133231 -0.004793898113212774 0.0006648366592858872 0.007475669759806891 0.9961700705677092 -0.03892004533249046 0.003220508083865062 0.016214635609803397
0.08128386827845 0.003455723841875248 0.017659533349112015 0.9958631934580604 -0.0422394574057373 0.0007372214318348948 0.008105133357740867 -0.0006507243846274273 -0.005199733652964815
 0.9958631934580604 -0.0422394574057373 0.0034531607819818597 0.017659754141388036 -0.0006507098288584696 -0.0051997354766203634 0.0007519660434567249 0.008103451166578115
 0.0007372214318348948 0.008105133357740867 -0.0006507098288584696 -0.0051997354766203634 0.0034556884581593327 0.017660619110457503 0.995863224384638 -0.04223837097003118
 -0.0006507243846274273 -0.005199733652964815 0.0007519660434567249 0.008103451166578115 0.995863224384638 -0.04223837097003118 0.0034532545807801347 0.017660821429160155
0.08753647353064001 0.0036999423560596075 0.01911897608419035 0.9955417223356365 -0.04556967880636653 0.0008277237987811998 0.008733713862960906 -0.0007293659069921145 -0.005606231879724185
 0.9955417223356365 -0.04556967880636653 0.003696970709837696 0.0191192276493429 -0.0007293490229410211 -0.005606234092483992 0.0008448349015411903 0.008731730442229007
 0.0008277237987811998 0.008733713862960906 -0.0007293490229410211 -0.005606234092483992 0.0036999007271065684 0.01912014477404304 0.9955417579581792 -0.04556850847834371
 -0.0007293659069921145 -0.005606231879724185 0.0008448349015411903 0.008731730442229007 0.9955417579581792 -0.04556850847834371 0.0036970792467916594 0.01912037481514433
0.09378907878283 0.003955466497613026 0.020591620062276376 0.9952054374565152 -0.04891164775893861 0.000923842114021378 0.00936276185142768 -0.0008128885504180284 -0.006013326931527415
 0.9952054374565152 -0.04891164775893861 0.00395205609804717 0.020591904781390682 -0.0008128691660514757 -0.006013329585706621 0.0009434978396432771 0.009360443551960753
 0.000923842114021378 0.00936276185142768 -0.0008128691660514757 -0.006013329585706621 0.003955418073730677 0.020592871557468997 0.9952054781208133 -0.04891039343369522
 -0.0008128885504180284 -0.006013326931527415 0.0009434978396432771 0.009360443551960753 0.9952054781208133 -0.04891039343369522 0.003952180448861604 0.020593131381992168
0.100041684035 0.004222494217324528 0.022077304615784648 0.9948541455841374 -0.05226529018852204 0.0010256298774258482 0.009992213333208396 -0.0009013471232006952 -0.00642095188404994
 0.9948541455841374 -0.05226529018852204 0.004218614889815157 0.0220776249533271 -0.0009013250668769368 -0.006420955035436782 0.0010480087441236614 0.009989524600326365
 0.0010256298774258482 0.009992213333208396 -0.0009013250668769368 -0.006420955035436782 0.004222438438697173 0.0220786387837185 0.9948541916400896 -0.052263951750970435
 -0.0009013471232006952 -0.00642095188404994 0.0010480087441236614 0.009989524600326365 0.9948541916400896 -0.052263951750970435 0.004218756128197596 0.022078930517657625
0.1059090909091 0.00448370973208343 0.023483181311851075 0.9945106746117645 -0.055422871438124535 0.001126350203074558 0.010583195207980043 -0.000988893402872767 -0.006803885995744694
 0.9945106746117645 -0.055422871438124535 0.004479362912269938 0.023483537389835798 -0.0009888686835115936 -0.006803889667569554 0.0011514471382692573 0.010580124810071007
 0.001126350203074558 0.010583195207980043 -0.0009888686835115936 -0.006803889667569554 0.004483646534030171 0.023484592931363252 0.9945107260495503 -0.05542145395543841
 -0.000988893402872767 -0.006803885995744694 0.0011514471382692573 0.010580124810071007 0.9945107260495503 -0.05542145395543841 0.004479520972535813 0.023484916600717307
0.1062942892872 0.004501223022409088 0.023575871556826892 0.9944876535032093 -0.05563052360832865 0.0011331398459110344 0.01062200255141054 -0.0009947956304729526 -0.006829038677862078
 0.9944876535032093 -0.05563052360832865 0.004496844581425555 0.023576230061369646 -0.0009947707310207984 -0.006829042385749598 0.0011584207411271556 0.010618905903794775
 0.0011331398459110344 0.01062200255141054 -0.0009947707310207984 -0.006829042385749598 0.004501159319417145 0.02357728825638088 0.9944877053053265 -0.05562910093235719
 -0.0009947956304729526 -0.006829038677862078 0.0011584207411271556 0.010618905903794775 0.9944877053053265 -0.05562910093235719 0.004497003778902596 0.02357761409112123
0.11254689453939999 0.00479184994786383 0.025087164183205758 0.9941057681016481 -0.05900725807150855 0.0012464239944184065 0.011252062043335025 -0.001093287242053275 -0.007237518058573553
 0.9941057681016481 -0.05900725807150855 0.004786942193796667 0.025087563488071403 -0.001093259328849025 -0.007237522385785183 0.0012747861564888182 0.011248518052067141
 0.0012464239944184065 0.011252062043335025 -0.001093259328849025 -0.007237522385785183 0.004791777741029347 0.025088663262200626 0.9941058260094685 -0.05900575102257422
 -0.001093287242053275 -0.007237518058573553 0.0012747861564888182 0.011248518052067141 0.9941058260094685 -0.05900575102257422 0.00478712041928649 0.025089025454938223
0.11879949979160001 0.0050945715219529834 0.026611026503810694 0.9937082964476791 -0.06239539690528272 0.0013655334774232823 0.011882322685329317 -0.001196874259128381 -0.007646319535000667
 0.9937082964476791 -0.06239539690528272 0.005089104237181398 0.02661146932795635 -0.0011968431621683033 -0.007646324547906062 0.0013971564758406513 0.01187828995312897
 0.0013655334774232823 0.011882322685329317 -0.0011968431621683033 -0.007646324547906062 0.005094490221140627 0.026612607803228355 0.9937083608256685 -0.06239380533615267
 -0.001196874259128381 -0.007646319535000667 0.0013971564758406513 0.01187828995312897 0.9937083608256685 -0.06239380533615267 0.005089302555837135 0.026613008677700143
0.1250521050438 0.005409583725599784 0.028147302624866616 0.9932950458640746 -0.06579483728607907 0.0014905185905086718 0.012512713731866996 -0.0013056080798886213 -0.008055371344802987
 0.9932950458640746 -0.06579483728607907 0.005403526671583873 0.028147791773818456 -0.001305573629882525 -0.008055377113343339 0.001525582305257083 0.012508148872528949
 0.0014905185905086718 0.012512713731866996 -0.001305573629882525 -0.008055377113343339 0.0054094927303428575 0.028148965973983288 0.9932951170820842 -0.0657931610419048
 -0.0013056080798886213 -0.008055371344802987 0.001525582305257083 0.012508148872528949 0.9932951170820842 -0.0657931610419048 0.005403746144559458 0.028149407921076657
0.131304710296 0.005737081949485355 0.02969583625230834 0.9928658239998258 -0.06920547070079414 0.001621428731672638 0.013143162846128483 -0.0014195391647387166 -0.00846460043041846
 0.9928658239998258 -0.06920547070079414 0.005730404863099453 0.02969637461913701 -0.001419501193182639 -0.008464607028125406 0.0016601133315804542 0.013138020464197035
 0.001621428731672638 0.013143162846128483 -0.001419501193182639 -0.008464607028125406 0.005736980648886633 0.029697581472263573 0.9928659024338751 -0.06920370961544023
 -0.0014195391647387166 -0.00846460043041846 0.0016601133315804542 0.013138020464197035 0.9928659024338751 -0.06920370961544023 0.005730646547027889 0.029698066950909215
0.1375573155481 0.005994978705899893 0.031054609947257956 0.9925027426909586 -0.07242525908752796 0.0017395549921468624 0.013752848312892129 -0.001519915861461725 -0.008853222171029436
 0.9925027426909586 -0.07242525908752796 0.005987649968265466 0.03105518834950465 -0.00151987427302663 -0.008853229602321525 0.0017819510579481035 0.013747142457431544
 0.0017395549921468624 0.013752848312892129 -0.00151987427302663 -0.008853229602321525 0.005994867259710715 0.03105643661192226 0.9925028286668066 -0.0724234130719814
 -0.001519915861461725 -0.008853222171029436 0.0017819510579481035 0.013747142457431544 0.9925028286668066 -0.0724234130719814 0.0059879142365855224 0.031056956622087226
0.1438099208003 0.0062616947916579995 0.032407411831906104 0.9921273667784807 -0.07563807690349107 0.0018624354370893252 0.014360753966879296 -0.0016243131673097401 -0.009240188813608687
 0.9921273667784807 -0.07563807690349107 0.0062536839153256125 0.03240803233109932 -0.0016242678077774014 -0.00924019714719471 0.0019087073127236403 0.01435444377823366
 0.0018624354370893252 0.014360753966879296 -0.0016242678077774014 -0.00924019714719471 0.0062615727139128325 0.032409319719416387 0.9921274606704931 -0.07563614579589355
 -0.0016243131673097401 -0.009240188813608687 0.0019087073127236403 0.01435444377823366 0.9921274606704931 -0.07563614579589355 0.006253971694073695 0.032409875943188296
0.1500625260525 0.006537150873265885 0.0337541639431359 0.9917397784374263 -0.07884387997664283 0.001990035331972218 0.014966840869633511 -0.0017326968652736944 -0.009625461901246427
 0.9917397784374263 -0.07884387997664283 0.006528427341592042 0.033754828706002056 -0.0017326475820319824 -0.009625471208409196 0.002040346589727245 0.014959884017129119
 0.001990035331972218 0.014966840869633511 -0.0017326475820319824 -0.009625471208409196 0.006537017676964611 0.0337561528225549 0.9917398806241915 -0.07884186360749011
 -0.0017326968652736944 -0.009625461901246427 0.002040346589727245 0.014959884017129119 0.9917398806241915 -0.07884186360749011 0.00652873954408708 0.03375674703428203
0.15631513130469998 0.006821267222145064 0.035094790882835236 0.991340060074606 -0.08204262363453536 0.0021223196282472954 0.015571070616574307 -0.001845032406586109 -0.010009003696858245
