! Created with skrf 1.8.0 (http://scikit-rf.org).
# GHz S RI R 50.0 
!freq ReS11 ImS11 ReS12 ImS12 ReS13 ImS13
! ReS14 ImS14
! ReS21 ImS21 ReS22 ImS22 ReS23 ImS23
! ReS24 ImS24
! ReS31 ImS31 ReS32 ImS32 ReS33 ImS33
! ReS34 ImS34
! ReS41 ImS41 ReS42 ImS42 ReS43 ImS43
! ReS44 ImS44
!
0.0 0.001535335651101 0.0 0.9984646643262 0.0 5.931798041768e-05 0.0 -5.931798059677e-05 7.264357506971918e-21
 0.9984646643262 0.0 0.001535335651078 0.0 -5.931798059552e-05 7.264357506818838e-21 5.931798041932e-05 0.0
 5.931798041768e-05 0.0 -5.931798059552e-05 7.264357506818838e-21 0.001535335661029 0.0 0.9984646643361 0.0
 -5.931798059677e-05 7.264357506971918e-21 5.931798041932e-05 0.0 0.9984646643361 0.0 0.001535335661064 0.0
0.005 0.001651899071254801 0.0012540200592577456 0.9983172015712478 -0.0032162340259344795 8.337905470147344e-05 0.0006659774142053422 -8.093047908086733e-05 -0.0004158567180916249
 0.9983172015712478 -0.0032162340259344795 0.0016518972683850332 0.0012540210802674625 -8.09315000045335e-05 -0.00041585741984423343 8.33873822407728e-05 0.0006659742148763313
 8.337905470147344e-05 0.0006659774142053422 -8.09315000045335e-05 -0.00041585741984423343 0.0016518986036634796 0.0012539530218452545 0.9983172012095249 -0.0032163010784011735
 -8.093047908086733e-05 -0.0004158567180916249 8.33873822407728e-05 0.0006659742148763313 0.9983172012095249 -0.0032163010784011735 0.0016518970230631105 0.0012539540235579545
0.006252605252188 0.0016824644215399534 0.0015724683573319737 0.9982782919441779 -0.004021081008013668 9.024178035641786e-05 0.0008327895069268291 -8.70300246034031e-05 -0.000520361703239715
 0.9982782919441779 -0.004021081008013668 0.001682461603574789 0.0015724696538799764 -8.703161390172305e-05 -0.0005203625667393162 9.025479107968973e-05 0.0008327853566422217
 9.024178035641786e-05 0.0008327895069268291 -8.703161390172305e-05 -0.0005203625667393162 0.001682463771479053 0.0015723845469073148 0.9982782914590153 -0.004021164835393123
 -8.70300246034031e-05 -0.000520361703239715 9.025479107968973e-05 0.0008327853566422217 0.9982782914590153 -0.004021164835393123 0.0016824613000759288 0.00157238583330985
0.01250521050438 0.0018433338039769306 0.0031779599483111277 0.9980721643495257 -0.008042982111425453 0.00012953805385388831 0.0016659069177211163 -0.00012162477935625939 -0.0010432613145667435
 0.9980721643495257 -0.008042982111425453 0.0018433225582783312 0.003177962748238293 -0.00012163105073614398 -0.0010432628905427236 0.00012958992941983466 0.0016658969850058601
 0.00012953805385388831 0.0016659069177211163 -0.00012163105073614398 -0.0010432628905427236 0.0018433317747410217 0.0031777925807663305 0.9980721629656851 -0.008043149527494362
 -0.00012162477935625939 -0.0010432613145667435 0.00012958992941983466 0.0016658969850058601 0.9980721629656851 -0.008043149527494362 0.0018433218962172356 0.0031777955016949353
0.01875781575657 0.0020182943775963838 0.004806364396063014 0.9978460257729299 -0.012075494559468805 0.00017729799343174134 0.0024999240848933217 -0.00016320889561659375 -0.0015679292323404071
 0.9978460257729299 -0.012075494559468805 0.002018269120826941 0.004806368927671944 -0.00016322289233354284 -0.0015679313377886307 0.00017741450651829444 0.0024999064154769017
 0.00017729799343174134 0.0024999240848933217 -0.00016322289233354284 -0.0015679313377886307 0.002018290264315033 0.00480611359604877 0.9978460230815084 -0.012075745536629915
 -0.00016320889561659375 -0.0015679292323404071 0.00017741450651829444 0.0024999064154769017 0.9978460230815084 -0.012075745536629915 0.0020182680462069533 0.004806118526858294
0.02501042100875 0.0022076863982837445 0.006455398305456168 0.9975996103792131 -0.016120572085375255 0.00023361390807049724 0.003334878991671706 -0.00021188549855848945 -0.0020941238937596347
 0.9975996103792131 -0.016120572085375255 0.0022076415656946506 0.0064554048161107585 -0.00021191023119477513 -0.0020941263108026323 0.00023382082849250817 0.0033348513218288277
 0.00023361390807049724 0.003334878991671706 -0.00021191023119477513 -0.0020941263108026323 0.0022076795091620473 0.006455064254274116 0.9975996059639989 -0.016120906621337684
 -0.00021188549855848945 -0.0020941238937596347 0.00023382082849250817 0.0033348513218288277 0.9975996059639989 -0.016120906621337684 0.0022076400173624074 0.00645507159654997
0.03126302626094 0.002411836037986444 0.00812388608481672 0.997332638749568 -0.020179050052535726 0.00029857851445991117 0.004170731394876816 -0.00026775477056384736 -0.002621676155207891
 0.997332638749568 -0.020179050052535726 0.0024117660801724976 0.008123894840734315 -0.0002677932225399638 -0.002621678630695006 0.00029890163294335085 0.00417069115016736
 0.00029857851445991117 0.004170731394876816 -0.0002677932225399638 -0.002621678630695006 0.00241182570152919 0.008123468976931173 0.9973326321932008 -0.020179468214028794
 -0.00026775477056384736 -0.002621676155207891 0.00029890163294335085 0.00417069115016736 0.9973326321932008 -0.020179468214028794 0.0024117639986640962 0.008123479158425784
0.037515631513130004 0.002631062405412834 0.009811060796334554 0.9970448251278945 -0.024251344542879475 0.00037228404671861163 0.0050074101610939475 -0.0003309146926533019 -0.0031504419610186487
 0.9970448251278945 -0.024251344542879475 0.0026309617863915988 0.009811072082497867 -0.00033096982304332725 -0.0031504442063525003 0.00037274918476988425 0.005007354453664612
 0.00037228404671861163 0.0050074101610939475 -0.00033096982304332725 -0.0031504442063525003 0.002631047966363985 0.009810560887452727 0.9970448160056669 -0.024251846417694463
 -0.0003309146926533019 -0.0031504419610186487 0.00037274918476988425 0.005007354453664612 0.9970448160056669 -0.024251846417694463 0.00263095911024077 0.009810574362334502
0.043768236765320004 0.0028656802504384766 0.011516351444241893 0.9967358803503223 -0.028337664998715397 0.00045482183795124713 0.0058448276666801195 -0.0004014613075596271 -0.003680287946573909
 0.9967358803503223 -0.028337664998715397 0.002865543446381803 0.01151636556429668 -0.00040153605266330793 -0.0036802896375864335 0.0004554548524542706 0.005844753292135867
 0.00045482183795124713 0.0058448276666801195 -0.00040153605266330793 -0.0036802896375864335 0.0028656610726825404 0.011515769033646529 0.9967358682317341 -0.02833825071361919
 -0.0004014613075596271 -0.003680287946573909 0.0004554548524542706 0.005844753292135867 0.9967358682317341 -0.02833825071361919 0.002865540115839568 0.011515786282630938
0.050020842017509996 0.0031160012269307548 0.013239295033753642 0.9964055133364788 -0.03243810209199196 0.0005462820664798274 0.006682885743639073 -0.00047948881511872575 -0.00421108549706145
 0.9964055133364788 -0.03243810209199196 0.0031158227243971476 0.013239312310091313 -0.00047958608934707103 -0.004211086273929401 0.0005471088507428757 0.0066827891777727815
 0.0005462820664798274 0.006682885743639073 -0.00047958608934707103 -0.004211086273929401 0.003115976693600692 0.013238630468386895 0.996405497783653 -0.032438771808748705
 -0.00047948881511872575 -0.00421108549706145 0.0005471088507428757 0.0066827891777727815 0.996405497783653 -0.032438771808748705 0.003115818682690711 0.01323865199899487
0.055454545454549996 0.003346530798955555 0.014750611194864207 0.996100790052974 -0.036012983670993516 0.0006330789217948497 0.007411621823330624 -0.0005534442737756472 -0.004673038964565156
 0.996100790052974 -0.036012983670993516 0.003346311588986554 0.01475063149047766 -0.0005535634768088064 -0.004673038627061484 0.0006340951543318185 0.007411502859538547
 0.0006330789217948497 0.007411621823330624 -0.0005535634768088064 -0.004673038627061484 0.003346501125664131 0.014749875563281643 0.9961007711530617 -0.03601372653662175
 -0.0005534442737756472 -0.004673038964565156 0.0006340951543318185 0.007411502859538547 0.9961007711530617 -0.03601372653662175 0.0033463068860354454 0.01474990124785105
0.056273447269699996 0.0033823345338276803 0.014979493415619105 0.9960534319630561 -0.03655267080939032 0.0006467535743968054 0.00752147859891497 -0.0005650895921845737 -0.0047427078357735256
 0.9960534319630561 -0.03655267080939032 0.0033821088289239295 0.014979514189355217 -0.0005652122886644447 -0.004742707302961649 0.0006478000577095814 0.007521355994356255
 0.0006467535743968054 0.00752147859891497 -0.0005652122886644447 -0.004742707302961649 0.0033823040478158234 0.0149787471016989 0.9960534125293175 -0.0365534247133692
 -0.0005650895921845737 -0.0047427078357735256 0.0006478000577095814 0.007521355994356255 0.9960534125293175 -0.0365534247133692 0.0033821040232034656 0.014978773448419599
0.06252605252188 0.003664987261834618 0.01673658956917409 0.9956793436461724 -0.04068133410152329 0.0007563237233095488 0.00836049442265944 -0.0006583541735322939 -0.005275028427039584
 0.9956793436461724 -0.04068133410152329 0.0036647088592324795 0.01673661420030581 -0.0006585051644648856 -0.005275026153237814 0.0007576158688522571 0.00836034160553183
 0.0007563237233095488 0.00836049442265944 -0.0006585051644648856 -0.005275026153237814 0.0036649502474839497 0.016735761960200934 0.9956793198754077 -0.04068217241374533
 -0.0006583541735322939 -0.005275028427039584 0.0007576158688522571 0.00836034160553183 0.9956793198754077 -0.04068217241374533 0.0036647032426470718 0.01673579368472835
0.06877865777407 0.0039642645723698 0.01851025345397684 0.9952829557597667 -0.04482401696734589 0.000875078268595727 0.009199816348005633 -0.0007593712117810439 -0.0058079200317361175
 0.9952829557597667 -0.04482401696734589 0.003963927984479766 0.018510282321406005 -0.0007595533486289659 -0.0058079155497932095 0.0008766420709820308 0.009199628814596648
 0.000875078268595727 0.009199816348005633 -0.0007595533486289659 -0.0058079155497932095 0.003964220476313285 0.018509345054744667 0.995282927185653 -0.04482493994056727
 -0.0007593712117810439 -0.0058079200317361175 0.0008766420709820308 0.009199628814596648 0.995282927185653 -0.04482493994056727 0.003963921517535113 0.018509382746329198
0.07503126302626001 0.004280469781744647 0.020300173038634243 0.9948639759631956 -0.04898061536564637 0.001003101247688397 0.010039323062742918 -0.0008682274221200796 -0.006341254115225126
 0.9948639759631956 -0.04898061536564637 0.004280069527492516 0.02030020654042436 -0.0008684435356084504 -0.0063412469221204295 0.001004962729113373 0.010039095976219934
 0.001003101247688397 0.010039323062742918 -0.0008684435356084504 -0.0063412469221204295 0.004280418073083314 0.02029918440936633 0.9948639421074157 -0.048981623280275326
 -0.0008682274221200796 -0.006341254115225126 0.001004962729113373 0.010039095976219934 0.9948639421074157 -0.048981623280275326 0.004280062179121872 0.020299228685014502
0.08128386827845 0.0046139043818663366 0.022106048341134336 0.994422112468781 -0.05315100211979537 0.0011404748726272416 0.010878889226712811 -0.000985007520165468 -0.006874900454180189
 0.994422112468781 -0.05315100211979537 0.004613434985943954 0.022106086894643048 -0.0009852604202593694 -0.006874890010987707 0.001142660079471167 0.01087861741391142
 0.0011404748726272416 0.010878889226712811 -0.0009852604202593694 -0.006874890010987707 0.00461384455380222 0.02210498009381947 0.9944220728404074 -0.05315209528753087
 -0.000985007520165468 -0.006874900454180189 0.001142660079471167 0.01087861741391142 0.9944220728404074 -0.05315209528753087 0.004613426735758104 0.022105031598612206
0.08753647353064001 0.004964868022458236 0.02392758730217137 0.9939570742750748 -0.057335030994492324 0.001287279430109506 0.01171838575725764 -0.001109794151799637 -0.0074087268801788725
 0.9939570742750748 -0.057335030994492324 0.00496432401459769 0.023927631344247975 -0.0011100866276487255 -0.007408712612024951 0.0012898144281785885 0.011718063705448572
 0.001287279430109506 0.01171838575725764 -0.0011100866276487255 -0.007408712612024951 0.004964799593292164 0.02392644010365825 0.9939570283695672 -0.057336209755141386
 -0.001109794151799637 -0.0074087268801788725 0.0012898144281785885 0.011718063705448572 0.9939570283695672 -0.057336209755141386 0.004964314853875686 0.02392649951112834
0.09378907878283 0.005333658464286118 0.025764502840847227 0.9934685713737682 -0.06153253959560729 0.001443593182889536 0.01255768004702098 -0.0012426678195402482 -0.007942599095821347
 0.9934685713737682 -0.06153253959560729 0.0053330343782238936 0.025764552828127143 -0.001243002639284739 -0.007942580391866396 0.0014465040529615058 0.012557301900884008
 0.001443593182889536 0.01255768004702098 -0.001243002639284739 -0.007942580391866396 0.005333580978200655 0.02576327740994633 0.9934685186712625 -0.06153380431984478
 -0.0012426678195402482 -0.007942599095821347 0.0014465040529615058 0.012557301900884008 0.9934685186712625 -0.06153380431984478 0.005333024311694635 0.02576334542239432
0.100041684035 0.005720571512168563 0.02761651069388762 0.9929563149399286 -0.06574335149204692 0.0016094922739611057 0.013396636125296459 -0.001383706805422819 -0.008476380552437076
 0.9929563149399286 -0.06574335149204692 0.005719861884831921 0.027616567103023397 -0.0013840867159655088 -0.008476356765871142 0.0016128051065856662 0.013396195683845162
 0.0016094922739611057 0.013396636125296459 -0.0013840867159655088 -0.008476356765871142 0.005720484540375932 0.027615207803133576 0.9929562549048717 -0.06574470257951345
 -0.001383706805422819 -0.008476380552437076 0.0016128051065856662 0.013396195683845162 0.9929562549048717 -0.06574470257951345 0.0057198509324463895 0.027615285151962203
0.1059090909091 0.0061003923946663955 0.029367897769001988 0.9924537569460629 -0.0697066829466532 0.0017739546187512877 0.01418347586562035 -0.001523550916565414 -0.008977071601739552
 0.9924537569460629 -0.0697066829466532 0.006099597529425897 0.029367960656029618 -0.0015239756192172748 -0.008977042425355944 0.0017776683839291544 0.014182971016399322
 0.0017739546187512877 0.01418347586562035 -0.0015239756192172748 -0.008977042425355944 0.006100296156635302 0.02936652293951742 0.9924536895276834 -0.06970811546725493
 -0.001523550916565414 -0.008977071601739552 0.0017776683839291544 0.014182971016399322 0.9924536895276834 -0.06970811546725493 0.006099585778762023 0.029366609741090375
0.1062942892872 0.006125900933431966 0.029483327799919537 0.9924200175119375 -0.06996727779845276 0.0017850506316704439 0.014235114790026804 -0.0015329870914624695 -0.009009932362372184
 0.9924200175119375 -0.06996727779845276 0.006125100304104557 0.029483391127937443 -0.0015334148182637231 -0.009009902810395095 0.0017887915220757063 0.014234605503687832
 0.0017850506316704439 0.014235114790026804 -0.0015334148182637231 -0.009009902810395095 0.006125804075228822 0.029481948273490138 0.9924199495913902 -0.0699687156795999
 -0.0015329870914624695 -0.009009932362372184 0.0017887915220757063 0.014234605503687832 0.9924199495913902 -0.0699687156795999 0.006125088502416432 0.029482035719677693
0.11254689453939999 0.006549938364393247 0.03136467105504791 0.9918593931609098 -0.07420411839268251 0.0019703398764211325 0.01507297371299433 -0.001690582277985753 -0.009543113243384293
 0.9918593931609098 -0.07420411839268251 0.0065490412739398285 0.03136474181971832 -0.0016910605248047427 -0.009543077207213584 0.001974534918917666 0.015072388680778974
 0.0019703398764211325 0.01507297371299433 -0.0016910605248047427 -0.009543077207213584 0.0065498312483899925 0.03136321577257555 0.9918593167836521 -0.07420564352460339
 -0.001690582277985753 -0.009543113243384293 0.001974534918917666 0.015072388680778974 0.9918593167836521 -0.07420564352460339 0.00654902867788842 0.03136331410703769
0.11879949979160001 0.006992973208742836 0.033260256358196565 0.9912741576562409 -0.07845366284964135 0.0021654292277438606 0.01591006753229549 -0.0018565635007502547 -0.010075779481284375
 0.9912741576562409 -0.07845366284964135 0.006991974198679962 0.03326033509836836 -0.0018570949492910656 -0.010075736206173613 0.0021701045099239646 0.01590939949903137
 0.0021654292277438606 0.01591006753229549 -0.0018570949492910656 -0.010075736206173613 0.006992855493673252 0.03325872625035637 0.9912740722315045 -0.07845527572019259
 -0.0018565635007502547 -0.010075779481284375 0.0021701045099239646 0.01590939949903137 0.9912740722315045 -0.07845527572019259 0.006991960883139459 0.03325883629443102
0.1250521050438 0.007455292527844055 0.03516979784943102 0.9906640286254629 -0.08271569118878129 0.0023703854120289375 0.016746247932554078 -0.0020309993466094294 -0.010607784910352594
 0.9906640286254629 -0.08271569118878129 0.007454186139763493 0.03516988512547818 -0.0020315866562538726 -0.01060773360559652 0.0023755670089990067 0.016745489286253065
 0.0023703854120289375 0.016746247932554078 -0.0020315866562538726 -0.01060773360559652 0.007455163904199695 0.03516819389981274 0.9906639335420092 -0.08271739231419749
 -0.0020309993466094294 -0.010607784910352594 0.0023755670089990067 0.016745489286253065 0.9906639335420092 -0.08271739231419749 0.007454172201432221 0.03516831650568642
0.131304710296 0.007937180926407078 0.03709300730594551 0.9900287257118109 -0.08698997447028073 0.0025852725708959993 0.017581363718878903 -0.0022139557685786466 -0.011138980905662297
 0.9900287257118109 -0.08698997447028073 0.007935961700696152 0.03709310370027145 -0.002214601576041485 -0.011138920744649403 0.0025909865389729682 0.017580506488175062
 0.0025852725708959993 0.017581363718878903 -0.002214601576041485 -0.011138920744649403 0.007937041116952393 0.03709133055114926 0.9900286203361864 -0.08699176439464797
 -0.0022139557685786466 -0.011138980905662297 0.0025909865389729682 0.017580506488175062 0.9900286203361864 -0.08699176439464797 0.007935947259527268 0.037091466602420825
0.1375573155481 0.008328571761872985 0.038778423716152234 0.9894783631275477 -0.09102498808643254 0.002783026581942421 0.018390016813177354 -0.002378367080213822 -0.011643992516740751
 0.9894783631275477 -0.09102498808643254 0.0083272332325034 0.038778527793995904 -0.002379075054298676 -0.011643923417827566 0.0027892866931871997 0.01838906224625572
 0.002783026581942421 0.018390016813177354 -0.002379075054298676 -0.011643923417827566 0.008328419377388437 0.038776675573935666 0.9894782469759574 -0.09102686715695119
 -0.002378367080213822 -0.011643992516740751 0.0027892866931871997 0.01838906224625572 0.9894782469759574 -0.09102686715695119 0.008327219262392513 0.03877682288479383
0.1438099208003 0.008733736869106347 0.04045491917253978 0.9889086384525844 -0.09504973713529068 0.0029887658345248334 0.019195400728864238 -0.002549356507976862 -0.012146001406750864
 0.9889086384525844 -0.09504973713529068 0.008732273403979628 0.04045503139564434 -0.0025501294390016826 -0.01214592256258223 0.0029955958985399076 0.019194341530738068
 0.0029887658345248334 0.019195400728864238 -0.0025501294390016826 -0.01214592256258223 0.008733571478109516 0.04045310079103612 0.9889085108904676 -0.09505170589132667
 -0.002549356507976862 -0.012146001406750864 0.0029955958985399076 0.019194341530738068 0.9889085108904676 -0.09505170589132667 0.008732260213617357 0.04045326001604628
0.1500625260525 0.009152533213087089 0.04212235240524633 0.988319698882937 -0.09906412054388487 0.003202419117964928 0.019997433251672227 -0.0027268546250440923 -0.012644929496956062
 0.988319698882937 -0.09906412054388487 0.009150939169227957 0.042122473261455115 -0.0027276952940512795 -0.01264484006818098 0.0032098427839960036 0.019996261864814048
 0.003202419117964928 0.019997433251672227 -0.0027276952940512795 -0.01264484006818098 0.009152354402613583 0.04212046498091977 0.988319559257073 -0.09906617954416368
 -0.0027268546250440923 -0.012644929496956062 0.0032098427839960036 0.019996261864814048 0.988319559257073 -0.09906617954416368 0.009150927100646921 0.04212063680424318
0.15631513130469998 0.009584816736664708 0.04378058640651044 0.9877116923722684 -0.10306803762237225 0.0034239143747776418 0.020796033567619457 -0.002910791143769737 -0.013140700368431305
