! Created with skrf 1.8.0 (http://scikit-rf.org).
# GHz S RI R 50.0 
!freq ReS11 ImS11 ReS12 ImS12 ReS13 ImS13
! ReS14 ImS14
! ReS21 ImS21 ReS22 ImS22 ReS23 ImS23
! ReS24 ImS24
! ReS31 ImS31 ReS32 ImS32 ReS33 ImS33
! ReS34 ImS34
! ReS41 ImS41 ReS42 ImS42 ReS43 ImS43
! ReS44 ImS44
!
0.0 0.001670999510883 0.0 0.9983290004891 0.0 6.470789560847e-05 0.0 -6.470789531168e-05 7.924431687301092e-21
 0.9983290004891 0.0 0.001670999510913 0.0 -6.47078953118e-05 7.92443168731579e-21 6.470789560904e-05 0.0
 6.470789560847e-05 0.0 -6.47078953118e-05 7.92443168731579e-21 0.001670999500988 0.0 0.9983290004792 0.0
 -6.470789531168e-05 7.924431687301092e-21 6.470789560904e-05 0.0 0.9983290004792 0.0 0.001670999501014 0.0
0.005 0.0017982691607270342 0.0013659337537268545 0.9981679275947017 -0.003499872379606474 9.098084942134146e-05 0.0007175487564346694 -8.832099873109736e-05 -0.000449512312527889
 0.9981679275947017 -0.003499872379606474 0.0017982674457019036 0.0013659347579237286 -8.83254094549658e-05 -0.0004495156980965934 9.098156341000061e-05 0.0007175485489484925
 9.098084942134146e-05 0.0007175487564346694 -8.83254094549658e-05 -0.0004495156980965934 0.0017982665251939298 0.0013658680492203627 0.9981679272226662 -0.003499939439651115
 -8.832099873109736e-05 -0.000449512312527889 9.098156341000061e-05 0.0007175485489484925 0.9981679272226662 -0.003499939439651115 0.0017982693395282986 0.0013658663430919493
0.006252605252188 0.001831767906035799 0.0017127771017072194 0.9981252474147503 -0.004375677683400017 9.854402801814581e-05 0.0008972741645285013 -9.504137867864774e-05 -0.000562465340950337
 0.9981252474147503 -0.004375677683400017 0.001831765224812361 0.001712778337834345 -9.504824211570479e-05 -0.0005624695145304968 9.854514431781609e-05 0.0008972738854181109
 9.854402801814581e-05 0.0008972741645285013 -9.504824211570479e-05 -0.0005624695145304968 0.0018317638634021362 0.001712694985963167 0.9981252469107099 -0.00437576149823157
 -9.504137867864774e-05 -0.000562465340950337 9.854514431781609e-05 0.0008972738854181109 0.9981252469107099 -0.00437576149823157 0.0018317682632012656 0.0017126928259941323
0.01250521050438 0.002008809437991154 0.0034612806804925752 0.9978981176017048 -0.008752026086180998 0.00014221911728685535 0.0017948430094956917 -0.00013345901838085752 -0.0011275821745959749
 0.9978981176017048 -0.008752026086180998 0.0020087987277531845 0.0034612829747152243 -0.00013348606635115267 -0.001127589877358497 0.00014222359151345085 0.0017948422438141861
 0.00014221911728685535 0.0017948430094956917 -0.00013348606635115267 -0.001127589877358497 0.0020087938605215638 0.0034611167583215407 0.9978981161578896 -0.008752193477848249
 -0.00013345901838085752 -0.0011275821745959749 0.00014222359151345085 0.0017948422438141861 0.9978981161578896 -0.008752193477848249 0.0020088114351374787 0.0034611121369584525
0.01875781575657 0.0022025357641380066 0.005234481356130468 0.9976473108927731 -0.013139667902987193 0.0001958384382894666 0.0026932924088044576 -0.00018008440903986148 -0.0016945119614623651
 0.9976473108927731 -0.013139667902987193 0.0022025116904193253 0.005234484568097969 -0.00018014472608574153 -0.0016945224147119802 0.00019584854410072009 0.002693290916804611
 0.0001958384382894666 0.0026932924088044576 -0.00018014472608574153 -0.0016945224147119802 0.002202501177187027 0.005234235876072494 0.9976473080719341 -0.013139918767467965
 -0.00018008440903986148 -0.0016945119614623651 0.00019584854410072009 0.002693290916804611 0.9976473080719341 -0.013139918767467965 0.0022025406792743588 0.00523422840315252
0.02501042100875 0.002413344868966615 0.007029864635682218 0.997372514617143 -0.01754069748992615 0.0002595083870848467 0.0035926398931383345 -0.00023503653371480937 -0.002262977137312644
 0.997372514617143 -0.01754069748992615 0.0024133021019395254 0.007029868659204555 -0.00023514304696370955 -0.0022629894150197833 0.0002595264348945891 0.003592637399957654
 0.0002595083870848467 0.0035926398931383345 -0.00023514304696370955 -0.0022629894150197833 0.002413283810489305 0.007029537873241678 0.9973725099846897 -0.01754103176645135
 -0.00023503653371480937 -0.002262977137312644 0.0002595264348945891 0.003592637399957654 0.9973725099846897 -0.01754103176645135 0.0024133539811372097 0.00702952707263508
0.03126302626094 0.0026416182593886448 0.008846120275669545 0.9970734011208894 -0.021955991477529746 0.0003333354369425723 0.004492819225153337 -0.00029843061616618353 -0.002832776567229873
 0.9970734011208894 -0.021955991477529746 0.002641551470748144 0.008846125038547231 -0.0002985961217379404 -0.0028327895944622625 0.0003333637775548457 0.004492815419101819
 0.0003333354369425723 0.004492819225153337 -0.0002985961217379404 -0.0028327895944622625 0.0026415232733943334 0.008845712557397363 0.997073394240887 -0.02195640912485115
 -0.00029843061616618353 -0.002832776567229873 0.0003333637775548457 0.004492815419101819 0.997073394240887 -0.02195640912485115 0.002641632844943238 0.008845697866604335
0.037515631513130004 0.0028877288813322654 0.010682381660560316 0.9967496359939234 -0.026385969331436842 0.0004174250982152635 0.005393730752852346 -0.0003703789515383019 -0.0034037352121481066
 0.9967496359939234 -0.026385969331436842 0.00288763274241058 0.010682387124795828 -0.00037061612785946324 -0.003403747764642407 0.0004174661258540095 0.005393725283741096
 0.0004174250982152635 0.005393730752852346 -0.00037061612785946324 -0.003403747764642407 0.0028875925173110096 0.010681893374771302 0.9967496264301731 -0.026386470317881605
 -0.0003703789515383019 -0.0034037352121481066 0.0004174661258540095 0.005393725283741096 0.9967496264301731 -0.026386470317881605 0.0028877502144993537 0.010681874143878035
0.043768236765320004 0.003152044172110432 0.01253799433693053 0.9964008814336456 -0.030830824747142774 0.0005118814182260515 0.0062952567258138595 -0.0004509911910940431 -0.0039756888323990896
 0.9964008814336456 -0.030830824747142774 0.00315191335316458 0.012538000499202452 -0.0004513126067533597 -0.003975699536422751 0.0005119375737116227 0.006295249203269937
 0.0005118814182260515 0.0062952567258138595 -0.0004513126067533597 -0.003975699536422751 0.0031518589856535367 0.01253742593402672 0.9964008687501085 -0.030831409051209874
 -0.0004509911910940431 -0.0039756888323990896 0.0005119375737116227 0.006295249203269937 0.9964008687501085 -0.030831409051209874 0.0031520735259216452 0.012537401424697697
0.050020842017509996 0.0034349274621349587 0.014412420361540456 0.996026797961004 -0.035290621229943274 0.0006168066737324897 0.007197267628093413 -0.0005403744310881229 -0.004548477677931866
 0.996026797961004 -0.035290621229943274 0.003434756631282654 0.014412427253759717 -0.0005407925497523815 -0.004548485010284052 0.0006168804474864265 0.007197257619857236
 0.0006168066737324897 0.007197267628093413 -0.0005407925497523815 -0.004548485010284052 0.0034346860148713066 0.014411772358562242 0.9960267817219879 -0.035291288836767354
 -0.0005403744310881229 -0.004548477677931866 0.0006168804474864265 0.007197257619857236 0.9960267817219879 -0.035291288836767354 0.0034349661079022846 0.014411741742892493
0.055454545454549996 0.0036961207233102834 0.016056267112704817 0.9956808737603402 -0.039178439678581624 0.0007165698896594377 0.007981429132394725 -0.0006252555625087451 -0.005046803862992302
 0.9956808737603402 -0.039178439678581624 0.0036959107886388658 0.016056274692967124 -0.0006257677619421029 -0.005046806912168714 0.0007166610375312163 0.00798141657905029
 0.0007165698896594377 0.007981429132394725 -0.0006257677619421029 -0.005046806912168714 0.0036958243457355733 0.016055550407591646 0.9956808540760553 -0.039179179670839455
 -0.0006252555625087451 -0.005046803862992302 0.0007166610375312163 0.00798141657905029 0.9956808540760553 -0.039179179670839455 0.00369616847326892 0.016055513742528817
0.056273447269699996 0.0037367386882753663 0.016305191344435064 0.995627045453047 -0.039765338982797355 0.0007323011419983416 0.008099625295042398 -0.000638633220189337 -0.005121943399600523
 0.995627045453047 -0.039765338982797355 0.003736522510830386 0.01630519903430629 -0.0006391604037476298 -0.005121945687642627 0.0007323950769914531 0.008099612325125394
 0.0007323011419983416 0.008099625295042398 -0.0006391604037476298 -0.005121945687642627 0.0037364335456391367 0.016304464326184976 0.9956270252209439 -0.03976608988410781
 -0.000638633220189337 -0.005121943399600523 0.0007323950769914531 0.008099612325125394 0.9956270252209439 -0.03976608988410781 0.0037367878932636537 0.016304426685518274
0.06252605252188 0.004057834757567864 0.0182158826429897 0.9952012838308071 -0.04425490064790848 0.0008584629169141261 0.009002184629859633 -0.0007458695192381986 -0.005695927366412839
 0.9952012838308071 -0.04425490064790848 0.004057567895761002 0.018215891234574372 -0.0007465180299565059 -0.0056959227881401495 0.0008585796118033196 0.009002168176642043
 0.0008584629169141261 0.009002184629859633 -0.0007465180299565059 -0.0056959227881401495 0.004057458490857369 0.018215077270089457 0.9952012591671594 -0.044255734834916564
 -0.0007458695192381986 -0.005695927366412839 0.0008585796118033196 0.009002168176642043 0.9952012591671594 -0.044255734834916564 0.004057895786006817 0.01821503159387454
0.06877865777407 0.004398569729350594 0.02014409798750424 0.9947491735693214 -0.0487591866228706 0.0009953877472963515 0.009904794636764313 -0.0008621826369926024 -0.006270269672438513
 0.9947491735693214 -0.0487591866228706 0.004398246841317063 0.020144107621892133 -0.0008629646387622999 -0.006270256256568841 0.000995529859435389 0.009904774131028077
 0.0009953877472963515 0.009904794636764313 -0.0008629646387622999 -0.006270256256568841 0.004398114915104801 0.02014321498295105 0.9947491440343889 -0.04876010410089861
 -0.0008621826369926024 -0.006270269672438513 0.000995529859435389 0.009904774131028077 0.9947491440343889 -0.04876010410089861 0.004398643841132353 0.020143160167528037
0.07503126302626001 0.004759294882173331 0.022089459716833425 0.9942703760981837 -0.05327804477351457 0.0011431688888647064 0.010807299089966459 -0.0009876691501678784 -0.0068448085145771925
 0.9942703760981837 -0.05327804477351457 0.0047589106221194504 0.022089470572782884 -0.0009885967093626674 -0.0068447841406679465 0.0011433391372247018 0.010807273912821786
 0.0011431688888647064 0.010807299089966459 -0.0009885967093626674 -0.0068447841406679465 0.004758754103750441 0.02208849988278655 0.9942703412513161 -0.053279045546132504
 -0.0009876691501678784 -0.0068448085145771925 0.0011433391372247018 0.010807273912821786 0.9942703412513161 -0.053279045546132504 0.0047593833333445384 0.02208843473026567
0.08128386827845 0.005140358713541915 0.02405160230808167 0.9937645541387833 -0.057811296860177 0.001301896964700051 0.011709536980226337 -0.0011224228132282509 -0.0074193797997012395
 0.9937645541387833 -0.057811296860177 0.005139907730981787 0.02405161460263709 -0.00112350789903893 -0.007419342198274639 0.00130209813318265 0.011709506460955308
 0.001301896964700051 0.011709536980226337 -0.00112350789903893 -0.007419342198274639 0.005139724560239172 0.024050566517373244 0.9937645135370742 -0.057812380938832696
 -0.0011224228132282509 -0.0074193797997012395 0.00130209813318265 0.011709506460955308 0.9937645135370742 -0.057812380938832696 0.005140462754391701 0.02405048973437383
0.08753647353064001 0.005542106890914679 0.026030167894972932 0.9932313719968386 -0.06235874298290581 0.0014716598314645567 0.012611342844492557 -0.001266534461366622 -0.007993816875875888
 0.9932313719968386 -0.06235874298290581 0.00554158383065027 0.0260301818841398 -0.00126778894591507 -0.007993763628566979 0.0014718947717493208 0.01261130625830437
 0.0014716598314645567 0.012611342844492557 -0.00126778894591507 -0.007993763628566979 0.005541371959457587 0.02602905709533305 0.9932313251956696 -0.06235991038369561
 -0.001266534461366622 -0.007993816875875888 0.0014718947717493208 0.01261130625830437 0.9932313251956696 -0.06235991038369561 0.005542227766109002 0.02602896729192937
0.09378907878283 0.005964882172158284 0.028024803071490113 0.9926704958290927 -0.06692016474994861 0.0016525424489899315 0.013512547005321446 -0.0014200919085050486 -0.008567950361257367
 0.9926704958290927 -0.06692016474994861 0.0059642816738992065 0.028024819050899805 -0.001421527566639199 -0.008567878900986202 0.0016528140839363096 0.0135125035709687
 0.0016525424489899315 0.013512547005321446 -0.001421527566639199 -0.008567878900986202 0.005964039067106429 0.02802361828928529 0.9926704423817178 -0.06692141549089356
 -0.0014200919085050486 -0.008567950361257367 0.0016528140839363096 0.0135125035709687 0.9926704423817178 -0.06692141549089356 0.005965021120190318 0.02802351397768975
0.100041684035 0.006409024301463777 0.030035156557159208 0.9920815938889577 -0.07149532759281223 0.001844626753066341 0.014412975765576512 -0.0015831798416277908 -0.009141608025193959
 0.9920815938889577 -0.07149532759281223 0.0064083409994190755 0.03003517486271513 -0.0015848083505534576 -0.009141515636354415 0.001844938079654449 0.014412924642914228
 0.001844626753066341 0.014412975765576512 -0.0015848083505534576 -0.009141515636354415 0.006408065635871856 0.030033898896765124 0.9920815333464361 -0.07149666169553597
 -0.0015831798416277908 -0.009141608025193959 0.001844938079654449 0.014412924642914228 0.9920815333464361 -0.07149666169553597 0.00640918255378276 0.03003377849028869
0.1059090909091 0.006845537388309926 0.031935643128106476 0.9915031892749627 -0.075800908391395 0.0020351355337668796 0.015257069314390788 -0.0017449610414737864 -0.009679336162351403
 0.9915031892749627 -0.075800908391395 0.00684477149854911 0.031935663958477904 -0.001746781053270831 -0.009679221532336886 0.0020354869014042724 0.01525701015829095
 0.0020351355337668796 0.015257069314390788 -0.001746781053270831 -0.009679221532336886 0.006844463571364558 0.03193431815127174 0.9915031216635964 -0.07580232074596069
 -0.0017449610414737864 -0.009679336162351403 0.0020354869014042724 0.01525701015829095 0.9915031216635964 -0.07580232074596069 0.006845714868862671 0.031934181109213325
0.1062942892872 0.006874869888746713 0.032060877448826776 0.9914643367592858 -0.0760839825039441 0.0020479915297512094 0.015312451561130818 -0.0017558797125541428 -0.009714614719152755
 0.9914643367592858 -0.0760839825039441 0.006874098411487586 0.032060898457387015 -0.0017577126513149456 -0.009714498537829554 0.0020483456223656217 0.01531239184860235
 0.0020479915297512094 0.015312451561130818 -0.0017577126513149456 -0.009714498537829554 0.006873788285054131 0.03205954809050003 0.9914642686699646 -0.07608539999679514
 -0.0017558797125541428 -0.009714614719152755 0.0020483456223656217 0.01531239184860235 0.9914642686699646 -0.07608539999679514 0.006875048669174284 0.03205940990234666
0.11254689453939999 0.0073627522760266765 0.03410161388632278 0.9908183975756846 -0.08068586736957199 0.002262712291013158 0.016210793096897942 -0.001938269628128969 -0.010286792332218892
 0.9908183975756846 -0.08068586736957199 0.00736188724630045 0.03410163801636131 -0.001940318476982931 -0.010286649346406752 0.0022631123046792075 0.01621072382883668
 0.002262712291013158 0.016210793096897942 -0.001940318476982931 -0.010286649346406752 0.007361540366936046 0.034100214090118486 0.9908183214854043 -0.08068736828468481
 -0.001938269628128969 -0.010286792332218892 0.0022631123046792075 0.01621072382883668 0.9908183214854043 -0.08068736828468481 0.007362952800225084 0.034100056332275516
0.11879949979160001 0.00787300139332243 0.036157012020619196 0.9901434522424469 -0.08530070800938572 0.00248886115240621 0.0171078154633993 -0.0021304242384197225 -0.01085795977401959
 0.9901434522424469 -0.08530070800938572 0.007872037427806466 0.03615703973294768 -0.002132700377970031 -0.010857786823927787 0.002489310325812637 0.017107735607259773
 0.00248886115240621 0.0171078154633993 -0.002132700377970031 -0.010857786823927787 0.007871651822214366 0.036155543128372616 0.990143367693642 -0.08530229238170531
 -0.0021304242384197225 -0.01085795977401959 0.002489310325812637 0.017107735607259773 0.990143367693642 -0.08530229238170531 0.007873224867710277 0.03615536391044993
0.1250521050438 0.008405943606559212 0.03822671520674147 0.9894391796431188 -0.08992821900120072 0.002726506710786779 0.01800333024378738 -0.00233241462452815 -0.011427932975397955
 0.9894391796431188 -0.08992821900120072 0.008404875315553225 0.03822674700513799 -0.002334929334957642 -0.011427726753683056 0.0027270083697089748 0.018003238697328786
 0.002726506710786779 0.01800333024378738 -0.002334929334957642 -0.011427726753683056 0.008404449029073863 0.03822517864115235 0.9894390861754935 -0.08992988687031063
 -0.00233241462452815 -0.011427932975397955 0.0027270083697089748 0.018003238697328786 0.9894390861754935 -0.08992988687031063 0.00840619122810819 0.03822497596933
0.131304710296 0.008961901559334655 0.04031036336657195 0.9887052618482473 -0.0945681043454856 0.002975713923838922 0.018897145615160718 -0.0025443081855549207 -0.011996524903118191
 0.9887052618482473 -0.0945681043454856 0.008960723546568208 0.04031039979852295 -0.0025470726455924866 -0.011996281955228352 0.0029762714842943095 0.01889704120344896
 0.002975713923838922 0.018897145615160718 -0.0025470726455924866 -0.011996281955228352 0.008960254643885163 0.0403087606328625 0.9887051589979428 -0.09456985575492345
 -0.0025443081855549207 -0.011996524903118191 0.0029762714842943095 0.01889704120344896 0.9887051589979428 -0.09456985575492345 0.00896217451457632 0.04030853240872548
0.1375573155481 0.009418027193230401 0.04213624481384787 0.9880646071544782 -0.09894856224555858 0.00320629042338401 0.01976244777127116 -0.0027359137712686292 -0.012536944146461433
 0.9880646071544782 -0.09894856224555858 0.009416734483826607 0.04213628878381507 -0.0027389446105592114 -0.012536663971787331 0.00320690370246786 0.019762330524328672
 0.00320629042338401 0.01976244777127116 -0.0027389446105592114 -0.012536663971787331 0.009416221168553273 0.042134577397105105 0.9880644944970378 -0.09895039717762748
 -0.0027359137712686292 -0.012536944146461433 0.00320690370246786 0.019762330524328672 0.9880644944970378 -0.09895039717762748 0.009418326454602078 0.04213432380236964
0.1438099208003 0.009890333521364692 0.04395171666551711 0.9874011628453835 -0.10331710841831064 0.003446151061735146 0.020623742679622258 -0.0029351500144229443 -0.01307369000200832
 0.9874011628453835 -0.10331710841831064 0.009888920782766842 0.04395176895246662 -0.0029384592471360703 -0.013073369180188053 0.003446822954386852 0.020623611521872042
 0.003446151061735146 0.020623742679622258 -0.0029384592471360703 -0.013073369180188053 0.009888361172351886 0.04394998611373967 0.9874010399212003 -0.10331902690543164
 -0.0029351500144229443 -0.01307369000200832 0.003446822954386852 0.020623611521872042 0.9874010399212003 -0.10331902690543164 0.00989066021949586 0.04394970519324475
0.1500625260525 0.01037864235960055 0.045756603590477105 0.9867151118250561 -0.10767361007996909 0.0036952048507307564 0.021480926048393512 -0.0031419284051688663 -0.013606664621432394
 0.9867151118250561 -0.10767361007996909 0.010377104257200438 0.04575666500562595 -0.0031455280136202953 -0.013606299594431511 0.0036959382977251078 0.021480779851200043
 0.0036952048507307564 0.021480926048393512 -0.0031455280136202953 -0.013606299594431511 0.010376496489049414 0.04575481151241599 0.9867149781718814 -0.10767561215740794
 -0.0031419284051688663 -0.013606664621432394 0.0036959382977251078 0.021480779851200043 0.9867149781718814 -0.10767561215740794 0.010378997612308238 0.04575450123111266
0.15631513130469998 0.010882774114588687 0.047550735496518434 0.9860066380902857 -0.11201793544985092 0.003953359632180765 0.022333895532472166 -0.0033561592607676376 -0.014135772372428124
 0.9860066380902857 -0.11201793544985092 0.010881105311627174 0.04755080688320926 -0.0033600611948627385 -0.01413535944516805 0.003954157622071237 0.022333733112922867
