! Created with skrf 1.8.0 (http://scikit-rf.org).
# GHz S RI R 50.0 
!freq ReS11 ImS11 ReS12 ImS12 ReS13 ImS13
! ReS14 ImS14
! ReS21 ImS21 ReS22 ImS22 ReS23 ImS23
! ReS24 ImS24
! ReS31 ImS31 ReS32 ImS32 ReS33 ImS33
! ReS34 ImS34
! ReS41 ImS41 ReS42 ImS42 ReS43 ImS43
! ReS44 ImS44
!
0.0 0.001824497893242 0.0 0.9981755021067 0.0 7.08095887109e-05 0.0 -7.080958808937e-05 8.671673540258951e-21
 0.9981755021067 0.0 0.001824497893235 0.0 -7.080958808906e-05 8.671673540220988e-21 7.080958871095e-05 0.0
 7.08095887109e-05 0.0 -7.080958808906e-05 8.671673540220988e-21 0.001824497884716 0.0 0.9981755020982 0.0
 -7.080958808937e-05 8.671673540258951e-21 7.080958871095e-05 0.0 0.9981755020982 0.0 0.001824497884727 0.0
0.005 0.0019639427274795404 0.0014923706843574392 0.9979989145737649 -0.003820753425121609 9.973720498186225e-05 0.0007764588616822565 -9.674019247788695e-05 -0.00048785776192872667
 0.9979989145737649 -0.003820753425121609 0.0019639732987901657 0.0014923528936732116 -9.673806611973574e-05 -0.00048785624233006405 9.954648414552562e-05 0.0007765315053744484
 9.973720498186225e-05 0.0007764588616822565 -9.673806611973574e-05 -0.00048785624233006405 0.001963942869775489 0.0014923033951804213 0.9979989141878562 -0.0038208204777994666
 -9.674019247788695e-05 -0.00048785776192872667 9.954648414552562e-05 0.0007765315053744484 0.9979989141878562 -0.0038208204777994666 0.0019639723880691402 0.0014922860795168608
0.006252605252188 0.002000796426238321 0.0018712910756658009 0.9979519024994241 -0.004776829838700346 0.00010817434455721666 0.0009709317672159018 -0.00010419037263845336 -0.0006104347300434465
 0.9979519024994241 -0.004776829838700346 0.0020008442146364418 0.0018712685140488037 -0.00010418706299735996 -0.0006104328596648753 0.00010787636419216691 0.0009710261814321373
 0.00010817434455721666 0.0009709317672159018 -0.00010418706299735996 -0.0006104328596648753 0.0020007967256141374 0.0018712069757672852 0.9979519019735307 -0.004776913653030056
 -0.00010419037263845336 -0.0006104347300434465 0.00010787636419216691 0.0009710261814321373 0.9979519019735307 -0.004776913653030056 0.002000842868977847 0.0018711849901322667
0.01250521050438 0.0021964410191984483 0.0037813280873670147 0.997700460230393 -0.009554116296754598 0.00015746972016272593 0.0019420837682197502 -0.00014715344272931406 -0.0012236344997942356
 0.997700460230393 -0.009554116296754598 0.00219663183394667 0.003781279690576051 -0.00014714038954569925 -0.0012236310841462804 0.00015628149669231174 0.0019423119771673767
 0.00015746972016272593 0.0019420837682197502 -0.00014714038954569925 -0.0012236310841462804 0.0021964427798243 0.0037811602299121184 0.9977004587044132 -0.00955428368881079
 -0.00014715344272931406 -0.0012236344997942356 0.00015628149669231174 0.0019423119771673767 0.9977004587044132 -0.00955428368881079 0.0021966270465211928 0.003781112812587457
0.01875781575657 0.00241191781190936 0.005718032840714538 0.9974208212786856 -0.014343414416546458 0.0002188172991358434 0.002914051159048867 -0.0001998425902382832 -0.0018386768605843516
 0.9974208212786856 -0.014343414416546458 0.0024123465747455347 0.005717955048619968 -0.0001998134679033973 -0.0018386723023321315 0.00021614822427808665 0.0029144612637901544
 0.0002188172991358434 0.002914051159048867 -0.0001998134679033973 -0.0018386723023321315 0.0024119221764370294 0.005717781439666982 0.9974208182749117 -0.014343665291250992
 -0.0001998425902382832 -0.0018386768605843516 0.00021614822427808665 0.0029144612637901544 0.9974208182749117 -0.014343665291250992 0.0024123362666361517 0.00571770487139267
0.02501042100875 0.0026476948163510652 0.007678620304813494 0.9971126161625713 -0.019146968729874765 0.0002923405426838988 0.0038868207464129163 -0.00026239565241149604 -0.002455238449502125
 0.9971126161625713 -0.019146968729874765 0.0026484562645172427 0.007678509305573883 -0.00026234420777201327 -0.0024552332348161863 0.0002875999271815772 0.0038874693245065793
 0.0002923405426838988 0.0038868207464129163 -0.00026234420777201327 -0.0024552332348161863 0.002647702914024094 0.007678285550429226 0.9971126112007069 -0.019147303030406064
 -0.00026239565241149604 -0.002455238449502125 0.0002875999271815772 0.0038874693245065793 0.9971126112007069 -0.019147303030406064 0.0026484383716558527 0.007678175871184296
0.03126302626094 0.0029042204670018646 0.009661618593537353 0.9967754589124735 -0.023965693286726028 0.0003781627400515783 0.004860289027983446 -0.00033494563527459574 -0.003073076873472045
 0.9967754589124735 -0.023965693286726028 0.0029054092123460052 0.009661470330348941 -0.0003348656758325386 -0.003073071572791985 0.0003707593013919313 0.004861241186467681
 0.0003781627400515783 0.004860289027983446 -0.0003348656758325386 -0.003073071572791985 0.002904233421267066 0.009661200663176535 0.9967754515155585 -0.023966110984163937
 -0.00033494563527459574 -0.003073076873472045 0.0003707593013919313 0.004861241186467681 0.9967754515155585 -0.023966110984163937 0.0029053816906591716 0.009661053678441354
0.037515631513130004 0.0031819326132338493 0.011666038744114716 0.9964089564866008 -0.028800001827112467 0.0004764056378638391 0.005834316020209987 -0.0004176216315972727 -0.003691976916350044
 0.9964089564866008 -0.028800001827112467 0.003183643184548943 0.0116658489179462 -0.000417507019902419 -0.0036919721846706997 0.00046574729045185834 0.005835645479452486
 0.0004764056378638391 0.005834316020209987 -0.000417507019902419 -0.0036919721846706997 0.0031819515398539464 0.01166553781737563 0.996408946176848 -0.028800502905542646
 -0.0004176216315972727 -0.003691976916350044 0.00046574729045185834 0.005835645479452486 0.996408946176848 -0.028800502905542646 0.003183604005070919 0.011665349100727506
0.043768236765320004 0.0034812619776994768 0.01369112205816795 0.9960127126579928 -0.03365006037772288 0.0005871887752234117 0.006808741646255238 -0.0005105491195004292 -0.004311734196370269
 0.9960127126579928 -0.03365006037772288 0.0034835888553663595 0.013690886128645318 -0.0005103937699045011 -0.004311730773339089 0.0005726825506268329 0.006810530833224211
 0.0005871887752234117 0.006808741646255238 -0.0005103937699045011 -0.004311730773339089 0.0034812879839799566 0.013690538319675124 0.9960126989551276 -0.0336506448315919
 -0.0005105491195004292 -0.004311734196370269 0.0005726825506268329 0.006810530833224211 0.9960126989551276 -0.0336506448315919 0.0034835360023270476 0.013690303213774428
0.050020842017509996 0.0038026337259949904 0.01573623568933999 0.9955863300204418 -0.038515891601961054 0.0007106290662962202 0.007783392525790138 -0.0006138500419979803 -0.004932148429873274
 0.9955863300204418 -0.038515891601961054 0.0038056713733697796 0.015735948874349332 -0.0006136479188507884 -0.004932147139857452 0.0006916811029573758 0.00778573267085134
 0.0007106290662962202 0.007783392525790138 -0.0006136479188507884 -0.004932147139857452 0.003802667914497208 0.015735569327881737 0.995586312443495 -0.038516559437042235
 -0.0006138500419979803 -0.004932148429873274 0.0006916811029573758 0.00778573267085134 0.995586312443495 -0.038516559437042235 0.0038056028461433467 0.015735282944200873
0.055454545454549996 0.004100143235315869 0.017529333615562023 0.9951910055623953 -0.04275720346746214 0.0008282701795989897 0.008630434423492933 -0.000712138207654138 -0.005471685827654315
 0.9951910055623953 -0.04275720346746214 0.004103875287922249 0.017528998506987414 -0.0007118905732569676 -0.005471687126602357 0.0008049792521691874 0.008633334368908176
 0.0008282701795989897 0.008630434423492933 -0.0007118905732569676 -0.005471687126602357 0.0041001854251887515 0.017528595612508423 0.9951909842259122 -0.04275794377315099
 -0.000712138207654138 -0.005471685827654315 0.0008049792521691874 0.008633334368908176 0.9951909842259122 -0.04275794377315099 0.004103791524220437 0.017528260516237872
0.056273447269699996 0.004146468249202501 0.017800821406437038 0.9951294112127544 -0.04339742597992959 0.0008468404946148809 0.008758085313660856 -0.0007276427866249612 -0.00555302015487557
 0.9951294112127544 -0.04339742597992959 0.004150311142129241 0.01780047868058634 -0.0007273879032497696 -0.005553021906996498 0.0008228560694535848 0.00876107654852805
 0.0008468404946148809 0.008758085313660856 -0.0007273879032497696 -0.005553021906996498 0.004146511716393343 0.017800072619120432 0.9951293892777668 -0.04339817720924946
 -0.0007276427866249612 -0.00555302015487557 0.0008228560694535848 0.00876107654852805 0.9951293892777668 -0.04339817720924946 0.004150224952468662 0.017799729836580357
0.06252605252188 0.004513181547823077 0.019884367436935852 0.9946415597510924 -0.048294529916188614 0.0009959338613363391 0.00973262855873053 -0.000852042115829577 -0.0061741489437552284
 0.9946415597510924 -0.048294529916188614 0.00451792420281513 0.01988396352892271 -0.0008517285339987886 -0.0061741547318939615 0.0009663174498302413 0.009736380014403358
 0.0009959338613363391 0.00973262855873053 -0.0008517285339987886 -0.0061741547318939615 0.004513235387166162 0.019883536426449952 0.9946415329725987 -0.048295364562765584
 -0.000852042115829577 -0.0061741489437552284 0.0009663174498302413 0.009736380014403358 0.9946415329725987 -0.048295364562765584 0.004517818376642196 0.019883131889007383
0.06877865777407 0.004903185402539153 0.021986391689750917 0.994122380654532 -0.05320702247767672 0.001158016564787895 0.010706823828404405 -0.0009871590683630427 -0.006795332360050132
 0.994122380654532 -0.05320702247767672 0.00490892240477231 0.021985921078771762 -0.0009867808980774252 -0.006795343262844074 0.00112217192142293 0.010711453732404766
 0.001158016564787895 0.010706823828404405 -0.0009867808980774252 -0.006795343262844074 0.004903250703847354 0.021985478669269944 0.9941223485438887 -0.05320794056968154
 -0.0009871590683630427 -0.006795332360050132 0.00112217192142293 0.010711453732404766 0.9941223485438887 -0.05320794056968154 0.004908794980732713 0.021985006782473816
0.07503126302626001 0.005316887416452872 0.024106431124310823 0.9935714809463818 -0.05813468599623606 0.001333192399073252 0.011680466436939084 -0.0011331008428768323 -0.0074163653216902945
 0.9935714809463818 -0.05813468599623606 0.00532371344699945 0.02410588803525823 -0.0011326522425220149 -0.007416382502490246 0.0012905226524701477 0.011686102209395489
 0.001333192399073252 0.011680466436939084 -0.0011326522425220149 -0.007416382502490246 0.005316965267392472 0.02410543631086084 0.9935714430117542 -0.058135687573520216
 -0.0011331008428768323 -0.0074163653216902945 0.0012905226524701477 0.011686102209395489 0.9935714430117542 -0.058135687573520216 0.005323562476197721 0.024104891237477877
0.08128386827845 0.0057546909759449245 0.026244034689920127 0.9929884700808821 -0.06307727311226824 0.0015215613629881016 0.012653345955994953 -0.0012899706709815415 -0.008037039692531346
 0.9929884700808821 -0.06307727311226824 0.0057627008391607 0.02624341308762207 -0.0012894458475645784 -0.008037064399355903 0.0014714691239953003 0.012660124304225447
 0.0015215613629881016 0.012653345955994953 -0.0012894458475645784 -0.008037064399355903 0.005754782462775078 0.02624295831111622 0.9929884258268179 -0.0630783582195385
 -0.0012899706709815415 -0.008037039692531346 0.0014714691239953003 0.012660124304225447 0.9929884258268179 -0.0630783582195385 0.005762524385118487 0.026242333965609637
0.08753647353064001 0.006216995157901695 0.02839875846346268 0.9923729603203887 -0.06803451163212529 0.0017232194786245313 0.013625246582804512 -0.0014578676815728555 -0.008657144027112715
 0.9923729603203887 -0.06803451163212529 0.006226283808664551 0.028398052045673913 -0.0014572608911446701 -0.008657177592577113 0.0016651069576702781 0.01363331359409306
 0.0017232194786245313 0.013625246582804512 -0.0014572608911446701 -0.008657177592577113 0.006217101366372672 0.028397600751953137 0.9923729092474207 -0.06803568032444814
 -0.0014578676815728555 -0.008657144027112715 0.0016651069576702781 0.01363331359409306 0.9923729092474207 -0.06803568032444814 0.006226079947113738 0.028396890793849175
0.09378907878283 0.006704194600045457 0.03057016217332051 0.9917245670805548 -0.07300610801204221 0.0019382586138776093 0.014595947426425665 -0.0016368867609062028 -0.00927646340840332
 0.9917245670805548 -0.07300610801204221 0.006714857170932634 0.030569364362758467 -0.0016361923091427794 -0.009276507249614457 0.0018715277472894005 0.01460545865886241
 0.0019382586138776093 0.014595947426425665 -0.0016361923091427794 -0.009276507249614457 0.006704316616901126 0.030568923373448083 0.9917245086852775 -0.07300736034793279
 -0.0016368867609062028 -0.00927646340840332 0.0018715277472894005 0.01460545865886241 0.9917245086852775 -0.07300736034793279 0.006714623989930755 0.03056812119977016
0.100041684035 0.007216679344047954 0.032757806678138296 0.991042909252281 -0.0779917499002253 0.0021667663102679082 0.015565222740177742 -0.001827118408380767 -0.009894779350682746
 0.991042909252281 -0.0779917499002253 0.00722881117278997 0.03275691061313617 -0.0018263306511435908 -0.009894834969143134 0.002090818893535998 0.015576343311238788
 0.0021667663102679082 0.015565222740177742 -0.0018263306511435908 -0.009894834969143134 0.007216818257170879 0.03275648703824528 0.991042843026558 -0.07799308594928854
 -0.001827118408380767 -0.009894779350682746 0.002090818893535998 0.015576343311238788 0.991042843026558 -0.07799308594928854 0.007228546772228992 0.03275558577453046
0.1059090909091 0.007720931884776939 0.03482505799492263 0.9903726557318638 -0.08268272719211359 0.0023935200910719773 0.016473283131048684 -0.002015904979611617 -0.01047389286382008
 0.9903726557318638 -0.08268272719211359 0.007734529371137595 0.0348240632255518 -0.0020150245771565004 -0.010473960974625749 0.002308379856728456 0.016486072659517105
 0.0023935200910719773 0.016473283131048684 -0.0020150245771565004 -0.010473960974625749 0.007721087644693727 0.03482366273129622 0.9903725816914015 -0.08268414186336515
 -0.002015904979611617 -0.01047389286382008 0.002308379856728456 0.016486072659517105 0.9903725816914015 -0.08268414186336515 0.007734233956758834 0.03482266197933527
0.1062942892872 0.007754834659248748 0.03496125207314294 0.9903276095080414 -0.08299110806488397 0.002408825612971407 0.016532842118338265 -0.0020286485903718288 -0.010511869749614107
 0.9903276095080414 -0.08299110806488397 0.007768531315635541 0.03496025059729575 -0.002027761934435623 -0.010511938731073544 0.002323063440797133 0.016545746791185204
 0.002408825612971407 0.016532842118338265 -0.002027761934435623 -0.010511938731073544 0.007754991558892474 0.034959851853304455 0.9903275349387359 -0.08299252789971402
 -0.0020286485903718288 -0.010511869749614107 0.002323063440797133 0.016545746791185204 0.9903275349387359 -0.08299252789971402 0.007768233807418297 0.034958844343709286
0.11254689453939999 0.008319040851075479 0.037180056271490285 0.9895782945969563 -0.08800383786114828 0.002664514904190366 0.01749857066790513 -0.0022415585920103447 -0.011127508869006852
 0.9895782945969563 -0.08800383786114828 0.008334398164970957 0.037178941921909944 -0.002240567495950957 -0.011127592883270572 0.0025683399163747424 0.017513443935071576
 0.002664514904190366 0.01749857066790513 -0.002240567495950957 -0.011127592883270572 0.008319216830684043 0.03717857573462796 0.989578211165176 -0.08800534156600873
 -0.0022415585920103447 -0.011127508869006852 0.0025683399163747424 0.017513443935071576 0.989578211165176 -0.08800534156600873 0.008334065672181609 0.037177454530725546
0.11879949979160001 0.00890967305834928 0.03941377389262799 0.9887945956303418 -0.09302958040502274 0.0029339077387221042 0.01846216916731479 -0.0024659248683241396 -0.011741467352313167
 0.9887945956303418 -0.09302958040502274 0.008926787146577901 0.03941253888705515 -0.0024648238432132216 -0.011741568153092418 0.002826722171146328 0.01847920533181377
 0.0029339077387221042 0.01846216916731479 -0.0024648238432132216 -0.011741568153092418 0.008909869215824581 0.039412213313631574 0.9887945028118695 -0.09303116806636162
 -0.0024659248683241396 -0.011741467352313167 0.002826722171146328 0.01847920533181377 0.9887945028118695 -0.09303116806636162 0.00892641780429735 0.03941097066201839
0.1250521050438 0.009527101041801803 0.04166195542292798 0.9879761483622896 -0.09806796348952553 0.0032170726813097387 0.01942339421586434 -0.0027018188950371324 -0.012353512255491632
 0.9879761483622896 -0.09806796348952553 0.00954606833573588 0.04166059164551376 -0.0027006025053401225 -0.012353631680162415 0.0030982792222856914 0.01944279746938474
 0.0032170726813097387 0.01942339421586434 -0.0027006025053401225 -0.012353631680162415 0.00952731847977805 0.04166031508219414 0.9879760456264997 -0.09806963520215697
 -0.0027018188950371324 -0.012353512255491632 0.0030982792222856914 0.01944279746938474 0.9879760456264997 -0.09806963520215697 0.009545660290531438 0.04165894291071393
0.131304710296 0.010171688965317638 0.04392414654464736 0.9871225934644183 -0.10311860234747797 0.003514073146771288 0.02038199837630241 -0.002949307019088767 -0.01296340709870434
 0.9871225934644183 -0.10311860234747797 0.010192606238279623 0.043922645530376746 -0.0029479698837235925 -0.012963547068054658 0.0033830750976428176 0.02040398287452799
 0.003514073146771288 0.02038199837630241 -0.0029479698837235925 -0.012963547068054658 0.010171928792783981 0.04392242672666546 0.9871224802741876 -0.10312035821548117
 -0.002949307019088767 -0.01296340709870434 0.0033830750976428176 0.02040398287452799 0.9871224802741876 -0.10312035821548117 0.010192157648047004 0.043920916629573856
0.1375573155481 0.010705584216882157 0.04590611759280071 0.9863718588039313 -0.10788715096055401 0.003790856337515085 0.02130982402577524 -0.003174497006147199 -0.013542916013062633
 0.9863718588039313 -0.10788715096055401 0.010728556366976515 0.04590450005066389 -0.003173031383359168 -0.01354307692790202 0.0036473568745393134 0.021334379244246245
 0.003790856337515085 0.02130982402577524 -0.003173031383359168 -0.01354307692790202 0.01070584871064114 0.045904317779642156 0.9863717346829605 -0.1078889909997994
 -0.003174497006147199 -0.013542916013062633 0.0036473568745393134 0.021334379244246245 0.9863717346829605 -0.1078889909997994 0.010728064107528586 0.045902691992201976
0.1438099208003 0.011258528538883006 0.04787579664678132 0.9855941516724844 -0.11264172000700494 0.004078764754419205 0.02223263165752263 -0.003408605529939098 -0.014117890371157902
 0.9855941516724844 -0.11264172000700494 0.011283654022735644 0.047874055486215136 -0.0034070056915920088 -0.014118074134030049 0.0039222220595050514 0.022259955523242975
 0.004078764754419205 0.02223263165752263 -0.0034070056915920088 -0.014118074134030049 0.011258819028013293 0.047873917040733314 0.9855940160875446 -0.11264364430947127
 -0.003408605529939098 -0.014117890371157902 0.0039222220595050514 0.022259955523242975 0.9855940160875446 -0.11264364430947127 0.011283116033690501 0.047872168705190295
0.1500625260525 0.011830296924068447 0.04983296406010891 0.984789702070254 -0.11738213478759157 0.004377679704425455 0.023150286530851532 -0.003651518724509031 -0.014688207039584083
 0.984789702070254 -0.11738213478759157 0.01185767456095496 0.049831091711261315 -0.003649778966160458 -0.014688415628444525 0.004207555975644554 0.023180584206552765
 0.004377679704425455 0.023150286530851532 -0.003649778966160458 -0.014688415628444525 0.011830614757331017 0.04983100486842962 0.9847895544831763 -0.11738414344552317
 -0.003651518724509031 -0.014688207039584083 0.004207555975644554 0.023180584206552765 0.9847895544831763 -0.11738414344552317 0.011857088777017294 0.049829126666309904
0.15631513130469998 0.012420662406579954 0.051777406765144404 0.9839587415612228 -0.12210822252779807 0.004687480875367677 0.02406265664524304 -0.003903121135431506 -0.01525374587460314
 0.9839587415612228 -0.12210822252779807 0.012450391387487264 0.05177539516212233 -0.003901235776944371 -0.015253981342295423 0.004503242398375188 0.024096140441775174
