! Created with skrf 1.8.0 (http://scikit-rf.org).
# GHz S RI R 50.0 
!freq ReS11 ImS11 ReS12 ImS12 ReS13 ImS13
! ReS14 ImS14
! ReS21 ImS21 ReS22 ImS22 ReS23 ImS23
! ReS24 ImS24
! ReS31 ImS31 ReS32 ImS32 ReS33 ImS33
! ReS34 ImS34
! ReS41 ImS41 ReS42 ImS42 ReS43 ImS43
! ReS44 ImS44
!
0.0 0.001887642917193 0.0 0.9981123570827 0.0 7.32504517467e-05 0.0 -7.325045059204e-05 8.970592985364314e-21
 0.9981123570827 0.0 0.001887642917173 0.0 -7.32504505907e-05 8.97059298520021e-21 7.325045174533e-05 0.0
 7.32504517467e-05 0.0 -7.32504505907e-05 8.97059298520021e-21 0.001887642911483 0.0 0.998112357077 0.0
 -7.325045059204e-05 8.970592985364314e-21 7.325045174533e-05 0.0 0.998112357077 0.0 0.001887642911531 0.0
0.005 0.00203211623404347 0.0015456270961708058 0.9979293781856291 -0.003952666481207578 0.00010297928216316561 0.0007922411478282729 -9.996930226295382e-05 -0.0004996542710047479
 0.9979293781856291 -0.003952666481207578 0.002032136136571105 0.001545615508740866 -9.996878396075408e-05 -0.0004996539609005649 0.00010284958458076977 0.0007922905332932561
 0.00010297928216316561 0.0007922411478282729 -9.996878396075408e-05 -0.0004996539609005649 0.0020321156592440176 0.0015455602194359144 0.9979293777900594 -0.0039527335287333565
 -9.996930226295382e-05 -0.0004996542710047479 0.00010284958458076977 0.0007922905332932561 0.9979293777900594 -0.0039527335287333565 0.002032135923848102 0.0015455482920126117
0.006252605252188 0.0020703658866329773 0.0019380518975571507 0.997880572732956 -0.004941740250044392 0.00011167334108976867 0.000990668401578419 -0.00010767249330625755 -0.0006251886662816243
 0.997880572732956 -0.004941740250044392 0.0020703969977555335 0.0019380372095974543 -0.00010767168609231651 -0.000625188286094636 0.00011147070314055735 0.0009907326049215987
 0.00011167334108976867 0.000990668401578419 -0.00010767168609231651 -0.000625188286094636 0.002070365073176879 0.0019379683068461416 0.9978805722001872 -0.004941824063491618
 -0.00010767249330625755 -0.0006251886662816243 0.00011147070314055735 0.0009907326049215987 0.9978805722001872 -0.004941824063491618 0.0020703967514838963 0.0019379531774171954
0.01250521050438 0.002273807556216578 0.003916064956222289 0.9976190175554911 -0.009883828478662215 0.0001625906442766021 0.001981560387906951 -0.00015223437332309876 -0.001253154618822308
 0.9976190175554911 -0.009883828478662215 0.002273931781104108 0.003916033520887627 -0.00015223118398375538 -0.001253153942594599 0.00016178261066794358 0.001981715820026561
 0.0001625906442766021 0.001981560387906951 -0.00015223118398375538 -0.001253153942594599 0.0022738048689908163 0.00391589811649206 0.9976190159970925 -0.009883995867326266
 -0.00015223437332309876 -0.001253154618822308 0.00016178261066794358 0.001981715820026561 0.9976190159970925 -0.009883995867326266 0.002273931377305147 0.003915865625286551
0.01875781575657 0.0024984858649235195 0.005921529054618049 0.9973273145008814 -0.014838198976043014 0.00022613046539757324 0.0029732600777966807 -0.0002070871931514024 -0.0018829573355633577
 0.9973273145008814 -0.014838198976043014 0.002498765000444785 0.00592147863689385 -0.00020708006981876652 -0.0018829564703961273 0.00022431541324049745 0.0029735398899952445
 0.00022613046539757324 0.0029732600777966807 -0.00020708006981876652 -0.0018829564703961273 0.002498480235390697 0.005921279198281254 0.9973273114225542 -0.014838449841570032
 -0.0002070871931514024 -0.0018829573355633577 0.00022431541324049745 0.0029735398899952445 0.9973273114225542 -0.014838449841570032 0.002498764538353151 0.005921226910991002
0.02501042100875 0.0027448986743000806 0.007951545819013988 0.997005069805454 -0.01980715519476192 0.00030242232694305043 0.003965739981660564 -0.000272375535880613 -0.002514257761231054
 0.997005069805454 -0.01980715519476192 0.0027453943990228885 0.00795147403197105 -0.0002723629421161498 -0.002514256838501799 0.00029919860026965633 0.0039661832878145524
 0.00030242232694305043 0.003965739981660564 -0.0002723629421161498 -0.002514256838501799 0.0027448890284938734 0.007951213166544667 0.9970050647134376 -0.019807489481845953
 -0.000272375535880613 -0.002514257761231054 0.00029919860026965633 0.0039661832878145524 0.9970050647134376 -0.019807489481845953 0.002745393990351288 0.007951138469999881
0.03126302626094 0.0030135229105675474 0.010004574573699625 0.9966518726351762 -0.024791623816212156 0.0003915951886474344 0.004958881493603361 -0.0003482386882354042 -0.0031467978018297027
 0.9966518726351762 -0.024791623816212156 0.003014296824521947 0.010004478883048475 -0.00034821910077482765 -0.0031467969774044615 0.0003865607599630625 0.004959533407477005
 0.0003915951886474344 0.004958881493603361 -0.00034821910077482765 -0.0031467969774044615 0.0030135081704948012 0.010004159354008163 0.9966518650362904 -0.024792041492577483
 -0.0003482386882354042 -0.0031467978018297027 0.0003865607599630625 0.004959533407477005 0.9966518650362904 -0.024792041492577483 0.003014296593028827 0.010004059460485427
0.037515631513130004 0.0033048240102509898 0.01207957355871835 0.9962673050152816 -0.029792013489503808 0.0004937760665254699 0.005952528998938535 -0.0004348115820315502 -0.0037803462722740488
 0.9962673050152816 -0.029792013489503808 0.0033059376637734786 0.01207945128482502 -0.00043478348961779894 -0.0037803457266076717 0.0004865284041288684 0.005953440692305189
 0.0004937760665254699 0.005952528998938535 -0.00043478348961779894 -0.0037803457266076717 0.0033048030934827613 0.012079076019700014 0.9962672944158087 -0.029792514535800632
 -0.0004348115820315502 -0.0037803462722740488 0.0004865284041288684 0.005953440692305189 0.9962672944158087 -0.029792514535800632 0.003305937744749447 0.012078947968426635
0.043768236765320004 0.0036192595371018657 0.014175738607043468 0.9958509459356119 -0.0348084760983162 0.0006090893533564219 0.0069465063407506316 -0.000532225091397949 -0.00441468249299326
 0.9958509459356119 -0.0348084760983162 0.0036207744557334685 0.014175586925610717 -0.000532186994507926 -0.004414682431212962 0.0005992253768572412 0.006947735107750054
 0.0006090893533564219 0.0069465063407506316 -0.000532186994507926 -0.004414682431212962 0.003619231357330636 0.014175159025917436 0.9958509318397827 -0.034809060498205965
 -0.000532225091397949 -0.00441468249299326 0.0005992253768572412 0.006947735107750054 0.9958509318397827 -0.034809060498205965 0.0036207749935387836 0.014174999683437864
0.050020842017509996 0.003957280826854901 0.016292395165433952 0.9954023734888753 -0.03984101468498723 0.0007376563871247165 0.007940623644400065 -0.0006406061007302853 -0.005049589537211312
 0.9954023734888753 -0.03984101468498723 0.003959258532572488 0.01629221110726322 -0.0006405565111814727 -0.005049590189168811 0.0007247724701584105 0.007942232968059886
 0.0007376563871247165 0.007940623644400065 -0.0006405565111814727 -0.005049590189168811 0.003957244296207045 0.016291733835125978 0.9954023554008808 -0.03984168243910915
 -0.0006406061007302853 -0.005049589537211312 0.0007247724701584105 0.007942232968059886 0.9954023554008808 -0.03984168243910915 0.0039592596835111415 0.016291539894563212
0.055454545454549996 0.0042705325416494706 0.018148009737051864 0.9949860618627275 -0.044227428577077225 0.0008602404004001003 0.008804500095051323 -0.0007437949570115358 -0.005601638477665993
 0.9949860618627275 -0.044227428577077225 0.004272962400179002 0.0181477950177147 -0.000743734180304685 -0.005601639955777155 0.0008444038694602464 0.008806496547012418
 0.0008602404004001003 0.008804500095051323 -0.000743734180304685 -0.005601639955777155 0.004270487868041153 0.018147277620278898 0.9949860399003562 -0.0442281687765342
 -0.0007437949570115358 -0.005601638477665993 0.0008444038694602464 0.008806496547012418 0.9949860399003562 -0.0442281687765342 0.004272964217112629 0.018147050791671292
0.056273447269699996 0.004319333791151899 0.018428945293503238 0.9949211661765467 -0.04488953640332479 0.0008795951258297235 0.008934680695896344 -0.0007600774726158605 -0.0056848509341473
 0.9949211661765467 -0.04488953640332479 0.004321835823766563 0.01842872574330172 -0.0007600149136544311 -0.005684852554456665 0.0008632871281812156 0.008936740315177633
 0.0008795951258297235 0.008934680695896344 -0.0007600149136544311 -0.005684852554456665 0.004319287819076233 0.0184282025306679 0.9949211435977878 -0.044890287521607286
 -0.0007600774726158605 -0.0056848509341473 0.0008632871281812156 0.008936740315177633 0.9949211435977878 -0.044890287521607286 0.00432183775265844 0.01842797051035725
0.06252605252188 0.004705859307721279 0.020584838541570522 0.9944069038058007 -0.04995388160216635 0.0010350198801365642 0.009928468803264284 -0.0008907579616539311 -0.0063202488998665984
 0.9944069038058007 -0.04995388160216635 0.004708947244768041 0.020584580236112787 -0.0008906809680453607 -0.006320251767936124 0.0010148831982763945 0.00993105477996161
 0.0010350198801365642 0.009928468803264284 -0.0008906809680453607 -0.006320251767936124 0.004705802803208138 0.020584014693598558 0.9944068762355949 -0.049954716097117303
 -0.0008907579616539311 -0.0063202488998665984 0.0010148831982763945 0.00993105477996161 0.9944068762355949 -0.049954716097117303 0.00470895012607453 0.020583740934860813
0.06877865777407 0.00511729338377183 0.022759554615162613 0.9938591681664594 -0.05503384113399358 0.00120404107448077 0.010921771943855931 -0.0010327621000112094 -0.006955563293571946
 0.9938591681664594 -0.05503384113399358 0.005121028860199865 0.02275925414058191 -0.0010326692181791346 -0.006955567713635367 0.001179670706746028 0.010924966728683592
 0.00120404107448077 0.010921771943855931 -0.0010326692181791346 -0.006955567713635367 0.005117225255369688 0.02275865005247319 0.9938591351015078 -0.05503475902876668
 -0.0010327621000112094 -0.006955563293571946 0.001179670706746028 0.010924966728683592 0.9938591351015078 -0.05503475902876668 0.0051210328770200965 0.02275833071660005
0.07503126302626001 0.005554067183350279 0.0249525923738184 0.9932775435785893 -0.06012916734189615 0.0013867650276198414 0.011914367510085174 -0.0011862000643351903 -0.00759057098729712
 0.9932775435785893 -0.06012916734189615 0.00555851191129698 0.02495224616207151 -0.0011860898526218071 -0.007590577288414829 0.0013577556497447957 0.011918260007736589
 0.0013867650276198414 0.011914367510085174 -0.0011860898526218071 -0.007590577288414829 0.005553986341265586 0.024951607493604474 0.9932775045129472 -0.06013016866670034
 -0.0011862000643351903 -0.00759057098729712 0.0013577556497447957 0.011918260007736589 0.9932775045129472 -0.06013016866670034 0.005558517255986069 0.024951238558102537
0.08128386827845 0.006016606971008681 0.02716346254961585 0.992661617360074 -0.06523958134025376 0.0015832937449630072 0.012906026828768964 -0.0013511775310811002 -0.008225045474149937
 0.992661617360074 -0.06523958134025376 0.006021822759193088 0.027163066874140565 -0.0013510485600277554 -0.008225054010208434 0.0015492397939232988 0.012910712461656272
 0.0015832937449630072 0.012906026828768964 -0.0013510485600277554 -0.008225054010208434 0.006016512326950202 0.027162397778257356 0.9926615717844169 -0.06524066613023118
 -0.0013511775310811002 -0.008225045474149937 0.0015492397939232988 0.012910712461656272 0.9926615717844169 -0.06524066613023118 0.006021829631800851 0.02716197503232181
0.08753647353064001 0.006505333996153479 0.029391682716477425 0.9920109802421027 -0.07036477805907256 0.001793724718881882 0.01389651554805068 -0.0015277955240556224 -0.008858756621559537
 0.9920109802421027 -0.07036477805907256 0.006511382769381193 0.029391233687052817 -0.0015276463767294856 -0.008858767771260087 0.001754220483746083 0.013902096318547047
 0.001793724718881882 0.01389651554805068 -0.0015276463767294856 -0.008858767771260087 0.006505224464843 0.029390538506616236 0.9920109276430885 -0.07036594635731595
 -0.0015277955240556224 -0.008858756621559537 0.001754220483746083 0.013902096318547047 0.9920109276430885 -0.07036594635731595 0.006511391377757888 0.029390057545775894
0.09378907878283 0.0070206643400854 0.03163677371193918 0.9913252267497192 -0.0755044298505072 0.0020181507345112173 0.014885593938615178 -0.0017161502570091196 -0.009491470522978234
 0.9913252267497192 -0.0755044298505072 0.007027608158659555 0.031636267268650285 -0.00171597952930614 -0.009491484689808453 0.0019727904532176447 0.014892178489651641
 0.0020181507345112173 0.014885593938615178 -0.00171597952930614 -0.009491484689808453 0.007020538840550377 0.03163555054472073 0.9913251666106552 -0.07550568170602888
 -0.0017161502570091196 -0.009491470522978234 0.0019727904532176447 0.014892178489651641 0.9913251666106552 -0.07550568170602888 0.007027618718667653 0.031635006764652286
0.100041684035 0.007563008734497846 0.03389825703609313 0.9906039555601274 -0.0806581891337052 0.0022566596800461074 0.015873017140734254 -0.001916332972593154 -0.010122949416855908
 0.9906039555601274 -0.0806581891337052 0.007570909813836455 0.033897688942424446 -0.0019161392736416647 -0.010122967029068343 0.002205037641344439 0.01588072081455997
 0.0022566596800461074 0.015873017140734254 -0.0019161392736416647 -0.010122967029068343 0.00756286619062856 0.033896955421129846 0.9906038873596172 -0.08065952460152186
 -0.001916332972593154 -0.010122949416855908 0.002205037641344439 0.01588072081455997 0.9906038873596172 -0.08065952460152186 0.007570922548175976 0.03389634401061705
0.1059090909091 0.008096871414194165 0.036034900560099406 0.9898944625398884 -0.0855069508362185 0.0024933571282779697 0.01679788127483731 -0.0021150174129894624 -0.01071418694721763
 0.9898944625398884 -0.0855069508362185 0.008105727520378324 0.03603427059687918 -0.002114800905051265 -0.010714208204034755 0.0024354902431153506 0.016806746046903347
 0.0024933571282779697 0.01679788127483731 -0.002114800905051265 -0.010714208204034755 0.00809671190251676 0.03603352581671051 0.9898943862962554 -0.0855083648231356
 -0.0021150174129894624 -0.01071418694721763 0.0024354902431153506 0.016806746046903347 0.9898943862962554 -0.0855083648231356 0.008105742503839861 0.03603284637524714
0.1062942892872 0.008132772358548873 0.03617565291195963 0.9898467698412388 -0.0858256903938189 0.0025093343606915485 0.016858535377035876 -0.0021284297789526045 -0.01075295165307816
 0.9898467698412388 -0.0858256903938189 0.008141693088347871 0.036175018746995455 -0.002128211731463182 -0.010752973163601453 0.002451045010469286 0.016867480272077573
 0.0025093343606915485 0.016858535377035876 -0.002128211731463182 -0.010752973163601453 0.008132611700113802 0.03617427338528823 0.989846693053251 -0.08582710953709252
 -0.0021284297789526045 -0.01075295165307816 0.002451045010469286 0.016867480272077573 0.989846693053251 -0.08582710953709252 0.008141708226627409 0.03617358931833389
0.11254689453939999 0.008730354620709792 0.038468478816562984 0.9890532775802199 -0.09100655172659834 0.002776252315158989 0.01784189414468988 -0.002352521485352086 -0.011381231693410678
 0.9890532775802199 -0.09100655172659834 0.00874035758475823 0.03846777396623743 -0.0023522777260251934 -0.011381257579836565 0.0027108903672690074 0.017852209170332044
 0.002776252315158989 0.01784189414468988 -0.0023522777260251934 -0.011381257579836565 0.00873017478479585 0.038467021944478236 0.9890531916736508 -0.0910080546127639
 -0.002352521485352086 -0.011381231693410678 0.0027108903672690074 0.017852209170332044 0.9890531916736508 -0.0910080546127639 0.008740375363267102 0.03846625997156276
0.11879949979160001 0.009356148928927496 0.04077624836486406 0.9882230919008743 -0.09620037604651635 0.0030574856355435275 0.018822834389017308 -0.002588683436762286 -0.012007540144135964
 0.9882230919008743 -0.09620037604651635 0.009367296924739432 0.04077546801224353 -0.002588412616691755 -0.0120075709086029 0.002984646185966761 0.01883465531818601
 0.0030574856355435275 0.018822834389017308 -0.002588412616691755 -0.0120075709086029 0.009355948860895727 0.04077471473942096 0.9882229963394954 -0.09620196275182599
 -0.002588683436762286 -0.012007540144135964 0.002984646185966761 0.01883465531818601 0.9882229963394954 -0.09620196275182599 0.0093673175858249 0.040773869377722045
0.1250521050438 0.010010542451944795 0.04309847043828417 0.9873558313759212 -0.10140675206711594 0.0033531007892943525 0.01980109267301303 -0.002836985348888023 -0.012631623806423919
 0.9873558313759212 -0.10140675206711594 0.010022898509803932 0.04309760955301332 -0.0028366861340078696 -0.012631659975536365 0.003272379433993097 0.019814562192562238
 0.0033531007892943525 0.01980109267301303 -0.0028366861340078696 -0.012631659975536365 0.01001032110617982 0.043096860682030474 0.9873557256172623 -0.10140842267179569
 -0.002836985348888023 -0.012631623806423919 0.003272379433993097 0.019814562192562238 0.9873557256172623 -0.10140842267179569 0.010022922301788004 0.04309592620485075
0.131304710296 0.010693915872351684 0.0454346485142361 0.9864511203317372 -0.10662525509754137 0.0036631584437036547 0.020776401340301294 -0.0030974911436984945 -0.013253225747022743
 0.9864511203317372 -0.10662525509754137 0.01070754327506348 0.045433701840853595 -0.0030971622151691617 -0.013253267871765765 0.00357415140002432 0.020791669098937905
 0.0036631584437036547 0.020776401340301294 -0.0030971622151691617 -0.013253267871765765 0.010693672213876418 0.04543296327830275 0.9864510038273858 -0.10662700968759926
 -0.0030974911436984945 -0.013253225747022743 0.00357415140002432 0.020791669098937905 0.9864510038273858 -0.10662700968759926 0.010707570451736339 0.045431933703518716
0.1375573155481 0.01126208224843457 0.0474815715381872 0.9856532305572531 -0.11155253410966302 0.003952382152524854 0.02172011797654829 -0.003335036367467575 -0.01384366182315626
 0.9856532305572531 -0.11155253410966302 0.011277049854939011 0.04748055201199599 -0.0033346759852182725 -0.013843710030985591 0.003854889959071695 0.021737179247025076
 0.003952382152524854 0.02172011797654829 -0.0033346759852182725 -0.013843710030985591 0.011261816307707711 0.04747981080816759 0.985653102818438 -0.11155437268692649
 -0.003335036367467575 -0.01384366182315626 0.003854889959071695 0.021737179247025076 0.985653102818438 -0.11155437268692649 0.011277079492735218 0.047478699518120844
0.1438099208003 0.011850568963446962 0.04951537749038548 0.9848265763989803 -0.11646493114031961 0.0042531941262709295 0.022658458867537683 -0.0035819578559001725 -0.014429207880095348
 0.9848265763989803 -0.11646493114031961 0.011866941232905248 0.04951428062347656 -0.0035815646469003802 -0.014429262711587818 0.004146850652051899 0.02267745215652402
 0.0042531941262709295 0.022658458867537683 -0.0035815646469003802 -0.014429262711587818 0.011850279912135546 0.04951354185947071 0.9848264368817639 -0.11646685377761254
 -0.0035819578559001725 -0.014429207880095348 0.004146850652051899 0.02267745215652402 0.9848264368817639 -0.11646685377761254 0.011866973378289675 0.04951234375657761
0.1500625260525 0.012459129933520934 0.05153582695152819 0.9839714091920427 -0.12136225271378175 0.004565464802355184 0.023591278831318042 -0.003838130664685716 -0.015009730530051724
 0.9839714091920427 -0.12136225271378175 0.01247697158888018 0.051534647932881025 -0.003837703265356594 -0.0150097925464353 0.004449906842009706 0.02361234768609902
 0.004565464802355184 0.023591278831318042 -0.003837703265356594 -0.0150097925464353 0.012458816965400804 0.05153391703101942 0.983971257348092 -0.12136425948691493
 -0.003838130664685716 -0.015009730530051724 0.004449906842009706 0.02361234768609902 0.983971257348092 -0.12136425948691493 0.012477006279159677 0.05153262667756539
0.15631513130469998 0.013087516866375501 0.0535426876932772 0.9830879820560399 -0.12624430773206624 0.004889062814336872 0.02451843577103964 -0.004103428075060452 -0.015585099730752313
 0.9830879820560399 -0.12624430773206624 0.013106892900210094 0.053541421376139355 -0.0041029651314627895 -0.01558516951361111 0.004763930142090327 0.024541728714076533
