! Created with skrf 1.8.0 (http://scikit-rf.org).
# GHz S RI R 50.0 
!freq ReS11 ImS11 ReS12 ImS12 ReS13 ImS13
! ReS14 ImS14
! ReS21 ImS21 ReS22 ImS22 ReS23 ImS23
! ReS24 ImS24
! ReS31 ImS31 ReS32 ImS32 ReS33 ImS33
! ReS34 ImS34
! ReS41 ImS41 ReS42 ImS42 ReS43 ImS43
! ReS44 ImS44
!
0.0 0.001167354627194 0.0 0.998832645357 0.0 4.417446586563e-05 0.0 -4.417446442263e-05 5.409811645922246e-21
 0.998832645357 0.0 0.001167354627194 0.0 -4.41744644226e-05 5.4098116459185724e-21 4.417446586616e-05 0.0
 4.417446586563e-05 0.0 -4.41744644226e-05 5.4098116459185724e-21 0.001167354635015 0.0 0.9988326453649 0.0
 -4.417446442263e-05 5.409811645922246e-21 4.417446586616e-05 0.0 0.9988326453649 0.0 0.001167354635018 0.0
0.005 0.0012550817864967567 0.0009595934874732743 0.9987217998929884 -0.002446190970135712 6.0803541244190336e-05 0.0004623051629196105 -5.9277003883225605e-05 -0.0002945848697816449
 0.9987217998929884 -0.002446190970135712 0.0012550900833062687 0.0009595886159811793 -5.927763445643287e-05 -0.00029458529816808743 6.076012409483434e-05 0.0004623217746819226
 6.0803541244190336e-05 0.0004623051629196105 -5.927763445643287e-05 -0.00029458529816808743 0.0012550820918232253 0.0009596605141853902 0.9987218002214221 -0.002446123916665393
 -5.9277003883225605e-05 -0.0002945848697816449 6.076012409483434e-05 0.0004623217746819226 0.9987218002214221 -0.002446123916665393 0.0012550904352043746 0.0009596556974839451
0.006252605252188 0.0012778429389960727 0.0012032826678250715 0.9986928999847793 -0.003058373169964391 6.54199222239352e-05 0.000578131749011204 -6.342754576883074e-05 -0.00036861994773716483
 0.9986928999847793 -0.003058373169964391 0.0012778559083496926 0.0012032764416839044 -6.342852745563057e-05 -0.0003686204750621882 6.535208694869623e-05 0.0005781532770703985
 6.54199222239352e-05 0.000578131749011204 -6.342852745563057e-05 -0.0003686204750621882 0.001277843337262017 0.0012033664552052784 0.9986929004188818 -0.0030582893445123215
 -6.342754576883074e-05 -0.00036861994773716483 6.535208694869623e-05 0.0005781532770703985 0.9986929004188818 -0.0030582893445123215 0.0012778563787154272 0.0012033603077582196
0.01250521050438 0.0013962242480073318 0.002431987612131659 0.9985417925595694 -0.006117730746793009 9.118361738651113e-05 0.0011567634503812949 -8.636802346918315e-05 -0.0007391514845183815
 0.9985417925595694 -0.006117730746793009 0.0013962760379694402 0.0024319737769438387 -8.637189809544422e-05 -0.0007391524508567039 9.091311858166044e-05 0.0011568146224741785
 9.118361738651113e-05 0.0011567634503812949 -8.637189809544422e-05 -0.0007391524508567039 0.0013962252809968903 0.002432154881556838 0.9985417937291982 -0.006117563357200743
 -8.636802346918315e-05 -0.0007391514845183815 9.091311858166044e-05 0.0011568146224741785 0.9985417937291982 -0.006117563357200743 0.0013962773459630146 0.00243214130746772
0.01875781575657 0.0015227049129903593 0.0036784805623356702 0.9983791727236617 -0.009185564434971236 0.00012151736137724312 0.001736284217817643 -0.000113055000682023 -0.001111123838466711
 0.9983791727236617 -0.009185564434971236 0.001522821295164461 0.0036784576407355597 -0.00011306364983979883 -0.001111125140774815 0.00012090974062772308 0.001736374456404389
 0.00012151736137724312 0.001736284217817643 -0.00011306364983979883 -0.001111125140774815 0.0015227068264214057 0.0036787311752509893 0.9983791749306015 -0.009185313581065354
 -0.000113055000682023 -0.001111123838466711 0.00012090974062772308 0.001736374456404389 0.9983791749306015 -0.009185313581065354 0.0015228238006499413 0.003678708805516995
0.02501042100875 0.0016574877814637624 0.004941076931371307 0.9982048857369217 -0.012263411591839829 0.00015647371600282996 0.0023167421658694632 -0.0001435465063263728 -0.0014844048388780707
 0.9982048857369217 -0.012263411591839829 0.0016576944781181546 0.00494104335779291 -0.00014356179234824293 -0.001484406357582942 0.0001553944619407931 0.002316882132372697
 0.00015647371600282996 0.0023167421658694632 -0.00014356179234824293 -0.001484406357582942 0.0016574908269809672 0.004941410779112785 0.9982048892811595 -0.012263077348395015
 -0.0001435465063263728 -0.0014844048388780707 0.0001553944619407931 0.002316882132372697 0.9982048892811595 -0.012263077348395015 0.0016576985317874372 0.004941378161961543
0.03126302626094 0.0018007668948353435 0.006218935695102495 0.9980187672611275 -0.015351961323301964 0.0001961058977770991 0.0028981359733149547 -0.0001778994019743415 -0.0018589093125477695
 0.9980187672611275 -0.015351961323301964 0.001801089590337042 0.006218889816615464 -0.00017792317142412234 -0.001858910911272744 0.0001944203087855266 0.0028983375726303303
 0.0001961058977770991 0.0028981359733149547 -0.00017792317142412234 -0.001858910911272744 0.0018007713315019525 0.006219352687532747 0.9980187724418692 -0.015351543751247428
 -0.0001778994019743415 -0.0018589093125477695 0.0001944203087855266 0.0028983375726303303 0.9980187724418692 -0.015351543751247428 0.0018010955357517496 0.006219308289426547
0.037515631513130004 0.0019527322620849063 0.007511528101429275 0.9978206482070817 -0.018451585733084332 0.00024046729009421616 0.003480445170728373 -0.00021616978550467378 -0.002234568782408775
 0.9978206482070817 -0.018451585733084332 0.0019531966094934812 0.007511468177910394 -0.00021620387095095533 -0.002234570307843987 0.00023804040715331363 0.0034807215630340044
 0.00024046729009421616 0.003480445170728373 -0.00021620387095095533 -0.002234570307843987 0.0019527383551542427 0.0075120281614392504 0.9978206553222182 -0.01845108488481507
 -0.00021616978550467378 -0.002234568782408775 0.00023804040715331363 0.0034807215630340044 0.9978206553222182 -0.01845108488481507 0.001953204782322791 0.007511970367519834
0.043768236765320004 0.0021135717064356234 0.008818476018509352 0.9976103566563203 -0.021562501527548763 0.00028961122577230884 0.004063639349862051 -0.0002584131433302572 -0.0026113222453833687
 0.9976103566563203 -0.021562501527548763 0.0021142033323214003 0.008818400222740353 -0.00025845936440138027 -0.002611323527207331 0.00028630779535266445 0.004064004964740427
 0.00028961122577230884 0.004063639349862051 -0.00025845936440138027 -0.002611323527207331 0.0021135797283027484 0.008819059072904475 0.9976103660030958 -0.02156191745596107
 -0.0002584131433302572 -0.0026113222453833687 0.00028630779535266445 0.004064004964740427 0.9976103660030958 -0.02156191745596107 0.002114214061652521 0.00881898618719901
0.050020842017509996 0.0022834717341121253 0.01013948510462293 0.9973877188073825 -0.02468483679727312 0.00034359086227682666 0.004647681960746161 -0.0003046844161662505 -0.002989112363032042
 0.9973877188073825 -0.02468483679727312 0.002284296242304592 0.010139391522213817 -0.0003047445802118948 -0.002989113213840622 0.0003392753149174413 0.004648152512287859
 0.00034359086227682666 0.004647681960746161 -0.0003047445802118948 -0.002989113213840622 0.002283481964321395 0.0101401510847138 0.9973877306825472 -0.02468416955490827
 -0.0003046844161662505 -0.002989112363032042 0.0003392753149174413 0.004648152512287859 0.9973877306825472 -0.02468416955490827 0.0022843098510272686 0.010140061330314191
0.055454545454549996 0.002438622509716729 0.011298711504794603 0.997184077066442 -0.027407571897296115 0.0003944690748449467 0.005155890090359983 -0.00034820899210836017 -0.0033182221516091823
 0.997184077066442 -0.027407571897296115 0.0024396354167560146 0.011298600842771699 -0.0003482827316177694 -0.0033182224623518135 0.00038916361369542693 0.005156465606157229
 0.0003944690748449467 0.005155890090359983 -0.0003482827316177694 -0.0033182224623518135 0.002438634890743401 0.011299449501555764 0.9971840913785339 -0.027406832415404533
 -0.00034820899210836017 -0.0033182221516091823 0.00038916361369542693 0.005156465606157229 0.9971840913785339 -0.027406832415404533 0.0024396517844344403 0.011299343581817896
0.056273447269699996 0.002462617994478179 0.011474312012622036 0.9971525595138195 -0.027818663763147986 0.0004024590998786564 0.0052325321687723735 -0.00035503802406628804 -0.003367883592836864
 0.9971525595138195 -0.027818663763147986 0.002463660969369336 0.011474198641932472 -0.0003551139266149599 -0.0033678838080916157 0.0003969955381292744 0.005233124671186056
 0.0004024590998786564 0.0052325321687723735 -0.0003551139266149599 -0.0033678838080916157 0.0024626307186444013 0.01147506085925471 0.997152574212499 -0.027817913397166025
 -0.00035503802406628804 -0.003367883592836864 0.0003969955381292744 0.005233124671186056 0.997152574212499 -0.027817913397166025 0.0024636777732517635 0.011474952378320717
0.06252605252188 0.0026511955389746985 0.012822746372730277 0.9969047026237817 -0.03096401674455732 0.00046626851798027444 0.005818145878623191 -0.00040952787395060023 -0.003747581153418345
 0.9969047026237817 -0.03096401674455732 0.002652482548180943 0.012822611124690828 -0.0004096212989948914 -0.003747580511396129 0.00045952071064786433 0.0058188786621252275
 0.00046626851798027444 0.005818145878623191 -0.0004096212989948914 -0.003747580511396129 0.0026512110499329346 0.012823578026410003 0.9969047204406641 -0.030963183306390484
 -0.00040952787395060023 -0.003747581153418345 0.00045952071064786433 0.0058188786621252275 0.9969047204406641 -0.030963183306390484 0.002652502857472643 0.012823448880202287
0.06877865777407 0.002849388974534167 0.014184600034801124 0.9966439712152241 -0.03412090286835347 0.0005350713253164818 0.006404476334771958 -0.0004682073534433079 -0.004128150414061499
 0.9966439712152241 -0.03412090286835347 0.00285094557157477 0.01418444073270667 -0.00046832007365301315 -0.004128148675806878 0.0005269027058125012 0.006405369061641608
 0.0005350713253164818 0.006404476334771958 -0.00046832007365301315 -0.004128148675806878 0.002849407571420981 0.01418551443982537 0.996643992443764 -0.03411998640946212
 -0.0004682073534433079 -0.004128150414061499 0.0005269027058125012 0.006405369061641608 0.996643992443764 -0.03411998640946212 0.0028509696902106365 0.014185362608618782
0.07503126302626001 0.0030573825526301994 0.01555970024975991 0.996370187768531 -0.0372893088395671 0.0006089193148178263 0.006991474506210947 -0.0005311293196691525 -0.004509536500998376
 0.996370187768531 -0.0372893088395671 0.003059234279371149 0.015559514628994872 -0.0005312630964991727 -0.0045095334102806875 0.0005991929826928254 0.006992548186926545
 0.0006089193148178263 0.006991474506210947 -0.0005312630964991727 -0.0045095334102806875 0.0030574045413748114 0.015560697352379516 0.996370212701394 -0.037288309413151505
 -0.0005311293196691525 -0.004509536500998376 0.0005991929826928254 0.006992548186926545 0.996370212701394 -0.037288309413151505 0.0030592625059319284 0.015560520735321048
0.08128386827845 0.003275360219801867 0.0169478851404199 0.996083174302311 -0.040469205423441484 0.0006878638243349396 0.0075790893393258615 -0.0005983460817223671 -0.00489168403658297
 0.996083174302311 -0.040469205423441484 0.0032775326087311433 0.016947670848146638 -0.0005985026655266183 -0.004891679319848453 0.0006764425491665421 0.007580366348755671
 0.0006878638243349396 0.0075790893393258615 -0.0005985026655266183 -0.004891679319848453 0.0032753859131643757 0.01694896489217021 0.9960832032310993 -0.040468123080958845
 -0.0005983460817223671 -0.00489168403658297 0.0006764425491665421 0.007580366348755671 0.9960832032310993 -0.040468123080958845 0.003277565236335958 0.016948761307157993
0.08753647353064001 0.0035035056417457764 0.01834900055787673 0.9957827524842755 -0.043660550543150156 0.000771955698643741 0.008167267929426401 -0.000669909381245647 -0.005274536960918642
 0.9957827524842755 -0.043660550543150156 0.003506024218336332 0.01834875515265778 -0.00067009051127198 -0.00527453032726201 0.0007587019259365696 0.008168772023012421
 0.000771955698643741 0.008167267929426401 -0.00067009051127198 -0.00527453032726201 0.0035035353590384018 0.018350162909129605 0.9957827856996763 -0.04365938534063261
 -0.000669909381245647 -0.005274536960918642 0.0007587019259365696 0.008168772023012421 0.9957827856996763 -0.04365938534063261 0.0035060615350611117 0.018349930092557608
0.09378907878283 0.0037420022101839145 0.01976289783836817 0.9954687437265433 -0.04686329147793027 0.000861245254168607 0.008755955646650463 -0.0007458703697777721 -0.0056580384002786225
 0.9954687437265433 -0.04686329147793027 0.0037448924949485944 0.019762618789802334 -0.0007460777741880309 -0.005658029541399669 0.0008460211125807635 0.008757711976591155
 0.000861245254168607 0.008755955646650463 -0.0007460777741880309 -0.005658029541399669 0.003742036277244183 0.019764142741336088 0.9954687815182175 -0.046862043472888915
 -0.0007458703697777721 -0.0056580384002786225 0.0008460211125807635 0.008757711976591155 0.9954687815182175 -0.046862043472888915 0.003744934783789597 0.01976387834780693
0.100041684035 0.003991033036330055 0.021189432155247878 0.9951409692696426 -0.050077366467594586 0.0009557822442203682 0.009345096222620258 -0.0008262795847112588 -0.006042130575983325
 0.9951409692696426 -0.050077366467594586 0.003994320547217932 0.021189116843410877 -0.0008265149805483446 -0.006042119166155917 0.0009384495543495434 0.009347131354003096
 0.0009557822442203682 0.009345096222620258 -0.0008265149805483446 -0.006042119166155917 0.00399107178556741 0.021190759564654604 0.9951410119259501 -0.050076035718125356
 -0.0008262795847112588 -0.006042130575983325 0.0009384495543495434 0.009347131354003096 0.9951410119259501 -0.050076035718125356 0.003994368086574021 0.02119046116666331
0.1059090909091 0.004234465700061109 0.022539449829157187 0.9948207086344695 -0.053103681245735564 0.0010493114618820966 0.009898302539295674 -0.0009058251745434734 -0.0064030452847644356
 0.9948207086344695 -0.053103681245735564 0.004238149173295807 0.022539098025146146 -0.0009060883890646463 -0.006403031169346429 0.0010298741844783083 0.009900624729624767
 0.0010493114618820966 0.009898302539295674 -0.0009060883890646463 -0.006403031169346429 0.00423450915116519 0.022540854621454328 0.9948207561170758 -0.053102272904392
 -0.0009058251745434734 -0.0064030452847644356 0.0010298741844783083 0.009900624729624767 0.9948207561170758 -0.053102272904392 0.004238201888786285 0.02254052203256435
0.1062942892872 0.004250780935994812 0.02262846128069185 0.9947992502588213 -0.05330270590841923 0.0010556158249771786 0.00993463182247212 -0.0009111869241024456 -0.006426754729147924
 0.9947992502588213 -0.05330270590841923 0.0042544911904173095 0.02262810699568322 -0.0009114520172533885 -0.006426740425189029 0.0010360361089519158 0.009936973749350387
 0.0010556158249771786 0.00993463182247212 -0.0009114520172533885 -0.006426740425189029 0.004250824706393937 0.022629871151411945 0.9947992980670886 -0.05330129247550228
 -0.0009111869241024456 -0.006426754729147924 0.0010360361089519158 0.009936973749350387 0.9947992980670886 -0.05330129247550228 0.004254544254155878 0.022629536238900055
0.11254689453939999 0.004521428407363468 0.024079844630594024 0.9944434078152634 -0.05653923326734424 0.0011607945223432664 0.010524503093262739 -0.0010006416196795974 -0.0068118510703721975
 0.9944434078152634 -0.05653923326734424 0.004525586924400947 0.02407944857188555 -0.0010009381048151353 -0.006811833511609035 0.0011388290145911914 0.010527181254674825
 0.0011607945223432664 0.010524503093262739 -0.0010009381048151353 -0.006811833511609035 0.004521477544333806 0.024081336919324483 0.9944434610618511 -0.05653773721293982
 -0.0010006416196795974 -0.0068118510703721975 0.0011388290145911914 0.010527181254674825 0.9944434610618511 -0.05653773721293982 0.00452564578203681 0.024080962899289408
0.11879949979160001 0.00480315760268251 0.025543442527471257 0.9940732631032422 -0.05978686577950099 0.0012713661986963247 0.011114649206087596 -0.0010946922094689773 -0.007197358737031294
 0.9940732631032422 -0.05978686577950099 0.004807789905194143 0.025543001803322807 -0.0010950217699381452 -0.0071973375452847495 0.0012468758574832079 0.011117694501969621
 0.0012713661986963247 0.011114649206087596 -0.0010950217699381452 -0.0071973375452847495 0.004803212458035263 0.02554501719127991 0.9940733220728444 -0.059785287167925846
 -0.0010946922094689773 -0.007197358737031294 0.0012468758574832079 0.011117694501969621 0.9940733220728444 -0.059785287167925846 0.004807854822282744 0.02554460138717983
0.1250521050438 0.005096150296427527 0.027019115603753488 0.993688637393721 -0.06304551500699306 0.001387378019824838 0.011705007888184675 -0.0011933865094710208 -0.007583215761975379
 0.993688637393721 -0.06304551500699306 0.005101281913293864 0.02701862723045478 -0.00119375081722971 -0.007583190541530538 0.0013602235396145577 0.011708452695216014
 0.001387378019824838 0.011705007888184675 -0.00119375081722971 -0.007583190541530538 0.005096211228515386 0.027020772600320857 0.9936887023703517 -0.06304385390458143
 -0.0011933865094710208 -0.007583215761975379 0.0013602235396145577 0.011708452695216014 0.9936887023703517 -0.06304385390458143 0.005101353151655605 0.027020312251529507
0.131304710296 0.0054005878495436525 0.028506724333174107 0.9932893521278114 -0.06631508727113894 0.00150887642209763 0.012295515450987423 -0.0012967715845523622 -0.007969359047711653
 0.9932893521278114 -0.06631508727113894 0.005406244317979345 0.028506185234290847 -0.0012971723000713311 -0.007969329385298438 0.001478918246555397 0.012299393638300612
 0.00150887642209763 0.012295515450987423 -0.0012971723000713311 -0.007969329385298438 0.005400655223070082 0.028508463620735915 0.9932894233937855 -0.06631334374599487
 -0.0012967715845523622 -0.007969359047711653 0.001478918246555397 0.012299393638300612 0.9932894233937855 -0.06631334374599487 0.005406322135678827 0.028507955881893175
0.1375573155481 0.005638656791850576 0.029812487543976664 0.9929532412719755 -0.06940179882623601 0.001618461094154074 0.012866297644970265 -0.001387481928822502 -0.008335898049316838
 0.9929532412719755 -0.06940179882623601 0.005644864622505145 0.02981190787222333 -0.0013879213116517889 -0.00833586398693112 0.001585625566365521 0.012870597769753071
 0.001618461094154074 0.012866297644970265 -0.0013879213116517889 -0.00833586398693112 0.0056387302253424025 0.029814309463379644 0.9929533191095055 -0.06939997295334738
 -0.001387481928822502 -0.008335898049316838 0.001585625566365521 0.012870597769753071 0.9929533191095055 -0.06939997295334738 0.0056449500276565786 0.029813763976462244
0.1438099208003 0.005884805978557102 0.03111268911680473 0.9926058443360305 -0.07248200158655424 0.0017324627193932602 0.013435469941230948 -0.0014818209711237036 -0.008700965004552624
 0.9926058443360305 -0.07248200158655424 0.005891590849312165 0.0311120667724077 -0.0014823007732834134 -0.008700926147218607 0.0016966218781219002 0.013440222441813891
 0.0017324627193932602 0.013435469941230948 -0.0014823007732834134 -0.008700926147218607 0.005884885711184289 0.031114593674770485 0.9926059290253046 -0.07248009343913796
 -0.0014818209711237036 -0.008700965004552624 0.0016966218781219002 0.013440222441813891 0.9926059290253046 -0.07248009343913796 0.005891684231547191 0.031114008497118584
0.1500625260525 0.0061389641275983575 0.03240725923806101 0.9922472351974695 -0.07555565832763567 0.001850850547163894 0.014002997909938489 -0.0015797589618559823 -0.009064526743553493
 0.9922472351974695 -0.07555565832763567 0.006146351727646439 0.03240659202078628 -0.0015802809316597653 -0.009064482680734932 0.0018118769624565067 0.014008234326691904
 0.001850850547163894 0.014002997909938489 -0.0015802809316597653 -0.009064482680734932 0.006139050395870261 0.03240924644426212 0.9922473270169938 -0.07555366798077202
 -0.0015797589618559823 -0.009064526743553493 0.0018118769624565067 0.014008234326691904 0.9922473270169938 -0.07555366798077202 0.006146453482167153 0.032408619536753364
0.15631513130469998 0.006401059628546164 0.033696130449080174 0.9918774879112076 -0.0786227312464033 0.001973593567402942 0.01456884757099764 -0.0016812658809022252 -0.009426550705385988
