! Created with skrf 1.8.0 (http://scikit-rf.org).
# GHz S RI R 50.0 
!freq ReS11 ImS11 ReS12 ImS12 ReS13 ImS13
! ReS14 ImS14
! ReS21 ImS21 ReS22 ImS22 ReS23 ImS23
! ReS24 ImS24
! ReS31 ImS31 ReS32 ImS32 ReS33 ImS33
! ReS34 ImS34
! ReS41 ImS41 ReS42 ImS42 ReS43 ImS43
! ReS44 ImS44
!
0.0 0.001560510821034 0.0 0.998439489159 0.0 6.040672445062e-05 0.0 -6.040672489387e-05 7.397690228825263e-21
 0.998439489159 0.0 0.001560510821037 0.0 -6.040672489415e-05 7.397690228859554e-21 6.040672444924e-05 0.0
 6.040672445062e-05 0.0 -6.040672489415e-05 7.397690228859554e-21 0.001560510830996 0.0 0.998439489169 0.0
 -6.040672489387e-05 7.397690228825263e-21 6.040672444924e-05 0.0 0.998439489169 0.0 0.001560510830985 0.0
0.005 0.0016790662276675728 0.0012731484791758286 0.998289475782478 -0.003268965940607049 8.523432663981436e-05 0.0006864333347173216 -8.260475526202592e-05 -0.0004272154467858541
 0.998289475782478 -0.003268965940607049 0.0016790839052557873 0.0012731381840433212 -8.26093628698345e-05 -0.0004272189784928787 8.511008882921768e-05 0.0006864806198173605
 8.523432663981436e-05 0.0006864333347173216 -8.26093628698345e-05 -0.0004272189784928787 0.0016790635483285444 0.0012730827991178847 0.9982894754279549 -0.0032690330090563787
 -8.260475526202592e-05 -0.0004272154467858541 8.511008882921768e-05 0.0006864806198173605 0.9982894754279549 -0.0032690330090563787 0.001679085880510325 0.001273069730733448
0.006252605252188 0.0017101735068854088 0.0015964576471280893 0.9982498600526013 -0.0040870058963248974 9.234887820364958e-05 0.0008583626583700291 -8.888135464839758e-05 -0.0005345754288412579
 0.9982498600526013 -0.0040870058963248974 0.0017102011398804715 0.0015964445506831233 -8.88885245338593e-05 -0.0005345797831376178 9.215476784964038e-05 0.0008584240635506688
 9.234887820364958e-05 0.0008583626583700291 -8.88885245338593e-05 -0.0005345797831376178 0.0017101693839919351 0.001596375568748155 0.9982498595641274 -0.004087089715266928
 -8.888135464839758e-05 -0.0005345754288412579 9.215476784964038e-05 0.0008584240635506688 0.9982498595641274 -0.004087089715266928 0.0017102042937051339 0.0015963589992753025
0.01250521050438 0.0018740095300698915 0.0032264608135391093 0.9980398022561927 -0.008174815572220436 0.00013326140038411394 0.0017170050308475259 -0.0001245437977363275 -0.0010717513666655873
 0.9980398022561927 -0.008174815572220436 0.0018741198660412537 0.003226432350675798 -0.00012457205463280006 -0.0010717594128909355 0.00013248732216239155 0.0017171526574072044
 0.00013326140038411394 0.0017170050308475259 -0.00012457205463280006 -0.0010717594128909355 0.0018739936260675023 0.003226296979072201 0.9980398008671421 -0.008174982970298924
 -0.0001245437977363275 -0.0010717513666655873 0.00013248732216239155 0.0017171526574072044 0.9980398008671421 -0.008174982970298924 0.001874133027443549 0.0032262614667313474
0.01875781575657 0.002052380880675242 0.0048797260806616475 0.9978090517724957 -0.012273377144245368 0.00018323864205561585 0.0025765205525577262 -0.00016750541848886328 -0.001610723060070285
 0.9978090517724957 -0.012273377144245368 0.0020526288063129213 0.004879679881002871 -0.00016756843385489205 -0.001610734006186011 0.00018149973428931366 0.0025767841109953847
 0.00018323864205561585 0.0025765205525577262 -0.00016756843385489205 -0.001610734006186011 0.0020523455604402833 0.004879480744854489 0.9978090490717937 -0.012273628039984505
 -0.00016750541848886328 -0.001610723060070285 0.00018149973428931366 0.0025767841109953847 0.9978090490717937 -0.012273628039984505 0.0020526588144769656 0.004879423696419798
0.02501042100875 0.0022456385856709214 0.0065539266551427194 0.9975573340904595 -0.01638467102229982 0.000242376771810858 0.0034369453767457802 -0.0002178737491162758 -0.002151236966134995
 0.9975573340904595 -0.01638467102229982 0.002246078875942538 0.006553860266505854 -0.00021798503151547772 -0.002151249876704269 0.00023928801543162385 0.003437359306088205
 0.000242376771810858 0.0034369453767457802 -0.00021798503151547772 -0.002151249876704269 0.0022455762268449794 0.0065536001207746886 0.9975573296671939 -0.01638500537381122
 -0.0002178737491162758 -0.002151236966134995 0.00023928801543162385 0.003437359306088205 0.9975573296671939 -0.01638500537381122 0.0022461325652473434 0.0065535187485075514
0.03126302626094 0.002454119131076418 0.008247861706414611 0.9972843608468627 -0.020509540549449628 0.0003107725529929577 0.004298233927502872 -0.0002757531700737012 -0.002693115119424049
 0.9972843608468627 -0.020509540549449628 0.0024548064805559582 0.008247772599428074 -0.000275926092784382 -0.0026931289139123273 0.0003059484165793381 0.004298837423176579
 0.0003107725529929577 0.004298233927502872 -0.000275926092784382 -0.0026931289139123273 0.0024540221185224156 0.00824745433316758 0.9972843542869576 -0.020509958345933943
 -0.0002757531700737012 -0.002693115119424049 0.0003059484165793381 0.004298837423176579 0.9972843542869576 -0.020509958345933943 0.002454890682212551 0.008247345659151431
0.037515631513130004 0.002678151650155992 0.009960745669883642 0.9969898372494198 -0.024648402638342757 0.0003885222982656025 0.005160308323842193 -0.00034124569534864125 -0.003236205704783583
 0.9969898372494198 -0.024648402638342757 0.0026791406955314085 0.009960631240723519 -0.00034149351046608846 -0.0032362191570457464 0.0003815765800725596 0.005161145385511919
 0.0003885222982656025 0.005160308323842193 -0.00034149351046608846 -0.0032362191570457464 0.0026780123783107074 0.00996025788945013 0.9969898281394455 -0.02464890388576359
 -0.00034124569534864125 -0.003236205704783583 0.0003815765800725596 0.005161145385511919 0.9969898281394455 -0.02464890388576359 0.002679262242841384 0.009960118747242088
0.043768236765320004 0.0029180607033323027 0.011691991971629576 0.9966734650961833 -0.028801463976390964 0.000475721377246247 0.006023073404245171 -0.0004144512556754413 -0.0037803680351584787
 0.9966734650961833 -0.028801463976390964 0.002919406041260057 0.011691849544037864 -0.0004147871023710787 -0.0037803797732632845 0.0004662671316570367 0.006024192889835173
 0.000475721377246247 0.006023073404245171 -0.0004147871023710787 -0.0037803797732632845 0.0029178715727687945 0.011691424293540354 0.9966734530196316 -0.028802048692625065
 -0.0004144512556754413 -0.0037803680351584787 0.0004662671316570367 0.006024192889835173 0.9966734530196316 -0.028802048692625065 0.002919571768327272 0.011691251328633748
0.050020842017509996 0.0031741675623216314 0.013441123650070273 0.9963349443016597 -0.03296881033221876 0.0005724639254426494 0.006886422939624646 -0.0004954677970235345 -0.00432546634461619
 0.9963349443016597 -0.03296881033221876 0.0031759237655727152 0.013440950476823536 -0.0004959047068382809 -0.0043254748507860295 0.0005601134339354271 0.006887878621870168
 0.0005724639254426494 0.006886422939624646 -0.0004959047068382809 -0.0043254748507860295 0.0031739209805455317 0.013440476658885122 0.9963349288397594 -0.03296947855087608
 -0.0004954677970235345 -0.00432546634461619 0.0005601134339354271 0.006887878621870168 0.9963349288397594 -0.03296947855087608 0.0031761405089409584 0.013440266328676
0.055454545454549996 0.003410134315433553 0.014975376656098566 0.9960225382613465 -0.03660196993758455 0.0006643586247214521 0.007637085928432217 -0.0005722916924457085 -0.00479982943121557
 0.9960225382613465 -0.03660196993758455 0.003412291885894313 0.014975174478480648 -0.0005728269314148342 -0.004799833782844735 0.000649175731317831 0.007638881306214349
 0.0006643586247214521 0.007637085928432217 -0.0005728269314148342 -0.004799833782844735 0.003409831646446323 0.014974661273358662 0.9960225195152851 -0.036602710761710434
 -0.0005722916924457085 -0.00479982943121557 0.000649175731317831 0.007638881306214349 0.9960225195152851 -0.036602710761710434 0.0034125585188280317 0.014974415447841907
0.056273447269699996 0.0034467908684045734 0.015207729488104548 0.9959739738032864 -0.03715045035315955 0.0006788426364751489 0.007750242677318722 -0.0005843913016495976 -0.0048713667542759605
 0.9959739738032864 -0.03715045035315955 0.003449012501302797 0.015207522751971873 -0.0005849422019706964 -0.004871370364889273 0.0006632074062754556 0.007752093301372309
 0.0006788426364751489 0.007750242677318722 -0.0005849422019706964 -0.004871370364889273 0.003446479250346954 0.015207003844669742 0.9959739545348042 -0.03715120212330277
 -0.0005843913016495976 -0.0048713667542759605 0.0006632074062754556 0.007752093301372309 0.9959739545348042 -0.03715120212330277 0.0034492871011854325 0.015206752417638839
0.06252605252188 0.003736246983262534 0.016991439889519972 0.9955902521628935 -0.04134633962144426 0.0007949485986941412 0.008614412023469789 -0.0006813157677481743 -0.005417935604110308
 0.9955902521628935 -0.04134633962144426 0.0037389886157245798 0.016991196703909757 -0.0006819934840862106 -0.005417932509744865 0.000775639378588472 0.008616721364910805
 0.0007949485986941412 0.008614412023469789 -0.0006819934840862106 -0.005417932509744865 0.0037358627496010956 0.016990636336466976 0.9955902286618141 -0.04134717500326713
 -0.0006813157677481743 -0.005417935604110308 0.000775639378588472 0.008616721364910805 0.9955902286618141 -0.04134717500326713 0.0037393279148484003 0.016990339891058928
0.06877865777407 0.004042850167054011 0.018791912507535098 0.9951834780005013 -0.04555639496255531 0.0009208711552354941 0.009478805046359133 -0.0007863331655607687 -0.005965038468414842
 0.9951834780005013 -0.04555639496255531 0.004046166389383683 0.01879162991656947 -0.0007871504231660513 -0.0059650267138977 0.0008974979645111343 0.009481641969201014
 0.0009208711552354941 0.009478805046359133 -0.0007871504231660513 -0.0059650267138977 0.004042385747367074 0.01879103186862733 0.9951834498384334 -0.045557314029009796
 -0.0007863331655607687 -0.005965038468414842 0.0008974979645111343 0.009481641969201014 0.9951834498384334 -0.045557314029009796 0.004046577235588902 0.01879068629159578
0.07503126302626001 0.004366912661530792 0.020608823124268025 0.9947533503372803 -0.04978050350724908 0.0010566977787001255 0.010343291118946317 -0.0008995333790188459 -0.006512539536931166
 0.9947533503372803 -0.04978050350724908 0.00437085809798301 0.020608498102504952 -0.0009005028037349288 -0.006512517021427608 0.0010288699454946539 0.010346729633366233
 0.0010566977787001255 0.010343291118946317 -0.0009005028037349288 -0.006512517021427608 0.004366360492474356 0.020607866306982376 0.9947533170805846 -0.049781506342519107
 -0.0008995333790188459 -0.006512539536931166 0.0010288699454946539 0.010346729633366233 0.9947533170805846 -0.049781506342519107 0.004371347343233205 0.020607467291203097
0.08128386827845 0.004708744705712262 0.02244185959177391 0.9942995688741748 -0.05401852869710952 0.0012025139543220809 0.011207735351227528 -0.0010210041379754714 -0.0070603012112231646
 0.9942995688741748 -0.05401852869710952 0.00471337402905731 0.022441489043429602 -0.0010221382569273125 -0.007060265688326445 0.0011698401613921205 0.011211854670853812
 0.0012025139543220809 0.011207735351227528 -0.0010221382569273125 -0.007060265688326445 0.004708097232986389 0.02244082758704887 0.9942995300847745 -0.05401961539792302
 -0.0010210041379754714 -0.0070603012112231646 0.0011698401613921205 0.011211854670853812 0.9942995300847745 -0.05401961539792302 0.004713948529987712 0.02244037062902201
0.08753647353064001 0.005068654513875043 0.024290717640014926 0.9938218342372283 -0.058270314428962994 0.0013584030687497817 0.012071998895344393 -0.0011508309442585123 -0.007608183833571936
 0.9938218342372283 -0.058270314428962994 0.0050740224590652035 0.02429029839779147 -0.0011521421859613118 -0.007608132911429279 0.0013204914052321276 0.0120768834939692
 0.0013584030687497817 0.012071998895344393 -0.0011521421859613118 -0.007608132911429279 0.005067904192182329 0.024289611524151513 0.9938217894718194 -0.05827148510368784
 -0.0011508309442585123 -0.007608183833571936 0.0013204914052321276 0.0120768834939692 0.9938217894718194 -0.05827148510368784 0.00507468907750988 0.024289091920904
0.09378907878283 0.005446948221889058 0.026155097884418218 0.9933198481947781 -0.0625356880053821 0.0015244463029996994 0.012935939172855867 -0.0012890969924017654 -0.00815604549911707
 0.9933198481947781 -0.0625356880053821 0.0054531096004533375 0.026154626707741182 -0.001290597686809482 -0.008155976640559743 0.0014809043212763904 0.012941678840448322
 0.0015244463029996994 0.012935939172855867 -0.001290597686809482 -0.008155976640559743 0.00544608751586139 0.026153918821492244 0.9933197970042916 -0.06253694277261751
 -0.0012890969924017654 -0.00815604549911707 0.0014809043212763904 0.012941678840448322 0.9933197970042916 -0.06253694277261751 0.005453875203292445 0.026153331667068343
0.100041684035 0.005843929813948692 0.02803470363646025 0.9927933138585482 -0.06681446228839427 0.0017007225275679815 0.013799410045462897 -0.0014358830875220833 -0.008703741930146
 0.9927933138585482 -0.06681446228839427 0.005850939528015997 0.02803417720938368 -0.0014375854657572556 -0.00870365245285522 0.0016511573045220039 0.013806099943380615
 0.0017007225275679815 0.013799410045462897 -0.0014375854657572556 -0.00870365245285522 0.005842951199108694 0.028033452876211555 0.9927932557879374 -0.06681580128006415
 -0.0014358830875220833 -0.008703741930146 0.0016511573045220039 0.013806099943380615 0.9927932557879374 -0.06681580128006415 0.005851810987885393 0.028032793057576957
0.1059090909091 0.00623372017916196 0.029812098343422713 0.9922766277060354 -0.07084164797236826 0.0018755139992849622 0.014609125779066597 -0.0015814449676049248 -0.009217415978729156
 0.9922766277060354 -0.07084164797236826 0.006241575992306773 0.029811516984350354 -0.0015833476404204677 -0.00921730458425952 0.001819938877272929 0.014616798748096873
 0.0018755139992849622 0.014609125779066597 -0.0015833476404204677 -0.00921730458425952 0.006232624086084167 0.02981078151970463 0.9922765627591983 -0.07084306612849958
 -0.0015814449676049248 -0.009217415978729156 0.001819938877272929 0.014616798748096873 0.9922765627591983 -0.07084306612849958 0.006242553043169894 0.029810048674732748
0.1062942892872 0.006259901033430561 0.029929239251867763 0.9922419358719352 -0.07110643732193919 0.0018873081997248045 0.014662261955933628 -0.0015912675602866293 -0.009251126385848683
 0.9922419358719352 -0.07110643732193919 0.006267814090116125 0.02992865418033129 -0.0015931837542598165 -0.00925101346253259 0.0018313264015948597 0.014670002671255868
 0.0018873081997248045 0.014662261955933628 -0.0015931837542598165 -0.00925101346253259 0.006258796996661866 0.029927918133220516 0.9922418704594014 -0.07110786068071985
 -0.0015912675602866293 -0.009251126385848683 0.0018313264015948597 0.014670002671255868 0.9922418704594014 -0.07110786068071985 0.006268798285108607 0.029927180325736186
0.11254689453939999 0.006695161282696008 0.03183840888352966 0.991665420591176 -0.07541140155616904 0.002084277261931812 0.015524342040233868 -0.0017553261798336473 -0.009798049606747222
 0.991665420591176 -0.07541140155616904 0.006704032808649915 0.031837761692157976 -0.0017574682217237024 -0.009797910265342692 0.002021485212954683 0.015533239639192871
 0.002084277261931812 0.015524342040233868 -0.0017574682217237024 -0.009797910265342692 0.006693924323469721 0.03183701883564146 0.991665347367956 -0.07541290943543273
 -0.0017553261798336473 -0.009798049606747222 0.002021485212954683 0.015533239639192871 0.991665347367956 -0.07541290943543273 0.006705136622633688 0.031836197498012815
0.11879949979160001 0.007150007513017008 0.03376191549924489 0.9910634762583796 -0.07972913281385588 0.0022917010413846216 0.01638549422745817 -0.001928132065438834 -0.010344359777267447
 0.9910634762583796 -0.07972913281385588 0.007159892768876023 0.033761202627613736 -0.0019305118870782205 -0.010344190901159758 0.0022217047950785873 0.016395660307743684
 0.0022917010413846216 0.01638549422745817 -0.0019305118870782205 -0.010344190901159758 0.007148630144308223 0.03376045804278393 0.9910633947481722 -0.0797307253771288
 -0.001928132065438834 -0.010344359777267447 0.0022217047950785873 0.016395660307743684 0.9910633947481722 -0.0797307253771288 0.007161123091616575 0.03375954741146645
0.1250521050438 0.007624734107728944 0.035699460120993 0.9904358131720168 -0.08405939904205109 0.002509648150354529 0.017245559325305984 -0.002109755596697581 -0.01088990250880224
 0.9904358131720168 -0.08405939904205109 0.0076356885026612215 0.03569867791934011 -0.002112385028720712 -0.010889700837095838 0.0024320535639963162 0.017257111067377883
 0.002509648150354529 0.017245559325305984 -0.002112385028720712 -0.010889700837095838 0.0076232088566701665 0.03569793686487719 0.9904357228903019 -0.08406107646737755
 -0.002109755596697581 -0.01088990250880224 0.0024320535639963162 0.017257111067377883 0.9904357228903019 -0.08406107646737755 0.0076370522297745 0.03569693094783269
0.131304710296 0.008119632758808374 0.03765074120757842 0.9897821438526593 -0.08840195892782711 0.002738184387050984 0.018104375101026093 -0.002300264323002831 -0.011434520833510028
 0.9897821438526593 -0.08840195892782711 0.00813171186549125 0.037649885931919015 -0.0023031550941243193 -0.011434282961302587 0.002652597198802958 0.018117435318221343
 0.002738184387050984 0.018104375101026093 -0.0023031550941243193 -0.011434282961302587 0.0081179521679356 0.03764915385668414 0.9897820443065363 -0.08840372140072805
 -0.002300264323002831 -0.011434520833510028 0.002652597198802958 0.018117435318221343 0.9897820443065363 -0.08840372140072805 0.008133215898593248 0.03764804642674981
0.1375573155481 0.008522303370190044 0.03936031888233166 0.989214915708537 -0.09250131533377823 0.0029492138953985374 0.01893619942926443 -0.0024716652737329665 -0.011952423188382647
 0.989214915708537 -0.09250131533377823 0.008535567882962938 0.03935940822444085 -0.0024748347511449015 -0.011952148799666723 0.002855437765612983 0.018950750619225198
 0.0029492138953985374 0.01893619942926443 -0.0024748347511449015 -0.011952148799666723 0.00852046044865501 0.039358669174422524 0.9892148064729285 -0.09250316294228488
 -0.0024716652737329665 -0.011952423188382647 0.002855437765612983 0.018950750619225198 0.9892148064729285 -0.09250316294228488 0.00853721853695716 0.03935747520289711
0.1438099208003 0.008939157942367335 0.04106069627118689 0.9886276864921334 -0.09659009873285972 0.00316878357236466 0.019764543419258915 -0.0026499245488100895 -0.012467176233395695
 0.9886276864921334 -0.09659009873285972 0.008953664438377433 0.041059727788468316 -0.002653385329973806 -0.01246686197650793 0.00306645982166411 0.019780698024854323
 0.00316878357236466 0.019764543419258915 -0.002653385329973806 -0.01246686197650793 0.008937145336215221 0.041058985974223555 0.9886275670762846 -0.09659203165508709
 -0.0026499245488100895 -0.012467176233395695 0.00306645982166411 0.019780698024854323 0.9886275670762846 -0.09659203165508709 0.008955468518785857 0.041057700435532
0.1500625260525 0.009370046905224036 0.04275172577424117 0.9880206099026791 -0.10066820215473861 0.0033968171172311604 0.02058931845123759 -0.0028349687766671123 -0.012978697536106277
 0.9880206099026791 -0.10066820215473861 0.009385852146378113 0.042750696839249126 -0.002838733429024991 -0.01297833992497462 0.0032855892402264843 0.02060719301953914
 0.0033968171172311604 0.02058931845123759 -0.002838733429024991 -0.01297833992497462 0.00936785727963195 0.042749956728389875 0.9880204798087302 -0.10067022057520202
 -0.0028349687766671123 -0.012978697536106277 0.0032855892402264843 0.02060719301953914 0.9880204798087302 -0.10067022057520202 0.009387816458141728 0.0427485743050814
0.15631513130469998 0.00981481959179285 0.04443326423514122 0.9873938404575487 -0.1047355191199622 0.0036332373104840327 0.02141043742588053 -0.0030267236659904466 -0.013486906432220398
 0.9873938404575487 -0.1047355191199622 0.009831980530021149 0.04443217202797643 -0.00303080472658093 -0.013486501847021057 0.0035127510093826493 0.021430152564682194
