! Created with skrf 1.8.0 (http://scikit-rf.org).
# GHz S RI R 50.0 
!freq ReS11 ImS11 ReS12 ImS12 ReS13 ImS13
! ReS14 ImS14
! ReS21 ImS21 ReS22 ImS22 ReS23 ImS23
! ReS24 ImS24
! ReS31 ImS31 ReS32 ImS32 ReS33 ImS33
! ReS34 ImS34
! ReS41 ImS41 ReS42 ImS42 ReS43 ImS43
! ReS44 ImS44
!
0.0 0.00137871773471 0.0 0.998621282234 0.0 5.291758828017e-05 0.0 -5.291758819116e-05 6.4805354996901866e-21
 0.998621282234 0.0 0.00137871773473 0.0 -5.291758819139e-05 6.480535499718354e-21 5.291758827998e-05 0.0
 5.291758828017e-05 0.0 -5.291758819139e-05 6.480535499718354e-21 0.001378717741821 0.0 0.9986212822411 0.0
 -5.291758819116e-05 6.4805354996901866e-21 5.291758827998e-05 0.0 0.9986212822411 0.0 0.001378717741834 0.0
0.005 0.0014829584837668956 0.0011280031266775385 0.9984894767108934 -0.0028885475358175227 7.391782315855734e-05 0.000584679509539123 -7.182846678973439e-05 -0.00036678624090340423
 0.9984894767108934 -0.0028885475358175227 0.0014829628347649553 0.001128000619431806 -7.18291508044762e-05 -0.00036678681357319587 7.389079097711875e-05 0.0005846898395138886
 7.391782315855734e-05 0.000584679509539123 -7.18291508044762e-05 -0.00036678681357319587 0.0014829575480439171 0.0011279364585082103 0.9984894763661049 -0.0028886145911644653
 -7.182846678973439e-05 -0.00036678624090340423 7.389079097711875e-05 0.0005846898395138886 0.9984894763661049 -0.0028886145911644653 0.0014829630828246713 0.001127933177570165
0.006252605252188 0.0015101704961692044 0.001414460103167051 0.9984548727037039 -0.0036114109061399164 7.984311095292139e-05 0.0007311401838855374 -7.710810351745154e-05 -0.000458964809884568
 0.9984548727037039 -0.0036114109061399164 0.0015101772970795193 0.0014144569024357081 -7.710916753326985e-05 -0.00045896551711431934 7.980087581602249e-05 0.0007311535834751573
 7.984311095292139e-05 0.0007311401838855374 -7.710916753326985e-05 -0.00045896551711431934 0.0015101691030238419 0.0014143767751573942 0.9984548722347316 -0.0036114947236259853
 -7.710810351745154e-05 -0.000458964809884568 7.980087581602249e-05 0.0007311535834751573 0.9984548722347316 -0.0036114947236259853 0.0015101777552337348 0.001414372597226141
0.01250521050438 0.0016526800874972444 0.002858747332862582 0.9982725528384436 -0.007223750367544086 0.00011343059489062416 0.001462683077393483 -0.00010674415049818757 -0.0009202372978541375
 0.9982725528384436 -0.007223750367544086 0.0016527072372053977 0.0028587402618518915 -0.00010674833931721289 -0.000920238619226465 0.00011326217804007457 0.0014627151006709332
 0.00011343059489062416 0.001462683077393483 -0.00010674833931721289 -0.000920238619226465 0.001652675104115398 0.002858580981477879 0.9982725515511216 -0.007223917761689581
 -0.00010674415049818757 -0.0009202372978541375 0.00011326217804007457 0.0014627151006709332 0.9982725515511216 -0.007223917761689581 0.0016527096591461995 0.0028585718440435333
0.01875781575657 0.0018065316363704465 0.004323809630647289 0.998074114633058 -0.010845837626079788 0.00015375387575916364 0.0021951373355579094 -0.00014191144136259644 -0.0013831679776391292
 0.998074114633058 -0.010845837626079788 0.0018065926312512534 0.004323797982665563 -0.0001419207766810223 -0.0013831698053344474 0.0001533755616129255 0.002195194154323157
 0.00015375387575916364 0.0021951373355579094 -0.0001419207766810223 -0.0013831698053344474 0.0018065208490571029 0.004323560450264018 0.9980741121621488 -0.010846088491231465
 -0.00014191144136259644 -0.0013831679776391292 0.0001533755616129255 0.002195194154323157 0.9980741121621488 -0.010846088491231465 0.0018065985094863806 0.004323545500887301
0.02501042100875 0.0019720032232214595 0.005807623903290691 0.997859342597889 -0.014479455286196015 0.00020088788100528773 0.002928551548814771 -0.00018269335258171105 -0.0018475632697126196
 0.997859342597889 -0.014479455286196015 0.001972111525127907 0.005807606938497481 -0.00018270983019752 -0.0018475654790038336 0.00020021592760257692 0.002928640242924704
 0.00020088788100528773 0.002928551548814771 -0.00018270983019752 -0.0018475654790038336 0.0019719844236059715 0.0058072920589468365 0.9978593385857828 -0.014479789570522638
 -0.00018269335258171105 -0.0018475632697126196 0.00020021592760257692 0.002928640242924704 0.9978593385857828 -0.014479789570522638 0.001972122364994011 0.005807270379448628
0.03126302626094 0.0021493613140574756 0.007309162651370079 0.9976280093456241 -0.018125382655001868 0.00025490817907049815 0.0036629072341953428 -0.0002291711891132094 -0.0023132924919712196
 0.9976280093456241 -0.018125382655001868 0.002149530357276584 0.007309139597579837 -0.00022919678340418544 -0.002313294940968352 0.0002538587371180394 0.0036630357958034924
 0.00025490817907049815 0.0036629072341953428 -0.00022919678340418544 -0.002313294940968352 0.002149332288411429 0.007308748324977805 0.9976280034323758 -0.018125800314495163
 -0.0002291711891132094 -0.0023132924919712196 0.0002538587371180394 0.0036630357958034924 0.9976280034323758 -0.018125800314495163 0.0021495476673991424 0.0073087189321135995
0.037515631513130004 0.0023388667743908637 0.008827766254913195 0.9973798817513266 -0.02178402340106961 0.0003158902572504083 0.0043981596695677975 -0.00028142478477021014 -0.0027802470171316195
 0.9973798817513266 -0.02178402340106961 0.002339109970480878 0.008827736308015841 -0.00028146145106479564 -0.0027802495467272046 0.0003143793326010855 0.004398337011884154
 0.0003158902572504083 0.0043981596695677975 -0.00028146145106479564 -0.0027802495467272046 0.0023388253083527185 0.008827269643234091 0.9973798735791763 -0.021784524401927154
 -0.00028142478477021014 -0.0027802470171316195 0.0003143793326010855 0.004398337011884154 0.9973798735791763 -0.021784524401927154 0.0023391352676167734 0.008827231488701176
0.043768236765320004 0.0025407772028070673 0.010362951940384516 0.9971147234335276 -0.025455596524624025 0.0003839091898174325 0.005134250302339685 -0.0003395327231465581 -0.003248327855386133
 0.9971147234335276 -0.025455596524624025 0.002541107943792283 0.010362914264740522 -0.0003395823991300366 -0.0032483302892562333 0.0003818526244650266 0.005134486269793138
 0.0003839091898174325 0.005134250302339685 -0.0003395823991300366 -0.0032483302892562333 0.002540721077783093 0.010362373250271095 0.9971147126428517 -0.025456180848314303
 -0.0003395327231465581 -0.003248327855386133 0.0003818526244650266 0.005134486269793138 0.9971147126428517 -0.025456180848314303 0.002541142749487463 0.010362325220642787
0.050020842017509996 0.0027553480177655854 0.011914334814942062 0.9968322959902964 -0.029140215258242404 0.000459039443342719 0.0058711118792177915 -0.0004035724240122094 -0.0037174405168800134
 0.9968322959902964 -0.029140215258242404 0.002755779679269615 0.011914288543660029 -0.00040363703069127606 -0.0037174426615010758 0.000456352906288771 0.005871417258177789
 0.000459039443342719 0.0058711118792177915 -0.00040363703069127606 -0.0037174426615010758 0.0027552750134203978 0.011913674279195043 0.9968322822223832 -0.029140882886166182
 -0.0004035724240122094 -0.0037174405168800134 0.000456352906288771 0.005871417258177789 0.9968322822223832 -0.029140882886166182 0.0027558255221031085 0.011913615195664286
0.055454545454549996 0.0029522954943059935 0.013275433595026514 0.9965726472028368 -0.03235289230042085 0.0005301624496494132 0.006512036102111047 -0.00046410145564004763 -0.004125879737809056
 0.9965726472028368 -0.03235289230042085 0.0029528257107448654 0.013275379125684628 -0.0004641805851872529 -0.004125881460562435 0.0005268598241719444 0.0065124113014753265
 0.0005301624496494132 0.006512036102111047 -0.0004641805851872529 -0.004125881460562435 0.0029522060156641564 0.013274702138246884 0.9965726305552205 -0.03235363231114708
 -0.00046410145564004763 -0.004125879737809056 0.0005268598241719444 0.0065124113014753265 0.9965726305552205 -0.03235363231114708 0.002952882390789551 0.01327463244019536
0.056273447269699996 0.0029828330261992006 0.013481589133812194 0.996532359720783 -0.0328379257347141 0.0005413547407389679 0.006608670952213051 -0.00047362017146390884 -0.004187492499484631
 0.996532359720783 -0.0328379257347141 0.0029833789700709785 0.013481533368895517 -0.0004737016138224866 -0.004187494144162761 0.0005379537247156344 0.006609057482015451
 0.0005413547407389679 0.006608670952213051 -0.0004737016138224866 -0.004187494144162761 0.002982740919240396 0.013480847004873753 0.9965323426158832 -0.032838676654747566
 -0.00047362017146390884 -0.004187492499484631 0.0005379537247156344 0.006609057482015451 0.9965323426158832 -0.032838676654747566 0.0029834373843263323 0.013480775622947687
0.06252605252188 0.0032234847354643283 0.015064426987938586 0.9962146740920087 -0.03654872823571284 0.0006309279559507618 0.007346849263756373 -0.0005497511108271214 -0.004658391899480653
 0.9962146740920087 -0.03654872823571284 0.003224158312451055 0.015064360800463293 -0.0005498512783381566 -0.0046583928163765245 0.0006267277781203099 0.0073473296478241005
 0.0006309279559507618 0.007346849263756373 -0.0005498512783381566 -0.0046583928163765245 0.0032233713003702686 0.01506360353831638 0.9962146532897124 -0.036549562442234326
 -0.0005497511108271214 -0.004658391899480653 0.0006267277781203099 0.0073473296478241005 0.9962146532897124 -0.036549562442234326 0.0032242308383974975 0.015063518547514393
0.06877865777407 0.0034775545258184464 0.01666258559618894 0.995878998069744 -0.04027258983773793 0.0007278310258116124 0.008085564563040134 -0.0006320392276672786 -0.005130046593245685
 0.995878998069744 -0.04027258983773793 0.0034783690778563657 0.01666250802632207 -0.0006321599946575459 -0.005130046537413478 0.0007227468310405941 0.008086152480047215
 0.0007278310258116124 0.008085564563040134 -0.0006321599946575459 -0.005130046537413478 0.0034774175353639923 0.016661681121026103 0.9958789732092511 -0.0402735073294646
 -0.0006320392276672786 -0.005130046593245685 0.0007227468310405941 0.008086152480047215 0.9958789732092511 -0.0402735073294646 0.003478457261948659 0.01666158114431149
0.07503126302626001 0.003745292742792681 0.01827581925738316 0.995525090371128 -0.04400945240051594 0.0008321348703014736 0.008824731132204704 -0.0007205573172310365 -0.00560236371155272
 0.995525090371128 -0.04400945240051594 0.0037462616052126537 0.0182757293144688 -0.0007207005431472292 -0.00560236242096985 0.0008260816365381189 0.00882544124725643
 0.0008321348703014736 0.008824731132204704 -0.0007207005431472292 -0.00560236242096985 0.0037451299674278976 0.018274834074376013 0.9955250610903478 -0.04401045318090649
 -0.0007205573172310365 -0.00560236371155272 0.0008260816365381189 0.00882544124725643 0.9955250610903478 -0.04401045318090649 0.0037463669991617257 0.018274717667790933
0.08128386827845 0.004026948735424282 0.01990389398383134 0.9951527096674416 -0.047759237876489564 0.0009439093203969942 0.009564260128743864 -0.0008153769451631414 -0.006075249300270792
 0.9951527096674416 -0.047759237876489564 0.004028085239526913 0.019903790646248573 -0.0008155444748058287 -0.0060752464958693 0.000936801865672347 0.009565108104493519
 0.0009439093203969942 0.009564260128743864 -0.0008155444748058287 -0.0060752464958693 0.004026757944779998 0.01990282843645904 0.9951526756034468 -0.04776032195087044
 -0.0008153769451631414 -0.006075249300270792 0.000936801865672347 0.009565108104493519 0.9951526756034468 -0.04776032195087044 0.0040282094012593205 0.019902694088519114
0.08753647353064001 0.004322770864347144 0.02154658379974171 0.9947616147576358 -0.051521851958181895 0.0010632230480540148 0.010304059830468948 -0.0009165684050456662 -0.0065486080812352165
 0.9947616147576358 -0.051521851958181895 0.004324088339631489 0.021546466014856522 -0.000916762068731563 -0.006548603466944143 0.0010549760387050728 0.010305062338144603
 0.0010632230480540148 0.010304059830468948 -0.000916762068731563 -0.006548603466944143 0.004322549826423617 0.021545438252906123 0.994761575546073 -0.05152301933855816
 -0.0009165684050456662 -0.0065486080812352165 0.0010549760387050728 0.010305062338144603 0.994761575546073 -0.05152301933855816 0.004324232832043713 0.02154528438396697
0.09378907878283 0.004633006482733067 0.0232036680827476 0.9943515647190871 -0.05529718668550157 0.0011901435001417915 0.01104403580745535 -0.001024200670853061 -0.007022343288960128
 0.9943515647190871 -0.05529718668550157 0.00463451825918968 0.02320353476666025 -0.001024422284563468 -0.007022336551732189 0.0011806714600310787 0.011045210537848914
 0.0011901435001417915 0.01104403580745535 -0.001024422284563468 -0.007022336551732189 0.004632752965102849 0.023202442926712502 0.9943515199941725 -0.0552984373868418
 -0.001024200670853061 -0.007022343288960128 0.0011806714600310787 0.011045210537848914 0.9943515199941725 -0.0552984373868418 0.004634684650702955 0.023202267888299623
0.100041684035 0.0049579019027613845 0.024874929627464726 0.9939223190450067 -0.059085122334063114 0.001324736833027565 0.011784091054108421 -0.001138341347702821 -0.007496356550196234
 0.9939223190450067 -0.059085122334063114 0.004959621312954753 0.024874779664832453 -0.0011385927131223287 -0.007496347360050186 0.0013139541536868363 0.011785456728395195
 0.001324736833027565 0.011784091054108421 -0.0011385927131223287 -0.007496347360050186 0.0049576136723848635 0.024873625278836818 0.993922268439701 -0.059086456373816154
 -0.001138341347702821 -0.007496356550196234 0.0013139541536868363 0.011785456728395195 0.993922268439701 -0.059086456373816154 0.004959811177321113 0.02487342735290028
0.1059090909091 0.005276333182027312 0.026455933618932823 0.99350184552447 -0.0626510428527649 0.001458074543861811 0.012478537921175231 -0.001251428570368615 -0.007941331491875168
 0.99350184552447 -0.0626510428527649 0.005278259564884647 0.02645576699253782 -0.0012517094806331857 -0.007941319684752911 0.0014459840003822068 0.012480100730042503
 0.001458074543861811 0.012478537921175231 -0.0012517094806331857 -0.007941319684752911 0.005276010346695636 0.026454555357140617 0.993501789065569 -0.06265245511669959
 -0.001251428570368615 -0.007941331491875168 0.0014459840003822068 0.012480100730042503 0.993501789065569 -0.06265245511669959 0.005278472891713605 0.02645433432849667
0.1062942892872 0.005297702348727549 0.026560153174281276 0.9934736377725434 -0.06288552884177957 0.0014670678486816764 0.012524126089075622 -0.001259056619949433 -0.007970547798647655
 0.9934736377725434 -0.06288552884177957 0.005299642730453311 0.026559985417928696 -0.00125933952462461 -0.007970535808700293 0.0014548888002554891 0.012525702469544911
 0.0014670678486816764 0.012524126089075622 -0.00125933952462461 -0.007970535808700293 0.005297377172784605 0.026558770074084727 0.9934735809180709 -0.06288694624201684
 -0.001259056619949433 -0.007970547798647655 0.0014548888002554891 0.012525702469544911 0.9934735809180709 -0.06288694624201684 0.005299857646365225 0.026558547472223307
0.11254689453939999 0.005652651901151005 0.02825912429728357 0.99300528160324 -0.06669826687969116 0.0016171999311598182 0.013264039034380073 -0.0013864111981362237 -0.008444815213633652
 0.99300528160324 -0.06669826687969116 0.005654826599485062 0.028258937567803424 -0.0013867274154702326 -0.008444800060133418 0.0016035386740122814 0.013265846935004696
 0.0016171999311598182 0.013264039034380073 -0.0013867274154702326 -0.008444800060133418 0.005652287546985061 0.028257662913143605 0.9930052181287338 -0.0666997676652622
 -0.0013864111981362237 -0.008444815213633652 0.0016035386740122814 0.013265846935004696 0.9930052181287338 -0.0666997676652622 0.005655068150465735 0.028257413775670873
0.11879949979160001 0.006022993432814554 0.029971628526273168 0.9925170120183583 -0.0705231886922173 0.0017751949840400063 0.014003725683086228 -0.001520468263981922 -0.008919055173321247
 0.9925170120183583 -0.0705231886922173 0.006025415802573215 0.029971421611560897 -0.0015208195533063503 -0.00891903647569093 0.0017599655809207792 0.01400578697999031
 0.0017751949840400063 0.014003725683086228 -0.0015208195533063503 -0.00891903647569093 0.006022587668851911 0.029970089350563573 0.9925169415514525 -0.07052477289300488
 -0.001520468263981922 -0.008919055173321247 0.0017599655809207792 0.01400578697999031 0.9925169415514525 -0.07052477289300488 0.006025685577034059 0.02996981174560244
0.1250521050438 0.006408968539802266 0.03169745065742416 0.9920085913916913 -0.07436013875265214 0.0019411133676791386 0.014743079552402278 -0.0016612894147263197 -0.009393162225912481
 0.9920085913916913 -0.07436013875265214 0.0064116519478528405 0.03169722231214841 -0.001661677521302944 -0.009393139586784774 0.001924229796602899 0.014745417194096408
 0.0019411133676791386 0.014743079552402278 -0.001661677521302944 -0.009393139586784774 0.006408519135651883 0.031695834209710116 0.9920085135576013 -0.07436180640135621
 -0.0016612894147263197 -0.009393162225912481 0.001924229796602899 0.014745417194096408 0.9920085135576013 -0.07436180640135621 0.006411951538789756 0.03169552613212798
0.131304710296 0.006810817466859502 0.033436374197522024 0.9914797830984267 -0.07820895428880419 0.002115013836933733 0.015481991935269597 -0.0018089346063980417 -0.009867029065589807
 0.9914797830984267 -0.07820895428880419 0.0068137752942668255 0.03343612314244472 -0.0018093612614126233 -0.009867002070853302 0.0020963900044005733 0.015484629952758988
 0.002115013836933733 0.015481991935269597 -0.0018093612614126233 -0.009867002070853302 0.006810322193733649 0.03343468102539114 0.9914796975201395 -0.07821070542044958
 -0.0018089346063980417 -0.009867029065589807 0.0020963900044005733 0.015484629952758988 0.9914796975201395 -0.07821070542044958 0.006814106299074574 0.03343434039578473
0.1375573155481 0.007132636869662717 0.034961097249257854 0.9910265240450277 -0.08184230111654736 0.0022739276161953185 0.01619719246797587 -0.0019404596034655677 -0.010317384136226498
 0.9910265240450277 -0.08184230111654736 0.007135884093307578 0.034960828753753496 -0.0019409274965621842 -0.010317352795551292 0.0022535190270382933 0.016200125531296468
 0.0022739276161953185 0.01619719246797587 -0.0019409274965621842 -0.010317352795551292 0.007132094226991169 0.03495932758772766 0.9910264303731144 -0.0818441357226288
 -0.0019404596034655677 -0.010317384136226498 0.0022535190270382933 0.016200125531296468 0.9910264303731144 -0.0818441357226288 0.007136247329983055 0.034958959409871544
0.1438099208003 0.007465644004552989 0.03647845526095168 0.9905575764026299 -0.08546711621895565 0.0024392681262421275 0.016909913443985854 -0.002077260078389265 -0.010765465971316009
 0.9905575764026299 -0.08546711621895565 0.007469194283520964 0.03647816849522373 -0.002077771093191414 -0.010765429878254986 0.002416996114640639 0.016913163397126046
 0.0024392681262421275 0.016909913443985854 -0.002077771093191414 -0.010765429878254986 0.007465051897332202 0.03647660963850164 0.9905574742629483 -0.08546903432807154
 -0.002077260078389265 -0.010765465971316009 0.002416996114640639 0.016913163397126046 0.9905574742629483 -0.08546903432807154 0.007469591213897161 0.03647621231804876
0.1500625260525 0.007809730571650382 0.03798834129120885 0.9900730519194871 -0.08908332989921283 0.0026109840792958834 0.017620095831898636 -0.002219286196602979 -0.011211218082425423
 0.9900730519194871 -0.08908332989921283 0.00781359759167218 0.037988035376595584 -0.0022198422148007233 -0.011211176814085125 0.0025867703951764297 0.017623685312722417
 0.0026109840792958834 0.017620095831898636 -0.0022198422148007233 -0.011211176814085125 0.007809086914903776 0.03798642025517601 0.990072940936293 -0.08908533154212919
 -0.002219286196602979 -0.011211218082425423 0.0025867703951764297 0.017623685312722417 0.990072940936293 -0.08908533154212919 0.007814029672452302 0.03798599212019303
0.15631513130469998 0.008164787608756136 0.039490651725989624 0.9895730627937863 -0.09269087230778428 0.0027890236475786342 0.018327681501399407 -0.0023664875689688005 -0.01165458510043143
