! Created with skrf 1.8.0 (http://scikit-rf.org).
# GHz S RI R 50.0 
!freq ReS11 ImS11 ReS12 ImS12 ReS13 ImS13
! ReS14 ImS14
! ReS21 ImS21 ReS22 ImS22 ReS23 ImS23
! ReS24 ImS24
! ReS31 ImS31 ReS32 ImS32 ReS33 ImS33
! ReS34 ImS34
! ReS41 ImS41 ReS42 ImS42 ReS43 ImS43
! ReS44 ImS44
!
0.0 0.00169221758697 0.0 0.9983077824125 0.0 6.546675483483e-05 0.0 -6.546675616758e-05 8.017365339118709e-21
 0.9983077824125 0.0 0.001692217586986 0.0 -6.546675616804e-05 8.017365339175042e-21 6.54667548363e-05 0.0
 6.546675483483e-05 0.0 -6.546675616804e-05 8.017365339175042e-21 0.001692217585557 0.0 0.9983077824111 0.0
 -6.546675616758e-05 8.017365339118709e-21 6.54667548363e-05 0.0 0.9983077824111 0.0 0.001692217585548 0.0
0.005 0.0018211481071400484 0.0013849316872627897 0.9981446028833684 -0.0035442079233881595 9.18125348410458e-05 0.0007152473810440631 -8.918728142543924e-05 -0.00044991925019437765
 0.9981446028833684 -0.0035442079233881595 0.0018211466779264546 0.001384932577259113 -8.918971718632624e-05 -0.0004499211515335703 9.180124515754781e-05 0.0007152515035212131
 9.18125348410458e-05 0.0007152473810440631 -8.918971718632624e-05 -0.0004499211515335703 0.0018211470577242364 0.0013849996261799619 0.9981446032516206 -0.003544140852894689
 -8.918728142543924e-05 -0.00044991925019437765 9.180124515754781e-05 0.0007152515035212131 0.9981446032516206 -0.003544140852894689 0.0018211484594916037 0.0013849987765375763
0.006252605252188 0.001855103169627631 0.0017365883629866107 0.9981013381369412 -0.004431103757825645 9.940616460390916e-05 0.0008944000622214773 -9.594492448975569e-05 -0.0005629709225648724
 0.9981013381369412 -0.004431103757825645 0.0018551009354088705 0.0017365895307377014 -9.594871447198747e-05 -0.000562973267068066 9.938852354709832e-05 0.0008944054469076788
 9.940616460390916e-05 0.0008944000622214773 -9.594871447198747e-05 -0.000562973267068066 0.0018551014574426687 0.001736673274266747 0.9981013386413686 -0.0044310199360310925
 -9.594492448975569e-05 -0.0005629709225648724 9.938852354709832e-05 0.0008944054469076788 0.9981013386413686 -0.0044310199360310925 0.0018551036494808065 0.0017366722565417651
0.01250521050438 0.0020346674560776518 0.003509306826013949 0.9978709471752928 -0.008862843531677347 0.00014330687371271375 0.001789118146519365 -0.00013461113696640605 -0.0011285728947968174
 0.9978709471752928 -0.008862843531677347 0.0020346585321901873 0.003509309747748467 -0.00013462606969584002 -0.0011285772287440736 0.00014323646281259774 0.0017891314070494855
 0.00014330687371271375 0.001789118146519365 -0.00013462606969584002 -0.0011285772287440736 0.002034660052156872 0.003509476443929046 0.9978709486302411 -0.008862676136397978
 -0.00013461113696640605 -0.0011285728947968174 0.00014323646281259774 0.0017891314070494855 0.9978709486302411 -0.008862676136397978 0.0020346688154709884 0.0035094748568498574
0.01875781575657 0.0022313317395475686 0.005306984489111148 0.9976163023306615 -0.013305969906871431 0.00019727553314787926 0.002684723279392927 -0.00018159018451071877 -0.0016959785646165255
 0.9976163023306615 -0.013305969906871431 0.0022313116806832994 0.005306989849723127 -0.0001816234801148135 -0.0016959844591848128 0.00019711721659417471 0.0026847473896852996
 0.00019727553314787926 0.002684723279392927 -0.0001816234801148135 -0.0016959844591848128 0.002231314666307891 0.005307238792268147 0.9976163051804497 -0.013305719020417585
 -0.00018159018451071877 -0.0016959785646165255 0.00019711721659417471 0.0026847473896852996 0.9976163051804497 -0.013305719020417585 0.0022313343762159227 0.005307237097210415
0.02501042100875 0.002445503125342012 0.007127071102161518 0.9973370835044546 -0.017762598896390133 0.0002614198814041165 0.0035812270303465033 -0.00023700222434977294 -0.0022649105023719103
 0.9973370835044546 -0.017762598896390133 0.0024454674935412953 0.007127079686543677 -0.0002370610146320159 -0.002264917447690612 0.00026113842552241386 0.003581265442291408
 0.0002614198814041165 0.0035812270303465033 -0.0002370610146320159 -0.002264917447690612 0.0024454724020316577 0.007127410118198037 0.9973370881922092 -0.017762264567184313
 -0.00023700222434977294 -0.0022649105023719103 0.00026113842552241386 0.003581265442291408 0.9973370881922092 -0.017762264567184313 0.002445507438149429 0.007127408794705852
0.03126302626094 0.002677571856105337 0.0089682355031183 0.9970329553830086 -0.022233613480713635 0.0003358476768726115 0.004478558674727386 -0.0003009636047253579 -0.00283516606843889
 0.9970329553830086 -0.022233613480713635 0.002677516221583815 0.008968248197817691 -0.0003010549479716016 -0.0028351734727769438 0.00033540772255250234 0.004478615324073619
 0.0003358476768726115 0.004478558674727386 -0.0003010549479716016 -0.0028351734727769438 0.002677523499894974 0.008968659300403354 0.9970329623543507 -0.02223319573161227
 -0.0003009636047253579 -0.00283516606843889 0.00033540772255250234 0.004478615324073619 0.9970329623543507 -0.02223319573161227 0.0026775782501455834 0.008968658847311614
0.037515631513130004 0.0029279193855537376 0.010829595526580681 0.9967035758352953 -0.026719433638508067 0.00042066564819052363 0.005376614567725955 -0.0003735876868597903 -0.0034065680615557093
 0.9967035758352953 -0.026719433638508067 0.0029278393285172197 0.010829613321191577 -0.00037371857531874185 -0.003406575251100803 0.0004200316992205218 0.005376693880986769
 0.00042066564819052363 0.005376614567725955 -0.00037371857531874185 -0.003406575251100803 0.002927849407073138 0.010830104207349941 0.99670358553495 -0.026718932473903168
 -0.0003735876868597903 -0.0034065680615557093 0.0004200316992205218 0.005376693880986769 0.99670358553495 -0.026718932473903168 0.0029279282710146025 0.010830105143352968
0.043768236765320004 0.0031969214740479443 0.012710483662106111 0.9963485993323806 -0.031220250616973064 0.0005159789919571138 0.006275273177666346 -0.00045498512048839095 -0.003978949707754129
 0.9963485993323806 -0.031220250616973064 0.0031968125866795065 0.012710507650589436 -0.00045516248484687364 -0.003978955926568628 0.0005151154096218616 0.006275380079371702
 0.0005159789919571138 0.006275273177666346 -0.00045516248484687364 -0.003978955926568628 0.0031968258804170257 0.012711077356854525 0.9963486122083186 -0.03121966602867342
 -0.00045498512048839095 -0.003978949707754129 0.0005151154096218616 0.006275380079371702 0.9963486122083186 -0.03121966602867342 0.0031969332711907117 0.012711080220854088
0.050020842017509996 0.003484949619511946 0.01461035020385073 0.9959676787073368 -0.035736123709919666 0.0006218910598102678 0.007174401274324139 -0.0005452639282531905 -0.004552148497795247
 0.9959676787073368 -0.035736123709919666 0.003484807508620888 0.014610381585907476 -0.0005454946404058482 -0.004552152907842313 0.0006207620616159304 0.007174541194408412
 0.0006218910598102678 0.007174401274324139 -0.0005454946404058482 -0.004552152907842313 0.0034848244117348347 0.014611029071410037 0.9959676952088533 -0.035735455677465104
 -0.0005452639282531905 -0.004552148497795247 0.0006207620616159304 0.007174541194408412 0.9959676952088533 -0.035735455677465104 0.0034849647589182773 0.014611034422726134
0.055454545454549996 0.003750992144447991 0.01627643099095115 0.9956153072597527 -0.03967276369732868 0.0007226180264622912 0.007956042127404504 -0.000631013633565218 -0.005050813972880513
 0.9956153072597527 -0.03967276369732868 0.003750817606567832 0.016276469855537247 -0.0006312962431342078 -0.005050816066745913 0.000721229202622254 0.0079562155493575
 0.0007226180264622912 0.007956042127404504 -0.0006312962431342078 -0.005050816066745913 0.003750837949826777 0.016277184026368397 0.9956153272794167 -0.03967202312444915
 -0.000631013633565218 -0.005050813972880513 0.000721229202622254 0.0079562155493575 0.9956153272794167 -0.03967202312444915 0.0037510105486157634 0.016277192009269584
0.056273447269699996 0.0037923717752183046 0.016528715714293058 0.9955604662057486 -0.040267027724823615 0.0007385031264537649 0.0080738570038016 -0.0006445295077955374 -0.005126003143173903
 0.9955604662057486 -0.040267027724823615 0.0037921920644605534 0.016528755796536117 -0.0006448203826918692 -0.00512600482437489 0.0007370727864520356 0.0080740358850562
 0.0007385031264537649 0.0080738570038016 -0.0006448203826918692 -0.00512600482437489 0.0037922129494141602 0.016529479939912998 0.9955604867852411 -0.04026627621785206
 -0.0006445295077955374 -0.005126003143173903 0.0007370727864520356 0.0080740358850562 0.9955604867852411 -0.04026627621785206 0.003792390700921219 0.016529488358220004
0.06252605252188 0.00411955272168928 0.018465144900827225 0.995126614195669 -0.0448128790421522 0.0008659142013892722 0.00897349156779643 -0.0007528845877025112 -0.005700351933744723
 0.995126614195669 -0.0448128790421522 0.00411933105468439 0.018465195097905517 -0.0007532423845680999 -0.005700349884030094 0.0008641464524492317 0.008973715873339973
 0.0008659142013892722 0.00897349156779643 -0.0007532423845680999 -0.005700349884030094 0.004119356268711695 0.018465994698553284 0.9951266393087481 -0.04481204401836125
 -0.0007528845877025112 -0.005700351933744723 0.0008641464524492317 0.008973715873339973 0.9951266393087481 -0.04481204401836125 0.0041195758933227555 0.018466006783897537
0.06877865777407 0.004466854246346156 0.020419231034018187 0.9946657756896427 -0.049373551139263866 0.0010042208637387777 0.00987315023910071 -0.0008704291589943201 -0.006275031765633614
 0.9946657756896427 -0.049373551139263866 0.004466586289007451 0.020419292869766133 -0.0008708605821157682 -0.0062750249010291755 0.0010020795004524019 0.009873426959871619
 0.0010042208637387777 0.00987315023910071 -0.0008708605821157682 -0.0062750249010291755 0.004466616150255009 0.020420166642976093 0.9946658057941702 -0.049372632548724586
 -0.0008704291589943201 -0.006275031765633614 0.0010020795004524019 0.009873426959871619 0.9946658057941702 -0.049372632548724586 0.004466882139460856 0.020420183015698572
0.07503126302626001 0.004834635207117422 0.022390586084113002 0.9941776047563331 -0.05394888440348343 0.0011535171101716654 0.010772673017432205 -0.0009972603913105556 -0.006849877535803737
 0.9941776047563331 -0.05394888440348343 0.004834316651276501 0.02239066119246349 -0.0009977720905772981 -0.006849864690507212 0.0011509657930124503 0.010773009679629027
 0.0011535171101716654 0.010772673017432205 -0.0009977720905772981 -0.006849864690507212 0.004834351447616244 0.02239160777691031 0.994177640315234 -0.053947882180534985
 -0.0009972603913105556 -0.006849877535803737 0.0011509657930124503 0.010773009679629027 0.994177640315234 -0.053947882180534985 0.004834668318116852 0.02239162907739751
0.08128386827845 0.005223251530325357 0.0243788341605233 0.993661756870314 -0.05853869264973128 0.0013138942117663325 0.01167189507394675 -0.0011334725392183988 -0.007424721755146675
 0.993661756870314 -0.05853869264973128 0.005222878096221372 0.024378924286447858 -0.0011340711103570449 -0.007424701681621097 0.0013108964714147132 0.011672299746436505
 0.0013138942117663325 0.01167189507394675 -0.0011340711103570449 -0.007424701681621097 0.0052229180809286214 0.024379942233609567 0.9936617983500896 -0.058537606723219955
 -0.0011334725392183988 -0.007424721755146675 0.0013108964714147132 0.011672299746436505 0.9936617983500896 -0.058537606723219955 0.0052232903764925795 0.024379969122060717
0.08753647353064001 0.0056330561554072765 0.026383606974978695 0.993117889213245 -0.06314276762283054 0.0014854405766230611 0.012570647071873909 -0.001279156840993209 -0.007999394292957904
 0.993117889213245 -0.06314276762283054 0.00563262359532113 0.02638371397537691 -0.0012798488257150416 -0.007999365662032295 0.0014819598190991047 0.012571128373614389
 0.0014854405766230611 0.012570647071873909 -0.0012798488257150416 -0.007999365662032295 0.0056326689845734666 0.026384801752638402 0.9931179370853231 -0.06314159791265789
 -0.001279156840993209 -0.007999394292957904 0.0014819598190991047 0.012571128373614389 0.9931179370853231 -0.06314159791265789 0.005633101278366285 0.026384834908717725
0.09378907878283 0.00606439895047853 0.028404540608012317 0.992545660950254 -0.06776088220536072 0.001668241615659545 0.013468755410489638 -0.001434401413414333 -0.00857372220580778
 0.992545660950254 -0.06776088220536072 0.00606390305170948 0.02840466645237533 -0.0014351932993257226 -0.00857368360678811 0.001664241127846338 0.013469322517819387
 0.001668241615659545 0.013468755410489638 -0.0014351932993257226 -0.00857368360678811 0.00606395402065387 0.028405822445382933 0.9925457156907566 -0.0677596286198761
 -0.001434401413414333 -0.00857372220580778 0.001664241127846338 0.013469322517819387 0.9925457156907566 -0.0677596286198761 0.00606445091768158 0.028405862567801816
0.100041684035 0.00651762660176514 0.030441273151553726 0.991944733484006 -0.07239279275815388 0.0018623796117530464 0.01436604241312539 -0.0015992911423154156 -0.00914752963022665
 0.991944733484006 -0.07239279275815388 0.006517063189816861 0.030441419922714985 -0.0016001893628030555 -0.009147479571012794 0.0018578225672184869 0.014366705067060958
 0.0018623796117530464 0.01436604241312539 -0.0016001893628030555 -0.009147479571012794 0.006517119870637096 0.030442642431006323 0.9919447955748845 -0.07239145519839262
 -0.0015992911423154156 -0.00914752963022665 0.0018578225672184869 0.014366705067060958 0.9919447955748845 -0.07239145519839262 0.006517686009490914 0.03044269023704736
0.1059090909091 0.006963142641332033 0.0323665773815867 0.9913544257402316 -0.076751666837075 0.002054938806414901 0.015207142388218268 -0.0017628675108727438 -0.009685354378829072
 0.9913544257402316 -0.076751666837075 0.006962512116061366 0.03236674578610199 -0.0017638713176677786 -0.0096852921359903 0.002049825903829778 0.015207904071167344
 0.002054938806414901 0.015207142388218268 -0.0017638713176677786 -0.0096852921359903 0.006962574234947624 0.03236802909311022 0.9913544951721858 -0.0767502503754155
 -0.0017628675108727438 -0.009685354378829072 0.002049825903829778 0.015207904071167344 0.9913544951721858 -0.0767502503754155 0.006963209600933223 0.03236808477782519
0.1062942892872 0.006993082487179467 0.03249344292997485 0.991314770696638 -0.07703824089174721 0.0020679335904084523 0.015262326485208057 -0.0017739075709613664 -0.00972063771352529
 0.991314770696638 -0.07703824089174721 0.006992447429517285 0.03249361282466006 -0.001774918504962379 -0.009720574620743001 0.002062783055765458 0.015263094998629278
 0.0020679335904084523 0.015262326485208057 -0.001774918504962379 -0.009720574620743001 0.006992509906957804 0.03249490006626432 0.9913148406255909 -0.07703681924684544
 -0.0017739075709613664 -0.00972063771352529 0.002062783055765458 0.015263094998629278 0.9913148406255909 -0.07703681924684544 0.006993149962535137 0.03249495629121852
0.11254689453939999 0.007491106535712659 0.03456068716170173 0.9906554391813519 -0.08169695480711503 0.002284979192423869 0.01615742224650512 -0.001958328786336999 -0.01029286457851138
 0.9906554391813519 -0.08169695480711503 0.0074903957450016875 0.034560882491002545 -0.001959458758037649 -0.010292786797648546 0.0022791981336938295 0.016158307511283644
 0.002284979192423869 0.01615742224650512 -0.001959458758037649 -0.010292786797648546 0.007490464053719987 0.03456223259752313 0.9906555174425673 -0.08169544895929243
 -0.001958328786336999 -0.01029286457851138 0.0022791981336938295 0.016158307511283644 0.9906555174425673 -0.08169544895929243 0.007491182739002531 0.0345622979940425
0.11879949979160001 0.008012035076468698 0.036642640910610584 0.9899664084661466 -0.08636865035623915 0.002513588547173792 0.01705114065378247 -0.0021526293045041746 -0.010864025306249551
 0.9899664084661466 -0.08636865035623915 0.00801124451420941 0.03664286410040676 -0.0021538845829696344 -0.01086393110181907 0.0025071398368176736 0.017052154147834498
 0.002513588547173792 0.01705114065378247 -0.0021538845829696344 -0.01086393110181907 0.008011318635120047 0.03664427512133938 0.9899664955607195 -0.08636706017668423
 -0.0021526293045041746 -0.010864025306249551 0.0025071398368176736 0.017052154147834498 0.9899664955607195 -0.08636706017668423 0.00801212070390667 0.03664435045872745
0.1250521050438 0.008556200680145992 0.03873893627511125 0.9892473512337503 -0.09105303187518098 0.0027538301476750953 0.017943289106840923 -0.002356879954673961 -0.011433931943938578
 0.9892473512337503 -0.09105303187518098 0.008555326360198349 0.03873918986634183 -0.0023582667533787864 -0.011433819499635017 0.002746676571644964 0.017944442901087536
 0.0027538301476750953 0.017943289106840923 -0.0023582667533787864 -0.011433819499635017 0.008555406217062215 0.03874065976420442 0.9892474476697412 -0.0910513572292776
 -0.002356879954673961 -0.011433931943938578 0.002746676571644964 0.017944442901087536 0.9892474476697412 -0.0910513572292776 0.008556296465974366 0.038740745827607115
0.131304710296 0.009123931992887272 0.04084920174019658 0.988497943535959 -0.09574979286480254 0.003005768726509614 0.018833671552732384 -0.0025711477628663063 -0.012002393523136036
 0.988497943535959 -0.09574979286480254 0.009122969985402348 0.040849488389037014 -0.002572672239346398 -0.012002260941995543 0.0029978729915978632 0.018834978317950987
 0.003005768726509614 0.018833671552732384 -0.002572672239346398 -0.012002260941995543 0.009123055441172796 0.04085101504724097 0.9884980498293576 -0.09574803360466592
 -0.0025711477628663063 -0.012002393523136036 0.0029978729915978632 0.018834978317950987 0.9884980498293576 -0.09574803360466592 0.009124038712007001 0.04085111263678222
0.1375573155481 0.009590335555488138 0.04269876627230146 0.9878431411177938 -0.10018416365087723 0.003239037725073464 0.019695389460056393 -0.0027650833576222254 -0.012542527912755038
 0.9878431411177938 -0.10018416365087723 0.009589283000121433 0.04269908318846055 -0.002766754768101394 -0.012542374903180128 0.0032303875649513482 0.019696847829471474
 0.003239037725073464 0.019695389460056393 -0.002766754768101394 -0.012542374903180128 0.009589373680181094 0.04270066982191649 0.9878432577197249 -0.10018231972329723
 -0.0027650833576222254 -0.012542527912755038 0.0032303875649513482 0.019696847829471474 0.9878432577197249 -0.10018231972329723 0.009590454338146615 0.04270077467256724
0.1438099208003 0.010073305677030258 0.044537689423876155 0.9871650083429876 -0.10460637061377301 0.003481694681273657 0.02055302910264577 -0.0029667347589987505 -0.01307892034171675
 0.9871650083429876 -0.10460637061377301 0.010072158908353094 0.044538038801156025 -0.002968559738078259 -0.01307874502056729 0.003472257200431894 0.020554650627397756
 0.003481694681273657 0.02055302910264577 -0.002968559738078259 -0.01307874502056729 0.01007225455512124 0.04453968374883176 0.9871651357665157 -0.10460444188468164
 -0.0029667347589987505 -0.01307892034171675 0.003472257200431894 0.020554650627397756 0.9871651357665157 -0.10460444188468164 0.010073437413490786 0.044539796185685286
0.1500625260525 0.010572658654923984 0.046365790460572924 0.9864637336322233 -0.10901627610183627 0.0037336465294469908 0.021406484020741776 -0.0031760114229943148 -0.013611471000468242
 0.9864637336322233 -0.10901627610183627 0.010571414071129617 0.04636617457177234 -0.0031779965887075374 -0.013611271408428669 0.003723389044594949 0.0214082806730423
 0.0037336465294469908 0.021406484020741776 -0.0031779965887075374 -0.013611271408428669 0.010571514368858392 0.046367876117776485 0.9864638723964583 -0.10901426243009742
 -0.0031760114229943148 -0.013611471000468242 0.003723389044594949 0.0214082806730423 0.9864638723964583 -0.10901426243009742 0.010572804276177867 0.04636799647089217
0.15631513130469998 0.01108820931782415 0.04818289404200377 0.9857395065466814 -0.11341374355953504 0.0039947990010551606 0.022255649765307983 -0.0033928215991111898 -0.014140082358393988
 0.9857395065466814 -0.11341374355953504 0.011086863382247071 0.048183315237162475 -0.003394973552599547 -0.014139856460319348 0.003983689043765644 0.022257633934232215
