! Created with skrf 1.8.0 (http://scikit-rf.org).
# GHz S RI R 50.0 
!freq ReS11 ImS11 ReS12 ImS12 ReS13 ImS13
! ReS14 ImS14
! ReS21 ImS21 ReS22 ImS22 ReS23 ImS23
! ReS24 ImS24
! ReS31 ImS31 ReS32 ImS32 ReS33 ImS33
! ReS34 ImS34
! ReS41 ImS41 ReS42 ImS42 ReS43 ImS43
! ReS44 ImS44
!
0.0 0.001631307015564 0.0 0.9983686929843 0.0 6.322379290394e-05 0.0 -6.322379160423e-05 7.742681401807957e-21
 0.9983686929843 0.0 0.001631307015573 0.0 -6.322379160578e-05 7.742681401997779e-21 6.322379290396e-05 0.0
 6.322379290394e-05 0.0 -6.322379160578e-05 7.742681401997779e-21 0.001631307005738 0.0 0.9983686929745 0.0
 -6.322379160423e-05 7.742681401807957e-21 6.322379290396e-05 0.0 0.9983686929745 0.0 0.001631307005671 0.0
0.005 0.0017554566428970588 0.0013314007303610268 0.998211577532446 -0.003417055466620185 8.915134685569002e-05 0.0007139034224480847 -8.648016581567173e-05 -0.00044502969510110867
 0.998211577532446 -0.003417055466620185 0.0017554578174023621 0.001331399966076073 -8.648028795166979e-05 -0.0004450297163774848 8.91622920226424e-05 0.0007138995296340514
 8.915134685569002e-05 0.0007139034224480847 -8.648028795166979e-05 -0.0004450297163774848 0.0017554573123323045 0.0013314675514887215 0.998211577907177 -0.003416988414207309
 -8.648016581567173e-05 -0.00044502969510110867 8.91622920226424e-05 0.0007138995296340514 0.998211577907177 -0.003416988414207309 0.0017554578905016904 0.0013314672433792011
0.006252605252188 0.0017880985554789871 0.001669490448740866 0.9981699948321692 -0.0042721433445208 9.659706411517545e-05 0.000892712281163973 -9.30859319834439e-05 -0.0005568614439364274
 0.9981699948321692 -0.0042721433445208 0.0017881003912449149 0.0016694894018506744 -9.308612260387339e-05 -0.0005568614686084765 9.661416815396657e-05 0.0008927071805111382
 9.659706411517545e-05 0.000892712281163973 -9.308612260387339e-05 -0.0005568614686084765 0.0017880995152127846 0.0016695739685123891 0.9981699953309091 -0.004272059525783897
 -9.30859319834439e-05 -0.0005568614439364274 9.661416815396657e-05 0.0008927071805111382 0.9981699953309091 -0.004272059525783897 0.001788100417868117 0.0016695735053094182
0.01250521050438 0.001960405195390527 0.0033739382748513313 0.9979489839672904 -0.008545013664518474 0.00013949931869399753 0.001785699659107154 -0.00013077873730780605 -0.001116384147363226
 0.9979489839672904 -0.008545013664518474 0.0019604125273300563 0.003373935232216183 -0.00013077949556342737 -0.0011163841745108283 0.0001395676256985404 0.0017856869512292966
 0.00013949931869399753 0.001785699659107154 -0.00013077949556342737 -0.0011163841745108283 0.0019604084719609767 0.003374104959089848 0.9979489853978082 -0.008544846257874154
 -0.00013077873730780605 -0.001116384147363226 0.0001395676256985404 0.0017856869512292966 0.9979489853978082 -0.008544846257874154 0.0019604120614830313 0.003374103228610055
0.01875781575657 0.002148620613762332 0.0051025803518434994 0.9977053732976795 -0.012828993402464602 0.00019203286153825848 0.0026795669988526763 -0.0001764223857183899 -0.0016777263229579753
 0.9977053732976795 -0.012828993402464602 0.002148637093378195 0.005102574265330943 -0.0001764240863760484 -0.0016777263232063651 0.00019218653971478402 0.0026795437254819835
 0.00019203286153825848 0.0026795669988526763 -0.0001764240863760484 -0.0016777263232063651 0.0021486275628999113 0.0051028299389917695 0.9977053760902078 -0.012828742479268084
 -0.0001764223857183899 -0.0016777263229579753 0.00019218653971478402 0.0026795437254819835 0.9977053760902078 -0.012828742479268084 0.0021486356007532296 0.005102826064802722
0.02501042100875 0.002353125829628699 0.0068529693817940334 0.9974388639329054 -0.017126136588897063 0.00025430120518226773 0.003574342987118321 -0.00023013270616288953 -0.00224061539343677
 0.9974388639329054 -0.017126136588897063 0.0023531550980885768 0.006852959099769308 -0.00023013572262155528 -0.002240615330025021 0.0002545745721570693 0.003574305737256497
 0.00025430120518226773 0.003574342987118321 -0.00023013572262155528 -0.002240615330025021 0.00235313781226077 0.006853301595298485 0.9974388685220971 -0.017125802169535458
 -0.00023013270616288953 -0.00224061539343677 0.0002545745721570693 0.003574305737256497 0.9974388685220971 -0.017125802169535458 0.00235315203463136 0.00685329462446303
0.03126302626094 0.0025742860956714094 0.008623834400402517 0.9971491423962169 -0.021437308310619598 0.0003264081034443919 0.004469971580766651 -0.00029202197124205927 -0.0028048565785440483
 0.9971491423962169 -0.021437308310619598 0.002574331781913424 0.008623818665701556 -0.0002920266757372593 -0.002804856407254467 0.00032683565071572163 0.004469916483523431
 0.0003264081034443919 0.004469971580766651 -0.0002920266757372593 -0.002804856407254467 0.0025743044738808997 0.00862424893607799 0.9971491492183215 -0.021436890376761962
 -0.00029202197124205927 -0.0028048565785440483 0.00032683565071572163 0.004469916483523431 0.9971491492183215 -0.021436890376761962 0.0025743265896832407 0.008624237837446813
0.037515631513130004 0.002812458554100501 0.010414337978847825 0.9968358885635844 -0.02576292744728789 0.0004084565331778995 0.0053663631058466455 -0.0003621997236961122 -0.0033702818120774965
 0.9968358885635844 -0.02576292744728789 0.002812524271998045 0.010414315427270828 -0.00036220648730109326 -0.0033702814811489654 0.0004090729366379571 0.005366285822709266
 0.0004084565331778995 0.0053663631058466455 -0.00036220648730109326 -0.0033702814811489654 0.002812484691107182 0.010414834476505703 0.996835898058139 -0.02576242596976456
 -0.0003621997236961122 -0.0033702818120774965 0.0004090729366379571 0.005366285822709266 0.996835898058139 -0.02576242596976456 0.002812516379697961 0.010414818139661006
0.043768236765320004 0.0030679951860136598 0.012223850155042142 0.9964987788985444 -0.03010319266879419 0.0005005482074714401 0.0062634097776908485 -0.0004407730656984041 -0.003936734236036941
 0.9964987788985444 -0.03010319266879419 0.003068084531851054 0.012223819313895623 -0.0004407822583197864 -0.0039367336860986375 0.0005013883321498182 0.006263305494634342
 0.0005005482074714401 0.0062634097776908485 -0.0004407822583197864 -0.0039367336860986375 0.003068030445145009 0.01222442822410541 0.9964987915085413 -0.03010260758154177
 -0.0004407730656984041 -0.003936734236036941 0.0005013883321498182 0.006263305494634342 0.9964987915085413 -0.03010260758154177 0.0030680733538204804 0.01222440545844122
0.050020842017509996 0.0033412441754128693 0.014051855027523845 0.9961374881037062 -0.03445817576873769 0.0006027832795121627 0.007160992128244756 -0.0005278467541420359 -0.00450406178993483
 0.9961374881037062 -0.03445817576873769 0.0033413607251124395 0.014051814314496019 -0.000527858744449499 -0.004504060953942807 0.0006038821810782205 0.007160855547741732
 0.0006027832795121627 0.007160992128244756 -0.000527858744449499 -0.004504060953942807 0.0033412899191680107 0.014052514224940136 0.9961375042767583 -0.03445750699039975
 -0.0005278467541420359 -0.00450406178993483 0.0006038821810782205 0.007160855547741732 0.9961375042767583 -0.03445750699039975 0.003341345660843772 0.014052483758953554
0.055454545454549996 0.0035933585036155677 0.015655116079612376 0.9958036241819369 -0.03825473506255359 0.0006999427865059434 0.007941354192679008 -0.0006104993555211283 -0.004997680527123791
 0.9958036241819369 -0.03825473506255359 0.003593501580056764 0.01565506541664391 -0.0006105140754434225 -0.004997679382085382 0.0007012951902784764 0.00794118486092129
 0.0006999427865059434 0.007941354192679008 -0.0006105140754434225 -0.004997679382085382 0.0035934144643777035 0.0156558453824971 0.9958036438191034 -0.03825399347287177
 -0.0006104993555211283 -0.004997680527123791 0.0007012951902784764 0.00794118486092129 0.9958036438191034 -0.03825399347287177 0.0035934826394236822 0.015655807128787468
0.056273447269699996 0.003632550599336053 0.015897904904531013 0.9957516901042143 -0.03882786744502704 0.0007152601264982906 0.008058982156469009 -0.0006235232130848994 -0.005072114081076512
 0.9957516901042143 -0.03882786744502704 0.0036326979050657427 0.015897852626605747 -0.0006235383683576138 -0.005072112884247451 0.0007166530508208014 0.00805880748945878
 0.0007152601264982906 0.008058982156469009 -0.0006235383683576138 -0.005072112884247451 0.0036326081888479965 0.015898644739040072 0.9957517102932607 -0.038827114874316386
 -0.0006235232130848994 -0.005072114081076512 0.0007166530508208014 0.00805880748945878 0.9957517102932607 -0.038827114874316386 0.0036326783394054142 0.01589860521970954
0.06252605252188 0.003942256790219467 0.017761595089468563 0.9953410587069424 -0.04321220244822486 0.0008380751747577588 0.008957245073873138 -0.0007279025024312502 -0.0056407406646609105
 0.9953410587069424 -0.04321220244822486 0.003942438377988232 0.017761529441823007 -0.0007279211885266161 -0.0056407390244136504 0.0008397975562825693 0.008957026031705088
 0.0008380751747577588 0.008957245073873138 -0.0007279211885266161 -0.0056407390244136504 0.0039423275845193485 0.017762415018448916 0.995341083371327 -0.043211365966696266
 -0.0007279025024312502 -0.0056407406646609105 0.0008397975562825693 0.008957026031705088 0.995341083371327 -0.043211365966696266 0.00394241368028674 0.01776236501064729
0.06877865777407 0.004270702515195796 0.01964254886226593 0.9949052680812268 -0.04761107453936791 0.0009713227483102044 0.009855640344314747 -0.0008410822612838786 -0.006209790035103192
 0.9949052680812268 -0.04761107453936791 0.0042709218813096325 0.019642467927373564 -0.0008411048424456621 -0.006209787860999986 0.0009734102074058074 0.009855370130702111
 0.0009713227483102044 0.009855640344314747 -0.0008411048424456621 -0.006209787860999986 0.004270787869389405 0.019643448297082023 0.9949052976868193 -0.047610154005672686
 -0.0008410822612838786 -0.006209790035103192 0.0009734102074058074 0.009855370130702111 0.9949052976868193 -0.047610154005672686 0.004270891404597335 0.01964338628313645
0.07503126302626001 0.004618225050757519 0.02154040795096432 0.9944439931398633 -0.052024345963379945 0.0011150949304761534 0.010754022354963255 -0.0009631576361796441 -0.006779108992068911
 0.9944439931398633 -0.052024345963379945 0.004618485658667618 0.021540309697828847 -0.0009631844749220046 -0.006779106185764259 0.00111758327002497 0.010753693657935442
 0.0011150949304761534 0.010754022354963255 -0.0009631844749220046 -0.006779106185764259 0.004618326315411597 0.021541386255316684 0.9944440281596374 -0.05202334121462894
 -0.0009631576361796441 -0.006779108992068911 0.00111758327002497 0.010753693657935442 0.9944440281596374 -0.05202334121462894 0.0046184487392696 0.021541310634646312
0.08128386827845 0.004985159187104789 0.02345482621040451 0.9939569098529518 -0.056451853722010656 0.0012694814336695545 0.011652240870442365 -0.001094221199391326 -0.007348542229496169
 0.9939569098529518 -0.056451853722010656 0.0049854644639701655 0.023454708493758927 -0.001094252656347137 -0.007348538684684885 0.001272406635283836 0.011651845854296293
 0.0012694814336695545 0.011652240870442365 -0.001094252656347137 -0.007348538684684885 0.004985277707514553 0.02345588268765871 0.9939569507689054 -0.056450764586240064
 -0.001094221199391326 -0.007348542229496169 0.001272406635283836 0.011651845854296293 0.9939569507689054 -0.056450764586240064 0.004985420421459392 0.023455791776481653
0.08753647353064001 0.005371837190194017 0.02538546522547159 0.9934436955253804 -0.060893413929376666 0.0014345694749950102 0.01255014135374608 -0.0012343628600427956 -0.007917932064274689
 0.9934436955253804 -0.060893413929376666 0.005372190523815554 0.02538532578507066 -0.0012343992938111553 -0.007917927666649378 0.0014379676946491469 0.012549671651029937
 0.0014345694749950102 0.01255014135374608 -0.0012343992938111553 -0.007917927666649378 0.005371974304647832 0.025386599135641938 0.9934437428279987 -0.06089224020824814
 -0.0012343628600427956 -0.007917932064274689 0.0014379676946491469 0.012549671651029937 0.9934437428279987 -0.06089224020824814 0.005372138659765144 0.02538649116669137
0.09378907878283 0.0057785887313642195 0.027331991209691375 0.9929040290435642 -0.06534882487907236 0.0016104436550591957 0.013447565206259648 -0.0013836697707245 -0.008487118252360143
 0.9929040290435642 -0.06534882487907236 0.00577899346641036 0.027331827669789026 -0.00138371153771875 -0.008487112879566825 0.0016143512182249854 0.0134470119098257
 0.0016104436550591957 0.013447565206259648 -0.00138371153771875 -0.008487112879566825 0.005778745770315171 0.02733320175991689 0.9929040832330204 -0.06534756635726666
 -0.0013836697707245 -0.008487118252360143 0.0016143512182249854 0.0134470119098257 0.9929040832330204 -0.06534756635726666 0.00577893306410378 0.02733307488236214
0.100041684035 0.006205740795169896 0.029294072706532708 0.9923375911060662 -0.06981786931658646 0.0017971858396717522 0.014344349959085057 -0.001542226230032009 -0.009055937860447923
 0.9923375911060662 -0.06981786931658646 0.006206200229773762 0.02929388257541544 -0.0015422736842827093 -0.009055931382049583 0.0018016392362269992 0.014343703614107844
 0.0017971858396717522 0.014344349959085057 -0.0015422736842827093 -0.009055931382049583 0.006205919079889305 0.02929535905002578 0.9923376526931081 -0.06981652576275937
 -0.001542226230032009 -0.009055937860447923 0.0018016392362269992 0.014343703614107844 0.9923376526931081 -0.06981652576275937 0.006206130553641302 0.029295211329355197
0.1059090909091 0.006625420575184088 0.031149130945412457 0.9917814181845356 -0.0740237873320198 0.0019823783264793704 0.01518515808743174 -0.0016994995141484978 -0.009589233762783962
 0.9917814181845356 -0.0740237873320198 0.006625934294681449 0.031148913491348226 -0.0016995526250833605 -0.009589226121020169 0.001987377258664621 0.015184415332409915
 0.0019823783264793704 0.01518515808743174 -0.0016995526250833605 -0.009589226121020169 0.006625619989829124 0.03115048759776015 0.9917814871880705 -0.07402236375671885
 -0.0016994995141484978 -0.009589233762783962 0.001987377258664621 0.015184415332409915 0.9917814871880705 -0.07402236375671885 0.006625855229822053 0.031150318484182298
0.1062942892872 0.006653617569619587 0.03127137887929848 0.9917440644392579 -0.07430031613086627 0.0019948750426266866 0.015240329420612018 -0.0017101135831433278 -0.009624225188309129
 0.9917440644392579 -0.07430031613086627 0.00665413495188811 0.03127115954881628 -0.0017101670762024377 -0.009624217465742319 0.001999910921499077 0.015239580016695464
 0.0019948750426266866 0.015240329420612018 -0.0017101670762024377 -0.009624217465742319 0.0066538184116201535 0.03127274011860755 0.9917441339460059 -0.07429888729419566
 -0.0017101135831433278 -0.009624225188309129 0.001999910921499077 0.015239580016695464 0.9917441339460059 -0.07429888729419566 0.006654055247014741 0.03127256953674502
0.11254689453939999 0.0071225403258241005 0.033263578208223496 0.991123134005925 -0.07879592164690949 0.0022035873108268715 0.016135333804909176 -0.0018874101196522308 -0.010191811717406992
 0.991123134005925 -0.07879592164690949 0.007123118850126764 0.033263326953545114 -0.001887470000358915 -0.010191802603972447 0.002209242474193288 0.01613447076823637
 0.0022035873108268715 0.016135333804909176 -0.001887470000358915 -0.010191802603972447 0.007122765024889373 0.033265013393419786 0.9911232119662261 -0.07879440725900164
 -0.0018874101196522308 -0.010191811717406992 0.002209242474193288 0.01613447076823637 0.9911232119662261 -0.07879440725900164 0.007123028341263807 0.03326481784873831
0.11879949979160001 0.007612827285846774 0.03527033747345425 0.9904744872049113 -0.0833044306408575 0.0024233956100104164 0.017029189839191185 -0.002074190970204241 -0.010758526087697055
 0.9904744872049113 -0.0833044306408575 0.00761347008875792 0.03527005145285437 -0.002074257584498242 -0.010758515428507906 0.002429707007201742 0.01702820202472149
 0.0024233956100104164 0.017029189839191185 -0.002074257584498242 -0.010758515428507906 0.007613077129087063 0.035271845602869986 0.9904745741655829 -0.08330283041496718
 -0.002074190970204241 -0.010758526087697055 0.002429707007201742 0.01702820202472149 0.9904745741655829 -0.08330283041496718 0.007613367980211197 0.03527162291040489
0.1250521050438 0.008124793483640164 0.03729132096803593 0.9897978140678321 -0.08782557713374504 0.002654369710904752 0.017921720870609014 -0.002270528002425462 -0.011324194082365053
 0.9897978140678321 -0.08782557713374504 0.008125503640371947 0.037290997222815474 -0.002270601693213995 -0.011324181714358172 0.0026613744322982963 0.017920596554352974
 0.002654369710904752 0.017921720870609014 -0.002270601693213995 -0.011324181714358172 0.008125069744462218 0.0372929009860935 0.9897979105892584 -0.0878238907670296
 -0.002270528002425462 -0.011324194082365053 0.0026613744322982963 0.017920596554352974 0.9897979105892584 -0.0878238907670296 0.008125389115275253 0.0372926488779028
0.131304710296 0.008658750619656791 0.03932618986096492 0.9890928074509061 -0.092359085044059 0.0028965760769590963 0.018812746952778996 -0.0024764897156794126 -0.011888638640464235
 0.9890928074509061 -0.092359085044059 0.008659531140486834 0.03932582531537534 -0.002476570822598909 -0.011888624392351638 0.0029043113474372696 0.018811473824075144
 0.0028965760769590963 0.018812746952778996 -0.002476570822598909 -0.011888624392351638 0.008659054556158678 0.03932784066044752 0.9890929141075946 -0.09235731221545403
 -0.0024764897156794126 -0.011888638640464235 0.0029043113474372696 0.018811473824075144 0.9890929141075946 -0.09235731221545403 0.00865940335983297 0.039327556785888645
0.1375573155481 0.009095643252304862 0.04110892590884605 0.9884785799878151 -0.09663885798437552 0.0031203801096534316 0.019675699510140983 -0.002662434819947176 -0.012425323514520067
 0.9884785799878151 -0.09663885798437552 0.009096496516795937 0.04110852695046584 -0.0026625236420044513 -0.012425307353799913 0.0031288545373408683 0.019674279199566276
 0.0031203801096534316 0.019675699510140983 -0.0026625236420044513 -0.012425307353799913 0.009095975255291286 0.04111064694239818 0.9884786972510311 -0.09663699851132855
 -0.002662434819947176 -0.012425323514520067 0.0031288545373408683 0.019674279199566276 0.9884786972510311 -0.09663699851132855 0.00909635569222914 0.04111033750534578
0.1438099208003 0.009547998278952845 0.042881687623186816 0.9878425671516238 -0.10090720196107694 0.003353213340534922 0.02053485572661093 -0.0028558043921510508 -0.01295850774618486
 0.9878425671516238 -0.10090720196107694 0.00954892709283421 0.04288125198174609 -0.0028559012573908123 -0.012958489509014156 0.0033624591832090408 0.020533277091962825
 0.003353213340534922 0.02053485572661093 -0.0028559012573908123 -0.012958489509014156 0.009548359428762369 0.04288347779299212 0.9878426955953817 -0.10090525553006247
 -0.0028558043921510508 -0.01295850774618486 0.0033624591832090408 0.020533277091962825 0.9878426955953817 -0.10090525553006247 0.009548772544065068 0.04288314116845486
0.1500625260525 0.010015648052215158 0.04464430964895158 0.9871849411255705 -0.10516399355639115 0.0035949905581109886 0.021390117996037065 -0.0030565151821442364 -0.013488098504219328
 0.9871849411255705 -0.10516399355639115 0.010016655153062656 0.04464383497072853 -0.003056620415127333 -0.013488078020564169 0.0036050398722109298 0.021388369491974726
 0.0035949905581109886 0.021390117996037065 -0.003056620415127333 -0.013488078020564169 0.010016039404257682 0.04464616781473896 0.9871850813359644 -0.10516195984337945
 -0.0030565151821442364 -0.013488098504219328 0.0036050398722109298 0.021388369491974726 0.9871850813359644 -0.10516195984337945 0.010016486191172309 0.04464580231710809
0.15631513130469998 0.010498423630997117 0.04639663157182373 0.9865058750837422 -0.10940911016393819 0.003845625487975515 0.02224139048606207 -0.003264482859704123 -0.014014005011386391
 0.9865058750837422 -0.10940911016393819 0.010499511686945472 0.04639611542138951 -0.0032645967815006483 -0.014013982105094396 0.003856510126442252 0.022239460168080427
