! Created with skrf 1.8.0 (http://scikit-rf.org).
# GHz S RI R 50.0 
!freq ReS11 ImS11 ReS12 ImS12 ReS13 ImS13
! ReS14 ImS14
! ReS21 ImS21 ReS22 ImS22 ReS23 ImS23
! ReS24 ImS24
! ReS31 ImS31 ReS32 ImS32 ReS33 ImS33
! ReS34 ImS34
! ReS41 ImS41 ReS42 ImS42 ReS43 ImS43
! ReS44 ImS44
!
0.0 0.001131026404511 0.0 0.9988689735955 0.0 4.283242880157e-05 0.0 -4.283242926756e-05 5.2454597402222765e-21
 0.9988689735955 0.0 0.001131026404487 0.0 -4.283242926719e-05 5.2454597401769644e-21 4.283242880057e-05 0.0
 4.283242880157e-05 0.0 -4.283242926719e-05 5.2454597401769644e-21 0.001131026400244 0.0 0.9988689735912 0.0
 -4.283242926756e-05 5.2454597402222765e-21 4.283242880057e-05 0.0 0.9988689735912 0.0 0.001131026400237 0.0
0.005 0.0012159632397291953 0.0009276998579128606 0.9987616536089117 -0.002370242556990313 5.926153212000734e-05 0.0004611261474708173 -5.7672297982472166e-05 -0.0002914861581361736
 0.9987616536089117 -0.002370242556990313 0.001215976448649832 0.0009276921705687005 -5.767480341611216e-05 -0.00029148809120026464 5.916525126303796e-05 0.00046116258980012713
 5.926153212000734e-05 0.0004611261474708173 -5.767480341611216e-05 -0.00029148809120026464 0.0012159615956271685 0.0009276335860261819 0.9987616532901379 -0.002370309627744871
 -5.7672297982472166e-05 -0.0002914861581361736 5.916525126303796e-05 0.00046116258980012713 0.9987616532901379 -0.002370309627744871 0.001215977458346356 0.0009276243032675049
0.006252605252188 0.0012379770586346292 0.0011633026005925164 0.9987337042383791 -0.002963422320296367 6.382027814004319e-05 0.0005766515958829391 -6.174237476267207e-05 -0.00036474677597495405
 0.9987337042383791 -0.002963422320296367 0.0012379977064455247 0.001163292854666014 -6.174627343916147e-05 -0.0003647491609066614 6.366984324485845e-05 0.0005766988826152696
 6.382027814004319e-05 0.0005766515958829391 -6.174627343916147e-05 -0.0003647491609066614 0.0012379745509749074 0.0011632197876937527 0.9987337038027804 -0.0029635061354384407
 -6.174237476267207e-05 -0.00036474677597495405 6.366984324485845e-05 0.0005766988826152696 0.9987337038027804 -0.0029635061354384407 0.001237999347830244 0.0011632080425600494
0.01250521050438 0.0013523338808390667 0.0023512939560283 0.9985877486508058 -0.005927846572694856 8.925016203309681e-05 0.0011537595077499773 -8.419245163400729e-05 -0.0007314109269146584
 0.9985877486508058 -0.005927846572694856 0.0013524163239783359 0.0023512731035780572 -8.420781695334848e-05 -0.0007314153596641685 8.865014006942341e-05 0.0011538724400213484
 8.925016203309681e-05 0.0011537595077499773 -8.420781695334848e-05 -0.0007314153596641685 0.001352324445907474 0.0023511286180034805 0.9985877474924912 -0.005928013968106576
 -8.419245163400729e-05 -0.0007314109269146584 8.865014006942341e-05 0.0011538724400213484 0.9985877474924912 -0.005928013968106576 0.0013524234643097165 0.0023511037010885126
0.01875781575657 0.0014742913387920085 0.0035565770811367883 0.9984309652531467 -0.008900538700858433 0.00011917163819254272 0.0017317280067397926 -0.00011023968506362803 -0.0010995103222635047
 0.9984309652531467 -0.008900538700858433 0.001474476580782145 0.00355654369908516 -0.00011027395308897632 -0.0010995164174142898 0.00011782345999410354 0.001731927749216285
 0.00011917163819254272 0.0017317280067397926 -0.00011027395308897632 -0.0010995164174142898 0.001474270557226676 0.0035563294030469634 0.998430963074545 -0.00890078959165149
 -0.00011023968506362803 -0.0010995103222635047 0.00011782345999410354 0.001731927749216285 0.998430963074545 -0.00890078959165149 0.001474493060216309 0.0035562897707872836
0.02501042100875 0.0016040408455411889 0.004777522684286427 0.9982632085303704 -0.011882992682936048 0.0001536352901072192 0.00231060966946266 -0.00013994003017017345 -0.0014689123130444959
 0.9982632085303704 -0.011882992682936048 0.001604369797859996 0.0047774753029017035 -0.00014000055055123287 -0.0014689196291603872 0.0001512400639632225 0.0023109200631663052
 0.0001536352901072192 0.00231060966946266 -0.00014000055055123287 -0.0014689196291603872 0.0016040043026451425 0.00477719286140359 0.998263205033119 -0.011883327019371542
 -0.00013994003017017345 -0.0014689123130444959 0.0001512400639632225 0.0023109200631663052 0.998263205033119 -0.011883327019371542 0.0016043994546800044 0.004777136873228136
0.03126302626094 0.001741765424974559 0.0060133193243678724 0.998084323768566 -0.014875880354268081 0.00019269245869536845 0.0028904061719570748 -0.00017334830294357892 -0.0018395328576617546
 0.998084323768566 -0.014875880354268081 0.0017422789277114316 0.00601325643115175 -0.00017344235431772975 -0.0018395408962262377 0.00018895067703425327 0.002890853748476958
 0.00019269245869536845 0.0028904061719570748 -0.00017344235431772975 -0.0018395408962262377 0.0017417087118699634 0.0060129075695643155 0.9980843186563236 -0.014876298114473495
 -0.00017334830294357892 -0.0018395328576617546 0.00018895067703425327 0.002890853748476958 0.9980843186563236 -0.014876298114473495 0.001742325603335776 0.006012833491914399
0.037515631513130004 0.001887644275280655 0.007263458401375371 0.9978941516830183 -0.017879566378234173 0.00023639472381939837 0.0034710995365727533 -0.00021051858131106052 -0.002211305256999887
 0.9978941516830183 -0.017879566378234173 0.0018883831105361664 0.007263378443535389 -0.00021065337930386074 -0.002211313462043887 0.00023100612065579196 0.0034717135465922094
 0.00023639472381939837 0.0034710995365727533 -0.00021065337930386074 -0.002211313462043887 0.001887562985579375 0.00726296496334504 0.9978941446582567 -0.017880067550320688
 -0.00021051858131106052 -0.002211305256999887 0.00023100612065579196 0.0034717135465922094 0.9978941446582567 -0.017880067550320688 0.0018884506479850019 0.007262870971794538
0.043768236765320004 0.002041854541857028 0.008527577454597104 0.997692530257265 -0.020894264904494864 0.0002847936674755105 0.004052661630197781 -0.0002515043651193677 -0.002584170642150619
 0.997692530257265 -0.020894264904494864 0.00204285944370557 0.008527478841032039 -0.0002516870671826315 -0.0025841784000810502 0.0002774571400081096 0.00405347407650551
 0.0002847936674755105 0.004052661630197781 -0.0002516870671826315 -0.0025841784000810502 0.0020417442711928905 0.008527002613860264 0.997692521021598 -0.02089484949099481
 -0.0002515043651193677 -0.002584170642150619 0.0002774571400081096 0.00405347407650551 0.997692521021598 -0.02089484949099481 0.00204295168821598 0.008526886794508788
0.050020842017509996 0.002204572151302685 0.00980539537562206 0.9974792956458466 -0.023920104310647748 0.0003379407433584936 0.00463505808371896 -0.0002963586434306237 -0.002958074042177664
 0.9974792956458466 -0.023920104310647748 0.002205883814411134 0.009805276478538365 -0.0002965963520614626 -0.002958080681677367 0.00032835430727062316 0.004636103756114905
 0.0003379407433584936 0.00463505808371896 -0.0002965963520614626 -0.002958080681677367 0.0022044284978871916 0.009804739445863821 0.9974792838999342 -0.023920772327664444
 -0.0002963586434306237 -0.002958074042177664 0.00032835430727062316 0.004636103756114905 0.9974792838999342 -0.023920772327664444 0.002206004614602509 0.009804599796395756
0.055454545454549996 0.002353023730921826 0.010926802309499745 0.9972844287322427 -0.02655875693815368 0.0003880230271098938 0.005141825894652847 -0.00033852085322168415 -0.0032838092268064035
 0.9972844287322427 -0.02655875693815368 0.0023546350030700805 0.010926664436145506 -0.00033881209133373915 -0.003283814304291324 0.00037623540099231085 0.005143104692678732
 0.0003880230271098938 0.005141825894652847 -0.00033881209133373915 -0.003283814304291324 0.002352847493857421 0.01092607619834948 0.9972844145610174 -0.026559497475932364
 -0.00033852085322168415 -0.0032838092268064035 0.00037623540099231085 0.005143104692678732 0.9972844145610174 -0.026559497475932364 0.002354783747085076 0.010925914145567407
0.056273447269699996 0.002375972251707969 0.011096680627770607 0.9972542826844925 -0.02695715893683245 0.0003958871895542108 0.005218250212709147 -0.00034513392421935124 -0.003332962451502274
 0.9972542826844925 -0.02695715893683245 0.002377631338984624 0.01109653978422667 -0.0003454336892030658 -0.0033329672434747747 0.0003837479547426485 0.005219566723889794
 0.0003958871895542108 0.005218250212709147 -0.0003454336892030658 -0.0033329672434747747 0.002375790815722276 0.011095943963013992 0.9972542681277253 -0.026957910407392593
 -0.00034513392421935124 -0.003332962451502274 0.0003837479547426485 0.005219566723889794 0.9972542681277253 -0.026957910407392593 0.0023777845464074735 0.011095778393465792
0.06252605252188 0.0025562294636499315 0.012401233769543869 0.9970173252128549 -0.030005466516397204 0.0004586839660831346 0.0058021960655632076 -0.0003978822420420245 -0.0037087837706868297
 0.9970173252128549 -0.030005466516397204 0.002558276613111787 0.01240106928270395 -0.000398251062030821 -0.003708785928210788 0.00044368812523448665 0.005803823887553316
 0.0004586839660831346 0.0058021960655632076 -0.000398251062030821 -0.003708785928210788 0.0025560058473908785 0.012400416762484294 0.9970173075425817 -0.030006301472567668
 -0.0003978822420420245 -0.0037087837706868297 0.00044368812523448665 0.005803823887553316 0.9970173075425817 -0.030006301472567668 0.0025584660828657938 0.012400223095886623
0.06877865777407 0.0027455180283454256 0.013718877034813042 0.9967682562955323 -0.03306503855021499 0.0005263817024542106 0.00638685105249329 -0.0004546551564291311 -0.004085486167235752
 0.9967682562955323 -0.03306503855021499 0.0027479938601021564 0.0137186871751462 -0.00045509998014466805 -0.004085484845535007 0.0005082245291265279 0.006388833553363643
 0.0005263817024542106 0.00638685105249329 -0.00045509998014466805 -0.004085484845535007 0.0027452478363320294 0.01371798011536264 0.9967682352074622 -0.03306595703510738
 -0.0004546551564291311 -0.004085486167235752 0.0005082245291265279 0.006388833553363643 0.9967682352074622 -0.03306595703510738 0.002748223450834959 0.013717756088189344
0.07503126302626001 0.002944011895320511 0.015049447720710171 0.996506908384818 -0.03613586687378293 0.0005990306548715237 0.006972168336967672 -0.0005155037413424569 -0.00446301767485515
 0.996506908384818 -0.03613586687378293 0.002946957017697797 0.015049230727053928 -0.0005160314684281435 -0.004463011971280234 0.0005774065080340408 0.0069745518177335005
 0.0005990306548715237 0.006972168336967672 -0.0005160314684281435 -0.004463011971280234 0.002943690734656277 0.015048471362886362 0.9965068835723978 -0.036136868935167925
 -0.0005155037413424569 -0.00446301767485515 0.0005774065080340408 0.0069745518177335005 0.9965068835723978 -0.036136868935167925 0.002947230592069667 0.01504821462535409
0.08128386827845 0.0031518847724336116 0.01639279380231876 0.9962331134468783 -0.03921792799849942 0.0006766806668720237 0.007558099097250375 -0.0005804785708828563 -0.0048413259235941435
 0.9962331134468783 -0.03921792799849942 0.0031553397889207205 0.016392547882720893 -0.000581096052593619 -0.004841314877607552 0.0006512830007784465 0.0075609328288283725
 0.0006766806668720237 0.007558099097250375 -0.000581096052593619 -0.004841314877607552 0.0031515082531293646 0.016391738515556812 0.9962330846015587 -0.03921901369801701
 -0.0005804785708828563 -0.0048413259235941435 0.0006512830007784465 0.0075609328288283725 0.9962330846015587 -0.03921901369801701 0.0031556612135694834 0.016391446631825884
0.08753647353064001 0.00336931015171531 0.017748770876216537 0.9959467030651327 -0.04231118612476236 0.0007593811328616219 0.00814459270487124 -0.0006496297020648647 -0.00522035795405975
 0.9959467030651327 -0.04231118612476236 0.0033733156670337403 0.017748494208753643 -0.000650343741710532 -0.005220340547225286 0.0007299025109002067 0.008147928965049022
 0.0007593811328616219 0.00814459270487124 -0.000650343741710532 -0.005220340547225286 0.003368873886981819 0.01774763721515357 0.9959466698757762 -0.04231235552858757
 -0.0006496297020648647 -0.00522035795405975 0.0007299025109002067 0.008147928965049022 0.9959466698757762 -0.04231235552858757 0.0033736888129466225 0.017747307663280518
0.09378907878283 0.0035964613184149407 0.01911723999692348 0.995647508528763 -0.045415595263236234 0.000847180964274409 0.008731596852537217 -0.0007230066544104215 -0.005600060083241359
 0.995647508528763 -0.045415595263236234 0.0036010579449172013 0.019116930730321377 -0.0007238240077099862 -0.005600035239223752 0.000813313076229933 0.008735490962889626
 0.000847180964274409 0.008731596852537217 -0.0007238240077099862 -0.005600035239223752 0.003595960924546822 0.019116028557785752 0.9956474706812838 -0.045416848446261024
 -0.0007230066544104215 -0.005600060083241359 0.000813313076229933 0.008735490962889626 0.9956474706812838 -0.045416848446261024 0.0036014866870961483 0.01911565872967189
0.100041684035 0.0038335113472304483 0.020498066076327863 0.9953353609093845 -0.04853110079412262 0.000940128556370682 0.009319057646108098 -0.0008006583885389892 -0.00598037780737273
 0.9953353609093845 -0.04853110079412262 0.003838739711398776 0.020497722330448772 -0.0008015857638665247 -0.005980344391942415 0.0009015622383754191 0.00932356800882101
 0.000940128556370682 0.009319057646108098 -0.0008015857638665247 -0.005980344391942415 0.0038329424446591105 0.020496777498194316 0.995335318087064 -0.04853243783916738
 -0.0008006583885389892 -0.00598037780737273 0.0009015622383754191 0.00932356800882101 0.995335318087064 -0.04853243783916738 0.0038392279294459227 0.020496364699308357
0.1059090909091 0.0040651145417742824 0.021804945412737062 0.9950305121813482 -0.051464709129727136 0.001032074473517547 0.009870693267901442 -0.0008774572747913745 -0.006337776194726389
 0.9950305121813482 -0.051464709129727136 0.004070972692217209 0.02180456757632759 -0.0008784939532680257 -0.00633773365279542 0.000988817255537346 0.009875837810645854
 0.001032074473517547 0.009870693267901442 -0.0008784939532680257 -0.00633773365279542 0.004064477371315879 0.021803585067173108 0.9950304643994566 -0.05146612495321259
 -0.0008774572747913745 -0.006337776194726389 0.000988817255537346 0.009875837810645854 0.9950304643994566 -0.05146612495321259 0.004071520254233155 0.021803129416770334
0.1062942892872 0.004080633090651225 0.02189111668024713 0.9950100911316924 -0.05165764063057552 0.0010382717561910235 0.009906919674396322 -0.0008826332829929114 -0.00636125572810302
 0.9950100911316924 -0.05165764063057552 0.004086533839422129 0.021890736546427026 -0.0008836773415299554 -0.006361212549139678 0.0009946970131532395 0.009912107808961488
 0.0010382717561910235 0.009906919674396322 -0.0008836773415299554 -0.006361212549139678 0.004079991303729358 0.02188975164420385 0.9950100430143005 -0.05165906162966831
 -0.0008826332829929114 -0.00636125572810302 0.0009946970131532395 0.009912107808961488 0.9950100430143005 -0.05165906162966831 0.004087085417144705 0.021889293093172696
0.11254689453939999 0.004337999160148048 0.023296261107479305 0.9946715300380531 -0.05479514610063248 0.0011416578309561614 0.010495126062631812 -0.000968979110109593 -0.006742637496161423
 0.9946715300380531 -0.05479514610063248 0.004344612967296732 0.0232958426487224 -0.0009701464658804915 -0.006742583303677806 0.0010927638610932012 0.010501056642377637
 0.0011416578309561614 0.010495126062631812 -0.0009701464658804915 -0.006742583303677806 0.004337280117786887 0.023294820341449342 0.9946714763019558 -0.05479665115070478
 -0.000968979110109593 -0.006742637496161423 0.0010927638610932012 0.010501056642377637 0.9946714763019558 -0.05479665115070478 0.004345231793331081 0.02329431316947175
0.11879949979160001 0.004605781902165698 0.02471336967550965 0.9943195084498543 -0.05794354262379297 0.001250333436847468 0.0110836185126299 -0.0010597430109027038 -0.007124465769516346
 0.9943195084498543 -0.05794354262379297 0.0046131494750808 0.02471291092652251 -0.0010610402308541995 -0.007124399255669068 0.001195808658026868 0.011090359401107076
 0.001250333436847468 0.0110836185126299 -0.0010610402308541995 -0.007124399255669068 0.004604981238501196 0.024711853947313265 0.9943194487680089 -0.057945131834054996
 -0.0010597430109027038 -0.007124465769516346 0.001195808658026868 0.011090359401107076 0.9943194487680089 -0.057945131834054996 0.004613839442652921 0.024711295197527246
0.1250521050438 0.004884153370745329 0.02614231313782771 0.9939538572258577 -0.06110275025738354 0.0013643445880702114 0.011672337338416343 -0.0011549714691582455 -0.007506682177348394
 0.9939538572258577 -0.06110275025738354 0.004892315456623956 0.026141812104927838 -0.0011564050730729287 -0.007506601976476907 0.0013038766658781669 0.011679959625514153
 0.0013643445880702114 0.011672337338416343 -0.0011564050730729287 -0.007506601976476907 0.004883266724958146 0.02614072326368168 0.9939537912671342 -0.061104423741317596
 -0.0011549714691582455 -0.007506682177348394 0.0013038766658781669 0.011679959625514153 0.9939537912671342 -0.061104423741317596 0.004893080463477229 0.026140109890219778
0.131304710296 0.0051732852952988614 0.027582962235984793 0.9935744073187087 -0.0642726841093995 0.0014837366258597254 0.012261221490411721 -0.0012547102849083645 -0.007889227296726866
 0.9935744073187087 -0.0642726841093995 0.005182282688278301 0.02758241689678957 -0.001256286745370199 -0.007889131985376004 0.00141701250326243 0.012269799528238555
 0.0014837366258597254 0.012261221490411721 -0.001256286745370199 -0.007889131985376004 0.005172308312787624 0.027581299074387562 0.9935743347479986 -0.0642744419913162
 -0.0012547102849083645 -0.007889227296726866 0.00141701250326243 0.012269799528238555 0.9935743347479986 -0.0642744419913162 0.0051831266369944074 0.02758062794138386
0.1375573155481 0.005398380229506771 0.02884702850615952 0.9932559731573569 -0.06726505606943992 0.0015914024791294254 0.012830751413339468 -0.0013419337958889513 -0.008252535230617556
 0.9932559731573569 -0.06726505606943992 0.00540825771602676 0.028846449705110702 -0.0013436626017992556 -0.008252425048488303 0.0015182720229900408 0.012840258028148772
 0.0015914024791294254 0.012830751413339468 -0.0013436626017992556 -0.008252425048488303 0.00539730898047495 0.02884529293292448 0.993255893677129 -0.06726689840914085
 -0.0013419337958889513 -0.008252535230617556 0.0015182720229900408 0.012840258028148772 0.993255893677129 -0.06726689840914085 0.005409184018580192 0.02884457363613599
0.1438099208003 0.0056310687041719746 0.030105792064382155 0.9929269152335153 -0.07025120990509134 0.0017034137961544032 0.01339871660095129 -0.001432648004627025 -0.008614439897788912
 0.9929269152335153 -0.07025120990509134 0.005641867787658634 0.030105178603496697 -0.0014345361046626695 -0.008614313481427356 0.0016235924632534455 0.013409218244769532
 0.0017034137961544032 0.01339871660095129 -0.0014345361046626695 -0.008614313481427356 0.0056298989192898 0.03010398497329731 0.9929268285104074 -0.0702531368221072
 -0.001432648004627025 -0.008614439897788912 0.0016235924632534455 0.013409218244769532 0.9929268285104074 -0.0702531368221072 0.005642880263949359 0.030103215153021414
0.1500625260525 0.005871284353314824 0.031359188067134336 0.9925873023747619 -0.07323111236555256 0.0018197410860321074 0.013965083750451048 -0.00152682480772013 -0.008974910009264196
 0.9925873023747619 -0.07323111236555256 0.005883046613774617 0.031358538667302184 -0.0015288791418692784 -0.008974765941220224 0.0017329455518004582 0.013976649253288774
 0.0018197410860321074 0.013965083750451048 -0.0015288791418692784 -0.008974765941220224 0.005870011773851586 0.03135731038800989 0.9925872080719685 -0.07323312398436777
 -0.00152682480772013 -0.008974910009264196 0.0017329455518004582 0.013976649253288774 0.9925872080719685 -0.07323312398436777 0.005884149082585309 0.031356487556673154
0.15631513130469998 0.006118960516644253 0.03260715389540781 0.9922372035609758 -0.07620472958911108 0.0019403546144161879 0.014529819972711924 -0.0016244358519655066 -0.009333914851309704
