! Created with skrf 1.8.0 (http://scikit-rf.org).
# GHz S RI R 50.0 
!freq ReS11 ImS11 ReS12 ImS12 ReS13 ImS13
! ReS14 ImS14
! ReS21 ImS21 ReS22 ImS22 ReS23 ImS23
! ReS24 ImS24
! ReS31 ImS31 ReS32 ImS32 ReS33 ImS33
! ReS34 ImS34
! ReS41 ImS41 ReS42 ImS42 ReS43 ImS43
! ReS44 ImS44
!
0.0 0.001280014730204 0.0 0.9987199852698 0.0 4.871263989518e-05 0.0 -4.871263940232e-05 5.965577792207043e-21
 0.9987199852698 0.0 0.001280014730191 0.0 -4.871263940174e-05 5.965577792136013e-21 4.871263989698e-05 0.0
 4.871263989518e-05 0.0 -4.871263940174e-05 5.965577792136013e-21 0.001280014715804 0.0 0.9987199852554 0.0
 -4.871263940232e-05 5.965577792207043e-21 4.871263989698e-05 0.0 0.9987199852554 0.0 0.001280014715824 0.0
0.005 0.0013764951664309725 0.0010516384927044373 0.9985980389067723 -0.0026818926551149744 6.72761588815685e-05 0.0005124189587992178 -6.553732234970412e-05 -0.0003259915474783174
 0.9985980389067723 -0.0026818926551149744 0.001376506873740789 0.0010516316230942718 -6.553822222537045e-05 -0.0003259921733661671 6.720812577125501e-05 0.0005124448877346921
 6.72761588815685e-05 0.0005124189587992178 -6.553822222537045e-05 -0.0003259921733661671 0.0013764953884885982 0.0010517055747565193 0.9985980392453748 -0.0026818255936413905
 -6.553732234970412e-05 -0.0003259915474783174 6.720812577125501e-05 0.0005124448877346921 0.9985980392453748 -0.0026818255936413905 0.00137650732670248 0.0010516986624884363
0.006252605252188 0.0014016082016543997 0.0013186929976811517 0.9985661285124801 -0.003353049402693543 7.247632144658859e-05 0.0006407948083302408 -7.019778055609474e-05 -0.00040791592311563164
 0.9985661285124801 -0.003353049402693543 0.0014016265023566326 0.0013186842451286206 -7.019918137829216e-05 -0.0004079166937490624 7.237002522852482e-05 0.0006408284408877765
 7.247632144658859e-05 0.0006407948083302408 -7.019918137829216e-05 -0.0004079166937490624 0.001401608466841103 0.0013187768288748117 0.998566128959507 -0.0033529655906276764
 -7.019778055609474e-05 -0.00040791592311563164 7.237002522852482e-05 0.0006408284408877765 0.998566128959507 -0.0033529655906276764 0.0014016271276825264 0.0013187680345575388
0.01250521050438 0.0015326974158048957 0.0026651426631793445 0.9983986062181475 -0.006707052192352607 0.00010175219865879093 0.0012820799114628793 -9.615866740481999e-05 -0.0008179018111225265
 0.9983986062181475 -0.006707052192352607 0.0015327704945715102 0.002665123484861546 -9.616419472622078e-05 -0.0008179032247759031 0.0001013283036437413 0.001282160214079422
 0.00010175219865879093 0.0012820799114628793 -9.616419472622078e-05 -0.0008179032247759031 0.0015326979281060317 0.0026653100237718406 0.998398607450558 -0.00670688479819683
 -9.615866740481999e-05 -0.0008179018111225265 0.0001013283036437413 0.001282160214079422 0.998398607450558 -0.00670688479819683 0.001532772430676828 0.002665290878208446
0.01875781575657 0.0016735289284274914 0.004030964867973076 0.9982172385897907 -0.010070206551963747 0.0001366021090805892 0.0019242800418364657 -0.00012666632757027293 -0.001229424183091067
 0.9982172385897907 -0.010070206551963747 0.0016736931480221798 0.004030933470597459 -0.0001266786635617095 -0.001229426089356409 0.0001356498475231431 0.0019244222794211178
 0.0001366021090805892 0.0019242800418364657 -0.0001266786635617095 -0.001229426089356409 0.0016735296725006305 0.004031215577683299 0.9982172409399024 -0.010069955669284099
 -0.00012666632757027293 -0.001229424183091067 0.0001356498475231431 0.0019244222794211178 0.9982172409399024 -0.010069955669284099 0.0016736970629398198 0.00403118440591298
0.02501042100875 0.0018243440380907396 0.0054142977097229325 0.9980218398668941 -0.013444182315070078 0.00017708890392836336 0.0025674392200276826 -0.00016179020322996683 -0.001642327104057025
 0.9980218398668941 -0.013444182315070078 0.0018246356907865161 0.005414252190665889 -0.00016181200165251501 -0.0016423293271574948 0.00017539739547752238 0.0025676607865278986
 0.00017708890392836336 0.0025674392200276826 -0.00016181200165251501 -0.0016423293271574948 0.0018243450062847145 0.0054146316057818705 0.998021843667717 -0.013443848004358747
 -0.00016179020322996683 -0.001642327104057025 0.00017539739547752238 0.0025676607865278986 0.998021843667717 -0.013443848004358747 0.001824642242519209 0.005414586626644917
0.03126302626094 0.0019853738247284603 0.006814203584292468 0.9978122134716279 -0.016829718866758537 0.0002232760996520122 0.0032115460725792673 -0.00020159821055005164 -0.0020565068107436402
 0.9978122134716279 -0.016829718866758537 0.001985829149418029 0.006814141933515586 -0.00020163210177894843 -0.002056509149143606 0.00022063414505502375 0.003211866501006412
 0.0002232760996520122 0.0032115460725792673 -0.00020163210177894843 -0.002056509149143606 0.0019853750159914622 0.006814620516773537 0.9978122190566368 -0.016829301159822518
 -0.00020159821055005164 -0.0020565068107436402 0.00022063414505502375 0.003211866501006412 0.9978122190566368 -0.016829301159822518 0.0019858389859609745 0.0068145598451108905
0.037515631513130004 0.0021568445677748495 0.008230086736098347 0.9975881575326436 -0.02022720754390233 0.0002752272828359474 0.0038565676110188024 -0.0002461572093200719 -0.0024718779177058297
 0.9975881575326436 -0.02022720754390233 0.0021574997606747933 0.00823000683696522 -0.0002462058028778684 -0.0024718801439497996 0.00027142326630155624 0.003857008594452671
 0.0002752272828359474 0.0038565676110188024 -0.0002462058028778684 -0.0024718801439497996 0.0021568459861527733 0.008230586548301652 0.9975881652348794 -0.020226706463243455
 -0.0002461572093200719 -0.0024718779177058297 0.00027142326630155624 0.003857008594452671 0.9975881652348794 -0.020226706463243455 0.0021575135194511364 0.008230508195972458
0.043768236765320004 0.002338979843198018 0.00966151599560503 0.9973494670899857 -0.02363686884175756 0.0003330058359903651 0.004502459509654291 -0.00029553318139253153 -0.0028883631269325254
 0.9973494670899857 -0.02363686884175756 0.002339871065485267 0.009661415625388463 -0.00029559906747445155 -0.0028883649875383124 0.000327827673662944 0.004503044925722367
 0.0003330058359903651 0.004502459509654291 -0.00029559906747445155 -0.0028883649875383124 0.0023389814991116435 0.009662098528364131 0.9973494772438574 -0.023636284395994352
 -0.00029553318139253153 -0.0028883631269325254 0.000327827673662944 0.004503044925722367 0.9973494772438574 -0.023636284395994352 0.002339889375017362 0.00966200040493896
0.050020842017509996 0.002532001509314044 0.011108151542291899 0.9970959351906662 -0.027058825592827053 0.00039667478086824226 0.005149170335334653 -0.00034979130079900166 -0.0033058889866477313
 0.9970959351906662 -0.027058825592827053 0.0025331648937760576 0.011108028372484813 -0.00034987705119970323 -0.003305890202031368 0.00038990989440491745 0.0051499262721271186
 0.00039667478086824226 0.005149170335334653 -0.00034987705119970323 -0.003305890202031368 0.002532003418202433 0.011108816628283957 0.9970959481314356 -0.027058157782231494
 -0.00034979130079900166 -0.0033058889866477313 0.00038990989440491745 0.0051499262721271186 0.9970959481314356 -0.027058157782231494 0.002533188373006291 0.01110869654147543
0.055454545454549996 0.0027087556655168697 0.012377449137537374 0.9968633934479768 -0.030042643692205277 0.00045683733577627574 0.005711802966231527 -0.0004009581815188498 -0.0036695210372337562
 0.9968633934479768 -0.030042643692205277 0.0027101848935467327 0.01237730418106215 -0.00040106326941304174 -0.0036695214445215106 0.00044852050479058124 0.005712730014199401
 0.00045683733577627574 0.005711802966231527 -0.00040106326941304174 -0.0036695214445215106 0.0027087578098242346 0.012378185817454724 0.9968634090827693 -0.03004190343375519
 -0.0004009581815188498 -0.0036695210372337562 0.00044852050479058124 0.005712730014199401 0.9968634090827693 -0.03004190343375519 0.002710213360043955 0.012378044784458352
0.056273447269699996 0.0027361302237975723 0.012569708944670011 0.9968273535185405 -0.030493138868637894 0.000466296669510003 0.005796643634166558 -0.0004089959604316484 -0.0037243837943708342
 0.9968273535185405 -0.030493138868637894 0.0027376018804059574 0.012569560541067788 -0.00040910412917760387 -0.0037243840587818707 0.0004577319735945389 0.005797598416861363
 0.000466296669510003 0.005796643634166558 -0.00040910412917760387 -0.0037243840587818707 0.002736132405128403 0.012570456403497103 0.9968273695815261 -0.030492387689858954
 -0.0004089959604316484 -0.0037243837943708342 0.0004577319735945389 0.005797598416861363 0.9968273695815261 -0.030492387689858954 0.0027376311380741857 0.01257031205940601
0.06252605252188 0.00295158573119811 0.014045939386125281 0.9965435127959869 -0.03393982769590266 0.0005419335022796165 0.006444819062563225 -0.0004732107724574024 -0.004143776457015386
 0.9965435127959869 -0.03393982769590266 0.002953401752141807 0.014045763208901291 -0.0004733438962209255 -0.004143775438476338 0.0005313554022465217 0.006446003280391935
 0.0005419335022796165 0.006444819062563225 -0.0004733438962209255 -0.004143775438476338 0.002951588209799519 0.014046769030238757 0.9965435323186498 -0.03393899313580855
 -0.0004732107724574024 -0.004143776457015386 0.0005313554022465217 0.006446003280391935 0.9965435323186498 -0.03393899313580855 0.002953437388506164 0.014046598033503799
0.06877865777407 0.0031785870289426227 0.015536617887066687 0.9962442030675099 -0.037398880777658974 0.0006236466590116144 0.007093633067898816 -0.0005424985562470974 -0.004563995802911316
 0.9962442030675099 -0.037398880777658974 0.0031807834934747797 0.01553641129061529 -0.0005426591546034685 -0.0045639931431715125 0.0006108410549896733 0.007095079601281073
 0.0006236466590116144 0.007093633067898816 -0.0005426591546034685 -0.0045639931431715125 0.0031785898338673076 0.015537529515587999 0.9962442263887862 -0.03739796281931941
 -0.0005424985562470974 -0.004563995802911316 0.0006108410549896733 0.007095079601281073 0.9962442263887862 -0.03739796281931941 0.003180826099711378 0.015537329369388371
0.07503126302626001 0.0034173524603562603 0.01704153582342452 0.9959292139113959 -0.04087026391923804 0.0007114968390238258 0.007743019315610905 -0.0006169213169842551 -0.004984970148998425
 0.9959292139113959 -0.04087026391923804 0.0034199654394952393 0.01704129605612332 -0.0006171118925671039 -0.004984965463487051 0.0006962491352517114 0.007744763363323784
 0.0007114968390238258 0.007743019315610905 -0.0006171118925671039 -0.004984965463487051 0.0034173556235488605 0.01704252922852904 0.9959292413711323 -0.0408692625354302
 -0.0006169213169842551 -0.004984970148998425 0.0006962491352517114 0.007744763363323784 0.9959292413711323 -0.0408692625354302 0.0034200155967684166 0.017042297334401654
0.08128386827845 0.003668099759967192 0.01856049595973309 0.9955983346069986 -0.044353924941354234 0.0008055440059410823 0.008392908973610159 -0.0006965402191363598 -0.005406627012453474
 0.9955983346069986 -0.044353924941354234 0.0036711653209002787 0.018560220163636273 -0.0006967632577247563 -0.005406619890233203 0.0007876391236737682 0.00839498807993528
 0.0008055440059410823 0.008392908973610159 -0.0006967632577247563 -0.005406619890233203 0.0036681033169763265 0.018561570920353675 0.9955983665469388 -0.04435284010071682
 -0.0006965402191363598 -0.005406627012453474 0.0007876391236737682 0.00839498807993528 0.9955983665469388 -0.04435284010071682 0.0036712236014920063 0.01856130457800704
0.08753647353064001 0.003931046071149608 0.020093309002005427 0.9952513542757303 -0.04784979707527167 0.0009058473356620008 0.009043230908437816 -0.0007814155558848282 -0.005828892912381069
 0.9952513542757303 -0.04784979707527167 0.003934600281722797 0.02009299421231089 -0.0007816735264331275 -0.005828882916113905 0.0008850697293882816 0.00904568499020089
 0.0009058473356620008 0.009043230908437816 -0.0007816735264331275 -0.005828882916113905 0.003931050060831621 0.020094465284689403 0.9952513910398388 -0.04784862874121738
 -0.0007814155558848282 -0.005828892912381069 0.0008850697293882816 0.00904568499020089 0.9952513910398388 -0.04784862874121738 0.0039346672490662 0.020094161691538968
0.09378907878283 0.004206407943038521 0.021639791139282626 0.9948880620039874 -0.05135780137104671 0.001012465166453428 0.00969391182585056 -0.0008716067158964855 -0.0062516932289689115
 0.9948880620039874 -0.05135780137104671 0.0042104868760945175 0.021639434283781792 -0.0008719020705093901 -0.00625167989487707 0.0009885988424190534 0.009696783199315318
 0.001012465166453428 0.00969391182585056 -0.0008719020705093901 -0.00625167989487707 0.004206412406426262 0.02164102849826508 0.9948881039379425 -0.05135654950161218
 -0.0008716067158964855 -0.0062516932289689115 0.0009885988424190534 0.009696783199315318 0.9948881039379425 -0.05135654950161218 0.00421056308405709 0.021640684748989086
0.100041684035 0.004494401310745432 0.023199762235323572 0.9945082469510572 -0.05487784845778961 0.001125454950513562 0.01034487637607554 -0.0009671721477289474 -0.006674952099906026
 0.9945082469510572 -0.05487784845778961 0.0044990410483918735 0.023199360133665217 -0.000967507321572985 -0.006674934937751391 0.001098283487442469 0.01034820978366948
 0.001125454950513562 0.01034487637607554 -0.000967507321572985 -0.006674934937751391 0.004494406291051004 0.023201080414535846 0.9945082944029587 -0.05487651300347132
 -0.0009671721477289474 -0.006674952099906026 0.001098283487442469 0.01034820978366948 0.9945082944029587 -0.05487651300347132 0.0044991270418527326 0.023200693500388805
0.1059090909091 0.0047763325365880495 0.02467573928730214 0.9941366158597679 -0.058191904478008066 0.0012373294583440935 0.010955926666144221 -0.0010617892182821476 -0.007072483977571028
 0.9941366158597679 -0.058191904478008066 0.004781531358426337 0.024675291737318986 -0.0010621639578738146 -0.0070724627537183 0.0012068592793787187 0.010959736520994226
 0.0012373294583440935 0.010955926666144221 -0.0010621639578738146 -0.0070724627537183 0.0047763380432607845 0.024677133062966955 0.9941366688085996 -0.05819049053901646
 -0.0010617892182821476 -0.007072483977571028 0.0012068592793787187 0.010959736520994226 0.9941366688085996 -0.05819049053901646 0.004781627022240751 0.024676702813917636
0.1062942892872 0.004795241466480866 0.024773044470860178 0.994111698451147 -0.058409839855628545 0.0012448732063324458 0.010996047230036 -0.001068169322466419 -0.007098592347897335
 0.994111698451147 -0.058409839855628545 0.00480047810473069 0.02477259383365582 -0.0010685467337252033 -0.007098570840946499 0.0012141797782652555 0.010999889866857421
 0.0012448732063324458 0.010996047230036 -0.0010685467337252033 -0.007098570840946499 0.004795247009158139 0.024774443200944317 0.994111751771765 -0.0584084207622701
 -0.001068169322466419 -0.007098592347897335 0.0012141797782652555 0.010999889866857421 0.994111751771765 -0.0584084207622701 0.004800574419680189 0.02477401000897113
0.11254689453939999 0.005109143022248003 0.02635946130284584 0.9936982061073351 -0.06195366897282507 0.0013707754717581222 0.01164734514433153 -0.0011746546953299386 -0.007522535421458269
 0.9936982061073351 -0.06195366897282507 0.00511501267508703 0.026358958730748214 -0.0011750767450448508 -0.007522509026470651 0.0013363428720638596 0.011651746684380647
 0.0013707754717581222 0.01164734514433153 -0.0011750767450448508 -0.007522509026470651 0.005109149173921672 0.02636094030287866 0.9936982656500037 -0.06195216617973345
 -0.0011746546953299386 -0.007522535421458269 0.0013363428720638596 0.011651746684380647 0.9936982656500037 -0.06195216617973345 0.005115119838278498 0.02636045761498534
0.11879949979160001 0.005436319864911764 0.027958836648255613 0.9932675598813789 -0.06550922188071837 0.0015032162573103268 0.012298689008812017 -0.0012866836658444677 -0.007946701355265293
 0.9932675598813789 -0.06550922188071837 0.005442858668804941 0.027958278630775005 -0.0012871527377829241 -0.007946669502474208 0.0014648269244106106 0.012303701631042276
 0.0015032162573103268 0.012298689008812017 -0.0012871527377829241 -0.007946669502474208 0.005436326673234713 0.027960395622747818 0.9932676260024039 -0.06550763532366931
 -0.0012866836658444677 -0.007946701355265293 0.0014648269244106106 0.012303701631042276 0.9932676260024039 -0.06550763532366931 0.005442977197903765 0.027959860114620226
0.1250521050438 0.00577698510735491 0.02957099424094458 0.992819550181205 -0.06907637791833894 0.0016422489996411448 0.012949995887982348 -0.0014043105372235707 -0.00837100873891242
 0.992819550181205 -0.06907637791833894 0.00578422922556372 0.029570377155183413 -0.001404828997717098 -0.008370970832014995 0.0015996850441764045 0.012955674301916357
 0.0016422489996411448 0.012949995887982348 -0.001404828997717098 -0.008370970832014995 0.005776992620732152 0.029572632884096384 0.992819623240033 -0.06907470752512089
 -0.0014043105372235707 -0.00837100873891242 0.0015996850441764045 0.012955674301916357 0.992819623240033 -0.06907470752512089 0.0057843596292484365 0.029572041123996893
0.131304710296 0.006131351034653416 0.03119575711295883 0.992353967945058 -0.07265501017471394 0.0017879260152615522 0.01360118105766005 -0.001527588474950571 -0.008795374692565498
 0.992353967945058 -0.07265501017471394 0.006139336661902312 0.03119507722219465 -0.001528158672752085 -0.008795330108717012 0.001740969248260477 0.013607582528866043
 0.0017879260152615522 0.01360118105766005 -0.001528158672752085 -0.008795330108717012 0.006131359301691601 0.031197475104492476 0.9923540483043959 -0.07265325586934182
 -0.001527588474950571 -0.008795374692565498 0.001740969248260477 0.013607582528866043 0.9923540483043959 -0.07265325586934182 0.006139479439459214 0.031196823551885727
0.1375573155481 0.006412091532696852 0.03262163770775415 0.9919581657718461 -0.07603361747944587 0.0019203640177118187 0.01423074439359048 -0.0016366899505039266 -0.009198271146703008
 0.9919581657718461 -0.07603361747944587 0.006420856694103441 0.03262090696716813 -0.001637315139644658 -0.009198219906897606 0.0018689035568053311 0.014237853307651213
 0.0019203640177118187 0.01423074439359048 -0.001637315139644658 -0.009198219906897606 0.0064120997987784124 0.03262343521145043 0.9919582537611668 -0.0760317792376972
 -0.0016366899505039266 -0.009198271146703008 0.0018689035568053311 0.014237853307651213 0.9919582537611668 -0.0760317792376972 0.006421013208731255 0.03262273514148344
0.1438099208003 0.006702496594792166 0.03404105489267872 0.9915488380347119 -0.07940470055686344 0.0020581516914758707 0.014858292428863681 -0.0017501596737693583 -0.009599333939903589
 0.9915488380347119 -0.07940470055686344 0.006712077788831597 0.03404027064786296 -0.0017508423409443113 -0.009599275443693631 0.0020019883601405846 0.01486616054840513
 0.0020581516914758707 0.014858292428863681 -0.0017508423409443113 -0.009599275443693631 0.006702504763357393 0.03404293162898051 0.9915489340143522 -0.07940277830782977
 -0.0017501596737693583 -0.009599333939903589 0.0020019883601405846 0.01486616054840513 0.9915489340143522 -0.07940277830782977 0.0067122486839334815 0.03404218049238016
0.1500625260525 0.007002476878072442 0.03545392082019345 0.9911260771031309 -0.08276820670174448 0.0022012488828969086 0.015483779104703015 -0.0018679589608214164 -0.009998519498852429
 0.9911260771031309 -0.08276820670174448 0.007012910641361567 0.035453080280218784 -0.0018687015868445109 -0.00999845312206492 0.0021401844706179446 0.015492460066369472
 0.0022012488828969086 0.015483779104703015 -0.0018687015868445109 -0.00999845312206492 0.007002484843423798 0.035455876501616954 0.9911261814359905 -0.08276620037023366
 -0.0018679589608214164 -0.009998519498852429 0.0021401844706179446 0.015492460066369472 0.9911261814359905 -0.08276620037023366 0.007013096562266963 0.035455071613584355
0.15631513130469998 0.007311942559846812 0.03686015046784355 0.990689975644942 -0.08612408281306153 0.0023496150510777993 0.016107159016103913 -0.001990048732695616 -0.010395785081830847
