! Created with skrf 1.8.0 (http://scikit-rf.org).
# GHz S RI R 50.0 
!freq ReS11 ImS11 ReS12 ImS12 ReS13 ImS13
! ReS14 ImS14
! ReS21 ImS21 ReS22 ImS22 ReS23 ImS23
! ReS24 ImS24
! ReS31 ImS31 ReS32 ImS32 ReS33 ImS33
! ReS34 ImS34
! ReS41 ImS41 ReS42 ImS42 ReS43 ImS43
! ReS44 ImS44
!
0.0 0.00148163710698 0.0 0.998518362893 0.0 5.740220332192e-05 0.0 -5.740220225519e-05 7.029742325582742e-21
 0.998518362893 0.0 0.00148163710698 0.0 -5.740220225425e-05 7.029742325467624e-21 5.740220331919e-05 0.0
 5.740220332192e-05 0.0 -5.740220225425e-05 7.029742325467624e-21 0.001481637084221 0.0 0.9985183628703 0.0
 -5.740220225519e-05 7.029742325582742e-21 5.740220331919e-05 0.0 0.9985183628703 0.0 0.001481637084263 0.0
0.005 0.0015940244323061556 0.0012056280816087437 0.9983761827152261 -0.0031041841098808794 8.134889203951584e-05 0.0006724499851469371 -7.876464066570516e-05 -0.00041513900113149195
 0.9983761827152261 -0.0031041841098808794 0.0015940317307549445 0.0012056238560743018 -7.876464040026262e-05 -0.0004151390668079885 8.129324868591803e-05 0.0006724710025477828
 8.134889203951584e-05 0.0006724499851469371 -7.876464040026262e-05 -0.0004151390668079885 0.0015940237604399278 0.0012055612547208357 0.9983761823604055 -0.0031042511739191488
 -7.876464066570516e-05 -0.00041513900113149195 8.129324868591803e-05 0.0006724710025477828 0.9983761823604055 -0.0031042511739191488 0.0015940316978408366 0.0012055565592298308
0.006252605252188 0.0016234507984693176 0.00151181535390758 0.9983387251348512 -0.0038810000347618222 8.816916169736053e-05 0.0008408724936381792 -8.477859596862546e-05 -0.0005194726333995895
 0.9983387251348512 -0.0038810000347618222 0.001623462207494076 0.0015118100317857738 -8.477859501961127e-05 -0.0005194727157691526 8.80822217517251e-05 0.0008408998064144454
 8.816916169736053e-05 0.0008408724936381792 -8.477859501961127e-05 -0.0005194727157691526 0.0016234498181629605 0.0015117318448587972 0.9983387246505243 -0.0038810838484454333
 -8.477859596862546e-05 -0.0005194726333995895 8.80822217517251e-05 0.0008408998064144454 0.9983387246505243 -0.0038810838484454333 0.0016234622269327155 0.0015117259231975184
0.01250521050438 0.001778069995226645 0.0030556169071226874 0.9981406231414481 -0.007762889764713092 0.000127169412766407 0.0016819999034145235 -0.00011880733771467167 -0.0010415340704173087
 0.9981406231414481 -0.007762889764713092 0.0017781155514107186 0.003055605874580647 -0.0001188073275853756 -0.0010415342389199912 0.00012682264597094548 0.001682065710012679
 0.000127169412766407 0.0016819999034145235 -0.0001188073275853756 -0.0010415342389199912 0.001778066659873763 0.0030554502134378233 0.9981406217918809 -0.0077630571676914435
 -0.00011880733771467167 -0.0010415340704173087 0.00012682264597094548 0.001682065710012679 0.9981406217918809 -0.0077630571676914435 0.0017781162227074989 0.0030554378533908136
0.01875781575657 0.001945823090829133 0.00462164860115125 0.99792381740132 -0.01165513425414858 0.0001744908395023321 0.002523995860713095 -0.00015959213561477685 -0.0015653841090904515
 0.99792381740132 -0.01165513425414858 0.001945925456539218 0.00462163146524639 -0.00015959210410689236 -0.0015653843704690198 0.00017371170153413385 0.002524113427306262
 0.0001744908395023321 0.002523995860713095 -0.00015959210410689236 -0.0015653843704690198 0.0019458160076818534 0.004621398961345123 0.9979238147898293 -0.011655385156183818
 -0.00015959213561477685 -0.0015653841090904515 0.00017371170153413385 0.002524113427306262 0.9979238147898293 -0.011655385156183818 0.001945927406042711 0.004621379617003741
0.02501042100875 0.0021270292661885273 0.006207714046352808 0.9976880592397254 -0.01555962932494166 0.00023022288350324797 0.0033669115564100376 -0.0002072332808716031 -0.0020907795597674256
 0.9976880592397254 -0.01555962932494166 0.0021272110613298548 0.006207690420884573 -0.0002072332130528768 -0.0020907799235958036 0.00022883866759813485 0.0033670961678367297
 0.00023022288350324797 0.0033669115564100376 -0.0002072332130528768 -0.0020907799235958036 0.0021270170462743105 0.006207381686517172 0.9976880549756311 -0.01555996369651033
 -0.0002072332808716031 -0.0020907795597674256 0.00022883866759813485 0.0033670961678367297 0.9976880549756311 -0.01555996369651033 0.002127214932153584 0.006207354794456169
0.03126302626094 0.002321994440595034 0.007812687024956383 0.9974330869827636 -0.019477191026115954 0.00029445565093558137 0.004210716029795302 -0.00026182822323301744 -0.0026175539290685217
 0.9974330869827636 -0.019477191026115954 0.002322278257440227 0.007812656533522215 -0.00026182810188301545 -0.002617554407791744 0.0002922933321673884 0.004210985003323948
 0.00029445565093558137 0.004210716029795302 -0.00026182810188301545 -0.002617554407791744 0.0023219756896785066 0.007812272193726962 0.9974330806711794 -0.01947760886381872
 -0.00026182822323301744 -0.0026175539290685217 0.0002922933321673884 0.004210985003323948 0.9974330806711794 -0.01947760886381872 0.0023222847009037807 0.007812237175667527
0.037515631513130004 0.002531017942440355 0.009435836324504811 0.9971586328242447 -0.023408230742202264 0.00036727896251892883 0.005055346067796277 -0.00032347233544877937 -0.0031455675171992168
 0.9971586328242447 -0.023408230742202264 0.0025314263561021107 0.009435798602269114 -0.00032347214140178676 -0.003145568126173827 0.0003641651279543483 0.005055718775067209
 0.00036727896251892883 0.005055346067796277 -0.00032347214140178676 -0.003145568126173827 0.002530991265354514 0.009435339311455083 0.997158624069766 -0.023408732050699547
 -0.00032347233544877937 -0.0031455675171992168 0.0003641651279543483 0.005055718775067209 0.997158624069766 -0.023408732050699547 0.0025314360354349343 0.00943529557574966
0.043768236765320004 0.0027543950973240323 0.011076620275005845 0.9968644256129987 -0.02735296058926551 0.0004487819131422146 0.005900721386267452 -0.00039225919111716837 -0.003674692234485635
 0.9968644256129987 -0.02735296058926551 0.0027549506741196897 0.011076574970062827 -0.000392258903376949 -0.0036746929920377746 0.00044454272913469015 0.005901219277712433
 0.0004487819131422146 0.005900721386267452 -0.000392258903376949 -0.0036746929920377746 0.002754359096721768 0.011076041389163328 0.996864414017792 -0.027353545403264172
 -0.00039225919111716837 -0.003674692234485635 0.00044454272913469015 0.005901219277712433 0.996864414017792 -0.027353545403264172 0.0027549642639084697 0.011075988331651942
0.050020842017509996 0.002992418428255784 0.012734601823845284 0.9965501922549815 -0.03131147827149729 0.0005390526109502028 0.006746750899832538 -0.0004682806698690043 -0.004204805331444171
 0.9965501922549815 -0.03131147827149729 0.002993143733865872 0.012734548598247455 -0.0004682802659129582 -0.004204806258930259 0.0005335138099823902 0.006747397530089788
 0.0005390526109502028 0.006746750899832538 -0.0004682802659129582 -0.004204806258930259 0.002992371706171507 0.01273394141495566 0.9965501774189084 -0.03131214663481517
 -0.0004682806698690043 -0.004204805331444171 0.0005335138099823902 0.006747397530089788 0.9965501774189084 -0.03131214663481517 0.002993161920264799 0.012733878419612535
0.055454545454549996 0.0032113879434492996 0.014189112907108897 0.9962606373164695 -0.03476276820027555 0.0006246886181862809 0.007482430883869606 -0.0005402911445595278 -0.004666198769138792
 0.9962606373164695 -0.03476276820027555 0.003212279079305952 0.014189052535196532 -0.0005402906201929771 -0.004666199864035911 0.0006178785458648639 0.007483227555611503
 0.0006246886181862809 0.007482430883869606 -0.0005402906201929771 -0.004666199864035911 0.0032113307680019746 0.014188381961105683 0.9962606193360927 -0.03476350922022129
 -0.0005402911445595278 -0.004666198769138792 0.0006178785458648639 0.007483227555611503 0.9962606193360927 -0.03476350922022129 0.003212301826425728 0.014188309820257278
0.056273447269699996 0.0032453782756629245 0.014409406856477168 0.9962156585387582 -0.03528380869279118 0.0006381779946663182 0.007593335793185134 -0.0005516269866820389 -0.004735786330214855
 0.9962156585387582 -0.03528380869279118 0.0032462958819976196 0.014409345387015366 -0.0005516264425353283 -0.004735787452067577 0.0006311648737761122 0.007594156846978622
 0.0006381779946663182 0.007593335793185134 -0.0005516264425353283 -0.004735787452067577 0.003245319433071068 0.01440866530546785 0.9962156400577337 -0.035284560668284
 -0.0005516269866820389 -0.004735786330214855 0.0006311648737761122 0.007594156846978622 0.9962156400577337 -0.035284560668284 0.003246319362587507 0.014408591744776239
0.06252605252188 0.0035135631302409013 0.016100701281892213 0.9958605496767319 -0.03926992680590006 0.0007462436909438585 0.008440371215634599 -0.0006423866810268327 -0.005267515336022511
 0.9958605496767319 -0.03926992680590006 0.0035146956224149767 0.0161006312606728 -0.0006423859714201422 -0.005267516679810916 0.0007375811181061517 0.008441394533830169
 0.0007462436909438585 0.008440371215634599 -0.0006423859714201422 -0.005267516679810916 0.003513490768084069 0.016099879011659723 0.9958605271431935 -0.03927076246503478
 -0.0006423866810268327 -0.005267515336022511 0.0007375811181061517 0.008441394533830169 0.9958605271431935 -0.03927076246503478 0.003514725106797062 0.01609979424674597
0.06877865777407 0.0037972598104084087 0.017808177385426855 0.995484590695766 -0.04326977119724553 0.0008633338927627432 0.00928774729125562 -0.0007406465844776106 -0.005799872036722132
 0.995484590695766 -0.04326977119724553 0.003798629793819841 0.017808098520279397 -0.0007406456829856219 -0.0057998736332048545 0.0008528463188392288 0.009289002896884634
 0.0008633338927627432 0.00928774729125562 -0.0007406456829856219 -0.0057998736332048545 0.0037971725305408397 0.017807274849895458 0.9954845636982113 -0.04327069063144097
 -0.0007406465844776106 -0.005799872036722132 0.0008528463188392288 0.009289002896884634 0.9954845636982113 -0.04327069063144097 0.0037986660041244057 0.017807178230485828
0.07503126302626001 0.004096753549160334 0.019531545147306557 0.9950875067396083 -0.047283252709823115 0.0009895312513544731 0.010135349761310157 -0.0008464917738760439 -0.006332735073923782
 0.9950875067396083 -0.047283252709823115 0.004098383656027488 0.019531457161911986 -0.0008464906530625104 -0.006332736957090711 0.000977042726138153 0.01013686988547805
 0.0009895312513544731 0.010135349761310157 -0.0008464906530625104 -0.006332736957090711 0.004096649954636496 0.019530562842264225 0.9950874748612454 -0.04728425601984058
 -0.0008464917738760439 -0.006332735073923782 0.000977042726138153 0.01013686988547805 0.9950874748612454 -0.04728425601984058 0.004098427326613739 0.01953045370646695
0.08128386827845 0.004412328021788687 0.02127052649409019 0.9946690233155951 -0.05131026013696849 0.0011249167754470435 0.010983060416779827 -0.0009600055160227412 -0.006865981628052764
 0.9946690233155951 -0.05131026013696849 0.004414240918101287 0.021270429127966638 -0.0009600041475419023 -0.006865983835178143 0.0011102509670720376 0.010984879524444744
 0.0011249167754470435 0.010983060416779827 -0.0009600041475419023 -0.006865983835178143 0.004412206717666064 0.021269464951811146 0.9946689861346671 -0.0513113474386742
 -0.0009600055160227412 -0.006865981628052764 0.0011102509670720376 0.010984879524444744 0.9946689861346671 -0.0513113474386742 0.004414292796189024 0.021269342625641802
0.08753647353064001 0.00474426533486167 0.023024851312526635 0.9942288665063701 -0.05535066415835543 0.0012695697363741209 0.011830757398019805 -0.001081269205606239 -0.007399487140563895
 0.9942288665063701 -0.05535066415835543 0.004746483726876702 0.02302474432076409 -0.0010812675603296535 -0.007399489712252378 0.0012525499528952425 0.011832912213505471
 0.0012695697363741209 0.011830757398019805 -0.0010812675603296535 -0.007399489712252378 0.0047441249290435476 0.02302371110497785 0.9942288235954496 -0.05535183557969505
 -0.001081269205606239 -0.007399487140563895 0.0012525499528952425 0.011832912213505471 0.9942288235954496 -0.05535183557969505 0.004746544572898361 0.02302357490172632
0.09378907878283 0.005092845990011494 0.0247942546002918 0.9937667631592322 -0.059404320143320144 0.00142356757516764 0.012678315419791574 -0.0012103622994678034 -0.007933125115145245
 0.9937667631592322 -0.059404320143320144 0.005095392631488498 0.02479413775311357 -0.001210360347641966 -0.007933128095370185 0.0014040167890159944 0.012680844951993528
 0.00142356757516764 0.012678315419791574 -0.001210360347641966 -0.007933128095370185 0.005092685094090003 0.024793036337696493 0.9937667140848906 -0.05940557582608924
 -0.0012103622994678034 -0.007933125115145245 0.0014040167890159944 0.012680844951993528 0.9937667140848906 -0.05940557582608924 0.005095463219182175 0.02479288555704737
0.100041684035 0.0054583488279266465 0.026578474381805973 0.9932824410592812 -0.06347107019434717 0.0015869858134828184 0.01352560593576384 -0.001347362246645823 -0.008466766983920774
 0.9932824410592812 -0.06347107019434717 0.00546124652643399 0.026578347463903872 -0.0013473599579575174 -0.008466770420071098 0.00156472668725384 0.013528551503112286
 0.0015869858134828184 0.01352560593576384 -0.0013473599579575174 -0.008466770420071098 0.005458166057693784 0.026577178714886858 0.9932823853812656 -0.06347241029211254
 -0.001347362246645823 -0.008466766983920774 0.00156472668725384 0.013528551503112286 0.9932823853812656 -0.06347241029211254 0.005461327643380352 0.02657701264186831
0.1059090909091 0.00581697188440945 0.028266018766949227 0.9928075069041963 -0.06729904173387018 0.0017489697590541574 0.014320337671784353 -0.0014831805284512124 -0.008967420389726624
 0.9928075069041963 -0.06729904173387018 0.0058202198103885034 0.02826588221497192 -0.0014831778957593686 -0.00896742429988104 0.0017240076048660768 0.014323713301551168
 0.0017489697590541574 0.014320337671784353 -0.0014831778957593686 -0.00896742429988104 0.0058167673332823 0.028264651090426775 0.992807444622633 -0.0673004611982242
 -0.0014831805284512124 -0.008967420389726624 0.0017240076048660768 0.014323713301551168 0.992807444622633 -0.0673004611982242 0.005820311536524628 0.02826447000271666
0.1062942892872 0.0058410509579847145 0.028377250142667534 0.9927756290904561 -0.06755074467663606 0.001759897965187667 0.014372497271311988 -0.0014923444162677302 -0.009000282010051855
 0.9927756290904561 -0.06755074467663606 0.005844322582279011 0.028377112952261946 -0.0014923417600421177 -0.009000285952958924 0.0017347528793367482 0.014375902526348983
 0.001759897965187667 0.014372497271311988 -0.0014923417600421177 -0.009000285952958924 0.005840844934544169 0.028375877760423922 0.9927755663613034 -0.06755216935712699
 -0.0014923444162677302 -0.009000282010051855 0.0017347528793367482 0.014375902526348983 0.9927755663613034 -0.06755216935712699 0.00584441502983691 0.028375695664146813
0.11254689453939999 0.006241227677641456 0.03019032162798318 0.9922460573896958 -0.07164316338914634 0.0019423754490645426 0.015218854730027175 -0.00164538202368687 -0.009533537221343855
 0.9922460573896958 -0.07164316338914634 0.006244896164425259 0.030190173975721536 -0.001645378968945706 -0.00953354172533206 0.001914166531121703 0.015222765683548179
 0.0019423754490645426 0.015218854730027175 -0.001645378968945706 -0.00953354172533206 0.006240997028048709 0.030188873259211883 0.9922459871545644 -0.07164467283292966
 -0.00164538202368687 -0.009533537221343855 0.001914166531121703 0.015222765683548179 0.9922459871545644 -0.07164467283292966 0.006245000758474278 0.030188674391300234
0.11879949979160001 0.006659152383368338 0.032017427914879174 0.9916934574955263 -0.07574813646671798 0.0021344875026863964 0.016064540684196223 -0.0018065460546925574 -0.010066397364678561
 0.9916934574955263 -0.07574813646671798 0.006663240744363784 0.03201726962246693 -0.0018065425703146217 -0.010066402487577564 0.0021030366576088094 0.01606900572904991
 0.0021344875026863964 0.016064540684196223 -0.0018065425703146217 -0.010066402487577564 0.006658895741564574 0.03201590432902215 0.9916933792913086 -0.07574973086642472
 -0.0018065460546925574 -0.010066397364678561 0.0021030366576088094 0.01606900572904991 0.9916933792913086 -0.07574973086642472 0.006663358315374737 0.032015687921917585
0.1250521050438 0.007095096475069928 0.03385830667675116 0.9911175624920961 -0.07986546509613923 0.0023363010966298467 0.01690941465269658 -0.0019759051886143793 -0.010598724878033075
 0.9911175624920961 -0.07986546509613923 0.007099627803766034 0.033858137575338565 -0.0019759012434279947 -0.010598730681242115 0.002301430038615541 0.016914484587102607
 0.0023363010966298467 0.01690941465269658 -0.0019759012434279947 -0.010598730681242115 0.007094812482532683 0.033856708683636175 0.9911174758470533 -0.07986714465684709
 -0.0019759051886143793 -0.010598724878033075 0.002301430038615541 0.016914484587102607 0.9911174758470533 -0.07986714465684709 0.00709975919730624 0.03385647394858598
0.131304710296 0.007549329253832943 0.035712693594579466 0.990518107149974 -0.0839949420906422 0.0025478808491301635 0.017753333371195647 -0.002153525720559008 -0.011130379875219672
 0.990518107149974 -0.0839949420906422 0.007554326733319729 0.035712513522865065 -0.0021535212835066962 -0.011130386423679795 0.0025094111345682854 0.01775906142162052
 0.0025478808491301635 0.017753333371195647 -0.0021535212835066962 -0.011130386423679795 0.007549016560693189 0.03571102204480581 0.99051801158312 -0.0839967070295335
 -0.002153525720559008 -0.011130379875219672 0.0025094111345682854 0.01775906142162052 0.99051801158312 -0.0839967070295335 0.007554472809929576 0.035710768169668825
0.1375573155481 0.007916736939584829 0.03733677779935406 0.990000246692028 -0.08789270454956728 0.0027424640023105853 0.018571186607543005 -0.002312697732571321 -0.011636239170945018
 0.990000246692028 -0.08789270454956728 0.00792222577811552 0.03733658972324514 -0.0023126929471025434 -0.011636246481381875 0.0027003128904715817 0.018577563231541083
 0.0027424640023105853 0.018571186607543005 -0.0023126929471025434 -0.011636246481381875 0.007916395001632392 0.03733503307528541 0.990000141794671 -0.08789455498423883
 -0.002312697732571321 -0.011636239170945018 0.0027003128904715817 0.018577563231541083 0.990000141794671 -0.08789455498423883 0.007922386463655581 0.03733476315039051
0.1438099208003 0.008297013237076453 0.038952451549905974 0.9894642614647104 -0.09178076560234223 0.0029449248145389604 0.019385899060239836 -0.002478255515350062 -0.012139247933119272
 0.9894642614647104 -0.09178076560234223 0.008303017053224795 0.038952255369718365 -0.002478250381720488 -0.012139256065225285 0.0028989309331683057 0.019392972715352695
 0.0029449248145389604 0.019385899060239836 -0.002478250381720488 -0.012139256065225285 0.008296640862134457 0.038950634490105905 0.9894641467577818 -0.09178270174274782
 -0.002478255515350062 -0.012139247933119272 0.0028989309331683057 0.019392972715352695 0.9894641467577818 -0.09178270174274782 0.008303193060955024 0.038950347831560705
0.1500625260525 0.008690026560305021 0.04055958493130912 0.9889102870069992 -0.09565903423737253 0.0031551959299438172 0.020197392415381155 -0.002650133986779983 -0.012639332467806401
 0.9889102870069992 -0.09565903423737253 0.00869656906947978 0.04055938050840721 -0.0026501285073847465 -0.012639341483431038 0.003105198866054277 0.02020521331293741
 0.0031551959299438172 0.020197392415381155 -0.0026501285073847465 -0.012639341483431038 0.008689622573701093 0.04055769640265729 0.9889101620037537 -0.09566105630497969
 -0.002650133986779983 -0.012639332467806401 0.003105198866054277 0.02020521331293741 0.9889101620037537 -0.09566105630497969 0.00869676111631967 0.04055739226671553
0.15631513130469998 0.009095644412162701 0.042158051979421185 0.988338459523295 -0.09952741965824739 0.003373209213305647 0.021005589633215534 -0.0028282672771045695 -0.01313642061955488
 0.988338459523295 -0.09952741965824739 0.009102749429275761 0.04215783913261961 -0.0028282614564740793 -0.013136430582603484 0.003319049527195052 0.021014209719747715
