! Created with skrf 1.8.0 (http://scikit-rf.org).
# GHz S RI R 50.0 
!freq ReS11 ImS11 ReS12 ImS12 ReS13 ImS13
! ReS14 ImS14
! ReS21 ImS21 ReS22 ImS22 ReS23 ImS23
! ReS24 ImS24
! ReS31 ImS31 ReS32 ImS32 ReS33 ImS33
! ReS34 ImS34
! ReS41 ImS41 ReS42 ImS42 ReS43 ImS43
! ReS44 ImS44
!
0.0 0.001440980442881 0.0 0.9985590195372 0.0 5.529993981735e-05 0.0 -5.529994017334e-05 6.772289472632096e-21
 0.9985590195372 0.0 0.001440980442874 0.0 -5.529994017298e-05 6.772289472588009e-21 5.529993981835e-05 0.0
 5.529993981735e-05 0.0 -5.529994017298e-05 6.772289472588009e-21 0.001440980452819 0.0 0.9985590195472 0.0
 -5.529994017334e-05 6.772289472632096e-21 5.529993981835e-05 0.0 0.9985590195472 0.0 0.001440980452832 0.0
0.005 0.00155006485549415 0.0011811515989217168 0.9984210622352176 -0.0030186519470795734 7.703404190355279e-05 0.0005969536153705018 -7.488273385197985e-05 -0.0003769107166015092
 0.9984210622352176 -0.0030186519470795734 0.0015500855383852818 0.001181139585403624 -7.48831111829352e-05 -0.00037691105998970104 7.690671815614231e-05 0.000597002100470346
 7.703404190355279e-05 0.0005969536153705018 -7.48831111829352e-05 -0.00037691105998970104 0.0015500640391868817 0.0011810848620714394 0.9984210618868593 -0.003018719008555313
 -7.488273385197985e-05 -0.0003769107166015092 7.690671815614231e-05 0.000597002100470346 0.9984210618868593 -0.003018719008555313 0.0015500856663733216 0.0011810722074783195
0.006252605252188 0.0015785883784773384 0.0014810878768803989 0.9983847736897261 -0.0037740653815796603 8.320425553319347e-05 0.0007464916254142339 -8.036981520681304e-05 -0.0004716276263502059
 0.9983847736897261 -0.0037740653815796603 0.0015786207088390814 0.001481072602457979 -8.037040194927847e-05 -0.00047162805092760076 8.300532318992112e-05 0.000746554557810912
 8.320425553319347e-05 0.0007464916254142339 -8.037040194927847e-05 -0.00047162805092760076 0.0015785871737183862 0.0014810044741417605 0.9983847732166752 -0.003774149199590549
 -8.036981520681304e-05 -0.0004716276263502059 8.300532318992112e-05 0.000746554557810912 0.9983847732166752 -0.003774149199590549 0.0015786209809517963 0.0014809883872501956
0.01250521050438 0.001728241925794973 0.002993248630916492 0.9981931784678416 -0.007549006265167521 0.00011838185746155833 0.0014934025889405283 -0.00011127798995024973 -0.0009455821103446747
 0.9981931784678416 -0.007549006265167521 0.0017283710105704033 0.00299321548465382 -0.00011128029714718631 -0.0009455829092084591 0.00011758854638826792 0.0014935534461846995
 0.00011838185746155833 0.0014934025889405283 -0.00011128029714718631 -0.0009455829092084591 0.0017282376727559088 0.0029930821678211 0.9981931771398863 -0.007549173684774251
 -0.00011127798995024973 -0.0009455821103446747 0.00011758854638826792 0.0014935534461846995 0.9981931771398863 -0.007549173684774251 0.0017283726686797456 0.002993047275383178
0.01875781575657 0.0018902510702734129 0.004527016102958789 0.9979840077500745 -0.011334025663879106 0.0001609110884704228 0.0022412273390198544 -0.0001481156862568867 -0.001421208753720748
 0.9979840077500745 -0.011334025663879106 0.001890541108823406 0.004526962301776794 -0.00014812082432935162 -0.0014212098691400031 0.0001591289648600342 0.002241495769302319
 0.0001609110884704228 0.0022412273390198544 -0.00014812082432935162 -0.0014212098691400031 0.001890241924860598 0.004526766858199212 0.9979840051822505 -0.011334276613099695
 -0.0001481156862568867 -0.001421208753720748 0.0001591289648600342 0.002241495769302319 0.9979840051822505 -0.011334276613099695 0.001890545273425506 0.004526710225397035
0.02501042100875 0.002064917524610647 0.006080266730640627 0.9977570269448873 -0.015130975287768574 0.0002108718128014757 0.002990002439594779 -0.00019097152339947799 -0.0018983061578200183
 0.9977570269448873 -0.015130975287768574 0.0020654325738913397 0.0060801893271055325 -0.0001909805872894068 -0.001898307523352218 0.00020770626136080365 0.0029904225707256295
 0.0002108718128014757 0.002990002439594779 -0.0001909805872894068 -0.001898307523352218 0.0020649016467003682 0.006079934992022036 0.9977570227534738 -0.015131309765984528
 -0.00019097152339947799 -0.0018983061578200183 0.00020770626136080365 0.0029904225707256295 0.9977570227534738 -0.015131309765984528 0.002065440379185783 0.0060798534901090025
0.03126302626094 0.002252530464432112 0.007651916692642447 0.9975119888915827 -0.01894065837454742 0.0002683445572141694 0.0037396974743859547 -0.00023993184923342125 -0.0023767352256365824
 0.9975119888915827 -0.01894065837454742 0.002253334472511996 0.007651812579321864 -0.00023994592099633105 -0.0023767367660033566 0.00026340040811312864 0.003740307938053697
 0.0002683445572141694 0.0037396974743859547 -0.00023994592099633105 -0.0023767367660033566 0.0022525060125244516 0.007651502797289371 0.9975119826878396 -0.018941076412762582
 -0.00023993184923342125 -0.0023767352256365824 0.00026340040811312864 0.003740307938053697 0.9975119826878396 -0.018941076412762582 0.0022533470622663606 0.007651393107632244
0.037515631513130004 0.002453372930404725 0.009241266108965715 0.9972486404309671 -0.022763485431494153 0.00033340968304730346 0.004490255651809055 -0.0002950813488596927 -0.002856378543082773
 0.9972486404309671 -0.022763485431494153 0.0024545297590753017 0.009241132020622952 -0.0002951014991438889 -0.002856380174164791 0.00032629104171447826 0.004491099628336841
 0.00033340968304730346 0.004490255651809055 -0.0002951014991438889 -0.002856380174164791 0.0024533380651018902 0.009240770445628163 0.9972486318227692 -0.022763987090434316
 -0.0002950813488596927 -0.002856378543082773 0.00032629104171447826 0.004491099628336841 0.9972486318227692 -0.022763987090434316 0.002454548289458889 0.00924062906159592
0.043768236765320004 0.0026677243117169064 0.010847799501090574 0.9969667250594649 -0.026599673708731144 0.000406147003887736 0.005241606150559451 -0.00035650326443447154 -0.00333712802518649
 0.9969667250594649 -0.026599673708731144 0.0026692977535121764 0.01084763201621941 -0.00035653055332029163 -0.0033371296540479125 0.00039645716718131715 0.00524273142008173
 0.000406147003887736 0.005241606150559451 -0.00035653055332029163 -0.0033371296540479125 0.002667677195960234 0.01084722251144996 0.9969667136501816 -0.02660025907812665
 -0.00035650326443447154 -0.00333712802518649 0.00039645716718131715 0.00524273142008173 0.9969667136501816 -0.02660025907812665 0.002669323393515604 0.010847045739443135
0.050020842017509996 0.002895861498613917 0.012471103300625147 0.9966659842575643 -0.0304493296220958 0.0004866355577616736 0.005993669220487467 -0.00042427947893937054 -0.003818879809881441
 0.9966659842575643 -0.0304493296220958 0.0028979152914857024 0.01247089884235911 -0.00042431495650181256 -0.003818881334814347 0.00047397697604976 0.005995128216725998
 0.0004866355577616736 0.005993669220487467 -0.00042431495650181256 -0.003818881334814347 0.002895800297559291 0.012470445482286645 0.9966659696444238 -0.030449998818191187
 -0.00042427947893937054 -0.003818879809881441 0.00047397697604976 0.005995128216725998 0.9966659696444238 -0.030449998818191187 0.002897949222770162 0.012470229442138457
0.055454545454549996 0.003105529000665312 0.013895148534612054 0.9963891411175623 -0.033805763896273766 0.0005629381843802757 0.006647746712251237 -0.0004884021199318052 -0.004238271358879199
 0.9963891411175623 -0.033805763896273766 0.003108051964136522 0.013894908920261113 -0.0004884455591076696 -0.004238272704100817 0.0005473761489957901 0.006649541965303673
 0.0005629381843802757 0.006647746712251237 -0.0004884455591076696 -0.004238272704100817 0.0031054540732968552 0.013894420928260997 0.9963891233892233 -0.03380650604860877
 -0.0004884021199318052 -0.004238271358879199 0.0005473761489957901 0.006649541965303673 0.9963891233892233 -0.03380650604860877 0.0031080940720480906 0.013894167467000415
0.056273447269699996 0.00313805948162854 0.01411082537628061 0.9963461582680753 -0.034312489157878476 0.000574953449171258 0.006746358679789715 -0.0004984905374840224 -0.0043015317581466175
 0.9963461582680753 -0.034312489157878476 0.0031406573226014116 0.014110580212948927 -0.000498535244293816 -0.0043015330686967624 0.0005589277161178746 0.006748208545058342
 0.000574953449171258 0.006746358679789715 -0.000498535244293816 -0.0043015330686967624 0.0031379823662969833 0.014110087287979812 0.9963461400436675 -0.03431324231866324
 -0.0004984905374840224 -0.0043015317581466175 0.0005589277161178746 0.006748208545058342 0.9963461400436675 -0.03431324231866324 0.003140700742114509 0.014109827913151619
0.06252605252188 0.003394591680041357 0.01576665276379923 0.9960069866065508 -0.038189140076452674 0.0006711777262916733 0.007499583288960464 -0.0005792156367616924 -0.0047849820802304075
 0.9960069866065508 -0.038189140076452674 0.003397797237589019 0.015766363009028492 -0.0005792706041314789 -0.004784983057246551 0.0006513855866920499 0.007501885929651638
 0.0006711777262916733 0.007499583288960464 -0.0005792706041314789 -0.004784983057246551 0.003394496824932924 0.015765835024107284 0.9960069643547748 -0.038189977363397444
 -0.0005792156367616924 -0.0047849820802304075 0.0006513855866920499 0.007501885929651638 0.9960069643547748 -0.038189977363397444 0.003397851355497559 0.015765528061291344
0.06877865777407 0.003665730115965643 0.01743829841497246 0.9956482084209457 -0.04207923509894628 0.0007753842762719126 0.008253247572694708 -0.0006665325972649145 -0.005269128516921387
 0.9956482084209457 -0.04207923509894628 0.003669607041985539 0.017437960027569147 -0.0006665988475339466 -0.005269129032596238 0.0007514256468373693 0.00825606971490323
 0.0007753842762719126 0.008253247572694708 -0.0006665988475339466 -0.005269129032596238 0.0036656157033808823 0.017437401696565758 0.9956481817197393 -0.042080156703213106
 -0.0006665325972649145 -0.005269128516921387 0.0007514256468373693 0.00825606971490323 0.9956481817197393 -0.042080156703213106 0.0036696730852012467 0.017437042705073364
0.07503126302626001 0.003951745507256569 0.01912549276248034 0.9952695627739696 -0.0459827002812912 0.0008876477330383478 0.009007252337590607 -0.0007605178232030658 -0.005753867828199168
 0.9952695627739696 -0.0459827002812912 0.003956357449147855 0.01912510154588684 -0.0007605963699542361 -0.0057538677461064554 0.0008591217328199911 0.009010665582621097
 0.0008876477330383478 0.009007252337590607 -0.0007605963699542361 -0.0057538677461064554 0.003951609725821153 0.01912451780230192 0.9952695311914543 -0.045983706413887854
 -0.0007605178232030658 -0.005753867828199168 0.0008591217328199911 0.009010665582621097 0.9952695311914543 -0.045983706413887854 0.003956436659293417 0.019124102153097403
0.08128386827845 0.004252907299884232 0.020827978138025813 0.9948707888666654 -0.049899440537999086 0.001008041391218152 0.00976149502393587 -0.0008612462560893213 -0.006239095451097283
 0.9948707888666654 -0.049899440537999086 0.004258317911903661 0.02082752973942386 -0.0008613381042883679 -0.006239094626230349 0.000974546379259927 0.009765575903521784
 0.001008041391218152 0.00976149502393587 -0.0008613381042883679 -0.006239094626230349 0.004252748347387315 0.020826925734740306 0.9948707519623455 -0.049900531432700325
 -0.0008612462560893213 -0.006239095451097283 0.000974546379259927 0.009765575903521784 0.9948707519623455 -0.049900531432700325 0.004258411547798827 0.020826448609117653
0.08753647353064001 0.00456948366756643 0.022545504887494572 0.9944516262341925 -0.053829343472613256 0.0011366371250990774 0.010515869947038207 -0.0009687913224429419 -0.0067247052714619875
 0.9944516262341925 -0.053829343472613256 0.004575756622501307 0.022544994796608694 -0.0009688974685721765 -0.006724703550282861 0.0010977707442820011 0.010520699978136837
 0.0011366371250990774 0.010515869947038207 -0.0009688974685721765 -0.006724703550282861 0.004569299751560394 0.022544375898695842 0.9944515835572844 -0.05383051938904756
 -0.0009687913224429419 -0.0067247052714619875 0.0010977707442820011 0.010520699978136837 0.9944515835572844 -0.05383051938904756 0.004575865960244836 0.02254383228656851
0.09378907878283 0.004901741484072856 0.024277828612764212 0.9940118149154594 -0.05777228208511328 0.001273505310074943 0.011270268476376242 -0.001083224878370136 -0.00721058946141449
 0.9940118149154594 -0.05777228208511328 0.004908940484875104 0.024277252160211406 -0.0010833463105901983 -0.0072105866818795925 0.0012288645358348577 0.011275934215449191
 0.001273505310074943 0.011270268476376242 -0.0010833463105901983 -0.0072105866818795925 0.004901530823047359 0.02427662395980772 0.9940117660042984 -0.05777354330420429
 -0.001083224878370136 -0.00721058946141449 0.0012288645358348577 0.011275934215449191 0.9940117660042984 -0.05777354330420429 0.004909066818123302 0.024276008657708816
0.100041684035 0.0052499462783287204 0.026024708134728354 0.9935510956099745 -0.06172811676224224 0.001418714746590035 0.012024579169115378 -0.0012046171508364911 -0.007696638366154168
 0.9935510956099745 -0.06172811676224224 0.005258135069370005 0.02602406049010151 -0.0012047548489915636 -0.007696634357765843 0.001367895940013095 0.012031172265793356
 0.001418714746590035 0.012024579169115378 -0.0012047548489915636 -0.007696634357765843 0.005249707103188206 0.02602342880001553 0.9935510399914498 -0.061729463589092017
 -0.0012046171508364911 -0.007696638366154168 0.001367895940013095 0.012031172265793356 0.9935510399914498 -0.061729463589092017 0.0052582797109508896 0.02602273640865275
0.1059090909091 0.005591438446977701 0.027676994278567787 0.9930995135485586 -0.06545184272382391 0.0015626245165420514 0.012732238214250423 -0.0013249208742920633 -0.00815279416508428
 0.9930995135485586 -0.06545184272382391 0.005600614073175894 0.02767627528897915 -0.0013250747202181849 -0.008152788840974482 0.0015056406792598612 0.012739789475514638
 0.0015626245165420514 0.012732238214250423 -0.0013250747202181849 -0.008152788840974482 0.005591170917457049 0.027675645812755726 0.9930994511940672 -0.06545327018176612
 -0.0013249208742920633 -0.00815279416508428 0.0015056406792598612 0.012739789475514638 0.9930994511940672 -0.06545327018176612 0.0056007771059385135 0.027674875993843634
0.1062942892872 0.005614362175982111 0.027785903972523732 0.9930692098232367 -0.06569669675557785 0.0015723325851576915 0.012778687874057976 -0.0013330366770152185 -0.008182740423983202
 0.9930692098232367 -0.06569669675557785 0.00562360455479783 0.027785180141985773 -0.0013331916128194845 -0.00818273500781703 0.0015149315496192774 0.012786305124125812
 0.0015723325851576915 0.012778687874057976 -0.0013331916128194845 -0.00818273500781703 0.005614092731117399 0.02778455100127347 0.9930691470112533 -0.06569812951792428
 -0.0013330366770152185 -0.008182740423983202 0.0015149315496192774 0.012786305124125812 0.9930691470112533 -0.06569812951792428 0.005623768836319787 0.027783775922779173
0.11254689453939999 0.005995251830442998 0.029561177172693263 0.9925659000046726 -0.06967786131418462 0.0017344242521110092 0.013532477817995582 -0.001468550242127195 -0.008668782107841637
 0.9925659000046726 -0.06967786131418462 0.006005611659331912 0.02956037199620195 -0.001468723379171682 -0.008668775096589636 0.001670036293459613 0.01354122121565445
 0.0017344242521110092 0.013532477817995582 -0.001468723379171682 -0.008668775096589636 0.0059949503751922945 0.029559751672526096 0.9925658295000003 -0.06967938036287624
 -0.001468550242127195 -0.008668782107841637 0.001670036293459613 0.01354122121565445 0.9925658295000003 -0.06967938036287624 0.006005796932622196 0.029558888107224707
0.11879949979160001 0.0063928763464501746 0.03135028840325602 0.992040909680734 -0.07367144055667472 0.0019050533763641563 0.014285829675211472 -0.0016112228155973748 -0.009154647887602554
 0.992040909680734 -0.07367144055667472 0.0064044175641271035 0.03134939655142953 -0.0016114151094338755 -0.00915463908560113 0.0018332733659482444 0.0142958064644624
 0.0019050533763641563 0.014285829675211472 -0.0016114151094338755 -0.00915463908560113 0.006392541156243397 0.031348791543557526 0.9920408309696221 -0.07367304626638323
 -0.0016112228155973748 -0.009154647887602554 0.0018332733659482444 0.0142958064644624 0.9920408309696221 -0.07367304626638323 0.006404625201584331 0.03134783348643358
0.1250521050438 0.006807495196676429 0.03315299722954329 0.9914939835834822 -0.07767725616611892 0.002084281716507307 0.015038621629502593 -0.0017611174862080861 -0.00964022020385418
 0.9914939835834822 -0.07767725616611892 0.006820281830001037 0.033152013200019856 -0.0017613298844161044 -0.009640209407129289 0.00200470415698424 0.015049944354722272
 0.002084281716507307 0.015038621629502593 -0.0017613298844161044 -0.009640209407129289 0.006807124564469318 0.03315143024423867 0.9914938961370252 -0.07767894893260145
 -0.0017611174862080861 -0.00964022020385418 0.00200470415698424 0.015049944354722272 0.9914938961370252 -0.07767894893260145 0.00682051322526596 0.033150371480890874
0.131304710296 0.0072393661332643125 0.034969061546526396 0.9909248677768469 -0.08169512193332144 0.002272169088063557 0.01579072942940512 -0.0019182953964874468 -0.01012537945254772
 0.9909248677768469 -0.08169512193332144 0.007253462309137702 0.03496797965992817 -0.0019185288386983652 -0.010125366448843235 0.002184388181918081 0.015803515984947034
 0.002272169088063557 0.01579072942940512 -0.0019185288386983652 -0.010125366448843235 0.007238958371107737 0.03496742573077329 0.9909247710504101 -0.08169690217664788
 -0.0019182953964874468 -0.01012537945254772 0.002184388181918081 0.015803515984947034 0.9909247710504101 -0.08169690217664788 0.0072537188781763556 0.034966259833026175
0.1375573155481 0.007587010434072112 0.03656185280090616 0.9904350769097223 -0.08548837665948457 0.0024446821975317784 0.01651834414563976 -0.00205882738898542 -0.010586259669743876
 0.9904350769097223 -0.08548837665948457 0.0076024861359057306 0.036560691746108175 -0.002059083420059678 -0.01058624446017314 0.0023484941255630045 0.016532571846664432
 0.0024446821975317784 0.01651834414563976 -0.002059083420059678 -0.01058624446017314 0.0075865645678294714 0.0365601490038314 0.9904349704732358 -0.08549024463897047
 -0.00205882738898542 -0.010586259669743876 0.0023484941255630045 0.016532571846664432 0.9904349704732358 -0.08549024463897047 0.007602768383276681 0.036558894566559606
0.1438099208003 0.007946802999581837 0.038146712288509625 0.9899282141152979 -0.08927246475831778 0.00262417427537686 0.017243194590274246 -0.002204984029186432 -0.011044649422540543
 0.9899282141152979 -0.08927246475831778 0.007963723411233347 0.03814546791286497 -0.002205263686218776 -0.011044631795943425 0.002519209344285138 0.01725897085725205
 0.00262417427537686 0.017243194590274246 -0.002205263686218776 -0.011044631795943425 0.007946317497735327 0.038144941823722245 0.9899280974236472 -0.08927442088831308
 -0.002204984029186432 -0.011044649422540543 0.002519209344285138 0.01725897085725205 0.9899280974236472 -0.08927442088831308 0.007964032619364564 0.03814359399599929
0.1500625260525 0.008318623049625537 0.03972352092043702 0.989404403827843 -0.09304730555341922 0.00281058711204577 0.017965212760932152 -0.0023567096281961104 -0.011500485859581714
 0.989404403827843 -0.09304730555341922 0.008337053490971507 0.039722188827715936 -0.002357013947927054 -0.011500465596064453 0.00269647768704743 0.017982648922969892
 0.00281058711204577 0.017965212760932152 -0.002357013947927054 -0.011500465596064453 0.008318096407758551 0.03972168515309795 0.9894042763228902 -0.09304935026391817
 -0.0023567096281961104 -0.011500485859581714 0.00269647768704743 0.017982648922969892 0.9894042763228902 -0.09304935026391817 0.00833739095325445 0.039720238814833275
0.15631513130469998 0.008702349020186738 0.04129216326782405 0.9888637710319765 -0.09681281838888012 0.003003861846091069 0.01868433173340695 -0.0025139478480780426 -0.011953707407988843
