! Created with skrf 1.8.0 (http://scikit-rf.org).
# GHz S RI R 50.0 
!freq ReS11 ImS11 ReS12 ImS12 ReS13 ImS13
! ReS14 ImS14
! ReS21 ImS21 ReS22 ImS22 ReS23 ImS23
! ReS24 ImS24
! ReS31 ImS31 ReS32 ImS32 ReS33 ImS33
! ReS34 ImS34
! ReS41 ImS41 ReS42 ImS42 ReS43 ImS43
! ReS44 ImS44
!
0.0 0.00151898078045 0.0 0.9984810191854 0.0 5.901009573459e-05 0.0 -5.901009635605e-05 7.226652561981353e-21
 0.9984810191854 0.0 0.001518980780449 0.0 -5.901009635609e-05 7.226652561986251e-21 5.901009573406e-05 0.0
 5.901009573459e-05 0.0 -5.901009635609e-05 7.226652561986251e-21 0.001518980797515 0.0 0.9984810192025 0.0
 -5.901009635605e-05 7.226652561981353e-21 5.901009573406e-05 0.0 0.9984810192025 0.0 0.001518980797511 0.0
0.005 0.0016343238958326503 0.0012340738502379953 0.9983350662198386 -0.0031824675581073425 8.39922491756404e-05 0.0007019300701287085 -8.122518304903223e-05 -0.00043157461076593175
 0.9983350662198386 -0.0031824675581073425 0.0016343428908098313 0.0012340627143270367 -8.122175090166935e-05 -0.0004315719614390413 8.388964262831785e-05 0.0007019691897395056
 8.39922491756404e-05 0.0007019300701287085 -8.122175090166935e-05 -0.0004315719614390413 0.0016343260696256364 0.0012341398224021184 0.9983350665823137 -0.0031824004967351215
 -8.122518304903223e-05 -0.00043157461076593175 8.388964262831785e-05 0.0007019691897395056 0.9983350665823137 -0.0031824004967351215 0.0016343414414692363 0.0012341308666000955
0.006252605252188 0.0016645550492774084 0.0015474895388671757 0.9982965667879711 -0.00397886939787202 9.113533830656744e-05 0.0008777288128502886 -8.74975672615433e-05 -0.0005400391590379047
 0.9982965667879711 -0.00397886939787202 0.0016645847422718694 0.0015474753984966927 -8.749222663983602e-05 -0.0005400358920441354 9.097502547879652e-05 0.0008777795963636781
 9.113533830656744e-05 0.0008777288128502886 -8.749222663983602e-05 -0.0005400358920441354 0.0016645583672378389 0.0015475719951939101 0.9982965672742505 -0.003978785576919039
 -8.74975672615433e-05 -0.0005400391590379047 9.097502547879652e-05 0.0008777795963636781 0.9982965672742505 -0.003978785576919039 0.0016645823958072131 0.001547560587301579
0.01250521050438 0.0018235831783950497 0.003127741029208958 0.9980926799750891 -0.007958606631630602 0.00013212876425704957 0.001755658750454275 -0.00012308757255889677 -0.0010827568116627967
 0.9980926799750891 -0.007958606631630602 0.0018237017494191288 0.0031277105191542622 -0.00012306652646494896 -0.001082750766454743 0.0001314894857421437 0.001755780628118484
 0.00013212876425704957 0.001755658750454275 -0.00012306652646494896 -0.001082750766454743 0.0018235958542086718 0.0031279056428902005 0.9980926813380779 -0.007958439246009079
 -0.00012308757255889677 -0.0010827568116627967 0.0001314894857421437 0.001755780628118484 0.9980926813380779 -0.007958439246009079 0.0018236917964916954 0.003127880701168827
0.01875781575657 0.001996409927619714 0.0047307424957465215 0.9978691073784395 -0.01194890978235584 0.00018208322018522177 0.002634436057290806 -0.000165890311811233 -0.0016273023194689022
 0.9978691073784395 -0.01194890978235584 0.001996676374615086 0.004730693208206301 -0.0001658433790974997 -0.0016272940770112364 0.0001806471779978809 0.0026346532772334188
 0.00018208322018522177 0.002634436057290806 -0.0001658433790974997 -0.0016272940770112364 0.0019964379971225423 0.004730989071880272 0.9978691100173832 -0.011948658947671196
 -0.000165890311811233 -0.0016273023194689022 0.0001806471779978809 0.0026346532772334188 0.9978691100173832 -0.011948658947671196 0.0019966535763695464 0.00473094838234525
0.02501042100875 0.002183369985843777 0.006354233787941894 0.9976255878318446 -0.015951714776620707 0.00024109344518494498 0.0035141111079005217 -0.0002160122006392106 -0.002173415028073403
 0.9976255878318446 -0.015951714776620707 0.0021838431965475478 0.006354163156605851 -0.0002159293218807071 -0.0021734052718462567 0.00023854273611619923 0.003514451713906071
 0.00024109344518494498 0.0035141111079005217 -0.0002159293218807071 -0.0021734052718462567 0.0021834194776538893 0.006354562148275754 0.9976255921423115 -0.015951380557635828
 -0.0002160122006392106 -0.002173415028073403 0.00023854273611619923 0.003514451713906071 0.9976255921423115 -0.015951380557635828 0.0021838023161551185 0.006354503423685122
0.03126302626094 0.0023847841225868313 0.007997051977327006 0.9973618467572961 -0.019967849967429275 0.0003092548982460257 0.004394647157081057 -0.00027355653001702516 -0.0027209154584297455
 0.9973618467572961 -0.019967849967429275 0.002385522905510472 0.007996957280641282 -0.000273427746657232 -0.0027209049756817404 0.00030527121678178244 0.004395143009478684
 0.0003092548982460257 0.004394647157081057 -0.000273427746657232 -0.0027209049756817404 0.002384861059520599 0.007997461908972445 0.997361853131009 -0.01996743242899867
 -0.00027355653001702516 -0.0027209154584297455 0.00030527121678178244 0.004395143009478684 0.997361853131009 -0.01996743242899867 0.002385458705003179 0.007997382792484324
0.037515631513130004 0.0026009661279449998 0.009658438921203601 0.9970776033206963 -0.02399772851225631 0.00038666269228610227 0.005275973208898798 -0.00033862428591243684 -0.003269652434209424
 0.9970776033206963 -0.02399772851225631 0.002602029233545325 0.009658317283603423 -0.00033843972964313406 -0.003269642116367539 0.0003809271975123184 0.0052766600222787985
 0.00038666269228610227 0.005275973208898798 -0.00033843972964313406 -0.003269642116367539 0.0026010765338464305 0.00965893017688796 0.9970776121505724 -0.023997227718562584
 -0.00033862428591243684 -0.003269652434209424 0.0003809271975123184 0.0052766600222787985 0.9970776121505724 -0.023997227718562584 0.0026019364781196866 0.009658828244093403
0.043768236765320004 0.0028322254889941822 0.011337830578225436 0.9967725733270777 -0.028041558990133178 0.000473411100868757 0.006158000100354557 -0.00041131444480371505 -0.0038194869984235005
 0.9967725733270777 -0.028041558990133178 0.0028336716260701383 0.011337678970407489 -0.0004110643312762587 -0.003819477841215448 0.00046560435319341575 0.006158917486422097
 0.000473411100868757 0.006158000100354557 -0.0004110643312762587 -0.003819477841215448 0.0028323753865555582 0.011338402881331177 0.996772585003977 -0.02804097499884175
 -0.00041131444480371505 -0.0038194869984235005 0.00046560435319341575 0.006158917486422097 0.996772585003977 -0.02804097499884175 0.002833545080437567 0.011338275641796602
0.050020842017509996 0.003078868633420447 0.013034769935035067 0.9964464706865526 -0.03209943240582751 0.0005695932659685096 0.007040627138063595 -0.00049172408345912 -0.00437028578001933
 0.9964464706865526 -0.03209943240582751 0.003080756483118848 0.01303458517382274 -0.0004913987082463071 -0.004370278883523505 0.0005593952013348971 0.007041818650631525
 0.0005695932659685096 0.007040627138063595 -0.0004913987082463071 -0.004370278883523505 0.003079064044992052 0.013035422978572637 0.9964464855997233 -0.03209876526832308
 -0.00049172408345912 -0.00437028578001933 0.0005593952013348971 0.007041818650631525 0.9964464855997233 -0.03209876526832308 0.0030805909115574487 0.01303526787698426
0.055454545454549996 0.003305938673603853 0.014523406388424977 0.9961457410669785 -0.035637265851890816 0.0006609111830494586 0.0078080597199140424 -0.0005679456460204283 -0.004849627875373968
 0.9961457410669785 -0.035637265851890816 0.0033082580294471102 0.014523190110804104 -0.0005675470449483666 -0.004849623917952967 0.0006483745722225934 0.007809527923907141
 0.0006609111830494586 0.0078080597199140424 -0.0005675470449483666 -0.004849623917952967 0.0033061785299263804 0.014524129310152617 0.9961457591083374 -0.03563652650887729
 -0.0005679456460204283 -0.004849627875373968 0.0006483745722225934 0.007809527923907141 0.9961457591083374 -0.03563652650887729 0.0033080542916887573 0.014523947870489643
0.056273447269699996 0.003341199566078885 0.014748864271383003 0.9960990082781094 -0.036171364856845904 0.0006753009936292551 0.007923745363373737 -0.0005799484071359891 -0.004921917735576865
 0.9960990082781094 -0.036171364856845904 0.003343587794755252 0.014748643019091224 -0.0005795381430016278 -0.004921914304225807 0.000662390919644502 0.007925258544262029
 0.0006753009936292551 0.007923745363373737 -0.0005795381430016278 -0.004921914304225807 0.0033414465152765086 0.014749597701431786 0.9960990268165514 -0.03617061463402035
 -0.0005799484071359891 -0.004921917735576865 0.000662390919644502 0.007925258544262029 0.9960990268165514 -0.03617061463402035 0.0033433779624924688 0.014749412118270166
0.06252605252188 0.003619520212163332 0.016479761648706112 0.9957298985230257 -0.040257320979629314 0.0007906245943870302 0.00880723934395716 -0.0006760807345798362 -0.0054742523684359464
 0.9957298985230257 -0.040257320979629314 0.0036224674834189697 0.016479500412154204 -0.0006755760296511838 -0.0054742537109862465 0.0007746812018110735 0.008809125769250368
 0.0007906245943870302 0.00880723934395716 -0.0006755760296511838 -0.0054742537109862465 0.003619824722345379 0.016480575080852905 0.9957299210736534 -0.04025648772461049
 -0.0006760807345798362 -0.0054742523684359464 0.0007746812018110735 0.008809125769250368 0.9957299210736534 -0.04025648772461049 0.003622208154907876 0.016480356332809525
0.06877865777407 0.003914130593748522 0.01822713692209086 0.995338853796683 -0.044357227876161275 0.000915652747346575 0.009690988244856534 -0.000780212460303618 -0.006027158672621785
 0.995338853796683 -0.044357227876161275 0.0039176955800561495 0.018226832051232114 -0.0007796038368293458 -0.006027166202116834 0.0008963541317719236 0.00969330357115744
 0.000915652747346575 0.009690988244856534 -0.0007796038368293458 -0.006027166202116834 0.003914498689851694 0.018228029925203483 0.995338880745887 -0.04435631164964034
 -0.000780212460303618 -0.006027158672621785 0.0008963541317719236 0.00969330357115744 0.995338880745887 -0.04435631164964034 0.003917381520796396 0.018227775265266238
0.07503126302626001 0.004225328915131077 0.01999068284124203 0.9949255867515325 -0.0484709839556324 0.0010504723788623213 0.010574866519576658 -0.0008924330018799816 -0.006580504461198479
 0.9949255867515325 -0.0484709839556324 0.004229570309078404 0.01999033052743415 -0.0008917110553959758 -0.006580519694918851 0.0010274960700437299 0.010577670530092795
 0.0010504723788623213 0.010574866519576658 -0.0008917110553959758 -0.006580519694918851 0.004225766623201865 0.019991654948945115 0.9949256184844667 -0.04846998481348548
 -0.0008924330018799816 -0.006580504461198479 0.0010274960700437299 0.010577670530092795 0.9949256184844667 -0.04846998481348548 0.004229196285271322 0.019991361566035336
0.08128386827845 0.004553411583648911 0.021770104158924816 0.9944898105799546 -0.05259846477329289 0.0011951685508637879 0.011458744360356678 -0.001012829736568126 -0.007134155940151378
 0.9944898105799546 -0.05259846477329289 0.0045583881090321505 0.02176970043286458 -0.0010119851353456687 -0.007134180499547277 0.001168191548674571 0.011462101010640147
 0.0011951685508637879 0.011458744360356678 -0.0010119851353456687 -0.007134180499547277 0.00455392493008394 0.021771154858386512 0.9944898474804659 -0.052597382777077185
 -0.001012829736568126 -0.007134155940151378 0.001168191548674571 0.011462101010640147 0.9944898474804659 -0.052597382777077185 0.004557948887474336 0.021770819876752483
0.08753647353064001 0.004898673192509363 0.023565113540359124 0.994031239243179 -0.056739527073611684 0.0013498243536176494 0.012342488029113126 -0.0011414879330210203 -0.007687977406463168
 0.994031239243179 -0.056739527073611684 0.004904443615714809 0.023564654269549356 -0.0011405114178682913 -0.007688013017077157 0.0013185231685418123 0.012346465492320574
 0.0013498243536176494 0.012342488029113126 -0.0011405114178682913 -0.007688013017077157 0.004899268205175028 0.0235662422763096 0.9940312816938072 -0.056738362285449935
 -0.0011414879330210203 -0.007687977406463168 0.0013185231685418123 0.012346465492320574 0.9940312816938072 -0.056738362285449935 0.004903933964646838 0.02356586275446771
0.09378907878283 0.005261406477147854 0.025375428647879866 0.9935495876751272 -0.06089401166296352 0.0015145208039590607 0.013225960090453752 -0.0012784906764987686 -0.00824183104914225
 0.9935495876751272 -0.06089401166296352 0.005268029617678799 0.02537490953385887 -0.001277373060567943 -0.008241879540517739 0.0014785715018186942 0.013230630802130265
 0.0015145208039590607 0.013225960090453752 -0.001277373060567943 -0.008241879540517739 0.0052620891841811445 0.025376634818833173 0.993549636057104 -0.060892764148643974
 -0.0012784906764987686 -0.00824183104914225 0.0014785715018186942 0.013230630802130265 0.993549636057104 -0.060892764148643974 0.0052674443068856155 0.02537620774819395
0.100041684035 0.005641902248107375 0.02720077000148418 0.993044571968684 -0.0650617455125396 0.0016893367447581612 0.014109019594559602 -0.0014239187917246036 -0.008795576805544207
 0.993044571968684 -0.0650617455125396 0.005649436990131503 0.027200186576510608 -0.0014226509606709945 -0.008795640111120105 0.0016484149951161205 0.014114460296740405
 0.0016893367447581612 0.014109019594559602 -0.0014226509606709945 -0.008795640111120105 0.005642678678872272 0.027202052964962 0.9930446266621804 -0.06506041533521537
 -0.0014239187917246036 -0.008795576805544207 0.0016484149951161205 0.014114460296740405 0.9930446266621804 -0.06506041533521537 0.005648770791609691 0.027201575268029167
0.1059090909091 0.006015369253587145 0.02892707762090688 0.9925491671356084 -0.06898460683598466 0.0018626547675007613 0.014937173546691633 -0.001568120380363312 -0.009314983516413482
 0.9925491671356084 -0.06898460683598466 0.006023813058199514 0.02892642962959836 -0.0015667033636342412 -0.009315062574442295 0.0018167716204301886 0.014943410473709359
 0.0018626547675007613 0.014937173546691633 -0.0015667033636342412 -0.009315062574442295 0.006016239117992932 0.028928432017198073 0.9925492280961613 -0.06898319915055598
 -0.001568120380363312 -0.009314983516413482 0.0018167716204301886 0.014943410473709359 0.9925492280961613 -0.06898319915055598 0.0060230662025469416 0.028927903950580855
0.1062942892872 0.006040449313291769 0.02904085938442547 0.9925159095523014 -0.06924254332141741 0.0018743487469806315 0.014991522219623582 -0.0015778507626868152 -0.009349072263433882
 0.9925159095523014 -0.06924254332141741 0.006048954616080535 0.029040207007867552 -0.0015764236747629811 -0.009349152420436258 0.001828129874467287 0.014997814004305662
 0.0018743487469806315 0.014991522219623582 -0.0015764236747629811 -0.009349152420436258 0.0060413254972472 0.02904221844690636 0.9925159709359216 -0.06924113055085397
 -0.0015778507626868152 -0.009349072263433882 0.001828129874467287 0.014997814004305662 0.9925159709359216 -0.06924113055085397 0.006048202304281201 0.02904168697505725
0.11254689453939999 0.006457334385743722 0.03089541860500658 0.9919633193564293 -0.07343620872974957 0.002069631012888406 0.01587332038806235 -0.0017403626502036657 -0.00990217259469179
 0.9919633193564293 -0.07343620872974957 0.006466869295217596 0.030894692459260638 -0.0017387673366262356 -0.009902271743990639 0.002017790051453407 0.015880548739883565
 0.002069631012888406 0.01587332038806235 -0.0017387673366262356 -0.009902271743990639 0.006458316352703941 0.03089685303003721 0.991963387807158 -0.07343471343328359
 -0.0017403626502036657 -0.00990217259469179 0.002017790051453407 0.015880548739883565 0.991963387807158 -0.07343471343328359 0.006466025647312404 0.030896264560945935
0.11879949979160001 0.0068928419845552275 0.0327641685583441 0.991386521975034 -0.0776425352379128 0.0022752552800796764 0.01675426336797657 -0.0019115280083168524 -0.010454730509345136
 0.991386521975034 -0.0776425352379128 0.006903465644018833 0.03276336364436285 -0.0019097555735714197 -0.010454850895311577 0.0022174670296595217 0.016762518206116492
 0.0022752552800796764 0.01675426336797657 -0.0019097555735714197 -0.010454850895311577 0.006893935764455074 0.03276567755746187 0.9913865978689287 -0.07764095748864822
 -0.0019115280083168524 -0.010454730509345136 0.0022174670296595217 0.016762518206116492 0.9913865978689287 -0.07764095748864822 0.0069025254410135725 0.032765028791980975
0.1250521050438 0.007347254328463065 0.03464682846701874 0.9907852398232041 -0.08186130695317463 0.002491290726610393 0.017634197357535877 -0.0020914177989526344 -0.011006596232166816
 0.9907852398232041 -0.08186130695317463 0.00735902598981599 0.0346459395993243 -0.0020894594212620497 -0.011006740202523613 0.0024272298121501626 0.017643573076743052
 0.002491290726610393 0.017634197357535877 -0.0020894594212620497 -0.011006740202523613 0.007348465950796251 0.03464841120419904 0.9907853235345274 -0.08185964682459161
 -0.0020914177989526344 -0.011006596232166816 0.0024272298121501626 0.017643573076743052 0.9907853235345274 -0.08185964682459161 0.007357984016274247 0.03464769876297162
0.131304710296 0.007820851222818974 0.036543115286757286 0.9901591972907274 -0.08609229917781615 0.0027178038763380316 0.018512965565122285 -0.0022801003059541173 -0.01155761748945504
 0.9901591972907274 -0.08609229917781615 0.007833830257798857 0.03654213708811872 -0.002277947237817855 -0.011557787495053292 0.0026471448091026388 0.018523561075869752
 0.0027178038763380316 0.018512965565122285 -0.002277947237817855 -0.011557787495053292 0.007822186716662122 0.03654477087808931 0.9901592891920777 -0.08609055674318183
 -0.0022801003059541173 -0.01155761748945504 0.0026471448091026388 0.018523561075869752 0.9901592891920777 -0.08609055674318183 0.007832681302904064 0.03654399129756554
0.1375573155481 0.008205104457992189 0.0382033094612478 0.9896169668473647 -0.09008574165987145 0.002926667857943145 0.01936487063299194 -0.0024495373926493188 -0.012082062050393912
 0.9896169668473647 -0.09008574165987145 0.008219353723296218 0.03820225705841908 -0.0024471766509164376 -0.012082258253823065 0.002849245964558268 0.019376670028977316
 0.002926667857943145 0.01936487063299194 -0.0024471766509164376 -0.012082258253823065 0.008206569252919866 0.038205037053568945 0.9896170673055754 -0.09008391701850742
 -0.0024495373926493188 -0.012082062050393912 0.002849245964558268 0.019376670028977316 0.9896170673055754 -0.09008391701850742 0.008218093191593456 0.03820420737310153
0.1438099208003 0.008602844389718768 0.039854694068947254 0.9890556902439573 -0.09406903745490808 0.0031439940780311868 0.02021337864014219 -0.002625771294957715 -0.012603437679644523
 0.9890556902439573 -0.09406903745490808 0.008618423931850722 0.0398535633584828 -0.002623193475997568 -0.012603662488041453 0.0030595127700206496 0.020226472331538757
 0.0031439940780311868 0.02021337864014219 -0.002623193475997568 -0.012603662488041453 0.008604444408539877 0.039856492766281615 0.9890557996272104 -0.09406713069220164
 -0.002625771294957715 -0.012603437679644523 0.0030595127700206496 0.020226472331538757 0.9890557996272104 -0.09406713069220164 0.008617046729739035 0.039855610848096946
0.1500625260525 0.00901393026634902 0.04149713024814895 0.9884755123307513 -0.09804208716445492 0.0033697088215056225 0.021058403722481397 -0.002808731074527988 -0.013121664156256223
 0.9884755123307513 -0.09804208716445492 0.009030900262240087 0.04149591688946996 -0.002805926794920581 -0.013121920073288837 0.003277873263047726 0.021072885414222014
 0.0033697088215056225 0.021058403722481397 -0.002805926794920581 -0.013121920073288837 0.009015671425354676 0.04149899911948397 0.9884756310056011 -0.09804009836805509
 -0.002808731074527988 -0.013121664156256223 0.003277873263047726 0.021072885414222014 0.9884756310056011 -0.09804009836805509 0.00902940130805148 0.04149806266892694
0.15631513130469998 0.009438220323160235 0.043130483343780134 0.987876578710622 -0.10200479175282222 0.0036037374994461547 0.02189986144163911 -0.0029983449150776244 -0.013636662962984077
 0.987876578710622 -0.10200479175282222 0.009456641084541317 0.04312918275352736 -0.0029953048118615292 -0.01363695258843511 0.0035042546344180234 0.02191582809874097
