! Created with skrf 1.8.0 (http://scikit-rf.org).
# GHz S RI R 50.0 
!freq ReS11 ImS11 ReS12 ImS12 ReS13 ImS13
! ReS14 ImS14
! ReS21 ImS21 ReS22 ImS22 ReS23 ImS23
! ReS24 ImS24
! ReS31 ImS31 ReS32 ImS32 ReS33 ImS33
! ReS34 ImS34
! ReS41 ImS41 ReS42 ImS42 ReS43 ImS43
! ReS44 ImS44
!
0.0 0.001215767687857 0.0 0.9987842323047 0.0 4.602262176052e-05 0.0 -4.602262216014e-05 5.6361456916783496e-21
 0.9987842323047 0.0 0.001215767687881 0.0 -4.602262216082e-05 5.636145691761626e-21 4.602262176112e-05 0.0
 4.602262176052e-05 0.0 -4.602262216082e-05 5.636145691761626e-21 0.001215767679704 0.0 0.9987842322965 0.0
 -4.602262216014e-05 5.6361456916783496e-21 4.602262176112e-05 0.0 0.9987842322965 0.0 0.001215767679692 0.0
0.005 0.001307232066718404 0.0010010603349324874 0.9986686587824819 -0.0025473734838787868 6.313720234227151e-05 0.00047124694234304716 -6.161826385383873e-05 -0.00030217443193884553
 0.9986686587824819 -0.0025473734838787868 0.001307236661485284 0.001001057607853664 -6.161824854899302e-05 -0.0003021743728050352 6.311155274265862e-05 0.0004712566941477789
 6.313720234227151e-05 0.00047124694234304716 -6.161824854899302e-05 -0.0003021743728050352 0.001307232664363823 0.0010011271973106315 0.9986686591157311 -0.002547306425360023
 -6.161826385383873e-05 -0.00030217443193884553 6.311155274265862e-05 0.0004712566941477789 0.9986686591157311 -0.002547306425360023 0.0013072367266234975 0.0010011248593049917
0.006252605252188 0.0013309961728727264 0.0012552672766441121 0.9986384803018906 -0.003184871860308179 6.79005223258731e-05 0.0005893174144530314 -6.59168068604765e-05 -0.0003781126999336334
 0.9986384803018906 -0.003184871860308179 0.0013310033558296395 0.0012552638094750527 -6.591678343086225e-05 -0.0003781126260238159 6.786044648520755e-05 0.0005893300648788585
 6.79005223258731e-05 0.0005893174144530314 -6.591678343086225e-05 -0.0003781126260238159 0.001330997034912767 0.001255350832402372 0.9986384807502675 -0.003184788052959078
 -6.59168068604765e-05 -0.0003781126999336334 6.786044648520755e-05 0.0005893300648788585 0.9986384807502675 -0.003184788052959078 0.0013310033845914146 0.001255347861219342
0.01250521050438 0.0014547899455964709 0.0025369420486521022 0.9984804217515875 -0.006370707337074147 9.45507616765004e-05 0.001179167362946784 -8.974412970289442e-05 -0.000758157305898264
 0.9984804217515875 -0.006370707337074147 0.0014548186338286583 0.0025369345226976783 -8.974404195949656e-05 -0.0007581571576661482 9.439093252526458e-05 0.0011791975646382143
 9.45507616765004e-05 0.001179167362946784 -8.974404195949656e-05 -0.0007581571576661482 0.001454792801787368 0.002537108868666958 0.9984804229513592 -0.006370539936475268
 -8.974412970289442e-05 -0.000758157305898264 9.439093252526458e-05 0.0011791975646382143 0.9984804229513592 -0.006370539936475268 0.0014548181505348345 0.002537102436404399
0.01875781575657 0.0015873719254040598 0.0038370715431013374 0.9983098941319276 -0.009565299690426408 0.00012602857929098132 0.0017699311559198456 -0.0001175673137422414 -0.0011396624790576124
 0.9983098941319276 -0.009565299690426408 0.001587436402514867 0.0038370593163729164 -0.00011756712453746497 -0.0011396622546874647 0.00012566950116816807 0.00176998461019689
 0.00012602857929098132 0.0017699311559198456 -0.00011756712453746497 -0.0011396622546874647 0.0015873779328399798 0.0038373214197642055 0.9983098964086744 -0.009565048791734714
 -0.0001175673137422414 -0.0011396624790576124 0.00012566950116816807 0.00176998461019689 0.9983098964086744 -0.009565048791734714 0.0015874348811863379 0.0038373110028506884
0.02501042100875 0.0017289608265695202 0.005153896410916237 0.9981267298856824 -0.012770243518049682 0.00016238988359940312 0.0023616517816689784 -0.00014944789248807144 -0.0015224925289358446
 0.9981267298856824 -0.012770243518049682 0.001729075355199411 0.005153878795823033 -0.0001494475672890308 -0.0015224922253505781 0.00016175199868068293 0.002361734954382414
 0.00016238988359940312 0.0023616517816689784 -0.0001494475672890308 -0.0015224922253505781 0.0017289711393537592 0.005154229156765054 0.9981267335593094 -0.012769909161161776
 -0.00014944789248807144 -0.0015224925289358446 0.00016175199868068293 0.002361734954382414 0.9981267335593094 -0.012769909161161776 0.0017290722556967525 0.005154214202569356
0.03126302626094 0.0018797659867928359 0.00648653526374457 0.9979307513395713 -0.015986250190926015 0.00020369116444165158 0.002954323075801847 -0.0001854461560864719 -0.0019065582214550427
 0.9979307513395713 -0.015986250190926015 0.001879944815180156 0.006486511527872474 -0.0001854456625661402 -0.0019065578343215625 0.0002026947738270564 0.002954443201184685
 0.00020369116444165158 0.002954323075801847 -0.0001854456625661402 -0.0019065578343215625 0.0018797817590770647 0.006486950679630321 0.9979307567278024 -0.015985832392091538
 -0.0001854461560864719 -0.0019065582214550427 0.0002026947738270564 0.002954443201184685 0.9979307567278024 -0.015985832392091538 0.0018799395859174434 0.006486930607320909
0.037515631513130004 0.002039992404254308 0.007834431594908462 0.9977217758283382 -0.019213700887108758 0.00024998901243416204 0.0035479197522945345 -0.00022562155411483218 -0.002291786735983666
 0.9977217758283382 -0.019213700887108758 0.0020402497703445755 0.007834400961286491 -0.0002256208619154845 -0.002291786259678759 0.00024855423785603387 0.0035480848409093014
 0.00024998901243416204 0.0035479197522945345 -0.0002256208619154845 -0.002291786259678759 0.002040014794842321 0.007834929460296498 0.9977217832519426 -0.019213199648292684
 -0.00022562155411483218 -0.002291786735983666 0.00024855423785603387 0.0035480848409093014 0.9977217832519426 -0.019213199648292684 0.0020402418528736002 0.007834903661416598
0.043768236765320004 0.0022098426944881554 0.009197185487868872 0.9974996177399793 -0.022452814832264304 0.00030133989825426895 0.0041424065347385975 -0.00027003284942118906 -0.0026781125220243685
 0.9974996177399793 -0.022452814832264304 0.0022101928290446317 0.009197147135059463 -0.00027003192999127556 -0.002678111949599433 0.00029938666121483664 0.004142625382681251
 0.00030133989825426895 0.0041424065347385975 -0.00027003192999127556 -0.002678111949599433 0.002209872864064873 0.009197765566632743 0.9974996275204578 -0.022452230135045936
 -0.00027003284942118906 -0.0026781125220243685 0.00029938666121483664 0.004142625382681251 0.9974996275204578 -0.022452230135045936 0.0022101816553534615 0.009197733405479797
0.050020842017509996 0.002389518004885168 0.010574484056921333 0.9972640895196412 -0.025703718806128466 0.0003578000464328937 0.004737741919691737 -0.00031873818075359606 -0.003065473524065796
 0.9972640895196412 -0.025703718806128466 0.0023899751336054556 0.010574437119054335 -0.0003187370072419378 -0.0030654728472099264 0.0003552480563950747 0.004738024118334283
 0.0003578000464328937 0.004737741919691737 -0.0003187370072419378 -0.0030654728472099264 0.002389557116939046 0.010575146083509946 0.9972641019805902 -0.025703050625145007
 -0.00031873818075359606 -0.003065473524065796 0.0003552480563950747 0.004738024118334283 0.9972641019805902 -0.025703050625145007 0.002389960127032725 0.01057510689749588
0.055454545454549996 0.0025537958879365925 0.01178300742655509 0.9970484034775164 -0.028538482037900447 0.0004110583891257881 0.00525576003021577 -0.0003645965746268953 -0.003402895751469138
 0.9970484034775164 -0.028538482037900447 0.002554357548565079 0.011782952290295344 -0.0003645951597230211 -0.003402894976028328 0.0004079206892160755 0.005256105697117207
 0.0004110583891257881 0.00525576003021577 -0.0003645951597230211 -0.003402894976028328 0.0025538437177596673 0.011783740436712441 0.997048418532488 -0.028537741273857813
 -0.0003645965746268953 -0.003402895751469138 0.0004079206892160755 0.005256105697117207 0.997048418532488 -0.028537741273857813 0.0025543387357817053 0.011783694587085437
0.056273447269699996 0.002579218497908593 0.011966067304622121 0.9970150022443893 -0.028966481231496297 0.0004194253482230772 0.005333880021527585 -0.0003717950872978345 -0.0034538093255663204
 0.9970150022443893 -0.028966481231496297 0.002579796843562079 0.011966010871386335 -0.00037179363441422367 -0.0034538085345748653 0.0004161940960666442 0.005334235967570057
 0.0004194253482230772 0.005333880021527585 -0.00037179363441422367 -0.0034538085345748653 0.0025792677178008766 0.011966810992898844 0.9970150177115921 -0.028965729525318607
 -0.0003717950872978345 -0.0034538093255663204 0.0004161940960666442 0.005334235967570057 0.9970150177115921 -0.028965729525318607 0.002579777418301246 0.011966764092796558
0.06252605252188 0.002779143625712744 0.013371709354459319 0.9967521659914156 -0.032241130888414835 0.00048627129578249705 0.0059307715849838015 -0.0004292605115360221 -0.003843060126168236
 0.9967521659914156 -0.032241130888414835 0.0027798574101149543 0.01337164247097919 -0.0004292587555273417 -0.0038430592098996604 0.0004822800511650522 0.0059312124906293635
 0.00048627129578249705 0.0059307715849838015 -0.0004292587555273417 -0.0038430592098996604 0.002779204120189629 0.013372534391713134 0.9967521847924948 -0.03224029560524849
 -0.0004292605115360221 -0.003843060126168236 0.0004822800511650522 0.0059312124906293635 0.9967521847924948 -0.03224029560524849 0.002779832970379636 0.013372479061889866
0.06877865777407 0.002989492286613225 0.014791207260351569 0.9964753900891593 -0.03552766805221227 0.0005583929274431445 0.006528364584018971 -0.0004911907909929325 -0.004233166133615209
 0.9964753900891593 -0.03552766805221227 0.002990355732097364 0.014791128927078881 -0.0004911887095018567 -0.004233165079460985 0.0005535607384486201 0.0065289024872657135
 0.0005583929274431445 0.006528364584018971 -0.0004911887095018567 -0.004233165079460985 0.002989565223944477 0.01479211330726701 0.996475412554952 -0.03552674912955662
 -0.0004911907909929325 -0.004233166133615209 0.0005535607384486201 0.0065289024872657135 0.996475412554952 -0.03552674912955662 0.002990325672963224 0.014792048805819656
0.07503126302626001 0.0032104629170776997 0.016224373911006715 0.9961844833070017 -0.038826071537391954 0.0006358447798607835 0.007126604601318482 -0.0005576416422739519 -0.0046240671762112434
 0.9961844833070017 -0.038826071537391954 0.003211490248230754 0.016224283083611537 -0.0005576392142875703 -0.0046240659700635305 0.0006300904744943037 0.007127252376288108
 0.0006358447798607835 0.007126604601318482 -0.0005576392142875703 -0.0046240659700635305 0.0032105494662022405 0.01622536060003955 0.996184509770967 -0.03882506890342067
 -0.0005576416422739519 -0.0046240671762112434 0.0006300904744943037 0.007127252376288108 0.996184509770967 -0.03882506890342067 0.003211453954799095 0.01622528615898851
0.08128386827845 0.0034422535413513038 0.017671033299181595 0.9958792540036215 -0.04213630337810342 0.0007186808438188342 0.0077254350790156145 -0.00062866814080294 -0.005015702445326046
 0.9958792540036215 -0.04213630337810342 0.003443458986533287 0.01767092888827594 -0.0006286653465984225 -0.005015701071530183 0.0007119230328527777 0.007726206446303216
 0.0007186808438188342 0.0077254350790156145 -0.0006286653465984225 -0.005015701071530183 0.0034423548716806434 0.01767210023880065 0.9958792848024786 -0.04213521694706163
 -0.00062866814080294 -0.005015702445326046 0.0007119230328527777 0.007726206446303216 0.9958792848024786 -0.04213521694706163 0.0034434158338497033 0.01767201506417726
0.08753647353064001 0.0036850617926583104 0.019131017263501412 0.9955595102487905 -0.04545831203702425 0.0008069545228228516 0.008324797491974761 -0.0007043246969419008 -0.005408010316628771
 0.9955595102487905 -0.04545831203702425 0.0036864595856553376 0.01913089813446957 -0.0007043215180066871 -0.005408008757965746 0.0007991116039044294 0.008325707029007898
 0.0008069545228228516 0.008324797491974761 -0.0007043215180066871 -0.005408008757965746 0.0036851790736485055 0.019132164032993147 0.9955595457228937 -0.045457141714270594
 -0.0007043246969419008 -0.005408010316628771 0.0007991116039044294 0.008325707029007898 0.9955595457228937 -0.045457141714270594 0.0036864089385641144 0.01913206730487599
0.09378907878283 0.003939084916826943 0.020604163147414728 0.9952250599300531 -0.04879203469884231 0.0009007185935702445 0.008924631470259991 -0.0007846650295925413 -0.00580092822357233
 0.9952250599300531 -0.04879203469884231 0.0039406892980973045 0.020604028120091857 -0.000784661448549739 -0.005800926461215418 0.0008917087560442944 0.008925694621638308
 0.0009007185935702445 0.008924631470259991 -0.000784661448549739 -0.005800926461215418 0.00393921931734673 0.02060538929683573 0.9952251004235475 -0.04879078038047001
 -0.0007846650295925413 -0.00580092822357233 0.0008917087560442944 0.008925694621638308 0.9952251004235475 -0.04879078038047001 0.003940630511034103 0.02060528016941771
0.100041684035 0.0042045197608917605 0.022090312083365458 0.994875710845732 -0.05213739893969211 0.001000025167010328 0.009524874890423213 -0.0008697421382414867 -0.00619439256348361
 0.994875710845732 -0.05213739893969211 0.004206344979340189 0.022090159931719363 -0.0008697381387972393 -0.006194390576965931 0.0009897663976731058 0.00952610797822413
 0.001000025167010328 0.009524874890423213 -0.0008697381387972393 -0.006194390576965931 0.004204672448951759 0.022091617134379956 0.9948757567070465 -0.052136060511560604
 -0.0008697421382414867 -0.00619439256348361 0.0009897663976731058 0.00952610797822413 0.9948757567070465 -0.052136060511560604 0.004206277396158173 0.022091494735890525
0.1059090909091 0.004464156025458832 0.023496592044116568 0.9945341623065362 -0.05528718449229959 0.001098300500857288 0.010088455239739922 -0.0009539325808095615 -0.006564056464905938
 0.9945341623065362 -0.05528718449229959 0.004466201444044203 0.023496422666923856 -0.0009539281748541018 -0.006564054247938737 0.0010867949764942586 0.010089863430288339
 0.001098300500857288 0.010088455239739922 -0.0009539281748541018 -0.006564054247938737 0.004464326935680467 0.023497970676719312 0.9945342135258666 -0.05528576702174997
 -0.0009539325808095615 -0.006564056464905938 0.0010867949764942586 0.010089863430288339 0.9945342135258666 -0.05528576702174997 0.004466125000189905 0.023497835008742578
0.1062942892872 0.004481562753244106 0.023589307700086687 0.9945112707913073 -0.05549432397541962 0.0011049256505469445 0.010125463941538924 -0.0009596082732279128 -0.0065883386304036815
 0.9945112707913073 -0.05549432397541962 0.004483623067474367 0.023589137151913905 -0.0009596038401283102 -0.006588336397590794 0.0010933357399578612 0.01012688417560953
 0.0011049256505469445 0.010125463941538924 -0.0009596038401283102 -0.006588336397590794 0.00448173489576228 0.02359069114680323 0.9945113223734731 -0.0554929013120449
 -0.0009596082732279128 -0.0065883386304036815 0.0010933357399578612 0.01012688417560953 0.9945113223734731 -0.0554929013120449 0.004483546021290563 0.023590554579519415
0.11254689453939999 0.004770409875676643 0.025100995134697823 0.9941315476397415 -0.05886272160657954 0.0012154707102971297 0.0107263331799753 -0.0010543149051880764 -0.006982700560759549
 0.9941315476397415 -0.05886272160657954 0.004772719555621206 0.02510080487116904 -0.001054310024122932 -0.0069826980578200385 0.0012024672596395677 0.010727958668143737
 0.0012154707102971297 0.0107263331799753 -0.001054310024122932 -0.0069826980578200385 0.004770602637261247 0.025102456442888547 0.9941316053002341 -0.05886121457163794
 -0.0010543149051880764 -0.006982700560759549 0.0012024672596395677 0.010727958668143737 0.9941316053002341 -0.05886121457163794 0.004772632368191102 0.025102304782959738
0.11879949979160001 0.005071256628399927 0.02662522026039038 0.9937363494163591 -0.06224249694954919 0.001331710233910644 0.011327415569900093 -0.0011539126930632086 -0.0073774112948852555
 0.9937363494163591 -0.06224249694954919 0.005073829956763346 0.026625008915669813 -0.0011539073506191095 -0.007377408496254075 0.001317210662529104 0.011329265328189871
 0.001331710233910644 0.011327415569900093 -0.0011539073506191095 -0.007377408496254075 0.005071471171632429 0.026626758865029874 0.9937364135180199 -0.06224090539820401
 -0.0011539126930632086 -0.0073774112948852555 0.001317210662529104 0.011329265328189871 0.9937364135180199 -0.06224090539820401 0.005073731938924682 0.026626591162376704
0.1250521050438 0.005384297992654895 0.028161829069442236 0.9933254843729489 -0.06563354901439719 0.0014536932932471306 0.011928642516868627 -0.0012584514517127567 -0.007772402547133688
 0.9933254843729489 -0.06563354901439719 0.005387149266465394 0.02816159523013403 -0.001258445635329137 -0.007772399425487303 0.001437614846486883 0.011930736479565232
 0.0014536932932471306 0.011928642516868627 -0.001258445635329137 -0.007772399425487303 0.005384535477118446 0.028163444376789432 0.9933255552841728 -0.06563187279101301
 -0.0012584514517127567 -0.007772402547133688 0.001437614846486883 0.011930736479565232 0.9933255552841728 -0.06563187279101301 0.005387039717264575 0.028163259654912152
0.131304710296 0.005709728387353173 0.029710667181522828 0.9928987610580103 -0.06903577115924384 0.001581468107302471 0.01252994389690256 -0.0013679801185738814 -0.008167604782133709
 0.9928987610580103 -0.06903577115924384 0.005712871919236412 0.029710409386213867 -0.001367973816440158 -0.008167601308367098 0.001563727864746906 0.012532302926640822
 0.001581468107302471 0.01252994389690256 -0.001367973816440158 -0.008167601308367098 0.005709989969290094 0.029712358567988713 0.99289883915285 -0.06903401009830157
 -0.0013679801185738814 -0.008167604782133709 0.001563727864746906 0.012532302926640822 0.99289883915285 -0.06903401009830157 0.005712750126233035 0.029712155823674254
0.1375573155481 0.0059656716425473 0.03107054219023098 0.9925380792241595 -0.07224795975771794 0.001696972386342013 0.013110904015930428 -0.001464459584321692 -0.00854259590595045
 0.9925380792241595 -0.07224795975771794 0.00596912172725422 0.031070264250701245 -0.001464452634049748 -0.008542592071651398 0.001677529093045501 0.013113521693163469
 0.001696972386342013 0.013110904015930428 -0.001464452634049748 -0.008542592071651398 0.005965957803297581 0.031072309392984016 0.9925381648271266 -0.07224611376923054
 -0.001464459584321692 -0.00854259590595045 0.001677529093045501 0.013113521693163469 0.9925381648271266 -0.07224611376923054 0.005968987740295051 0.031072092298298125
0.1438099208003 0.006230363363287766 0.03242449062847791 0.9921651894398511 -0.07545322915142229 0.0018171304089115291 0.013690135296330494 -0.001564796546735477 -0.00891599656711976
 0.9921651894398511 -0.07545322915142229 0.00623413430806963 0.03242419144157702 -0.0015647889105835438 -0.00891599234620061 0.0017959084605407352 0.013693030403512652
 0.0018171304089115291 0.013690135296330494 -0.0015647889105835438 -0.00891599234620061 0.006230675131892397 0.03242633303345072 0.9921652829230934 -0.07545129807435323
 -0.001564796546735477 -0.00891599656711976 0.0017959084605407352 0.013693030403512652 0.9921652829230934 -0.07545129807435323 0.006233987535908689 0.03242610089239516
0.1500625260525 0.006503725113033584 0.03377243552031962 0.9917801729088845 -0.07865153615971364 0.0019419085658996945 0.014267599890287143 -0.0016689583524635663 -0.009287770251346156
 0.9917801729088845 -0.07865153615971364 0.0065078312355991924 0.03377211392968771 -0.0016689499916796207 -0.009287765616765958 0.0019188326867112361 0.014270791890404482
 0.0019419085658996945 0.014267599890287143 -0.0016689499916796207 -0.009287765616765958 0.006504063507558338 0.033774352490732226 0.9917802746496656 -0.07864951982540558
 -0.0016689583524635663 -0.009287770251346156 0.0019188326867112361 0.014270791890404482 0.9917802746496656 -0.07864951982540558 0.006507671084954443 0.033774104568714124
0.15631513130469998 0.00678567807194147 0.035114302429764245 0.9913831110557965 -0.08184283708667243 0.0020712729492886285 0.014843260467653385 -0.0017769120372286 -0.009657881122291611
