! Created with skrf 1.8.0 (http://scikit-rf.org).
# GHz S RI R 50.0 
!freq ReS11 ImS11 ReS12 ImS12 ReS13 ImS13
! ReS14 ImS14
! ReS21 ImS21 ReS22 ImS22 ReS23 ImS23
! ReS24 ImS24
! ReS31 ImS31 ReS32 ImS32 ReS33 ImS33
! ReS34 ImS34
! ReS41 ImS41 ReS42 ImS42 ReS43 ImS43
! ReS44 ImS44
!
0.0 0.001369719740308 0.0 0.9986302802597 0.0 5.255493122859e-05 0.0 -5.255493105719e-05 6.436122809859756e-21
 0.9986302802597 0.0 0.001369719740347 0.0 -5.255493105686e-05 6.4361228098193426e-21 5.255493122966e-05 0.0
 5.255493122859e-05 0.0 -5.255493105686e-05 6.4361228098193426e-21 0.001369719739604 0.0 0.998630280259 0.0
 -5.255493105719e-05 6.436122809859756e-21 5.255493122966e-05 0.0 0.998630280259 0.0 0.001369719739662 0.0
0.005 0.001473250514363617 0.0011206673951898857 0.9984993685607145 -0.0028697250472350454 7.34312672323079e-05 0.0005806267729359036 -7.132518072459383e-05 -0.0003642624630729523
 0.9984993685607145 -0.0028697250472350454 0.001473266654608933 0.0011206580225696081 -7.132459368408182e-05 -0.0003642620790029397 7.333553273049744e-05 0.0005806632452656216
 7.34312672323079e-05 0.0005806267729359036 -7.132459368408182e-05 -0.0003642620790029397 0.0014732501333248834 0.0011206004056032832 0.9984993682177716 -0.002869792109672755
 -7.132518072459383e-05 -0.0003642624630729523 7.333553273049744e-05 0.0005806632452656216 0.9984993682177716 -0.002869792109672755 0.0014732663540322406 0.001120590890953279
0.006252605252188 0.0015002684970350985 0.0014052624545595315 0.9984650091122224 -0.003587879129514742 7.932738835135828e-05 0.000726072065801473 -7.656253048351104e-05 -0.0004558071480065015
 0.9984650091122224 -0.003587879129514742 0.001500293726521087 0.0014052505365211593 -7.65616164525205e-05 -0.000455806675731838 7.917781126771688e-05 0.0007261193919975644
 7.932738835135828e-05 0.000726072065801473 -7.65616164525205e-05 -0.000455806675731838 0.001500267975817184 0.0014051787245703742 0.9984650086509878 -0.003587962958344595
 -7.656253048351104e-05 -0.0004558071480065015 7.917781126771688e-05 0.0007261193919975644 0.9984650086509878 -0.003587962958344595 0.0015002933319370683 0.0014051666170853672
0.01250521050438 0.0016417113199873837 0.0028401686801918604 0.9982840347225619 -0.007176691990129791 0.00011277987306020279 0.0014525419025651187 -0.00010594473912245622 -0.0009139102472486224
 0.9982840347225619 -0.007176691990129791 0.0016418120517906684 0.002840142805891978 -0.00010594113027740501 -0.0009139093883661219 0.00011218338217615888 0.0014526551514711693
 0.00011277987306020279 0.0014525419025651187 -0.00010594113027740501 -0.0009139093883661219 0.0016417097879159186 0.002840001572629013 0.9982840334356259 -0.007176859386864648
 -0.00010594473912245622 -0.0009139102472486224 0.00011218338217615888 0.0014526551514711693 0.9982840334356259 -0.007176859386864648 0.0016418110400858534 0.0028399751971702244
0.01875781575657 0.0017943298071000317 0.004295727066170503 0.9980871516633978 -0.01077520175526386 0.00015298502817106456 0.0021799140638880353 -0.00014078614219747827 -0.001373665080101225
 0.9980871516633978 -0.01077520175526386 0.0017945561362605839 0.00429568505612944 -0.0001407780848050056 -0.0013736639372585115 0.00015164504405277464 0.0021801151692703775
 0.00015298502817106456 0.0021799140638880353 -0.0001407780848050056 -0.0013736639372585115 0.00179432677761353 0.004295476768530638 0.9980871491948556 -0.010775452659453075
 -0.00014078614219747827 -0.001373665080101225 0.00015164504405277464 0.0021801151692703775 0.9980871491948556 -0.010775452659453075 0.0017945543053041139 0.004295433813313989
0.02501042100875 0.001958398693645727 0.005769929157045822 0.9978741472029923 -0.014385180910774849 0.00020001689282830848 0.0029082363244887785 -0.00018116905500189026 -0.0018348801713628908
 0.9978741472029923 -0.014385180910774849 0.001958800600695993 0.005769868707099872 -0.000181154812941862 -0.001834878865811602 0.0001976366886581323 0.002908550422373843
 0.00020001689282830848 0.0029082363244887785 -0.000181154812941862 -0.001834878865811602 0.001958393669185079 0.0057695958829639335 0.9978741431909277 -0.01438551527193223
 -0.00018116905500189026 -0.0018348801713628908 0.0001976366886581323 0.002908550422373843 0.9978741431909277 -0.01438551527193223 0.001958797754010149 0.0057695339006896005
0.03126302626094 0.0021341812098561166 0.0072617557057674115 0.9976447968014897 -0.018007405175600268 0.00025395025326653206 0.0036374898759752375 -0.0002271737592830443 -0.0022974265211422244
 0.9976447968014897 -0.018007405175600268 0.002134808586578315 0.007261674390367128 -0.00022715161099815144 -0.002297425193008714 0.0002502326690854457 0.003637945321237683
 0.00025395025326653206 0.0036374898759752375 -0.00022715161099815144 -0.002297425193008714 0.0021341736903661324 0.007261339663265208 0.997644790884537 -0.018007822985271277
 -0.0002271737592830443 -0.0022974265211422244 0.0002502326690854457 0.003637945321237683 0.997644790884537 -0.018007822985271277 0.0021348045408159503 0.007261256074146598
0.037515631513130004 0.002321935056749573 0.008770552975787516 0.9973988702247706 -0.021642277145300193 0.00031485987342046786 0.004367629858830006 -0.00027887909675708585 -0.0027611970587287918
 0.9973988702247706 -0.021642277145300193 0.0023228377227430454 0.00877044824958988 -0.0002788473336473785 -0.002761195867121582 0.0003095071831113835 0.004368258257254884
 0.00031485987342046786 0.004367629858830006 -0.0002788473336473785 -0.002761195867121582 0.0023219245368894686 0.008770054394034808 0.9973988620394632 -0.0216427784106184
 -0.00027887909675708585 -0.0027611970587287918 0.0003095071831113835 0.004368258257254884 0.9973988620394632 -0.0216427784106184 0.0023228323049029357 0.008769946487172027
0.043768236765320004 0.002521914712641478 0.010295842968723552 0.9971361339944493 -0.02529001600236869 0.00038282014449644364 0.005098597691823539 -0.0003363626868382188 -0.003226094302507343
 0.9971361339944493 -0.02529001600236869 0.002523142428014195 0.010295712167719065 -0.0003363196123995061 -0.0032260934256130563 0.0003755339877264733 0.005099433936991817
 0.00038282014449644364 0.005098597691823539 -0.0003363196123995061 -0.0032260934256130563 0.002521900684211151 0.010295262105334192 0.997136123175894 -0.02529060073909616
 -0.0003363626868382188 -0.003226094302507343 0.0003755339877264733 0.005099433936991817 0.997136123175894 -0.02529060073909616 0.0025231354772571064 0.010295127039532075
0.050020842017509996 0.0027343725180364285 0.011837244995907046 0.9968563526171091 -0.028950735880576988 0.00045790487999512064 0.005830326158541387 -0.0003997010128496755 -0.0036920252646198038
 0.9968563526171091 -0.028950735880576988 0.0027359749944655706 0.011837085338105824 -0.00039964494216606375 -0.0036920248997694425 0.00044838622889315893 0.005831408470744037
 0.00045790487999512064 0.005830326158541387 -0.00039964494216606375 -0.0036920248997694425 0.002734354469835479 0.011836582122959365 0.9968563387984942 -0.028951404127378788
 -0.0003997010128496755 -0.0036920252646198038 0.00044838622889315893 0.005831408470744037 0.9968563387984942 -0.028951404127378788 0.002735966361249134 0.01183641692720526
0.055454545454549996 0.002929333361443866 0.013189603961551713 0.9965991874923676 -0.032142592715349666 0.0005289985160357567 0.00646678124969877 -0.00045955726641590743 -0.004097702200845332
 0.9965991874923676 -0.032142592715349666 0.0029313018578670724 0.013189416875781394 -0.00045948854192836213 -0.004097702456155349 0.0005172963841587028 0.00646811105485059
 0.0005289985160357567 0.00646678124969877 -0.00045948854192836213 -0.004097702456155349 0.002929311402477826 0.013188870063677085 0.9965991707664827 -0.0321433335726604
 -0.00045955726641590743 -0.004097702200845332 0.0005172963841587028 0.00646811105485059 0.9965991707664827 -0.0321433335726604 0.002931291650155784 0.01318867617061819
0.056273447269699996 0.002959559235793697 0.0133944371681145 0.996559289293109 -0.03262448431107644 0.0005401871755269326 0.006562741901015952 -0.000468969449317418 -0.00415889895043029
 0.996559289293109 -0.03262448431107644 0.0029615861457603777 0.013394245754078426 -0.00046889870863386137 -0.004158899314169075 0.0005281363217384483 0.00656411186713941
 0.0005401871755269326 0.006562741901015952 -0.00046889870863386137 -0.004158899314169075 0.0029595366535876294 0.01339369258715933 0.9965592721047088 -0.0326252361148061
 -0.000468969449317418 -0.00415889895043029 0.0005281363217384483 0.00656411186713941 0.9965592721047088 -0.0326252361148061 0.002961575692214012 0.01339349416084767
0.06252605252188 0.0031977243616714774 0.014967135235669103 0.9962447063786083 -0.03631126331932396 0.0006297392996980106 0.007295766789357151 -0.0005442422598483338 -0.004626624984125331
 0.9962447063786083 -0.03631126331932396 0.003200225347846332 0.014966909048652253 -0.0005441551864492518 -0.004626626312261974 0.0006148558554115005 0.00729746940320921
 0.0006297392996980106 0.007295766789357151 -0.0005441551864492518 -0.004626626312261974 0.0031976967295178457 0.014966309271492074 0.9962446854478905 -0.036312098741561404
 -0.0005442422598483338 -0.004626624984125331 0.0006148558554115005 0.00729746940320921 0.9962446854478905 -0.036312098741561404 0.0032002129480607506 0.01496607438438418
0.06877865777407 0.0034491162979263094 0.016555079968523834 0.9959123657125294 -0.040011041983763596 0.0007266326046124452 0.008029318736727074 -0.0006255925765562395 -0.005095112791248167
 0.9959123657125294 -0.040011041983763596 0.0034521409815807275 0.016554815874473706 -0.0006254875185852792 -0.005095115338911496 0.0007086155127805697 0.008031402439559025
 0.0007266326046124452 0.008029318736727074 -0.0006254875185852792 -0.005095115338911496 0.003449083097914068 0.016554172973988156 0.9959123406633927 -0.04001196109622908
 -0.0006255925765562395 -0.005095112791248167 0.0007086155127805697 0.008031402439559025 0.9959123406633927 -0.04001196109622908 0.0034521265214923053 0.01655389826596486
0.07503126302626001 0.0037139824436288006 0.018158029150291303 0.9955620288643978 -0.04372376438272864 0.0008309374450501976 0.00876331221624526 -0.0007130923702360613 -0.005564271081782183
 0.9955620288643978 -0.04372376438272864 0.0037175804330524974 0.018157723897619316 -0.0007129676866704861 -0.00556427512347264 0.00080948499703084 0.008765828937238932
 0.0008309374450501976 0.00876331221624526 -0.0007129676866704861 -0.00556427512347264 0.003713943156908735 0.018157041502225954 0.9955619993172018 -0.04372476727168539
 -0.0007130923702360613 -0.005564271081782183 0.00080948499703084 0.008765828937238932 0.9955619993172018 -0.04372476727168539 0.003717563811012016 0.018156723482814965
0.08128386827845 0.003992569236039405 0.019775752253232075 0.9951934573348967 -0.04744935486289494 0.0009427231053390513 0.009497658606014208 -0.000806812412632937 -0.006034007507661708
 0.9951934573348967 -0.04744935486289494 0.003996790134889487 0.01977540247229587 -0.0008066664733077424 -0.0060340133372968185 0.000917532963855603 0.009500663802677264
 0.0009427231053390513 0.009497658606014208 -0.0008066664733077424 -0.0060340133372968185 0.003992523343568632 0.019774684358497805 0.9951934229058029 -0.047450441623231025
 -0.000806812412632937 -0.006034007507661708 0.000917532963855603 0.009500663802677264 0.9951934229058029 -0.047450441623231025 0.003996771261799141 0.01977431940617032
0.08753647353064001 0.0042851221578431445 0.021408026758826484 0.9948064127254723 -0.05118772166473373 0.0010620577299522774 0.010232266429522534 -0.0009068222342264882 -0.006504228427615891
 0.9948064127254723 -0.05118772166473373 0.004290015573164915 0.021407628961280376 -0.0009066534198236961 -0.006504236358570143 0.001032826956461545 0.010235819127869476
 0.0010620577299522774 0.010232266429522534 -0.0009066534198236961 -0.006504236358570143 0.004285069140379762 0.021406879049596032 0.9948063730261333 -0.05118889240496653
 -0.0009068222342264882 -0.006504228427615891 0.001032826956461545 0.010235819127869476 0.9948063730261333 -0.05118889240496653 0.004289994372596835 0.021406463410854695
0.09378907878283 0.0045918857203078095 0.023054635515600986 0.9944006568865428 -0.05493875951383112 0.0011890082567110538 0.010967041527064594 -0.001013190078427864 -0.006974838743779175
 0.9944006568865428 -0.05493875951383112 0.004597501270856667 0.023054186093404143 -0.0010129967806004508 -0.006974849108928854 0.0011554333425787527 0.010971204361490154
 0.0011890082567110538 0.010967041527064594 -0.0010129967806004508 -0.006974849108928854 0.0045918250592996545 0.023053408453824187 0.9944006115236106 -0.05494001435183493
 -0.001013190078427864 -0.006974838743779175 0.0011554333425787527 0.010971204361490154 0.9944006115236106 -0.05494001435183493 0.00459747767914946 0.02305293824201468
0.100041684035 0.004913103431187778 0.024715364819425597 0.9939759520530274 -0.058702351492592175 0.0013236403520972741 0.011701887185678314 -0.0011259828531409843 -0.007445741782663958
 0.9939759520530274 -0.058702351492592175 0.004919490755228333 0.024714860043654883 -0.001125763474564616 -0.007445754934420994 0.0012854172526002867 0.011706726438509044
 0.0013236403520972741 0.011701887185678314 -0.001125763474564616 -0.007445754934420994 0.0049130346096299595 0.024714058893358835 0.9939759006280778 -0.058703690559176055
 -0.0011259828531409843 -0.007445741782663958 0.0012854172526002867 0.011706726438509044 0.9939759006280778 -0.058703690559176055 0.004919464722363064 0.02471353008732755
0.1059090909091 0.005227894067297027 0.02628643698976986 0.9935599663586064 -0.06224538810351482 0.0014570219193942638 0.01239143776622675 -0.001237728697333559 -0.0078878129943768
 0.9935599663586064 -0.06224538810351482 0.0052350507892157195 0.02628587677019659 -0.0012374834019282927 -0.007887829099012872 0.001414160020623942 0.012396975332985307
 0.0014570219193942638 0.01239143776622675 -0.0012374834019282927 -0.007887829099012872 0.005227817119246438 0.026285057526686518 0.9935599088774457 -0.06224680633914748
 -0.001237728697333559 -0.0078878129943768 0.001414160020623942 0.012396975332985307 0.9935599088774457 -0.06224680633914748 0.005235022431924422 0.02628446995764578
0.1062942892872 0.005249017749588649 0.026390002947749763 0.9935320609689999 -0.062478370461316275 0.0014660183474656619 0.012436704238467943 -0.0012452660801724998 -0.007916839209719525
 0.9935320609689999 -0.062478370461316275 0.005256226513450053 0.02638943896717656 -0.0012450190346769705 -0.007916855520061114 0.001422842518812041 0.012442289879130024
 0.0014660183474656619 0.012436704238467943 -0.0012450190346769705 -0.007916855520061114 0.005248940252082774 0.02638861867303494 0.9935320030775643 -0.06247979389939278
 -0.0012452660801724998 -0.007916839209719525 0.001422842518812041 0.012442289879130024 0.9935320030775643 -0.06247979389939278 0.005256198002601944 0.026388027115383055
0.11254689453939999 0.005599870031158145 0.02807833905473692 0.9930687470057621 -0.06626668012176966 0.0016162051761964388 0.013171391143609481 -0.0013711038431755897 -0.00838803096723632
 0.9930687470057621 -0.06626668012176966 0.00560794993726213 0.02807771189409445 -0.0013708275559029318 -0.008388050827734046 0.0015677716147303625 0.013177796867320736
 0.0016162051761964388 0.013171391143609481 -0.0013708275559029318 -0.008388050827734046 0.005599783345182155 0.028076876977443408 0.9930686822376158 -0.06626818808339628
 -0.0013711038431755897 -0.00838803096723632 0.0015677716147303625 0.013177796867320736 0.9930686822376158 -0.06626818808339628 0.005607918925517552 0.028076218372706296
0.11879949979160001 0.005965900467062928 0.02978016230002043 0.9925857742757479 -0.07006713585056845 0.0017742623115065183 0.013905844050173937 -0.0015035587340380178 -0.008859215228586327
 0.9925857742757479 -0.07006713585056845 0.005974901262040816 0.029779467858047335 -0.0015032516415353495 -0.008859239050434162 0.001720265595126535 0.013913147316199406
 0.0017742623115065183 0.013905844050173937 -0.0015032516415353495 -0.008859239050434162 0.0059658040832027215 0.029778622993572985 0.992585702214123 -0.07006872850009947
 -0.0015035587340380178 -0.008859215228586327 0.001720265595126535 0.013913147316199406 0.992585702214123 -0.07006872850009947 0.005974867740728205 0.029777892906027507
0.1250521050438 0.006347348015884581 0.03149526116488422 0.9920829077414088 -0.07387958534868866 0.0019402497043198934 0.014639956851346659 -0.0016426917983830608 -0.00933028836825684
 0.9920829077414088 -0.07387958534868866 0.006357319499008936 0.031494495212058486 -0.0016423523488181323 -0.009330316582281468 0.0018803840359260045 0.014648238920664277
 0.0019402497043198934 0.014639956851346659 -0.0016423523488181323 -0.009330316582281468 0.006347241428432355 0.031493645230057966 0.992082827962465 -0.07388126286295496
 -0.0016426917983830608 -0.00933028836825684 0.0018803840359260045 0.014648238920664277 0.992082827962465 -0.07388126286295496 0.006357283473528503 0.03149283908127309
0.131304710296 0.006744450331300108 0.03322342289662749 0.9915599133228656 -0.07770386916668001 0.0021142257217608377 0.01537362123468457 -0.001788562479984851 -0.009801144938049981
 0.9915599133228656 -0.07770386916668001 0.006755442362705856 0.03322258107266976 -0.0017881891332678205 -0.009801177994734261 0.0020481849743652853 0.015382967207188472
 0.0021142257217608377 0.01537362123468457 -0.0017881891332678205 -0.009801177994734261 0.006744333039079798 0.03322173096505675 0.9915598253956467 -0.07770563173145381
 -0.001788562479984851 -0.009801144938049981 0.0020481849743652853 0.015382967207188472 0.9915598253956467 -0.07770563173145381 0.006755403853298588 0.03322084403118556
0.1375573155481 0.007062097823261292 0.03473873021677696 0.9911119318418931 -0.08131404549416842 0.0022733789969926563 0.01608372587468412 -0.0019184392359481597 -0.010248634565372212
 0.9911119318418931 -0.08131404549416842 0.007074165007872967 0.03473782751891895 -0.0019180299212322308 -0.010248672476520448 0.0022010085070020167 0.016094116448901914
 0.0022733789969926563 0.01608372587468412 -0.0019180299212322308 -0.010248672476520448 0.007061970128586174 0.034736962427134754 0.991111835395227 -0.08131589320750968
 -0.0019184392359481597 -0.010248634565372212 0.0022010085070020167 0.016094116448901914 0.991111835395227 -0.08131589320750968 0.007074123124070697 0.03473601018959358
0.1438099208003 0.007390773672133872 0.03624675625950579 0.9906484614016072 -0.08491578147605255 0.0024389760517144624 0.016791356418663368 -0.002053525381032014 -0.010693884140866642
 0.9906484614016072 -0.08491578147605255 0.007403966709464083 0.03624578958653732 -0.00205307847930779 -0.010693927341928589 0.0023599966370198996 0.016802868868729354
 0.0024389760517144624 0.016791356418663368 -0.00205307847930779 -0.010693927341928589 0.007390635225637085 0.03624491321889967 0.9906483560064511 -0.0849177145193253
 -0.002053525381032014 -0.010693884140866642 0.0023599966370198996 0.016802868868729354 0.9906483560064511 -0.0849177145193253 0.007403921327304946 0.036243892295086705
0.1500625260525 0.007730371297002986 0.03774739592863884 0.9901696119721115 -0.08850900897205108 0.0026109659272659253 0.017496453739786158 -0.0021937719357055037 -0.011136838137316156
 0.9901696119721115 -0.08850900897205108 0.007744740980691991 0.037746362001752444 -0.002193285832744653 -0.011136887080925823 0.002525099852911548 0.017509168148969773
 0.0026109659272659253 0.017496453739786158 -0.002193285832744653 -0.011136887080925823 0.007730221763087987 0.03774547826731346 0.9901694971930868 -0.08851102753342313
 -0.0021937719357055037 -0.011136838137316156 0.002525099852911548 0.017509168148969773 0.9901694971930868 -0.08851102753342313 0.0077446919795329935 0.037744385088432204
0.15631513130469998 0.008080783470179707 0.03924054741088575 0.9896754939599235 -0.09209365966587814 0.002789297128817458 0.018198959601536197 -0.002339129377975267 -0.011577442125299625
