! Created with skrf 1.8.0 (http://scikit-rf.org).
# GHz S RI R 50.0 
!freq ReS11 ImS11 ReS12 ImS12 ReS13 ImS13
! ReS14 ImS14
! ReS21 ImS21 ReS22 ImS22 ReS23 ImS23
! ReS24 ImS24
! ReS31 ImS31 ReS32 ImS32 ReS33 ImS33
! ReS34 ImS34
! ReS41 ImS41 ReS42 ImS42 ReS43 ImS43
! ReS44 ImS44
!
0.0 0.001150221107291 0.0 0.9988497788927 0.0 4.402376766337e-05 0.0 -4.402376792974e-05 5.3913566481561996e-21
 0.9988497788927 0.0 0.001150221107288 0.0 -4.402376792996e-05 5.3913566481831415e-21 4.402376766348e-05 0.0
 4.402376766337e-05 0.0 -4.402376792996e-05 5.3913566481831415e-21 0.001150221104091 0.0 0.9988497788895 0.0
 -4.402376792974e-05 5.3913566481561996e-21 4.402376766348e-05 0.0 0.9988497788895 0.0 0.001150221104077 0.0
0.005 0.0012367470469705313 0.0009355792675771077 0.998740434073772 -0.0024108471688837688 6.2015680098594e-05 0.0005212678915766966 -6.015107550398493e-05 -0.00032102571017533034
 0.998740434073772 -0.0024108471688837688 0.0012367336047054245 0.000935587084254086 -6.014843475758226e-05 -0.0003210236704198061 6.211100954291575e-05 0.0005212317594506938
 6.2015680098594e-05 0.0005212678915766966 -6.014843475758226e-05 -0.0003210236704198061 0.00123674811429253 0.0009355113797480903 0.9987404337477069 -0.0024109142234854607
 -6.015107550398493e-05 -0.00032102571017533034 6.211100954291575e-05 0.0005212317594506938 0.9987404337477069 -0.0024109142234854607 0.0012367318897633817 0.0009355208671370175
0.006252605252188 0.001259191541961514 0.0011732177701661865 0.9987119326038257 -0.003014190179406513 6.69967954983474e-05 0.000651838031440902 -6.458956798608248e-05 -0.00040172079404454626
 0.9987119326038257 -0.003014190179406513 0.0012591705294799477 0.0011732276924071184 -6.458545876954983e-05 -0.00040171827747261413 6.714574317619736e-05 0.0006517911525431701
 6.69967954983474e-05 0.000651838031440902 -6.458545876954983e-05 -0.00040171827747261413 0.001259193288313187 0.0011731329155497325 0.998711932171668 -0.003014273992193097
 -6.458956798608248e-05 -0.00040172079404454626 6.714574317619736e-05 0.0006517911525431701 0.998711932171668 -0.003014273992193097 0.0012591679259823898 0.0011731449308922213
0.01250521050438 0.0013758962329039187 0.002371606039956077 0.9985629502076668 -0.006029423262569695 9.472274204137513e-05 0.0013040196410855954 -8.91564407761166e-05 -0.0008055893486923144
 0.9985629502076668 -0.006029423262569695 0.0013758123327208718 0.0023716273836444928 -8.914024599383865e-05 -0.0008055846712652655 9.531681190967386e-05 0.0013039077174960248
 9.472274204137513e-05 0.0013040196410855954 -8.914024599383865e-05 -0.0008055846712652655 0.0013759037659296768 0.0023714365548695143 0.9985629490358487 -0.006029590666396826
 -8.91564407761166e-05 -0.0008055893486923144 9.531681190967386e-05 0.0013039077174960248 0.9985629490358487 -0.006029590666396826 0.001375802488510497 0.002371462148627001
0.01875781575657 0.0015005370379278318 0.003587627086500151 0.9984026845762541 -0.009053096304087932 0.00012725710693539604 0.0019570571927510208 -0.00011778864177592649 -0.001211006952340364
 0.9984026845762541 -0.009053096304087932 0.0015003485182863016 0.0035876613975433782 -0.00011775252433384267 -0.001211000520926888 0.00012859186420335282 0.001956859239545016
 0.00012725710693539604 0.0019570571927510208 -0.00011775252433384267 -0.001211000520926888 0.001500554395233692 0.0035873730663653646 0.9984026823608884 -0.009053347212998573
 -0.00011778864177592649 -0.001211006952340364 0.00012859186420335282 0.001956859239545016 0.9984026823608884 -0.009053347212998573 0.0015003268121431075 0.003587413903086724
0.02501042100875 0.001633312525299621 0.0048196178275844255 0.9982309844116163 -0.012086727167943935 0.0001646557856156025 0.0026110236455666037 -0.00015054901086045114 -0.0016178116161265185
 0.9982309844116163 -0.012086727167943935 0.0016329777448835876 0.004819666683299328 -0.0001504852249288162 -0.0016178038968935422 0.00016702708582150709 0.0026107159889457404
 0.0001646557856156025 0.0026110236455666037 -0.0001504852249288162 -0.0016178038968935422 0.0016333437452226932 0.004819279320676747 0.998230980849419 -0.012087061552484383
 -0.00015054901086045114 -0.0016178116161265185 0.00016702708582150709 0.0026107159889457404 0.998230980849419 -0.012087061552484383 0.0016329395632343423 0.004819337146830561
0.03126302626094 0.0017744126191117132 0.006066748093724021 0.9980476889945239 -0.015130996222796424 0.0002069753138610056 0.003265928475323869 -0.00018749896196909048 -0.0020259022242362424
 0.9980476889945239 -0.015130996222796424 0.0017738900058388869 0.006066813098992486 -0.00018739983675828306 -0.0020258937437554075 0.0002106795939864221 0.0032654847386248105
 0.0002069753138610056 0.003265928475323869 -0.00018739983675828306 -0.0020258937437554075 0.0017744617381582819 0.006066325136237301 0.9980476837771745 -0.015131414075172097
 -0.00018749896196909048 -0.0020259022242362424 0.0002106795939864221 0.0032654847386248105 0.9980476837771745 -0.015131414075172097 0.0017738307359256129 0.006066401776311867
0.037515631513130004 0.0019240232730601701 0.00732849607671844 0.9978526329356169 -0.01818627085217963 0.0002542723682378462 0.0039217567542966444 -0.00022869900040036457 -0.002435199451040916
 0.9978526329356169 -0.01818627085217963 0.0019232713098465445 0.007328578861504134 -0.00022855693170545447 -0.002435190796679437 0.00025960678784067373 0.003921147829523099
 0.0002542723682378462 0.0039217567542966444 -0.00022855693170545447 -0.002435190796679437 0.0019240943325220987 0.007327988692967415 0.9978526257554018 -0.018186772186047463
 -0.00022869900040036457 -0.002435199451040916 0.00025960678784067373 0.003921147829523099 0.9978526257554018 -0.018186772186047463 0.0019231863445672596 0.007328086047416054
0.043768236765320004 0.0020823282911888235 0.008604488692608497 0.9976456480742063 -0.021252765046047742 0.00030660354835616437 0.004578481019545051 -0.0002742089167078969 -0.0028456338830215727
 0.9976456480742063 -0.021252765046047742 0.0020813055053904225 0.00860459091002023 -0.00027401636179369074 -0.002845625703121594 0.0003138660669960178 0.004577675034457699
 0.00030660354835616437 0.004578481019545051 -0.00027401636179369074 -0.002845625703121594 0.002082425336900697 0.008603896897745041 0.997645638622054 -0.021253349893719263
 -0.0002742089167078969 -0.0028456338830215727 0.0003138660669960178 0.004577675034457699 0.997645638622054 -0.021253349893719263 0.0020811902418477776 0.008604016941643904
0.050020842017509996 0.0022495101808068596 0.009894435617436702 0.9974265644078792 -0.024330605318065156 0.0003640252501354396 0.005236066178089526 -0.0003240878745286708 -0.003257141102423937
 0.9974265644078792 -0.024330605318065156 0.002248175134910566 0.009894558941995583 -0.00032383734875960236 -0.0032571341064049153 0.00037351467108659144 0.005235028461311917
 0.0003640252501354396 0.005236066178089526 -0.00032383734875960236 -0.0032571341064049153 0.002249637261362557 0.009893759424534836 0.9974265523708623 -0.024331273723265788
 -0.0003240878745286708 -0.003257141102423937 0.00037351467108659144 0.005235028461311917 0.9974265523708623 -0.024331273723265788 0.002248024971879341 0.009893904206576076
0.055454545454549996 0.002402146516423024 0.011026583933503711 0.9972262153274886 -0.0270146126298362 0.0004181041608561833 0.005808195547214672 -0.0003710279013315201 -0.00361557651710935
 0.9972262153274886 -0.0270146126298362 0.0024005064759039384 0.011026726976269854 -0.0003707209620427017 -0.0036155711735351595 0.00042977216547269753 0.005806926090298941
 0.0004181041608561833 0.005808195547214672 -0.0003707209620427017 -0.0036155711735351595 0.002402302991083483 0.0110258343983185 0.9972262007889322 -0.02701535370012181
 -0.0003710279013315201 -0.00361557651710935 0.00042977216547269753 0.005806926090298941 0.9972262007889322 -0.02701535370012181 0.002400322251145887 0.01102600239901554
0.056273447269699996 0.002425750601199129 0.011198096910811127 0.9971952106197136 -0.02741986303449357 0.00042659358349024257 0.00589447190888513 -0.0003783944465952965 -0.003669659273999476
 0.9971952106197136 -0.02741986303449357 0.002424061884741473 0.011198243036994454 -0.00037807852109506234 -0.0036696542324162833 0.00043860957744089237 0.005893164954088606
 0.00042659358349024257 0.00589447190888513 -0.00037807852109506234 -0.0036696542324162833 0.00242591177151348 0.011197336323116161 0.9971951956833667 -0.027420615059918198
 -0.0003783944465952965 -0.003669659273999476 0.00043860957744089237 0.005893164954088606 0.9971951956833667 -0.027420615059918198 0.0024238722256675125 0.011197507964934126
0.06252605252188 0.0026112306215502305 0.012515265209922922 0.9969514144154403 -0.03052057217298764 0.0004943643084443669 0.0065536539794239955 -0.00043718662816587093 -0.004083127817680153
 0.9969514144154403 -0.03052057217298764 0.0026091468433800473 0.01251543585081982 -0.00043679792811730485 -0.004083125562269587 0.0005092074240546643 0.0065520374089309
 0.0004943643084443669 0.0065536539794239955 -0.00043679792811730485 -0.004083125562269587 0.002611429941376968 0.012514420226985323 0.9969513962618893 -0.030521407893999798
 -0.00043718662816587093 -0.004083127817680153 0.0005092074240546643 0.0065520374089309 0.9969513962618893 -0.030521407893999798 0.0026089130947665783 0.01251462092253429
0.06877865777407 0.00280613086936856 0.01384575511528866 0.9966950027533545 -0.03363273989013115 0.0005673927850468278 0.007213565025573332 -0.0005005218338640245 -0.004497486618756907
 0.9966950027533545 -0.03363273989013115 0.0028036106500744958 0.013845952001424243 -0.000500053037277493 -0.004497488042460201 0.0005853644503121839 0.007211595553684262
 0.0005673927850468278 0.007213565025573332 -0.000500053037277493 -0.004497488042460201 0.0028063724047085615 0.013844825733442064 0.9966949810616584 -0.03363365939403146
 -0.0005005218338640245 -0.004497486618756907 0.0005853644503121839 0.007211595553684262 0.9966949810616584 -0.03363365939403146 0.0028033282226324085 0.013845057748697197
0.07503126302626001 0.0030106316190854103 0.015189396470876384 0.9964258020155231 -0.036756353195331395 0.0006457339276601962 0.007874155047427975 -0.0005684568880276637 -0.004912675522998978
 0.9964258020155231 -0.036756353195331395 0.0030076335839961566 0.015189621349183125 -0.000567900724809954 -0.0049126815799892054 0.0006671364446762539 0.007871786443583023
 0.0006457339276601962 0.007874155047427975 -0.000567900724809954 -0.0049126815799892054 0.003010919442138846 0.015188382678266407 0.9964257764609256 -0.036757356586164684
 -0.0005684568880276637 -0.004912675522998978 0.0006671364446762539 0.007871786443583023 0.9964257764609256 -0.036757356586164684 0.003007297892629847 0.015188648350938994
0.08128386827845 0.003224912841007035 0.01654602987236205 0.9961436381401465 -0.0398913833975042 0.000729442164540042 0.008535371737219048 -0.0006410480082503323 -0.0053286340007644645
 0.9961436381401465 -0.0398913833975042 0.003221395612829659 0.016546284505341916 -0.0006403972595240585 -0.005328645706451922 0.0007545786989970707 0.008532554789118746
 0.000729442164540042 0.008535371737219048 -0.0006403972595240585 -0.005328645706451922 0.0032252510305084184 0.0165449316552343 0.9961436083939083 -0.0398924707894543
 -0.0006410480082503323 -0.0053286340007644645 0.0007545786989970707 0.008532554789118746 0.9961436083939083 -0.0398924707894543 0.003221002077041969 0.016545233394800126
0.08753647353064001 0.0034491542249409065 0.017915503579544682 0.9958483367317708 -0.043037789148757354 0.0008185713992492947 0.009197160702567321 -0.0007183507855771453 -0.005745300916920879
 0.9958483367317708 -0.043037789148757354 0.0034450764169075706 0.017915789744518164 -0.0007175982832017552 -0.005745319347961354 0.00084774596600479 0.009193843179277645
 0.0008185713992492947 0.009197160702567321 -0.0007175982832017552 -0.005745319347961354 0.003449546866874155 0.01791432091613119 0.995848302460868 -0.043038960672020815
 -0.0007183507855771453 -0.005745300916920879 0.00084774596600479 0.009193843179277645 0.995848302460868 -0.043038960672020815 0.0034446204613709864 0.01791466120387615
0.09378907878283 0.0036835351872110513 0.019297671294624657 0.9955397231549336 -0.046195518623202016 0.0009131749741571473 0.009859465627553313 -0.0008004201615788161 -0.006162614364127938
 0.9955397231549336 -0.046195518623202016 0.0036788553958136453 0.019297990783189438 -0.0007995587877627758 -0.0061626406584248585 0.0009466924193751308 0.00985559224269339
 0.0009131749741571473 0.009859465627553313 -0.0007995587877627758 -0.0061626406584248585 0.0036839863746514602 0.019296404161466857 0.99553968402144 -0.04619677441739191
 -0.0008004201615788161 -0.006162614364127938 0.0009466924193751308 0.00985559224269339 0.99553968402144 -0.04619677441739191 0.00367833245064336 0.01929678555080323
0.100041684035 0.003928234863888461 0.020692390541996463 0.9952176226159369 -0.04936451109557562 0.0010133056349366704 0.010522228388818455 -0.0008873104032307402 -0.006580511542378297
 0.9952176226159369 -0.04936451109557562 0.00392291166178741 0.020692745159610677 -0.0008863330903057992 -0.006580546899071704 0.001051471615456455 0.010517740763834067
 0.0010133056349366704 0.010522228388818455 -0.0008863330903057992 -0.006580546899071704 0.003928748697690526 0.020691038907087265 0.9952175782769606 -0.049365851316255906
 -0.0008873104032307402 -0.006580511542378297 0.001051471615456455 0.010517740763834067 0.9952175782769606 -0.049365851316255906 0.003922317163218012 0.020691464023988252
0.1059090909091 0.004167403628603384 0.02201247747124079 0.9949029434035839 -0.052348457126321496 0.0011123408941076732 0.011144524058830839 -0.0009732799287945721 -0.006973137812837923
 0.9949029434035839 -0.052348457126321496 0.004161438948674334 0.0220128667079393 -0.000972187435853444 -0.006973182818776281 0.0011551477253571817 0.01113940415340185
 0.0011123408941076732 0.011144524058830839 -0.000972187435853444 -0.006973182818776281 0.004167979985952066 0.022011046506833665 0.9949028938631155 -0.052349876724636986
 -0.0009732799287945721 -0.006973137812837923 0.0011551477253571817 0.01113940415340185 0.9949028938631155 -0.052349876724636986 0.004160773159855392 0.022011515110847073
0.1062942892872 0.004183432096500689 0.022099521438535486 0.9948818602393006 -0.05254469813068872 0.0011190154953254067 0.011185389143768276 -0.0009790750766097557 -0.006998928667728002
 0.9948818602393006 -0.05254469813068872 0.004177424025448535 0.022099913004294314 -0.0009779748068650498 -0.006998974347185436 0.0011621364556325638 0.011180225771372964
 0.0011190154953254067 0.011185389143768276 -0.0009779748068650498 -0.006998974347185436 0.0041840126852657035 0.022098085264149456 0.9948818103464203 -0.05254612294630464
 -0.0009790750766097557 -0.006998928667728002 0.0011621364556325638 0.011180225771372964 0.9948818103464203 -0.05254612294630464 0.004176753416148709 0.02209855680771831
0.11254689453939999 0.004449305409462573 0.023518925757554404 0.9945322611367095 -0.05573600448058654 0.0012303560025574945 0.011848886399503197 -0.0010757670189448577 -0.007417800901680091
 0.9945322611367095 -0.05573600448058654 0.004442570973083486 0.02351935610409623 -0.0010745368245792077 -0.007417858225473777 0.0012787391496672147 0.011842982607276871
 0.0012303560025574945 0.011848886399503197 -0.0010745368245792077 -0.007417858225473777 0.004449956870300101 0.023517405001046324 0.9945322053356576 -0.0557375140712285
 -0.0010757670189448577 -0.007417800901680091 0.0012787391496672147 0.011842982607276871 0.9945322053356576 -0.0557375140712285 0.004441819702941569 0.02351792574432289
0.11879949979160001 0.004726032983456673 0.024950466197911286 0.9941686504734119 -0.05893834877796638 0.0013473779031413693 0.012512657061361638 -0.0011774383095554343 -0.00783706230233844
 0.9941686504734119 -0.05893834877796638 0.004718530639750193 0.02495093717158721 -0.0011760712726223302 -0.0078371326532226 0.0014013311795691664 0.012505944975561038
 0.0013473779031413693 0.012512657061361638 -0.0011760712726223302 -0.0078371326532226 0.004726759441807136 0.02494886081007157 0.9941685884038199 -0.05893994333674507
 -0.0011774383095554343 -0.00783706230233844 0.0014013311795691664 0.012505944975561038 0.9941685884038199 -0.05893994333674507 0.004717694166310952 0.024949433600992367
0.1250521050438 0.005013792623477268 0.02639400579893313 0.9937908535316383 -0.06215164408532916 0.0014701312085402699 0.013176636479629128 -0.0012841402399281418 -0.008256645778917477
 0.9937908535316383 -0.06215164408532916 0.005005480777718736 0.026394519260034076 -0.0012826294924030656 -0.008256730600790966 0.0015299632636954217 0.01316904498920762
 0.0014701312085402699 0.013176636479629128 -0.0012826294924030656 -0.008256730600790966 0.00501459821348941 0.02639231572205932 0.9937907848262475 -0.06215332381993977
 -0.0012841402399281418 -0.008256645778917477 0.0015299632636954217 0.01316904498920762 0.9937907848262475 -0.06215332381993977 0.0050045545666932345 0.026392943484545687
0.131304710296 0.005312761723626647 0.027849407476326804 0.9933986957708113 -0.06537579832474673 0.0015986651609046201 0.01384075848129474 -0.0013959232832063632 -0.008676483062559488
 0.9933986957708113 -0.06537579832474673 0.0053035987207596365 0.0278499652995752 -0.0013942620070789367 -0.008676583860425352 0.0016646853207007849 0.013832213202226542
 0.0015986651609046201 0.01384075848129474 -0.0013942620070789367 -0.008676583860425352 0.005313650588719683 0.027847632647403718 0.9933986200555959 -0.0653775634538571
 -0.0013959232832063632 -0.008676483062559488 0.0016646853207007849 0.013832213202226542 0.9933986200555959 -0.0653775634538571 0.005302578246841294 0.027848318382729508
0.1375573155481 0.0055466377646299515 0.029124455790549463 0.993068501834565 -0.0684185800709715 0.0017141266676511575 0.0144843335212116 -0.001493858817739471 -0.00907594354559118
 0.993068501834565 -0.0684185800709715 0.005536578077743423 0.029125045419764656 -0.0014920370089229235 -0.009076060070306256 0.001786485067758517 0.01447486081597671
 0.0017141266676511575 0.0144843335212116 -0.0014920370089229235 -0.009076060070306256 0.005547613532612248 0.029122596002302846 0.9930684187939335 -0.06842043072429436
 -0.001493858817739471 -0.00907594354559118 0.001786485067758517 0.01447486081597671 0.9930684187939335 -0.06842043072429436 0.005535459229135112 0.029123328427816095
0.1438099208003 0.005788429021930848 0.030394007720999858 0.9927272504942314 -0.07145492549936236 0.0018342392928637362 0.015126221616830965 -0.0015957344113941823 -0.00947383448079781
 0.9927272504942314 -0.07145492549936236 0.00577743029458934 0.030394630057546248 -0.0015937447491954694 -0.009473968174117537 0.001913217360773154 0.015115754920581186
 0.0018342392928637362 0.015126221616830965 -0.0015937447491954694 -0.009473968174117537 0.00578949575579613 0.030392062909193756 0.9927271597558112 -0.07145686189324216
 -0.0015957344113941823 -0.00947383448079781 0.001913217360773154 0.015115754920581186 0.9927271597558112 -0.07145686189324216 0.0057762086335605735 0.03039284409857109
0.1500625260525 0.00603806550896461 0.031657994459222655 0.9923750144017045 -0.07448479777337226 0.001958970742110963 0.015766387192493257 -0.0017015180547203497 -0.009870119734882854
 0.9923750144017045 -0.07448479777337226 0.0060260852972467225 0.031658650475335184 -0.001699353227735688 -0.009870272095623904 0.002044848687866682 0.01575485755400962
 0.001958970742110963 0.015766387192493257 -0.001699353227735688 -0.009870272095623904 0.006039227274410693 0.0316559645574766 0.9923749155871019 -0.07448682013274092
 -0.0017015180547203497 -0.009870119734882854 0.002044848687866682 0.01575485755400962 0.9923749155871019 -0.07448682013274092 0.0060247563993835775 0.03165679670247267
0.15631513130469998 0.006295476909837336 0.03291634951968801 0.9920118663940931 -0.0775081594850865 0.0020882884481927886 0.016404795122084266 -0.0018111774427380443 -0.010264763849364991
