! Created with skrf 1.8.0 (http://scikit-rf.org).
# GHz S RI R 50.0 
!freq ReS11 ImS11 ReS12 ImS12 ReS13 ImS13
! ReS14 ImS14
! ReS21 ImS21 ReS22 ImS22 ReS23 ImS23
! ReS24 ImS24
! ReS31 ImS31 ReS32 ImS32 ReS33 ImS33
! ReS34 ImS34
! ReS41 ImS41 ReS42 ImS42 ReS43 ImS43
! ReS44 ImS44
!
0.0 0.001969368113349 0.0 0.9980306318797 0.0 7.64767527716e-05 0.0 -7.647675281066e-05 9.365701053875812e-21
 0.9980306318797 0.0 0.001969368113367 0.0 -7.647675281032e-05 9.365701053834174e-21 7.647675277164e-05 0.0
 7.64767527716e-05 0.0 -7.647675281032e-05 9.365701053834174e-21 0.001969368116804 0.0 0.9980306318832 0.0
 -7.647675281066e-05 9.365701053875812e-21 7.647675277164e-05 0.0 0.9980306318832 0.0 0.001969368116841 0.0
0.005 0.00212041080120348 0.0016131786530575714 0.9978393251159025 -0.004123520162683416 0.00010731353460354787 0.0008210788222397262 -0.00010439550831450399 -0.0005188275432809715
 0.9978393251159025 -0.004123520162683416 0.002120364896175591 0.0016132055449186466 -0.00010439714572921741 -0.0005188288541516877 0.00010760210277845447 0.0008209688671863534
 0.00010731353460354787 0.0008210788222397262 -0.00010439714572921741 -0.0005188288541516877 0.0021204100543216753 0.0016132464259841876 0.9978393255040333 -0.004123453100240914
 -0.00010439550831450399 -0.0005188275432809715 0.00010760210277845447 0.0008209688671863534 0.9978393255040333 -0.004123453100240914 0.002120366407072006 0.0016132718856152342
0.006252605252188 0.002160498136491256 0.0020227371688507985 0.9977881727133837 -0.005155331393478169 0.0001163201152245425 0.0010267299406112522 -0.00011248244193489884 -0.0006491722359827075
 0.9977881727133837 -0.005155331393478169 0.002160426377400436 0.002022771271815184 -0.0001124849894229007 -0.0006491738525349756 0.00011677096833207274 0.0010265869672504697
 0.0001163201152245425 0.0010267299406112522 -0.0001124849894229007 -0.0006491738525349756 0.0021604969060952653 0.002022821880967591 0.9977881732579698 -0.005155247571465665
 -0.00011248244193489884 -0.0006491722359827075 0.00011677096833207274 0.0010265869672504697 0.9977881732579698 -0.005155247571465665 0.002160428677274463 0.002022854178680127
0.01250521050438 0.002374279933329623 0.00408700730474136 0.9975133282006949 -0.010310863594910766 0.00016901222645335313 0.0020536935027059638 -0.00015946264231188296 -0.0013011621629123408
 0.9975133282006949 -0.010310863594910766 0.0023739933789705676 0.00408708047583947 -0.00015947267570857128 -0.0013011651499943537 0.00017080998486514515 0.0020533468928743285
 0.00016901222645335313 0.0020536935027059638 -0.00015947267570857128 -0.0013011651499943537 0.002374274446779776 0.004087176495457814 0.9975133298153497 -0.01031069618197764
 -0.00015946264231188296 -0.0013011621629123408 0.00017080998486514515 0.0020533468928743285 0.9975133298153497 -0.01031069618197764 0.0023740020053945815 0.004087245878278235
0.01875781575657 0.0026112739240128874 0.006179735736630831 0.9972056904375871 -0.015479020674536926 0.00023469216331900672 0.0030814825667908018 -0.00021757943668603753 -0.001954986321483429
 0.9972056904375871 -0.015479020674536926 0.0026106299800520015 0.006179853431396956 -0.0002176018022807052 -0.001954990375962538 0.00023873027030537364 0.003080857458163236
 0.00023469216331900672 0.0030814825667908018 -0.0002176018022807052 -0.001954990375962538 0.0026112611464499096 0.00617998932055691 0.9972056936465293 -0.015478769704472817
 -0.00021757943668603753 -0.001954986321483429 0.00023873027030537364 0.003080857458163236 0.9972056936465293 -0.015478769704472817 0.0026106489461057624 0.0061801009815653065
0.02501042100875 0.002872017831098876 0.008297873562448689 0.9968648331554987 -0.02066217942629646 0.0003134983396717142 0.004110059782074647 -0.0002869874602031928 -0.0026102788391851105
 0.9968648331554987 -0.02066217942629646 0.0028708741463953197 0.008298041674669042 -0.00028702694237936526 -0.002610283595964741 0.00032067022368857526 0.004109067473911209
 0.0003134983396717142 0.004110059782074647 -0.00028702694237936526 -0.002610283595964741 0.0028719947189779892 0.008298211445977532 0.9968648384884775 -0.020661844890448866
 -0.0002869874602031928 -0.0026102788391851105 0.00032067022368857526 0.004109067473911209 0.9968648384884775 -0.020661844890448866 0.0028709074601527954 0.008298370934324378
0.03126302626094 0.003157026599582795 0.010439787332344472 0.9964903123054248 -0.025861279689673573 0.0004055676266501023 0.005139293777932026 -0.00036783531588114606 -0.0032667565536706193
 0.9964903123054248 -0.025861279689673573 0.0031552409741779914 0.010440012185124 -0.0003678966471485624 -0.003266761585222176 0.00041676744734425833 0.0051378316430037065
 0.0004055676266501023 0.005139293777932026 -0.0003678966471485624 -0.003266761585222176 0.0031569900967776494 0.010440209423847819 0.9964903202981896 -0.02586086152680676
 -0.00036783531588114606 -0.0032667565536706193 0.00041676744734425833 0.0051378316430037065 0.9964903202981896 -0.02586086152680676 0.0031552926368383456 0.010440422635250309
0.037515631513130004 0.0034668024287147214 0.012604363237155653 0.9960816766771349 -0.031076720127431994 0.0005110342044065457 0.006169014796442153 -0.0004602665614520631 -0.003924163494038102
 0.9960816766771349 -0.031076720127431994 0.0034642327481189863 0.012604651580000452 -0.00046035442758573207 -0.003924168310356964 0.0005271571404663196 0.0061669661460742875
 0.0005110342044065457 0.006169014796442153 -0.00046035442758573207 -0.003924168310356964 0.003466749462795064 0.012604869432093413 0.996081687869845 -0.031076218238767144
 -0.0004602665614520631 -0.003924163494038102 0.0005271571404663196 0.0061669661460742875 0.996081687869845 -0.031076218238767144 0.0034643067499470015 0.012605142605004081
0.043768236765320004 0.0038018386005585986 0.014790734501881689 0.9956384723071532 -0.0363086307870986 0.000630028966208152 0.007199031642617602 -0.0005644200103075926 -0.00458225403023175
 0.9956384723071532 -0.0363086307870986 0.003798342780123801 0.014791093511000913 -0.0005645390531850048 -0.00458225807889232 0.0006519713064864365 0.0071962655778016
 0.000630028966208152 0.007199031642617602 -0.0005645390531850048 -0.00458225807889232 0.0038017660847876806 0.014791324681855527 0.9956384872499419 -0.03630804503771272
 -0.0005644200103075926 -0.00458225403023175 0.0006519713064864365 0.0071962655778016 0.9956384872499419 -0.03630804503771272 0.0037984431030358297 0.014791664396526193
0.050020842017509996 0.004162621209383259 0.016998168758466704 0.9951602447912558 -0.04155698568638837 0.0007626791184832981 0.00822913871015602 -0.0006804297882684145 -0.0052407859509996215
 0.9951602447912558 -0.04155698568638837 0.0041580571437172835 0.016998606039316043 -0.0006805846077643407 -0.005240788617247843 0.0007913382471104412 0.008225509967726296
 0.0007626791184832981 0.00822913871015602 -0.0006805846077643407 -0.005240788617247843 0.004162526039903199 0.01699884278450977 0.9951602640436947 -0.04155631591233565
 -0.0006804297882684145 -0.0052407859509996215 0.0007913382471104412 0.008225509967726296 0.9951602640436947 -0.04155631591233565 0.004158187757265428 0.016999255964519212
0.055454545454549996 0.004497434227992053 0.01893309301971461 0.9947158553169813 -0.04613122332790844 0.0008891417595196648 0.00912423829575682 -0.0007909751993588562 -0.005813240565217552
 0.9947158553169813 -0.04613122332790844 0.004491826366328585 0.018933604834294727 -0.0007911648137537392 -0.005813241482523427 0.0009243675585623147 0.00911973061628273
 0.0008891417595196648 0.00912423829575682 -0.0007911648137537392 -0.005813241482523427 0.004497316836952575 0.01893383978841492 0.9947158787773432 -0.04613048037175429
 -0.0007909751993588562 -0.005813240565217552 0.0009243675585623147 0.00911973061628273 0.9947158787773432 -0.04613048037175429 0.004491986516139493 0.018934322703887445
0.056273447269699996 0.004549629995108282 0.01922601275709462 0.9946465407062928 -0.046821658069351034 0.0009091078658947612 0.009259119459819267 -0.0008084252820888926 -0.00589951709864018
 0.9946465407062928 -0.046821658069351034 0.004543855510787269 0.01922653634881859 -0.0008086204372486271 -0.0058995177054999804 0.0009453821835499026 0.009254468257424165
 0.0009091078658947612 0.009259119459819267 -0.0008086204372486271 -0.0058995177054999804 0.0045495090497983635 0.019226770478178792 0.9946465648385734 -0.04682090406956668
 -0.0008084252820888926 -0.00589951709864018 0.0009453821835499026 0.009254468257424165 0.9946465648385734 -0.04682090406956668 0.004544020370300245 0.01922726439370154
0.06252605252188 0.004963338735262752 0.02147366201761423 0.9940969085956479 -0.05210245073457848 0.001069434139681925 0.010288748360329808 -0.0009485310328618947 -0.006558203552988319
 0.9940969085956479 -0.05210245073457848 0.004956211544437863 0.021474280399623374 -0.000948771042597218 -0.0065582013613970725 0.0011142229410204063 0.01028290024207214
 0.001069434139681925 0.010288748360329808 -0.000948771042597218 -0.0065582013613970725 0.004963188873580874 0.02147450326392109 0.9940969381915613 -0.05210161227837034
 -0.0009485310328618947 -0.006558203552988319 0.0011142229410204063 0.01028290024207214 0.9940969381915613 -0.05210161227837034 0.0049564145901476436 0.021475085537043817
0.06877865777407 0.005404215396589691 0.023740542728346015 0.9935108997216964 -0.05739911413061665 0.0012437723510206656 0.011317792073527143 -0.0011008665965319664 -0.007216598584227037
 0.9935108997216964 -0.05739911413061665 0.005395593051935163 0.02374126482860597 -0.0011011559401311155 -0.007216592793141475 0.001297975671143267 0.01131055775736796
 0.0012437723510206656 0.011317792073527143 -0.0011011559401311155 -0.007216592793141475 0.005404033457427634 0.023741467314832385 0.99351093537832 -0.057398190954635296
 -0.0011008665965319664 -0.007216598584227037 0.001297975671143267 0.01131055775736796 0.99351093537832 -0.057398190954635296 0.005395838205368255 0.02374214592677877
0.07503126302626001 0.005872722139502806 0.026026100306786388 0.992888068675654 -0.06271135780505191 0.0014322321574511785 0.012346010237332084 -0.0012655463870633824 -0.007874452021690797
 0.992888068675654 -0.06271135780505191 0.005862461989404784 0.02602693551215376 -0.001265889504396563 -0.00787444176823082 0.0014967505945372482 0.01233718546508555
 0.0014322321574511785 0.012346010237332084 -0.001265889504396563 -0.00787444176823082 0.005872504940041986 0.02602710803227176 0.9928881110055202 -0.06271034961511886
 -0.0012655463870633824 -0.007874452021690797 0.0014967505945372482 0.01233718546508555 0.9928881110055202 -0.06271034961511886 0.005862753151407527 0.026027891332509122
0.08128386827845 0.006369315232387705 0.02832979180615277 0.9922279739040184 -0.06803885802454628 0.00163491824001519 0.01337315601679007 -0.001442679506112578 -0.008531509869097268
 0.9922279739040184 -0.06803885802454628 0.0063572743763989185 0.028330749974708618 -0.0014430807977832336 -0.008531494228673235 0.0017106527589407184 0.013362521407176167
 0.00163491824001519 0.01337315601679007 -0.0014430807977832336 -0.008531494228673235 0.006369059568039552 0.028330882454022835 0.9922280235367651 -0.06803776449565567
 -0.001442679506112578 -0.008531509869097268 0.0017106527589407184 0.013362521407176167 0.9922280235367651 -0.06803776449565567 0.006357615425286616 0.028331779171539857
0.08753647353064001 0.006894444905597998 0.03065108068142696 0.9915301781782909 -0.07338126305272971 0.0018519300861678139 0.014398976518893625 -0.0016323695655670297 -0.00918751407075662
 0.9915301781782909 -0.07338126305272971 0.0068804801501974435 0.03065217215666401 -0.0016328333928829362 -0.009187492057204937 0.0019397818065267924 0.014386297424219801
 0.0018519300861678139 0.014398976518893625 -0.0016328333928829362 -0.009187492057204937 0.006894147548389137 0.030652254019856457 0.9915302357621597 -0.07338008382987889
 -0.0016323695655670297 -0.00918751407075662 0.0019397818065267924 0.014386297424219801 0.9915302357621597 -0.07338008382987889 0.006880874938817142 0.030653273276282422
0.09378907878283 0.007448555163283456 0.03298943307601148 0.9907942490280287 -0.07873819692564671 0.002083361777867226 0.01542321311802557 -0.0018347145045855327 -0.009842202382469745
 0.9907942490280287 -0.07873819692564671 0.007432522977328612 0.03299066870334141 -0.0018352451894154674 -0.009842172948209982 0.002184231748706327 0.015408239484739104
 0.002083361777867226 0.01542321311802557 -0.0018352451894154674 -0.009842172948209982 0.007448212860779256 0.032990688860245775 0.9907943152312193 -0.07873693162253396
 -0.0018347145045855327 -0.009842202382469745 0.002184231748706327 0.015408239484739104 0.9907943152312193 -0.07873693162253396 0.007432975330842438 0.03299184018516956
0.100041684035 0.00803208356475625 0.03534431512548542 0.990019759146871 -0.08410926222877338 0.002329301783307316 0.016445601731336548 -0.0020498064038002813 -0.010495308307884792
 0.990019759146871 -0.08410926222877338 0.008013840035111838 0.03534570627069006 -0.0020504082284114183 -0.01049527034406716 0.0024440907460046503 0.01642806796498731
 0.002329301783307316 0.016445601731336548 -0.0020504082284114183 -0.01049527034406716 0.008031693038903796 0.03534565309490099 0.9900198346586807 -0.08410791043192214
 -0.0020498064038002813 -0.010495308307884792 0.0024440907460046503 0.01642806796498731 0.9900198346586807 -0.08410791043192214 0.00801435374823125 0.035346946443302836
0.1059090909091 0.008606802468041186 0.03756867837335877 0.9892575362085289 -0.08916191872989403 0.0025733592466852784 0.01740308445916756 -0.002263317277887618 -0.01110649865118466
 0.9892575362085289 -0.08916191872989403 0.008586352560419432 0.03757022627429512 -0.0022639897188114076 -0.011106451620372096 0.002702028430140125 0.01738289276575233
 0.0025733592466852784 0.01740308445916756 -0.0022639897188114076 -0.011106451620372096 0.008606363685037326 0.037570093219410114 0.9892576211031292 -0.08916048536293801
 -0.002263317277887618 -0.01110649865118466 0.002702028430140125 0.01738289276575233 0.9892576211031292 -0.08916048536293801 0.008586927275162168 0.037571529291879645
0.1062942892872 0.008645460984506517 0.03771519094620421 0.9892062867804557 -0.08949404220833282 0.0025898327522601325 0.017465873056412593 -0.0022777312970488415 -0.011146561088391202
 0.9892062867804557 -0.08949404220833282 0.008624861771798461 0.0377167495160971 -0.0022784085038496586 -0.01114651342508287 0.002719440893266328 0.017445497891070427
 0.0025898327522601325 0.017465873056412593 -0.0022784085038496586 -0.01114651342508287 0.008645018931042742 0.03771661083042862 0.9892063723135338 -0.08949260347220792
 -0.0022777312970488415 -0.011146561088391202 0.002719440893266328 0.017445497891070427 0.9892063723135338 -0.08949260347220792 0.008625440606505469 0.03771805660231845
0.11254689453939999 0.00928911135538458 0.0401015211327433 0.9883534161001742 -0.09489210239330377 0.002865031314087348 0.01848375278758458 -0.0025185689829035174 -0.01179568573017091
 0.9883534161001742 -0.09489210239330377 0.0092660116496912 0.040103259598095346 -0.0025193257741663536 -0.011795627136458563 0.003010358008218522 0.018460239160252228
 0.002865031314087348 0.01848375278758458 -0.0025193257741663536 -0.011795627136458563 0.009288614442718526 0.04010302264834885 0.9883535123916174 -0.0948905762448591
 -0.0025185689829035174 -0.01179568573017091 0.003010358008218522 0.018460239160252228 0.9883535123916174 -0.0948905762448591 0.009266659332400742 0.040104631710693416
0.11879949979160001 0.009963451400566233 0.04250276160670974 0.9874607375675052 -0.10030299188597287 0.003154967879271493 0.019498961819703536 -0.00277239283581209 -0.01244240305986324
 0.9874607375675052 -0.10030299188597287 0.009937705877026321 0.042504693027446624 -0.0027732333732913483 -0.01244233224412968 0.003316911424227004 0.01947199674978886
 0.003154967879271493 0.019498961819703536 -0.0027732333732913483 -0.01244233224412968 0.009962896268336227 0.04250434445964403 0.9874608453802854 -0.10030137782383064
 -0.00277239283581209 -0.01244240305986324 0.003316911424227004 0.01947199674978886 0.9874608453802854 -0.10030137782383064 0.009938426095770123 0.04250612817049499
0.1250521050438 0.010668890354102132 0.04491836273516172 0.9865278482889233 -0.10572624440336278 0.0034597064432773284 0.02051121644266557 -0.0030392696181256356 -0.013086429805814415
 0.9865278482889233 -0.10572624440336278 0.01064035312908274 0.04492050078779324 -0.0030401980227598205 -0.013086345415832062 0.0036391637866552114 0.02048047091688338
 0.0034597064432773284 0.02051121644266557 -0.0030401980227598205 -0.013086345415832062 0.010668273612975345 0.04492002662236941 0.9865279684138927 -0.10572454189757766
 -0.0030392696181256356 -0.013086429805814415 0.0036391637866552114 0.02048047091688338 0.9865279684138927 -0.10572454189757766 0.010641149531158016 0.04492199685748846
0.131304710296 0.011405829676452912 0.04734776865241527 0.9855543523649594 -0.11116137913558943 0.0037793043942368357 0.021520228532435046 -0.0033192592934496628 -0.013727478698781615
 0.9855543523649594 -0.11116137913558943 0.011374354263437103 0.047350127659930456 -0.0033202796448665826 -0.013727379321951652 0.003977170852865745 0.021485357395315364
 0.0037793043942368357 0.021520228532435046 -0.0033202796448665826 -0.013727379321951652 0.011405147906404532 0.047349513261255784 0.9855544856218903 -0.1111595876299173
 -0.0033192592934496628 -0.013727478698781615 0.003977170852865745 0.021485357395315364 0.9855544856218903 -0.1111595876299173 0.011375230452396736 0.047351682443010204
0.1375573155481 0.012021754082323637 0.04947614530502607 0.9846928693915632 -0.11629336539180032 0.004076850236988838 0.022496477458219498 -0.0035752344433745992 -0.014336241417143661
 0.9846928693915632 -0.11629336539180032 0.01198718447769091 0.04947869652099499 -0.0035763530252742154 -0.014336126689013766 0.004293570698873426 0.022457483201340424
 0.004076850236988838 0.022496477458219498 -0.0035763530252742154 -0.014336126689013766 0.012021005006105097 0.04947797008932283 0.98469301641524 -0.11629148455471305
 -0.0035752344433745992 -0.014336241417143661 0.004293570698873426 0.022457483201340424 0.98469301641524 -0.11629148455471305 0.01198814323722876 0.049480308377409486
0.1438099208003 0.012659779854468776 0.051590259001826 0.9838002098322114 -0.12140922564455965 0.004386235690328514 0.02346700406712592 -0.003841269677608945 -0.014939586203909422
 0.9838002098322114 -0.12140922564455965 0.01262196744309887 0.05159301493521712 -0.00384249090604348 -0.014939454702972237 0.004622622176760406 0.02342356637297749
 0.004386235690328514 0.02346700406712592 -0.00384249090604348 -0.014939454702972237 0.012658960214106318 0.05159216357817998 0.9838003714458378 -0.12140725493398666
 -0.003841269677608945 -0.014939586203909422 0.004622622176760406 0.02342356637297749 0.9838003714458378 -0.12140725493398666 0.012623012168084452 0.05159468161555314
0.1500625260525 0.013319631430688124 0.053689842311513684 0.9828766551724808 -0.1265087400176197 0.004707318843095315 0.02443165457352483 -0.004117223383438764 -0.015537364468012014
 0.9828766551724808 -0.1265087400176197 0.013278427012488964 0.05369281631214584 -0.0041185516610196884 -0.015537214714851843 0.004964176698845177 0.024383441426375375
 0.004707318843095315 0.02443165457352483 -0.0041185516610196884 -0.015537214714851843 0.01331873795176016 0.05369182628215959 0.9828768322240177 -0.1265066788749958
 -0.004117223383438764 -0.015537364468012014 0.004964176698845177 0.024383441426375375 0.9828768322240177 -0.1265066788749958 0.013279561046485837 0.05369453548061473
0.15631513130469998 0.014001030685003944 0.055774635866600655 0.9819224890041547 -0.13159169168061643 0.005039955782420803 0.02539027870640156 -0.004402951896096857 -0.01612943150980292
 0.9819224890041547 -0.13159169168061643 0.013956284462403344 0.055777842154592326 -0.004404391611639322 -0.016129261967299763 0.0053180835510244105 0.02533694654433074
