! Created with skrf 1.8.0 (http://scikit-rf.org).
# GHz S RI R 50.0 
!freq ReS11 ImS11 ReS12 ImS12 ReS13 ImS13
! ReS14 ImS14
! ReS21 ImS21 ReS22 ImS22 ReS23 ImS23
! ReS24 ImS24
! ReS31 ImS31 ReS32 ImS32 ReS33 ImS33
! ReS34 ImS34
! ReS41 ImS41 ReS42 ImS42 ReS43 ImS43
! ReS44 ImS44
!
0.0 0.001690299977927 0.0 0.9983097000221 0.0 6.51256753139e-05 0.0 -6.512567464639e-05 7.975594899801346e-21
 0.9983097000221 0.0 0.001690299977919 0.0 -6.512567464674e-05 7.975594899844207e-21 6.512567531149e-05 0.0
 6.51256753139e-05 0.0 -6.512567464674e-05 7.975594899844207e-21 0.001690299965149 0.0 0.9983097000093 0.0
 -6.512567464639e-05 7.975594899801346e-21 6.512567531149e-05 0.0 0.9983097000093 0.0 0.001690299965124 0.0
0.005 0.0018190064827381563 0.001388307606784199 0.9981468102236456 -0.0035399172760669263 9.062151978385608e-05 0.0006818078109514226 -8.81592412702941e-05 -0.00043413173081762997
 0.9981468102236456 -0.0035399172760669263 0.0018190318317524241 0.001388292747168923 -8.815714262627952e-05 -0.0004341300854269832 9.046964295248363e-05 0.0006818656274692951
 9.062151978385608e-05 0.0006818078109514226 -8.815714262627952e-05 -0.0004341300854269832 0.0018190081249140732 0.0013883738736705873 0.9981468105993484 -0.0035398502226292885
 -8.81592412702941e-05 -0.00043413173081762997 9.046964295248363e-05 0.0006818656274692951 0.9981468105993484 -0.0035398502226292885 0.0018190309369469633 0.0013883605849062842
0.006252605252188 0.0018528949112972255 0.001740799273944532 0.998103630846481 -0.0044257378422240855 9.797966387332432e-05 0.0008525978053788921 -9.471333107734571e-05 -0.0005432097871648749
 0.998103630846481 -0.0044257378422240855 0.0018529345369445317 0.0017407804220570457 -9.471006567880114e-05 -0.0005432077581171872 9.774237145102509e-05 0.0008526729194668645
 9.797966387332432e-05 0.0008525978053788921 -9.471006567880114e-05 -0.0005432077581171872 0.0018528973935635457 0.0017408821045615552 0.9981036313486524 -0.004425654021435512
 -9.471333107734571e-05 -0.0005432097871648749 9.774237145102509e-05 0.0008526729194668645 0.9981036313486524 -0.004425654021435512 0.0018529330527128846 0.0017408652276456763
0.01250521050438 0.0020320629322201607 0.0035176421457847593 0.997873743154228 -0.008852089400707804 0.0001405678430803101 0.001705596299676131 -0.00013217286670405687 -0.0010889321834711494
 0.997873743154228 -0.008852089400707804 0.002032221165090575 0.0035176016164412886 -0.00013216000155274554 -0.0010889284310987004 0.00013962158694658079 0.0017057773858941167
 0.0001405678430803101 0.001705596299676131 -0.00013216000155274554 -0.0010889284310987004 0.0020320722965303994 0.003517807470552011 0.9978737446067826 -0.008851922003803215
 -0.00013217286670405687 -0.0010889321834711494 0.00013962158694658079 0.0017057773858941167 0.9978737446067826 -0.008851922003803215 0.002032214677599317 0.0035177710319618666
0.01875781575657 0.0022282236249834887 0.005319380362373382 0.9976197310169328 -0.013289788154703653 0.00019299287366595272 0.0025595014810564226 -0.00017762397382690889 -0.0016364106629741582
 0.9976197310169328 -0.013289788154703653 0.0022285791946650827 0.005319315044154644 -0.00017759528930998809 -0.001636405556539409 0.0001908672454455461 0.0025598258582165733
 0.00019299287366595272 0.0025595014810564226 -0.00017759528930998809 -0.001636405556539409 0.0022282442549874486 0.005319627937718921 0.9976197338596912 -0.013289537271920627
 -0.00017762397382690889 -0.0016364106629741582 0.0001908672454455461 0.0025598258582165733 0.9976197338596912 -0.013289537271920627 0.002228564179092175 0.005319569046450464
0.02501042100875 0.0024417824604911313 0.0071434706629532295 0.9973412756331189 -0.017740948792871743 0.00025535895013867934 0.0034143138312157134 -0.0002311821399305809 -0.002185387075328676
 0.9973412756331189 -0.017740948792871743 0.0024424139479990266 0.007143377187125798 -0.0002311314928526128 -0.0021853810539205236 0.00025158341026571 0.0034148250805373726
 0.00025535895013867934 0.0034143138312157134 -0.0002311314928526128 -0.0021853810539205236 0.0024418187365637905 0.007143800223476974 0.9973412803063665 -0.017740614476263385
 -0.0002311821399305809 -0.002185387075328676 0.00025158341026571 0.0034148250805373726 0.9973412803063665 -0.017740614476263385 0.0024423868771738513 0.007143715807353431
0.03126302626094 0.0026731281470101856 0.00898858670914772 0.9970380430003365 -0.02220645527130153 0.0003277704028615798 0.004269959014387183 -0.0002929593292825697 -0.0027356708670567107
 0.9970380430003365 -0.02220645527130153 0.0026741140288900687 0.008988461454764344 -0.00029288064010564755 -0.002735664440297036 0.00032187386094264126 0.004270707017374863
 0.0003277704028615798 0.004269959014387183 -0.00029288064010564755 -0.002735664440297036 0.002673184449181087 0.008988997956016645 0.997038049946423 -0.022206037545869476
 -0.0002929593292825697 -0.0027356708670567107 0.00032187386094264126 0.004270707017374863 0.997038049946423 -0.022206037545869476 0.0026740713731262006 0.008988884767283805
0.037515631513130004 0.0029226406727649694 0.01085385041302789 0.9967096922673504 -0.02668672942427991 0.00041033063352781087 0.005126332625461778 -0.0003630647101401066 -0.0032870943421517804
 0.9967096922673504 -0.02668672942427991 0.0029240593510606776 0.010853689508882259 -0.0003629519564753319 -0.0032870880903680963 0.00040184126937022107 0.005127373626216275
 0.00041033063352781087 0.005126332625461778 -0.0003629519564753319 -0.0032870880903680963 0.002922721379185374 0.010854343000306488 0.9967097019299666 -0.026686228301067854
 -0.0003630647101401066 -0.0032870943421517804 0.00040184126937022107 0.005127373626216275 0.9967097019299666 -0.026686228301067854 0.002923997575760247 0.010854197618346736
0.043768236765320004 0.0031906944038913028 0.01273859799361571 0.9963558791479313 -0.03118196483485345 0.0005031416003389949 0.005983313810812656 -0.00044160490089888827 -0.0038394990576694245
 0.9963558791479313 -0.03118196483485345 0.0031926242295476255 0.012738397319026503 -0.0004414521136938469 -0.003839493631922579 0.000491586788540623 0.005984710485828473
 0.0005031416003389949 0.005983313810812656 -0.0004414521136938469 -0.003839493631922579 0.003190803890257645 0.012739171524985738 0.9963558919711683 -0.031181380313559007
 -0.00044160490089888827 -0.0038394990576694245 0.000491586788540623 0.005984710485828473 0.9963558919711683 -0.031181380313559007 0.0031925397941318543 0.012738990358047195
0.050020842017509996 0.0034776595103204063 0.014642283322454736 0.9959762576671857 -0.03569222341520645 0.0006063035024616578 0.006840770882282866 -0.000528684039962651 -0.00439273023163173
 0.9959762576671857 -0.03569222341520645 0.003480178803908021 0.014642038507028306 -0.0005284853010652649 -0.0043927263536813 0.0005912097915735036 0.006842592413185029
 0.0006063035024616578 0.006840770882282866 -0.0005284853010652649 -0.0043927263536813 0.003477802150664339 0.014642937350445617 0.9959762740977032 -0.035691555484190035
 -0.000528684039962651 -0.00439273023163173 0.0005912097915735036 0.006842592413185029 0.9959762740977032 -0.035691555484190035 0.003480068162943039 0.014642716636492865
0.055454545454549996 0.0037426841058527203 0.016311652451970214 0.9956251263538093 -0.03962395965430622 0.000704436872192981 0.007586205179733709 -0.0006113721340015219 -0.004874056569257185
 0.9956251263538093 -0.03962395965430622 0.003745779261642829 0.01631136553293057 -0.0006111286937650074 -0.004874054677418149 0.0006858826179883996 0.007588457214972149
 0.000704436872192981 0.007586205179733709 -0.0006111286937650074 -0.004874054677418149 0.0037428591077792025 0.016312376029230257 0.9956251462829216 -0.03962321922061665
 -0.0006113721340015219 -0.004874056569257185 0.0006858826179883996 0.007588457214972149 0.9956251462829216 -0.03962321922061665 0.0037456429630555407 0.016312117760289457
0.056273447269699996 0.0037839026846818212 0.016564430461555382 0.9955704812070643 -0.04021748279715996 0.000719914546720977 0.007698564100556087 -0.0006244037819281181 -0.004946633987286053
 0.9955704812070643 -0.04021748279715996 0.003787089755550447 0.01656413688429846 -0.0006241532225055679 -0.004946632449539522 0.0007008076720468567 0.007700886247926374
 0.000719914546720977 0.007698564100556087 -0.0006241532225055679 -0.004946632449539522 0.003784082849985261 0.016565164485949854 0.9955705016930042 -0.04021673143443094
 -0.0006244037819281181 -0.004946633987286053 0.0007008076720468567 0.007700886247926374 0.9955705016930042 -0.04021673143443094 0.0037869493574912254 0.016564900292739475
0.06252605252188 0.004109787513463259 0.018504607591809642 0.9951382032085806 -0.04475766233734725 0.0008440707606220466 0.008556547192972812 -0.0007288632513227232 -0.005501055869050907
 0.9951382032085806 -0.04475766233734725 0.004113720677712325 0.018504260379545577 -0.0007285550507874521 -0.0055010575344961255 0.0008204756791154574 0.008559452370417619
 0.0008440707606220466 0.008556547192972812 -0.0007285550507874521 -0.0055010575344961255 0.00411000957186875 0.018505421057687804 0.9951382282011438 -0.04475682751169488
 -0.0007288632513227232 -0.005501055869050907 0.0008204756791154574 0.008559452370417619 0.9951382282011438 -0.04475682751169488 0.004113546965857115 0.01850510928239168
0.06877865777407 0.004455674659996346 0.020462411457499944 0.9946790776918889 -0.04931263861206992 0.0009788658278734256 0.009414568281485345 -0.0008421589750740508 -0.006055839954827915
 0.9946790776918889 -0.04931263861206992 0.004460432258016078 0.020462005482713937 -0.0008417873604349904 -0.0060558457569601055 0.0009503067689145698 0.009418145629377235
 0.0009788658278734256 0.009414568281485345 -0.0008417873604349904 -0.0060558457569601055 0.004455942975508064 0.02046330375408702 0.9946791076445073 -0.0493117202836221
 -0.0008421589750740508 -0.006055839954827915 0.0009503067689145698 0.009418145629377235 0.9946791076445073 -0.0493117202836221 0.004460221669387785 0.020462940122130357
0.07503126302626001 0.004821921930015919 0.022437457517242815 0.9941927596625038 -0.05388225521295201 0.0011243909386214053 0.010272470476092595 -0.0009643848007091784 -0.0066108283095796085
 0.9941927596625038 -0.05388225521295201 0.004827582343488249 0.022436987395180484 -0.0009639440460485972 -0.006610839252319362 0.0010903914666058167 0.010276815934718747
 0.0011243909386214053 0.010272470476092595 -0.0009639440460485972 -0.006610839252319362 0.004822240862358921 0.022438427978396097 0.9941927950322925 -0.05388125333199203
 -0.0009643848007091784 -0.0066108283095796085 0.0010903914666058167 0.010276815934718747 0.9941927950322925 -0.05388125333199203 0.004827331310261177 0.02243800804165091
0.08128386827845 0.0052088842709102695 0.024429373394636696 0.9936789054574127 -0.05846632925030783 0.001280734649561786 0.01113009227423042 -0.0010956318042330353 -0.007165860640046849
 0.9936789054574127 -0.05846632925030783 0.0052155259398543805 0.024428833479846992 -0.0010951162305634127 -0.007165877797645091 0.0012408177358690816 0.011135308656000978
 0.001280734649561786 0.01113009227423042 -0.0010951162305634127 -0.007165877797645091 0.005209258174801115 0.02443042129534854 0.9936789467054118 -0.058465243760107054
 -0.0010956318042330353 -0.007165860640046849 0.0012408177358690816 0.011135308656000978 0.9936789467054118 -0.058465243760107054 0.005215230888636368 0.024429940429821596
0.08753647353064001 0.0056169137198673865 0.026437794346967813 0.9931371730439521 -0.06306465584641387 0.0014479827481827267 0.011987267859557641 -0.0012359881935087925 -0.007720774057215763
 0.9931371730439521 -0.06306465584641387 0.005624615159622856 0.026437178729133155 -0.0012353921686201713 -0.007720798574162762 0.0014016708509790158 0.011993464920219856
 0.0014479827481827267 0.011987267859557641 -0.0012353921686201713 -0.007720798574162762 0.005617346943611525 0.026438918905262725 0.9931372206345364 -0.06306348668074267
 -0.0012359881935087925 -0.007720774057215763 0.0014016708509790158 0.011993464920219856 0.9931372206345364 -0.06306348668074267 0.005624272511493462 0.026438372307874273
0.09378907878283 0.006046359320613155 0.028462360040443755 0.9925672222908645 -0.06767701133087034 0.0016262181226558289 0.012843827318985314 -0.0013855392056160974 -0.00827540292808422
 0.9925672222908645 -0.06767701133087034 0.006055199138512809 0.028461662539508735 -0.0013848571441314175 -0.00827543601900013 0.0015730332728899012 0.012851121827545574
 0.0016262181226558289 0.012843827318985314 -0.0013848571441314175 -0.00827543601900013 0.006046856205703509 0.02846356041409262 0.9925672766930644 -0.06767575841665402
 -0.0013855392056160974 -0.00827540292808422 0.0015730332728899012 0.012851121827545574 0.9925672766930644 -0.06767575841665402 0.006054805309352996 0.028462943099013517
0.100041684035 0.00649756701665631 0.030502712187224598 0.9919687152209575 -0.07230315558273033 0.0018155206332157814 0.01369959681907433 -0.001544367001966859 -0.008829578775601747
 0.9919687152209575 -0.07230315558273033 0.006507623928734304 0.03050192634793802 -0.0015435933654277551 -0.008829621725127895 0.0017549845267164062 0.013708112626358316
 0.0018155206332157814 0.01369959681907433 -0.0015435933654277551 -0.008829621725127895 0.006498131896949776 0.03050398747659398 0.9919687769087575 -0.0723018188366384
 -0.001544367001966859 -0.008829578775601747 0.0017549845267164062 0.013708112626358316 0.9919687769087575 -0.0723018188366384 0.006507175329682676 0.030503294270707363
0.1059090909091 0.006941075304346297 0.032431404967385453 0.9913808091923951 -0.07665661523114746 0.0020032947718115236 0.01450176910373367 -0.0017019175717491132 -0.009349049387006791
 0.9913808091923951 -0.07665661523114746 0.006952346033403568 0.03243053011026433 -0.0017010530065892544 -0.009349102818423025 0.0019354250641505032 0.014511549978711756
 0.0020032947718115236 0.01450176910373367 -0.0017010530065892544 -0.009349102818423025 0.006941707924681413 0.0324327496831083 0.9913808781522412 -0.07665519973706694
 -0.0017019175717491132 -0.009349049387006791 0.0019354250641505032 0.014511549978711756 0.9913808781522412 -0.07665519973706694 0.0069518427699553475 0.032431980385493844
0.1062942892872 0.006970879526631407 0.03255849277919789 0.9913413162496815 -0.07694283378521888 0.0020159669870141433 0.014554398747727468 -0.0017125505602649984 -0.009383130221083644
 0.9913413162496815 -0.07694283378521888 0.006982232374769679 0.032557611864790593 -0.0017116798573937964 -0.009383184383754063 0.0019476010807076111 0.014564266853499494
 0.0020159669870141433 0.014554398747727468 -0.0017116798573937964 -0.009383184383754063 0.006971516727170741 0.0325598420213723 0.9913413857018245 -0.0769414131189591
 -0.0017125505602649984 -0.009383130221083644 0.0019476010807076111 0.014564266853499494 0.9913413857018245 -0.0769414131189591 0.006981725411679307 0.032559067559114814
0.11254689453939999 0.007466636206353472 0.03462934273374966 0.9906846924130235 -0.08159577777755332 0.0022276306130542406 0.015408051840157649 -0.001890165565559577 -0.009935882950264778
 0.9906846924130235 -0.08159577777755332 0.007479363974729654 0.034628359719016864 -0.00188919235243384 -0.00993594975038156 0.002150956226416203 0.015419410458622601
 0.0022276306130542406 0.015408051840157649 -0.00188919235243384 -0.00993594975038156 0.007467350042465504 0.03463076490835837 0.9906847701138424 -0.08159427309161796
 -0.001890165565559577 -0.009935882950264778 0.002150956226416203 0.015419410458622601 0.9906847701138424 -0.08159427309161796 0.0074787950489462515 0.03462990362572213
0.11879949979160001 0.007985172900458094 0.036714900862192666 0.9899985135891313 -0.0862617070940609 0.0024505815395692906 0.016260371289974894 -0.0020772842993724105 -0.010487659702346058
 0.9899985135891313 -0.0862617070940609 0.007999354732775694 0.03671380842569772 -0.002076203179808187 -0.010487740633824875 0.00236511995995068 0.01627336591353194
 0.0024505815395692906 0.016260371289974894 -0.002076203179808187 -0.010487740633824875 0.007985967676827774 0.036716394886114674 0.9899986000291747 -0.08626011828245671
 -0.0020772842993724105 -0.010487659702346058 0.00236511995995068 0.01627336591353194 0.9899986000291747 -0.08626011828245671 0.007998720241203244 0.03671544101394155
0.1250521050438 0.008526821786022078 0.03881480304553314 0.9892824527151793 -0.09094032980559454 0.0026848862723442735 0.017111168849078776 -0.0022739755283580714 -0.011038280278235365
 0.9892824527151793 -0.09094032980559454 0.008542537002341357 0.03881359356116449 -0.002272781154226659 -0.011038376904480124 0.002590158863561637 0.017125952310344056
 0.0026848862723442735 0.017111168849078776 -0.002272781154226659 -0.011038376904480124 0.008527701795499306 0.03881636777340518 0.9892825483907439 -0.09093865675489926
 -0.0022739755283580714 -0.011038280278235365 0.002590158863561637 0.017125952310344056 0.9892825483907439 -0.09093865675489926 0.00854183333720572 0.03881531532988203
0.131304710296 0.009091911209308906 0.04092868159311322 0.9885361859991301 -0.09563134318830087 0.0029306076736899415 0.017960252926286474 -0.002480304392339729 -0.011587561558570979
 0.9885361859991301 -0.09563134318830087 0.009109239322956307 0.04092734712073588 -0.0024789914639898455 -0.011587675512272438 0.002826135988805405 0.01797698545813794
 0.0029306076736899415 0.017960252926286474 -0.0024789914639898455 -0.011587675512272438 0.009092880732305297 0.04093031581832604 0.9885362914134666 -0.09562958577625949
 -0.002480304392339729 -0.011587561558570979 0.002826135988805405 0.01797698545813794 0.9885362914134666 -0.09562958577625949 0.009108462872733173 0.040929158600684704
0.1375573155481 0.00955571384022204 0.042782680695182394 0.987884500619428 -0.10006080972784583 0.0031583958811762587 0.018781207609573927 -0.002667047858855948 -0.012109021974410557
 0.987884500619428 -0.10006080972784583 0.0095747394188605 0.042781238204689764 -0.0026656083857824952 -0.01210915351205526 0.003043942221818875 0.018799874346727658
 0.0031583958811762587 0.018781207609573927 -0.0026656083857824952 -0.01210915351205526 0.00955677641321156 0.042784383510291 0.9878846162172341 -0.10005896791952068
 -0.002667047858855948 -0.012109021974410557 0.003043942221818875 0.018799874346727658 0.9878846162172341 -0.10005896791952068 0.009573887422089028 0.042783139775438475
0.1438099208003 0.010035991810059335 0.0446261161253184 0.9872095949437167 -0.10447819678125514 0.003395355606841282 0.019598174607955057 -0.002861211148779925 -0.012626877598504923
 0.9872095949437167 -0.10447819678125514 0.010056795359406248 0.04462455897007078 -0.0028596394168566865 -0.012627028342275857 0.003270485224735415 0.019618923004732537
 0.003395355606841282 0.019598174607955057 -0.0028596394168566865 -0.012627028342275857 0.01003715156265726 0.04462788631603076 0.9872097212250763 -0.10447627046469828
 -0.002861211148779925 -0.012626877598504923 0.003270485224735415 0.019618923004732537 0.9872097212250763 -0.10447627046469828 0.010055864352657052 0.044626551158511496
0.1500625260525 0.010532563323693131 0.046458809175996776 0.9865116553301785 -0.10888336873285283 0.00364139622432237 0.020411049410849404 -0.003062707399676325 -0.013141032846198145
 0.9865116553301785 -0.10888336873285283 0.010555225551348342 0.046457130318316484 -0.003060997709104121 -0.013141204483895223 0.003505677322511586 0.020434032305754298
 0.00364139622432237 0.020411049410849404 -0.003060997709104121 -0.013141204483895223 0.010533824364938736 0.046460645478344796 0.9865117928003077 -0.10888135779455627
 -0.003062707399676325 -0.013141032846198145 0.003505677322511586 0.020434032305754298 0.9865117928003077 -0.10888135779455627 0.010554212077222529 0.046459213670551405
0.15631513130469998 0.011045245149310687 0.04828058646976043 0.9857908692432897 -0.11327619101448377 0.0038964259334236884 0.02121972946823505 -0.0032714485982374354 -0.013651394303561411
 0.9857908692432897 -0.11327619101448377 0.011069846970414748 0.04827877847105444 -0.003269595263630482 -0.013651588588374125 0.003749429716735986 0.02124510502220906
