! Created with skrf 1.8.0 (http://scikit-rf.org).
# GHz S RI R 50.0 
!freq ReS11 ImS11 ReS12 ImS12 ReS13 ImS13
! ReS14 ImS14
! ReS21 ImS21 ReS22 ImS22 ReS23 ImS23
! ReS24 ImS24
! ReS31 ImS31 ReS32 ImS32 ReS33 ImS33
! ReS34 ImS34
! ReS41 ImS41 ReS42 ImS42 ReS43 ImS43
! ReS44 ImS44
!
0.0 0.001281061330241 0.0 0.9987189386552 0.0 4.892418238154e-05 0.0 -4.892418195854e-05 5.9914842836428696e-21
 0.9987189386552 0.0 0.00128106133024 0.0 -4.892418195823e-05 5.9914842836049055e-21 4.892418237901e-05 0.0
 4.892418238154e-05 0.0 -4.892418195823e-05 5.9914842836049055e-21 0.001281061337516 0.0 0.9987189386625 0.0
 -4.892418195854e-05 5.9914842836428696e-21 4.892418237901e-05 0.0 0.9987189386625 0.0 0.001281061337533 0.0
0.005 0.0013776635546570945 0.0010493957177405918 0.9985968313268745 -0.0026841947741712007 6.803057347799908e-05 0.0005337891693946843 -6.617246419455849e-05 -0.0003360813149214525
 0.9985968313268745 -0.0026841947741712007 0.0013776678372729007 0.0010493932548583593 -6.617364142723207e-05 -0.0003360822541474101 6.800742292235567e-05 0.0005337980947295364
 6.803057347799908e-05 0.0005337891693946843 -6.617364142723207e-05 -0.0003360822541474101 0.0013776624407312917 0.0010493291571651714 0.9985968309959317 -0.002684261828584848
 -6.617246419455849e-05 -0.0003360813149214525 6.800742292235567e-05 0.0005337980947295364 0.9985968309959317 -0.002684261828584848 0.0013776682916764637 0.001049325708014049
0.006252605252188 0.0014028110526844524 0.0013158949528503997 0.9985648748639238 -0.0033559288757751163 7.33811784709105e-05 0.0006675095192620528 -7.095448931949616e-05 -0.00042054576841376993
 0.9985648748639238 -0.0033559288757751163 0.001402817746557484 0.0013158917842054413 -7.095632094567427e-05 -0.00042054692759357405 7.334500882014e-05 0.0006675210797331811
 7.33811784709105e-05 0.0006675095192620528 -7.095632094567427e-05 -0.00042054692759357405 0.0014028093797362384 0.0013158117561946482 0.9985648744151245 -0.003356012694746802
 -7.095448931949616e-05 -0.00042054576841376993 7.334500882014e-05 0.0006675210797331811 0.9985648744151245 -0.003356012694746802 0.0014028185258747857 0.0013158073462528
0.01250521050438 0.00153409635678573 0.0026596008470757917 0.9983970880034629 -0.006712828127927294 0.00010349541278395572 0.0013354580970147134 -9.761572982565529e-05 -0.0008432431328908094
 0.9983970880034629 -0.006712828127927294 0.0015341230774452068 0.0026595936022982872 -9.762294527833661e-05 -0.0008432452907970352 0.00010335121112486716 0.0013354855395677648
 0.00010349541278395572 0.0013354580970147134 -9.762294527833661e-05 -0.0008432452907970352 0.001534090226870454 0.0026594347660882567 0.9983970867668002 -0.006712995515213486
 -9.761572982565529e-05 -0.0008432431328908094 0.00010335121112486716 0.0013354855395677648 0.9983970867668002 -0.006712995515213486 0.0015341267508500302 0.0026594249417551423
0.01875781575657 0.0016751646345134754 0.004022721147060193 0.998215397653341 -0.010078906354968985 0.00013933054036466996 0.0020043107768231098 -0.00012898143468051778 -0.0012675145026410997
 0.998215397653341 -0.010078906354968985 0.0016752246632994012 0.004022708869218111 -0.0001289975218962966 -0.0012675174737607905 0.0001390066875663464 0.002004359181371395
 0.00013933054036466996 0.0020043107768231098 -0.0001289975218962966 -0.0012675174737607905 0.0016751512756580933 0.0040224723548223686 0.9982153952987315 -0.010079157232053848
 -0.00012898143468051778 -0.0012675145026410997 0.0001390066875663464 0.002004359181371395 0.9982153952987315 -0.010079157232053848 0.0016752333553191944 0.004022456023195608
0.02501042100875 0.0018262579989251019 0.005403390576770696 0.99801961740991 -0.013455834726362116 0.00018095112931638282 0.0026741187228512767 -0.0001651233779611649 -0.0016931928497703151
 0.99801961740991 -0.013455834726362116 0.0018263645811231464 0.005403372261494153 -0.00016515178255726318 -0.001693196419848757 0.00018037602254113592 0.002674193888340019
 0.00018095112931638282 0.0026741187228512767 -0.00016515178255726318 -0.001693196419848757 0.0018262346329114 0.00540305925714015 0.9980196136011773 -0.013456169035905621
 -0.0001651233779611649 -0.0016931928497703151 0.00018037602254113592 0.002674193888340019 0.9980196136011773 -0.013456169035905621 0.001826380413185721 0.00540303524106257
0.03126302626094 0.0019876083108224456 0.006800669404720868 0.9978095500403962 -0.016844352667052555 0.00022842240488426193 0.0033448729349373567 -0.000206111685611011 -0.0021201679707178356
 0.9978095500403962 -0.016844352667052555 0.001987774661522001 0.006800644000515615 -0.00020615581826223428 -0.0021201718963074993 0.00022752438622006727 0.0033449813810523766
 0.00022842240488426193 0.0033448729349373567 -0.00020615581826223428 -0.0021201718963074993 0.0019875721610162368 0.006800255754627115 0.9978095444434198 -0.016844770370869344
 -0.000206111685611011 -0.0021201679707178356 0.00022752438622006727 0.0033449813810523766 0.9978095444434198 -0.016844770370869344 0.00198779976200089 0.006800222792707167
0.037515631513130004 0.0021594426032767447 0.008213960196546214 0.9975849930158149 -0.02024485105518704 0.00028180963880224244 0.004016541006571394 -0.0002520153533214027 -0.002548349716699153
 0.9975849930158149 -0.02024485105518704 0.00215968191082713 0.008213926604883428 -0.00025207859362490746 -0.00254835372500984 0.0002805169620243243 0.0040166899796366335
 0.00028180963880224244 0.004016541006571394 -0.00025207859362490746 -0.00254835372500984 0.0021593908912737893 0.008213464429199995 0.9975849852956233 -0.020245352131348558
 -0.0002520153533214027 -0.002548349716699153 0.0002805169620243243 0.0040166899796366335 0.9975849852956233 -0.020245352131348558 0.0021597184122456163 0.008213421175611444
0.043768236765320004 0.002341985184417443 0.009642830319529441 0.9973457407251094 -0.02365754966172695 0.0003411778752366433 0.004689078284523433 -0.000302902436745343 -0.0029776568225541515
 0.9973457407251094 -0.02365754966172695 0.002342310613417779 0.009642787394869541 -0.0003029881355923729 -0.0029776606114090697 0.0003394186890227357 0.0046892757646836624
 0.0003411778752366433 0.004689078284523433 -0.0003029881355923729 -0.0029776606114090697 0.002341915132160906 0.009642252669187671 0.9973457305472972 -0.023658134100143884
 -0.000302902436745343 -0.0029776568225541515 0.0003394186890227357 0.0046892757646836624 0.9973457305472972 -0.023658134100143884 0.0023423606545221964 0.009642197693225812
0.050020842017509996 0.002535458626804606 0.011086938585610514 0.9970915855764684 -0.027082570449498113 0.00040659176798755954 0.0053624324824284 -0.00035884013284125674 -0.0034080122823073387
 0.9970915855764684 -0.027082570449498113 0.002535883319808804 0.011086885135499347 -0.00035895161389826603 -0.003408015520131043 0.00040429410795578366 0.005362687191315604
 0.00040659176798755954 0.0053624324824284 -0.00035895161389826603 -0.003408015520131043 0.00253536745448856 0.011086279312847806 0.9970915726051188 -0.027083238247143208
 -0.00035884013284125674 -0.0034080122823073387 0.00040429410795578366 0.005362687191315604 0.9970915726051188 -0.027083238247143208 0.0025359490441633752 0.011086211098445244
0.055454545454549996 0.002712642045064475 0.012354064742931891 0.9968584518579564 -0.03006907224663252 0.0004683980742768283 0.005948216453453479 -0.00041160496523227436 -0.0037827973204245346
 0.9968584518579564 -0.03006907224663252 0.002713163659393307 0.012354001140977672 -0.000411741530735555 -0.0037827997872734395 0.000465573930138636 0.005948528560738452
 0.0004683980742768283 0.005948216453453479 -0.000411741530735555 -0.0037827997872734395 0.002712530260120998 0.012353334769262694 0.9968584361851344 -0.030069812489849034
 -0.00041160496523227436 -0.0037827973204245346 0.000465573930138636 0.005948528560738452 0.9968584361851344 -0.030069812489849034 0.0027132447573801686 0.01235325375230201
0.056273447269699996 0.0027400842818750795 0.012545999246438441 0.996822318626019 -0.03051997352016796 0.0004781154711654803 0.006036545942767593 -0.00041989480824565365 -0.003839341077360247
 0.996822318626019 -0.03051997352016796 0.0027406213615176495 0.01254593403144558 -0.00042003536906708405 -0.003839343403181098 0.0004752072568208031 0.006036867351460163
 0.0004781154711654803 0.006036545942767593 -0.00042003536906708405 -0.003839343403181098 0.0027399692082347685 0.012545258637299198 0.9968223025238373 -0.030520724682249416
 -0.00041989480824565365 -0.003839341077360247 0.0004752072568208031 0.006036867351460163 0.9968223025238373 -0.030520724682249416 0.0027407049173055575 0.012545175582467446
0.06252605252188 0.002956082568571051 0.014019762206430688 0.9965377299835652 -0.03396977684350495 0.0005558125549903983 0.0067113568715273676 -0.00048613200199630347 -0.004271568933418366
 0.9965377299835652 -0.03396977684350495 0.0029567451392049932 0.014019683940118613 -0.0004863049148069479 -0.004271569956872869 0.0005522215902375078 0.006711755208575278
 0.0005558125549903983 0.0067113568715273676 -0.0004863049148069479 -0.004271569956872869 0.00295594081263586 0.014018940576874285 0.9965377104128763 -0.033970611379435786
 -0.00048613200199630347 -0.004271568933418366 0.0005522215902375078 0.006711755208575278 0.9965377104128763 -0.033970611379435786 0.0029568486807146294 0.014018840993163901
0.06877865777407 0.0031836731407875094 0.01550800121655813 0.9962376090985259 -0.03743196800727271 0.0006397459358118083 0.00738680007650454 -0.000557616413417052 -0.004704621575296307
 0.9962376090985259 -0.03743196800727271 0.003184474289697777 0.015507908565453515 -0.0005578249256523952 -0.004704620876650073 0.0006353999118451884 0.007387286335981481
 0.0006397459358118083 0.00738680007650454 -0.0005578249256523952 -0.004704620876650073 0.0031835019210080073 0.015507098907168749 0.9962375857200801 -0.03743288593641491
 -0.000557616413417052 -0.004704621575296307 0.0006353999118451884 0.007387286335981481 0.9962375857200801 -0.03743288593641491 0.003184599976486544 0.01550698101902751
0.07503126302626001 0.0034230749769007455 0.017010506384264296 0.9959217449707978 -0.04090651165232513 0.0007299778140344593 0.008062807435046187 -0.0006344118811706548 -0.005138424253989417
 0.9959217449707978 -0.04090651165232513 0.0034240277761490518 0.01701039796770691 -0.0006346592159296424 -0.005138421384153003 0.0007248043140099058 0.00806339338457347
 0.0007299778140344593 0.008062807435046187 -0.0006346592159296424 -0.005138421384153003 0.0034228715116127783 0.017009523767886777 0.9959217174438139 -0.04090751299668702
 -0.0006344118811706548 -0.005138424253989417 0.0007248043140099058 0.00806339338457347 0.9959217174438139 -0.04090751299668702 0.0034241777728989844 0.017009385711997525
0.08128386827845 0.003674506427251295 0.018527079201405616 0.9955899263217972 -0.0443933543913309 0.0008265696178711249 0.008739308201357363 -0.0007165813555603306 -0.0055729014359623035
 0.9955899263217972 -0.0443933543913309 0.0036756239350600544 0.01852695359141646 -0.0007168707119222394 -0.00557289591650914 0.0008204961230376825 0.008740006390112758
 0.0008265696178711249 0.008739308201357363 -0.0007168707119222394 -0.00557289591650914 0.0036742679354054763 0.018526016678851714 0.9955898943039998 -0.04439443918029811
 -0.0007165813555603306 -0.0055729014359623035 0.0008204961230376825 0.008740006390112758 0.9955898943039998 -0.04439443918029811 0.003675800411952408 0.01852585650346053
0.08753647353064001 0.003938185230383382 0.020057529093582542 0.9952419417355531 -0.04789242820790858 0.0009295819497453935 0.009416229221955043 -0.0008041868674718952 -0.00600797658620265
 0.9952419417355531 -0.04789242820790858 0.003939480492033655 0.020057384814714713 -0.0008045214206894466 -0.006007967909398826 0.0009225358462906397 0.00941705298856368
 0.0009295819497453935 0.009416229221955043 -0.0008045214206894466 -0.006007967909398826 0.00393790893110541 0.020056387093811082 0.9952419048824444 -0.047893596478481425
 -0.0008041868674718952 -0.00600797658620265 0.0009225358462906397 0.00941705298856368 0.9952419048824444 -0.047893596478481425 0.003939685624255953 0.020056202757966334
0.09378907878283 0.0042143285073875875 0.021601670956220568 0.994877579781727 -0.05140365287125785 0.0010390745347761043 0.010093495088188638 -0.0008972894936587524 -0.006443572016160633
 0.994877579781727 -0.05140365287125785 0.004215814557316332 0.021601506485290144 -0.0008976723953881963 -0.006443559644982833 0.0010309831222813054 0.010094458568561344
 0.0010390745347761043 0.010093495088188638 -0.0008976723953881963 -0.006443559644982833 0.004214011621392395 0.02160044994031974 0.9948775377471564 -0.051404904664391404
 -0.0008972894936587524 -0.006443572016160633 0.0010309831222813054 0.010094458568561344 0.9948775377471564 -0.051404904664391404 0.004216050525476706 0.02160023931310463
0.100041684035 0.004503152744456986 0.023159323345752166 0.9944966291271724 -0.054926937697470805 0.0011551061710781655 0.010771028250933507 -0.0009959493202003882 -0.00687960877156251
 0.9944966291271724 -0.054926937697470805 0.004504842606885504 0.02315913711161042 -0.0009963836985576115 -0.006879592139726755 0.0011458966708442625 0.010772146385982556
 0.0011551061710781655 0.010771028250933507 -0.0009963836985576115 -0.006879592139726755 0.004502792493476095 0.023158023806183887 0.9944965815621071 -0.054928273059183796
 -0.0009959493202003882 -0.00687960877156251 0.0011458966708442625 0.010772146385982556 0.9944965815621071 -0.054928273059183796 0.004505111596525859 0.023157784665932886
0.1059090909091 0.0047859091100318305 0.024633142977887965 0.9941238720220202 -0.058244046594178644 0.0012699882700294553 0.011406993480654526 -0.0010936379364346743 -0.0072891128890608566
 0.9941238720220202 -0.058244046594178644 0.004787802066747286 0.024632934849278212 -0.0010941234442673634 -0.00728909171797901 0.0012596633105456604 0.011408271055050745
 0.0012699882700294553 0.011406993480654526 -0.0010941234442673634 -0.00728909171797901 0.004785505640800542 0.024631770227542732 0.9941238189482845 -0.058245460423394964
 -0.0010936379364346743 -0.0072891128890608566 0.0012596633105456604 0.011408271055050745 0.9941238189482845 -0.058245460423394964 0.004788104036005142 0.024631502228614065
0.1062942892872 0.004804873760699009 0.024730307123025666 0.9940988786359769 -0.0584621828610904 0.0012777346805007647 0.011448749103777495 -0.0011002254036188417 -0.007316006553875705
 0.9940988786359769 -0.0584621828610904 0.00480678045145957 0.02473009750619579 -0.0011007143632978114 -0.007315985065865605 0.0012673342453884031 0.011450037646996735
 0.0012777346805007647 0.011448749103777495 -0.0011007143632978114 -0.007315985065865605 0.004804467368789323 0.024728929581992316 0.9940988251896989 -0.05846360184454843
 -0.0011002254036188417 -0.007316006553875705 0.0012673342453884031 0.011450037646996735 0.9940988251896989 -0.05846360184454843 0.004807084653506397 0.02472865961539291
0.11254689453939999 0.005119706671178295 0.026314444404224487 0.993684117466843 -0.06200928040150031 0.0014070168601461504 0.012126576053642082 -0.0012101757311121445 -0.0077526836564527635
 0.993684117466843 -0.06200928040150031 0.005121843198668084 0.026314209736571847 -0.0012107223533983798 -0.007752656687554237 0.0013953525845001472 0.012128051578574625
 0.0014070168601461504 0.012126576053642082 -0.0012107223533983798 -0.007752656687554237 0.00511925136438079 0.02631298941832249 0.9936840577855084 -0.06201078306261893
 -0.0012101757311121445 -0.0077526836564527635 0.0013953525845001472 0.012128051578574625 0.9936840577855084 -0.06201078306261893 0.005122184808811664 0.026312686219530715
0.11879949979160001 0.005447865841035468 0.027911557753049352 0.9932521351629338 -0.06556811499034976 0.0015430084341832564 0.012804425573986786 -0.0013258571792870665 -0.008189556920346853
 0.9932521351629338 -0.06556811499034976 0.005450245207881098 0.027911296317385263 -0.0013264645220902166 -0.008189523816679013 0.001530007364402652 0.012806105481593276
 0.0015430084341832564 0.012804425573986786 -0.0013264645220902166 -0.008189523816679013 0.005447358848517675 0.027910025907775405 0.9932520688901346 -0.06556970139370671
 -0.0013258571792870665 -0.008189556920346853 0.001530007364402652 0.012806105481593276 0.9932520688901346 -0.06556970139370671 0.005450626426985057 0.027909686977485283
0.1250521050438 0.005789564835535551 0.02952146952916375 0.9928027217399957 -0.06913856454549254 0.0016857640059386209 0.013482212249274603 -0.0014473254719269725 -0.008626541701220939
 0.9928027217399957 -0.06913856454549254 0.0057922000396108805 0.029521179558764644 -0.0014479965697627717 -0.008626501779771211 0.0016713531515271946 0.01348411477506261
 0.0016857640059386209 0.013482212249274603 -0.0014479965697627717 -0.008626501779771211 0.00578900338964095 0.02951986144440312 0.9928026485161902 -0.06914023475908122
 -0.0014473254719269725 -0.008626541701220939 0.0016713531515271946 0.01348411477506261 0.9928026485161902 -0.06914023475908122 0.005792623073272634 0.02951948418890175
0.131304710296 0.00614501636558914 0.03114400137533636 0.992335667772176 -0.07272050070862317 0.0018353370099803144 0.014159848813140722 -0.0015746351369659455 -0.009063551844806325
 0.992335667772176 -0.07272050070862317 0.006147920401545939 0.031143681053409405 -0.001575373000907173 -0.009063504393475301 0.0018194433551633844 0.014161993034178139
 0.0018353370099803144 0.014159848813140722 -0.001575373000907173 -0.009063504393475301 0.0061443977023345414 0.031142317701707216 0.9923355872346312 -0.07272225480791374
 -0.0015746351369659455 -0.009063551844806325 0.0018194433551633844 0.014161993034178139 0.9923355872346312 -0.07272225480791374 0.006148387460174901 0.031141899431736175
0.1375573155481 0.006426828946123599 0.03256714404989607 0.9919383914125977 -0.07610189677138206 0.001971232996439274 0.01481550018766061 -0.001687309570316036 -0.009478748816886626
 0.9919383914125977 -0.07610189677138206 0.006430016349752714 0.03256680066932691 -0.0016881187271909402 -0.009478693885693699 0.001953815770577656 0.014817880885853703
 0.001971232996439274 0.01481550018766061 -0.0016881187271909402 -0.009478693885693699 0.006426150929324009 0.03256538522542969 0.9919383032310323 -0.07610373477650934
 -0.001687309570316036 -0.009478748816886626 0.001953815770577656 0.014817880885853703 0.9919383032310323 -0.07610373477650934 0.006430528957403181 0.032564932697980685
0.1438099208003 0.006718342156734541 0.03398379176129121 0.9915275373891506 -0.07947573212920508 0.002112617637173866 0.015469079322516899 -0.001804501907508244 -0.00989205257853113
 0.9915275373891506 -0.07947573212920508 0.006721826167301564 0.033983424190013635 -0.0018053856079338908 -0.009891989475819683 0.002093609631780806 0.015471713776826669
 0.002112617637173866 0.015469079322516899 -0.0018053856079338908 -0.009891989475819683 0.006717602141356881 0.03398195843633969 0.991527441203232 -0.07947765410880447
 -0.001804501907508244 -0.00989205257853113 0.002093609631780806 0.015471713776826669 0.991527441203232 -0.07947765410880447 0.006722386416228549 0.03398146965822304
0.1500625260525 0.007019465983531652 0.035393855937849994 0.9911031988034495 -0.08284195327367945 0.0022594495204353838 0.016120538789522222 -0.0019261720013336754 -0.010303417751796079
 0.9911031988034495 -0.08284195327367945 0.007023259850260946 0.03539346298566949 -0.0019271334917845254 -0.010303345758190245 0.002238783879665284 0.016123444901456126
 0.0022594495204353838 0.016120538789522222 -0.0019271334917845254 -0.010303345758190245 0.007018661335470021 0.035391948787922727 0.9911030942500417 -0.08284395929909052
 -0.0019261720013336754 -0.010303417751796079 0.002238783879665284 0.016123444901456126 0.9911030942500417 -0.08284395929909052 0.007023869828991629 0.035391421674636686
0.15631513130469998 0.00733010992174303 0.03679725085373075 0.9906654690662108 -0.08620050631375013 0.0024116868307347532 0.016769831834416417 -0.0020522792897986137 -0.010712799828952404
