! Created with skrf 1.8.0 (http://scikit-rf.org).
# GHz S RI R 50.0 
!freq ReS11 ImS11 ReS12 ImS12 ReS13 ImS13
! ReS14 ImS14
! ReS21 ImS21 ReS22 ImS22 ReS23 ImS23
! ReS24 ImS24
! ReS31 ImS31 ReS32 ImS32 ReS33 ImS33
! ReS34 ImS34
! ReS41 ImS41 ReS42 ImS42 ReS43 ImS43
! ReS44 ImS44
!
0.0 0.002120025871706 0.0 0.9978799741249 0.0 8.259387629912e-05 0.0 -8.259387650378e-05 1.0114832648952595e-20
 0.9978799741249 0.0 0.002120025871732 0.0 -8.259387650496e-05 1.0114832649097105e-20 8.259387629888e-05 0.0
 8.259387629912e-05 0.0 -8.259387650496e-05 1.0114832649097105e-20 0.002120025873427 0.0 0.9978799741266 0.0
 -8.259387650378e-05 1.0114832648952595e-20 8.259387629888e-05 0.0 0.9978799741266 0.0 0.002120025873389 0.0
0.005 0.0022831855759742146 0.0017346073353632229 0.9976731604477549 -0.004438502454517588 0.00011668921394402339 0.0008950917025867465 -0.00011319644636255582 -0.0005640298862030187
 0.9976731604477549 -0.004438502454517588 0.002283205472849875 0.00173459561902914 -0.00011319573900166293 -0.0005640292664461534 0.00011657188178636215 0.0008951365427019932
 0.00011668921394402339 0.0008950917025867465 -0.00011319573900166293 -0.0005640292664461534 0.002283186740597497 0.0017346738731228157 0.9976731608582627 -0.004438435401508805
 -0.00011319644636255582 -0.0005640298862030187 0.00011657188178636215 0.0008951365427019932 0.9976731608582627 -0.004438435401508805 0.0022832051177571 0.0017346631773374481
0.006252605252188 0.0023266553036397166 0.002174976112960524 0.9976176080273744 -0.005549101273266699 0.00012680457376147678 0.0011192603468447894 -0.00012214314278840367 -0.0007057216098453998
 0.9976176080273744 -0.005549101273266699 0.0023266864067933712 0.0021749612268461846 -0.00012214204269144136 -0.0007057208445088976 0.0001266212590366118 0.0011193186607050627
 0.00012680457376147678 0.0011192603468447894 -0.00012214204269144136 -0.0007057208445088976 0.0023266570523845414 0.0021750592768673685 0.9976176085969178 -0.005549017451666118
 -0.00012214314278840367 -0.0007057216098453998 0.0001266212590366118 0.0011193186607050627 0.9976176085969178 -0.005549017451666118 0.0023266857789526214 0.002175045683876692
0.01250521050438 0.0025594330834535044 0.004394389855650719 0.997317689149152 -0.011098109605711295 0.00018678974693046946 0.0022385664493336675 -0.00017454818831294224 -0.0014143905790821281
 0.997317689149152 -0.011098109605711295 0.0025595572924135275 0.004394357619742044 -0.00017454386079071433 -0.0014143891528282234 0.00018605885455670083 0.002238708065882448
 0.00018678974693046946 0.0022385664493336675 -0.00017454386079071433 -0.0014143891528282234 0.0025594394929169487 0.004394555772890843 0.9973176908455953 -0.011097942192461898
 -0.00017454818831294224 -0.0014143905790821281 0.00018605885455670083 0.002238708065882448 0.9973176908455953 -0.011097942192461898 0.0025595541930294886 0.00439452632073371
0.01875781575657 0.0028190032686946417 0.00664411202380055 0.9969797497688098 -0.01666034630776511 0.000262706223931081 0.003358528261852774 -0.00023999543672381584 -0.0021248930620690653
 0.9969797497688098 -0.01666034630776511 0.002819282402344123 0.006644059705906761 -0.0002399857974464916 -0.0021248911027318515 0.00026106466844814756 0.0033587843602449216
 0.000262706223931081 0.003358528261852774 -0.0002399857974464916 -0.0021248911027318515 0.0028190172505619224 0.006644360345123704 0.9969797531554899 -0.016660095355081745
 -0.00023999543672381584 -0.0021248930620690653 0.00026106466844814756 0.0033587843602449216 0.9969797531554899 -0.016660095355081745 0.002819274981605875 0.00664431256766672
0.02501042100875 0.003105981366920204 0.008920805764328863 0.9966033007322961 -0.02223831367492321 0.0003547116207172825 0.0044790614449994135 -0.0003186616502400777 -0.0028367953321467593
 0.9966033007322961 -0.02223831367492321 0.0031064771458113546 0.008920730384360594 -0.00031864464381138754 -0.0028367929931772274 0.0003517964498897359 0.004479469244034638
 0.0003547116207172825 0.0044790614449994135 -0.00031864464381138754 -0.0028367929931772274 0.0031060058308609115 0.008921136079593312 0.9966033063780448 -0.022237979179933358
 -0.0003186616502400777 -0.0028367953321467593 0.0003517964498897359 0.004479469244034638 0.9966033063780448 -0.022237979179933358 0.003106463541997944 0.008921067330057163
0.03126302626094 0.0034209560750852503 0.011222656407978232 0.9961878339813741 -0.027832965244911623 0.00046296157365740057 0.005599977167460653 -0.0004107157819008141 -0.0035497540696311117
 0.9961878339813741 -0.027832965244911623 0.003421730160946564 0.011222554740360033 -0.0004106893771018172 -0.0035497515302488044 0.0004584096802564819 0.005600579961403766
 0.00046296157365740057 0.005599977167460653 -0.0004106893771018172 -0.0035497515302488044 0.003420993925340806 0.011223068234861295 0.9961878424588979 -0.02783254716041907
 -0.0004107157819008141 -0.0035497540696311117 0.0004584096802564819 0.005600579961403766 0.9961878424588979 -0.02783254716041907 0.0034217084963596178 0.011222975688884567
0.037515631513130004 0.003764500485456091 0.013548407021508706 0.9957328345151025 -0.03344467025887052 0.0005876079996132034 0.006721043436908618 -0.0005163200959843491 -0.004263455177520398
 0.9957328345151025 -0.03344467025887052 0.003765614508983398 0.013548275595250162 -0.0005162822832121422 -0.004263452642672469 0.0005810560212975652 0.006721890650750596
 0.0005876079996132034 0.006721043436908618 -0.0005162822832121422 -0.004263452642672469 0.003764554619523575 0.013548899799149864 0.9957328464033848 -0.03344416849904589
 -0.0005163200959843491 -0.004263455177520398 0.0005810560212975652 0.006721890650750596 0.9957328464033848 -0.03344416849904589 0.0037655828900693272 0.013548780455613424
0.043768236765320004 0.004137176339112464 0.015897064945713305 0.9952377854038089 -0.039073507123800304 0.0007287982101954447 0.0078420038074492 -0.0006356304876436596 -0.004977595232447463
 0.9952377854038089 -0.039073507123800304 0.004138691924412431 0.015896900042832517 -0.0006355792774349951 -0.004977592932741396 0.0007198825103531535 0.00784315105770566
 0.0007287982101954447 0.0078420038074492 -0.0006355792774349951 -0.004977592932741396 0.0041372496459720935 0.015897638017338813 0.9952378012893557 -0.039072921581019125
 -0.0006356304876436596 -0.004977595232447463 0.0007198825103531535 0.00784315105770566 0.9952378012893557 -0.039072921581019125 0.004138648440721338 0.015897488697687995
0.050020842017509996 0.004539535917782909 0.018267780536984916 0.9947021704473487 -0.04471938467787735 0.0008866743280780266 0.008962585152087997 -0.0007687965181415638 -0.005691873885763195
 0.9947021704473487 -0.04471938467787735 0.004541514703563156 0.018267578190016797 -0.0007687299401921067 -0.00569187207736925 0.00087503102000458 0.008964094309189452
 0.0008866743280780266 0.008962585152087997 -0.0007687299401921067 -0.00569187207736925 0.004539631275414174 0.018268433161907755 0.9947021909252556 -0.04471871521010529
 -0.0007687965181415638 -0.005691873885763195 0.00087503102000458 0.008964094309189452 0.9947021909252556 -0.04471871521010529 0.00454145742637405 0.018268250508609894
0.055454545454549996 0.0049137278795668765 0.02034532131577932 0.9942033612597784 -0.04963950827863797 0.001037530604862249 0.009935874682823333 -0.0008958856378304371 -0.006312482556404895
 0.9942033612597784 -0.04963950827863797 0.004916159285541015 0.02034508301030425 -0.0008958041190469269 -0.006312481402804727 0.0010232212460033324 0.009937753498511488
 0.001037530604862249 0.009935874682823333 -0.0008958041190469269 -0.006312481402804727 0.004913844728004585 0.020346042405330684 0.9942033862206867 -0.04963876573804537
 -0.0008958856378304371 -0.006312482556404895 0.0010232212460033324 0.009937753498511488 0.9942033862206867 -0.04963876573804537 0.00491608844146147 0.020345827916355867
0.056273447269699996 0.004972122929511378 0.02065978769847654 0.9941254758352738 -0.050382101680637066 0.0010613728376282128 0.010082501532502064 -0.0009159613229188427 -0.00640599018464795
 0.9941254758352738 -0.050382101680637066 0.004974626589675759 0.02065954368696232 -0.0009158774253672898 -0.0064059891492121625 0.0010466378356288 0.010084440783373656
 0.0010613728376282128 0.010082501532502064 -0.0009158774253672898 -0.0064059891492121625 0.004972243203982308 0.02066051904910183 0.9941255015120688 -0.0503813481140491
 -0.0009159613229188427 -0.00640599018464795 0.0010466378356288 0.010084440783373656 0.9941255015120688 -0.0503813481140491 0.004974553572728039 0.02066029952296163
0.06252605252188 0.005435472901531886 0.02307237122342886 0.9935071913209439 -0.0560613795097912 0.0012530242018373703 0.011201456371325032 -0.0010772614572539371 -0.007119640609706205
 0.9935071913209439 -0.0560613795097912 0.005438563164277024 0.023072081069525657 -0.001077158306135688 -0.007119640654271433 0.0012348332903734463 0.01120390028105835
 0.0012530242018373703 0.011201456371325032 -0.001077158306135688 -0.007119640654271433 0.005435620943534873 0.023073180377844695 0.9935072228148044 -0.056060541645786444
 -0.0010772614572539371 -0.007119640609706205 0.0012348332903734463 0.01120390028105835 0.9935072228148044 -0.056060541645786444 0.005438472442155134 0.023072920254453046
0.06877865777407 0.005930113293156538 0.025504847347122606 0.9928468111230634 -0.0617568816706832 0.0014617525194111887 0.01231914380046522 -0.0012528267045084117 -0.007832517956298052
 0.9928468111230634 -0.0617568816706832 0.005933851960767092 0.025504506310205066 -0.001252702383424791 -0.00783251941322451 0.0014397414350030538 0.012322173372835145
 0.0014617525194111887 0.01231914380046522 -0.001252702383424791 -0.00783251941322451 0.0059302919359603265 0.025505733295554854 0.9928468490656828 -0.06175595927922507
 -0.0012528267045084117 -0.007832517956298052 0.0014397414350030538 0.012322173372835145 0.9928468490656828 -0.06175595927922507 0.005933741548050025 0.02550542866067386
0.07503126302626001 0.006456563450594715 0.027956551472313733 0.9921438346743894 -0.06746822615510374 0.0016876752051387918 0.013435249565552218 -0.0014427798631339427 -0.008544310680344534
 0.9921438346743894 -0.06746822615510374 0.0064610124180278766 0.027956154542644034 -0.0014426324729862254 -0.00854431390723229 0.0016614797288606684 0.013438952301882977
 0.0016876752051387918 0.013435249565552218 -0.0014426324729862254 -0.00854431390723229 0.006456775507569466 0.027957513111097364 0.9921438797120906 -0.06746721898056422
 -0.0014427798631339427 -0.008544310680344534 0.0016614797288606684 0.013438952301882977 0.9921438797120906 -0.06746721898056422 0.006460880308509177 0.027957159855207653
0.08128386827845 0.007015334455651202 0.03042683002561801 0.9913977672694156 -0.07319499369336502 0.0019309026863608629 0.014549451679967665 -0.0016472365208414117 -0.00925470251561417
 0.9913977672694156 -0.07319499369336502 0.007020555729399507 0.030426371917083226 -0.0016470641795623571 -0.009254707895236535 0.001900158743946601 0.014553921636048335
 0.0019309026863608629 0.014549451679967665 -0.0016470641795623571 -0.009254707895236535 0.0070155827177482985 0.030427866158670165 0.9913978200648408 -0.0731939014530801
 -0.0016472365208414117 -0.00925470251561417 0.001900158743946601 0.014553921636048335 0.9913978200648408 -0.0731939014530801 0.007020399895711783 0.030427459970358804
0.08753647353064001 0.007606928908305082 0.03291503487666547 0.9906081206510777 -0.07893673346882162 0.0021915381102474932 0.015661420926924925 -0.0018663048208193804 -0.009963372264414759
 0.9906081206510777 -0.07893673346882162 0.007612984625170226 0.03291451001843789 -0.0018661056632813234 -0.00996338020465083 0.0021558818790908423 0.015666758767967366
 0.0021915381102474932 0.015661420926924925 -0.0018661056632813234 -0.00996338020465083 0.007607216141597625 0.03291614421641099 0.9906081818847811 -0.07893555585222226
 -0.0018663048208193804 -0.009963372264414759 0.0021558818790908423 0.015666758767967366 0.9906081818847811 -0.07893555585222226 0.007612803017781297 0.03291568057478924
0.09378907878283 0.00823184066228254 0.0354205193843951 0.9897744135523339 -0.08469296723090942 0.0024696770608117194 0.01677082127336903 -0.002100085222529461 -0.010669993698350868
 0.9897744135523339 -0.08469296723090942 0.008238793107526673 0.03541992191169946 -0.002099857400350725 -0.010670004632101774 0.0024287450824297756 0.01677713432659318
 0.0024696770608117194 0.01677082127336903 -0.002099857400350725 -0.010670004632101774 0.008232169604999598 0.03542170054929096 0.9897744839237996 -0.08469170390228126
 -0.002100085222529461 -0.010669993698350868 0.0024287450824297756 0.01677713432659318 0.9897744839237996 -0.08469170390228126 0.008238583654016054 0.035421174715425094
0.100041684035 0.008890554526266529 0.0379426355434601 0.9888961722072489 -0.09046319233495015 0.0027654072822216793 0.017877310221942423 -0.002348670260604045 -0.01137423554291987
 0.9888961722072489 -0.09046319233495015 0.008898466152319857 0.037941959287196854 -0.0023484119420856104 -0.0113742499281201 0.002718836580146485 0.017884712526726368
 0.0027654072822216793 0.017877310221942423 -0.0023484119420856104 -0.0113742499281201 0.008890927886262901 0.037943887060069875 0.988896252436745 -0.09046184293177134
 -0.002348670260604045 -0.01137423554291987 0.002718836580146485 0.017884712526726368 0.988896252436745 -0.09046184293177134 0.008898226756567897 0.03794329406713019
0.1059090909091 0.009539853918531998 0.04032392007919322 0.9880311174312384 -0.09589019442524786 0.003058988842939816 0.018912674369638685 -0.002595480871669634 -0.012032628116189726
 0.9880311174312384 -0.09589019442524786 0.009548722598873599 0.04032316400108187 -0.0025951922845360025 -0.01203264617888283 0.003006797209979398 0.018921208560082864
 0.003058988842939816 0.018912674369638685 -0.0025951922845360025 -0.01203264617888283 0.009540271392765448 0.04032523618902131 0.9880312075860485 -0.09588876389945035
 -0.002595480871669634 -0.012032628116189726 0.003006797209979398 0.018921208560082864 0.9880312075860485 -0.09588876389945035 0.009548453177298048 0.04032457544478546
0.1062942892872 0.00958354594289625 0.040480731875200786 0.9879729308406925 -0.09624688406434338 0.003078808409120214 0.018980539131500163 -0.0026121443027963477 -0.012075761516065308
 0.9879729308406925 -0.09624688406434338 0.009592479387783025 0.040479970350530824 -0.002611853672951732 -0.012075779835542144 0.003026236610761948 0.018989151487029263
 0.003078808409120214 0.018980539131500163 -0.002611853672951732 -0.012075779835542144 0.009583966395035618 0.040482052176306425 0.9879730216705006 -0.09624544819954536
 -0.0026121443027963477 -0.012075761516065308 0.003026236610761948 0.018989151487029263 0.9879730216705006 -0.09624544819954536 0.009592207929163767 0.04048138681891683
0.11254689453939999 0.010311280649870216 0.04303415186775674 0.9870042321402621 -0.10204349743107623 0.003409951702643002 0.02008015351376965 -0.002890583308621132 -0.012774230412669032
 0.9870042321402621 -0.10204349743107623 0.010321298754905386 0.04303329826168038 -0.0028902585689843455 -0.012774253174176645 0.003351017165435739 0.02009010352388628
 0.003409951702643002 0.02008015351376965 -0.0028902585689843455 -0.012774253174176645 0.010311750833067743 0.04303553929572293 0.9870043343362551 -0.10204197469046425
 -0.002890583308621132 -0.012774230412669032 0.003351017165435739 0.02009010352388628 0.9870043343362551 -0.10204197469046425 0.010320993087734254 0.04303479611787567
0.11879949979160001 0.011074214327959927 0.04560223279502068 0.9859896277145135 -0.10785246862562795 0.003758899792240622 0.02117579331774745 -0.003184054589511129 -0.013469296223988623
 0.9859896277145135 -0.10785246862562795 0.011085380156018768 0.04560127995277263 -0.003183693958252478 -0.013469323960119349 0.00369324173351951 0.021187215432996846
 0.003758899792240622 0.02117579331774745 -0.003183693958252478 -0.013469323960119349 0.011074736842431326 0.04560368559679629 0.9859897420676207 -0.10785085857358466
 -0.003184054589511129 -0.013469296223988623 0.00369324173351951 0.021187215432996846 0.9859897420676207 -0.10785085857358466 0.011085038108690244 0.04560285887882027
0.1250521050438 0.011872792240646891 0.04818430483207171 0.9849286785420794 -0.11367321619853513 0.0041257064236321726 0.0222670932076782 -0.0034926165719241353 -0.01416060828589947
 0.9849286785420794 -0.11367321619853513 0.011885169093936155 0.04818324524244686 -0.0034922182837864965 -0.014160641554034886 0.00405296505356584 0.02228012876438274
 0.0041257064236321726 0.0222670932076782 -0.0034922182837864965 -0.014160641554034886 0.011873369645305247 0.048185821165310755 0.9849288058697425 -0.11367151837286546
 -0.0034926165719241353 -0.01416060828589947 0.00405296505356584 0.02228012876438274 0.9849288058697425 -0.11367151837286546 0.01188478846816544 0.04818490490961141
0.131304710296 0.012707448866921862 0.050779690395164785 0.9838209554097003 -0.11950514204606309 0.004510416212313427 0.023353682840140885 -0.003816318563693977 -0.014847811450443652
 0.9838209554097003 -0.11950514204606309 0.01272110030447172 0.05077851617465638 -0.0038158808700498336 -0.014847850832751476 0.004430232870402581 0.023368480096393588
 0.004510416212313427 0.023353682840140885 -0.0038158808700498336 -0.014847850832751476 0.01270808367625541 0.050781268324213334 0.9838210965574613 -0.11950335596309933
 -0.003816318563693977 -0.014847811450443652 0.004430232870402581 0.023368480096393588 0.9838210965574613 -0.11950335596309933 0.012720678874635726 0.050780256239797456
0.1375573155481 0.013409892081783729 0.05305204972710897 0.9828348738016276 -0.12501168632074144 0.004871330417832872 0.024405077563207877 -0.0041135652136019335 -0.015500400907957073
 0.9828348738016276 -0.12501168632074144 0.013424884749076793 0.05305077441631756 -0.004113085270174457 -0.015500446585352084 0.004783523464651265 0.024421641068713577
 0.004871330417832872 0.024405077563207877 -0.004113085270174457 -0.015500446585352084 0.0134105858346078 0.053053688039189015 0.9828350294354034 -0.1250098117070817
 -0.0041135652136019335 -0.015500400907957073 0.004783523464651265 0.024421641068713577 0.9828350294354034 -0.1250098117070817 0.013424421581427063 0.053052594139819796
0.1438099208003 0.014137557940399963 0.055307833536076684 0.9818129097783169 -0.1304995722099995 0.005246570109719257 0.025449238083910555 -0.004422402198908021 -0.016146388207001365
 0.9818129097783169 -0.1304995722099995 0.014153956115509117 0.055306450215304136 -0.0044218780846819825 -0.016146440775918595 0.005150814247992099 0.02546770595446708
 0.005246570109719257 0.025449238083910555 -0.0044218780846819825 -0.016146440775918595 0.01413831291315639 0.055309530293022255 0.9818130807458083 -0.13049760860004198
 -0.004422402198908021 -0.016146388207001365 0.005150814247992099 0.02546770595446708 0.9818130807458083 -0.13049760860004198 0.014153449178697148 0.0553083491659513
0.1500625260525 0.014890106959056126 0.05754671842010197 0.980755408762828 -0.1359685246550621 0.0056359494483974966 0.026485965097343196 -0.004742649752626137 -0.016785590821818974
 0.980755408762828 -0.1359685246550621 0.014907975153444336 0.05754521972922339 -0.004742079549733367 -0.01678565090405129 0.005531922456496793 0.02650648045195342
 0.0056359494483974966 0.026485965097343196 -0.004742079549733367 -0.01678565090405129 0.01489092537473962 0.057548471615830016 0.9807555959355088 -0.1359664715667729
 -0.004742649752626137 -0.016785590821818974 0.005531922456496793 0.02650648045195342 0.9807555959355088 -0.1359664715667729 0.014907422404897893 0.0575471974613988
0.15631513130469998 0.01566719628148084 0.05976839101947722 0.9796627189985888 -0.1414182731827089 0.006039279861591999 0.02751506418022961 -0.005074125430401517 -0.01741783140371864
 0.9796627189985888 -0.1414182731827089 0.01568659924336063 0.059766769144186147 -0.005073507224127361 -0.017417899646509284 0.005926662654953322 0.027537775067237383
