! Created with skrf 1.8.0 (http://scikit-rf.org).
# GHz S RI R 50.0 
!freq ReS11 ImS11 ReS12 ImS12 ReS13 ImS13
! ReS14 ImS14
! ReS21 ImS21 ReS22 ImS22 ReS23 ImS23
! ReS24 ImS24
! ReS31 ImS31 ReS32 ImS32 ReS33 ImS33
! ReS34 ImS34
! ReS41 ImS41 ReS42 ImS42 ReS43 ImS43
! ReS44 ImS44
!
0.0 0.001514747788407 0.0 0.9984852522116 0.0 5.845051283381e-05 0.0 -5.845051230064e-05 7.158123279750177e-21
 0.9984852522116 0.0 0.001514747788405 0.0 -5.845051230111e-05 7.158123279807735e-21 5.845051283377e-05 0.0
 5.845051283381e-05 0.0 -5.845051230111e-05 7.158123279807735e-21 0.001514747759997 0.0 0.9984852521832 0.0
 -5.845051230064e-05 7.158123279750177e-21 5.845051283377e-05 0.0 0.9984852521832 0.0 0.001514747759974 0.0
0.005 0.0016296894163106814 0.0012379462872811509 0.9983398643990594 -0.003173133942664616 8.19614281594035e-05 0.0006520776486609415 -7.964132036576628e-05 -0.0004078921513644586
 0.9983398643990594 -0.003173133942664616 0.0016296708250802185 0.00123795709333552 -7.964066229615801e-05 -0.00040789159195433734 8.208007505626361e-05 0.0006520324969091115
 8.19614281594035e-05 0.0006520776486609415 -7.964066229615801e-05 -0.00040789159195433734 0.0016296896754474971 0.0012378788207832309 0.9983398640460935 -0.0031732010085288123
 -7.964132036576628e-05 -0.0004078921513644586 8.208007505626361e-05 0.0006520324969091115 0.9983398640460935 -0.0031732010085288123 0.0016296698640877961 0.0012378904313089395
0.006252605252188 0.0016598143502910543 0.001552311906122134 0.9983015280270855 -0.0039671978423706416 8.864102823478764e-05 0.0008154122614718764 -8.561302351069198e-05 -0.000510395732780795
 0.9983015280270855 -0.0039671978423706416 0.001659785289230283 0.0015523256322017495 -8.561199991381668e-05 -0.0005103950418612911 8.88264036406016e-05 0.0008153536353131397
 8.864102823478764e-05 0.0008154122614718764 -8.561199991381668e-05 -0.0005103950418612911 0.0016598148236060865 0.0015522275888856017 0.9983015275431149 -0.003967281654747773
 -8.561302351069198e-05 -0.000510395732780795 8.88264036406016e-05 0.0008153536353131397 0.9983015275431149 -0.003967281654747773 0.0016597838545259424 0.001552242331989445
0.01250521050438 0.0018182771140056253 0.003137223449789947 0.9980985847277235 -0.00793523037212233 0.00012675114859118458 0.0016311838031978403 -0.0001194352231615295 -0.001023288220786286
 0.9980985847277235 -0.00793523037212233 0.0018181610797361521 0.0031372530977783458 -0.00011943119440127613 -0.0010232869297789235 0.0001274904002290903 0.0016310429912456314
 0.00012675114859118458 0.0016311838031978403 -0.00011943119440127613 -0.0010232869297789235 0.0018182795827612537 0.003137055009380792 0.9980985833649614 -0.007935397766961312
 -0.0001194352231615295 -0.001023288220786286 0.0001274904002290903 0.0016310429912456314 0.9980985833649614 -0.007935397766961312 0.0018181559154851618 0.00313708681823624
0.01875781575657 0.0019904775022029095 0.004744764752195544 0.9978761731196378 -0.011913760979275103 0.00017286982946855244 0.002447874340768454 -0.0001600203972048859 -0.0015379306659856467
 0.9978761731196378 -0.011913760979275103 0.0019902167806744634 0.0047448126605123524 -0.0001600114199841223 -0.0015379288811710092 0.00017453051863967547 0.002447623238086715
 0.00017286982946855244 0.002447874340768454 -0.0001600114199841223 -0.0015379288811710092 0.0019904834872994668 0.004744512249025901 0.9978761704771318 -0.011914011868810179
 -0.0001600203972048859 -0.0015379306659856467 0.00017453051863967547 0.002447623238086715 0.9978761704771318 -0.011914011868810179 0.001990205586632905 0.004744563627475701
0.02501042100875 0.0021767471496695165 0.006372687455513158 0.9976340343123818 -0.01590472142609978 0.000227086571452398 0.0032655244426664253 -0.00020746852992431703 -0.002054089763436891
 0.9976340343123818 -0.01590472142609978 0.002176284149531122 0.006372756084875887 -0.00020745268638090405 -0.0020540876086752977 0.00023003642417544103 0.0032651305586735035
 0.000227086571452398 0.0032655244426664253 -0.00020745268638090405 -0.0020540876086752977 0.002176758184474793 0.006372350911533284 0.9976340299938903 -0.015905055770389653
 -0.00020746852992431703 -0.002054089763436891 0.00023003642417544103 0.0032651305586735035 0.9976340299938903 -0.015905055770389653 0.002176264629757507 0.006372424522930537
0.03126302626094 0.0023774039704995867 0.00801983618190422 0.9973718960495096 -0.019908940348318947 0.00028949114331073476 0.004084098662587107 -0.00026187680766000726 -0.002571602676873358
 0.9973718960495096 -0.019908940348318947 0.002376681190567426 0.008019928111020308 -0.0002618522009757582 -0.0025716002938071685 0.0002940983920394874 0.0040835250958279595
 0.00028949114331073476 0.004084098662587107 -0.0002618522009757582 -0.0025716002938071685 0.002377421592941483 0.008019415607903651 0.9973718896546425 -0.01990935812796259
 -0.00026187680766000726 -0.002571602676873358 0.0002940983920394874 0.0040835250958279595 0.9973718896546425 -0.01990935812796259 0.0023766510448248166 0.008019514271178738
0.037515631513130004 0.0025927590365737137 0.00968545884759587 0.9970894798056673 -0.0239268328792162 0.00036017281112826625 0.004903531581666012 -0.00032334033425164766 -0.003090331008349003
 0.9970894798056673 -0.0239268328792162 0.0025917190440812713 0.009685576770882654 -0.0003233050863653078 -0.0030903285564558044 0.0003668063481923534 0.004902736975499436
 0.00036017281112826625 0.004903531581666012 -0.0003233050863653078 -0.0030903285564558044 0.002592784793645121 0.00968495424605233 0.9970894709337967 -0.02392733409250907
 -0.00032334033425164766 -0.003090331008349003 0.0003668063481923534 0.004902736975499436 0.9970894709337967 -0.02392733409250907 0.0025916759722686674 0.00968508093380669
0.043768236765320004 0.0028231192347074286 0.011368996800765667 0.9967865036593202 -0.027958610441945322 0.00043921997296693865 0.0057237418118139755 -0.00039195238623866577 -0.0036101467987820135
 0.9967865036593202 -0.027958610441945322 0.0028217046478731453 0.011369143526809275 -0.00039190463645655835 -0.0036101444553553923 0.00044824942347534063 0.00572268030423317
 0.00043921997296693865 0.0057237418118139755 -0.00039190463645655835 -0.0036101444553553923 0.0028231546822962924 0.011368408165249337 0.9967864919085005 -0.02795919510538097
 -0.00039195238623866577 -0.0036101467987820135 0.00044824942347534063 0.00572268030423317 0.9967864919085005 -0.02795919510538097 0.0028216463500094625 0.011368566002757029
0.050020842017509996 0.0030687885016509 0.013069998068944318 0.9964626837449513 -0.032004367430601297 0.0005267199372617134 0.006544637776181422 -0.0004678045037811488 -0.004130926751197431
 0.9964626837449513 -0.032004367430601297 0.0030669419743405866 0.013070176519538845 -0.00046774240782754094 -0.004130924711313851 0.0005385156893891192 0.006543258947217522
 0.0005267199372617134 0.006544637776181422 -0.00046774240782754094 -0.004130924711313851 0.003068835203499697 0.013069325396279592 0.996462668710661 -0.03200503556658848
 -0.0004678045037811488 -0.004130926751197431 0.0005385156893891192 0.006543258947217522 0.996462668710661 -0.03200503556658848 0.0030668661500329202 0.013069517661155581
0.055454545454549996 0.003294949679612562 0.014562099698998947 0.9961641254436729 -0.035531622664948165 0.0006096916365527734 0.007258501467298557 -0.0005396719168138511 -0.00458418897241714
 0.9961641254436729 -0.035531622664948165 0.0032926812279026225 0.014562308179648636 -0.0005395958680641961 -0.00458418736854536 0.000624192785214022 0.007256802348948016
 0.0006096916365527734 0.007258501467298557 -0.0005395958680641961 -0.00458418736854536 0.003295007438554886 0.014561353985827316 0.9961641072258864 -0.03553236337359736
 -0.0005396719168138511 -0.00458418897241714 0.000624192785214022 0.007256802348948016 0.9961641072258864 -0.03553236337359736 0.0032925883053263375 0.014561578949170812
0.056273447269699996 0.003330068456510867 0.01478807480214634 0.9961177351060361 -0.03606412369665646 0.0006227587609454329 0.007366120551099581 -0.0005509865117569608 -0.004652549394565455
 0.9961177351060361 -0.03606412369665646 0.003327732664083821 0.014788288011888816 -0.0005509082410999564 -0.004652547871064274 0.0006376919702283082 0.007364369369159684
 0.0006227587609454329 0.007366120551099581 -0.0005509082410999564 -0.004652547871064274 0.0033301279850190394 0.014787318078104789 0.9961177163816186 -0.036064875347883975
 -0.0005509865117569608 -0.004652549394565455 0.0006376919702283082 0.007364369369159684 0.9961177163816186 -0.036064875347883975 0.003327637013980715 0.014787548200212395
0.06252605252188 0.0036072587425878427 0.01652287985570171 0.995751372261177 -0.04013784789843194 0.0007274211192854125 0.008188085422901106 -0.0006415865027444307 -0.005174893535840124
 0.995751372261177 -0.04013784789843194 0.0036043763686339683 0.016523130971794166 -0.000641490244126349 -0.005174892759275032 0.0007458636961744509 0.008185902190716009
 0.0007274211192854125 0.008188085422901106 -0.000641490244126349 -0.005174892759275032 0.0036073326786021233 0.016522039068803146 0.9957513494369399 -0.04013868311379382
 -0.0006415865027444307 -0.005174893535840124 0.0007458636961744509 0.008185902190716009 0.9957513494369399 -0.04013868311379382 0.003604258594643907 0.016522310630797853
0.06877865777407 0.0039006572060207453 0.01827409283813634 0.9953633096096697 -0.044225471388650184 0.0008407901932973112 0.009010422824566154 -0.0007396907985043336 -0.005697837335806364
 0.9953633096096697 -0.044225471388650184 0.0038971709293314735 0.018274385120715417 -0.0007395747535793585 -0.005697837554405846 0.0008631147783935105 0.00900774312509012
 0.0008407901932973112 0.009010422824566154 -0.0007395747535793585 -0.005697837554405846 0.003900747138531949 0.01827316797235101 0.9953632822721303 -0.04422639023050513
 -0.0007396907985043336 -0.005697837335806364 0.0008631147783935105 0.00900774312509012 0.9953632822721303 -0.04422639023050513 0.0038970287349489293 0.018273484710457408
0.07503126302626001 0.004210559980851076 0.02004141126663869 0.9949532617472577 -0.04832689699860752 0.0009629475656322984 0.009833018928117759 -0.0008453838996051836 -0.006221257733096627
 0.9949532617472577 -0.04832689699860752 0.004206412462599011 0.020041748089491548 -0.0008452462846443557 -0.006221259212735566 0.000989527496128237 0.009829773570633
 0.0009629475656322984 0.009833018928117759 -0.0008452462846443557 -0.006221259212735566 0.004210667507594629 0.020040402303995307 0.9949532294795326 -0.04832789953993001
 -0.0008453838996051836 -0.006221257733096627 0.000989527496128237 0.009829773570633 0.9949532294795326 -0.04832789953993001 0.004206243554308886 0.02004076810926936
0.08128386827845 0.004537261513836932 0.02182454467817712 0.9945209437259982 -0.052442004870824926 0.0010939731237198387 0.010655756047151608 -0.0009587484254227955 -0.006745030062309171
 0.9945209437259982 -0.052442004870824926 0.004532395385086952 0.021824929529782284 -0.0009585874710931697 -0.006745033086466723 0.00112518239265999 0.010651871013757173
 0.0010939731237198387 0.010655756047151608 -0.0009585874710931697 -0.006745033086466723 0.004537388241188455 0.021823451599616284 0.9945209061072463 -0.052443091194370295
 -0.0009587484254227955 -0.006745030062309171 0.00112518239265999 0.010651871013757173 0.9945209061072463 -0.052443091194370295 0.004532197472987046 0.021823870519484485
0.08753647353064001 0.004881054549958551 0.02362321056035258 0.994066071277082 -0.05657065647692872 0.00123394496632933 0.011478512916371014 -0.0010798650485581433 -0.0072690277995345765
 0.994066071277082 -0.05657065647692872 0.0048754123987200144 0.023623647045440458 -0.0010796789997291893 -0.007269032669260954 0.00127015817621063 0.01147390930894526
 0.00123394496632933 0.011478512916371014 -0.0010796789997291893 -0.007269032669260954 0.004881202092548417 0.02362203334347662 0.9940660278815042 -0.056571826677217114
 -0.0010798650485581433 -0.0072690277995345765 0.00127015817621063 0.01147390930894526 0.9940660278815042 -0.056571826677217114 0.0048751831971345855 0.02362250958374913
0.09378907878283 0.005242230089997308 0.02543713144720657 0.9935883610096902 -0.06071269747544229 0.0013829393122903185 0.012301164897612554 -0.0012088124252280519 -0.0077931223859317705
 0.9935883610096902 -0.06071269747544229 0.005235754449019791 0.025437623288582265 -0.0012085995408912152 -0.007793129419806206 0.0014245316239960015 0.012295758885372276
 0.0013829393122903185 0.012301164897612554 -0.0012085995408912152 -0.007793129419806206 0.005242400071334947 0.025435870069364343 0.9935883114070133 -0.0607139516554351
 -0.0012088124252280519 -0.0077931223859317705 0.0014245316239960015 0.012295758885372276 0.9935883114070133 -0.0607139516554351 0.005235491677439436 0.025436407996724877
0.100041684035 0.005621077329359988 0.02726603278546491 0.993087530594277 -0.06486795980421202 0.0015410304116297757 0.01312358413694824 -0.00134566712195119 -0.00831718310496856
 0.993087530594277 -0.06486795980421202 0.005613710663189636 0.027266583826474823 -0.0013454256750806961 -0.008317192639070537 0.0015883774890950895 0.013117286904731407
 0.0015410304116297757 0.01312358413694824 -0.0013454256750806961 -0.008317192639070537 0.005621271381441006 0.02726468722023119 0.99308747434876 -0.06486929807881299
 -0.00134566712195119 -0.00831718310496856 0.0015883774890950895 0.013117286904731407 0.99308747434876 -0.06486929807881299 0.005613412047030715 0.027265291364968892
0.1059090909091 0.005992913460309833 0.0289956438561598 0.9925962764344544 -0.06877909705136126 0.0016977198734864415 0.01389500908595739 -0.001481348665527215 -0.008808809293570025
 0.9925962764344544 -0.06877909705136126 0.005984658261655286 0.028996254054989047 -0.0014810788573968708 -0.008808821495092734 0.001750809246995271 0.013887790277060032
 0.0016977198734864415 0.01389500908595739 -0.0014810788573968708 -0.008808821495092734 0.005993131592137278 0.028994219264025026 0.9925962135539055 -0.06878051435319622
 -0.001481348665527215 -0.008808809293570025 0.001750809246995271 0.013887790277060032 0.9925962135539055 -0.06878051435319622 0.005984323946734734 0.028994889815624193
0.1062942892872 0.006017883581619485 0.029109641334248353 0.9925632989338864 -0.06903626324520143 0.0017082904569672842 0.013945639690970119 -0.001490503540412578 -0.008841076995308802
 0.9925632989338864 -0.06903626324520143 0.006009568273795313 0.029110255541496897 -0.0014902318178639548 -0.008841089383187508 0.0017617684084750083 0.0139383573882444
 0.0017082904569672842 0.013945639690970119 -0.0014902318178639548 -0.008841089383187508 0.006018103344939421 0.02910821155364881 0.9925632356039766 -0.06903768573863892
 -0.001490503540412578 -0.008841076995308802 0.0017617684084750083 0.0139383573882444 0.9925632356039766 -0.06903768573863892 0.006009231545417726 0.029108886612949494
0.11254689453939999 0.006432934190848188 0.0309676839445045 0.9920153863268565 -0.07321741661473588 0.0018847894963274832 0.014767197625487116 -0.0016433938399718422 -0.009364668796293697
 0.9920153863268565 -0.07321741661473588 0.0064236125313758665 0.03096836541111227 -0.0016430901424487076 -0.009364684408922644 0.0019447748124947234 0.01475883131618421
 0.0018847894963274832 0.014767197625487116 -0.0016430901424487076 -0.009364684408922644 0.006433181314689022 0.03096616991845656 0.9920153154649731 -0.0732189234610287
 -0.0016433938399718422 -0.009364668796293697 0.0019447748124947234 0.01475883131618421 0.9920153154649731 -0.0732189234610287 0.006423235430994462 0.030966920760129482
0.11879949979160001 0.006866512435325952 0.03283988660716848 0.9914435146239147 -0.07741121869114535 0.002070595346237902 0.015588121105027223 -0.0018044078589690715 -0.009887820907620217
 0.9914435146239147 -0.07741121869114535 0.006856126607576508 0.03284063955653753 -0.0018040705009542224 -0.009887840133374457 0.002137464835060876 0.01557856671834436
 0.002070595346237902 0.015588121105027223 -0.0018040705009542224 -0.009887840133374457 0.006866788577203852 0.03283828830166339 0.9914434357758356 -0.07741281003566565
 -0.0018044078589690715 -0.009887820907620217 0.002137464835060876 0.01557856671834436 0.9914434357758356 -0.07741281003566565 0.00685570688387188 0.032839119968281975
0.1250521050438 0.007318899424814445 0.034725973701128204 0.9908474073824729 -0.08161745894862613 0.0022657735053123055 0.01640827046632565 -0.0019736130346692123 -0.010410393370294414
 0.9908474073824729 -0.08161745894862613 0.007307391492837467 0.0347268024910726 -0.0019732403444622 -0.010410416614909676 0.002339904224644944 0.016397418748382946
 0.0022657735053123055 0.01640827046632565 -0.0019732403444622 -0.010410416614909676 0.007319206251322658 0.034724291080696204 0.990847320087144 -0.081619134945298
 -0.0019736130346692123 -0.010410393370294414 0.002339904224644944 0.016397418748382946 0.990847320087144 -0.081619134945298 0.007306926904115926 0.03472520879424627
0.131304710296 0.007790373991782608 0.036625667399963216 0.9902267900156024 -0.08583591813809592 0.0024703870680698983 0.01722750328918552 -0.002151074322715218 -0.010932243855431192
 0.9902267900156024 -0.08583591813809592 0.007777685886911892 0.03662657652752617 -0.002150664642291232 -0.010932271541996504 0.0025521562555251716 0.017215239755800228
 0.0024703870680698983 0.01722750328918552 -0.002150664642291232 -0.010932271541996504 0.007790713177777938 0.036623900424208516 0.9902266938043746 -0.08583767895272111
 -0.002151074322715218 -0.010932243855431192 0.0025521562555251716 0.017215239755800228 0.9902266938043746 -0.08583767895272111 0.007777174202073559 0.03662490959118383
0.1375573155481 0.00817276703567989 0.03829072142344979 0.9896898793964624 -0.08981828124177778 0.002658119659527287 0.01802066852397864 -0.002310385570825885 -0.011428305131406517
 0.9896898793964624 -0.08981828124177778 0.008158835419269657 0.038291694924638464 -0.002309936291956023 -0.011428337282917724 0.002747715209729087 0.01800701161247562
 0.002658119659527287 0.01802066852397864 -0.002309936291956023 -0.011428337282917724 0.008173139371468246 0.03828887030182347 0.9896897738618339 -0.08982012694899019
 -0.002310385570825885 -0.011428305131406517 0.002747715209729087 0.01800701161247562 0.9896897738618339 -0.08982012694899019 0.00815827518207018 0.0382899552277587
0.1438099208003 0.008568607164666682 0.03994707444628203 0.9891341160163614 -0.09379062456766575 0.0028534192759423556 0.01881073182168008 -0.002476071912558494 -0.011921474373926733
 0.9891341160163614 -0.09379062456766575 0.008553372966880898 0.03994811559807337 -0.0024755812259100343 -0.01192151141007913 0.002951184463304309 0.018795576910472855
 0.0028534192759423556 0.01881073182168008 -0.0024755812259100343 -0.01192151141007913 0.008569014176691174 0.03994513917713281 0.9891340006922539 -0.09379255532338172
 -0.002476071912558494 -0.011921474373926733 0.002951184463304309 0.018795576910472855 0.9891340006922539 -0.09379255532338172 0.00855276210143805 0.039946304002381965
0.1500625260525 0.008977756478170474 0.04159459012300806 0.9885596419318805 -0.09775285166273606 0.003056218684688836 0.01959761615003205 -0.0026480669219642473 -0.0124116767854956
 0.9885596419318805 -0.09775285166273606 0.008961160468489169 0.0415957024144232 -0.0026475330200118443 -0.012411719143192052 0.0031624947625505293 0.019580854804516074
 0.003056218684688836 0.01959761615003205 -0.0026475330200118443 -0.012411719143192052 0.00897819969011753 0.04159257070255685 0.9885595163457042 -0.09775486763173231
 -0.0026480669219642473 -0.0124116767854956 0.0031624947625505293 0.019580854804516074 0.9885595163457042 -0.09775486763173231 0.008960496918037054 0.04159381981104989
0.15631513130469998 0.009400076110893305 0.043233136227327267 0.9879665999094759 -0.10170486637481466 0.0032664498650112057 0.020381245783102752 -0.002826303358419505 -0.012898839144447815
 0.9879665999094759 -0.10170486637481466 0.009382058893689134 0.04323432336599348 -0.0028257244353781298 -0.012898887277875614 0.003381576035106338 0.020362765795318274
