! Created with skrf 1.8.0 (http://scikit-rf.org).
# GHz S RI R 50.0 
!freq ReS11 ImS11 ReS12 ImS12 ReS13 ImS13
! ReS14 ImS14
! ReS21 ImS21 ReS22 ImS22 ReS23 ImS23
! ReS24 ImS24
! ReS31 ImS31 ReS32 ImS32 ReS33 ImS33
! ReS34 ImS34
! ReS41 ImS41 ReS42 ImS42 ReS43 ImS43
! ReS44 ImS44
!
0.0 0.001632241643309 0.0 0.9983677583567 0.0 6.337070163216e-05 0.0 -6.337070145365e-05 7.7606726694935e-21
 0.9983677583567 0.0 0.001632241643313 0.0 -6.337070145418e-05 7.760672669558407e-21 6.337070163099e-05 0.0
 6.337070163216e-05 0.0 -6.337070145418e-05 7.760672669558407e-21 0.001632241630528 0.0 0.9983677583439 0.0
 -6.337070145365e-05 7.7606726694935e-21 6.337070163099e-05 0.0 0.9983677583439 0.0 0.00163224163051 0.0
0.005 0.001756478890854793 0.0013301944714826275 0.9982105089399813 -0.0034190590804332502 8.976219539922432e-05 0.0007277715280800741 -8.691226101330652e-05 -0.0004516074396723369
 0.9982105089399813 -0.0034190590804332502 0.001756502904213276 0.0013301804880887628 -8.691416724117141e-05 -0.0004516089439516943 8.96083829233775e-05 0.0007278301484802306
 8.976219539922432e-05 0.0007277715280800741 -8.691416724117141e-05 -0.0004516089439516943 0.0017564773496157276 0.0013301281330845708 0.9982105085748643 -0.0034191261465431385
 -8.691226101330652e-05 -0.0004516074396723369 8.96083829233775e-05 0.0007278301484802306 0.9982105085748643 -0.0034191261465431385 0.0017565037134211143 0.0013301126893574256
0.006252605252188 0.0017891421912036485 0.0016679869503257896 0.9981688869614289 -0.004274648997708476 9.736776693054966e-05 0.0009100465506434199 -9.360213953315168e-05 -0.0005650947783706318
 0.9981688869614289 -0.004274648997708476 0.0017891797280279401 0.0016679691721962111 -9.360510545122065e-05 -0.0005650966337709345 9.712745048835553e-05 0.0009101226822556927
 9.736776693054966e-05 0.0009100465506434199 -9.360510545122065e-05 -0.0005650966337709345 0.0017891398547551101 0.0016679040459022627 0.9981688864639764 -0.004274732815225978
 -9.360213953315168e-05 -0.0005650947783706318 9.712745048835553e-05 0.0009101226822556927 0.9981688864639764 -0.004274732815225978 0.0017891810666835922 0.0016678844314818608
0.01250521050438 0.001961552784026267 0.0033709714169433995 0.9979476457200755 -0.008550034320776098 0.00014132928034243223 0.0018203116365578666 -0.00013179155075580947 -0.0011329004740272567
 0.9979476457200755 -0.008550034320776098 0.001961702663576612 0.003370932861433853 -0.00013180323518088852 -0.001132903910589297 0.00014037098029573663 0.001820494830547148
 0.00014132928034243223 0.0018203116365578666 -0.00013180323518088852 -0.001132903910589297 0.001961544015663795 0.0033708058983626735 0.9979476443029329 -0.008550201698594235
 -0.00013179155075580947 -0.0011329004740272567 0.00014037098029573663 0.001820494830547148 0.9979476443029329 -0.008550201698594235 0.001961708583757955 0.003370763538795867
0.01875781575657 0.002149868025867408 0.00509818023274673 0.997703746985629 -0.012836546189821734 0.0001953582690403206 0.0027314215167644523 -0.00017806117883650743 -0.00170254586906502
 0.997703746985629 -0.012836546189821734 0.0021502048031041094 0.005098117721733889 -0.00017808722984702548 -0.0017025505582774336 0.0001932056163433084 0.0027317490263319226
 0.0001953582690403206 0.0027314215167644523 -0.00017808722984702548 -0.0017025505582774336 0.0021498487299057294 0.005097932265524641 0.997703744224818 -0.0128367969978047
 -0.00017806117883650743 -0.00170254586906502 0.0001932056163433084 0.0027317490263319226 0.997703744224818 -0.0128367969978047 0.0021502185394509927 0.00509786378224561
0.02501042100875 0.0023544697553076264 0.0068471631027765415 0.99743689129615 -0.017136239296697615 0.00025955980939212496 0.003643404804939833 -0.00023252873280288347 -0.0022737504033872127
 0.99743689129615 -0.017136239296697615 0.0023550678321696402 0.006847073304268259 -0.00023257472890595058 -0.002273755956720308 0.0002557363059573605 0.0036439199991915115
 0.00025955980939212496 0.003643404804939833 -0.00023257472890595058 -0.002273755956720308 0.002354435838802292 0.006846832825775301 0.9974368867745292 -0.01713657343249715
 -0.00023252873280288347 -0.0022737504033872127 0.0002557363059573605 0.0036439199991915115 0.9974368867745292 -0.01713657343249715 0.0023550926238082416 0.006846734620174649
0.03126302626094 0.002575723975335847 0.008616647062943147 0.9971467646027852 -0.021449978330596406 0.0003340394685662007 0.004556202292242273 -0.0002953082556641866 -0.002846314261283177
 0.9971467646027852 -0.021449978330596406 0.0025766576439636 0.008616526496617892 -0.00029537971753017175 -0.002846320229532141 0.0003280680515010953 0.00455695469227566
 0.0003340394685662007 0.004556202292242273 -0.00029537971753017175 -0.002846320229532141 0.0025756713387543794 0.008616234605561128 0.9971467579030827 -0.021450395702813988
 -0.0002953082556641866 -0.002846314261283177 0.0003280680515010953 0.00455695469227566 0.9971467579030827 -0.021450395702813988 0.0025766967280235423 0.008616102864134697
0.037515631513130004 0.0028139885199782305 0.010405793003852623 0.9968330462165137 -0.025778181395211347 0.00041890213002882687 0.0054697198923229695 -0.0003665109765078188 -0.003420065430293438
 0.9968330462165137 -0.025778181395211347 0.0028153319927507704 0.010405638043683383 -0.00036661337295074685 -0.0034200713034148443 0.0004103049807887978 0.0054707652322936555
 0.00041890213002882687 0.0054697198923229695 -0.00036661337295074685 -0.0034200713034148443 0.002813913060994659 0.010405298505412882 0.9968330369261001 -0.025778681904458003
 -0.0003665109765078188 -0.003420065430293438 0.0004103049807887978 0.0054707652322936555 0.9968330369261001 -0.025778681904458003 0.0028153886094248255 0.010405129201623446
0.043768236765320004 0.0030696160154055864 0.01221396944409004 0.9964954120533384 -0.03012104616542233 0.0005142514329833901 0.006383844760612602 -0.00044624561545672856 -0.00399484359302343
 0.9964954120533384 -0.03012104616542233 0.0030714434497339303 0.012213776320102183 -0.00044638436696316485 -0.003994848800115585 0.0005025498913190797 0.006385245056667199
 0.0005142514329833901 0.006383844760612602 -0.00044638436696316485 -0.003994848800115585 0.003069513625485013 0.012213393054950611 0.996495399762603 -0.030121629703911666
 -0.00044624561545672856 -0.00399484359302343 0.0005025498913190797 0.006385245056667199 0.996495399762603 -0.030121629703911666 0.0030715208395482494 0.012213181950038416
0.050020842017509996 0.0033429552481410896 0.014040659048050318 0.9961335362922601 -0.034478643298322315 0.0006201894356132824 0.007298451962067654 -0.0005346184865589417 -0.004570493475458503
 0.9961335362922601 -0.034478643298322315 0.003345340767850848 0.014040423847322035 -0.000534798967531229 -0.004570497384797136 0.0006049039694083509 0.007300275584386853
 0.0006201894356132824 0.007298451962067654 -0.000534798967531229 -0.004570497384797136 0.0033428218119191722 0.014040000919863741 0.9961335205943521 -0.034479309760299115
 -0.0005346184865589417 -0.004570493475458503 0.0006049039694083509 0.007300275584386853 0.9961335205943521 -0.034479309760299115 0.003345442171515283 0.014039743562666507
0.055454545454549996 0.003595147930435344 0.01564279260621282 0.9957991145191843 -0.0382774850990521 0.0007209299895853755 0.008093561345923971 -0.0006185132600601982 -0.005071339405035388
 0.9957991145191843 -0.0382774850990521 0.003598078630388493 0.01564251755088855 -0.0006187343351901875 -0.0050713416263444494 0.0007021398707062024 0.008095813366563216
 0.0007209299895853755 0.008093561345923971 -0.0006187343351901875 -0.0050713416263444494 0.0035949841668197393 0.01564206358298263 0.9957990955335905 -0.03827822352574296
 -0.0006185132600601982 -0.005071339405035388 0.0007021398707062024 0.008095813366563216 0.9957990955335905 -0.03827822352574296 0.003598203535324429 0.01564176225074142
0.056273447269699996 0.0036343518521096147 0.01588541269929149 0.9957470923567157 -0.038850962291087324 0.0007368163781799052 0.008213407735380316 -0.0006317335095640652 -0.005146861603977504
 0.9957470923567157 -0.038850962291087324 0.0036373695681891282 0.015885131366150974 -0.0006319610497934687 -0.005146863523060692 0.0007174665868495562 0.008215729481498664
 0.0007368163781799052 0.008213407735380316 -0.0006319610497934687 -0.005146863523060692 0.0036341832476160436 0.015884673002955017 0.9957470728492543 -0.03885171155554121
 -0.0006317335095640652 -0.005146861603977504 0.0007174665868495562 0.008215729481498664 0.9957470728492543 -0.03885171155554121 0.0036374982270637093 0.015884364729140527
0.06252605252188 0.003944148674243824 0.017747824313408954 0.9953357535793536 -0.043237936603408605 0.000864230490162805 0.009128571301579165 -0.000737692180935292 -0.005723794523460259
 0.9953357535793536 -0.043237936603408605 0.003947872704204495 0.017747492649053568 -0.0007379720666648372 -0.0057237936990797884 0.0008403351304909878 0.009131472470131251
 0.000864230490162805 0.009128571301579165 -0.0007379720666648372 -0.0057237936990797884 0.0039439407719651315 0.017747003230132105 0.9953357298638664 -0.043238768543674505
 -0.000737692180935292 -0.005723794523460259 0.0008403351304909878 0.009131472470131251 0.9953357298638664 -0.043238768543674505 0.003948031858961172 0.017746639160727953
0.06877865777407 0.004272685952470941 0.019627515771795074 0.9948991936839822 -0.047639458664460566 0.0010025278261862622 0.010043795951902464 -0.0008525935172888231 -0.006301137742092801
 0.9948991936839822 -0.047639458664460566 0.004277190439712275 0.019627129433327346 -0.0008529309918650914 -0.0063011333604051116 0.0009736048542511224 0.010047364416224199
 0.0010025278261862622 0.010043795951902464 -0.0008529309918650914 -0.0063011333604051116 0.0042724346144950775 0.019626613500396593 0.9948991653660055 -0.04764037314178946
 -0.0008525935172888231 -0.006301137742092801 0.0009736048542511224 0.010047364416224199 0.9948991653660055 -0.04764037314178946 0.004277383329501183 0.01962618853960222
0.07503126302626001 0.004620301389019315 0.021524127412240215 0.9944370871672052 -0.0520553893291069 0.001151802119728474 0.010958929732508069 -0.0009765339814213136 -0.006878735085437899
 0.9944370871672052 -0.0520553893291069 0.004625660521432339 0.02152368191105366 -0.0009769342457403608 -0.006878726272048296 0.0011173687443527167 0.010963260013882863
 0.001151802119728474 0.010958929732508069 -0.0009769342457403608 -0.006878726272048296 0.004620002469250819 0.021523144160017084 0.9944370538568889 -0.05205638620248604
 -0.0009765339814213136 -0.006878735085437899 0.0011173687443527167 0.010963260013882863 0.9944370538568889 -0.05205638620248604 0.00462589038386249 0.021522652992586957
0.08128386827845 0.004987330154967865 0.02343731167478295 0.9939491096153029 -0.05648556418561503 0.0013121446438735473 0.01187381592575718 -0.0011096074005643038 -0.007456428260497219
 0.9939491096153029 -0.05648556418561503 0.004993618183693692 0.02343680237429593 -0.0011100756133270192 -0.0074564140805485095 0.0012717173897652532 0.011879009265840944
 0.0013121446438735473 0.01187381592575718 -0.0011100756133270192 -0.0074564140805485095 0.004986979498363479 0.023436247670186986 0.9939490709277301 -0.056486643299934525
 -0.0011096074005643038 -0.007456428260497219 0.0012717173897652532 0.011879009265840944 0.9939490709277301 -0.056486643299934525 0.004993888253745906 0.02343568475794572
0.08753647353064001 0.005374104850471236 0.025366728732471373 0.9934349379818195 -0.060929797885394585 0.0014836440805103919 0.012788293378070366 -0.001251904875766582 -0.008034056579709698
 0.9934349379818195 -0.060929797885394585 0.005381396109015259 0.025366150845166725 -0.0012524461536410148 -0.00803403603797705 0.0014367388589551092 0.012794457810602317
 0.0014836440805103919 0.012788293378070366 -0.0012524461536410148 -0.00803403603797705 0.005373698293059256 0.02536558422415815 0.9934348935373665 -0.060930959073181176
 -0.001251904875766582 -0.008034056579709698 0.0014367388589551092 0.012794457810602317 0.9934348935373665 -0.060930959073181176 0.005381709618501052 0.025364943801971795
0.09378907878283 0.005780955434208056 0.02731204336908148 0.9928942508370815 -0.06538788723328584 0.0016663863931809541 0.013702196757040985 -0.0014035146869785175 -0.00861145676262278
 0.9928942508370815 -0.06538788723328584 0.005789324356998313 0.02731139195298892 -0.0014041341045883406 -0.008611428803620752 0.0016125185791440104 0.01370944717844938
 0.0016663863931809541 0.013702196757040985 -0.0014041341045883406 -0.008611428803620752 0.00578048880235114 0.027310818618298566 0.9928942002616999 -0.06538913032322677
 -0.0014035146869785175 -0.00861145676262278 0.0016125185791440104 0.01370944717844938 0.9928942002616999 -0.06538913032322677 0.005789684533609292 0.027310094689338822
0.100041684035 0.006208209129093612 0.02927292268506828 0.9923267285988869 -0.06985961345740427 0.0018604547036335918 0.014615356736880674 -0.001564522193894142 -0.009188462816223654
 0.9923267285988869 -0.06985961345740427 0.006217730270393478 0.02927219263943393 -0.0015652247838369067 -0.009188426324310174 0.0017991392181022719 0.014623814975806823
 0.0018604547036335918 0.014615356736880674 -0.0015652247838369067 -0.009188426324310174 0.006207678239764265 0.02927161797474044 0.9923266715242768 -0.06986093826609228
 -0.001564522193894142 -0.009188462816223654 0.0017991392181022719 0.014623814975806823 0.9923266715242768 -0.06986093826609228 0.00621814033695691 0.029270804305104994
0.1059090909091 0.006627986802671057 0.031126859846370487 0.991769480080966 -0.07406804975044122 0.0020529395428326973 0.015471430219908376 -0.0017242311498501801 -0.009729413013971734
 0.991769480080966 -0.07406804975044122 0.0066386571086577235 0.031126051230337976 -0.0017250163276783983 -0.009729367446683474 0.0019841937061658437 0.015481138904346159
 0.0020529395428326973 0.015471430219908376 -0.0017250163276783983 -0.009729367446683474 0.0066273918011589 0.03112548037670227 0.9917694165784597 -0.07406945106913661
 -0.0017242311498501801 -0.009729413013971734 0.0019841937061658437 0.015481138904346159 0.9917694165784597 -0.07406945106913661 0.0066391169179118295 0.03112457660864772
0.1062942892872 0.006656190312508759 0.03124903438947694 0.9917320537502914 -0.07434474390105837 0.0020659291695795333 0.015527600165444369 -0.0017350097348184555 -0.009764905940846554
 0.9917320537502914 -0.07434474390105837 0.006666938365506634 0.031248220449749592 -0.0017358004874495048 -0.009764859740349416 0.0019966805672529714 0.01553739505093849
 0.0020659291695795333 0.015527600165444369 -0.0017358004874495048 -0.009764859740349416 0.006655590972573867 0.03124765002153281 0.9917319898146824 -0.07434615023656845
 -0.0017350097348184555 -0.009764905940846554 0.0019966805672529714 0.01553739505093849 0.9917319898146824 -0.07434615023656845 0.006667401539387204 0.031246740134016623
0.11254689453939999 0.007125220393618296 0.03324004549247808 0.9911099110488194 -0.0788430333222494 0.002282886865156743 0.01643875018930415 -0.0019150565228232058 -0.010340614485312762
 0.9911099110488194 -0.0788430333222494 0.007137270209383464 0.03323914222457949 -0.0019159403861180627 -0.010340557340650914 0.0022052194260159027 0.016450017617758092
 0.002282886865156743 0.01643875018930415 -0.0019159403861180627 -0.010340557340650914 0.007124548399914301 0.033238581791949114 0.9911098398969094 -0.07884452098096517
 -0.0019150565228232058 -0.010340614485312762 0.0022052194260159027 0.016450017617758092 0.9911098398969094 -0.07884452098096517 0.007137789701533581 0.03323756895921835
0.11879949979160001 0.007615617681059137 0.035245621296233785 0.990459987728155 -0.08335422490354324 0.0025114016622208163 0.01734862637334959 -0.002104738540575975 -0.010915413915044195
 0.990459987728155 -0.08335422490354324 0.007629044287919992 0.03524462309003435 -0.002105720419933838 -0.0109153445308802 0.00242482948741757 0.017361509373901806
 0.0025114016622208163 0.01734862637334959 -0.002105720419933838 -0.0109153445308802 0.007614868820110292 0.03524407860790839 0.9904599090116031 -0.08335579367444343
 -0.002104738540575975 -0.010915413915044195 0.00242482948741757 0.017361509373901806 0.9904599090116031 -0.08335579367444343 0.007629623302001558 0.03524295584486273
0.1250521050438 0.008127697242209164 0.03726542460040113 0.9897819736948062 -0.08787805105582669 0.002751544112813636 0.01825704480446286 -0.0023041284343834623 -0.011489126803608037
 0.9897819736948062 -0.08787805105582669 0.008142575864832677 0.03726432566247287 -0.0023052131922882383 -0.011489043824964863 0.002655581223865397 0.01827169360291441
 0.002751544112813636 0.01825704480446286 -0.0023052131922882383 -0.011489043824964863 0.008126867290135235 0.037263803291973756 0.9897818870727052 -0.08787970071828845
 -0.0023041284343834623 -0.011489126803608037 0.002655581223865397 0.01827169360291441 0.9897818870727052 -0.08787970071828845 0.008143217596424016 0.037262563347342514
0.131304710296 0.008661770757073648 0.039299115075614344 0.9890755617221643 -0.09241423406333235 0.0030033813326712784 0.019163818186703572 -0.002513295407055527 -0.012061572840442266
 0.9890755617221643 -0.09241423406333235 0.008678176836140004 0.039297909421081946 -0.002514487862782562 -0.01206147485290367 0.0028975417744523083 0.01918039026773367
 0.0030033813326712784 0.019163818186703572 -0.002514487862782562 -0.01206147485290367 0.008660855479169095 0.039297415536907285 0.9890754668611937 -0.09241596438895466
 -0.002513295407055527 -0.012061572840442266 0.0028975417744523083 0.01918039026773367 0.9890754668611937 -0.09241596438895466 0.008678884471908734 0.039296050883926674
0.1375573155481 0.00909869805134426 0.04108029997987729 0.9884599456017529 -0.09669631164228 0.0032366809522076023 0.02004230129483072 -0.002702134257514864 -0.012606044480287563
 0.9884599456017529 -0.09669631164228 0.009116713844974622 0.04107900972372678 -0.002703441687449286 -0.01260593131439257 0.0031207201756417793 0.020060778630751626
 0.0032366809522076023 0.02004230129483072 -0.002703441687449286 -0.01260593131439257 0.00909769402505453 0.04107852236540858 0.9884598421414503 -0.09669812241340281
 -0.002702134257514864 -0.012606044480287563 0.0031207201756417793 0.020060778630751626 0.9884598421414503 -0.09669812241340281 0.009117489799493448 0.04107705403177205
0.1438099208003 0.009551074999384786 0.04285148004679669 0.9878224947418969 -0.10096692347475514 0.0034794140363849616 0.020916840996517635 -0.0028985160153524236 -0.013146958560917063
 0.9878224947418969 -0.10096692347475514 0.009570777284916652 0.04285010086744547 -0.0028999436188104698 -0.013146828816619409 0.003352889694867925 0.020937368222757026
 0.0034794140363849616 0.020916840996517635 -0.0028999436188104698 -0.013146828816619409 0.009549978117866053 0.04284962470955941 0.9878223823557793 -0.10096881444971337
 -0.0028985160153524236 -0.013146958560917063 0.003352889694867925 0.020937368222757026 0.9878223823557793 -0.10096881444971337 0.009571624591705541 0.042848046836253546
0.1500625260525 0.01001873294790246 0.04461248926333965 0.9871633822171473 -0.1052259452562038 0.003731492227957837 0.02178733485932155 -0.0031023558818062667 -0.013684220504791188
 0.9871633822171473 -0.1052259452562038 0.010040198747126894 0.04461101654326242 -0.0031039088460408856 -0.013684072725678778 0.003593964779578279 0.021810061902953655
 0.003731492227957837 0.02178733485932155 -0.0031039088460408856 -0.013684072725678778 0.010017539102253486 0.04461055656899187 0.9871632605862409 -0.10522791618562541
 -0.0031023558818062667 -0.013684220504791188 0.003593964779578279 0.021810061902953655 0.9871632605862409 -0.10522791618562541 0.010041120421957506 0.04460886293904868
0.15631513130469998 0.010501501931231222 0.04636316659134401 0.9864827821078233 -0.10947325351528293 0.0039928260586684075 0.02265368228980608 -0.0033135679539258297 -0.014217737834201119
 0.9864827821078233 -0.10947325351528293 0.010524808517477361 0.04636159540666244 -0.003315251454070067 -0.014217570507770562 0.0038438588111891674 0.02267876431209502
