! Created with skrf 1.8.0 (http://scikit-rf.org).
# GHz S RI R 50.0 
!freq ReS11 ImS11 ReS12 ImS12 ReS13 ImS13
! ReS14 ImS14
! ReS21 ImS21 ReS22 ImS22 ReS23 ImS23
! ReS24 ImS24
! ReS31 ImS31 ReS32 ImS32 ReS33 ImS33
! ReS34 ImS34
! ReS41 ImS41 ReS42 ImS42 ReS43 ImS43
! ReS44 ImS44
!
0.0 0.001112730738658 0.0 0.9988872692365 0.0 4.235034118158e-05 0.0 -4.2350340948e-05 5.186420948476729e-21
 0.9988872692365 0.0 0.001112730738669 0.0 -4.23503409486e-05 5.186420948550207e-21 4.235034118132e-05 0.0
 4.235034118158e-05 0.0 -4.23503409486e-05 5.186420948550207e-21 0.001112730751099 0.0 0.9988872692489 0.0
 -4.2350340948e-05 5.186420948476729e-21 4.235034118132e-05 0.0 0.9988872692489 0.0 0.001112730751085 0.0
0.005 0.0011963046923821109 0.0009079168174307525 0.9987816567271101 -0.00233229835165962 5.9282123989260264e-05 0.0004844467974222354 -5.7520212957260135e-05 -0.00030114234039956526
 0.9987816567271101 -0.00233229835165962 0.0011963206799506874 0.0009079074706083028 -5.751821623656314e-05 -0.00030114078868647093 5.9185578257450593e-05 0.00048448336448789436
 5.9282123989260264e-05 0.0004844467974222354 -5.751821623656314e-05 -0.00030114078868647093 0.001196306115064718 0.0009079831998328586 0.9987816570466848 -0.0023322312993925357
 -5.7520212957260135e-05 -0.00030114234039956526 5.9185578257450593e-05 0.00048448336448789436 0.9987816570466848 -0.0023322312993925357 0.0011963198949706787 0.0009079751923195074
0.006252605252188 0.0012179545593186433 0.001138519359723013 0.9987541644844778 -0.002915985848211653 6.397934266731678e-05 0.0006058012956195993 -6.168107675813303e-05 -0.00037683711394995194
 0.9987541644844778 -0.002915985848211653 0.0012179795512076792 0.0011385075230581846 -6.167796976376265e-05 -0.00037683519922526986 6.382849408819535e-05 0.0006058487366500469
 6.397934266731678e-05 0.0006058012956195993 -6.167796976376265e-05 -0.00037683519922526986 0.0012179567134314668 0.0011386023351218095 0.9987541649138856 -0.002915902032410935
 -6.168107675813303e-05 -0.00037683711394995194 6.382849408819535e-05 0.0006058487366500469 0.9987541649138856 -0.002915902032410935 0.0012179782537752547 0.0011385921781210924
0.01250521050438 0.0013303577462787453 0.0023013961387599877 0.9986106684443495 -0.0058330013938906996 9.017583301931852e-05 0.0012119797370488742 -8.463344323814454e-05 -0.0007556887276717399
 0.9986106684443495 -0.0058330013938906996 0.001330457543638775 0.0023013709311978173 -8.462119910611171e-05 -0.0007556851653359578 8.95741687805914e-05 0.0012120929479193586
 9.017583301931852e-05 0.0012119797370488742 -8.462119910611171e-05 -0.0007556851653359578 0.0013303657839949198 0.0023015618102573574 0.998610669591392 -0.0058328340023224455
 -8.463344323814454e-05 -0.0007556887276717399 8.95741687805914e-05 0.0012120929479193586 0.998610669591392 -0.0058328340023224455 0.0013304517906600314 0.0023015400301744523
0.01875781575657 0.0014501293918678158 0.003481346393636182 0.9984566434663082 -0.008758203846081029 0.00012099001169992368 0.0018189939238955598 -0.00011126574590296336 -0.0011360179551459944
 0.9984566434663082 -0.008758203846081029 0.0014503536475438466 0.003481306178576402 -0.00011123844020418179 -0.0011360130493467556 0.00011963816173511785 0.0018191940028889394
 0.00012099001169992368 0.0018189939238955598 -0.00011123844020418179 -0.0011360130493467556 0.001450147037346776 0.0034815945966095983 0.9984566456206366 -0.008757952976677249
 -0.00011126574590296336 -0.0011360179551459944 0.00011963816173511785 0.0018191940028889394 0.9984566456206366 -0.008757952976677249 0.0014503402876909306 0.003481559669102582
0.02501042100875 0.0015774557605912076 0.004676766708460906 0.99829194821595 -0.011693065770438776 0.00015647322613877754 0.0024269078837840276 -0.00014163514834883613 -0.0015176802517479447
 0.99829194821595 -0.011693065770438776 0.0015778540300430777 0.00467670976630156 -0.00014158692590914848 -0.00151767434985416 0.0001540715063993212 0.0024272185668832826
 0.00015647322613877754 0.0024269078837840276 -0.00014158692590914848 -0.00151767434985416 0.0015774867378060583 0.004677097291088811 0.9982919516692018 -0.011692731482437116
 -0.00014163514834883613 -0.0015176802517479447 0.0001540715063993212 0.0024272185668832826 0.9982919516692018 -0.011692731482437116 0.0015778299147294094 0.004677047649648925
0.03126302626094 0.0017125148968380106 0.0058868592057814365 0.9981164323345892 -0.014638250060599267 0.00019667768586263776 0.003035728652510541 -0.0001757975923069386 -0.0019005857594652092
 0.9981164323345892 -0.014638250060599267 0.0017131366630112556 0.005886783737886035 -0.0001757226548548167 -0.0019005792529145206 0.000192925802864568 0.0030361763268482583
 0.00019667768586263776 0.003035728652510541 -0.0001757226548548167 -0.0019005792529145206 0.0017125629269178384 0.005887272005307283 0.9981164373762693 -0.014637832398203496
 -0.0001757975923069386 -0.0019005857594652092 0.000192925802864568 0.0030361763268482583 0.9981164373762693 -0.014637832398203496 0.0017130986406095243 0.0058872060451692415
0.037515631513130004 0.0018554811109134694 0.007111124320862769 0.9979299409850028 -0.01759411712686158 0.00024165588841056394 0.00364544132964719 -0.00021380824777191218 -0.0022846642338093795
 0.9979299409850028 -0.01759411712686158 0.0018563757993381599 0.007111028451706718 -0.000213700847470072 -0.0022846575584063384 0.00023625279521366318 0.0036460550614412506
 0.00024165588841056394 0.00364544132964719 -0.000213700847470072 -0.0022846575584063384 0.0018555499137391184 0.007111619160521974 0.9979299479038017 -0.01759361612205793
 -0.00021380824777191218 -0.0022846642338093795 0.00023625279521366318 0.0036460550614412506 0.9979299479038017 -0.01759361612205793 0.001856320715478154 0.007111535241118871
0.043768236765320004 0.002006526710871369 0.008349206455463214 0.9977323166474831 -0.020560879200559955 0.0002914603643136756 0.004256019763734465 -0.0002557216885143968 -0.002669854344632497
 0.9977323166474831 -0.020560879200559955 0.0020077437013940195 0.008349088234005202 -0.00025557612410774517 -0.0026698479806774077 0.00028410418115335293 0.004256831330700767
 0.0002914603643136756 0.004256019763734465 -0.00025557612410774517 -0.0026698479806774077 0.002006620007738647 0.008349783137044603 0.9977323257331312 -0.020560294880194663
 -0.0002557216885143968 -0.002669854344632497 0.00028410418115335293 0.004256831330700767 0.9977323257331312 -0.020560294880194663 0.002007668400377775 0.008349679583909626
0.050020842017509996 0.0021658228223329387 0.00960083019494909 0.997523400004111 -0.023538664073178606 0.0003461435400349897 0.0048674309306933035 -0.00030159196504360653 -0.003056099284759594
 0.997523400004111 -0.023538664073178606 0.002167411458240196 0.009600687595753572 -0.0003014025792242674 -0.003056093757125272 0.00033653150867714635 0.0048684748564149505
 0.0003461435400349897 0.0048674309306933035 -0.0003014025792242674 -0.003056093757125272 0.0021659443348781894 0.009601488497890474 0.9975234115462662 -0.023537996459463844
 -0.00030159196504360653 -0.003056099284759594 0.00033653150867714635 0.0048684748564149505 0.9975234115462662 -0.023537996459463844 0.0021673127817942225 0.009601363604314333
0.055454545454549996 0.0023110887306176217 0.010699349757919223 0.9973325496608912 -0.026135460166480114 0.00039766754608727293 0.005399412839257392 -0.0003447096722207384 -0.0033925721529528114
 0.9973325496608912 -0.026135460166480114 0.002313040388019355 0.010699184271686809 -0.00034447764259883183 -0.00339256781302008 0.00038584853616007234 0.005400688888277871
 0.00039766754608727293 0.005399412839257392 -0.00034447764259883183 -0.00339256781302008 0.0023112377856268863 0.010700078798756426 0.9973325635726615 -0.026134720179541247
 -0.0003447096722207384 -0.0033925721529528114 0.00038584853616007234 0.005400688888277871 0.9973325635726615 -0.026134720179541247 0.00231291882999489 0.010699933949670243
0.056273447269699996 0.0023335398201578027 0.010865768986042213 0.9973030304379746 -0.026527546374352024 0.0004057576432381357 0.005479637107069398 -0.0003514726413119952 -0.0034433445846145704
 0.9973030304379746 -0.026527546374352024 0.00233554941619396 0.010865599910128556 -0.0003512338189107912 -0.003443340462791011 0.0003935861017451803 0.005480950696310011
 0.0004057576432381357 0.005479637107069398 -0.0003512338189107912 -0.003443340462791011 0.002333693269853028 0.010866508671918887 0.9973030447258336 -0.026526795480003626
 -0.0003514726413119952 -0.0034433445846145704 0.0003935861017451803 0.005480950696310011 0.9973030447258336 -0.026526795480003626 0.002335424202619888 0.010866360700390829
0.06252605252188 0.002509847573896091 0.012143827945861206 0.9970710463467631 -0.029527564718535838 0.0004703546378175398 0.006092597039583716 -0.000405416804584232 -0.003831536931294139
 0.9970710463467631 -0.029527564718535838 0.00251232742409508 0.012143630221362493 -0.0004051229712849808 -0.0038315348294147354 0.00045531900856992584 0.006094220414177407
 0.0004703546378175398 0.006092597039583716 -0.0004051229712849808 -0.0038315348294147354 0.0025100366832306723 0.01214464874729205 0.99707106367028 -0.029526730557451794
 -0.000405416804584232 -0.003831536931294139 0.00045531900856992584 0.006094220414177407 0.99707106367028 -0.029526730557451794 0.002512172509096544 0.012144475930800825
0.06877865777407 0.002694915594824844 0.013434833576479158 0.9968272853603765 -0.03253873194660043 0.0005399861702119246 0.006706266653962414 -0.0004634770654035491 -0.004220623449207665
 0.9968272853603765 -0.03253873194660043 0.002697914979230028 0.013434604959182576 -0.00046312268675493927 -0.00422062402606907 0.0005217809570602119 0.006708242788992123
 0.0005399861702119246 0.006706266653962414 -0.00046312268675493927 -0.00422062402606907 0.002695144087180817 0.013435735207153734 0.9968273060100045 -0.032537814523431956
 -0.0004634770654035491 -0.004220623449207665 0.0005217809570602119 0.006708242788992123 0.9968273060100045 -0.032537814523431956 0.002697727195874225 0.013435535750299916
0.07503126302626001 0.0028889131217434147 0.014738627281100515 0.9965715844976376 -0.0355610415662466 0.0006147035249243968 0.007320599495215077 -0.0005257055487660865 -0.004610551250144692
 0.9965715844976376 -0.0355610415662466 0.002892481313212617 0.014738365454815135 -0.0005252851294603858 -0.004610555209217322 0.0005930223170982868 0.007322974255369353
 0.0006147035249243968 0.007320599495215077 -0.0005252851294603858 -0.004610555209217322 0.0028891847205831534 0.01473960942629541 0.996571608763731 -0.035560040885426226
 -0.0005257055487660865 -0.004610551250144692 0.0005930223170982868 0.007322974255369353 0.996571608763731 -0.035560040885426226 0.0028922574911213273 0.014739381506375519
0.08128386827845 0.003092009171307339 0.016055061018290313 0.9963037802901313 -0.03859447205524708 0.0006945575844658123 0.007935547018848401 -0.0005921538808979736 -0.005001267133356485
 0.9963037802901313 -0.03859447205524708 0.0030961954422062776 0.016054763595020935 -0.0005916619642301479 -0.005001275222790529 0.0006690930657197758 0.007938369194840889
 0.0006945575844658123 0.007935547018848401 -0.0005916619642301479 -0.005001275222790529 0.0030923276011020056 0.01605612333763485 0.9963038084642815 -0.03859338811783747
 -0.0005921538808979736 -0.005001267133356485 0.0006690930657197758 0.007938369194840889 0.9963038084642815 -0.03859338811783747 0.003095932408465072 0.016055865105405
0.08753647353064001 0.0033043725638585257 0.01738399431363151 0.9960237088821321 -0.041638989807927594 0.000779598792597176 0.00855105879484061 -0.0006628731726640058 -0.005392717373830799
 0.9960237088821321 -0.041638989807927594 0.003309226192282604 0.017383658833752327 -0.000662304340096901 -0.005392730386465152 0.0007500427542669816 0.008554380139865689
 0.000779598792597176 0.00855105879484061 -0.000662304340096901 -0.005392730386465152 0.003304741548981085 0.017385136442263294 0.996023741256081 -0.04163782261006157
 -0.0006628731726640058 -0.005392717373830799 0.0007500427542669816 0.008554380139865689 0.996023741256081 -0.04163782261006157 0.0033089207706576253 0.017384846022758048
0.09378907878283 0.0035261719324981436 0.018725292116144633 0.9957312061159048 -0.04469455123791246 0.0008698771198758264 0.009167082649387728 -0.0007379140001084273 -0.0057848475738624975
 0.9957312061159048 -0.04469455123791246 0.0035317422087808503 0.018724916048278733 -0.0007372628710008533 -0.005784866347218222 0.0008359204774265741 0.009170957915496278
 0.0008698771198758264 0.009167082649387728 -0.0007372628710008533 -0.005784866347218222 0.003526595197990144 0.018726513658975184 0.9957312429822764 -0.044693300776072
 -0.0007379140001084273 -0.0057848475738624975 0.0008359204774265741 0.009170957915496278 0.9957312429822764 -0.044693300776072 0.0035313912204889245 0.018726189152057145
0.100041684035 0.0037575757209130124 0.020078823227901256 0.9954261076063388 -0.04776110430867158 0.0009654420303087974 0.00978356477021954 -0.0008173263835970742 -0.0061776025520815705
 0.9954261076063388 -0.04776110430867158 0.003763911953990822 0.020078403968753596 -0.0008165876149769379 -0.006177627968350309 0.0009267748426030832 0.009788051744640893
 0.0009654420303087974 0.00978356477021954 -0.0008165876149769379 -0.006177627968350309 0.0037580569918331218 0.020080123763881293 0.9954261492586628 -0.047759770575052235
 -0.0008173263835970742 -0.0061776025520815705 0.0009267748426030832 0.009788051744640893 0.9954261492586628 -0.047759770575052235 0.0037635122172418067 0.020079763244731933
0.1059090909091 0.003983608619808221 0.02135998014995712 0.9951282027531955 -0.05064868312834526 0.0010599712411184482 0.010362435336261841 -0.0008958664147911138 -0.006546679758564061
 0.9951282027531955 -0.05064868312834526 0.00399070849021332 0.021359517928310926 -0.0008950405798430537 -0.006546712250638482 0.0010166010743051033 0.010367551626394193
 0.0010599712411184482 0.010362435336261841 -0.0008950405798430537 -0.006546712250638482 0.003984147710500072 0.021361354406582437 0.9951282491642877 -0.05064727124162185
 -0.0008958664147911138 -0.006546679758564061 0.0010166010743051033 0.010367551626394193 0.9951282491642877 -0.05064727124162185 0.003990260111830916 0.02136095832143046
0.1062942892872 0.003998752172673943 0.02144445911687142 0.99510824880929 -0.05083858968184927 0.0010663424493809704 0.01040044978263887 -0.0009011597649965447 -0.006570926262886386
 0.99510824880929 -0.05083858968184927 0.004005903696457281 0.021443993990855052 -0.000900328051412564 -0.006570959248931528 0.0010226539403617259 0.010405609323962615
 0.0010663424493809704 0.01040044978263887 -0.000900328051412564 -0.006570959248931528 0.003999295174004588 0.021445838198965048 0.9951082955417839 -0.05083717266389225
 -0.0009011597649965447 -0.006570926262886386 0.0010226539403617259 0.010405609323962615 0.9951082955417839 -0.05083717266389225 0.004005452026645427 0.02144543971835983
0.11254689453939999 0.004249869313379419 0.022822073014188645 0.9947774650834045 -0.053926941582316326 0.001172626732334513 0.011017680810319038 -0.0009894629840980927 -0.006964761732226698
 0.9947774650834045 -0.053926941582316326 0.00425788549325875 0.02282155927295923 -0.0009885330575474906 -0.006964803259556894 0.0011236053147475752 0.011023576884550005
 0.001172626732334513 0.011017680810319038 -0.0009885330575474906 -0.006964803259556894 0.004250477769888888 0.022823530165257087 0.9947775171915314 -0.053925441266492805
 -0.0009894629840980927 -0.006964761732226698 0.0011236053147475752 0.011023576884550005 0.9947775171915314 -0.053925441266492805 0.0042573787029071926 0.022823091749749953
0.11879949979160001 0.004511094928588086 0.024211539203326356 0.9944335917498229 -0.05702608847252231 0.0012843426329691167 0.01163519952221838 -0.001082284253954286 -0.007359051008521816
 0.9944335917498229 -0.05702608847252231 0.00452002516753516 0.024210974025087158 -0.0010812508838036266 -0.007359102093280896 0.001229675933992875 0.011641899238614282
 0.0012843426329691167 0.01163519952221838 -0.0010812508838036266 -0.007359102093280896 0.004511772564603559 0.0242130739163646 0.9944336495298446 -0.05702450484369785
 -0.001082284253954286 -0.007359051008521816 0.001229675933992875 0.011641899238614282 0.9944336495298446 -0.05702450484369785 0.00451946006671728 0.024212593568260853
0.1250521050438 0.004782596537088642 0.025612732457124934 0.9940764641479646 -0.060135953580278526 0.0014015372727687945 0.012252946167891037 -0.0011796711352750919 -0.007753735126268051
 0.9940764641479646 -0.060135953580278526 0.004792490282392978 0.025612112945854512 -0.0011785291283006778 -0.007753796829200988 0.0013409121612928706 0.012260519814641312
 0.0014015372727687945 0.012252946167891037 -0.0011785291283006778 -0.007753796829200988 0.004783347076192752 0.025614344197071953 0.9940765278973055 -0.06013428661937813
 -0.0011796711352750919 -0.007753735126268051 0.0013409121612928706 0.012260519814641312 0.9940765278973055 -0.06013428661937813 0.004791863678352816 0.025613819894285565
0.131304710296 0.0050645413611635675 0.027025527585269042 0.993705917689882 -0.06325645531721014 0.0015242571099892796 0.012870859609587847 -0.001281670510361573 -0.008148754074236323
 0.993705917689882 -0.06325645531721014 0.005075448110907788 0.02702485076968898 -0.0012804147107609157 -0.008148827500668145 0.0014573597254846596 0.012879380689221653
 0.0015242571099892796 0.012870859609587847 -0.0012804147107609157 -0.008148827500668145 0.005065368526226919 0.02702721578784186 0.9937059877074228 -0.06325470500215799
 -0.001281670510361573 -0.008148754074236323 0.0014573597254846596 0.012879380689221653 0.9937059877074228 -0.06325470500215799 0.005074756808633776 0.027026645483548068
0.1375573155481 0.005283673807914626 0.028263991883461462 0.9933952247665389 -0.06620166291809623 0.0016348765754390542 0.013469216510953123 -0.0013707411782597017 -0.008524340656997755
 0.9933952247665389 -0.06620166291809623 0.005295646010645717 0.02826326877030289 -0.0013693640001821079 -0.00852442559272374 0.0015615553987981734 0.013478657166205974
 0.0016348765754390542 0.013469216510953123 -0.0013693640001821079 -0.00852442559272374 0.005284580842392221 0.02826575601120265 0.9933953013338879 -0.06619982925816116
 -0.0013707411782597017 -0.008524340656997755 0.0015615553987981734 0.013478657166205974 0.9933953013338879 -0.06619982925816116 0.00529488732563109 0.02826515164359622
0.1438099208003 0.005510170776329184 0.02949725943614903 0.9930741995599326 -0.0691407717433796 0.0017499680733620991 0.014065991846888191 -0.0014633874344772769 -0.00889851145440056
 0.9930741995599326 -0.0691407717433796 0.005523258454024826 0.029496487959363854 -0.0014618833376471025 -0.008898608955725583 0.00166993764668986 0.014076417676424454
 0.0017499680733620991 0.014065991846888191 -0.0014618833376471025 -0.008898608955725583 0.005511161315137875 0.029499098910910678 0.9930742829740019 -0.06913885472229897
 -0.0014633874344772769 -0.00889851145440056 0.00166993764668986 0.014076417676424454 0.9930742829740019 -0.06913885472229897 0.005522429280645666 0.029498459365074607
0.1500625260525 0.005743967922361176 0.030725267314606453 0.9927429088361396 -0.07207374992131282 0.0018695018832883788 0.014661152252918544 -0.0015595809436401223 -0.009271234754706302
 0.9927429088361396 -0.07207374992131282 0.005758221165410334 0.030724445292896824 -0.001557944394169141 -0.009271345919701397 0.001782477954892828 0.014672631198679805
 0.0018695018832883788 0.014661152252918544 -0.001557944394169141 -0.009271345919701397 0.005745045594123104 0.030727181537579126 0.9927429993945895 -0.07207174951992734
 -0.0015595809436401223 -0.009271234754706302 0.001782477954892828 0.014672631198679805 0.9927429993945895 -0.07207174951992734 0.005757318401827275 0.030726505621171244
0.15631513130469998 0.005985000618387875 0.031947954764895155 0.9924014195070816 -0.07500056495841066 0.0019934480451557625 0.015254664765239425 -0.0016592931213888307 -0.009642479431569225
