! Created with skrf 1.8.0 (http://scikit-rf.org).
# GHz S RI R 50.0 
!freq ReS11 ImS11 ReS12 ImS12 ReS13 ImS13
! ReS14 ImS14
! ReS21 ImS21 ReS22 ImS22 ReS23 ImS23
! ReS24 ImS24
! ReS31 ImS31 ReS32 ImS32 ReS33 ImS33
! ReS34 ImS34
! ReS41 ImS41 ReS42 ImS42 ReS43 ImS43
! ReS44 ImS44
!
0.0 0.001446031376813 0.0 0.9985539686162 0.0 5.56375342274e-05 0.0 -5.563753375029e-05 6.813632761974549e-21
 0.9985539686162 0.0 0.001446031376843 0.0 -5.563753375054e-05 6.813632762005165e-21 5.563753422814e-05 0.0
 5.56375342274e-05 0.0 -5.563753375054e-05 6.813632762005165e-21 0.001446031373897 0.0 0.9985539686133 0.0
 -5.563753375029e-05 6.813632761974549e-21 5.563753422814e-05 0.0 0.9985539686133 0.0 0.001446031373911 0.0
0.005 0.0015555477041984454 0.0011826954554632792 0.9984154601267222 -0.0030294263217967494 7.786444757051697e-05 0.0006157722724739517 -7.562748003861792e-05 -0.0003860793848980083
 0.9984154601267222 -0.0030294263217967494 0.001555555255966773 0.0011826911239546814 -7.562768299966797e-05 -0.00038607959865700684 7.780999127328657e-05 0.0006157929082222676
 7.786444757051697e-05 0.0006157722724739517 -7.562768299966797e-05 -0.00038607959865700684 0.0015555476571823441 0.00118276278657917 0.9984154604825877 -0.003029359264708194
 -7.562748003861792e-05 -0.0003860793848980083 7.780999127328657e-05 0.0006157929082222676 0.9984154604825877 -0.003029359264708194 0.0015555560056340696 0.0011827578978530187
0.006252605252188 0.0015841910645641 0.0014830349953534195 0.9983790180429949 -0.003787536384979859 8.417023380443256e-05 0.0007700173635651727 -8.12339605906513e-05 -0.00048310360293946666
 0.9983790180429949 -0.003787536384979859 0.0015842028688186059 0.0014830295148368314 -8.123427594524017e-05 -0.00048310386774676737 8.408514943223996e-05 0.000770044164553962
 8.417023380443256e-05 0.0007700173635651727 -8.123427594524017e-05 -0.00048310386774676737 0.0015841909122455017 0.0014831191600374962 0.9983790185210822 -0.003787452564168739
 -8.12339605906513e-05 -0.00048310360293946666 8.408514943223996e-05 0.000770044164553962 0.9983790185210822 -0.003787452564168739 0.0015842039628475046 0.0014831129715967557
0.01250521050438 0.0017345133834363604 0.0029972708188680417 0.9981865629772959 -0.007575957581838323 0.00012009826139379687 0.001540414234741147 -0.0001128434624406351 -0.0009686020885034093
 0.9981865629772959 -0.007575957581838323 0.00173456050914078 0.0029972592019976802 -0.00011284469969490414 -0.0009686025927655611 0.00011975892270195963 0.0015404786402809338
 0.00012009826139379687 0.001540414234741147 -0.00011284469969490414 -0.0009686025927655611 0.0017345121897858631 0.0029974389151660565 0.9981865643116513 -0.007575790162290816
 -0.0001128434624406351 -0.0009686020885034093 0.00011975892270195963 0.0015404786402809338 0.9981865643116513 -0.007575790162290816 0.001734564306023974 0.0029974257593535455
0.01875781575657 0.0018973107626946949 0.00453320262349292 0.9979763754682108 -0.011374501105419573 0.00016350222640671412 0.002311718851952114 -0.00015055999328732447 -0.0014558029952576306
 0.9979763754682108 -0.011374501105419573 0.0018974166373002632 0.004533184184672807 -0.00015056274464170146 -0.001455803710940139 0.00016273983879913368 0.002311833664129198
 0.00016350222640671412 0.002311718851952114 -0.00015056274464170146 -0.001455803710940139 0.0018973076361561512 0.0045334545211957655 0.997976378046472 -0.011374250147349297
 -0.00015055999328732447 -0.0014558029952576306 0.00016273983879913368 0.002311833664129198 0.997976378046472 -0.011374250147349297 0.00189742475342484 0.004533433562050451
0.02501042100875 0.002072887262665337 0.006088696943678656 0.9977482190204383 -0.015185024263241902 0.00021446402061324707 0.0030839737417960675 -0.00019447472378204678 -0.0019444947818958677
 0.9977482190204383 -0.015185024263241902 0.002073075256148001 0.006088670976909329 -0.00019447957189337053 -0.001944495677548111 0.00021310965987535394 0.003084153691610052
 0.00021446402061324707 0.0030839737417960675 -0.00019447957189337053 -0.001944495677548111 0.0020728812993935546 0.00608903251529504 0.9977482232320136 -0.015184689764610031
 -0.00019447472378204678 -0.0019444947818958677 0.00021310965987535394 0.003084153691610052 0.9977482232320136 -0.015184689764610031 0.0020730893069841935 0.006089002869843306
0.03126302626094 0.002261534312374792 0.007662664075953384 0.9975018445125868 -0.019008331745266012 0.0002730661327818319 0.003857150447071642 -0.0002446764309433729 -0.0024345320662274438
 0.9975018445125868 -0.019008331745266012 0.002261827750614184 0.00766262985740305 -0.0002446839504977035 -0.0024345331069332357 0.00027095058614524085 0.0038574122067739154
 0.0002730661327818319 0.003857150447071642 -0.0002446839504977035 -0.0024345331069332357 0.0022615245944346382 0.007663083176135316 0.9975018507491483 -0.019007913662261677
 -0.0002446764309433729 -0.0024345320662274438 0.00027095058614524085 0.0038574122067739154 0.9975018507491483 -0.019007913662261677 0.0022618493500730754 0.007663043916570183
0.037515631513130004 0.002463537146272262 0.009254399746020388 0.99723699681007 -0.022844833898548664 0.0003393908411246947 0.004631192607556919 -0.00030125214061261244 -0.002925792537359336
 0.99723699681007 -0.022844833898548664 0.0024639593207472638 0.009254356535620692 -0.00030126289921837983 -0.0029257936847540407 0.0003363445336710404 0.0046315548113251385
 0.0003393908411246947 0.004631192607556919 -0.00030126289921837983 -0.0029257936847540407 0.0024635227430600116 0.009254902194850773 0.9972370054685421 -0.022844332162157557
 -0.00030125214061261244 -0.002925792537359336 0.0003363445336710404 0.0046315548113251385 0.9972370054685421 -0.022844332162157557 0.0024639900826625132 0.009254852349746838
0.043768236765320004 0.002679177298963798 0.010863384738079167 0.9969534174362901 -0.026694747031335453 0.0004135198314232423 0.0054060290620165635 -0.00036428736719616896 -0.0034181638479541822
 0.9969534174362901 -0.026694747031335453 0.0026797514744286675 0.010863331780695956 -0.0003643019259210544 -0.0034181650602675305 0.0004093727890335891 0.0054065123292940985
 0.0004135198314232423 0.0054060290620165635 -0.0003643019259210544 -0.0034181650602675305 0.0026791572639681197 0.010863970337002081 0.9969534289176498 -0.026694161531412016
 -0.00036428736719616896 -0.0034181638479541822 0.0004093727890335891 0.0054065123292940985 0.9969534289176498 -0.026694161531412016 0.0026797930093963654 0.010863908892029848
0.050020842017509996 0.002908733764048391 0.01248920211546465 0.9966508459119447 -0.030558176123937842 0.0004955339742145701 0.006181579260445063 -0.0004338662012792176 -0.003911538198022106
 0.9966508459119447 -0.030558176123937842 0.002909483185409974 0.012489138641916527 -0.00043388511506919604 -0.003911539430122797 0.0004901158057478915 0.006182206220407066
 0.0004955339742145701 0.006181579260445063 -0.00043388511506919604 -0.003911539430122797 0.0029087071356138747 0.01248987062101584 0.9966508606231215 -0.03055750673536792
 -0.0004338662012792176 -0.003911538198022106 0.0004901158057478915 0.006182206220407066 0.9966508606231215 -0.03055750673536792 0.0029095371012633955 0.012489796519483313
0.055454545454549996 0.003119742254019467 0.013915479581907463 0.9963722749147996 -0.03392661760500096 0.0005732725367000985 0.006856067876642874 -0.0004997107831910281 -0.004341027780685015
 0.9963722749147996 -0.03392661760500096 0.003120662836340721 0.013915406334484747 -0.0004997339277901074 -0.004341028990759332 0.0005666110140328487 0.0068568396672101205
 0.0005732725367000985 0.006856067876642874 -0.0004997339277901074 -0.004341028990759332 0.0031197091023928373 0.01391621991720807 0.9963722927689458 -0.03392587518743848
 -0.0004997107831910281 -0.004341027780685015 0.0005666110140328487 0.0068568396672101205 0.9963722927689458 -0.03392587518743848 0.0031207288146789984 0.01391613392590439
0.056273447269699996 0.003152483596913908 0.01413149655944911 0.996329020540798 -0.03443515542182425 0.0005855131675016948 0.006957755913001057 -0.0005100713338784919 -0.004405809684360361
 0.996329020540798 -0.03443515542182425 0.0031534314955062727 0.014131421787262058 -0.0005100951518244289 -0.004405810887807945 0.0005786530585855886 0.006958551229537119
 0.0005855131675016948 0.006957755913001057 -0.0005100951518244289 -0.004405810887807945 0.0031524493977959605 0.01413224770279734 0.996329038896236 -0.034434401984966966
 -0.0005100713338784919 -0.004405809684360361 0.0005786530585855886 0.006958551229537119 0.996329038896236 -0.034434401984966966 0.0031534993968774304 0.014132159845957146
0.06252605252188 0.003410702240876488 0.01578995204238656 0.9959876789221601 -0.03832567069615041 0.0006835362131435481 0.007734466451253622 -0.000592984047274931 -0.004900872840400393
 0.9959876789221601 -0.03832567069615041 0.0034118718406726694 0.015789865176432973 -0.0005930133128160477 -0.004900873963492664 0.0006750629276859052 0.00773545684822866
 0.0006835362131435481 0.007734466451253622 -0.0005930133128160477 -0.004900873963492664 0.0034106594759519713 0.015790785519019163 0.9959877013435049 -0.0383248330272557
 -0.000592984047274931 -0.004900872840400393 0.0006750629276859052 0.00773545684822866 0.9959877013435049 -0.0383248330272557 0.0034119553267226645 0.01579068276616092
0.06877865777407 0.0036836637047500923 0.01746427849190065 0.9956265583188868 -0.04222967251582971 0.0007896807125072888 0.008511613896183459 -0.0006826841861714145 -0.005396621772331943
 0.9956265583188868 -0.04222967251582971 0.003685078228288499 0.017464178724850683 -0.0006827194373329592 -0.0053966227601588155 0.0007794225994798411 0.00851282818277756
 0.0007896807125072888 0.008511613896183459 -0.0006827194373329592 -0.0053966227601588155 0.0036836113613925928 0.017465193963255125 0.9956265852365797 -0.042228750405391674
 -0.0006826841861714145 -0.005396621772331943 0.0007794225994798411 0.00851282818277756 0.9956265852365797 -0.042228750405391674 0.0036851788924269 0.017465075131722296
0.07503126302626001 0.003971640651554376 0.0191542033534713 0.9952453959382649 -0.046147084624086364 0.0009040229724891715 0.009289097412668462 -0.0007792501175722108 -0.005892949611943324
 0.9952453959382649 -0.046147084624086364 0.0039733233257877405 0.019154089866091576 -0.000779291887066786 -0.00589295040643024 0.0008918079769120033 0.00929056650873706
 0.0009040229724891715 0.009289097412668462 -0.000779291887066786 -0.00589295040643024 0.00397157769834172 0.019155200450629975 0.9952454277922594 -0.046146077833253016
 -0.0007792501175722108 -0.005892949611943324 0.0008918079769120033 0.00929056650873706 0.9952454277922594 -0.046146077833253016 0.003973442754553738 0.019155064315655623
0.08128386827845 0.0042749044324654735 0.02085946596453211 0.9948439291629082 -0.05007780950706159 0.0010266379190648194 0.010066812678794414 -0.0008827586822267795 -0.006389748158051182
 0.9948439291629082 -0.05007780950706159 0.004276878494728094 0.020859337925790113 -0.0008828074976312092 -0.006389748698012253 0.0010122935959015165 0.010068569640136488
 0.0010266379190648194 0.010066812678794414 -0.0008828074976312092 -0.006389748698012253 0.004274829818183562 0.020860544282092386 0.994843966403164 -0.05007671777393337
 -0.0008827586822267795 -0.006389748158051182 0.0010122935959015165 0.010068569640136488 0.994843966403164 -0.05007671777393337 0.0042770182662355055 0.020860389576361337
0.08753647353064001 0.004593725083583364 0.02257981367085288 0.9944218957461703 -0.054021732223593535 0.0011575990144820517 0.010844652144048375 -0.0009932851412882112 -0.006886907632539884
 0.9944218957461703 -0.054021732223593535 0.004596013787430626 0.022579670237926227 -0.0009933415251278154 -0.006886907853722336 0.0011409525451456925 0.010846732187613936
 0.0011575990144820517 0.010844652144048375 -0.0009933415251278154 -0.006886907853722336 0.004593637736177715 0.022580972771366156 0.9944219388339013 -0.054020555258899115
 -0.0009932851412882112 -0.006886907632539884 0.0011409525451456925 0.010846732187613936 0.9944219388339013 -0.054020555258899115 0.004596175470267713 0.022580798184616946
0.09378907878283 0.004928371296820336 0.02431499904563202 0.9939790339857593 -0.057978723136259194 0.0012969781774364317 0.01162250521985403 -0.0011109031188966075 -0.007384316507797427
 0.9939790339857593 -0.057978723136259194 0.004930997918016104 0.02431483936368711 -0.0011109675887973397 -0.00738431634293203 0.0012778563883889512 0.011624945748680747
 0.0012969781774364317 0.01162250521985403 -0.0011109675887973397 -0.00738431634293203 0.004928270123262626 0.024316238457617625 0.9939790833946883 -0.05797746062563497
 -0.0011109031188966075 -0.007384316507797427 0.0012778563883889512 0.011624945748680747 0.9939790833946883 -0.05797746062563497 0.004931183070413669 0.02431604263585293
0.100041684035 0.005279110374220576 0.026064777854442573 0.9935150828833089 -0.061948639900646744 0.00144484570545153 0.01240025841942417 -0.0012356845416155943 -0.007881861388503929
 0.9935150828833089 -0.061948639900646744 0.005282098216456445 0.02606460105628913 -0.0012357576103420947 -0.0078818607673471 0.0014230750885795371 0.012403099047481452
 0.00144484570545153 0.01240025841942417 -0.0012357576103420947 -0.0078818607673471 0.0052789942588108265 0.02606609707309681 0.9935151390997518 -0.061947291504150924
 -0.0012356845416155943 -0.007881861388503929 0.0014230750885795371 0.012403099047481452 0.9935151390997518 -0.061947291504150924 0.00528230838478632 0.026065878617809686
0.1059090909091 0.005623114918664767 0.027719816147477348 0.9930603017095887 -0.06568560499417833 0.0015913849019995097 0.013129902932080655 -0.001359356273776343 -0.008348775457099855
 0.9930603017095887 -0.06568560499417833 0.005626462953421576 0.027719622487329183 -0.0013594378737280602 -0.008348774341271003 0.001566970558662409 0.013133157030388044
 0.0015913849019995097 0.013129902932080655 -0.0013594378737280602 -0.008348774341271003 0.005622983746282981 0.027721209767196046 0.9930603647688361 -0.06568417567146226
 -0.001359356273776343 -0.008348775457099855 0.001566970558662409 0.013133157030388044 0.9930603647688361 -0.06568417567146226 0.005626697991060985 0.027720968760243023
0.1062942892872 0.005646208166860733 0.027828907523166645 0.9930297822913955 -0.06593132895598873 0.0016012701981744533 0.013177795470015387 -0.0013676995758733937 -0.008379426924954528
 0.9930297822913955 -0.06593132895598873 0.005649580568193827 0.02782871272864722 -0.001367781751474043 -0.0083794257743369 0.0015766769326818633 0.013181078046805213
 0.0016012701981744533 0.013177795470015387 -0.001367781751474043 -0.0083794257743369 0.005646075970485817 0.027830306009409646 0.993029845815544 -0.06592989430938377
 -0.0013676995758733937 -0.008379426924954528 0.0015766769326818633 0.013181078046805213 0.993029845815544 -0.06592989430938377 0.005649817285408 0.027830063476534776
0.11254689453939999 0.006029929004649667 0.029607145966192527 0.9925228730539313 -0.06992662665979932 0.001766318481747106 0.013954997402660423 -0.0015070165635167946 -0.008876895752908903
 0.9925228730539313 -0.06992662665979932 0.0060337093429686925 0.029606932281507407 -0.0015071083493582767 -0.008876893996778733 0.001738728457485854 0.01395876603749885
 0.001766318481747106 0.013954997402660423 -0.0015071083493582767 -0.008876893996778733 0.0060297795639708985 0.029608623149214305 0.9925229444010605 -0.06992510537237155
 -0.0015070165635167946 -0.008876895752908903 0.001738728457485854 0.01395876603749885 0.9925229444010605 -0.06992510537237155 0.006033974127952282 0.02960835504787533
0.11879949979160001 0.006430535617545985 0.03139925067296023 0.9919940971417549 -0.07393436016892564 0.001940055533707874 0.014731742626774317 -0.0016537019559411286 -0.009374148452564577
 0.9919940971417549 -0.07393436016892564 0.006434747317281335 0.03139901718969842 -0.0016538038508259138 -0.009374146012029586 0.0019092943757201396 0.014736043712843013
 0.001940055533707874 0.014731742626774317 -0.0016538038508259138 -0.009374146012029586 0.00643036774415599 0.03140080594972869 0.9919941768430471 -0.07393275182441546
 -0.0016537019559411286 -0.009374148452564577 0.0019092943757201396 0.014736043712843013 0.9919941768430471 -0.07393275182441546 0.006435041673136932 0.03140051074088215
0.1250521050438 0.006848289050955764 0.0332049779914594 0.9914431977839728 -0.07795434812836605 0.002122544408280868 0.015507906995635262 -0.0018078202472005995 -0.009871063520861333
 0.9914431977839728 -0.07795434812836605 0.00685295558893495 0.033204723785478694 -0.0018079327454374116 -0.00987106031422927 0.0020884375025352233 0.015512789233730926
 0.002122544408280868 0.015507906995635262 -0.0018079327454374116 -0.00987106031422927 0.006848101530083902 0.033206610726827464 0.9914432863869789 -0.0779526522852581
 -0.0018078202472005995 -0.009871063520861333 0.0020884375025352233 0.015512789233730926 0.9914432863869789 -0.0779526522852581 0.006853281001533771 0.033206286821662684
0.131304710296 0.007283448574845759 0.03502408254860799 0.990869919595324 -0.0819864012279502 0.002313846162143499 0.016283363863609103 -0.001969433905976335 -0.010367517356232038
 0.990869919595324 -0.0819864012279502 0.007288593486627977 0.03502380667869843 -0.0019695574974460148 -0.01036751329904987 0.0022762186822742657 0.016288878285574335
 0.002313846162143499 0.016283363863609103 -0.0019695574974460148 -0.01036751329904987 0.0072832401648542065 0.03502579207422465 0.9908700176658114 -0.08198461742119276
 -0.001969433905976335 -0.010367517356232038 0.0022762186822742657 0.016288878285574335 0.9908700176658114 -0.08198461742119276 0.007288951423734127 0.03502543783235193
0.1375573155481 0.007634095775253484 0.036618887965910285 0.9903762186994474 -0.08579279996911483 0.002489344988696126 0.0170339790952759 -0.002113976086914721 -0.010839360176724246
 0.9903762186994474 -0.08579279996911483 0.007639745851140933 0.03661859565972849 -0.002114111664674621 -0.010839355278166422 0.0024481124760855496 0.01704011599572556
 0.002489344988696126 0.0170339790952759 -0.002114111664674621 -0.010839355278166422 0.007633866175016408 0.03662067338980536 0.9903763266772598 -0.08579092790427216
 -0.002113976086914721 -0.010839360176724246 0.0024481124760855496 0.01704011599572556 0.9903763266772598 -0.08579092790427216 0.007640137057040084 0.036620294043017206
0.1438099208003 0.007997001934054618 0.03820569100349159 0.9898653004797886 -0.08958995380272547 0.0026719404345317698 0.017781780209369363 -0.002264309022480234 -0.011308641112102578
 0.9898653004797886 -0.08958995380272547 0.008003181323338236 0.038205381630438906 -0.002264457142453392 -0.011308635286231867 0.002626944102350318 0.017788586059199342
 0.0026719404345317698 0.017781780209369363 -0.002264457142453392 -0.011308635286231867 0.007996750032494289 0.03820755157971213 0.9898654189308302 -0.08958799301971002
 -0.002264309022480234 -0.011308641112102578 0.002626944102350318 0.017788586059199342 0.9898654189308302 -0.08958799301971002 0.008003607108505633 0.038207145854243174
0.1500625260525 0.008372044734893261 0.03978437092975636 0.9893372909869769 -0.0933777804850156 0.0028615730352460856 0.018526698137613606 -0.0024203752098358126 -0.011775295147741418
 0.9893372909869769 -0.0933777804850156 0.008378777669510503 0.039784043800739265 -0.0024205364284700403 -0.011775288305015475 0.002812654942176526 0.018534221105399006
 0.0028615730352460856 0.018526698137613606 -0.0024205364284700403 -0.011775288305015475 0.008371769405348985 0.03978630588266212 0.9893374204922019 -0.09337573050530686
 -0.0024203752098358126 -0.011775295147741418 0.002812654942176526 0.018534221105399006 0.9893374204922019 -0.09337573050530686 0.008379239317942327 0.0397858724221121
0.15631513130469998 0.008759101058914882 0.041354810716007745 0.9887923168403935 -0.09715619782088475 0.0030581826600872062 0.019268664913638267 -0.00258211647186117 -0.012239258596975895
