! Created with skrf 1.8.0 (http://scikit-rf.org).
# GHz S RI R 50.0 
!freq ReS11 ImS11 ReS12 ImS12 ReS13 ImS13
! ReS14 ImS14
! ReS21 ImS21 ReS22 ImS22 ReS23 ImS23
! ReS24 ImS24
! ReS31 ImS31 ReS32 ImS32 ReS33 ImS33
! ReS34 ImS34
! ReS41 ImS41 ReS42 ImS42 ReS43 ImS43
! ReS44 ImS44
!
0.0 0.001550532729207 0.0 0.9984494672594 0.0 6.01834792725e-05 0.0 -6.018347927275e-05 7.370350525292437e-21
 0.9984494672594 0.0 0.001550532729201 0.0 -6.018347927241e-05 7.370350525250798e-21 6.018347927265e-05 0.0
 6.01834792725e-05 0.0 -6.018347927241e-05 7.370350525250798e-21 0.001550532717828 0.0 0.9984494672481 0.0
 -6.018347927275e-05 7.370350525292437e-21 6.018347927265e-05 0.0 0.9984494672481 0.0 0.001550532717834 0.0
0.005 0.0016683412606639943 0.001261612247160182 0.9983003889392814 -0.0032483542474441456 8.540965654464602e-05 0.0007040155276978408 -8.266399992710043e-05 -0.0004347573549337966
 0.9983003889392814 -0.0032483542474441456 0.0016683583801364306 0.001261602191730827 -8.266317146761233e-05 -0.0004347566630734809 8.531204364599326e-05 0.0007040527576346335
 8.540965654464602e-05 0.0007040155276978408 -8.266317146761233e-05 -0.0004347566630734809 0.00166834230311726 0.001261678852895469 0.998300389293991 -0.003248287185709129
 -8.266399992710043e-05 -0.0004347573549337966 8.531204364599326e-05 0.0007040527576346335 0.998300389293991 -0.003248287185709129 0.0016683580375952787 0.0012616696992899642
0.006252605252188 0.0016992454229271235 0.001582008794408654 0.9982610283158444 -0.004061238887691937 9.263477710867807e-05 0.0008803400710219331 -8.902165236065662e-05 -0.0005440175671218554
 0.9982610283158444 -0.004061238887691937 0.0016992721841789054 0.0015819960095636947 -8.902036365300182e-05 -0.0005440167128868623 9.248226672973803e-05 0.0008803884044081393
 9.263477710867807e-05 0.0008803400710219331 -8.902036365300182e-05 -0.0005440167128868623 0.0016992469915500063 0.001582092029630219 0.9982610288092312 -0.004061155071879345
 -8.902165236065662e-05 -0.0005440175671218554 9.248226672973803e-05 0.0008803884044081393 0.9982610288092312 -0.004061155071879345 0.0016992715869133025 0.001582080383629007
0.01250521050438 0.0018619701272559455 0.0031973967101716406 0.998052370029764 -0.008123307588557147 0.00013416387590409776 0.0017609032718865678 -0.0001251508625926337 -0.0010907046765616744
 0.998052370029764 -0.008123307588557147 0.0018620769930477704 0.003197368965024104 -0.00012514578922640524 -0.001090703083631238 0.0001335557196953249 0.0017610193269638468
 0.00013416387590409776 0.0017609032718865678 -0.00012514578922640524 -0.001090703083631238 0.0018619758177363 0.0031975628164452406 0.998052371423944 -0.008123140176576697
 -0.0001251508625926337 -0.0010907046765616744 0.0001335557196953249 0.0017610193269638468 0.998052371423944 -0.008123140176576697 0.0018620740208035935 0.0031975374779718508
0.01875781575657 0.0020390650285922705 0.004835941609493711 0.9978232312173837 -0.012196096622720738 0.00018486602786124117 0.0026423213597114577 -0.0001686839542595734 -0.0016392160064468734
 0.9978232312173837 -0.012196096622720738 0.002039305176683294 0.00483589656837421 -0.0001686726478452024 -0.001639213810733451 0.00018349991863607167 0.002642528344615114
 0.00018486602786124117 0.0026423213597114577 -0.0001686726478452024 -0.001639213810733451 0.0020390773972758748 0.00483619029575976 0.9978232339290745 -0.012195845659509577
 -0.0001686839542595734 -0.0016392160064468734 0.00018349991863607167 0.002642528344615114 0.9978232339290745 -0.012195845659509577 0.0020392980516020245 0.004836149101188873
0.02501042100875 0.002230877534049626 0.006495331393335967 0.997573340360171 -0.016281575539609777 0.00024483830602579194 0.003524637763530301 -0.00021972982859126436 -0.002189288408363113
 0.997573340360171 -0.016281575539609777 0.0022313040444575105 0.006495266577740091 -0.000219709872323838 -0.0021892857687794177 0.00024241185343904247 0.0035249625711118618
 0.00024483830602579194 0.003524637763530301 -0.000219709872323838 -0.0021892857687794177 0.002230899134334272 0.0064956623167807025 0.9975733448088205 -0.016281241020916385
 -0.00021972982859126436 -0.002189288408363113 0.00024241185343904247 0.0035249625711118618 0.9975733448088205 -0.016281241020916385 0.0022312909780551108 0.0064956030010183295
0.03126302626094 0.002437740634444087 0.008174373360391533 0.9973024122010488 -0.020380583537062732 0.0003141784033149461 0.004407809757711815 -0.0002783941519599493 -0.0027407386791030715
 0.9973024122010488 -0.020380583537062732 0.0024384065178688873 0.008174286151800842 -0.00027836315525104217 -0.0027407357778145842 0.00031038885381733865 0.004408282985747076
 0.0003141784033149461 0.004407809757711815 -0.00027836315525104217 -0.0027407357778145842 0.0024377740161256566 0.008174786120455293 0.9973024188097814 -0.020380165414853754
 -0.0002783941519599493 -0.0027407386791030715 0.00031038885381733865 0.004408282985747076 0.9973024188097814 -0.020380165414853754 0.002438385708903912 0.008174706320358043
0.037515631513130004 0.002659980035722314 0.00987228768789772 0.997010155108754 -0.024493535921078384 0.00039298356635889486 0.005291760642631244 -0.0003447801731690289 -0.003293411379230898
 0.997010155108754 -0.024493535921078384 0.0026609382526818098 0.00987217532911498 -0.0003447357688459932 -0.003293408421726634 0.00038752767914553953 0.0052924166300045905
 0.00039298356635889486 0.005291760642631244 -0.0003447357688459932 -0.003293408421726634 0.0026600277440387847 0.009872781815906012 0.9970101643044834 -0.024493034113505032
 -0.0003447801731690289 -0.003293411379230898 0.00038752767914553953 0.0052924166300045905 0.9970101643044834 -0.024493034113505032 0.0026609078858072484 0.009872679071944786
0.043768236765320004 0.002897916913695164 0.011588492415727783 0.9966962740670259 -0.028620639053183614 0.00048135009443836914 0.006176395623475192 -0.00041898901951936495 -0.0038471629573760603
 0.9966962740670259 -0.028620639053183614 0.0028992203894119824 0.011588352011227075 -0.00041892886213726295 -0.003847160172441882 0.0004739240840562953 0.006177272491306169
 0.00048135009443836914 0.006176395623475192 -0.00041892886213726295 -0.003847160172441882 0.002897981489586077 0.011589067376397187 0.9966962862832708 -0.028620053442348536
 -0.00041898901951936495 -0.0038471629573760603 0.0004739240840562953 0.006177272491306169 0.9966962862832708 -0.028620053442348536 0.002899178635323609 0.011588939133764235
0.050020842017509996 0.0031518691900339 0.01332251460566033 0.9963604721913211 -0.03276197912063559 0.0005793730442033307 0.007061608357556482 -0.0005011198009774463 -0.00440185520930176
 0.9963604721913211 -0.03276197912063559 0.0031535708275607817 0.01332234312162709 -0.0005010415656804659 -0.004401852848992567 0.0005696725587133412 0.007062748052286693
 0.0005793730442033307 0.007061608357556482 -0.0005010415656804659 -0.004401852848992567 0.003151953168088702 0.013323169786811508 0.9963604878681527 -0.032761309562419315
 -0.0005011198009774463 -0.00440185520930176 0.0005696725587133412 0.007062748052286693 0.9963604878681527 -0.032761309562419315 0.0031535158412784653 0.013323013396026578
0.055454545454549996 0.003385812828936814 0.014843584712108263 0.9960506164714701 -0.03637250013265901 0.0006724728886027196 0.007831265374395085 -0.0005790029961243729 -0.0048845578242324795
 0.9960506164714701 -0.03637250013265901 0.003387903436638856 0.014843383647473528 -0.0005789071779214144 -0.0048845560556667516 0.0006605482036822132 0.007832670543310544
 0.0006724728886027196 0.007831265374395085 -0.0005789071779214144 -0.0048845560556667516 0.003385915721823208 0.014844309054185496 0.9960506355198565 -0.03637175747997743
 -0.0005790029961243729 -0.0048845578242324795 0.0006605482036822132 0.007832670543310544 0.9960506355198565 -0.03637175747997743 0.0033878354410260434 0.01484412597676657
0.056273447269699996 0.003422152185755417 0.015073946715167298 0.996002451625584 -0.03691756569380887 0.0006871460180960136 0.007947284183909772 -0.0005912696358862361 -0.004957352058465732
 0.996002451625584 -0.03691756569380887 0.003424304877879849 0.015073740979086819 -0.0005911710176493521 -0.004957350398052031 0.0006748661384384704 0.007948732521264166
 0.0006871460180960136 0.007947284183909772 -0.0005911710176493521 -0.004957350398052031 0.0034222580944215522 0.015074681431547714 0.9960024712118877 -0.03691681201345591
 -0.0005912696358862361 -0.004957352058465732 0.0006748661384384704 0.007948732521264166 0.9960024712118877 -0.03691681201345591 0.0034242347990613596 0.015074494148740712
0.06252605252188 0.0037090789697893536 0.01684242262981544 0.9956219141392021 -0.04108735562798852 0.0008047610001560062 0.008833301887770475 -0.0006895336308599978 -0.005513517806013487
 0.9956219141392021 -0.04108735562798852 0.0037117356102031396 0.016842179329643176 -0.0006894123439435778 -0.005513517143936989 0.0007895962538346133 0.008835108596940217
 0.0008047610001560062 0.008833301887770475 -0.0006894123439435778 -0.005513517143936989 0.0037092093283154935 0.016843236123195642 0.9956219380915687 -0.041086517619498955
 -0.0006895336308599978 -0.005513517806013487 0.0007895962538346133 0.008835108596940217 0.9956219380915687 -0.041086517619498955 0.0037116485603831528 0.01684301510996428
0.06877865777407 0.004012960536414433 0.018627603368460175 0.9952185615557331 -0.04527126729636294 0.0009323082141696153 0.00971953476647653 -0.0007960048386756705 -0.006070216083906672
 0.9952185615557331 -0.04527126729636294 0.004016174030583872 0.018627319051513005 -0.0007958586161887647 -0.006070216741723677 0.0009139525989613254 0.009721753534314172
 0.0009323082141696153 0.00971953476647653 -0.0007958586161887647 -0.006070216741723677 0.00401311785505735 0.018628494800051423 0.9952185903420173 -0.04527034472958925
 -0.0007960048386756705 -0.006070216083906672 0.0009139525989613254 0.009721753534314172 0.9952185903420173 -0.04527034472958925 0.004016068114009987 0.018628237123062948
0.07503126302626001 0.004334105887943885 0.020429168022349578 0.9947920960924587 -0.049469189593835824 0.0010698759972157515 0.01060585130694821 -0.0009107742002443955 -0.0066273092013901065
 0.9947920960924587 -0.049469189593835824 0.004337929163890168 0.020428839093839777 -0.0009106007938588422 -0.006627311523720113 0.0010480230123773762 0.010608539821872785
 0.0010698759972157515 0.01060585130694821 -0.0009106007938588422 -0.006627311523720113 0.00433429266535949 0.020430136477641126 0.9947921301905933 -0.04946818220931806
 -0.0009107742002443955 -0.0066273092013901065 0.0010480230123773762 0.010608539821872785 0.9947921301905933 -0.04946818220931806 0.004337802465247897 0.02042983910775713
0.08128386827845 0.004672822051963042 0.02224680772333096 0.9943422206367399 -0.053680987916935874 0.0012175506829379401 0.011492115636979338 -0.001033930476138417 -0.007184657722700687
 0.9943422206367399 -0.053680987916935874 0.0046773080705254525 0.02224643044448652 -0.0010337276558573675 -0.007184662077173768 0.0011918933662141671 0.011495335632541197
 0.0012175506829379401 0.011492115636979338 -0.0010337276558573675 -0.007184662077173768 0.00467304077463219 0.02224785221288973 0.9943422605369571 -0.05367989542463593
 -0.001033930476138417 -0.007184657722700687 0.0011918933662141671 0.011495335632541197 0.9943422605369571 -0.05367989542463593 0.004677158654966556 0.022247512024028346
0.08753647353064001 0.005029414059431831 0.02408022149007068 0.9938686389875032 -0.05790650827106864 0.0013754164881856488 0.012378187852482894 -0.0011655601736993457 -0.007742120174173015
 0.9938686389875032 -0.05790650827106864 0.005034615824877616 0.024079791975938163 -0.001165325727712937 -0.007742126951367132 0.0013456474577146003 0.012382005150371264
 0.0013754164881856488 0.012378187852482894 -0.001165325727712937 -0.007742126951367132 0.005029667199456149 0.02408134094519473 0.9938686851929741 -0.05790533035443509
 -0.0011655601736993457 -0.007742120174173015 0.0013456474577146003 0.012382005150371264 0.9938686851929741 -0.05790533035443509 0.0050344417361580535 0.024080954712776152
0.09378907878283 0.005404184892058095 0.02592911324168106 0.9933710560699691 -0.06214558021617652 0.001543555406374683 0.013263924253545755 -0.0013057474665832223 -0.008299552847877667
 0.9933710560699691 -0.06214558021617652 0.005410155462516724 0.025928627458566982 -0.0013054792011246966 -0.008299562461271675 0.0015093669065518248 0.0132684088060832
 0.001543555406374683 0.013263924253545755 -0.0013054792011246966 -0.008299562461271675 0.005404474906432875 0.02593030651566099 0.9933711090982066 -0.06214431653073355
 -0.0013057474665832223 -0.008299552847877667 0.0015093669065518248 0.0132684088060832 0.9933711090982066 -0.06214431653073355 0.005409954723058449 0.02592987091466794
0.100041684035 0.005797435411538273 0.02779318962804365 0.9928491781349023 -0.06639801900200967 0.0017220471014189396 0.01414917752351944 -0.0014545741128540888 -0.008856809667930371
 0.9928491781349023 -0.06639801900200967 0.005804227909235472 0.02779264339047988 -0.0014542698521115937 -0.008856822553839095 0.0016831310521241124 0.014154403455392796
 0.0017220471014189396 0.01414917752351944 -0.0014542698521115937 -0.008856822553839095 0.005797764739699358 0.027794455492892167 0.9928492385184049 -0.06639666917832687
 -0.0014545741128540888 -0.008856809667930371 0.0016831310521241124 0.014154403455392796 0.9928492385184049 -0.06639666917832687 0.005803998518408387 0.027793967095561103
0.1059090909091 0.006183532454626526 0.029555977509835275 0.9923370946508203 -0.07040046304990949 0.0018990271914778073 0.014979320149905375 -0.0016021601668817756 -0.009379443865941976
 0.9923370946508203 -0.07040046304990949 0.006191144624250561 0.0295553705974592 -0.0016018201654648336 -0.009379460239880708 0.0018553943998259827 0.014985312956079293
 0.0018990271914778073 0.014979320149905375 -0.0016018201654648336 -0.009379460239880708 0.006183900876911821 0.0295573103094752 0.9923371624353451 -0.07039903203115642
 -0.0016021601668817756 -0.009379443865941976 0.0018553943998259827 0.014985312956079293 0.9923371624353451 -0.07039903203115642 0.006190886506757914 0.029556769156957985
0.1062942892872 0.006209464271079249 0.0296721583857458 0.9923027129439803 -0.0706636271836677 0.0019109688046173557 0.015033796877462159 -0.0016121193692099681 -0.009413742093094639
 0.9923027129439803 -0.0706636271836677 0.006217131892866346 0.02967154735318613 -0.0016117769553013824 -0.009413758710615732 0.0018670168535077796 0.015039842526841209
 0.0019109688046173557 0.015033796877462159 -0.0016117769553013824 -0.009413758710615732 0.006209835334128462 0.02967349553729248 0.9923027812315988 -0.07066219082219498
 -0.0016121193692099681 -0.009413742093094639 0.0018670168535077796 0.015039842526841209 0.9923027812315988 -0.07066219082219498 0.00621687182653807 0.029672950810405132
0.11254689453939999 0.006640567817591615 0.03156572709759501 0.9917313699486453 -0.07494219584048416 0.0021103952124347227 0.01591762817873461 -0.001778459903717232 -0.009970199057170448
 0.9917313699486453 -0.07494219584048416 0.006649163845500576 0.03156504677058918 -0.0017780771966284755 -0.009970219888128632 0.002061098789962342 0.015924576137493204
 0.0021103952124347227 0.01591762817873461 -0.0017780771966284755 -0.009970219888128632 0.006640983016017438 0.03156713415252741 0.9917314467063582 -0.07494067251444586
 -0.001778459903717232 -0.009970199057170448 0.002061098789962342 0.015924576137493204 0.9917314467063582 -0.07494067251444586 0.0066488710546918715 0.03156652945423173
0.11879949979160001 0.007091039982854948 0.03347360222305333 0.9911348604610241 -0.07923350553040967 0.002320398385497029 0.01680051404265665 -0.0019536697067182355 -0.010526026928227777
 0.9911348604610241 -0.07923350553040967 0.007100617794374531 0.03347284793907063 -0.001953244584374398 -0.010526052477080335 0.002265448762317965 0.016808451195772626
 0.002320398385497029 0.01680051404265665 -0.001953244584374398 -0.010526052477080335 0.007091501695137066 0.033475077717644595 0.9911349462732852 -0.07923189478712339
 -0.0019536697067182355 -0.010526026928227777 0.002265448762317965 0.016808451195772626 0.9911349462732852 -0.07923189478712339 0.007100290204347117 0.03347440929392077
0.1250521050438 0.007561172168933401 0.03539548833198186 0.9905128978215659 -0.08353732704820234 0.002541047648321725 0.01768229392598036 -0.0021378200007967072 -0.011081069488138504
 0.9905128978215659 -0.08353732704820234 0.007571785247659727 0.03539465526077625 -0.002137350358927237 -0.011081100281963555 0.002480135994941298 0.017691311490099015
 0.002541047648321725 0.01768229392598036 -0.002137350358927237 -0.011081100281963555 0.00756168274995526 0.035397030722741384 0.9905129932923922 -0.08353562840848913
 -0.0021378200007967072 -0.011081069488138504 0.002480135994941298 0.017691311490099015 0.9905129932923922 -0.08353562840848913 0.007571420757281766 0.035396294703394525
0.131304710296 0.00805125312686067 0.03733108750036614 0.9898651975630829 -0.08785342202848753 0.002772409489768097 0.018562804209285473 -0.0023309791494296756 -0.011635167925388924
 0.9898651975630829 -0.08785342202848753 0.00806295507322052 0.03733017063888909 -0.0023304629017408237 -0.011635204513803855 0.002705226938365507 0.01857299777018894
 0.002772409489768097 0.018562804209285473 -0.0023304629017408237 -0.011635204513803855 0.008051814906240408 0.037332695165818976 0.989865303317448 -0.08785163498510393
 -0.0023309791494296756 -0.011635167925388924 0.002705226938365507 0.01857299777018894 0.989865303317448 -0.08785163498510393 0.008062551553735297 0.03733188755998603
0.1375573155481 0.008449826996606138 0.03902609930174598 0.9893032629075176 -0.09192743338948575 0.00298595637404147 0.019416130356976518 -0.0025047027440102333 -0.012162375258818563
 0.9893032629075176 -0.09192743338948575 0.008462674479304762 0.03902511376390867 -0.0025041366412643417 -0.012162417678563398 0.0029123463338099937 0.019427485806065303
 0.00298595637404147 0.019416130356976518 -0.0025041366412643417 -0.012162417678563398 0.008450441589506145 0.03902777106703726 0.9893033794277117 -0.09192555762321372
 -0.0025047027440102333 -0.012162375258818563 0.0029123463338099937 0.019427485806065303 0.9893033794277117 -0.09192555762321372 0.008462230764416793 0.0390269073696678
0.1438099208003 0.008862424549661607 0.04071198696087284 0.9887215328857706 -0.0959909504467461 0.003208147284539953 0.020265940599245687 -0.0026853853901706993 -0.012686399911611397
 0.9887215328857706 -0.0959909504467461 0.008876471767003711 0.04071092900580826 -0.00268476716265707 -0.012686448707060495 0.003127828343314449 0.02027854542990318
 0.003208147284539953 0.020265940599245687 -0.00268476716265707 -0.012686448707060495 0.008863094119948723 0.04071372117084759 0.9887216607974587 -0.095988985455388
 -0.0026853853901706993 -0.012686399911611397 0.003127828343314449 0.02027854542990318 0.9887216607974587 -0.095988985455388 0.008875985861650436 0.040712798611820145
0.1500625260525 0.009288897838307964 0.042388604568653086 0.9881201596530317 -0.10004386742913961 0.0034389052210592025 0.021112145447867246 -0.0028729529160252485 -0.01320715834432931
 0.9881201596530317 -0.10004386742913961 0.009304199111422865 0.042387470235189635 -0.0028722802972284554 -0.013207214081954428 0.0033515976910205147 0.021126090340243625
 0.0034389052210592025 0.021112145447867246 -0.0028722802972284554 -0.013207214081954428 0.009289624516796133 0.042390399501567755 0.9881202995996928 -0.10004181269356473
 -0.0028729529160252485 -0.01320715834432931 0.0033515976910205147 0.021126090340243625 0.9881202995996928 -0.10004181269356473 0.009303669004961882 0.042389415127459674
0.15631513130469998 0.00972909782843047 0.04405581061881247 0.9874992961790577 -0.1040860790423969 0.003678152254638972 0.021954656938048354 -0.003067330218336735 -0.013724568811493603
 0.9874992961790577 -0.1040860790423969 0.009745707605119572 0.04405459571994634 -0.0030666009450163174 -0.013724632079858398 0.003583578199778415 0.021970035724510242
