! Created with skrf 1.8.0 (http://scikit-rf.org).
# GHz S RI R 50.0 
!freq ReS11 ImS11 ReS12 ImS12 ReS13 ImS13
! ReS14 ImS14
! ReS21 ImS21 ReS22 ImS22 ReS23 ImS23
! ReS24 ImS24
! ReS31 ImS31 ReS32 ImS32 ReS33 ImS33
! ReS34 ImS34
! ReS41 ImS41 ReS42 ImS42 ReS43 ImS43
! ReS44 ImS44
!
0.0 0.001814424099615 0.0 0.9981855758542 0.0 7.057604205852e-05 0.0 -7.057604219784e-05 8.643072417407329e-21
 0.9981855758542 0.0 0.001814424099661 0.0 -7.057604219796e-05 8.643072417422023e-21 7.057604205966e-05 0.0
 7.057604205852e-05 0.0 -7.057604219796e-05 8.643072417422023e-21 0.001814424122704 0.0 0.9981855758773 0.0
 -7.057604219784e-05 8.643072417407329e-21 7.057604205966e-05 0.0 0.9981855758773 0.0 0.001814424122746 0.0
0.005 0.0019531300919639954 0.0014808769632516869 0.9980099471355551 -0.0037999409150696615 9.974090664089066e-05 0.0007932366429577602 -9.677222108376812e-05 -0.0004949836492209633
 0.9980099471355551 -0.0037999409150696615 0.0019531084323443798 0.0014808896888617866 -9.677343161699006e-05 -0.0004949846367393168 9.986868065304316e-05 0.0007931879081503952
 9.974090664089066e-05 0.0007932366429577602 -9.677343161699006e-05 -0.0004949846367393168 0.0019531295600896327 0.0014809446104294406 0.9980099475176862 -0.0037998738549969834
 -9.677222108376812e-05 -0.0004949836492209633 9.986868065304316e-05 0.0007931879081503952 0.9980099475176862 -0.0037998738549969834 0.0019531097263715685 0.0014809561624801633
0.006252605252188 0.00198978759027175 0.0018568951058053583 0.9979632003343074 -0.004750812171107053 0.00010820419259195486 0.000991906181869686 -0.00010429877830099946 -0.0006193560479552194
 0.9979632003343074 -0.004750812171107053 0.0019897537316744623 0.0018569112665670882 -0.00010430066151595044 -0.0006193572663843268 0.00010840382469616582 0.0009918428543881034
 0.00010820419259195486 0.000991906181869686 -0.00010430066151595044 -0.0006193572663843268 0.001989786689792354 0.0018569796610307446 0.9979632008630048 -0.0047507283566048915
 -0.00010429877830099946 -0.0006193560479552194 0.00010840382469616582 0.0009918428543881034 0.9979632008630048 -0.0047507283566048915 0.001989755686380484 0.0018569943411668051
0.01250521050438 0.0021843844100409237 0.0037523679210989566 0.9977132338448541 -0.009502111181280621 0.00015743227922035416 0.0019840066193131914 -0.00014770285076963428 -0.0012415419941435618
 0.9977132338448541 -0.009502111181280621 0.0021842492006692695 0.0037524028181429494 -0.00014771026640468342 -0.0012415442543621067 0.00015822830656831295 0.0019838536853200354
 0.00015743227922035416 0.0019840066193131914 -0.00014771026640468342 -0.0012415442543621067 0.002184380211614613 0.003752536866343219 0.997713235361391 -0.00950194379647215
 -0.00014770285076963428 -0.0012415419941435618 0.00015822830656831295 0.0019838536853200354 0.997713235361391 -0.00950194379647215 0.0021842564189677328 0.003752568643855011
0.01875781575657 0.002398695997594919 0.005674402873090506 0.9974353256409394 -0.014265394398001794 0.00021838417473094696 0.0029769398735137427 -0.00020093390563721153 -0.00186559652487772
 0.9974353256409394 -0.014265394398001794 0.0023983921520518803 0.00567445931215726 -0.00020095043420632438 -0.0018655996130074624 0.00022017221407621312 0.0029766652459445116
 0.00021838417473094696 0.0029769398735137427 -0.00020095043420632438 -0.0018655996130074624 0.0023986861290021056 0.005674656206169958 0.9974353286303143 -0.014265143555537752
 -0.00020093390563721153 -0.00186559652487772 0.00022017221407621312 0.0029766652459445116 0.9974353286303143 -0.014265143555537752 0.0023984079675738435 0.0056747076642916
0.02501042100875 0.0026331860520524583 0.007620230301139964 0.9971291097359262 -0.01904289616517579 0.0002911843225884258 0.00397070624580113 -0.0002641314276194193 -0.0024911870561261846
 0.9971291097359262 -0.01904289616517579 0.0026326464015622906 0.007620311295279744 -0.0002641606037053074 -0.0024911907173646958 0.00029436001141985033 0.003970272197405253
 0.0002911843225884258 0.00397070624580113 -0.0002641606037053074 -0.0024911907173646958 0.0026331681216826062 0.00762056809903331 0.9971291146674592 -0.019042561928802354
 -0.0002641314276194193 -0.0024911870561261846 0.00029436001141985033 0.003970272197405253 0.9971291146674592 -0.019042561928802354 0.0026326741345503064 0.007620641966056857
0.03126302626094 0.0028882988694719875 0.009588387102090411 0.9967942037413006 -0.023835527144318972 0.0003759566421353548 0.0049652115072119285 -0.00033742995068614714 -0.0031180661730104095
 0.9967942037413006 -0.023835527144318972 0.002887456322154315 0.009588495867766961 -0.00033747527060236593 -0.0031180701112668995 0.0003809159824373037 0.004964574636704763
 0.0003759566421353548 0.0049652115072119285 -0.00033747527060236593 -0.0031180701112668995 0.002888270483069059 0.009588809478693242 0.9967942110861451 -0.023835109571155928
 -0.00033742995068614714 -0.0031180661730104095 0.0003809159824373037 0.004964574636704763 0.9967942110861451 -0.023835109571155928 0.0028874992974277022 0.009588908623584164
0.037515631513130004 0.003164468291685441 0.011577890694093412 0.9964302182481235 -0.02864370029876953 0.00047282335897382705 0.005960323418804561 -0.0004209600316914721 -0.003746015169591823
 0.9964302182481235 -0.02864370029876953 0.0031632558053601603 0.011578030650065244 -0.0004210249574459152 -0.0037460190474391604 0.0004799628577888219 0.005959434596231146
 0.00047282335897382705 0.005960323418804561 -0.0004210249574459152 -0.0037460190474391604 0.0031644270511073987 0.01157839779970684 0.9964302284778231 -0.028643199439966828
 -0.0004209600316914721 -0.003746015169591823 0.0004799628577888219 0.005959434596231146 0.9964302284778231 -0.028643199439966828 0.003163317350988778 0.011578525230216607
0.043768236765320004 0.003462121127095816 0.013587987639991719 0.9960367606771701 -0.03346758220767915 0.0005819044334479611 0.006955888930781821 -0.0005148485654637052 -0.004374826902796789
 0.9960367606771701 -0.03346758220767915 0.0034604716859924166 0.013588162407281884 -0.0005149365270628343 -0.004374830341478836 0.0005916211555631621 0.00695469323643511
 0.0005819044334479611 0.006955888930781821 -0.0005149365270628343 -0.004374830341478836 0.003462064626687553 0.013588579668291852 0.9960367742602888 -0.03346699810171389
 -0.0005148485654637052 -0.004374826902796789 0.0005916211555631621 0.00695469323643511 0.9960367742602888 -0.03346699810171389 0.003460555129607089 0.013588738530203037
0.050020842017509996 0.003781678706865744 0.015618049781283502 0.9956134372688903 -0.038307196870030154 0.0007033171910518727 0.007951741304367571 -0.0006192188745842605 -0.005004298726827064
 0.9956134372688903 -0.038307196870030154 0.0037795253017880634 0.01561826318418753 -0.000619333271546445 -0.005004301306343715 0.0007160087650422338 0.007950177965415325
 0.0007033171910518727 0.007951741304367571 -0.000619333271546445 -0.005004301306343715 0.003781604538490106 0.015618726957737883 0.9956134546757691 -0.03830652955447233
 -0.0006192188745842605 -0.005004298726827064 0.0007160087650422338 0.007950177965415325 0.9956134546757691 -0.03830652955447233 0.0037796339749680244 0.015618920534752265
0.055454545454549996 0.004077496946570415 0.01739801801915661 0.9952209958850434 -0.04252569476556728 0.0008189323282932062 0.00881726297004298 -0.0007185254027240761 -0.005551708333930654
 0.9952209958850434 -0.04252569476556728 0.004074851152714043 0.01739826826234539 -0.0007186655107242367 -0.005551709793713732 0.0008345324834198262 0.00881532618768459
 0.0008189323282932062 0.00881726297004298 -0.0007186655107242367 -0.005551709793713732 0.004077405464491561 0.01739876939773198 0.9952210169958311 -0.04252495517041262
 -0.0007185254027240761 -0.005551708333930654 0.0008345324834198262 0.00881532618768459 0.9952210169958311 -0.04252495517041262 0.004074984457229383 0.017398995917742473
0.056273447269699996 0.004123557662019046 0.01766752325823895 0.9951598542989201 -0.043162476628055495 0.0008371760461737753 0.008947703620247625 -0.0007341906939728296 -0.005634229047871628
 0.9951598542989201 -0.043162476628055495 0.004120833271369003 0.01766777932578441 -0.000734334896328263 -0.00563423030701941 0.0008532406425239323 0.008945705946543493
 0.0008371760461737753 0.008947703620247625 -0.000734334896328263 -0.00563423030701941 0.004123463412490791 0.017668285836365684 0.9951598759987605 -0.043161726143627746
 -0.0007341906939728296 -0.005634229047871628 0.0008532406425239323 0.008945705946543493 0.9951598759987605 -0.043161726143627746 0.0041209705063649784 0.01766851755094954
0.06252605252188 0.004488170305082503 0.019735900485389958 0.9946756189029534 -0.04803329014317557 0.0009835922693532083 0.009943590725459073 -0.0008598801055618483 -0.006264415448592029
 0.9946756189029534 -0.04803329014317557 0.004484807876982358 0.019736203453794753 -0.0008600574546041541 -0.006264414885048152 0.0010034285589409456 0.009941086045494447
 0.0009835922693532083 0.009943590725459073 -0.0008600574546041541 -0.006264414885048152 0.004488053557992831 0.019736748762628438 0.9946756453649445 -0.04803245651806336
 -0.0008598801055618483 -0.006264415448592029 0.0010034285589409456 0.009941086045494447 0.9946756453649445 -0.04803245651806336 0.004484977007257416 0.019737022177417102
0.06877865777407 0.004875924799866852 0.021822703470509505 0.994160339695494 -0.05291945903810437 0.0011426737824452478 0.010939210407106631 -0.0009963994400434726 -0.00689465359514359
 0.994160339695494 -0.05291945903810437 0.004871857234016121 0.021823057786182574 -0.0009966132487115602 -0.0068946506655391876 0.0011666808817804063 0.010936120004396987
 0.0011426737824452478 0.010939210407106631 -0.0009966132487115602 -0.0068946506655391876 0.004875783135785432 0.02182363777121972 0.9941603713893592 -0.05291854230529054
 -0.0009963994400434726 -0.00689465359514359 0.0011666808817804063 0.010936120004396987 0.9941603713893592 -0.05291854230529054 0.0048720615943051325 0.02182395659111118
0.07503126302626001 0.005287225203865976 0.023927473233497032 0.9936136272675054 -0.057820768449634054 0.001314524966732546 0.011934364161681556 -0.001143857162351494 -0.007524736558375426
 0.9936136272675054 -0.057820768449634054 0.005282385334907723 0.02392788355666918 -0.0011441107156894427 -0.0075247306783537225 0.001343102373015459 0.011930603212003198
 0.001314524966732546 0.011934364161681556 -0.0011441107156894427 -0.0075247306783537225 0.005287056200993238 0.023928493917331532 0.9936136646630037 -0.057819768638673844
 -0.001143857162351494 -0.007524736558375426 0.001343102373015459 0.011930603212003198 0.9936136646630037 -0.057819768638673844 0.005282628259652025 0.02392886199245077
0.08128386827845 0.005722471431526551 0.02604976278401874 0.9930350946081737 -0.0627369740338775 0.0014992464811438505 0.01292884771808924 -0.0013023577451977669 -0.008154454391583
 0.9930350946081737 -0.0627369740338775 0.005716792011269633 0.026050233993292565 -0.0013026543004764825 -0.008154444935893655 0.0015327939987648457 0.01292432522777293
 0.0014992464811438505 0.01292884771808924 -0.0013026543004764825 -0.008154444935893655 0.005722272666021897 0.026050870245076536 0.9930351381751052 -0.06273589117207175
 -0.0013023577451977669 -0.008154454391583 0.0015327939987648457 0.01292432522777293 0.9930351381751052 -0.06273589117207175 0.005717076834650641 0.02605129157424798
0.08753647353064001 0.006182059162958689 0.028189132276482304 0.9924243574781002 -0.06766780680629339 0.001696935087122957 0.013922451425892502 -0.0014720015337792952 -0.008783593853712452
 0.9924243574781002 -0.06766780680629339 0.006175472843330548 0.028189669473980123 -0.0014723443206343819 -0.008783580156273072 0.0017358527478689338 0.013917070171341184
 0.001696935087122957 0.013922451425892502 -0.0014723443206343819 -0.008783580156273072 0.006181828209346954 0.02819032694063524 0.9924244076866617 -0.06766664092159005
 -0.0014720015337792952 -0.008783593853712452 0.0017358527478689338 0.013917070171341184 0.9924244076866617 -0.06766664092159005 0.006175802898368078 0.02819080567582416
0.09378907878283 0.006666379715733869 0.0303451455593085 0.9917810347496769 -0.07261297659985876 0.001907683477658276 0.014914960547213862 -0.0016528846057482871 -0.009411938239774605
 0.9917810347496769 -0.07261297659985876 0.006658819031654438 0.03034575407651429 -0.0016532768262520494 -0.009411919593755381 0.0019523714548278527 0.014908617015850126
 0.001907683477658276 0.014914960547213862 -0.0016532768262520494 -0.009411919593755381 0.006666114148374668 0.030346427886829605 0.9917810920710345 -0.07261172771841914
 -0.0016528846057482871 -0.009411938239774605 0.0019523714548278527 0.014908617015850126 0.9917810920710345 -0.07261172771841914 0.006659197650243742 0.030346968338171076
0.100041684035 0.007175819891753443 0.03251736765940234 0.9911047487271913 -0.07757217460082719 0.0021315801095668184 0.015906155496789656 -0.0018450986269313325 -0.01003926727432667
 0.9911047487271913 -0.07757217460082719 0.0071672172443568724 0.03251805306390017 -0.0018455434556756821 -0.010039242932211187 0.0021824386277110516 0.01589873982943188
 0.0021315801095668184 0.015906155496789656 -0.0018455434556756821 -0.010039242932211187 0.007175517284793035 0.03251873814641729 0.9911048136326137 -0.07757084274578048
 -0.0018450986269313325 -0.01003926727432667 0.0021824386277110516 0.01589873982943188 0.9911048136326137 -0.07757084274578048 0.007167647755613236 0.032519344788139365
0.1059090909091 0.007677061931624663 0.034570121368664476 0.9904398130982793 -0.08223832465533994 0.00235371646705152 0.016834891921036394 -0.0020358541289455553 -0.010626826181713685
 0.9904398130982793 -0.08223832465533994 0.00766741989716442 0.03457088420424336 -0.002036351187501597 -0.01062679577842644 0.002410729345293795 0.016826364549427195
 0.00235371646705152 0.016834891921036394 -0.002036351187501597 -0.01062679577842644 0.007676722360801848 0.03457157506447595 0.9904398855498598 -0.08223691495967783
 -0.0020358541289455553 -0.010626826181713685 0.002410729345293795 0.016826364549427195 0.9904398855498598 -0.08223691495967783 0.007667902129363352 0.03457224804015582
0.1062942892872 0.0077107618029110345 0.03470536290283453 0.9903951254475872 -0.08254507526164923 0.002368709038506783 0.016895812044266316 -0.002048730705025944 -0.010665357053926744
 0.9903951254475872 -0.08254507526164923 0.007701049442069422 0.03470613100575018 -0.002049231288913799 -0.010665326227630948 0.0024261382782506786 0.01688720797923816
 0.002368709038506783 0.016895812044266316 -0.002049231288913799 -0.010665326227630948 0.007710419730712572 0.034706822077386366 0.9903951984091558 -0.08254366045735088
 -0.002048730705025944 -0.010665357053926744 0.0024261382782506786 0.01688720797923816 0.9903951984091558 -0.08254366045735088 0.007701535172085413 0.03470749955451503
0.11254689453939999 0.00827158268284645 0.03690869349411826 0.9896517949727448 -0.08753133776890398 0.002619149755836223 0.017883701485776896 -0.0022638632413118994 -0.011289980032048223
 0.9896517949727448 -0.08753133776890398 0.008260692689668515 0.03690955035845653 -0.002264422699578589 -0.011289941892952836 0.0026835497549356937 0.017873786304681703
 0.002619149755836223 0.017883701485776896 -0.002264422699578589 -0.011289941892952836 0.008271198721120072 0.036910241921182314 0.9896518764634599 -0.08752984003603848
 -0.0022638632413118994 -0.011289980032048223 0.0026835497549356937 0.017873786304681703 0.9896518764634599 -0.08752984003603848 0.008261236961196015 0.03691099505706563
0.11879949979160001 0.008858654686812819 0.03912691842328027 0.988874391671886 -0.09253060719740257 0.002882977027895218 0.01886959080737018 -0.002490573781012515 -0.011912905023664433
 0.988874391671886 -0.09253060719740257 0.008846518957414966 0.03912787037295245 -0.002491195205159029 -0.011912858702744136 0.0029547475790458974 0.018858235282757315
 0.002882977027895218 0.01886959080737018 -0.002491195205159029 -0.011912858702744136 0.008858226413154178 0.0391285566987541 0.9888744821655518 -0.09252902655927688
 -0.002490573781012515 -0.011912905023664433 0.0029547475790458974 0.018858235282757315 0.9888744821655518 -0.09252902655927688 0.008847125088377908 0.039129390503431394
0.1250521050438 0.009472344683567741 0.04135959261280703 0.9880625544979298 -0.09754251543877077 0.00316026073706069 0.019853242830096356 -0.0027289348638177666 -0.01253389724012802
 0.9880625544979298 -0.09754251543877077 0.009458894911369337 0.04136064624258171 -0.002729621317416711 -0.012533841827992812 0.0032398012817616098 0.019840311175063217
 0.00316026073706069 0.019853242830096356 -0.002729621317416711 -0.012533841827992812 0.009471869678084742 0.041361321371397086 0.9880626544692651 -0.0975408519135088
 -0.0027289348638177666 -0.01253389724012802 0.0032398012817616098 0.019840311175063217 0.9880626544692651 -0.0975408519135088 0.00945956621444351 0.041362241050926556
0.131304710296 0.010113014039355444 0.04360626626108559 0.9872159272584462 -0.1025666819476808 0.0034510657241560412 0.020834416358053633 -0.0029790138742638124 -0.01315271833299978
 0.9872159272584462 -0.1025666819476808 0.010098181698212463 0.043607428447446216 -0.002979768392789192 -0.013152652880030893 0.0035387752441116403 0.020819766177824744
 0.0034510657241560412 0.020834416358053633 -0.002979768392789192 -0.013152652880030893 0.01011248988540061 0.043608086171472896 0.9872160371836536 -0.10256493555338436
 -0.0029790138742638124 -0.01315271833299978 0.0035387752441116403 0.020819766177824744 0.9872160371836536 -0.10256493555338436 0.010098921480219888 0.043609097137982104
0.1375573155481 0.010643824485001143 0.04557385977746915 0.9864714282600819 -0.10730988658266387 0.003721139693793687 0.021784634723784217 -0.003206468134780145 -0.013741000334444855
 0.9864714282600819 -0.10730988658266387 0.010627537145209757 0.04557511437297162 -0.00320729541536315 -0.013740924653266377 0.0038172189433714945 0.021768273562473354
 0.003721139693793687 0.021784634723784217 -0.00320729541536315 -0.013740924653266377 0.010643249737134207 0.04557577118533633 0.9864715485853853 -0.10730805739286828
 -0.003206468134780145 -0.013741000334444855 0.0038172189433714945 0.021768273562473354 0.9864715485853853 -0.10730805739286828 0.01062834780058604 0.045576856585694304
0.1438099208003 0.011193578697192858 0.047529249127039215 0.9857002001920976 -0.11203921038623414 0.0040020448065109186 0.02272995215518291 -0.0034429392286044495 -0.014324715393600805
 0.9857002001920976 -0.11203921038623414 0.011175767000031948 0.047530601785525026 -0.003443842565049278 -0.014324628532545174 0.004106856408360327 0.02271174844130423
 0.0040020448065109186 0.02272995215518291 -0.003443842565049278 -0.014324628532545174 0.011192951120128667 0.047531252689425915 0.9857003313876944 -0.11203729843313376
 -0.0034429392286044495 -0.014324715393600805 0.004106856408360327 0.02271174844130423 0.9857003313876944 -0.11203729843313376 0.011176651664312509 0.047532416758058256
0.1500625260525 0.011762054127288217 0.0494722164760109 0.984902470938804 -0.11675448045602833 0.004293664819323695 0.023670238591672454 -0.0036883125027322755 -0.014903739290518948
 0.984902470938804 -0.11675448045602833 0.011742648499053213 0.04947367320549813 -0.0036892951817380946 -0.014903640258847405 0.0044075686880975995 0.0236500559532763
 0.004293664819323695 0.023670238591672454 -0.0036892951817380946 -0.014903640258847405 0.011761371500963458 0.04947431287640032 0.984902613475147 -0.11675248577219798
 -0.0036883125027322755 -0.014903739290518948 0.0044075686880975995 0.0236500559532763 0.984902613475147 -0.11675248577219798 0.01174361029204642 0.049475560148615705
0.15631513130469998 0.012349026293286052 0.051402550499043 0.984078469937945 -0.12145552578422748 0.004595881918386697 0.024605366648021897 -0.003942471704215883 -0.015477950816766166
 0.984078469937945 -0.12145552578422748 0.012327956939526367 0.05140411767248136 -0.003943537005196961 -0.015477838584800393 0.004719235211963201 0.02458306397188281
