! Created with skrf 1.8.0 (http://scikit-rf.org).
# GHz S RI R 50.0 
!freq ReS11 ImS11 ReS12 ImS12 ReS13 ImS13
! ReS14 ImS14
! ReS21 ImS21 ReS22 ImS22 ReS23 ImS23
! ReS24 ImS24
! ReS31 ImS31 ReS32 ImS32 ReS33 ImS33
! ReS34 ImS34
! ReS41 ImS41 ReS42 ImS42 ReS43 ImS43
! ReS44 ImS44
!
0.0 0.001539692523251 0.0 0.9984603074768 0.0 5.921744254702e-05 0.0 -5.92174424579e-05 7.25204513597598e-21
 0.9984603074768 0.0 0.00153969252324 0.0 -5.921744245817e-05 7.252045136009046e-21 5.921744254672e-05 0.0
 5.921744254702e-05 0.0 -5.921744245817e-05 7.252045136009046e-21 0.001539692511884 0.0 0.9984603074654 0.0
 -5.92174424579e-05 7.25204513597598e-21 5.921744254672e-05 0.0 0.9984603074654 0.0 0.001539692511864 0.0
0.005 0.0016565307122118182 0.0012626641523631524 0.9983125068443697 -0.0032251200730030803 8.248785640934753e-05 0.0006338550387726296 -8.021937617900987e-05 -0.00040111392067347087
 0.9983125068443697 -0.0032251200730030803 0.001656543528774592 0.0012626566067915918 -8.022224712839813e-05 -0.00040111601585291786 8.240721661049435e-05 0.0006338857959538669
 8.248785640934753e-05 0.0006338550387726296 -8.022224712839813e-05 -0.00040111601585291786 0.0016565301581194334 0.001262731679929791 0.9983125072025125 -0.003225053012334833
 -8.021937617900987e-05 -0.00040111392067347087 8.240721661049435e-05 0.0006338857959538669 0.9983125072025125 -0.003225053012334833 0.0016565447967849562 0.001262723199442812
0.006252605252188 0.0016871677468966522 0.0015832835678927814 0.9982735085821288 -0.004032188114676756 8.913106996295639e-05 0.0007926348582348592 -8.614087255103179e-05 -0.0005019069402107725
 0.9982735085821288 -0.004032188114676756 0.0016871877817341836 0.0015832739483377584 -8.614534086638995e-05 -0.0005019095211660372 8.900507821754773e-05 0.0007926747861093102
 8.913106996295639e-05 0.0007926348582348592 -8.614534086638995e-05 -0.0005019095211660372 0.0016871668101360307 0.0015833679592540794 0.9982735090708754 -0.004032104298046884
 -8.614087255103179e-05 -0.0005019069402107725 8.900507821754773e-05 0.0007926747861093102 0.9982735090708754 -0.004032104298046884 0.0016871896923048063 0.001583357187465404
0.01250521050438 0.0018484123603446883 0.0031996264791741844 0.9980669142443607 -0.008065165751814542 0.00012720180975145384 0.0015856845968667936 -0.00011969497772890571 -0.0010062322074685486
 0.9980669142443607 -0.008065165751814542 0.0018484923670866963 0.003199605345483854 -0.00011971259788045799 -0.001006236951087455 0.00012669939828173867 0.0015857804408335164
 0.00012720180975145384 0.0015856845968667936 -0.00011971259788045799 -0.001006236951087455 0.0018484080505398988 0.0031997949308631207 0.9980669156176913 -0.008064998361674498
 -0.00011969497772890571 -0.0010062322074685486 0.00012669939828173867 0.0015857804408335164 0.9980669156176913 -0.008064998361674498 0.0018484994074076735 0.003199771645397485
0.01875781575657 0.002023777997716387 0.00483889830684888 0.9978402679054106 -0.012108745361307701 0.00017351801987516036 0.0023796582122074246 -0.00015998251735338263 -0.0015122758251670928
 0.9978402679054106 -0.012108745361307701 0.002023957792903502 0.004838863632065179 -0.0001600218262305454 -0.001512282228154432 0.0001723894399374275 0.0023798291002932433
 0.00017351801987516036 0.0023796582122074246 -0.0001600218262305454 -0.001512282228154432 0.00202376790372124 0.004839150643648131 0.997840270564465 -0.012108494489774064
 -0.00015998251735338263 -0.0015122758251670928 0.0001723894399374275 0.0023798291002932433 0.997840270564465 -0.012108494489774064 0.0020239731639414417 0.004839112936949158
0.02501042100875 0.0022136059186083573 0.0064988117119529785 0.9975933028592253 -0.016164885758472147 0.00022816939790151923 0.0031745827943313416 -0.0002071030375253685 -0.0020198141721499696
 0.9975933028592253 -0.016164885758472147 0.002213925247227678 0.006498761348654612 -0.0002071724750130954 -0.0020198216378969585 0.00022616482339768274 0.003174850882795676
 0.00022816939790151923 0.0031745827943313416 -0.0002071724750130954 -0.0020198216378969585 0.0022135876459906294 0.006499147790410332 0.9975933072072221 -0.0161645514686757
 -0.0002071030375253685 -0.0020198141721499696 0.00022616482339768274 0.003174850882795676 0.9975933072072221 -0.0161645514686757 0.002213952133823359 0.006499093604916401
0.03126302626094 0.0024182232884982936 0.008178189414360305 0.9973257387630917 -0.020234425126276868 0.0002912460955598888 0.003970414675336338 -0.00026115335919422826 -0.002528688784251485
 0.9973257387630917 -0.020234425126276868 0.0024187218447603545 0.00817812109680092 -0.0002612612846731656 -0.002528696621710146 0.00028811538794671173 0.0039708051655714905
 0.0002912460955598888 0.003970414675336338 -0.0002612612846731656 -0.002528696621710146 0.0024181944535622496 0.008178609118823617 0.9973257452014672 -0.020234007455897925
 -0.00026115335919422826 -0.002528688784251485 0.00028811538794671173 0.0039708051655714905 0.9973257452014672 -0.020234007455897925 0.0024187634133862827 0.008178536249626675
0.037515631513130004 0.002637950215463767 0.00987626365803081 0.9970372888937601 -0.02431778148794534 0.0003628378431439581 0.004767082119445848 -0.0003222282424338994 -0.0030387636609833886
 0.9970372888937601 -0.02431778148794534 0.0026386676565471373 0.00987617500323321 -0.00032238294306323874 -0.0030387710842680223 0.00035833044540386913 0.004767623288196157
 0.0003628378431439581 0.004767082119445848 -0.00032238294306323874 -0.0030387710842680223 0.002637908443936614 0.009876766885926702 0.9970372978225546 -0.024317280463849532
 -0.0003222282424338994 -0.0030387636609833886 0.00035833044540386913 0.004767623288196157 0.9970372978225546 -0.024317280463849532 0.00263872705635659 0.009876672981821872
0.043768236765320004 0.0028731024644914416 0.011592463029717026 0.9967276630841198 -0.02841516581673177 0.00044303352913533495 0.005564498322721621 -0.0003904206289146157 -0.0035499122656390994
 0.9967276630841198 -0.02841516581673177 0.0028740784209884433 0.011592351538103389 -0.0003906303244559915 -0.0035499183938176642 0.00043689841448951494 0.005565221556445451
 0.00044303352913533495 0.005564498322721621 -0.0003906303244559915 -0.0035499183938176642 0.0028730453934623056 0.011593049692439088 0.9967276749050644 -0.028414581453919906
 -0.0003904206289146157 -0.0035499122656390994 0.00043689841448951494 0.005565221556445451 0.9967276749050644 -0.028414581453919906 0.0028741587873229177 0.011592932256421521
0.050020842017509996 0.003123992720481407 0.013326324354334238 0.9963965692129128 -0.032526670067083305 0.0005319209515879196 0.0063625667709166014 -0.00046582172260414666 -0.004062012169926222
 0.9963965692129128 -0.032526670067083305 0.003125266805957553 0.013326187409978006 -0.0004660945684150743 -0.00406201602689018 0.0005239066017226656 0.006363506601870386
 0.0005319209515879196 0.0063625667709166014 -0.0004660945684150743 -0.00406201602689018 0.003123917995876585 0.013326994367314604 0.9963965843276548 -0.03252600237863552
 -0.00046582172260414666 -0.004062012169926222 0.0005239066017226656 0.006363506601870386 0.9963965843276548 -0.03252600237863552 0.003125371259046079 0.013326850756596927
0.055454545454549996 0.0033550461550914926 0.014847135635949521 0.996091176219202 -0.03611117289444044 0.0006162928042776345 0.007056561834857262 -0.0005372714491445513 -0.004507721130329896
 0.996091176219202 -0.03611117289444044 0.0033566114876942945 0.014846974357620678 -0.0005376057490191219 -0.004507722146833951 0.0006064406932501772 0.007057720410705613
 0.0006162928042776345 0.007056561834857262 -0.0005376057490191219 -0.004507722146833951 0.0033549541842205753 0.014847878025524794 0.9960911945234867 -0.036110432794397684
 -0.0005372714491445513 -0.004507721130329896 0.0006064406932501772 0.007057720410705613 0.9960911945234867 -0.036110432794397684 0.003356739396191586 0.014847709408560606
0.056273447269699996 0.003390931236669106 0.01507744943215104 0.9960437140826165 -0.036652310364892846 0.0006295866387096893 0.007161183875551749 -0.000548521005086632 -0.004574942423567592
 0.9960437140826165 -0.036652310364892846 0.003392543055941574 0.01507728430283596 -0.0005488650940322936 -0.004574942937945629 0.0006194410393984134 0.007162378018669231
 0.0006295866387096893 0.007161183875551749 -0.0005488650940322936 -0.004574942937945629 0.003390836513556471 0.01507820272558856 0.9960437328940858 -0.03665155935123127
 -0.000548521005086632 -0.004574942423567592 0.0006194410393984134 0.007162378018669231 0.9960437328940858 -0.03665155935123127 0.003392674702241588 0.01507803015137852
0.06252605252188 0.003674226179982459 0.016845481289204434 0.9956688039994779 -0.04079205068737193 0.0007361157065578764 0.007960240421694903 -0.0006386062145472472 -0.005088582115886753
 0.9956688039994779 -0.04079205068737193 0.003676215337195939 0.016845285126234996 -0.0006390295781964867 -0.005088578120983621 0.0007235863550704006 0.0079617298117536
 0.0007361157065578764 0.007960240421694903 -0.0006390295781964867 -0.005088578120983621 0.0036741091222474115 0.01684631779744394 0.99566882691199 -0.04079121634694739
 -0.0006386062145472472 -0.005088582115886753 0.0007235863550704006 0.0079617298117536 0.99566882691199 -0.04079121634694739 0.0036763772700433087 0.01684611332439351
0.06877865777407 0.003974183812327722 0.018630089981165217 0.9952715451925549 -0.04494581699301853 0.0008515917361152893 0.008759622435433812 -0.0007361633052762164 -0.0056028095216355414
 0.9952715451925549 -0.04494581699301853 0.003976589919060666 0.01862985981889891 -0.000736673914713457 -0.005602799755377492 0.0008364256567732361 0.008761451264333534
 0.0008515917361152893 0.008759622435433812 -0.000736673914713457 -0.005602799755377492 0.003974042091166193 0.01863100964735602 0.9952715726114804 -0.044944899317623514
 -0.0007361633052762164 -0.0056028095216355414 0.0008364256567732361 0.008761451264333534 0.9952715726114804 -0.044944899317623514 0.003976785217327906 0.018630770192778857
0.07503126302626001 0.004291108575164936 0.0204309636214703 0.9948516441405167 -0.04911350613136092 0.0009760966630186367 0.00955921173568947 -0.0008412763939430873 -0.0061175015667505
 0.9948516441405167 -0.04911350613136092 0.004293971257479168 0.02043069637666208 -0.0008418821600796473 -0.006117484671659307 0.0009580404288104066 0.00956142748959066
 0.0009760966630186367 0.00955921173568947 -0.0008418821600796473 -0.006117484671659307 0.004290939869551369 0.02043196639766551 0.9948516764731105 -0.04911250510617528
 -0.0008412763939430873 -0.0061175015667505 0.0009580404288104066 0.00956142748959066 0.9948516764731105 -0.04911250510617528 0.004294202987446733 0.02043168873044124
0.08128386827845 0.004625303112195691 0.022247802393371412 0.9944088078401013 -0.053294991773585175 0.0011097106737143656 0.010358886309245741 -0.0009540276981505196 -0.006632533475306644
 0.9944088078401013 -0.053294991773585175 0.004628662018648043 0.022247494864197907 -0.0009547364719271655 -0.006632507998477614 0.001088510433059995 0.010361539805493565
 0.0011097106737143656 0.010358886309245741 -0.0009547364719271655 -0.006632507998477614 0.004625105107744985 0.02224888823792666 0.9944088454949905 -0.05329390737979449
 -0.0009540276981505196 -0.006632533475306644 0.001088510433059995 0.010361539805493565 0.9944088454949905 -0.05329390737979449 0.0046289332328534735 0.022248568977234782
0.08753647353064001 0.0049770682514522725 0.02408031442238086 0.9939427440371231 -0.05749012848760204 0.0012525121073228708 0.011158520571234242 -0.0010744974687921824 -0.007147778535604305
 0.9939427440371231 -0.05749012848760204 0.004980963060272529 0.02407996328735549 -0.0010753170410686477 -0.007147742928716259 0.0012279136142719364 0.0111616659950233
 0.0012525121073228708 0.011158520571234242 -0.0010753170410686477 -0.007147742928716259 0.0049768386403657335 0.024081483300142325 0.9939427874253901 -0.05748896070239874
 -0.0010744974687921824 -0.007147778535604305 0.0012279136142719364 0.0111616659950233 0.9939427874253901 -0.05748896070239874 0.004981276798537921 0.02408111891382231
0.09378907878283 0.005346702959301266 0.025928212816915677 0.9934531614342086 -0.06169875465039254 0.0014045773597533711 0.011957985559715972 -0.0012027639186879696 -0.007663107936968654
 0.9934531614342086 -0.06169875465039254 0.005351173386035229 0.02592781463334002 -0.001203702020060687 -0.007663060556289666 0.0013763260076719984 0.011961680500305667
 0.0014045773597533711 0.011957985559715972 -0.001203702020060687 -0.007663060556289666 0.0053464394395899475 0.02592946470290431 0.9934532109687987 -0.06169750344330963
 -0.0012027639186879696 -0.007663107936968654 0.0013763260076719984 0.011961680500305667 0.9934532109687987 -0.06169750344330963 0.005351532674916999 0.025929051505617254
0.100041684035 0.005734504274364639 0.027791213511805576 0.992939769880689 -0.0659206945627079 0.001565980790406955 0.012757149083730523 -0.0013389031479337109 -0.008178390657918562
 0.992939769880689 -0.0659206945627079 0.0057395900793298085 0.027790764714175662 -0.001339967448382653 -0.00817832976434387 0.0015338216483038172 0.01276145457031867
 0.001565980790406955 0.012757149083730523 -0.001339967448382653 -0.00817832976434387 0.00573420454964578 0.02779254838665069 0.9929398259770376 -0.06591935990039241
 -0.0013389031479337109 -0.008178390657918562 0.0015338216483038172 0.01276145457031867 0.9929398259770376 -0.06591935990039241 0.00573999793249581 0.027792082537728913
0.1059090909091 0.006115199843742862 0.0295529254549355 0.9924360950809444 -0.06989447861759096 0.0017259981318486738 0.013506684625936983 -0.0014738814497214667 -0.00866176766359304
 0.9924360950809444 -0.06989447861759096 0.0061208993239516675 0.029552425807408265 -0.0014750710959992432 -0.008661692422990086 0.001689939831649607 0.013511621645837775
 0.0017259981318486738 0.013506684625936983 -0.0014750710959992432 -0.008661692422990086 0.0061148640605242985 0.029554338196267863 0.9924361577149595 -0.06989306560574352
 -0.0014738814497214667 -0.00866176766359304 0.001689939831649607 0.013511621645837775 0.9924361577149595 -0.06989306560574352 0.006121355478905321 0.02955381930584656
0.1062942892872 0.006140767225995974 0.02966903363599957 0.9924022805512465 -0.07015576004566065 0.0017367946298516269 0.013555875841438242 -0.0014829890671811583 -0.008693493389326038
 0.9924022805512465 -0.07015576004566065 0.006146508221854694 0.029668530533968212 -0.0014841871756420266 -0.008693417148430194 0.0017004724813049535 0.01356085637845542
 0.0017367946298516269 0.013555875841438242 -0.0014841871756420266 -0.008693417148430194 0.0061404290050228695 0.02967045148939356 0.9924023436273719 -0.07015434188856332
 -0.0014829890671811583 -0.008693493389326038 0.0017004724813049535 0.01356085637845542 0.9924023436273719 -0.07015434188856332 0.006146967639935382 0.029669928990420112
0.11254689453939999 0.0065657847416866226 0.03156139027774375 0.9918404061157308 -0.07440375164558237 0.001917088889288066 0.014354027516909815 -0.0016350933185077343 -0.009208280484023883
 0.9918404061157308 -0.07440375164558237 0.006572220800896139 0.03156082905387239 -0.0016364327822911983 -0.009208186966135611 0.0018763482735291504 0.014359751118837178
 0.001917088889288066 0.014354027516909815 -0.0016364327822911983 -0.009208186966135611 0.0065654057379201216 0.03156289110439266 0.9918404765928375 -0.07440224995218904
 -0.0016350933185077343 -0.009208280484023883 0.0018763482735291504 0.014359751118837178 0.9918404765928375 -0.07440224995218904 0.0065727347719155334 0.03156230779643909
0.11879949979160001 0.007009847545408873 0.03346799951312586 0.9912538609044035 -0.0786644595818052 0.002106931270036054 0.015151462864447084 -0.001795285195631304 -0.009722613924157995
 0.9912538609044035 -0.0786644595818052 0.007017018608177218 0.03346737622035743 -0.0017967734999092158 -0.0097225011044339 0.002061516524706318 0.015158001090036717
 0.002106931270036054 0.015151462864447084 -0.0017967734999092158 -0.0097225011044339 0.007009425476399493 0.033469583318645184 0.991253939206279 -0.07866287430288046
 -0.001795285195631304 -0.009722613924157995 0.002061516524706318 0.015158001090036717 0.991253939206279 -0.07866287430288046 0.00701759010688136 0.03346893487921872
0.1250521050438 0.007473244048860336 0.035388575651193174 0.9906423610672028 -0.08293766448409695 0.0023063870739447757 0.015948037783171724 -0.0019636315625236453 -0.01023635330362082
 0.9906423610672028 -0.08293766448409695 0.007481190130494471 0.03538788620997779 -0.001965276129578445 -0.01023621906217687 0.0022560423800727677 0.015955465769055693
 0.0023063870739447757 0.015948037783171724 -0.001965276129578445 -0.01023621906217687 0.007472776635972751 0.03539024244781218 0.9906424476211817 -0.08293599556726346
 -0.0019636315625236453 -0.01023635330362082 0.0022560423800727677 0.015955465769055693 0.9906424476211817 -0.08293599556726346 0.007481822118781011 0.03538952438753756
0.131304710296 0.007956260236213045 0.03732283062256587 0.9900056247308878 -0.08722313799328077 0.002515519114281415 0.016743605382966383 -0.0021401967713087218 -0.010749355824582784
 0.9900056247308878 -0.08722313799328077 0.007965021434843535 0.037322070817734615 -0.0021420049597879677 -0.010749197946614294 0.002459988542670235 0.016752001876587028
 0.002515519114281415 0.016743605382966383 -0.0021420049597879677 -0.010749197946614294 0.007955745204212567 0.03732458043121233 0.9900057199677829 -0.08722138538112181
 -0.0021401967713087218 -0.010749355824582784 0.002459988542670235 0.016752001876587028 0.9900057199677829 -0.08722138538112181 0.007965716861773432 0.03732378809015207
0.1375573155481 0.008348399743786318 0.03901920894153897 0.9894541948854809 -0.09126927101463791 0.0027081693520872056 0.017513190350654226 -0.002298889561173585 -0.011236618511786022
 0.9894541948854809 -0.09126927101463791 0.00835801812434473 0.03901839211724373 -0.002300871956612295 -0.011236436784939395 0.0026473228032097076 0.01752254372457945
 0.0027081693520872056 0.017513190350654226 -0.002300871956612295 -0.011236436784939395 0.008347833711894646 0.039021042582594465 0.9894542991981213 -0.09126743470738892
 -0.002298889561173585 -0.011236618511786022 0.0026473228032097076 0.01752254372457945 0.9894542991981213 -0.09126743470738892 0.008358781115926502 0.03902018736381204
0.1438099208003 0.008754349751829494 0.04070666924241116 0.9888833543564265 -0.09530514671812412 0.0029086017372712664 0.01827959878171813 -0.0024639222335711927 -0.01172098169118101
 0.9888833543564265 -0.09530514671812412 0.008764865786153752 0.04070579231975477 -0.002466086684696539 -0.011720773943271982 0.0028422058638744594 0.018289981151508004
 0.0029086017372712664 0.01827959878171813 -0.002466086684696539 -0.011720773943271982 0.008753730249422883 0.04070858682583354 0.9888834681724235 -0.09530322666783204
 -0.0024639222335711927 -0.01172098169118101 0.0028422058638744594 0.018289981151508004 0.9888834681724235 -0.09530322666783204 0.008765699487603308 0.04070766502258277
0.1500625260525 0.009173967432007038 0.04238507044618595 0.9882932499880426 -0.0993306645847418 0.0031167472347381517 0.0190427507886675 -0.002635228052003581 -0.012202370506925866
 0.9882932499880426 -0.0993306645847418 0.009185421674547762 0.04238413017188522 -0.0026375823855750674 -0.012202134479112402 0.0030445700398728337 0.01905423691254461
 0.0031167472347381517 0.0190427507886675 -0.0026375823855750674 -0.012202134479112402 0.009173291978620471 0.04238707209329603 0.9882933737373655 -0.09932866073871262
 -0.002635228052003581 -0.012202370506925866 0.0030445700398728337 0.01905423691254461 0.9882933737373655 -0.09932866073871262 0.009186329232909678 0.042386079792523436
0.15631513130469998 0.009607108947045369 0.0440542757284489 0.9876840293636863 -0.10334572445263554 0.0033325359948959705 0.019802567844450714 -0.0028127394605707385 -0.012680711685538035
 0.9876840293636863 -0.10334572445263554 0.009619542037139925 0.0440532686710474 -0.0028152914809383314 -0.012680445032861098 0.003254346851814227 0.019815235096721135
