! Created with skrf 1.8.0 (http://scikit-rf.org).
# GHz S RI R 50.0 
!freq ReS11 ImS11 ReS12 ImS12 ReS13 ImS13
! ReS14 ImS14
! ReS21 ImS21 ReS22 ImS22 ReS23 ImS23
! ReS24 ImS24
! ReS31 ImS31 ReS32 ImS32 ReS33 ImS33
! ReS34 ImS34
! ReS41 ImS41 ReS42 ImS42 ReS43 ImS43
! ReS44 ImS44
!
0.0 0.001449606253836 0.0 0.9985503937337 0.0 5.566987802442e-05 0.0 -5.566987752616e-05 6.817593732133701e-21
 0.9985503937337 0.0 0.001449606253825 0.0 -5.566987752507e-05 6.817593732000216e-21 5.5669878026e-05 0.0
 5.566987802442e-05 0.0 -5.566987752507e-05 6.817593732000216e-21 0.001449606255581 0.0 0.9985503937355 0.0
 -5.566987752616e-05 6.817593732133701e-21 5.5669878026e-05 0.0 0.9985503937355 0.0 0.001449606255628 0.0
0.005 0.0015593760789783563 0.0011877652549751503 0.9984115685908239 -0.0030367181691997934 7.760731601951716e-05 0.0006035892556480167 -7.54447486610247e-05 -0.0003806222187547574
 0.9984115685908239 -0.0030367181691997934 0.0015593897462076157 0.0011877572651451337 -7.544273984645499e-05 -0.00038062064764937843 7.752552288184354e-05 0.000603620312174647
 7.760731601951716e-05 0.0006035892556480167 -7.544273984645499e-05 -0.00038062064764937843 0.0015593769175671823 0.0011876974650223409 0.9984115682490404 -0.0030367852339326547
 -7.54447486610247e-05 -0.0003806222187547574 7.752552288184354e-05 0.000603620312174647 0.9984115682490404 -0.0030367852339326547 0.0015593882257308328 0.001187690926249426
0.006252605252188 0.0015880870357722883 0.0014893819488965825 0.9983750413121628 -0.0037966517456424808 8.3833259065815e-05 0.0007547882251892122 -8.098976028481302e-05 -0.0004762720153736613
 0.9983750413121628 -0.0037966517456424808 0.001588108400408682 0.0014893718271398635 -8.098663460940634e-05 -0.0004762700774003118 8.370546337216055e-05 0.0007548285516505221
 8.3833259065815e-05 0.0007547882251892122 -8.098663460940634e-05 -0.0004762700774003118 0.0015880884075127227 0.0014892972299122148 0.9983750408382488 -0.00379673555409447
 -8.098976028481302e-05 -0.0004762720153736613 8.370546337216055e-05 0.0007548285516505221 0.9983750408382488 -0.00379673555409447 0.0015881060836173777 0.00148928893086844
0.01250521050438 0.0017387718006142542 0.003010015828054506 0.9981821255488319 -0.007594175063452095 0.00011931840393656377 0.0015099907723106912 -0.00011224644606731061 -0.0009548918496353737
 0.9981821255488319 -0.007594175063452095 0.0017388571124109995 0.0030099942233853855 -0.00011223413028387781 -0.0009548882561790002 0.00011880874372605137 0.0015100876005339292
 0.00011931840393656377 0.0015099907723106912 -0.00011223413028387781 -0.0009548882561790002 0.001738777851932944 0.003009846571167292 0.9981821242241251 -0.007594342451768964
 -0.00011224644606731061 -0.0009548918496353737 0.00011880874372605137 0.0015100876005339292 0.9981821242241251 -0.007594342451768964 0.0017388484239165842 0.003009828721747059
0.01875781575657 0.0019019741371037496 0.004552376643203258 0.9979714176570152 -0.011401827041423715 0.0001622050617080713 0.002266111023182655 -0.00014953253734099843 -0.0014351939351107865
 0.9979714176570152 -0.011401827041423715 0.0019021658394836973 0.00455234207328298 -0.00014950507552027894 -0.0014351890195427952 0.00016106006702724308 0.0022662835380186865
 0.0001622050617080713 0.002266111023182655 -0.00014950507552027894 -0.0014351890195427952 0.001901988174536148 0.004552122875608861 0.9979714151072149 -0.011402077911315898
 -0.00014953253734099843 -0.0014351939351107865 0.00016106006702724308 0.0022662835380186865 0.9979714151072149 -0.011402077911315898 0.0019021467330338257 0.004552094165803172
0.02501042100875 0.0020779991987457213 0.006114326338708549 0.9977426802396793 -0.015221468965740318 0.00021257431507344722 0.003023187018052734 -0.00019293798926414772 -0.0019169733316318838
 0.9977426802396793 -0.015221468965740318 0.002078339651027365 0.006114277215580881 -0.0001928894972797813 -0.0019169674842796827 0.00021054035253792328 0.0030234573062301487
 0.00021257431507344722 0.003023187018052734 -0.0001928894972797813 -0.0019169674842796827 0.002078024521494081 0.006113988039255919 0.9977426760820957 -0.0152218032452713
 -0.00019293798926414772 -0.0019169733316318838 0.00021054035253792328 0.0030234573062301487 0.9977426760820957 -0.0152218032452713 0.0020783060736115195 0.006113947113001993
0.03126302626094 0.002267139462876072 0.007694772839213571 0.9974956632234856 -0.019053907251973166 0.00027050785095324723 0.003781188724865668 -0.00024255044304228983 -0.002400088406128622
 0.9974956632234856 -0.019053907251973166 0.0022676709627348825 0.007694707472553924 -0.00024247509623517334 -0.0024000820750360754 0.000267330883572359 0.003781581792501562
 0.00027050785095324723 0.003781188724865668 -0.00024247509623517334 -0.0024000820750360754 0.002267179382104469 0.007694349930698691 0.9974956570845631 -0.019054324903374532
 -0.00024255044304228983 -0.002400088406128622 0.000267330883572359 0.003781581792501562 0.9974956570845631 -0.019054324903374532 0.0022676188706892957 0.007694295389238131
0.037515631513130004 0.002469681205133851 0.00929301027932272 0.9972301105074841 -0.022899553156974353 0.00033608715700689863 0.004540059312252513 -0.00029845584044686986 -0.0028844195506552597
 0.9972301105074841 -0.022899553156974353 0.0024704460039003903 0.009292926877901994 -0.00029834786729252965 -0.0028844132418043423 0.0003315126336829427 0.004540603115346013
 0.00033608715700689863 0.004540059312252513 -0.00029834786729252965 -0.0028844132418043423 0.002469739032651763 0.009292502659641535 0.9972301020105769 -0.02290005414528137
 -0.00029845584044686986 -0.0028844195506552597 0.0003315126336829427 0.004540603115346013 0.9972301020105769 -0.02290005414528137 0.002470371350189463 0.009292433063586982
0.043768236765320004 0.0026859069905525814 0.010908518255802392 0.996945762630463 -0.026758623459504256 0.00040939314492134915 0.005299727693781998 -0.000360738649557434 -0.0033698566317257894
 0.996945762630463 -0.026758623459504256 0.0026869473046391844 0.010908414928373555 -0.0003605923278959235 -0.003369850909103074 0.0004031659446173037 0.0053004531727166015
 0.00040939314492134915 0.005299727693781998 -0.0003605923278959235 -0.003369850909103074 0.002685986042200591 0.010907925789192146 0.9969457513986887 -0.026759207761083672
 -0.000360738649557434 -0.0033698566317257894 0.0004031659446173037 0.0053004531727166015 0.9969457513986887 -0.026759207761083672 0.0026868460413793354 0.010907839660269208
0.050020842017509996 0.002916096840838706 0.012540878834128704 0.9966423581183564 -0.030631223384542158 0.0004905059273963302 0.006060113713082169 -0.0004294819485611823 -0.0038562938007947927
 0.9966423581183564 -0.030631223384542158 0.0029174548616559743 0.012540753589909462 -0.00042929160310932197 -0.003856289286405451 0.000482370332569845 0.006061054828770289
 0.0004905059273963302 0.006060113713082169 -0.00042929160310932197 -0.003856289286405451 0.0029162004373445463 0.012540201356888624 0.9966423437751561 -0.030631890981068954
 -0.0004294819485611823 -0.0038562938007947927 0.000482370332569845 0.006061054828770289 0.9966423437751561 -0.030631890981068954 0.0029173229409526612 0.01254009717920338
0.055454545454549996 0.003127695338092723 0.013972858283415546 0.9963630100795888 -0.034007645755200516 0.000567396969000389 0.006721427824998003 -0.0004945321601723905 -0.004279753764734015
 0.9963630100795888 -0.034007645755200516 0.003129363708238903 0.013972712298920067 -0.0004942989829417859 -0.0042797508505307055 0.0005573947775221717 0.00672258628973809
 0.000567396969000389 0.006721427824998003 -0.0004942989829417859 -0.0042797508505307055 0.0031278229652510663 0.013972106775847787 0.9963629927260111 -0.03400838572540661
 -0.0004945321601723905 -0.004279753764734015 0.0005573947775221717 0.00672258628973809 0.9963629927260111 -0.03400838572540661 0.003129201856722 0.013971985653800824
0.056273447269699996 0.0031605288359801316 0.014189735830308428 0.9963196342696926 -0.034517387252577074 0.0005795046623281146 0.006821130683546328 -0.0005047674466557717 -0.004343626952471732
 0.9963196342696926 -0.034517387252577074 0.003162246739631464 0.014189586579161334 -0.0005045274474642828 -0.0043436243263237796 0.0005692043500787233 0.006822324454474608
 0.0005795046623281146 0.006821130683546328 -0.0005045274474642828 -0.0043436243263237796 0.0031606603024819514 0.014188973151568713 0.99631961643745 -0.034518138129922236
 -0.0005047674466557717 -0.004343626952471732 0.0005692043500787233 0.006822324454474608 0.99631961643745 -0.034518138129922236 0.0031620801119741273 0.014188849372750256
0.06252605252188 0.0034194794438000037 0.015854772421016353 0.9959773276713959 -0.03841710080249724 0.0006764674307618734 0.007582686783058316 -0.0005866754729564234 -0.004831752330502287
 0.9959773276713959 -0.03841710080249724 0.0034215993994003977 0.015854596973361418 -0.0005863802341463923 -0.004831752330585188 0.0006637454755454594 0.007584173322667724
 0.0006764674307618734 0.007582686783058316 -0.0005863802341463923 -0.004831752330585188 0.003419642110442951 0.015853924320189117 0.99597730597256 -0.038417934952941914
 -0.0005866754729564234 -0.004831752330502287 0.0006637454755454594 0.007584173322667724 0.99597730597256 -0.038417934952941914 0.003421394015258335 0.01585377935218342
0.06877865777407 0.00369322369683167 0.017535697784535793 0.9956151745658568 -0.04233031448597039 0.0007814711324380834 0.008344685889704776 -0.0006752849479523172 -0.005320565695762622
 0.9956151745658568 -0.04233031448597039 0.003695787874880161 0.017535493851023633 -0.0006749289270219967 -0.005320569117999652 0.0007660700166236613 0.008346508443899678
 0.0007814711324380834 0.008344685889704776 -0.0006749289270219967 -0.005320569117999652 0.0036934208982858574 0.017534764014895246 0.9956151486217849 -0.042331231904287316
 -0.0006752849479523172 -0.005320565695762622 0.0007660700166236613 0.008346508443899678 0.9956151486217849 -0.042331231904287316 0.0036955396834243664 0.01753459623463314
0.07503126302626001 0.003982035281560947 0.0192322386472303 0.9952329111340138 -0.046256951859398474 0.0008945913934465783 0.00910702810956492 -0.0007706733422699921 -0.005809961805302025
 0.9952329111340138 -0.046256951859398474 0.0039850858620782 0.01923200383823853 -0.0007702510394838339 -0.005809969503508723 0.0008762530243252818 0.00910923309426573
 0.0008945913934465783 0.00910702810956492 -0.0007702510394838339 -0.005809969503508723 0.003982270357126542 0.01923121893243662 0.9952328805648714 -0.04625795254597657
 -0.0007706733422699921 -0.005809961805302025 0.0008762530243252818 0.00910923309426573 0.9952328805648714 -0.04625795254597657 0.003984790811968212 0.01923102668222157
0.08128386827845 0.004286186572766281 0.020944133640176145 0.9948302737255097 -0.05019691516910406 0.0010159024797922638 0.009869610132212905 -0.0008729166290951535 -0.006299834067089525
 0.9948302737255097 -0.05019691516910406 0.004289765753208914 0.020943865465000714 -0.0008724225871167129 -0.006299846952930138 0.0009943682108641601 0.009872247170728375
 0.0010159024797922638 0.009869610132212905 -0.0008724225871167129 -0.006299846952930138 0.0042864628664867135 0.020943027676074814 0.9948302381506762 -0.05019799912778755
 -0.0008729166290951535 -0.006299834067089525 0.0009943682108641601 0.009872247170728375 0.9948302381506762 -0.05019799912778755 0.004289419792935137 0.020942809263718956
0.08753647353064001 0.004605948629658041 0.02267112940970781 0.9944069990557272 -0.054150089186178994 0.001145477215690711 0.010632325478856692 -0.0009820892304734175 -0.006790074305561642
 0.9944069990557272 -0.054150089186178994 0.004610098633081747 0.022670825275560642 -0.000981518034186411 -0.0067900933484837545 0.001120487872324452 0.010635447439139023
 0.001145477215690711 0.010632325478856692 -0.000981518034186411 -0.0067900933484837545 0.004606269490351941 0.02266993686337541 0.9944069580932986 -0.05415125642481656
 -0.0009820892304734175 -0.006790074305561642 0.001120487872324452 0.010635447439139023 0.9944069580932986 -0.05415125642481656 0.004609697710949646 0.022669690562208022
0.09378907878283 0.0049415911679581564 0.02441297782925955 0.993962824379775 -0.058116343943892264 0.001283386904619079 0.011395064681388284 -0.0010982639605664002 -0.007280572599927453
 0.993962824379775 -0.058116343943892264 0.004946354250889669 0.02441263503994701 -0.0010976102369003682 -0.0072805988271003475 0.0012546828123091006 0.011398727712930313
 0.001283386904619079 0.011395064681388284 -0.0010976102369003682 -0.0072805988271003475 0.004941959949097429 0.02441169834026174 0.9939627776465856 -0.058117594472731286
 -0.0010982639605664002 -0.007280572599927453 0.0012546828123091006 0.011398727712930313 0.9939627776465856 -0.058117594472731286 0.004945894315700218 0.024411422388710007
0.100041684035 0.00529338251264378 0.026169433960767895 0.9934974876515711 -0.06209553672974214 0.0014297012518375706 0.012157715420786426 -0.0012215119658732364 -0.007771217166789512
 0.9934974876515711 -0.06209553672974214 0.005298800973161454 0.026169049715230056 -0.0012207703838545282 -0.007771251663028887 0.0013970222675807934 0.012161978991304149
 0.0014297012518375706 0.012157715420786426 -0.0012207703838545282 -0.007771251663028887 0.005293802572007532 0.026168067140030584 0.9934974347625988 -0.062096870562152746
 -0.0012215119658732364 -0.007771217166789512 0.0013970222675807934 0.012161978991304149 0.9934974347625988 -0.062096870562152746 0.00529827797364059 0.026167759741193227
0.1059090909091 0.005638426288083829 0.02783075056633366 0.9930413391491717 -0.06584121709916894 0.0015747063163486612 0.012873199331980856 -0.0013436620715365306 -0.008231666806432017
 0.9930413391491717 -0.06584121709916894 0.0056444982643953315 0.027830324775965858 -0.001342833232763624 -0.008231710100228527 0.001538060332320318 0.01287808351757052
 0.0015747063163486612 0.012873199331980856 -0.001342833232763624 -0.008231710100228527 0.005638897524588739 0.02782930141260942 0.9930412801322486 -0.0658426291197851
 -0.0013436620715365306 -0.008231666806432017 0.001538060332320318 0.01287808351757052 0.9930412801322486 -0.0658426291197851 0.005643912402416843 0.02782896283727749
0.1062942892872 0.00566158953746143 0.027940254520134353 0.9930107276720609 -0.06608751357758748 0.0015844882891096002 0.012920162632396006 -0.001351902662977916 -0.008261894279727035
 0.9930107276720609 -0.06608751357758748 0.005667705722947476 0.027939825910611425 -0.0013510679336806203 -0.008261938187421882 0.0015475738346119885 0.012925089564104287
 0.0015844882891096002 0.012920162632396006 -0.0013510679336806203 -0.008261938187421882 0.005662064237472728 0.027938799946723044 0.9930106682408847 -0.06608893073288168
 -0.001351902662977916 -0.008261894279727035 0.0015475738346119885 0.012925089564104287 0.9930106682408847 -0.06608893073288168 0.0056671156093084304 0.027938459267437103
0.11254689453939999 0.006046477594400155 0.029725196697914517 0.9925022842301894 -0.07009211040907089 0.0017478142991677469 0.013682288591775912 -0.0014895036748628907 -0.00875248821230441
 0.9925022842301894 -0.07009211040907089 0.006053333909948414 0.02972472070795958 -0.00148857055158822 -0.008752542731326102 0.0017064033969523857 0.013687945097243717
 0.0017478142991677469 0.013682288591775912 -0.00148857055158822 -0.008752542731326102 0.006047010301811101 0.029723653923632555 0.9925022178687356 -0.07009361090753495
 -0.0014895036748628907 -0.00875248821230441 0.0017064033969523857 0.013687945097243717 0.9925022178687356 -0.07009361090753495 0.006052672633332907 0.029723278093483414
0.11879949979160001 0.006448310434752101 0.03152401725114647 0.9919718982387522 -0.0741091539085071 0.00191974374186296 0.014443972988829443 -0.0016343807657882175 -0.009242881196694065
 0.9919718982387522 -0.0741091539085071 0.00645594935098273 0.03152349075326063 -0.0016333440442001265 -0.009242947584305413 0.001873575052304661 0.014450428706451296
 0.00191974374186296 0.014443972988829443 -0.0016333440442001265 -0.009242947584305413 0.006448904520413429 0.03152238579690848 0.9919718245565371 -0.07411073777455573
 -0.0016343807657882175 -0.009242881196694065 0.001873575052304661 0.014450428706451296 0.9919718245565371 -0.07411073777455573 0.006455212864020061 0.031521972906815576
0.1250521050438 0.006867350123742554 0.03333647177687703 0.9914193118652483 -0.07813846222071134 0.0021003391797738955 0.015205092988344392 -0.0017865977750603987 -0.009732953400128513
 0.9914193118652483 -0.07813846222071134 0.006875814185106702 0.03333589152996204 -0.0017854522933579082 -0.009733032970880455 0.0020491510407392908 0.015212421017281272
 0.0021003391797738955 0.015205092988344392 -0.0017854522933579082 -0.009733032970880455 0.006868008962834505 0.03333475113412673 0.9914192304702443 -0.0781401294811411
 -0.0017865977750603987 -0.009732953400128513 0.0020491510407392908 0.015212421017281272 0.9914192304702443 -0.0781401294811411 0.006874998442735788 0.033334299234753284
0.131304710296 0.0073038569497250036 0.03516231413575726 0.9908442686612948 -0.0821798455038272 0.0022896612048680124 0.015965523286927026 -0.0019462165498580447 -0.01022258290901165
 0.9908442686612948 -0.0821798455038272 0.007313188782774434 0.03516167678213821 -0.0019449571890331004 -0.01022267703462787 0.0022331916723207757 0.01597380022157576
 0.0022896612048680124 0.015965523286927026 -0.0019449571890331004 -0.01022267703462787 0.00730458392129671 0.035160503763490024 0.9908441791589783 -0.0821815961903073
 -0.0019462165498580447 -0.01022258290901165 0.0022331916723207757 0.01597380022157576 0.9908441791589783 -0.0821815961903073 0.007312289742201878 0.03516001086326371
0.1375573155481 0.007655577714485412 0.03676355190108258 0.9903490599037258 -0.0859952710217771 0.0024634155581799793 0.016701278791832738 -0.0020890149860539383 -0.010687754735012014
 0.9903490599037258 -0.0859952710217771 0.007665823086893475 0.036762866306049455 -0.0020876341010570617 -0.010687863465715158 0.0024015359771205314 0.016710490205716463
 0.0024634155581799793 0.016701278791832738 -0.0020876341010570617 -0.010687863465715158 0.007656375490038165 0.036761651349181634 0.990348961927987 -0.08599710511884928
 -0.0020890149860539383 -0.010687754735012014 0.0024015359771205314 0.016710490205716463 0.990348961927987 -0.08599710511884928 0.007664837357284712 0.0367611274149095
0.1438099208003 0.008019600391998173 0.038356770175735785 0.9898365739208417 -0.08980143433870849 0.002644196615055131 0.017434250782180267 -0.0022375308836095017 -0.011150394569945656
 0.9898365739208417 -0.08980143433870849 0.008030802526426824 0.038356033663406515 -0.0022360229620290105 -0.011150519250627624 0.0025766687446935554 0.01744446646702233
 0.002644196615055131 0.017434250782180267 -0.0022360229620290105 -0.011150519250627624 0.008020472228497262 0.03835477889542523 0.9898364670804428 -0.08980335187059055
 -0.0022375308836095017 -0.011150394569945656 0.0025766687446935554 0.01744446646702233 0.9898364670804428 -0.08980335187059055 0.008029726184975789 0.03835422263078951
0.1500625260525 0.00839580233767364 0.039941847893580996 0.9893069370488777 -0.0935982530657584 0.002831945573850196 0.018164370957186468 -0.002391707516840156 -0.011610438334882824
 0.9893069370488777 -0.0935982530657584 0.00840800455446836 0.03994105763138252 -0.0023900670569104478 -0.011610580364335816 0.002758532450458547 0.018175663255185083
 0.002831945573850196 0.018164370957186468 -0.0023900670569104478 -0.011610580364335816 0.00839675148750687 0.039939765315245776 0.9893068209508494 -0.0936002540556896
 -0.002391707516840156 -0.011610438334882824 0.002758532450458547 0.018175663255185083 0.9893068209508494 -0.0936002540556896 0.008406833687875915 0.039939175322917256
0.15631513130469998 0.00878406010485531 0.04151866770130245 0.9887602761896348 -0.0973856448577208 0.0030266029764390422 0.018891572108837525 -0.002551487497543917 -0.01206782325564859
