! Created with skrf 1.8.0 (http://scikit-rf.org).
# GHz S RI R 50.0 
!freq ReS11 ImS11 ReS12 ImS12 ReS13 ImS13
! ReS14 ImS14
! ReS21 ImS21 ReS22 ImS22 ReS23 ImS23
! ReS24 ImS24
! ReS31 ImS31 ReS32 ImS32 ReS33 ImS33
! ReS34 ImS34
! ReS41 ImS41 ReS42 ImS42 ReS43 ImS43
! ReS44 ImS44
!
0.0 0.001470483323686 0.0 0.9985295166536 0.0 5.70447033708e-05 0.0 -5.704470319357e-05 6.98596131743163e-21
 0.9985295166536 0.0 0.001470483323695 0.0 -5.704470319345e-05 6.985961317416934e-21 5.704470337151e-05 0.0
 5.70447033708e-05 0.0 -5.704470319345e-05 6.985961317416934e-21 0.001470483330787 0.0 0.9985295166607 0.0
 -5.704470319357e-05 6.98596131743163e-21 5.704470337151e-05 0.0 0.9985295166607 0.0 0.001470483330808 0.0
0.005 0.001582021928379248 0.0011947472256544525 0.9983884168648944 -0.0030810192974231876 8.10474052135571e-05 0.0006788053248639823 -7.845333064564915e-05 -0.0004173287741209243
 0.9983884168648944 -0.0030810192974231876 0.0015820138853016692 0.0011947519872721308 -7.845455845936567e-05 -0.00041732976383879937 8.108460623749957e-05 0.000678791042867721
 8.10474052135571e-05 0.0006788053248639823 -7.845455845936567e-05 -0.00041732976383879937 0.0015820214304692803 0.0011948148200629383 0.9983884172164327 -0.0030809522396429826
 -7.845333064564915e-05 -0.0004173287741209243 8.108460623749957e-05 0.000678791042867721 0.9983884172164327 -0.0030809522396429826 0.0015820150841235094 0.0011948185072835997
0.006252605252188 0.0016112199239945375 0.0014981807932641284 0.9983512549218577 -0.003852040389714116 8.786786434995201e-05 0.0008488163299347739 -8.447785805750699e-05 -0.0005222156158440496
 0.9983512549218577 -0.003852040389714116 0.0016112073509399565 0.0014981868670820083 -8.447976827901464e-05 -0.0005222168372571035 8.792598630227166e-05 0.0008487978080349896
 8.786786434995201e-05 0.0008488163299347739 -8.447976827901464e-05 -0.0005222168372571035 0.0016112190695407775 0.001498265289829724 0.9983512553957721 -0.0038519565682851487
 -8.447785805750699e-05 -0.0005222156158440496 8.792598630227166e-05 0.0008487978080349896 0.9983512553957721 -0.0038519565682851487 0.001611209149606881 0.0014982700105692095
0.01250521050438 0.0017646030447884186 0.0030281388512862833 0.9981547796319526 -0.00770498792087876 0.00012678636312255326 0.0016978694719840207 -0.00011855347223882998 -0.0010470493960033763
 0.9981547796319526 -0.00770498792087876 0.001764552834449279 0.0030281522367957177 -0.00011856099596392483 -0.0010470516675696116 0.00012701810231812265 0.00169782521480909
 0.00012678636312255326 0.0016978694719840207 -0.00011856099596392483 -0.0010470516675696116 0.001764599072873905 0.003028307637814716 0.9981547809716598 -0.007704820531193419
 -0.00011855347223882998 -0.0010470493960033763 0.00012701810231812265 0.00169782521480909 0.9981547809716598 -0.007704820531193419 0.0017645594696023988 0.003028318200835943
0.01875781575657 0.0019309566133785905 0.004580190009628205 0.9979398544909434 -0.01156824086703998 0.00017388828591954767 0.002547793443950359 -0.0001593753474345726 -0.0015736844348473013
 0.9979398544909434 -0.01156824086703998 0.0019308437771583238 0.004580212048274958 -0.00015939211987562154 -0.0015736875554308227 0.00017440877638659377 0.0025477148533036838
 0.00017388828591954767 0.002547793443950359 -0.00015939211987562154 -0.0015736875554308227 0.0019309472513251982 0.004580443057154697 0.9979398570791175 -0.01156798999606512
 -0.0001593753474345726 -0.0015736844348473013 0.00017440877638659377 0.0025477148533036838 0.9979398570791175 -0.01156798999606512 0.0019308582749784763 0.004580460641002911
0.02501042100875 0.0021105955943714685 0.00615215523916235 0.9977062342324179 -0.01544368298238629 0.00022926290427361442 0.0033986459758711942 -0.0002070438466505683 -0.0021018746740897737
 0.9977062342324179 -0.01544368298238629 0.0021103951894648697 0.006152187369503064 -0.00020707345796413284 -0.002101878408887241 0.00023018727676297465 0.0033985231258503367
 0.00022926290427361442 0.0033986459758711942 -0.00020707345796413284 -0.002101878408887241 0.0021105785684329787 0.006152492554422681 0.9977062384545962 -0.015443348691717538
 -0.0002070438466505683 -0.0021018746740897737 0.00023018727676297465 0.0033985231258503367 0.9977062384545962 -0.015443348691717538 0.002110420579181082 0.006152518390105986
0.03126302626094 0.002303821852769449 0.007742918035000122 0.9974536606977671 -0.019332126078517513 0.0002930000781100317 0.004250400721431444 -0.0002616564794888779 -0.0026314527344167
 0.9974536606977671 -0.019332126078517513 0.002303508970409526 0.007742961792045349 -0.0002617024825220527 -0.0026314568144940546 0.00029444357236286996 0.004250222352558616
 0.0002930000781100317 0.004250400721431444 -0.0002617024825220527 -0.0026314568144940546 0.0023037948846821666 0.007743339659799984 0.997453666940063 -0.019331708404941347
 -0.0002616564794888779 -0.0026314527344167 0.00029444357236286996 0.004250222352558616 0.997453666940063 -0.019331708404941347 0.00230354828277481 0.007743375029929202
0.037515631513130004 0.002510930769892609 0.009351754097843222 0.9971818696484562 -0.023233980284536434 0.000365189363355467 0.005102998394067718 -0.000323308686399122 -0.00316227878267928
 0.9971818696484562 -0.023233980284536434 0.0025104805283373104 0.009351811113028153 -0.00032337460076675934 -0.0031622829048548887 0.00036726737974771803 0.0051027519008805125
 0.000365189363355467 0.005102998394067718 -0.00032337460076675934 -0.0031622829048548887 0.0025108915742938958 0.009352260098537851 0.9971818782954195 -0.023233479250634737
 -0.000323308686399122 -0.00316227878267928 0.00036726737974771803 0.0051027519008805125 0.9971818782954195 -0.023233479250634737 0.0025105367933452717 0.009352306336851877
0.043768236765320004 0.0027322137932995084 0.010978127361413457 0.9968905935121047 -0.02714945795310007 0.00044591959789525574 0.005956362325670418 -0.00039209412488572644 -0.003694224972568268
 0.9968905935121047 -0.02714945795310007 0.002731601332322398 0.010978199363014453 -0.0003921834393971951 -0.003694228799389274 0.0004487477231188921 0.005956033742311745
 0.00044591959789525574 0.005956362325670418 -0.0003921834393971951 -0.003694228799389274 0.0027321600806308978 0.010978717815048174 0.9968906049498378 -0.027148873581286734
 -0.00039209412488572644 -0.003694224972568268 0.0004487477231188921 0.005956033742311745 0.9968906049498378 -0.027148873581286734 0.0027316775821345294 0.010978776306138055
0.050020842017509996 0.002967959629309035 0.012621605670312423 0.9965795627728041 -0.031078657914637195 0.0005352786557634243 0.006810404886441347 -0.00046810477919946 -0.004227169024785653
 0.9965795627728041 -0.031078657914637195 0.0029671601056059232 0.01262169448381039 -0.0004682209534086268 -0.004227172184537098 0.0005389726748093409 0.006809978871356727
 0.0005352786557634243 0.006810404886441347 -0.0004682209534086268 -0.004227172184537098 0.0029678891042672195 0.012622280679850122 0.9965795773877845 -0.03107799021211704
 -0.00046810477919946 -0.004227169024785653 0.0005389726748093409 0.006809978871356727 0.9965795773877845 -0.03107799021211704 0.002967259373350536 0.0126223528588583
0.055454545454549996 0.0031847980961615735 0.014063441341810829 0.9962930143045785 -0.034504417935945324 0.0006200094392007819 0.007553070920844684 -0.0005400983065853534 -0.004691030821844856
 0.9962930143045785 -0.034504417935945324 0.003183815843822741 0.014063546323837562 -0.0005402406104380614 -0.00469103307341661 0.0006245501346634706 0.007552546695213507
 0.0006200094392007819 0.007553070920844684 -0.0005402406104380614 -0.00469103307341661 0.003184711091936694 0.014064189929512996 0.996293031995105 -0.03450367781793307
 -0.0005400983065853534 -0.004691030821844856 0.0006245501346634706 0.007552546695213507 0.996293031995105 -0.03450367781793307 0.003183937577950365 0.01406427520851102
0.056273447269699996 0.0032184548568391226 0.014281819416022863 0.996248506786134 -0.03502160677396132 0.0006333532735458888 0.007665030639938185 -0.0005514309930512458 -0.004760991074165881
 0.996248506786134 -0.03502160677396132 0.0032174434402312763 0.014281926964727553 -0.0005515774584341821 -0.004760993160886579 0.0006380291733955324 0.007664490460229734
 0.0006333532735458888 0.007665030639938185 -0.0005515774584341821 -0.004760993160886579 0.003218365217934744 0.014282579102405817 0.9962485249654058 -0.03502085574086614
 -0.0005514309930512458 -0.004760991074165881 0.0006380291733955324 0.007664490460229734 0.9962485249654058 -0.03502085574086614 0.003217568758647177 0.014282666455023305
0.06252605252188 0.0034839842549058662 0.015958438789956047 0.9958971543119252 -0.03897828159233269 0.0007402289153370816 0.008520138075320387 -0.0006421614605183955 -0.005295571942577914
 0.9958971543119252 -0.03897828159233269 0.0034827361249723217 0.015958567095668386 -0.0006423416212345157 -0.005295572516094103 0.0007460028833392975 0.00851946559086482
 0.0007402289153370816 0.008520138075320387 -0.0006423416212345157 -0.005295572516094103 0.003483873196721509 0.015959283286822945 0.995897176444428 -0.03897744722716809
 -0.0006421614605183955 -0.005295571942577914 0.0007460028833392975 0.00851946559086482 0.995897176444428 -0.03897744722716809 0.0034828905285031317 0.01595938734922044
0.06877865777407 0.003764830984345548 0.01765116020961624 0.9955252339025435 -0.042948623399229086 0.00085598965586485 0.009375620641215388 -0.0007403831962925996 -0.005830792113536277
 0.9955252339025435 -0.042948623399229086 0.0037633213266638184 0.017651311393380435 -0.000740600429756067 -0.0058307906994864555 0.000862978074097374 0.009374796288797923
 0.00085598965586485 0.009375620641215388 -0.000740600429756067 -0.0058307906994864555 0.0037646961950978178 0.017652089668590446 0.9955252603776772 -0.042947705693833896
 -0.0007403831962925996 -0.005830792113536277 0.000862978074097374 0.009374796288797923 0.9955252603776772 -0.042947705693833896 0.003763507848530148 0.017652212027551333
0.07503126302626001 0.004061276669834029 0.019359697728473842 0.9951324741965182 -0.04693254572399178 0.0009807180768796804 0.010231367403894428 -0.0008461814903278355 -0.006366531086223607
 0.9951324741965182 -0.04693254572399178 0.004059480673159573 0.019359874011472072 -0.000846439147639838 -0.006366527176098859 0.0009890375138396769 0.010230370181317094
 0.0009807180768796804 0.010231367403894428 -0.000846439147639838 -0.006366527176098859 0.004061115833225162 0.01936071232118789 0.9951325054056541 -0.04693154466172421
 -0.0008461814903278355 -0.006366531086223607 0.0009890375138396769 0.010230370181317094 0.9951325054056541 -0.04693154466172421 0.004059702346621571 0.01936085461429155
0.08128386827845 0.004373601430882859 0.021083777315386906 0.9947186041638283 -0.05092994026178472 0.0011144951701474982 0.011087263489027556 -0.0009596398541451991 -0.006902666949787259
 0.9947186041638283 -0.05092994026178472 0.004371494283814866 0.02108398101995041 -0.0009599412604059057 -0.006902660000958318 0.0011242623701122772 0.011086070939319372
 0.0011144951701474982 0.011087263489027556 -0.0009599412604059057 -0.006902660000958318 0.004373412225746365 0.021084877227688297 0.9947186405000557 -0.0509288558235153
 -0.0009596398541451991 -0.006902666949787259 0.0011242623701122772 0.011086070939319372 0.9947186405000557 -0.0509288558235153 0.004371754141042082 0.021085041143634728
0.08753647353064001 0.004702083872391659 0.022823132893927015 0.994283353313573 -0.05494068078391444 0.0012574002452417489 0.011943190391000797 -0.0010808399606219872 -0.007439076094202861
 0.994283353313573 -0.05494068078391444 0.0046996407601046465 0.022823366444626122 -0.0010811884151147825 -0.007439065529967745 0.0012687321158507384 0.01194177858675543
 0.0012574002452417489 0.011943190391000797 -0.0010811884151147825 -0.007439065529967745 0.004701863972791845 0.022824318328593492 0.9942833951719893 -0.05493951294553112
 -0.0010808399606219872 -0.007439076094202861 0.0012687321158507384 0.01194177858675543 0.9942833951719893 -0.05493951294553112 0.0046999418319834995 0.022824505607647143
0.09378907878283 0.005047001049581451 0.024577503519272265 0.9938264518801662 -0.05896462591498507 0.0014095108404669802 0.012799026196393356 -0.0012098615790024961 -0.00797563301115512
 0.9938264518801662 -0.05896462591498507 0.005044197151363054 0.024577769444077652 -0.0012102603554203359 -0.007975618220765927 0.0014225244389456265 0.012797369724216148
 0.0014095108404669802 0.012799026196393356 -0.0012102603554203359 -0.007975618220765927 0.005046748124922094 0.024578774698997646 0.993826499657533 -0.058963374644639674
 -0.0012098615790024961 -0.00797563301115512 0.0014225244389456265 0.012797369724216148 0.993826499657533 -0.058963374644639674 0.005044542466295612 0.024578987133499892
0.100041684035 0.005408628413471421 0.02634663130860431 0.9933476309915558 -0.063001621161202 0.0015709026356933546 0.01365464575609478 -0.0013467825068948633 -0.008512210150684839
 0.9933476309915558 -0.063001621161202 0.005405438899241678 0.026346932240254348 -0.0013472348533784067 -0.0085121904893949 0.0015857151536977203 0.013652717701256803
 0.0015709026356933546 0.01365464575609478 -0.0013472348533784067 -0.0085121904893949 0.00540834012899443 0.02634798847075658 0.9933476850872881 -0.06300028642481462
 -0.0013467825068948633 -0.008512210150684839 0.0015857151536977203 0.013652717701256803 0.9933476850872881 -0.06300028642481462 0.00540583148334768 0.026348227905806817
0.1059090909091 0.00576341897355897 0.02801996318294101 0.9928781342857266 -0.06680163415519137 0.001730858575679748 0.01445724308391625 -0.0014825201198626166 -0.00901563377976573
 0.9928781342857266 -0.06680163415519137 0.005759845006079385 0.028020299453789206 -0.0014830256676294595 -0.00901560893101282 0.0017474658788608518 0.014455034348240555
 0.001730858575679748 0.01445724308391625 -0.0014830256676294595 -0.00901560893101282 0.00576309538056552 0.02802140126190304 0.9928781946759936 -0.0668002210594865
 -0.0014825201198626166 -0.00901563377976573 0.0017474658788608518 0.014455034348240555 0.9928781946759936 -0.0668002210594865 0.00576028469668073 0.028021667759921664
0.1062942892872 0.005787239743653261 0.028130259882646332 0.9928466228291578 -0.06705150043244626 0.0017416493666322218 0.014509920816448424 -0.0014916784994619403 -0.00904867782325146
 0.9928466228291578 -0.06705150043244626 0.005783639771050952 0.02813059856003362 -0.0014921876386709129 -0.009048652612356956 0.0017583781140078384 0.014507692747758035
 0.0017416493666322218 0.014509920816448424 -0.0014921876386709129 -0.009048652612356956 0.005786913760406283 0.028131703282155366 0.9928466836450517 -0.06705008219101541
 -0.0014916784994619403 -0.00904867782325146 0.0017583781140078384 0.014507692747758035 0.9928466836450517 -0.06705008219101541 0.005784082647245557 0.028131971616427474
0.11254689453939999 0.00618310706924727 0.02992813317549445 0.9923231607780687 -0.07111408720113432 0.0019218227400778572 0.015364720129513074 -0.0016446231965712179 -0.009584904127335432
 0.9923231607780687 -0.07111408720113432 0.006179071780799194 0.029928512445249956 -0.0016451923256952169 -0.009584872654221364 0.0019405851277727393 0.015362162084344242
 0.0019218227400778572 0.015364720129513074 -0.0016451923256952169 -0.009584872654221364 0.006182741044290492 0.02992966308661504 0.9923232287185998 -0.07111258540921306
 -0.0016446231965712179 -0.009584904127335432 0.0019405851277727393 0.015362162084344242 0.9923232287185998 -0.07111258540921306 0.006179567968228411 0.02992996227323176
0.11879949979160001 0.006596500582293831 0.03173999451246356 0.9917769795724692 -0.07518919539816352 0.0021114923498492862 0.01621890954073449 -0.001805688048494973 -0.010120754904289365
 0.9917769795724692 -0.07518919539816352 0.0065920051024489605 0.03174041733061036 -0.0018063203392803683 -0.010120716422473827 0.002132405871738546 0.01621599001033558
 0.0021114923498492862 0.01621890954073449 -0.0018063203392803683 -0.010120716422473827 0.006596092169197108 0.031741611225576116 0.991777055045148 -0.0751876100073241
 -0.001805688048494973 -0.010120754904289365 0.002132405871738546 0.01621599001033558 0.991777055045148 -0.0751876100073241 0.006592557615896883 0.03174194327319026
0.1250521050438 0.007027688544486077 0.033565585876679516 0.9912078154368229 -0.07927663012559977 0.0023107255931882446 0.01707235206888989 -0.0019749422402639337 -0.010656093705735848
 0.9912078154368229 -0.07927663012559977 0.007022707976316327 0.033566055310423476 -0.001975640838899762 -0.010656047434898378 0.0023339078072352622 0.017069037983995686
 0.0023107255931882446 0.01707235206888989 -0.001975640838899762 -0.010656047434898378 0.0070272353930802426 0.03356728970106294 0.9912078988522548 -0.07927496108189337
 -0.0019749422402639337 -0.010656093705735848 0.0023339078072352622 0.017069037983995686 0.9912078988522548 -0.07927496108189337 0.007023319825556507 0.03356765667506717
0.131304710296 0.007476937187931443 0.03540464732673401 0.9906154062243661 -0.08337618822373422 0.0025195875875379113 0.017924907975183726 -0.0021524526150419124 -0.011190781776697098
 0.9906154062243661 -0.08337618822373422 0.007471446610576284 0.03540516655638877 -0.0021532206421364763 -0.01119072690278453 0.00254515609621682 0.017921164691776275
 0.0025195875875379113 0.017924907975183726 -0.0021532206421364763 -0.01119072690278453 0.007476436944943003 0.03540643859011238 0.9906154979962901 -0.08337443546842223
 -0.0021524526150419124 -0.011190781776697098 0.00254515609621682 0.017921164691776275 0.9906154979962901 -0.08337443546842223 0.007472120799744685 0.03540684261392008
0.1375573155481 0.007840158601412133 0.03701488679780046 0.9901038820954357 -0.08724551979078964 0.002711304985272607 0.018751399167917165 -0.0023114234992721162 -0.011699680389943744
 0.9901038820954357 -0.08724551979078964 0.007834132151061145 0.0370154473453877 -0.002312265697174832 -0.011699616886997544 0.002739322956264085 0.018747232917985038
 0.002711304985272607 0.018751399167917165 -0.002312265697174832 -0.011699616886997544 0.007839609709329086 0.037016765640250734 0.9901039826020864 -0.08724368332179025
 -0.0023114234992721162 -0.011699680389943744 0.002739322956264085 0.018747232917985038 0.9901039826020864 -0.08724368332179025 0.007834870955309426 0.03701719765233224
0.1438099208003 0.008216094722686137 0.038616810692313264 0.989574474431447 -0.09110525732013824 0.002910779205173896 0.0195748122472414 -0.0024767779736047527 -0.012205747741492155
 0.989574474431447 -0.09110525732013824 0.008209507323423708 0.038617414922946215 -0.0024776977183210997 -0.012205674809233916 0.0029413544585834275 0.019570191373512083
 0.002910779205173896 0.0195748122472414 -0.0024776977183210997 -0.012205674809233916 0.008215494968443074 0.0386187774273747 0.9895745840836521 -0.09110333708638231
 -0.0024767779736047527 -0.012205747741492155 0.0029413544585834275 0.019570191373512083 0.9895745840836521 -0.09110333708638231 0.008210313607540369 0.03861923876065369
0.1500625260525 0.008604616194529855 0.04021029107833382 0.9890273165569732 -0.09495531163413055 0.003117944330083876 0.020395071223514274 -0.0026484515611714774 -0.01270891068482275
 0.9890273165569732 -0.09495531163413055 0.008597442745563262 0.040210941475880634 -0.0026494522236571107 -0.012708827490576283 0.0031511840976909226 0.02038996290928917
 0.003117944330083876 0.020395071223514274 -0.0026494522236571107 -0.012708827490576283 0.008603963371527173 0.0402123460319539 0.9890274357682157 -0.09495330758212245
 -0.0026484515611714774 -0.01270891068482275 0.0031511840976909226 0.02038996290928917 0.9890274357682157 -0.09495330758212245 0.008598319360492183 0.04021283809897231
0.15631513130469998 0.009005592769830872 0.041795203919487725 0.9884625424459621 -0.09879559373431736 0.0033327336902235632 0.02121210134198706 -0.0028263790099529174 -0.013209097592542202
 0.9884625424459621 -0.09879559373431736 0.00899780814472419 0.04179590308799476 -0.002827463956259767 -0.013209003271296873 0.0033687446069733183 0.021206471622557694
