! Created with skrf 1.8.0 (http://scikit-rf.org).
# GHz S RI R 50.0 
!freq ReS11 ImS11 ReS12 ImS12 ReS13 ImS13
! ReS14 ImS14
! ReS21 ImS21 ReS22 ImS22 ReS23 ImS23
! ReS24 ImS24
! ReS31 ImS31 ReS32 ImS32 ReS33 ImS33
! ReS34 ImS34
! ReS41 ImS41 ReS42 ImS42 ReS43 ImS43
! ReS44 ImS44
!
0.0 0.001285769727049 0.0 0.9987142302729 0.0 4.918137353209e-05 0.0 -4.918137335398e-05 6.022981145562253e-21
 0.9987142302729 0.0 0.001285769727053 0.0 -4.918137335419e-05 6.022981145587971e-21 4.918137353132e-05 0.0
 4.918137353209e-05 0.0 -4.918137335419e-05 6.022981145587971e-21 0.001285769714268 0.0 0.9987142302602 0.0
 -4.918137335398e-05 6.022981145562253e-21 4.918137353132e-05 0.0 0.9987142302602 0.0 0.001285769714257 0.0
0.005 0.0013827451740111138 0.0010519175154018513 0.9985916339249885 -0.0026941834815740625 6.863680231087919e-05 0.0005441980941975275 -6.666546936035478e-05 -0.0003413013619021307
 0.9985916339249885 -0.0026941834815740625 0.0013827651904804274 0.001051905806950201 -6.666557395232807e-05 -0.0003413013866331598 6.851475657419992e-05 0.0005442444724277684
 6.863680231087919e-05 0.0005441980941975275 -6.666557395232807e-05 -0.0003413013866331598 0.001382745740503102 0.0010519843987654605 0.9985916342624187 -0.0026941164196452763
 -6.666546936035478e-05 -0.0003413013619021307 6.851475657419992e-05 0.0005442444724277684 0.9985916342624187 -0.0026941164196452763 0.0013827652953404082 0.0010519730443858289
0.006252605252188 0.0014079912067023134 0.0013190629077178787 0.9985595433825716 -0.0033684172907299304 7.410275006100169e-05 0.0006805211771313883 -7.15161271422151e-05 -0.0004270792681526613
 0.9985595433825716 -0.0033684172907299304 0.0014080224964012026 0.001319048036095848 -7.151629035758442e-05 -0.0004270792975248335 7.391206189548645e-05 0.00068058135808342
 7.410275006100169e-05 0.0006805211771313883 -7.151629035758442e-05 -0.0004270792975248335 0.0014079920193367421 0.0013191464849328152 0.9985595438367739 -0.003368333483563151
 -7.15161271422151e-05 -0.0004270792681526613 7.391206189548645e-05 0.00068058135808342 0.9985595438367739 -0.003368333483563151 0.0014080225864757615 0.001319132066339231
0.01250521050438 0.0015397992657358618 0.0026660480243338295 0.9983910172890345 -0.006737809719638302 0.0001049600242827357 0.0013614493692963566 -9.857778793930673e-05 -0.0008563484629467235
 0.9983910172890345 -0.006737809719638302 0.0015399242100680652 0.002666015906346477 -9.857843660850498e-05 -0.0008563485043675312 0.00010419953550325445 0.0013615932910942907
 0.0001049600242827357 0.0013614493692963566 -9.857843660850498e-05 -0.0008563485043675312 0.001539801943007999 0.002666214880120085 0.9983910185300232 -0.006737642323621996
 -9.857778793930673e-05 -0.0008563484629467235 0.00010419953550325445 0.0013615932910942907 0.9983910185300232 -0.006737642323621996 0.0015399239891873307 0.002666183777923226
0.01875781575657 0.0016814433049293538 0.004032525104010834 0.9982084701491638 -0.010116417098127927 0.00014181765344492678 0.0020432654192738594 -0.0001304413547307977 -0.0012872100642921187
 0.9982084701491638 -0.010116417098127927 0.0016817240683060768 0.004032473204467528 -0.000130442808975184 -0.0012872100959434494 0.00014010913144953214 0.002043520650779995
 0.00014181765344492678 0.0020432654192738594 -0.000130442808975184 -0.0012872100959434494 0.0016814489086661064 0.004032775032115849 0.9982084725162155 -0.010116166205262251
 -0.0001304413547307977 -0.0012872100642921187 0.00014010913144953214 0.002043520650779995 0.9982084725162155 -0.010116166205262251 0.0016817231335910382 0.004032724837470064
0.02501042100875 0.0018331673461507508 0.005416620688526083 0.9980117140616686 -0.013505916189034855 0.0001847415197157617 0.002726021619884351 -0.00016717999968864192 -0.0017194917721771634
 0.9980117140616686 -0.013505916189034855 0.0018336659705122486 0.005416546333244171 -0.0001671825783690586 -0.0017194917675493852 0.00018170646093295322 0.0027264195702487635
 0.0001847415197157617 0.002726021619884351 -0.0001671825783690586 -0.0017194917675493852 0.0018331769400495817 0.005416953499082407 0.9980117178927232 -0.013505581840892948
 -0.00016717999968864192 -0.0017194917721771634 0.00018170646093295322 0.0027264195702487635 0.9980117178927232 -0.013505581840892948 0.001833663908880074 0.0054168816806960006
0.03126302626094 0.0019952050738553623 0.006817390464988914 0.9978005502408195 -0.016907048326133822 0.00023379833677493822 0.0034097079779212085 -0.00020886519143943006 -0.0021530801474994097
 0.9978005502408195 -0.016907048326133822 0.0019959835100898547 0.006817290845117075 -0.00020886921242783865 -0.002153080075337502 0.00022905759972810446 0.003410283916890308
 0.00023379833677493822 0.0034097079779212085 -0.00020886921242783865 -0.002153080075337502 0.0019952197245393572 0.00681780595630819 0.9978005558741947 -0.0169066305417927
 -0.00020886519143943006 -0.0021530801474994097 0.00022905759972810446 0.003410283916890308 0.9978005558741947 -0.0169066305417927 0.0019959798991221974 0.0068177098649955655
0.037515631513130004 0.00216778529316243 0.008234233725223503 0.9975747745817036 -0.02032020490575201 0.00028905494303074384 0.0040942902519669165 -0.000255567227878081 -0.002587882555551968
 0.9975747745817036 -0.02032020490575201 0.0021689054209131226 0.008234105899482402 -0.00025557300813064306 -0.002587882379800297 0.0002822285746966445 0.004095083349358611
 0.00028905494303074384 0.0040942902519669165 -0.00025557300813064306 -0.002587882379800297 0.0021678060708973856 0.00823473167896357 0.9975747823574151 -0.020319703686322514
 -0.000255567227878081 -0.002587882555551968 0.0002822285746966445 0.004095083349358611 0.9975747823574151 -0.020319703686322514 0.002168899829967432 0.008234608550122808
0.043768236765320004 0.0023511340500164493 0.009666715182191834 0.9973341798907716 -0.023745605514508987 0.00035057797912342955 0.004779721527631324 -0.0003073554392137754 -0.0030238155770886182
 0.9973341798907716 -0.023745605514508987 0.0023526576927411667 0.009666556078393262 -0.00030736329479567713 -0.0030238152568511766 0.00034128512360482086 0.0047807748987840374
 0.00035057797912342955 0.004779721527631324 -0.00030736329479567713 -0.0030238152568511766 0.0023511620276399302 0.009667295351973667 0.9973341901503854 -0.023745020854181988
 -0.0003073554392137754 -0.0030238155770886182 0.00034128512360482086 0.0047807748987840374 0.9973341901503854 -0.023745020854181988 0.0023526496821243284 0.009667142307386719
0.050020842017509996 0.0025454756224487034 0.011114491312787068 0.9970785569911088 -0.02718337152857913 0.00041843370655813466 0.005465946982591818 -0.0003642982680926043 -0.003460800231513341
 0.9970785569911088 -0.02718337152857913 0.0025474645603065357 0.011114297728793944 -0.00036430851419060647 -0.003460799721005428 0.000406292557309211 0.005467307736336081
 0.00041843370655813466 0.005465946982591818 -0.00036430851419060647 -0.003460799721005428 0.0025455118740896066 0.011115153441122481 0.997078570076852 -0.027182703397426542
 -0.0003642982680926043 -0.003460800231513341 0.000406292557309211 0.005467307736336081 0.997078570076852 -0.027182703397426542 0.0025474536801365463 0.011114967490226346
0.055454545454549996 0.002723465091139074 0.012384849203044269 0.9968440447244524 -0.03018098374718767 0.00048259639361819713 0.006062895886716471 -0.00041802200452260076 -0.003841347439636842
 0.9968440447244524 -0.03018098374718767 0.0027259085321382865 0.012384622953901827 -0.00041803458327176326 -0.00384134672276676 0.00046766916229986646 0.006064565161944714
 0.00048259639361819713 0.006062895886716471 -0.00041803458327176326 -0.00384134672276676 0.002723509407443164 0.012385582322946322 0.9968440605464197 -0.030180243049245235
 -0.00041802200452260076 -0.003841347439636842 0.00046766916229986646 0.006064565161944714 0.9968440605464197 -0.030180243049245235 0.0027258947865735493 0.012385365260323659
0.056273447269699996 0.002751033040834217 0.012577274231587873 0.9968076953581143 -0.03063356218167389 0.0004926878820294085 0.00615290623629732 -0.0004264633016212374 -0.003898759616964719
 0.9968076953581143 -0.03063356218167389 0.002753549021550129 0.012577042836142577 -0.0004264762524604767 -0.0038987588654718804 0.0004773156601297898 0.00615462552418102
 0.0004926878820294085 0.00615290623629732 -0.0004264762524604767 -0.0038987588654718804 0.0027510786430077192 0.012578018030875627 0.9968077116149702 -0.030632810544344972
 -0.0004264633016212374 -0.003898759616964719 0.0004773156601297898 0.00615462552418102 0.9968077116149702 -0.030632810544344972 0.0027535348136495225 0.012577796071830506
0.06252605252188 0.002968028378770041 0.014054811810214477 0.9965213835294535 -0.034096194388072 0.0005734056649508858 0.006840534627585708 -0.000493917273292558 -0.004337617624135602
 0.9965213835294535 -0.034096194388072 0.0029711331285723025 0.01405453914329947 -0.0004939332421457007 -0.004337616575971761 0.0005544186145956932 0.006842667693719336
 0.0005734056649508858 0.006840534627585708 -0.0004939332421457007 -0.004337616575971761 0.002968084409032294 0.014055636969839013 0.9965214033043225 -0.03409535919631908
 -0.000493917273292558 -0.004337617624135602 0.0005544186145956932 0.006842667693719336 0.9965214033043225 -0.03409535919631908 0.0029711151249370085 0.014055375790215742
0.06877865777407 0.0031966829181694916 0.015546875830637998 0.9962194093905496 -0.037571254532731906 0.0006606515402691591 0.007528763976394507 -0.0005667260512295805 -0.004777298167708854
 0.9962194093905496 -0.037571254532731906 0.003200438151427745 0.015546558303700733 -0.0005667453503190491 -0.004777296762177153 0.000637664936094099 0.0075313702075889034
 0.0006606515402691591 0.007528763976394507 -0.0005667453503190491 -0.004777296762177153 0.003196750455213994 0.015547782010414096 0.9962194330333134 -0.037570335731767705
 -0.0005667260512295805 -0.004777298167708854 0.000637664936094099 0.0075313702075889034 0.9962194330333134 -0.037570335731767705 0.003200415875158432 0.01554747828766926
0.07503126302626001 0.003437217241189429 0.01705325446562397 0.9959015603903031 -0.04105870593585724 0.0007544892513791724 0.008217523070838515 -0.0006449546165073303 -0.005217724694231818
 0.9959015603903031 -0.04105870593585724 0.003441684670221717 0.017052888361572434 -0.0006449775569542863 -0.00521772286559444 0.0007271174147771574 0.00822066604682967
 0.0007544892513791724 0.008217523070838515 -0.0006449775569542863 -0.00521772286559444 0.003437297363907537 0.017054241305199537 0.9959015882536384 -0.04105770345464104
 -0.0006449546165073303 -0.005217724694231818 0.0007271174147771574 0.00822066604682967 0.9959015882536384 -0.04105770345464104 0.0034416576348062886 0.01705389160692272
0.08128386827845 0.003689851276833072 0.01857374729029713 0.9955676237127391 -0.04455849378798064 0.0008549817393183648 0.008906737985871764 -0.0007286670352176189 -0.005658819860334857
 0.9955676237127391 -0.04455849378798064 0.0036950926212842047 0.01857332876315586 -0.0007286939269695288 -0.005658817537768193 0.0008228380614993497 0.008910485529489337
 0.0008549817393183648 0.008906737985871764 -0.0007286939269695288 -0.005658817537768193 0.003689945063829632 0.018574814398456374 0.9955676561525976 -0.04455740754969367
 -0.0007286670352176189 -0.005658819860334857 0.0008228380614993497 0.008910485529489337 0.9955676561525976 -0.04455740754969367 0.003695060330494793 0.01857441518234107
0.08753647353064001 0.003954804315357524 0.02010816181205249 0.9952173864195254 -0.04807054856871863 0.0009621910855593345 0.00959633230547405 -0.0008179264264583433 -0.006100505309377063
 0.9952173864195254 -0.04807054856871863 0.00396088131162622 0.02010768688645453 -0.0008179575782123276 -0.006100502416944827 0.0009248880560919106 0.009600756532656669
 0.0009621910855593345 0.00959633230547405 -0.0008179575782123276 -0.006100502416944827 0.003954912844872994 0.020109308771723594 0.9952174237955906 -0.04806937848547057
 -0.0008179264264583433 -0.006100505309377063 0.0009248880560919106 0.009600756532656669 0.9952174237955906 -0.04806937848547057 0.003960843259941125 0.02010885638526313
0.09378907878283 0.004232295004415446 0.02165631100161264 0.9948506355760189 -0.051594788466239515 0.0010761784575428687 0.010286227281668297 -0.0009127949269933973 -0.006542701513363044
 0.9948506355760189 -0.051594788466239515 0.004239269414974304 0.021655775571994277 -0.0009128306461012543 -0.006542697969984328 0.0010333276974654082 0.010291404651220932
 0.0010761784575428687 0.010286227281668297 -0.0009128306461012543 -0.006542697969984328 0.004232419353097412 0.02165753736834459 0.9948506782518097 -0.05159353444043289
 -0.0009127949269933973 -0.006542701513363044 0.0010333276974654082 0.010291404651220932 0.9948506782518097 -0.05159353444043289 0.004239225086805958 0.021657028048301996
0.100041684035 0.004522541328084161 0.023218011479475657 0.994467158362692 -0.05513112114378164 0.001197004056105448 0.010976341952290587 -0.0010133336534444836 -0.006985327658175597
 0.994467158362692 -0.05513112114378164 0.00453047495071808 0.023217411309016094 -0.001013374245841542 -0.00698532337759142 0.0011482163546606492 0.010982353315368506
 0.001197004056105448 0.010976341952290587 -0.001013374245841542 -0.00698532337759142 0.004522682570910354 0.023219316780856564 0.9944672067057057 -0.055129783068347815
 -0.0010133336534444836 -0.006985327658175597 0.0011482163546606492 0.010982353315368506 0.9944672067057057 -0.055129783068347815 0.00453042382073909 0.023218746652477907
0.1059090909091 0.00480670139683043 0.024695665138365536 0.994091903835685 -0.05846050220712167 0.0013166580891626153 0.011624067199563331 -0.001112889105272665 -0.007401003185067266
 0.994091903835685 -0.05846050220712167 0.004815591382390633 0.02469500024410044 -0.0011129345476310728 -0.007400998129612344 0.0012619445095125746 0.01163093866612366
 0.0013166580891626153 0.011624067199563331 -0.0011129345476310728 -0.007400998129612344 0.0048068594685413525 0.02469704405888961 0.9940919578352656 -0.05845908515228014
 -0.001112889105272665 -0.007401003185067266 0.0012619445095125746 0.01163093866612366 0.9940919578352656 -0.05845908515228014 0.004815533382950657 0.02469641324397349
0.1062942892872 0.004825760575758843 0.024793082144943388 0.99406674217797 -0.0586794450656354 0.001324727063485244 0.01166659323030243 -0.0011196026630106133 -0.0074283015595379654
 0.99406674217797 -0.0586794450656354 0.004834715253068706 0.024792412864264653 -0.0011196484331206758 -0.007428296450289823 0.0012696124184103943 0.011673523879495865
 0.001324727063485244 0.01166659323030243 -0.0011196484331206758 -0.007428296450289823 0.004825919785251056 0.024794465882883386 0.994066796560374 -0.058678022821710675
 -0.0011196026630106133 -0.0074283015595379654 0.0012696124184103943 0.011673523879495865 0.994066796560374 -0.058678022821710675 0.004834656785879903 0.024793830958787545
0.11254689453939999 0.005142169302901544 0.026381343136756063 0.9936491747356659 -0.062239650494197475 0.0014594055926882082 0.012356895974493819 -0.0012316609123055198 -0.007871539599781466
 0.9936491747356659 -0.062239650494197475 0.005152206931401069 0.026380600242303046 -0.0012317121629402197 -0.00787153356518167 0.0013975732531869693 0.01236483569249637
 0.0014594055926882082 0.012356895974493819 -0.0012317121629402197 -0.00787153356518167 0.005142347548757224 0.02638280478123954 0.9936492355347107 -0.06223814395711583
 -0.0012316609123055198 -0.007871539599781466 0.0013975732531869693 0.01236483569249637 0.9936492355347107 -0.06223814395711583 0.005152140581776219 0.026382100960095634
0.11879949979160001 0.005471983284879951 0.027982615007196024 0.9932142441575401 -0.06581162027588094 0.001601096636882259 0.013047163045175728 -0.0013495662152761831 -0.008314956681945377
 0.9932142441575401 -0.06581162027588094 0.00548316582473357 0.02798179385937604 -0.0013496232475523162 -0.008314949620055759 0.0015321551493497794 0.013056206153018278
 0.001601096636882259 0.013047163045175728 -0.0013496232475523162 -0.008314949620055759 0.005472181632883676 0.027984154003896148 0.9932143117552757 -0.06581002930739059
 -0.0013495662152761831 -0.008314956681945377 0.0015321551493497794 0.013056206153018278 0.9932143117552757 -0.06581002930739059 0.0054830910367937745 0.027983377068721796
0.1250521050438 0.005815417465225946 0.029596718084602333 0.9927617390618761 -0.06939523044129738 0.0017498560193946648 0.013737305352141101 -0.0014733751998907002 -0.008758466194035667
 0.9927617390618761 -0.06939523044129738 0.005827806949705532 0.029595813905551095 -0.0014734383131334875 -0.008758457997647327 0.0016734132755169577 0.013747550756872584
 0.0017498560193946648 0.013737305352141101 -0.0014734383131334875 -0.008758457997647327 0.005815636977318734 0.029598333848230466 0.9927618138461103 -0.06939355489615254
 -0.0014733751998907002 -0.008758466194035667 0.0016734132755169577 0.013747550756872584 0.9927618138461103 -0.06939355489615254 0.005827723157539449 0.029597479464468283
0.131304710296 0.006172685900697166 0.03122347194279446 0.9922914486507977 -0.07299035070125628 0.001905738343670543 0.01442723189358487 -0.0016031432642044563 -0.009201979984687842
 0.9922914486507977 -0.07299035070125628 0.006186344445646163 0.03122247981398244 -0.0016032127558409516 -0.009201970541301688 0.0018214016306984206 0.014438783135478039
 0.001905738343670543 0.01442723189358487 -0.0016032127558409516 -0.009201970541301688 0.006172927633773245 0.031225163861386875 0.992291531015146 -0.07298859042273821
 -0.0016031432642044563 -0.009201979984687842 0.0018214016306984206 0.014438783135478039 0.992291531015146 -0.07298859042273821 0.006186251072648897 0.03122422757463553
0.1375573155481 0.006456000299765784 0.03264998186089408 0.9918911871443177 -0.07638407451233523 0.002047808599771646 0.015094975034859253 -0.0017180374082730275 -0.009623474468279382
 0.9918911871443177 -0.07638407451233523 0.006470993912240216 0.032648918885257026 -0.001718113549957789 -0.009623463772190902 0.0019553834167092615 0.015107804054963694
 0.002047808599771646 0.015094975034859253 -0.001718113549957789 -0.009623463772190902 0.0064562645860266115 0.03265174971708232 0.99189127743206 -0.07638222942081335
 -0.0017180374082730275 -0.009623474468279382 0.0019553834167092615 0.015107804054963694 0.99189127743206 -0.07638222942081335 0.0064708911963922925 0.032650748423154935
0.1438099208003 0.006749063695178964 0.034069949273636005 0.9914772364494396 -0.07977018325481698 0.0021956329903485817 0.01576056881947053 -0.001837541959767564 -0.010043039110549963
 0.9914772364494396 -0.07977018325481698 0.006765455189191082 0.03406881197116938 -0.0018376250416277816 -0.010043027055484724 0.0020947616636268875 0.01577476915659059
 0.0021956329903485817 0.01576056881947053 -0.0018376250416277816 -0.010043027055484724 0.006749351453219997 0.034071792469110615 0.991477335052136 -0.07976825320046148
 -0.001837541959767564 -0.010043039110549963 0.0020947616636268875 0.01577476915659059 0.991477335052136 -0.07976825320046148 0.006765342686902069 0.03407072309187744
0.1500625260525 0.0070517850278213 0.03548328464102323 0.991049690685745 -0.08314862247752111 0.002349168524224917 0.016423963448588944 -0.0019616158864107646 -0.01046062744918484
 0.991049690685745 -0.08314862247752111 0.007069637318932719 0.03548206933663414 -0.0019617061964975063 -0.010460613924835485 0.0022394951151231864 0.0164396320265471
 0.002349168524224917 0.016423963448588944 -0.0019617061964975063 -0.010460613924835485 0.0070520971629825435 0.0354852025585456 0.9910497979998879 -0.08314660730090595
 -0.0019616158864107646 -0.01046062744918484 0.0022394951151231864 0.0164396320265471 0.9910497979998879 -0.08314660730090595 0.007069514586539533 0.03548406184040267
0.15631513130469998 0.007364072735869744 0.0368899012974578 0.9906086442910884 -0.08651933735964489 0.0025083717889641827 0.017085109825080918 -0.0020902177300468005 -0.01087619391423415
