! Created with skrf 1.8.0 (http://scikit-rf.org).
# GHz S RI R 50.0 
!freq ReS11 ImS11 ReS12 ImS12 ReS13 ImS13
! ReS14 ImS14
! ReS21 ImS21 ReS22 ImS22 ReS23 ImS23
! ReS24 ImS24
! ReS31 ImS31 ReS32 ImS32 ReS33 ImS33
! ReS34 ImS34
! ReS41 ImS41 ReS42 ImS42 ReS43 ImS43
! ReS44 ImS44
!
0.0 0.001604115191564 0.0 0.9983958848084 0.0 6.208936201133e-05 0.0 -6.208936224365e-05 7.603753873278649e-21
 0.9983958848084 0.0 0.001604115191542 0.0 -6.208936224323e-05 7.603753873227213e-21 6.208936200929e-05 0.0
 6.208936201133e-05 0.0 -6.208936224323e-05 7.603753873227213e-21 0.001604115183034 0.0 0.9983958847999 0.0
 -6.208936224365e-05 7.603753873278649e-21 6.208936200929e-05 0.0 0.9983958847999 0.0 0.001604115183035 0.0
0.005 0.0017261134120836216 0.0013099776860886346 0.99824151923842 -0.0033601476951899342 8.735783243101589e-05 0.0006969014884406938 -8.480874158197189e-05 -0.0004351541619323392
 0.99824151923842 -0.0033601476951899342 0.0017260985112295777 0.0013099864404226126 -8.480994522548907e-05 -0.00043515513559028727 8.743838161240587e-05 0.0006968707126165457
 8.735783243101589e-05 0.0006969014884406938 -8.480994522548907e-05 -0.00043515513559028727 0.0017261129105107292 0.0013100452990647752 0.9982415196068688 -0.0033600806286804394
 -8.480874158197189e-05 -0.0004351541619323392 8.743838161240587e-05 0.0006968707126165457 0.9982415196068688 -0.0033600806286804394 0.0017260997398463917 0.001310052950328881
0.006252605252188 0.001758167449599614 0.001642627398493339 0.9982007000006952 -0.004200998537511089 9.458980423075262e-05 0.0008714561351288048 -9.1249483532694e-05 -0.0005445048407428252
 0.9982007000006952 -0.004200998537511089 0.001758144156566214 0.0016426385397596795 -9.125135610859676e-05 -0.0005445060422029406 9.471565340620683e-05 0.0008714161823885354
 9.458980423075262e-05 0.0008714561351288048 -9.125135610859676e-05 -0.0005445060422029406 0.0017581665804777863 0.001642711911420617 0.9982007004922927 -0.004200914708612665
 -9.1249483532694e-05 -0.0005445048407428252 9.471565340620683e-05 0.0008714161823885354 0.9982007004922927 -0.004200914708612665 0.0017581459929784595 0.001642721662322091
0.01250521050438 0.0019272417073260258 0.003319659385965921 0.9979839506544422 -0.008402749776236616 0.00013613265567356258 0.0017432204236088598 -0.00012793404862408876 -0.0010916245864426607
 0.9979839506544422 -0.008402749776236616 0.001927148692608043 0.0033196836837269547 -0.00012794142353024453 -0.0010916268182593089 0.00013663447450419996 0.0017431244659699883
 0.00013613265567356258 0.0017432204236088598 -0.00012794142353024453 -0.0010916268182593089 0.0019272376793604557 0.003319828163821524 0.9979839520711871 -0.00840258235287091
 -0.00012793404862408876 -0.0010916245864426607 0.00013663447450419996 0.0017431244659699883 0.9979839520711871 -0.00840258235287091 0.0019271554820164906 0.0033198495476887083
0.01875781575657 0.0021117190467905243 0.005020519000433636 0.9977453587561605 -0.01261546853932073 0.0001868171316670749 0.00261588411430095 -0.0001722589137836109 -0.0016405455905123085
 0.9977453587561605 -0.01261546853932073 0.002111510026638705 0.005020558646982406 -0.00017227535343404557 -0.0016405486490419104 0.00018794432335252762 0.0026157128413948354
 0.0001868171316670749 0.00261588411430095 -0.00017227535343404557 -0.0016405486490419104 0.002111709559286291 0.005020771921969998 0.9977453615280738 -0.012615217575781492
 -0.0001722589137836109 -0.0016405455905123085 0.00018794432335252762 0.0026157128413948354 0.9977453615280738 -0.012615217575781492 0.0021115248739380322 0.005020806944248477
0.02501042100875 0.0023119686154075042 0.006742805989553948 0.9974846349993239 -0.016841180975276822 0.0002467432800442995 0.0034894795991104693 -0.00022433586586297693 -0.002191006410274135
 0.9974846349993239 -0.016841180975276822 0.002311597392078027 0.006742863339865931 -0.00022436488781216884 -0.0021910100556112996 0.00024874528750202846 0.0034892105552127572
 0.0002467432800442995 0.0034894795991104693 -0.00022436488781216884 -0.0021910100556112996 0.002311951353195932 0.0067431429442852756 0.9974846395551434 -0.016840846460445327
 -0.00022433586586297693 -0.002191006410274135 0.00024874528750202846 0.0034892105552127572 0.9974846395551434 -0.016840846460445327 0.0023116233938553234 0.006743193721554578
0.03126302626094 0.0025283443031015617 0.008485276965611037 0.9972014757643825 -0.02108074436920279 0.00031601133568695506 0.004363957188071493 -0.0002842733490982861 -0.0027428211234920004
 0.9972014757643825 -0.02108074436920279 0.00252776474064979 0.008485354535329517 -0.00028431843364775506 -0.002742825079086761 0.0003191378751197629 0.004363564754629615
 0.00031601133568695506 0.004363957188071493 -0.00028431843364775506 -0.002742825079086761 0.0025283169418626387 0.008485697829712617 0.9972014825393215 -0.02108032625058603
 -0.0002842733490982861 -0.0027428211234920004 0.0003191378751197629 0.004363564754629615 0.9972014825393215 -0.02108032625058603 0.00252780499202944 0.00848576658722609
0.037515631513130004 0.0027611922125839496 0.01024711501427953 0.9968955708584677 -0.025334577471400103 0.0003947208095396619 0.005239234652306561 -0.00035217725754731254 -0.003295829804042333
 0.9968955708584677 -0.025334577471400103 0.002760358220970238 0.010247215479120239 -0.0003522418517093629 -0.003295833756607036 0.0003992219745949707 0.005238690016975853
 0.0003947208095396619 0.005239234652306561 -0.0003522418517093629 -0.003295833756607036 0.0027611524161110126 0.010247619638618368 0.996895580293459 -0.02533407566713904
 -0.00035217725754731254 -0.003295829804042333 0.0003992219745949707 0.005238690016975853 0.996895580293459 -0.02533407566713904 0.0027604158130483626 0.010247708709124096
0.043768236765320004 0.0030108535399060395 0.012027707419412082 0.9965666066638491 -0.029602882700791682 0.0004829700512068184 0.006115212288023139 -0.0004281512143162516 -0.0038498834702716312
 0.9965666066638491 -0.029602882700791682 0.0030097190621438223 0.012027833615184754 -0.00042823873399764744 -0.0038498870697886013 0.0004890963620796924 0.006114483409439281
 0.0004829700512068184 0.006115212288023139 -0.00042823873399764744 -0.0038498870697886013 0.0030107989570614824 0.012028295635758085 0.9965666192057251 -0.029602297093547246
 -0.0004281512143162516 -0.0038498834702716312 0.0004890963620796924 0.006114483409439281 0.9965666192057251 -0.029602297093547246 0.0030097970803081675 0.012028407458676909
0.050020842017509996 0.0032776659063913985 0.013826553812422801 0.9962142677408332 -0.03388573792214331 0.0005808559793852595 0.006991779144515928 -0.0005122966675756349 -0.004404837870178675
 0.9962142677408332 -0.03388573792214331 0.003276184907797733 0.0138267087355429 -0.0005124104991627356 -0.004404840729938583 0.0005888584023913882 0.006990830715367677
 0.0005808559793852595 0.006991779144515928 -0.0005124104991627356 -0.004404840729938583 0.003277594171742583 0.013827225424302135 0.9962142838443923 -0.03388506836843529
 -0.0005122966675756349 -0.004404837870178675 0.0005888584023913882 0.006990830715367677 0.9962142838443923 -0.03388506836843529 0.003276286431710108 0.01382736254546764
0.055454545454549996 0.0035237227094620984 0.01540429275018557 0.9958888457506696 -0.03761948544735864 0.0006738220364451944 0.007753928465547005 -0.0005921350375012332 -0.004887730833428616
 0.9958888457506696 -0.03761948544735864 0.0035219031981321308 0.015404475196859774 -0.000592274462943771 -0.004887732707797517 0.0006836590212043138 0.007752758001543314
 0.0006738220364451944 0.007753928465547005 -0.000592274462943771 -0.004887732707797517 0.0035236341353327904 0.015405036659156572 0.9958888653245096 -0.03761874279954291
 -0.0005921350375012332 -0.004887730833428616 0.0006836590212043138 0.007752758001543314 0.9958888653245096 -0.03761874279954291 0.003522027643733453 0.015405197915323156
0.056273447269699996 0.0035619640363681072 0.015643221093180615 0.9958382377801454 -0.03818314145406127 0.0006884738853880418 0.007868816083028947 -0.0006047129054235145 -0.004960550438954515
 0.9958382377801454 -0.03818314145406127 0.0035600904950007623 0.015643407901251818 -0.0006048564068121432 -0.0049605521356012 0.0006986038348981042 0.007867609492295197
 0.0006884738853880418 0.007868816083028947 -0.0006048564068121432 -0.0049605521356012 0.0035618727675839536 0.015643975883499292 0.9958382579074537 -0.038182387776760314
 -0.0006047129054235145 -0.004960550438954515 0.0006986038348981042 0.007867609492295197 0.9958382579074537 -0.038182387776760314 0.0035602185957034588 0.015644140955009444
0.06252605252188 0.0038640801132947063 0.0174773186382923 0.9954382002369035 -0.042495036792929076 0.0008059172746912005 0.008746197463945326 -0.000705497027715584 -0.005516878632379282
 0.9954382002369035 -0.042495036792929076 0.003861768010332111 0.01747754065135737 -0.0007056735289045094 -0.005516878705977329 0.0008184266032856374 0.008744690758911341
 0.0008059172746912005 0.008746197463945326 -0.0007056735289045094 -0.005516878705977329 0.003863966910742115 0.017478156361859416 0.9954382248597021 -0.04249419878909463
 -0.000705497027715584 -0.005516878632379282 0.0008184266032856374 0.008744690758911341 0.9954382248597021 -0.04249419878909463 0.003861925750463863 0.017478352142316574
0.06877865777407 0.0041843439603535485 0.0193284835236339 0.9950138387946139 -0.0468213273276586 0.0009332777273989992 0.009623792154352901 -0.0008147438951126571 -0.006073678944774773
 0.9950138387946139 -0.0468213273276586 0.004181547271661298 0.019328744225391156 -0.0008149566988227949 -0.006073676898870253 0.0009484187076885222 0.00962194000254448
 0.0009332777273989992 0.009623792154352901 -0.0008149566988227949 -0.006073676898870253 0.004184206406286932 0.01932940391139808 0.9950138683948073 -0.04682040476458526
 -0.0008147438951126571 -0.006073678944774773 0.0009484187076885222 0.00962194000254448 0.9950138683948073 -0.04682040476458526 0.004181737703304674 0.019329633266403908
0.07503126302626001 0.004523083117461579 0.02119637116913369 0.9945648377282148 -0.05116188563747356 0.0010706447715511254 0.010501464175716931 -0.0009325460626180423 -0.006630806292078304
 0.9945648377282148 -0.05116188563747356 0.0045197558043812746 0.021196674208617382 -0.000932798444551288 -0.006630801593766258 0.001088670071780988 0.010499217827015166
 0.0010706447715511254 0.010501464175716931 -0.000932798444551288 -0.006630801593766258 0.004522918774710467 0.021197373925229766 0.9945648727991807 -0.05116087825595873
 -0.0009325460626180423 -0.006630806292078304 0.001088670071780988 0.010499217827015166 0.9945648727991807 -0.05116087825595873 0.004519981967989603 0.021197639828231394
0.08128386827845 0.0048806228518494706 0.02308064909737134 0.994090882206258 -0.05551655968183767 0.0012181057627753504 0.011379073140389172 -0.0010589937042716653 -0.0071881136116759455
 0.994090882206258 -0.05551655968183767 0.004876718853330381 0.023080998290882327 -0.0010592889133876095 -0.007188105691663238 0.0012392684176202981 0.011376380389414213
 0.0012181057627753504 0.011379073140389172 -0.0010592889133876095 -0.007188105691663238 0.004880429262899946 0.02308173390458142 0.9940909232534489 -0.05551546719113331
 -0.0010589937042716653 -0.0071881136116759455 0.0012392684176202981 0.011376380389414213 0.9940909232534489 -0.05551546719113331 0.0048769837759439815 0.02308203943794923
0.08753647353064001 0.005257286125595078 0.02498099263824476 0.9935916585525162 -0.05988517705069233 0.0013757457696685672 0.012256474564055249 -0.0011941745303201922 -0.007745451592089131
 0.9935916585525162 -0.05988517705069233 0.005252759348945738 0.02498139197163323 -0.0011945157889178075 -0.007745439844783176 0.0014002991470175256 0.012253279712907706
 0.0013757457696685672 0.012256474564055249 -0.0011945157889178075 -0.007745439844783176 0.005257060811753804 0.02498215915274595 0.9935917060955275 -0.05988399913431143
 -0.0011941745303201922 -0.007745451592089131 0.0014002991470175256 0.012253279712907706 0.9935917060955275 -0.05988399913431143 0.0052530660433740125 0.024982507509129764
0.09378907878283 0.0056533935328856935 0.026897081851147624 0.9930668544829222 -0.06426754800393958 0.0015436474614875973 0.013133520092493953 -0.0013381737002697818 -0.008302668494421349
 0.9930668544829222 -0.06426754800393958 0.005648197846140922 0.02689753548229881 -0.0013385642041627772 -0.008302652277996847 0.001571845225981321 0.013129763913879256
 0.0015436474614875973 0.013133520092493953 -0.0013385642041627772 -0.008302652277996847 0.005653133993210803 0.026898329703783398 0.9930669090553631 -0.06426628431881977
 -0.0013381737002697818 -0.008302668494421349 0.001571845225981321 0.013129763913879256 0.9930669090553631 -0.06426628431881977 0.0056485493084774165 0.02689872418785803
0.100041684035 0.006069263215639733 0.028828599274991547 0.992516159322175 -0.06866346768994676 0.0017218909983551698 0.01401005768175116 -0.0014910737323514114 -0.008859610026473251
 0.992516159322175 -0.06866346768994676 0.006063352438384804 0.0288291115367496 -0.0014915166507589275 -0.008859588662958854 0.0017539870719621448 0.014005677382716082
 0.0017218909983551698 0.01401005768175116 -0.0014915166507589275 -0.008859588662958854 0.006068966925479813 0.02882992807413547 0.9925162214735638 -0.06866211786421686
 -0.0014910737323514114 -0.008859610026473251 0.0017539870719621448 0.014005677382716082 0.9925162214735638 -0.06866211786421686 0.0060637516470110325 0.028830372104637025
0.1059090909091 0.006477767535331681 0.030654873211908826 0.9919755675059622 -0.07280070020488352 0.0018986285559189151 0.014831994722773087 -0.0016427205386045536 -0.009381850383073815
 0.9919755675059622 -0.07280070020488352 0.006471143670931757 0.03065544459156131 -0.0016432155012375796 -0.00938182354082273 0.001934613911010036 0.01482696843572097
 0.0018986285559189151 0.014831994722773087 -0.0016432155012375796 -0.00938182354082273 0.006477434441138967 0.030656277594170958 0.9919756372840784 -0.07279926918244782
 -0.0016427205386045536 -0.009381850383073815 0.001934613911010036 0.01482696843572097 0.9919756372840784 -0.07279926918244782 0.006471590375783961 0.030656771331719346
0.1062942892872 0.006505210762468109 0.030775228240558727 0.9919392642097389 -0.07307271780906129 0.001910553922975909 0.014885931740069186 -0.001652954409919835 -0.009416119261528836
 0.9919392642097389 -0.07307271780906129 0.006498538658014025 0.03077580364388883 -0.0016534528855544782 -0.009416092036887145 0.0019468024433606029 0.01488086092621239
 0.001910553922975909 0.014885931740069186 -0.0016534528855544782 -0.009416092036887145 0.006504875173065639 0.030776637573096326 0.9919393345064125 -0.07307128144172435
 -0.001652954409919835 -0.009416119261528836 0.0019468024433606029 0.01488086092621239 0.9919393345064125 -0.07307128144172435 0.006498988571813071 0.030777134685189545
0.11254689453939999 0.006961549096210649 0.032736651586196916 0.9913358622958535 -0.07749506788127263 0.002109711053307152 0.01576098324736656 -0.0018238926865703218 -0.009972036586101402
 0.9913358622958535 -0.07749506788127263 0.006954069362764576 0.03273729482373061 -0.0018244498355247203 -0.00997200275032341 0.0021503663296028315 0.015755151887666158
 0.002109711053307152 0.01576098324736656 -0.0018244498355247203 -0.00997200275032341 0.006961171633511597 0.03273814101194661 0.9913359413220785 -0.07749354454846798
 -0.0018238926865703218 -0.009972036586101402 0.0021503663296028315 0.015755151887666158 0.9913359413220785 -0.07749354454846798 0.006954572919488783 0.03273869485993235
0.11879949979160001 0.007438588351443227 0.03471255065445344 0.9907056489312408 -0.08193027624059325 0.002319434376201658 0.01663504985933273 -0.0020039625891513594 -0.010527199669544168
 0.9907056489312408 -0.08193027624059325 0.007430254613766777 0.03471326660441677 -0.0020045815008675337 -0.01052715843674138 0.0023647508430977796 0.016628384251705767
 0.002319434376201658 0.01663504985933273 -0.0020045815008675337 -0.01052715843674138 0.007438166414875518 0.03471411971419634 0.9907057372904045 -0.08192866548838089
 -0.0020039625891513594 -0.010527199669544168 0.0023647508430977796 0.016628384251705767 0.9907057372904045 -0.08192866548838089 0.007430814728181744 0.03471473407458551
0.1250521050438 0.007936635744279611 0.03670260451238061 0.9900483218525168 -0.08637809081379254 0.002539792941690445 0.017507965999925552 -0.002193235120182471 -0.011081443452232321
 0.9900483218525168 -0.08637809081379254 0.00792740154514237 0.03670339824278675 -0.0021939188572651495 -0.011081394000711241 0.00259002511137034 0.017500388737348015
 0.002539792941690445 0.017507965999925552 -0.0021939188572651495 -0.011081394000711241 0.007936166705957112 0.036704252724280156 0.9900484201681751 -0.08637639216257763
 -0.002193235120182471 -0.011081443452232321 0.00259002511137034 0.017500388737348015 0.9900484201681751 -0.08637639216257763 0.007928021107588295 0.036704931499202294
0.131304710296 0.00845599543616986 0.03870648932408999 0.9893635813636823 -0.09083824975501256 0.0027708527580203616 0.018379562946439814 -0.0023917781590362635 -0.011634600147696085
 0.9893635813636823 -0.09083824975501256 0.008445814227955999 0.0387073660973512 -0.0023925297571596852 -0.01163454162012984 0.002826255170548145 0.018370992883997288
 0.0027708527580203616 0.018379562946439814 -0.0023925297571596852 -0.01163454162012984 0.0084554766397347 0.03870821618597375 0.9893636902807496 -0.09083646269815636
 -0.0023917781590362635 -0.011634600147696085 0.002826255170548145 0.018370992883997288 0.9893636902807496 -0.09083646269815636 0.00844649610210054 0.038708963407048776
0.1375573155481 0.008880180782070519 0.0404623636961545 0.9887679694454643 -0.09504882565215435 0.0029838744900163167 0.019223595265070784 -0.002570797097530274 -0.012160493411896824
 0.9887679694454643 -0.09504882565215435 0.00886900357527443 0.04046331026408221 -0.0025716212050414535 -0.01216042571821534 0.003044578278220649 0.01921404234977314
 0.0029838744900163167 0.019223595265070784 -0.0025716212050414535 -0.01216042571821534 0.00887961053157368 0.0404641685490836 0.9887680894636731 -0.0950469498725201
 -0.002570797097530274 -0.012160493411896824 0.003044578278220649 0.01921404234977314 0.9887680894636731 -0.0950469498725201 0.008869749918497 0.040464970323928096
0.1438099208003 0.009319364079523544 0.04220857301685617 0.9881512773813492 -0.09924831867500185 0.003205485666947685 0.020064041179333802 -0.0027569684989579395 -0.012683048181975
 0.9881512773813492 -0.09924831867500185 0.009307143861935275 0.04220959347894972 -0.0027578684028895218 -0.012682970472626282 0.003271723123981927 0.020053430890945006
 0.003205485666947685 0.020064041179333802 -0.0027578684028895218 -0.012682970472626282 0.009318739850351943 0.042210455289864404 0.9881514091469135 -0.09924635367333516
 -0.0027569684989579395 -0.012683048181975 0.003271723123981927 0.020053430890945006 0.9881514091469135 -0.09924635367333516 0.009307957373076577 0.04221131451546093
0.1500625260525 0.009773385144388911 0.0439449589815483 0.9875136697783429 -0.10343661220050074 0.003435606363447111 0.020900809515499098 -0.0029502136685182123 -0.013202176452644062
 0.9875136697783429 -0.10343661220050074 0.009760074809873837 0.04394605766216131 -0.002951192649304154 -0.013202087843797682 0.0035076083855685235 0.020889064596445156
 0.003435606363447111 0.020900809515499098 -0.002951192649304154 -0.013202087843797682 0.009772704395494382 0.04394691808158574 0.9875138139557226 -0.10343455745874286
 -0.0029502136685182123 -0.013202176452644062 0.0035076083855685235 0.020889064596445156 0.9875138139557226 -0.10343455745874286 0.009760958153964468 0.04394783783267634
0.15631513130469998 0.010242082585189254 0.04567136801884699 0.9868553121593705 -0.10761359027812448 0.003674155675691804 0.021733810736225104 -0.003150452904733362 -0.0137177921402482
 0.9868553121593705 -0.10761359027812448 0.010227634930242955 0.04567254947164105 -0.0031515142362540166 -0.013717691713836659 0.003752151740655961 0.021720851219805683
