! Created with skrf 1.8.0 (http://scikit-rf.org).
# GHz S RI R 50.0 
!freq ReS11 ImS11 ReS12 ImS12 ReS13 ImS13
! ReS14 ImS14
! ReS21 ImS21 ReS22 ImS22 ReS23 ImS23
! ReS24 ImS24
! ReS31 ImS31 ReS32 ImS32 ReS33 ImS33
! ReS34 ImS34
! ReS41 ImS41 ReS42 ImS42 ReS43 ImS43
! ReS44 ImS44
!
0.0 0.001678039921977 0.0 0.998321960078 0.0 6.531818810483e-05 0.0 -6.531818922613e-05 7.999171136188124e-21
 0.998321960078 0.0 0.001678039922007 0.0 -6.53181892265e-05 7.999171136233436e-21 6.531818810508e-05 0.0
 6.531818810483e-05 0.0 -6.53181892265e-05 7.999171136233436e-21 0.001678039907868 0.0 0.9983219600638 0.0
 -6.531818922613e-05 7.999171136188124e-21 6.531818810508e-05 0.0 0.9983219600638 0.0 0.001678039907882 0.0
0.005 0.0018059300481669666 0.0013655021009964911 0.9981600553161911 -0.003515009506994948 9.28752739768387e-05 0.0007609926334230741 -8.986179800337308e-05 -0.00047037312876261397
 0.9981600553161911 -0.003515009506994948 0.001805951351997025 0.0013654895907921941 -8.986100377509815e-05 -0.00047037245731636505 9.275444118867789e-05 0.0007610387892651878
 9.28752739768387e-05 0.0007609926334230741 -8.986100377509815e-05 -0.00047037245731636505 0.001805931116311428 0.0013655687033077679 0.9981600556837735 -0.0035149424376554913
 -8.986179800337308e-05 -0.00047037312876261397 9.275444118867789e-05 0.0007610387892651878 0.9981600556837735 -0.0035149424376554913 0.0018059510102378879 0.0013655571185966313
0.006252605252188 0.0018395979728019738 0.0017122632909761949 0.9981171371959955 -0.004394603908798965 0.00010083936412462421 0.0009515804983807771 -9.686004894482659e-05 -0.0005885758567182115
 0.9981171371959955 -0.004394603908798965 0.0018396312748743054 0.001712247374522166 -9.68588135644933e-05 -0.0005885750276447849 0.0001006505767326367 0.0009516404349258333
 0.00010083936412462421 0.0009515804983807771 -9.68588135644933e-05 -0.0005885750276447849 0.0018395995726035203 0.0017123465139466968 0.9981171377003321 -0.0043945200914799745
 -9.686004894482659e-05 -0.0005885758567182115 0.0001006505767326367 0.0009516404349258333 0.9981171377003321 -0.0043945200914799745 0.0018396306697417584 0.0017123317672413363
0.01250521050438 0.00201756819298612 0.0034604563266996454 0.9978886414174977 -0.008789900087203477 0.0001469916111825961 0.0019033223513241174 -0.00013693571114388998 -0.0011799545089070565
 0.9978886414174977 -0.008789900087203477 0.0020177011762538364 0.003460421674691694 -0.00013693084864237104 -0.0011799529629791185 0.00014623883580827877 0.0019034665578750059
 0.0001469916111825961 0.0019033223513241174 -0.00013693084864237104 -0.0011799529629791185 0.0020175740291157006 0.003460622414015615 0.9978886428756711 -0.008789732670666352
 -0.00013693571114388998 -0.0011799545089070565 0.00014623883580827877 0.0019034665578750059 0.9978886428756711 -0.008789732670666352 0.0020176981925997682 0.003460590245258976
0.01875781575657 0.002212366817321614 0.005233489986656263 0.9976361694246785 -0.013196561064428602 0.00020388446158524254 0.0028558850877320094 -0.00018567548460577608 -0.0017732068258690971
 0.9976361694246785 -0.013196561064428602 0.0022126656534313836 0.005233433561130873 -0.00018566464955155958 -0.0017732046963238397 0.00020219358997080488 0.002856142994334927
 0.00020388446158524254 0.0028558850877320094 -0.00018566464955155958 -0.0017732046963238397 0.002212379519745774 0.005233738632019949 0.9976361722843354 -0.013196310121620246
 -0.00018567548460577608 -0.0017732068258690971 0.00020219358997080488 0.002856142994334927 0.9976361722843354 -0.013196310121620246 0.0022126585068014673 0.005233686195085931
0.02501042100875 0.0024243960791009603 0.007028833175269389 0.9973594052540352 -0.017616687596244542 0.00027162940705171217 0.0038092941155427225 -0.00024320460332935255 -0.002368030084096639
 0.9973594052540352 -0.017616687596244542 0.0024249268170473265 0.00702875174007994 -0.00024318548118087665 -0.0023680275276840987 0.0002686262994814515 0.0038097000819479676
 0.00027162940705171217 0.0038092941155427225 -0.00024318548118087665 -0.0023680275276840987 0.0024244182747061647 0.007029164059130339 0.9973594099639371 -0.017616353121086777
 -0.00024320460332935255 -0.002368030084096639 0.0002686262994814515 0.0038097000819479676 0.9973594099639371 -0.017616353121086777 0.002424913710783618 0.007029088356317473
0.03126302626094 0.002654041482157629 0.008845165079631935 0.9970580178965412 -0.022051156395693612 0.0003503382867910471 0.0047634815232518845 -0.00030964420897590926 -0.0029642071113725253
 0.9970580178965412 -0.022051156395693612 0.0026548700852321266 0.008845055203825076 -0.0003096145108778353 -0.002964204308610735 0.000345648432202875 0.004764074866531117
 0.0003503382867910471 0.0047634815232518845 -0.0003096145108778353 -0.002964204308610735 0.002654075797705553 0.008845577814874044 0.9970580249107456 -0.022050738356955018
 -0.00030964420897590926 -0.0029642071113725253 0.000345648432202875 0.004764074866531117 0.9970580249107456 -0.022050738356955018 0.0026548492120725903 0.008845475700592754
0.037515631513130004 0.0029016797920897244 0.010681610655864112 0.9967316696031586 -0.026500384589628143 0.00044012203468641513 0.005718342287047676 -0.0003851122761455963 -0.00356155009407213
 0.9967316696031586 -0.026500384589628143 0.0029028721628064527 0.010681468714635179 -0.00038506973624340336 -0.0035615472492404733 0.00043337040442058977 0.005719167329309857
 0.00044012203468641513 0.005718342287047676 -0.00038506973624340336 -0.0035615472492404733 0.0029017288509272723 0.010682104789497122 0.9967316793791777 -0.026499882928562868
 -0.0003851122761455963 -0.00356155009407213 0.00043337040442058977 0.005719167329309857 0.9967316793791777 -0.026499882928562868 0.00290284170124835 0.010681972972151227
0.043768236765320004 0.0031676821108175667 0.01253750798719204 0.9963800192783118 -0.03096456229261938 0.0005410900867801625 0.006673751369043963 -0.0004697239316137234 -0.004159883499114535
 0.9963800192783118 -0.03096456229261938 0.0031693041112492784 0.012537330162173697 -0.0004696663054548014 -0.004159880840249512 0.0005319010714288951 0.006674857491387467
 0.0005410900867801625 0.006673751369043963 -0.0004696663054548014 -0.004159880840249512 0.0031677485333435804 0.012538083012514849 0.9963800322792968 -0.030963976910298435
 -0.0004697239316137234 -0.004159883499114535 0.0005319010714288951 0.006674857491387467 0.9963800322792968 -0.030963976910298435 0.0031692622256342625 0.012537918055246813
0.050020842017509996 0.0034524152952913746 0.014412312165831375 0.9960027242222746 -0.03544374865632135 0.0006533500194067521 0.007629570797035003 -0.0005635915605106133 -0.004759037019639558
 0.9960027242222746 -0.03544374865632135 0.0034545327647486626 0.014412094444457247 -0.0005635166239888425 -0.0047590347984506785 0.0006413474096534777 0.007631012495915609
 0.0006533500194067521 0.007629570797035003 -0.0005635166239888425 -0.0047590347984506785 0.0034525016975563345 0.014412967496023558 0.9960027409178993 -0.035443079439332566
 -0.0005635915605106133 -0.004759037019639558 0.0006413474096534777 0.007631012495915609 0.9960027409178993 -0.035443079439332566 0.0034544776041117086 0.014412765817041423
0.055454545454549996 0.0037153510726574356 0.01605655824869963 0.9956537501343891 -0.039348468627542335 0.0007601596517207083 0.008460425778228775 -0.0006527675872014967 -0.005280254737680363
 0.9956537501343891 -0.039348468627542335 0.0037179525837868453 0.0160563024458803 -0.0006526758164197279 -0.005280253119615679 0.0007454059548488122 0.008462207377050649
 0.0007601596517207083 0.008460425778228775 -0.0006526758164197279 -0.005280253119615679 0.0037154569581044745 0.0160572828432585 0.9956537704274369 -0.0393477264362153
 -0.0006527675872014967 -0.005280254737680363 0.0007454059548488122 0.008462207377050649 0.9956537704274369 -0.0393477264362153 0.0037178843709660975 0.016057046230293956
0.056273447269699996 0.003756242669809652 0.0163055480750947 0.9955994411728764 -0.039937919021381135 0.0007770072914864727 0.008585653124447984 -0.0006668248147191293 -0.005358842146248825
 0.9955994411728764 -0.039937919021381135 0.0037589214411150504 0.01630528624954193 -0.0006667303633143484 -0.005358840638069803 0.0007618142858828123 0.00858749006900595
 0.0007770072914864727 0.008585653124447984 -0.0006667303633143484 -0.005358840638069803 0.0037563516624427033 0.016306283062515352 0.9955994620397512 -0.03993716582209064
 -0.0006668248147191293 -0.005358842146248825 0.0007618142858828123 0.00858749006900595 0.9955994620397512 -0.03993716582209064 0.0037588511384002783 0.016306040934714036
0.06252605252188 0.0040795243931774205 0.018216784480147782 0.9951698270064788 -0.044446990766300036 0.0009121650344850539 0.009541843366937627 -0.0007795305760709219 -0.005959130268060217
 0.9951698270064788 -0.044446990766300036 0.0040828303083412865 0.018216474145670916 -0.0007794144243283641 -0.005959129771769253 0.000893404264954469 0.009544140456535774
 0.0009121650344850539 0.009541843366937627 -0.0007794144243283641 -0.005959129771769253 0.004079658580028181 0.018217598400517312 0.9951698525297501 -0.04444615341805578
 -0.0007795305760709219 -0.005959130268060217 0.000893404264954469 0.009544140456535774 0.9951698525297501 -0.04444615341805578 0.004082742979547259 0.018217311950630442
0.06877865777407 0.0044226176376478766 0.020145618550240336 0.9947135392564814 -0.04897083873073639 0.0010589238736248205 0.010497980145144411 -0.0009018128888573073 -0.006559731574437723
 0.9947135392564814 -0.04897083873073639 0.004426616563206353 0.020145255102964808 -0.0009016728700828432 -0.006559732412381184 0.0010362174435810524 0.010500807566722637
 0.0010589238736248205 0.010497980145144411 -0.0009016728700828432 -0.006559732412381184 0.00442277961504972 0.02014651060878453 0.9947135699301555 -0.048969917041232255
 -0.0009018128888573073 -0.006559731574437723 0.0010362174435810524 0.010500807566722637 0.9947135699301555 -0.048969917041232255 0.004426510306427443 0.0201461758160327
0.07503126302626001 0.004785876654648686 0.022091666071669274 0.9942302365216908 -0.053509304955496446 0.0012173817643236868 0.011453896432099387 -0.0010337728769769944 -0.007160474359290065
 0.9942302365216908 -0.053509304955496446 0.004790634496265225 0.022091244705894745 -0.0010336068428601105 -0.0071604768772234074 0.0011903512963803945 0.011457329717011081
 0.0012173817643236868 0.011453896432099387 -0.0010336068428601105 -0.0071604768772234074 0.004786069009280876 0.02209263540550762 0.9942302728500026 -0.053508298704044166
 -0.0010337728769769944 -0.007160474359290065 0.0011903512963803945 0.011457329717011081 0.9942302728500026 -0.053508298704044166 0.004790507390707675 0.022092248099588943
0.08128386827845 0.005169652769337224 0.02405455493496708 0.9937195788102693 -0.05806220515612079 0.0013876338398234247 0.012409420058048537 -0.0011755086491846477 -0.007761184575400819
 0.9937195788102693 -0.05806220515612079 0.005175235486702002 0.024054070639900903 -0.0011753144696558225 -0.007761189142401757 0.0013559005309701198 0.012413540138317226
 0.0013876338398234247 0.012409420058048537 -0.0011753144696558225 -0.007761189142401757 0.0051698780776447345 0.024055600602535226 0.9937196213086671 -0.05806111410375385
 -0.0011755086491846477 -0.007761184575400819 0.0013559005309701198 0.012413540138317226 0.9937196213086671 -0.05806111410375385 0.005175085592379683 0.02405515646118206
0.08753647353064001 0.00557429432916245 0.026033920634247806 0.9931812278403163 -0.06262933319237124 0.0015697722655873372 0.01336437406987881 -0.0013271151970149612 -0.008361685541948098
 0.9931812278403163 -0.06262933319237124 0.00558076795098852 0.026033368190115903 -0.0013268907601595064 -0.008361692550340775 0.0015329569484434714 0.013369267333518816
 0.0015697722655873372 0.01336437406987881 -0.0013268907601595064 -0.008361692550340775 0.005574555155579035 0.02603504162354948 0.993181277035689 -0.06262815707333452
 -0.0013271151970149612 -0.008361685541948098 0.0015329569484434714 0.013369267333518816 0.993181277035689 -0.06262815707333452 0.005580593306848494 0.02603453616948917
0.09378907878283 0.006000146618874095 0.02802940306301548 0.9926148473108243 -0.06721046425004462 0.0017638860983491594 0.01431857700511657 -0.0014886842874780835 -0.008961797745317652
 0.9926148473108243 -0.06721046425004462 0.006007577256949289 0.02802877703670802 -0.001488427499298886 -0.008961807610601847 0.0017216093075578085 0.014324335350587747
 0.0017638860983491594 0.01431857700511657 -0.001488427499298886 -0.008961807610601847 0.0060004455145573924 0.028030598287490077 0.9926149037439979 -0.06720920277563998
 -0.0014886842874780835 -0.008961797745317652 0.0017216093075578085 0.014324335350587747 0.9926149037439979 -0.06720920277563998 0.0060073758813592925 0.0280300268847889
0.100041684035 0.006447551752700514 0.03004064416511135 0.9920201031555717 -0.07180535717666764 0.0019700611486472585 0.01527184310352484 -0.001660304351529654 -0.009561338710497042
 0.9920201031555717 -0.07180535717666764 0.006456005616891047 0.03003993890513085 -0.0016600131360071557 -0.00956135187126357 0.00192194319175231 0.015278563993092714
 0.0019700611486472585 0.01527184310352484 -0.0016600131360071557 -0.00956135187126357 0.006447891253817105 0.030041912464746683 0.9920201673805903 -0.07180401003392764
 -0.001660304351529654 -0.009561338710497042 0.00192194319175231 0.015278563993092714 0.9920201673805903 -0.07180401003392764 0.006455775505603667 0.03004127031459963
0.1059090909091 0.006887297953904819 0.031941994275343215 0.9914359070271649 -0.0761294654796374 0.0021745775823137337 0.01616536109444423 -0.0018305685757833735 -0.010123259563774935
 0.9914359070271649 -0.0761294654796374 0.006896772324797041 0.03194120932355755 -0.0018302431816773943 -0.010123276236400901 0.0021206328478204062 0.016173078872488388
 0.0021745775823137337 0.01616536109444423 -0.0018302431816773943 -0.010123276236400901 0.006887677850907779 0.03194333002612595 0.9914359790815268 -0.07612803764163042
 -0.0018305685757833735 -0.010123259563774935 0.0021206328478204062 0.016173078872488388 0.9914359790815268 -0.07612803764163042 0.0068965134046551435 0.03194261697319278
0.1062942892872 0.00691684854878172 0.03206728618295555 0.9913966637803938 -0.07641375622905065 0.0021883798455478083 0.016223982480765665 -0.0018420603702561113 -0.010160122918636728
 0.9913966637803938 -0.07641375622905065 0.0069263919618271635 0.032066495813829345 -0.0018417326692580361 -0.010160139836502283 0.002134040877722125 0.016231768992713797
 0.0021883798455478083 0.016223982480765665 -0.0018417326692580361 -0.010160139836502283 0.006917231175101077 0.032068626322842235 0.9913967363666343 -0.07641232308213529
 -0.0018420603702561113 -0.010160122918636728 0.002134040877722125 0.016231768992713797 0.9913967363666343 -0.07641232308213529 0.006926131087529007 0.03206790845869568
0.11254689453939999 0.007408372390417708 0.03410897032130229 0.9907442002925179 -0.08103539241508696 0.0024189211036248636 0.017174801276409447 -0.0020340337585331965 -0.010757961758803747
 0.9907442002925179 -0.08103539241508696 0.007419071802429469 0.03410808873731585 -0.0020336675318533975 -0.010757982918288467 0.0023579812059111773 0.017183762156047718
 0.0024189211036248636 0.017174801276409447 -0.0020336675318533975 -0.010757982918288467 0.007408800643986778 0.034110380990310635 0.9907442818253986 -0.0810338729063868
 -0.0020340337585331965 -0.010757961758803747 0.0023579812059111773 0.017183762156047718 0.9907442818253986 -0.0810338729063868 0.007418778114067969 0.034109582272439085
0.11879949979160001 0.007922455077819853 0.036165335713538235 0.9900623867222729 -0.0856699845426343 0.002661760191250932 0.018124101784970766 -0.0022363022475797565 -0.011354663505189584
 0.9900623867222729 -0.0856699845426343 0.007934377080935856 0.03616435657187517 -0.0022358954728449814 -0.011354689413677128 0.002593839452042965 0.01813435149425385
 0.002661760191250932 0.018124101784970766 -0.0022358954728449814 -0.011354689413677128 0.007922931441298887 0.03616681552650633 0.990062477804417 -0.08566837829072521
 -0.0022363022475797565 -0.011354663505189584 0.002593839452042965 0.01813435149425385 0.990062477804417 -0.08566837829072521 0.007934048502862875 0.03616593063583395
0.1250521050438 0.008459424670885781 0.03823601861477415 0.9893509002393515 -0.09031724005192465 0.002916968600400418 0.019071682572711014 -0.0024489397662099226 -0.011950033317332633
 0.9893509002393515 -0.09031724005192465 0.008472636014255762 0.038234935327942476 -0.0024484904390283968 -0.011950064504983586 0.002841687199818049 0.019083341338496672
 0.002916968600400418 0.019071682572711014 -0.0024484904390283968 -0.011950064504983586 0.008459951605858272 0.0382375661107061 0.9893510014912532 -0.09031554665338425
 -0.0024489397662099226 -0.011950033317332633 0.002841687199818049 0.019083341338496672 0.9893510014912532 -0.09031554665338425 0.008472270445083117 0.038236589541994284
0.131304710296 0.009019605326273683 0.04032065176264641 0.9886094213650422 -0.09497685569031518 0.0031846139175804055 0.020017338589774565 -0.00267201632182322 -0.012543873253836003
 0.9886094213650422 -0.09497685569031518 0.009034172930729363 0.04031945749026414 -0.00267152245570158 -0.01254391027347127 0.003101592214644214 0.020030532450631317
 0.0031846139175804055 0.020017338589774565 -0.00267152245570158 -0.01254391027347127 0.00902018527160474 0.040322265407309675 0.9886095334265059 -0.0949750747172928
 -0.00267201632182322 -0.012543873253836003 0.003101592214644214 0.020030532450631317 0.9886095334265059 -0.0949750747172928 0.009033768242511604 0.04032119146173743
0.1375573155481 0.009479491359609073 0.04214579095923229 0.9879615156134358 -0.09937530562239734 0.0034328934812093595 0.020933768105047237 -0.002873830561593366 -0.013108841242114477
 0.9879615156134358 -0.09937530562239734 0.009495486324501924 0.04214450494652418 -0.0028732890273008363 -0.013108884163427516 0.0033419369792971393 0.020948484697690863
 0.0034328934812093595 0.020933768105047237 -0.0028732890273008363 -0.013108884163427516 0.009480125960368424 0.04214746971173032 0.9879616389927308 -0.09937343682072228
 -0.002873830561593366 -0.013108841242114477 0.0033419369792971393 0.020948484697690863 0.9879616389927308 -0.09937343682072228 0.009495041414174107 0.042146318035326244
0.1438099208003 0.009955673118320888 0.043960375295299066 0.9872905533774557 -0.10376167884684755 0.0036911993899822583 0.021845926134448423 -0.003083696379706242 -0.013669943998295011
 0.9872905533774557 -0.10376167884684755 0.009973163197651168 0.04395899229277687 -0.003083105011293988 -0.013669993373059176 0.003591962106214918 0.02186228144384043
 0.0036911993899822583 0.021845926134448423 -0.003083105011293988 -0.013669993373059176 0.00995636463860474 0.04396211760196377 0.9872906887147277 -0.10375972179757369
 -0.003083696379706242 -0.013669943998295011 0.003591962106214918 0.02186228144384043 0.9872906887147277 -0.10375972179757369 0.009972676083604255 0.04396088403778288
0.1500625260525 0.01044796857713555 0.045764225976433724 0.9865967213838085 -0.10813583881724281 0.003959434473498139 0.02275370062956059 -0.0033015202133446987 -0.014227077767568055
 0.9865967213838085 -0.10813583881724281 0.010467021703496037 0.04576274041968498 -0.0033008768485147393 -0.01422713416996537 0.0038515727260321235 0.022771814880333686
 0.003959434473498139 0.02275370062956059 -0.0033008768485147393 -0.01422713416996537 0.010448719250031248 0.04576603022111132 0.9865968693356341 -0.10813379308870143
 -0.0033015202133446987 -0.014227077767568055 0.0038515727260321235 0.022771814880333686 0.9865968693356341 -0.10813379308870143 0.010466490390563328 0.04576471033937576
0.15631513130469998 0.010956194240950547 0.047557169559716624 0.9858802075053388 -0.11249765008295005 0.004237500307091278 0.023656981618483373 -0.003527207252393111 -0.014780141156887834
