! Created with skrf 1.8.0 (http://scikit-rf.org).
# GHz S RI R 50.0 
!freq ReS11 ImS11 ReS12 ImS12 ReS13 ImS13
! ReS14 ImS14
! ReS21 ImS21 ReS22 ImS22 ReS23 ImS23
! ReS24 ImS24
! ReS31 ImS31 ReS32 ImS32 ReS33 ImS33
! ReS34 ImS34
! ReS41 ImS41 ReS42 ImS42 ReS43 ImS43
! ReS44 ImS44
!
0.0 0.001624232693692 0.0 0.9983757672864 0.0 6.256349674484e-05 0.0 -6.256349665611e-05 7.661818592337125e-21
 0.9983757672864 0.0 0.001624232693699 0.0 -6.256349665662e-05 7.661818592399581e-21 6.256349674548e-05 0.0
 6.256349674484e-05 0.0 -6.256349665662e-05 7.661818592399581e-21 0.001624232703653 0.0 0.9983757672964 0.0
 -6.256349665611e-05 7.661818592337125e-21 6.256349674548e-05 0.0 0.9983757672964 0.0 0.001624232703638 0.0
0.005 0.0017477365451804097 0.001332651724176462 0.9982195002904689 -0.0034018621138905336 8.71397086903543e-05 0.0006644133568611944 -8.477609415653243e-05 -0.0004213500528194438
 0.9982195002904689 -0.0034018621138905336 0.0017477428164675395 0.0013326481396650572 -8.477354362913887e-05 -0.0004213482024379502 8.709257451630492e-05 0.0006644311045680386
 8.71397086903543e-05 0.0006644133568611944 -8.477354362913887e-05 -0.0004213482024379502 0.0017477376662219004 0.0013327184074068937 0.9982195006595024 -0.003401795054177864
 -8.477609415653243e-05 -0.0004213500528194438 8.709257451630492e-05 0.0006644311045680386 0.9982195006595024 -0.003401795054177864 0.0017477424290112803 0.0013327155726724656
0.006252605252188 0.0017801987785132792 0.0016710277449208865 0.9981781597458612 -0.004253146300227978 9.418998630249702e-05 0.0008308461020950957 -9.107265402726347e-05 -0.0005272223526812359
 0.9981781597458612 -0.004253146300227978 0.0017802085817538711 0.0016710232635855768 -9.106868437027024e-05 -0.0005272200738224831 9.411634137125352e-05 0.0008308691862692998
 9.418998630249702e-05 0.0008308461020950957 -9.106868437027024e-05 -0.0005272200738224831 0.001780200444786792 0.0016711111023810133 0.9981781602372148 -0.004253062478692709
 -9.107265402726347e-05 -0.0005272223526812359 9.411634137125352e-05 0.0008308691862692998 0.9981781602372148 -0.004253062478692709 0.0017802078907655484 0.0016711075418426274
0.01250521050438 0.0019514996282511247 0.0033767995218696996 0.9979585364721631 -0.008506991917204073 0.0001347751198802252 0.0016620980689286955 -0.00012693303754366596 -0.0010569308044339535
 0.9979585364721631 -0.008506991917204073 0.001951538766182763 0.003376790561109956 -0.00012691738303205195 -0.0010569266239274842 0.0001344813710968009 0.001662153949544493
 0.0001347751198802252 0.0016620980689286955 -0.00012691738303205195 -0.0010569266239274842 0.0019515057282708172 0.00337696603546233 0.9979585378923598 -0.008506824525720887
 -0.00012693303754366596 -0.0010569308044339535 0.0001344813710968009 0.001662153949544493 0.9979585378923598 -0.008506824525720887 0.0019515354737234735 0.003376958759428495
0.01875781575657 0.002138524412603276 0.0051066134792059304 0.9977166135992906 -0.012771868003899225 0.00018441592007047448 0.002494272202908034 -0.00017025724893336637 -0.001588386509038436
 0.9977166135992906 -0.012771868003899225 0.0021386123415263825 0.005106600031313566 -0.00017022232455423503 -0.0015883808849233183 0.00018375588282625057 0.002494372524089609
 0.00018441592007047448 0.002494272202908034 -0.00017022232455423503 -0.0015883808849233183 0.00213853767131134 0.005106863084539139 0.997716616366772 -0.012771617115318776
 -0.00017025724893336637 -0.001588386509038436 0.00018375588282625057 0.002494372524089609 0.997716616366772 -0.012771617115318776 0.0021386045349175552 0.005106851955097474
0.02501042100875 0.0023416499069769184 0.006858039255020148 0.9974520955876304 -0.017049821915864856 0.0002432105509876515 0.003327383905854981 -0.0002211541314208993 -0.0021213450236658242
 0.9974520955876304 -0.017049821915864856 0.0023418060376790163 0.006858021314033258 -0.0002210924384537959 -0.0021213385021304904 0.00024203789470668828 0.003327542192104138
 0.0002432105509876515 0.003327383905854981 -0.0002210924384537959 -0.0021213385021304904 0.00234167303880812 0.00685837187564219 0.9974521001301194 -0.01704948757483642
 -0.0002211541314208993 -0.0021213450236658242 0.00024203789470668828 0.003327542192104138 0.9974521001301194 -0.01704948757483642 0.0023417918257177327 0.006858356779800298
0.03126302626094 0.0025612373451037894 0.008629816620518878 0.9971646723781049 -0.021341718543837592 0.0003112573775144626 0.0041613747515316475 -0.00027972936206327985 -0.002655629233672489
 0.9971646723781049 -0.021341718543837592 0.002561481056591331 0.008629794185181502 -0.000279633473588148 -0.00265562245003235 0.00030942549794362134 0.004161606422039814
 0.0003112573775144626 0.0041613747515316475 -0.000279633473588148 -0.00265562245003235 0.0025612730437284954 0.008630232167462847 0.9971646791215351 -0.021341300767307406
 -0.00027972936206327985 -0.002655629233672489 0.00030942549794362134 0.004161606422039814 0.9971646791215351 -0.021341300767307406 0.0025614585559781216 0.008630213019620291
0.037515631513130004 0.002797640004786866 0.01042111668177478 0.9968540272495222 -0.02564797904914329 0.0003886540382280682 0.004996156836319665 -0.00034608615407565236 -0.003191085011203043
 0.9968540272495222 -0.02564797904914329 0.0027979906542153917 0.010421089757203256 -0.0003459487077653269 -0.0031910786902513318 0.00038601600187285006 0.004996479225961199
 0.0003886540382280682 0.004996156836319665 -0.0003459487077653269 -0.0031910786902513318 0.002797690948280653 0.010421615037593398 0.9968540366227482 -0.02564747784208526
 -0.00034608615407565236 -0.003191085011203043 0.00038601600187285006 0.004996479225961199 0.9968540366227482 -0.02564747784208526 0.0027979579925023973 0.010421591781225857
0.043768236765320004 0.003051206137899462 0.012231317017514558 0.996519840021953 -0.02996880565249544 0.0004754969943226289 0.005831626281799865 -0.000420325504291848 -0.003727567722682877
 0.996519840021953 -0.02996880565249544 0.003051683068613166 0.012231285616461111 -0.00042013919818230936 -0.0037275626788787074 0.0004719055139886067 0.00583205866419475
 0.0004754969943226289 0.005831626281799865 -0.00042013919818230936 -0.0037275626788787074 0.003051274986753545 0.012231898046205359 0.9965198524553465 -0.029968220997846063
 -0.000420325504291848 -0.003727567722682877 0.0004719055139886067 0.00583205866419475 0.9965198524553465 -0.029968220997846063 0.003051638381463834 0.012231870654981115
0.050020842017509996 0.0033222803236859005 0.014059908757224283 0.996161788687981 -0.03430427448106229 0.0005718812546230705 0.006667668807867934 -0.0005025462704369917 -0.0042649366686732925
 0.996161788687981 -0.03430427448106229 0.0033229028727275 0.014059872900906321 -0.0005023038604244024 -0.004264933806238614 0.0005671886814302108 0.006668232419300373
 0.0005718812546230705 0.006667668807867934 -0.0005023038604244024 -0.004264933806238614 0.0033223697213417168 0.014060572293562298 0.9961618046137207 -0.03430360635005652
 -0.0005025462704369917 -0.0042649366686732925 0.0005671886814302108 0.006668232419300373 0.9961618046137207 -0.03430360635005652 0.0033228443030569647 0.014060540772490287
0.055454545454549996 0.0035723360521998514 0.015663602816244886 0.9958309999111976 -0.038083817608332494 0.0006634633528901242 0.007394585962235235 -0.0005805556671210826 -0.00473253796329102
 0.9958309999111976 -0.038083817608332494 0.0035731008524573665 0.015663563112400074 -0.0005802586617350981 -0.00473253780065746 0.0006576937080192311 0.007395282404672494
 0.0006634633528901242 0.007394585962235235 -0.0005802586617350981 -0.00473253780065746 0.0035724454419737775 0.015664337892271406 0.9958310192257942 -0.0380830769063152
 -0.0005805556671210826 -0.00473253796329102 0.0006576937080192311 0.007395282404672494 0.9958310192257942 -0.0380830769063152 0.0035730287164326877 0.015664302811109282
0.056273447269699996 0.003611204155232879 0.015906450979807002 0.9957795503806142 -0.038654381096798286 0.0006779001757834095 0.007504162471258685 -0.0005928451749486143 -0.0048030523623456165
 0.9957795503806142 -0.038654381096798286 0.0036119916604227796 0.015906410698477084 -0.000592539473181392 -0.004803052675355853 0.0006719585009337937 0.0075048805349125685
 0.0006779001757834095 0.007504162471258685 -0.000592539473181392 -0.004803052675355853 0.003611316729116558 0.01590719682356015 0.995779570234322 -0.038653629454537534
 -0.0005928451749486143 -0.0048030523623456165 0.0006719585009337937 0.0075048805349125685 0.995779570234322 -0.038653629454537534 0.0036119173587129236 0.01590716120963309
0.06252605252188 0.003918316602943928 0.017770545630588188 0.9953728020235406 -0.043019065510267136 0.0007936452988041303 0.008340979179209994 -0.0006913167719700666 -0.00534177503755584
 0.9953728020235406 -0.043019065510267136 0.003919288409631592 0.017770500963975058 -0.0006909406458017949 -0.005341779609993415 0.00078630616241153 0.008341876929507455
 0.0007936452988041303 0.008340979179209994 -0.0006909406458017949 -0.005341779609993415 0.003918454962713104 0.017771373559523827 0.9953728262436011 -0.04301823030243974
 -0.0006913167719700666 -0.00534177503755584 0.00078630616241153 0.008341876929507455 0.9953728262436011 -0.04301823030243974 0.003919196532171364 0.017771333922286157
0.06877865777407 0.004243954193878605 0.01965182258127286 0.9949412208013491 -0.047398227056382525 0.000919206207532355 0.009177985596361326 -0.0007980533918578915 -0.005880963768829489
 0.9949412208013491 -0.047398227056382525 0.004245129661706794 0.01965177357866505 -0.0007975997633799368 -0.005880973774617369 0.0009103209117652839 0.00917909030327078
 0.000919206207532355 0.009177985596361326 -0.0007975997633799368 -0.005880973774617369 0.004244120932734465 0.019652732343464707 0.9949412498299324 -0.04739730821667597
 -0.0007980533918578915 -0.005880963768829489 0.0009103209117652839 0.00917909030327078 0.9949412498299324 -0.04739730821667597 0.0042450183706145275 0.019652688785436814
0.07503126302626001 0.004588451089819855 0.021549930160686716 0.9944844845330162 -0.0517917338049477 0.0010546703994458665 0.010015043722787163 -0.0009131450721504311 -0.0064204759257129205
 0.9944844845330162 -0.0517917338049477 0.004589849599442998 0.021549876880902825 -0.0009126069179312639 -0.006420492628749068 0.001044089925367068 0.010016384715985916
 0.0010546703994458665 0.010015043722787163 -0.0009126069179312639 -0.006420492628749068 0.004588648783897107 0.02155092146532828 0.9944845188164501 -0.05179073126408199
 -0.0009131450721504311 -0.0064204759257129205 0.001044089925367068 0.010016384715985916 0.9944845188164501 -0.05179073126408199 0.004589717061701293 0.021550874122136132
0.08128386827845 0.004952139095690561 0.023464528839864905 0.9940022719795357 -0.05619942882313181 0.001200123163818296 0.010852011290739497 -0.0010366794799107344 -0.006960166814156198
 0.9940022719795357 -0.05619942882313181 0.004953780055220952 0.023464471350968158 -0.0010360498309098362 -0.00696019156831942 0.0011876981912487823 0.010853619983565214
 0.001200123163818296 0.010852011290739497 -0.0010360498309098362 -0.00696019156831942 0.004952370303432435 0.023465601370133368 0.9940023119687316 -0.05619834249567753
 -0.0010366794799107344 -0.006960166814156198 0.0011876981912487823 0.010853619983565214 0.9940023119687316 -0.05619834249567753 0.004953624442133788 0.02346555041047023
0.08753647353064001 0.005335347624938205 0.02539528688427348 0.9934942631140129 -0.060621134477305036 0.0013556474649671323 0.011688742046328388 -0.0011687418280332848 -0.007499889438926181
 0.9934942631140129 -0.060621134477305036 0.005337250477040468 0.025395225263033044 -0.0011680137698587988 -0.00749992368806489 0.0013412283942695795 0.011690651959491396
 0.0013556474649671323 0.011688742046328388 -0.0011680137698587988 -0.00749992368806489 0.00533561488727614 0.025396440290948816 0.9934943092645028 -0.060619964267857006
 -0.0011687418280332848 -0.007499889438926181 0.0013412283942695795 0.011690651959491396 0.9934943092645028 -0.060619964267857006 0.0053370699632103785 0.025396385916343127
0.09378907878283 0.005738403633094907 0.027341877246686148 0.9929601393618205 -0.0650566555010634 0.0015213238288925947 0.012525085957397283 -0.0013094147870061537 -0.008039494345924676
 0.9929601393618205 -0.0650566555010634 0.0057405878611024195 0.027341811577926374 -0.0013085814601226826 -0.008039539623847567 0.0015047608048636165 0.012527332742388672
 0.0015213238288925947 0.012525085957397283 -0.0013085814601226826 -0.008039539623847567 0.00573870947304924 0.027343111148567256 0.992960192134799 -0.06505540130370932
 -0.0013094147870061537 -0.008039494345924676 0.0015047608048636165 0.012527332742388672 0.992960192134799 -0.06505540130370932 0.005740380624472356 0.027343053592923654
0.100041684035 0.006161631530251198 0.02930397529038825 0.992399583825522 -0.06950578124027199 0.0016972302320024276 0.013360889377711422 -0.0014587783934736447 -0.008578829514551096
 0.992399583825522 -0.06950578124027199 0.006164116665618643 0.029303905665944735 -0.0014578329936843052 -0.008578887444973827 0.0016783731696514963 0.013363510839879456
 0.0016972302320024276 0.013360889377711422 -0.0014578329936843052 -0.008578887444973827 0.0061619784528037895 0.029305289273164805 0.9923996436879986 -0.06950444293948291
 -0.0014587783934736447 -0.008578829514551096 0.0016783731696514963 0.013363510839879456 0.9923996436879986 -0.06950444293948291 0.006163880886333548 0.02930522880207758
0.1059090909091 0.006577418791720842 0.031159011698430307 0.9918492418596756 -0.07369298751932563 0.0018716709694386114 0.014144570746183095 -0.0016069132475510048 -0.00908455531157073
 0.9918492418596756 -0.07369298751932563 0.006580204108717297 0.031158938450795384 -0.0016058565405753292 -0.009084626671827316 0.001850524513616436 0.014147580125250194
 0.0018716709694386114 0.014144570746183095 -0.0016058565405753292 -0.009084626671827316 0.006577806527504436 0.031160400423248337 0.9918493088051892 -0.07369157018169621
 -0.0016069132475510048 -0.00908455531157073 0.001850524513616436 0.014147580125250194 0.9918493088051892 -0.07369157018169621 0.006579939891528185 0.031160337485336007
0.1062942892872 0.006605353076764374 0.03128125707596551 0.9918122814954229 -0.07396828734201832 0.0018834419916113623 0.01419599517875125 -0.001616909956768183 -0.009117740288900814
 0.9918122814954229 -0.07396828734201832 0.0066081587052221 0.031281183593591035 -0.0016158457356608884 -0.009117812585402398 0.0018621406029166996 0.014199031299989413
 0.0018834419916113623 0.01419599517875125 -0.0016158457356608884 -0.009117812585402398 0.006605743568045231 0.03128265069335352 0.9918123489206176 -0.07396686481138409
 -0.001616909956768183 -0.009117740288900814 0.0018621406029166996 0.014199031299989413 0.9918123489206176 -0.07396686481138409 0.006607892565113643 0.031282587603224415
0.11254689453939999 0.007069887265640247 0.033273398068616115 0.9911979194506074 -0.07844393703075077 0.002080031657797436 0.01503024286267864 -0.0017838839628885983 -0.00965606933433855
 0.9911979194506074 -0.07844393703075077 0.0070730330345762605 0.033273320830455706 -0.001782694228434977 -0.009656157800284624 0.0020561354802773324 0.015033735823718475
 0.002080031657797436 0.01503024286267864 -0.001782694228434977 -0.009656157800284624 0.007070323793224689 0.033274870841571734 0.991197994918628 -0.07844243013359056
 -0.0017838839628885983 -0.00965606933433855 0.0020561354802773324 0.015033735823718475 0.991197994918628 -0.07844243013359056 0.007072734716599644 0.033274805458462946
0.11879949979160001 0.007555550196877034 0.03528007212188989 0.9905561870551796 -0.08293248211605449 0.0022870689057477127 0.015863468659266206 -0.0019597719780347226 -0.010193656616868187
 0.9905561870551796 -0.08293248211605449 0.00755905582191322 0.035279991232823 -0.0019584500952800144 -0.010193763145297794 0.002260427331927852 0.01586746286159416
 0.0022870689057477127 0.015863468659266206 -0.0019584500952800144 -0.010193763145297794 0.007556035208755763 0.03528162353804142 0.9905562710530973 -0.08293089070590426
 -0.0019597719780347226 -0.010193656616868187 0.002260427331927852 0.01586746286159416 0.9905562710530973 -0.08293089070590426 0.0075587235091543305 0.035281556216352455
0.1250521050438 0.008062654942122082 0.03730095068671176 0.989886776148061 -0.0874336637831803 0.0025046204294372335 0.0166955056156219 -0.002144642550422309 -0.010730339396568606
 0.989886776148061 -0.0874336637831803 0.008066540214035798 0.03730086625249534 -0.0021431819421137495 -0.010730465970108101 0.002475082737623017 0.01670004770282837
 0.0025046204294372335 0.0166955056156219 -0.0021431819421137495 -0.010730465970108101 0.008063190866801254 0.03730258020170129 0.9898868691708451 -0.08743198770238977
 -0.002144642550422309 -0.010730339396568606 0.002475082737623017 0.01670004770282837 0.9898868691708451 -0.08743198770238977 0.00806617208971634 0.037302511322499954
0.131304710296 0.008591511404193505 0.039335702182451915 0.9891893812298861 -0.09194721323023165 0.002732749835660713 0.017526183678120786 -0.002338561111809505 -0.011265952235644678
 0.9891893812298861 -0.09194721323023165 0.008595796196161779 0.03933561430744131 -0.00233695525920609 -0.01126610092634805 0.0027001652217270426 0.017531322556902783
 0.002732749835660713 0.017526183678120786 -0.00233695525920609 -0.01126610092634805 0.008592100650028417 0.03933740921728987 0.9891894837805115 -0.09194545231243975
 -0.002338561111809505 -0.011265952235644678 0.0027001652217270426 0.017531322556902783 0.9891894837805115 -0.09194545231243975 0.008595390442428658 0.03933733918652145
0.1375573155481 0.009023705537937762 0.04112015206361106 0.9885824704540076 -0.09620887605872333 0.0029434582722264197 0.018329613123030195 -0.0025135771502722555 -0.011774599423124093
 0.9885824704540076 -0.09620887605872333 0.009028412678922092 0.04112006019440263 -0.0025118166779392343 -0.011774770511768663 0.002907758675642601 0.018335342864278393
 0.0029434582722264197 0.018329613123030195 -0.0025118166779392343 -0.011774770511768663 0.00902435173247485 0.04112193538735012 0.9885825829691995 -0.09620703023288019
 -0.0025135771502722555 -0.011774599423124093 0.002907758675642601 0.018335342864278393 0.9885825829691995 -0.09620703023288019 0.009027966377731613 0.0411218654174018
0.1438099208003 0.009471203633605287 0.04289477622684378 0.9879540421496132 -0.10045927780098496 0.0031626580094824947 0.01912944662041429 -0.002695566975353211 -0.012279950277672806
 0.9879540421496132 -0.10045927780098496 0.009476353598524303 0.0428946801882811 -0.0026936449338271877 -0.012280145804205146 0.0031237074403613406 0.019135812002449345
 0.0031626580094824947 0.01912944662041429 -0.0026936449338271877 -0.012280145804205146 0.009471909378323887 0.04289663516169284 0.9879541651301122 -0.1004573469090385
 -0.002695566975353211 -0.012279950277672806 0.0031237074403613406 0.019135812002449345 0.9879541651301122 -0.1004573469090385 0.009475864732158626 0.04289656555411798
0.1500625260525 0.009933841703256027 0.04465941291465324 0.9873042646587905 -0.10469829882817323 0.0033902687868144314 0.019925591821651024 -0.002884452720807122 -0.012781918234652507
 0.9873042646587905 -0.10469829882817323 0.009939455069081558 0.04465931248652898 -0.00288236218218337 -0.012782140320519919 0.003347932130914197 0.01993263925376352
 0.0033902687868144314 0.019925591821651024 -0.00288236218218337 -0.012782140320519919 0.009934609594965223 0.04466134675165544 0.9873043986117105 -0.10469628270810542
 -0.002884452720807122 -0.012781918234652507 0.003347932130914197 0.01993263925376352 0.9873043986117105 -0.10469628270810542 0.009938921606067226 0.04466127778802786
0.15631513130469998 0.010411454520670169 0.04641390520172398 0.9866333072600232 -0.10892582023490598 0.0036262093457315047 0.02071795804791749 -0.003080155519486443 -0.013280418631677782
 0.9866333072600232 -0.10892582023490598 0.010417551969072368 0.046413800115096375 -0.0030778895779979753 -0.013280669479297992 0.0035803523779260947 0.020725735552639703
