! Created with skrf 1.8.0 (http://scikit-rf.org).
# GHz S RI R 50.0 
!freq ReS11 ImS11 ReS12 ImS12 ReS13 ImS13
! ReS14 ImS14
! ReS21 ImS21 ReS22 ImS22 ReS23 ImS23
! ReS24 ImS24
! ReS31 ImS31 ReS32 ImS32 ReS33 ImS33
! ReS34 ImS34
! ReS41 ImS41 ReS42 ImS42 ReS43 ImS43
! ReS44 ImS44
!
0.0 0.001669352858842 0.0 0.9983306471297 0.0 6.470966390554e-05 0.0 -6.470966319479e-05 7.924648190540286e-21
 0.9983306471297 0.0 0.001669352858852 0.0 -6.470966319495e-05 7.92464819055988e-21 6.470966390527e-05 0.0
 6.470966390554e-05 0.0 -6.470966319495e-05 7.92464819055988e-21 0.001669352864534 0.0 0.9983306471354 0.0
 -6.470966319479e-05 7.924648190540286e-21 6.470966390527e-05 0.0 0.9983306471354 0.0 0.001669352864538 0.0
0.005 0.0017964913462078338 0.0013633300882695237 0.9981697152888366 -0.0034965013489217304 9.127543519464585e-05 0.0007251754128241839 -8.846731178429465e-05 -0.00045298899870326227
 0.9981697152888366 -0.0034965013489217304 0.0017965215020560622 0.001363312530857906 -8.846809862916883e-05 -0.00045298966172909117 9.108644475999015e-05 0.000725247445367223
 9.127543519464585e-05 0.0007251754128241839 -8.846809862916883e-05 -0.00045298966172909117 0.0017964902815997843 0.0013632634843701273 0.9981697149169965 -0.0034965684179561474
 -8.846731178429465e-05 -0.00045298899870326227 9.108644475999015e-05 0.000725247445367223 0.9981697149169965 -0.0034965684179561474 0.0017965218352260063 0.0013632450093011125
0.006252605252188 0.0018299497881419152 0.0017095185051120066 0.9981270730426092 -0.004371463801360697 9.895034037577737e-05 0.0009068058384475681 -9.523053570738905e-05 -0.000566817445880336
 0.9981270730426092 -0.004371463801360697 0.0018299969265682275 0.0017094961929191332 -9.523175962948252e-05 -0.0005668182645047377 9.86550624450928e-05 0.0009068993995949308
 9.895034037577737e-05 0.0009068058384475681 -9.523175962948252e-05 -0.0005668182645047377 0.0018299481984435134 0.0017094352638646934 0.998127072536035 -0.004371547636351887
 -9.523053570738905e-05 -0.000566817445880336 9.86550624450928e-05 0.0009068993995949308 0.998127072536035 -0.004371547636351887 0.0018299975228413565 0.001709411791914215
0.01250521050438 0.0020067454923169544 0.0034547452737695166 0.9979001483888374 -0.008743606740912027 0.00014341251416335215 0.001813864112406501 -0.0001339021822283502 -0.001136314789402787
 0.9979001483888374 -0.008743606740912027 0.0020069337090974438 0.0034546969674437277 -0.0001339069998646026 -0.0011363163153799531 0.0001422350566698348 0.0018140894182302394
 0.00014341251416335215 0.001813864112406501 -0.0001339069998646026 -0.0011363163153799531 0.0020067397072908453 0.0034545792090163994 0.997900146931059 -0.008743774164311548
 -0.0001339021822283502 -0.001136314789402787 0.0001422350566698348 0.0018140894182302394 0.997900146931059 -0.008743774164311548 0.0020069366677894188 0.003454528439823045
0.01875781575657 0.002200151255801696 0.0052246598820158766 0.9976495733984178 -0.013127042888959533 0.00019820138539619316 0.002721772534566145 -0.00018084914039881504 -0.0017076368847187917
 0.9976495733984178 -0.013127042888959533 0.002200574174824107 0.005224581640129848 -0.00018085987583807845 -0.001707638985765099 0.00019555646135153173 0.002722175706583303
 0.00019820138539619316 0.002721772534566145 -0.00018085987583807845 -0.001707638985765099 0.002200138673668364 0.005224411311425479 0.9976495705405225 -0.013127293877688233
 -0.00018084914039881504 -0.0017076368847187917 0.00019555646135153173 0.002722175706583303 0.9976495705405225 -0.013127293877688233 0.002200581269958001 0.00522432911241449
0.02501042100875 0.002410564666638643 0.007016749864366054 0.9973750358189245 -0.017523864901542733 0.00026342422280645395 0.0036305479988951775 -0.000236191299645074 -0.002280502118697256
 0.9973750358189245 -0.017523864901542733 0.0024113157194155456 0.007016637517802288 -0.00023621024648451375 -0.0022805046390598246 0.0002587264129679339 0.003631182843998091
 0.00026342422280645395 0.0036305479988951775 -0.00023621024648451375 -0.0022805046390598246 0.002410542688209323 0.007016419182446978 0.9973750311067336 -0.017524199478634005
 -0.000236191299645074 -0.002280502118697256 0.0002587264129679339 0.003631182843998091 0.9973750311067336 -0.017524199478634005 0.002411328736149796 0.007016301146940208
0.03126302626094 0.002638366812606943 0.008829706045979938 0.9970762084215028 -0.021934948678084643 0.000339188678729273 0.004540121806953413 -0.0003000447628142615 -0.0028547070716886495
 0.9970762084215028 -0.021934948678084643 0.002639539293162404 0.008829555204326565 -0.00030007418936720253 -0.0028547098319040725 0.0003318519024311 0.004541049862723121
 0.000339188678729273 0.004540121806953413 -0.00030007418936720253 -0.0028547098319040725 0.0026383328469313594 0.008829293715941093 0.9970762013986963 -0.021935366921306522
 -0.0003000447628142615 -0.0028547070716886495 0.0003318519024311 0.004541049862723121 0.9970762013986963 -0.021935366921306522 0.0026395600339513135 0.008829135169168268
0.037515631513130004 0.002883930210703589 0.01066266251726489 0.996752757231667 -0.026360713327927675 0.0004256015826380007 0.005450391123523369 -0.000372522686633503 -0.0034300750672718893
 0.996752757231667 -0.026360713327927675 0.0028856173129747963 0.010662468571888063 -0.0003725648384977841 -0.0034300778641320547 0.000415038869690993 0.005451681734321138
 0.0004256015826380007 0.005450391123523369 -0.0003725648384977841 -0.0034300778641320547 0.0028838816706818135 0.010662169095352284 0.9967527474328876 -0.02636121534605828
 -0.000372522686633503 -0.0034300750672718893 0.000415038869690993 0.005451681734321138 0.9967527474328876 -0.02636121534605828 0.002885647594173202 0.010661965096916156
0.043768236765320004 0.003147621853303063 0.012514965376727173 0.9964043448819392 -0.030801352357428126 0.0005227683687591834 0.0063612346286598415 -0.00045373557169817527 -0.00400644053525919
 0.9964043448819392 -0.030801352357428126 0.0031499167020293413 0.012514723502440567 -0.00045379267345525403 -0.004006443141837767 0.0005083917600543533 0.006362965031293237
 0.0005227683687591834 0.0063612346286598415 -0.00045379267345525403 -0.004006443141837767 0.003147556160260042 0.0125143914960565 0.9964043318350163 -0.03080193830705338
 -0.00045373557169817527 -0.00400644053525919 0.0005083917600543533 0.006362965031293237 0.9964043318350163 -0.03080193830705338 0.003149958357592763 0.012514136841008992
0.050020842017509996 0.0034298046160788614 0.01438607712877668 0.996030632333139 -0.03525692920101104 0.0006307927262211554 0.00727251899673135 -0.0005437913576305284 -0.0045836425537179966
 0.996030632333139 -0.03525692920101104 0.003432800294289187 0.014385782284390162 -0.0005438656138545791 -0.004583644719426619 0.0006120132430906013 0.007274774409861515
 0.0006307927262211554 0.00727251899673135 -0.0005438656138545791 -0.004583644719426619 0.003429719199918828 0.014385423515256776 0.996030615555895 -0.035257599271132076
 -0.0005437913576305284 -0.0045836425537179966 0.0006120132430906013 0.007274774409861515 0.996030615555895 -0.035257599271132076 0.003432855175876983 0.014385112733874451
0.055454545454549996 0.003690326298689015 0.016027040365610548 0.9956850541357686 -0.03914107800937348 0.0007335658768142791 0.008064700542619103 -0.0006293159927016312 -0.005085804158823184
 0.9956850541357686 -0.03914107800937348 0.0036940066003877422 0.016026695226666932 -0.0006294069321253217 -0.005085805719557983 0.0007104810556566804 0.008067487681223994
 0.0007335658768142791 0.008064700542619103 -0.0006294069321253217 -0.005085805719557983 0.0036902216639948422 0.01602631812222455 0.9956850337172276 -0.03914182136313047
 -0.0006293159927016312 -0.005085804158823184 0.0007104810556566804 0.008067487681223994 0.9956850337172276 -0.03914182136313047 0.003694074494578557 0.01602595391701476
0.056273447269699996 0.0037308379667811524 0.016275529778778736 0.9956312799007093 -0.039727424057470366 0.0007497763501400419 0.008184102074540104 -0.0006427954284188254 -0.005161521697839538
 0.9956312799007093 -0.039727424057470366 0.0037346275411641525 0.016275176706897182 -0.0006428890244623162 -0.005161523148482058 0.0007260040053368145 0.00818697578954192
 0.0007497763501400419 0.008184102074540104 -0.0006428890244623162 -0.005161523148482058 0.0037307302684937045 0.016274797249647612 0.9956312589006211 -0.03972817847162171
 -0.0006427954284188254 -0.005161521697839538 0.0007260040053368145 0.00818697578954192 0.9956312589006211 -0.03972817847162171 0.003734697519722531 0.016274424606563566
0.06252605252188 0.004051078332953722 0.018182899051475073 0.9952059479451003 -0.04421275960795266 0.00087981874112913 0.009095834639210439 -0.0007508505743605173 -0.005739918315241083
 0.9952059479451003 -0.04421275960795266 0.004055754878035677 0.018182482277373322 -0.0007509656767852437 -0.005739918753065969 0.0008504625772793682 0.009099428111430994
 0.00087981874112913 0.009095834639210439 -0.0007509656767852437 -0.005739918753065969 0.004050945806097446 0.018182088514197097 0.9952059222179414 -0.04421359862569662
 -0.0007508505743605173 -0.005739918315241083 0.0008504625772793682 0.009099428111430994 0.9952059222179414 -0.04421359862569662 0.0040558418454534825 0.01818164800657032
0.06877865777407 0.004390879281579602 0.020107789016237918 0.9947542973805802 -0.0487128163329759 0.001021017032783594 0.010007561453956084 -0.0008680569277051416 -0.006318671509935335
 0.9947542973805802 -0.0487128163329759 0.004396535903894634 0.02010730284597529 -0.0008681956847602047 -0.006318670613707225 0.0009854851806234024 0.010011984393699056
 0.001021017032783594 0.010007561453956084 -0.0008681956847602047 -0.006318670613707225 0.0043907193942126456 0.02010690146950073 0.99475426640853 -0.04871374024930789
 -0.0008680569277051416 -0.006318671509935335 0.0009854851806234024 0.010011984393699056 0.99475426640853 -0.04871374024930789 0.004396641773467585 0.020106386824438608
0.07503126302626001 0.004750591588242351 0.022049822349743873 0.9942759900758131 -0.05322744219874282 0.0011734658350845586 0.010919121947433795 -0.0009945118832373353 -0.00689761850958453
 0.9942759900758131 -0.05322744219874282 0.004757321449644072 0.02204926086739557 -0.0009946764250944398 -0.006897615934636332 0.001131165586470191 0.010924492410216164
 0.0011734658350845586 0.010919121947433795 -0.0009946764250944398 -0.006897615934636332 0.004750401824712222 0.022048858882272673 0.99427595332666 -0.053228451345674443
 -0.0009945118832373353 -0.00689761850958453 0.001131165586470191 0.010924492410216164 0.99427595332666 -0.053228451345674443 0.004757448157501563 0.02204826355338826
0.08128386827845 0.005130563234606947 0.024008633850970837 0.9937706891896814 -0.057756459098638246 0.0013372570890329933 0.011830350677170483 -0.0011303100075670657 -0.007476594255695203
 0.9937706891896814 -0.057756459098638246 0.005138459575511405 0.024007990915166668 -0.0011305024465031919 -0.007476589633994679 0.0012875949815163955 0.011836795153068194
 0.0013372570890329933 0.011830350677170483 -0.0011305024465031919 -0.007476589633994679 0.005130341097906188 0.02400759565052366 0.9937706461153797 -0.05775755383647822
 -0.0011303100075670657 -0.007476594255695203 0.0012875949815163955 0.011836795153068194 0.9937706461153797 -0.05775755383647822 0.005138609082365326 0.024006912813716464
0.08753647353064001 0.005531139361581876 0.02598386597995996 0.9932380594653097 -0.06229966727881245 0.0015124799268693837 0.012741077659679552 -0.0012755429424019151 -0.00805543113449262
 0.9932380594653097 -0.06229966727881245 0.005540295524505845 0.025983135219371248 -0.0012757653730054966 -0.008055424074697441 0.0014548618378027855 0.012748731161338858
 0.0015124799268693837 0.012741077659679552 -0.0012757653730054966 -0.008055424074697441 0.005530882374999388 0.025982754323226134 0.9932380095004469 -0.06230084800634686
 -0.0012755429424019151 -0.00805543113449262 0.0014548618378027855 0.012748731161338858 0.9932380095004469 -0.06230084800634686 0.005540469816065778 0.025981976871642998
0.09378907878283 0.0059526621881762845 0.027975165656028547 0.9926777674952112 -0.06685684851238281 0.0016992205376316581 0.013651128619559317 -0.0014302993022017813 -0.008633958796232298
 0.9926777674952112 -0.06685684851238281 0.005963171640866038 0.027974340464167455 -0.0014305538014366505 -0.00863394888376352 0.001633051786288393 0.013660134768883385
 0.0016992205376316581 0.013651128619559317 -0.0014305538014366505 -0.00863394888376352 0.005952367897591246 0.027973981914864228 0.9926777100556222 -0.06685811566084861
 -0.0014302993022017813 -0.008633958796232298 0.001633051786288393 0.013660134768883385 0.9926777100556222 -0.06685811566084861 0.005963372729569466 0.027973102452861352
0.100041684035 0.006395470908370082 0.029982181931052294 0.9920894819675681 -0.07142776840735861 0.0018975620357696815 0.014560325183262628 -0.0015946645683493597 -0.009212004037539108
 0.9920894819675681 -0.07142776840735861 0.006407427267306866 0.02998125546001698 -0.001594953195670673 -0.009211990834631766 0.001822247492252784 0.014570836296436
 0.0018975620357696815 0.014560325183262628 -0.001594953195670673 -0.009211990834631766 0.006395136884498414 0.029980927570016094 0.9920894164491778 -0.07142912244281023
 -0.0015946645683493597 -0.009212004037539108 0.001822247492252784 0.014570836296436 0.9920894164491778 -0.07142912244281023 0.00640765719331266 0.029979938406422144
0.1059090909091 0.00683065860482406 0.031879535625518166 0.9915116854761877 -0.07572936562629845 0.0020943066006191436 0.015412570312476838 -0.001757716434431283 -0.009753842571494569
 0.9915116854761877 -0.07572936562629845 0.0068440580277351025 0.03187850766541088 -0.0017580389447497094 -0.009753825862128125 0.0020098681381097924 0.01542464002254613
 0.0020943066006191436 0.015412570312476838 -0.0017580389447497094 -0.009753825862128125 0.006830285109451638 0.03187821641167389 0.9915116118079448 -0.07573080164897318
 -0.001757716434431283 -0.009753842571494569 0.0020098681381097924 0.01542464002254613 0.9915116118079448 -0.07573080164897318 0.006844316895820502 0.03187711703963749
0.1062942892872 0.006859901570440876 0.032004564235771166 0.9914728738984576 -0.07601217815018667 0.0021075843319169466 0.015468485039990258 -0.0017687209808830444 -0.009789390724407175
 0.9914728738984576 -0.07601217815018667 0.006873398623919565 0.03200352938920357 -0.0017690457781830498 -0.009789373770183017 0.0020225285322882634 0.015480662210844693
 0.0021075843319169466 0.015468485039990258 -0.0017690457781830498 -0.009789373770183017 0.006859525410230971 0.03200324081554091 0.9914727996753985 -0.07601361957007491
 -0.0017687209808830444 -0.009789390724407175 0.0020225285322882634 0.015480662210844693 0.9914727996753985 -0.07601361957007491 0.00687365945648111 0.03200213395583756
0.11254689453939999 0.007346286942360617 0.03404196105135931 0.9908276168548606 -0.08060981583341129 0.002329364005726612 0.016375422077293002 -0.0019525474280131197 -0.010365939748504431
 0.9908276168548606 -0.08060981583341129 0.007361418674773136 0.03404081047627011 -0.001952910419754808 -0.010365918559027583 0.0022339712724983936 0.01638943525877276
 0.002329364005726612 0.016375422077293002 -0.001952910419754808 -0.010365918559027583 0.007345866272374672 0.03404057022494562 0.9908275332787028 -0.08061134517008611
 -0.0019525474280131197 -0.010365939748504431 0.0022339712724983936 0.01638943525877276 0.9908275332787028 -0.08061134517008611 0.007361712513429531 0.034039337362604026
0.11879949979160001 0.007854956369227254 0.03609401888279104 0.9901533871713937 -0.08522040749076679 0.0025629741801834003 0.017280946500152886 -0.002146219334383183 -0.010941469008067589
 0.9901533871713937 -0.08522040749076679 0.00787181698421325 0.036092744960539644 -0.002146622527537785 -0.010941443076409263 0.002456648747791224 0.017296974583742592
 0.0025629741801834003 0.017280946500152886 -0.002146622527537785 -0.010941443076409263 0.007854488846940469 0.03609256239753854 0.9901532935687681 -0.08522202530923981
 -0.002146219334383183 -0.010941469008067589 0.002456648747791224 0.017296974583742592 0.9901532935687681 -0.08522202530923981 0.007872145959897044 0.036091194904354335
0.1250521050438 0.008386235620287879 0.0381603814457844 0.9894498641595062 -0.08984366792827249 0.002808484397053598 0.018184864941236504 -0.002349808548338346 -0.011515793405796537
 0.9894498641595062 -0.08984366792827249 0.008404919564275014 0.03815897628208729 -0.0023502539323441048 -0.011515762202122411 0.002690630541922826 0.01820309583438864
 0.002808484397053598 0.018184864941236504 -0.0023502539323441048 -0.011515762202122411 0.008385718936621149 0.038158861144205365 0.9894497598317847 -0.08984537482499935
 -0.002349808548338346 -0.011515793405796537 0.002690630541922826 0.01820309583438864 0.9894497598317847 -0.08984537482499935 0.008405285840955455 0.03815735005963969
0.131304710296 0.008940446730747413 0.04024068903510187 0.9887167303162445 -0.09447930138411903 0.003065960493528513 0.019086980562564106 -0.0025633832285781558 -0.012088724863820618
 0.9887167303162445 -0.09447930138411903 0.00896104871745926 0.04023914444882103 -0.002563872775375871 -0.012088687835412795 0.0029359826685660217 0.01910761126376303
 0.003065960493528513 0.019086980562564106 -0.002563872775375871 -0.012088687835412795 0.008939878612412602 0.040239106853243396 0.98871661453701 -0.0944810979880725
 -0.0025633832285781558 -0.012088724863820618 0.0029359826685660217 0.01910761126376303 0.98871661453701 -0.0944810979880725 0.008961454492871331 0.04023744287276151
0.1375573155481 0.009394899570647583 0.04206331925847956 0.988076732204535 -0.09885561124701792 0.003304821986910433 0.019960500913512147 -0.0027565172715005343 -0.012633387589730096
 0.988076732204535 -0.09885561124701792 0.009417522712771098 0.04206166116775296 -0.0027570540809842177 -0.012633344663958454 0.0031624206520280587 0.019983511594794928
 0.003304821986910433 0.019960500913512147 -0.0027570540809842177 -0.012633344663958454 0.009394278491432442 0.04206167660298131 0.9880766044265656 -0.09885749795883016
 -0.0027565172715005343 -0.012633387589730096 0.0031624206520280587 0.019983511594794928 0.9880766044265656 -0.09885749795883016 0.009417969127702286 0.042059885252596955
0.1438099208003 0.009865456790924576 0.04387554798992015 0.9874139704366744 -0.10322001702373446 0.0035533289587240486 0.020829911610603713 -0.0029573488194054465 -0.013174357975712153
 0.9874139704366744 -0.10322001702373446 0.009890197448867613 0.043873770160182665 -0.0029579350410399276 -0.013174308600610017 0.003397962226807973 0.02085548344939572
 0.0035533289587240486 0.020829911610603713 -0.0029579350410399276 -0.013174308600610017 0.009864780664059703 0.0438738468382812 0.987413829930719 -0.10322199446565089
 -0.0029573488194054465 -0.013174357975712153 0.003397962226807973 0.02085548344939572 0.987413829930719 -0.10322199446565089 0.009890686559557316 0.04387192080980128
0.1500625260525 0.010351940200193184 0.04567720013924195 0.9867286277268015 -0.10757238599634275 0.0038113884177285386 0.0216951048944043 -0.003165788996854562 -0.013711537552695803
 0.9867286277268015 -0.10757238599634275 0.010378895035641296 0.04567529592672305 -0.0031664267767533387 -0.013711481153676859 0.003642517977847619 0.021723425690926678
 0.0038113884177285386 0.0216951048944043 -0.0031664267767533387 -0.013711481153676859 0.010351206982529282 0.04567544254693162 0.9867284737402839 -0.10757445481149806
 -0.003165788996854562 -0.013711537552695803 0.003642517977847619 0.021723425690926678 0.9867284737402839 -0.10757445481149806 0.010379428919298665 0.045673374082726405
0.15631513130469998 0.010854170192300245 0.04746810586036406 0.986020887881865 -0.11191258644553108 0.0040789061772222 0.022555974988329786 -0.00338174775302871 -0.0142448300742858
 0.986020887881865 -0.11191258644553108 0.010883436176639841 0.04746606819881104 -0.0033824392338275256 -0.014244766054218101 0.003895997354036146 0.022587239091315547
