! Created with skrf 1.8.0 (http://scikit-rf.org).
# GHz S RI R 50.0 
!freq ReS11 ImS11 ReS12 ImS12 ReS13 ImS13
! ReS14 ImS14
! ReS21 ImS21 ReS22 ImS22 ReS23 ImS23
! ReS24 ImS24
! ReS31 ImS31 ReS32 ImS32 ReS33 ImS33
! ReS34 ImS34
! ReS41 ImS41 ReS42 ImS42 ReS43 ImS43
! ReS44 ImS44
!
0.0 0.001660877876379 0.0 0.9983391221235 0.0 6.417619881761e-05 0.0 -6.41761993511e-05 7.859317711676707e-21
 0.9983391221235 0.0 0.001660877876339 0.0 -6.417619935013e-05 7.859317711557914e-21 6.417619881782e-05 0.0
 6.417619881761e-05 0.0 -6.417619935013e-05 7.859317711557914e-21 0.001660877874927 0.0 0.9983391221221 0.0
 -6.41761993511e-05 7.859317711676707e-21 6.417619881782e-05 0.0 0.9983391221221 0.0 0.00166087787494 0.0
0.005 0.0017873220625218161 0.001359938619260492 0.9981791149402214 -0.003478641335265737 8.982463652471399e-05 0.0006977197289687544 -8.731778619360987e-05 -0.0004395097783532749
 0.9981791149402214 -0.003478641335265737 0.0017873106797204235 0.0013599453160769472 -8.731980533973803e-05 -0.0004395113651872755 8.987527048739475e-05 0.0006977002416864291
 8.982463652471399e-05 0.0006977197289687544 -8.731980533973803e-05 -0.0004395113651872755 0.0017873212013767117 0.0013600064502630725 0.9981791153069479 -0.0034785742682003663
 -8.731778619360987e-05 -0.0004395097783532749 8.987527048739475e-05 0.0006977002416864291 0.9981791153069479 -0.0034785742682003663 0.001787312276047754 0.0013600116237054468
0.006252605252188 0.0018205946671045574 0.0017052505346029526 0.9981367333597108 -0.004349134385163929 9.719204088779452e-05 0.0008724862809702773 -9.389655379369063e-05 -0.0005499468137982051
 0.9981367333597108 -0.004349134385163929 0.0018205768737182616 0.0017052590857099027 -9.389969544695202e-05 -0.0005499487707965774 9.727114896870214e-05 0.0008724610012322896
 9.719204088779452e-05 0.0008724862809702773 -9.389969544695202e-05 -0.0005499487707965774 0.001820593245556585 0.0017053353093159356 0.9981367338578003 -0.004349050572760782
 -9.389655379369063e-05 -0.0005499468137982051 9.727114896870214e-05 0.0008724610012322896 0.9981367338578003 -0.004349050572760782 0.0018205792946223204 0.0017053419450865168
0.01250521050438 0.001996389391975111 0.003446001642460902 0.997911285013524 -0.00869893975832056 0.000139653512844376 0.0017453228842360191 -0.00013146513610342726 -0.0011024799778890976
 0.997911285013524 -0.00869893975832056 0.001996318341566811 0.0034460205921930513 -0.00013147751341818485 -0.0011024835995067823 0.00013996889800987558 0.0017452623182787972
 0.000139653512844376 0.0017453228842360191 -0.00013147751341818485 -0.0011024835995067823 0.0019963831515148822 0.0034461710399258305 0.9979112864442373 -0.008698772383802655
 -0.00013146513610342726 -0.0011024799778890976 0.00013996889800987558 0.0017452623182787972 0.9979112864442373 -0.008698772383802655 0.0019963274577148847 0.0034461860226539663
0.01875781575657 0.002188668498743643 0.005211297137409055 0.9976624806146311 -0.013059974623616133 0.00019166372100460328 0.002619067520770317 -0.00017700197709389086 -0.00165680072971647
 0.9976624806146311 -0.013059974623616133 0.0021885088412725313 0.005211328526327865 -0.00017702957360536214 -0.0016568056641683088 0.0001923720121301624 0.0026189595456920433
 0.00019166372100460328 0.002619067520770317 -0.00017702957360536214 -0.0016568056641683088 0.002188654038858795 0.005211551192560018 0.9976624834021548 -0.013059723817376754
 -0.00017700197709389086 -0.00165680072971647 0.0001923720121301624 0.0026189595456920433 0.9976624834021548 -0.013059723817376754 0.0021885289146590155 0.005211576351814946
0.02501042100875 0.002397825097410351 0.006998641566036143 0.9973900113635223 -0.01743432358069791 0.0002533265701950491 0.0034937372177486488 -0.0002306228083924135 -0.0022126438516308833
 0.9973900113635223 -0.01743432358069791 0.002397541553105413 0.006998687619323106 -0.00023067153403399533 -0.002212649681671226 0.0002545843399241824 0.0034935676726998628
 0.0002533265701950491 0.0034937372177486488 -0.00023067153403399533 -0.002212649681671226 0.0023977990215712734 0.006998980417470996 0.9973900159338241 -0.017433989434829034
 -0.0002306228083924135 -0.0022126438516308833 0.0002545843399241824 0.0034935676726998628 0.9973900159338241 -0.017433989434829034 0.002397576850636045 0.006999017695708177
0.03126302626094 0.0026242360603644303 0.008806736185659155 0.9970935535692628 -0.02182286131798998 0.0003247459837175659 0.004369269298105896 -0.0002924398139411893 -0.0027698167665100794
 0.9970935535692628 -0.02182286131798998 0.0026237934034716312 0.008806799312527657 -0.0002925155174280923 -0.002769823008761559 0.0003267098960923787 0.004369021975193007
 0.0003247459837175659 0.004369269298105896 -0.0002925155174280923 -0.002769823008761559 0.002624194971724678 0.00880716002919663 0.9970935603460002 -0.02182244393281478
 -0.0002924398139411893 -0.0027698167665100794 0.0003267098960923787 0.004369021975193007 0.9970935603460002 -0.02182244393281478 0.002623848195204244 0.008807211480720488
0.037515631513130004 0.00286826985840308 0.010634723145974636 0.9967727767887593 -0.026226008368318093 0.0004060249601681591 0.005245569264214967 -0.00036256241150287564 -0.0033281516765185613
 0.9967727767887593 -0.026226008368318093 0.00286763290639872 0.010634805940199188 -0.0003626708865566279 -0.003328157781289767 0.0004088518353380648 0.005245225890352115
 0.0004060249601681591 0.005245569264214967 -0.0003626708865566279 -0.003328157781289767 0.002868210356949273 0.01063523225181017 0.9967727861907097 -0.026225507835471937
 -0.00036256241150287564 -0.0033281516765185613 0.0004088518353380648 0.005245225890352115 0.9967727861907097 -0.026225507835471937 0.0028677114645507167 0.010635300042540157
0.043768236765320004 0.003130289584404833 0.012481955510524964 0.9964273471525577 -0.03064396101467439 0.000497265115958892 0.00612252537040112 -0.00044109752151875504 -0.0038874910089862647
 0.9964273471525577 -0.03064396101467439 0.0031294231901484813 0.0124820607513741 -0.0004412445105948751 -0.0038874963602580823 0.0005011119589330695 0.006122065586277086
 0.000497265115958892 0.00612252537040112 -0.0004412445105948751 -0.0038874963602580823 0.0031302082701117557 0.012482550205582784 0.996427359596193 -0.030643377435173865
 -0.00044109752151875504 -0.0038874910089862647 0.0005011119589330695 0.006122065586277086 0.996427359596193 -0.030643377435173865 0.003129529792553862 0.012482636613003998
0.050020842017509996 0.0034106543448437416 0.014347902202640834 0.996056929062699 -0.03507678627068836 0.0005985663999947163 0.007000014648892859 -0.0005281496523393754 -0.004447681410812899
 0.996056929062699 -0.03507678627068836 0.0034095233903877866 0.014348032855908518 -0.0005283408489559548 -0.004447685326270804 0.000603590411014437 0.006999415986812953
 0.0005985663999947163 0.007000014648892859 -0.0005283408489559548 -0.004447685326270804 0.0034105478173511415 0.014348582876961514 0.9960569449610798 -0.03507611974885607
 -0.0005281496523393754 -0.004447681410812899 0.000603590411014437 0.006999415986812953 0.9960569449610798 -0.03507611974885607 0.0034096623206394355 0.014348690290059739
0.055454545454549996 0.003669474657854227 0.015984304809590098 0.995714469647662 -0.03894111349979675 0.0006948473690977464 0.0077629106728941775 -0.0006107968118333225 -0.004935076915966473
 0.995714469647662 -0.03894111349979675 0.003668085290800337 0.015984460101554077 -0.0006110310131153001 -0.0049350789780926935 0.0007010221911958077 0.007762171420669905
 0.0006948473690977464 0.0077629106728941775 -0.0006110310131153001 -0.0049350789780926935 0.0036693434575003087 0.015985060561476066 0.995714488881069 -0.03894037499302198
 -0.0006107968118333225 -0.004935076915966473 0.0007010221911958077 0.007762171420669905 0.995714488881069 -0.03894037499302198 0.0036682557982932397 0.015985188256146643
0.056273447269699996 0.003709719966403802 0.01623210135193315 0.9956611862085482 -0.03952446846260921 0.0007100268836755193 0.007877905865113334 -0.0006238209044636237 -0.005008570817660161
 0.9956611862085482 -0.03952446846260921 0.0037082893573051686 0.01623226057134714 -0.0006240619547285648 -0.005008572548754945 0.0007163854566361451 0.007877143726399482
 0.0007100268836755193 0.007877905865113334 -0.0006240619547285648 -0.005008572548754945 0.003709584824900289 0.016232868451725196 0.9956612059710993 -0.039523719113499896
 -0.0006238209044636237 -0.005008570817660161 0.0007163854566361451 0.007877143726399482 0.9956612059710993 -0.039523719113499896 0.0037084649047578627 0.016232999371298733
0.06252605252188 0.004027839360016393 0.01813413464825033 0.9952397822461247 -0.04398693480875901 0.0008317425886451253 0.008756061157397787 -0.0007282109323940584 -0.005570006843885993
 0.9952397822461247 -0.04398693480875901 0.004026074020103227 0.01813432577701859 -0.0007285074360569605 -0.005570005575901319 0.0008395933023371857 0.008755108789633124
 0.0008317425886451253 0.008756061157397787 -0.0007285074360569605 -0.005570005575901319 0.004027672205299443 0.018134988683034637 0.9952398062792577 -0.043986102751431375
 -0.0007282109323940584 -0.005570006843885993 0.0008395933023371857 0.008755108789633124 0.9952398062792577 -0.043986102751431375 0.00402629048168164 0.018135145722021684
0.06877865777407 0.004365362702683972 0.020053612056841495 0.9947923812982197 -0.04846407064335226 0.0009638073352848326 0.009634337014465418 -0.0008414168830013203 -0.006131835840491416
 0.9947923812982197 -0.04846407064335226 0.004363227569511679 0.020053838629191502 -0.0008417743941448219 -0.006131830692624167 0.0009733079389677874 0.009633165488763754
 0.0009638073352848326 0.009634337014465418 -0.0008417743941448219 -0.006131830692624167 0.004365160136014949 0.020054553594253496 0.9947924100032994 -0.04846315600631412
 -0.0008414168830013203 -0.006131835840491416 0.0009733079389677874 0.009633165488763754 0.9947924100032994 -0.04846315600631412 0.004363489248237261 0.02005473947831276
0.07503126302626001 0.00472263750734276 0.021990162130302526 0.9943186483480797 -0.052955729049792996 0.0011063126038064058 0.0105125849084027 -0.000963533318520164 -0.006693902303708818
 0.9943186483480797 -0.052955729049792996 0.004720097527558891 0.021990427873534654 -0.0009639573459630968 -0.0066938923291623275 0.0011176209990244224 0.010511163096864782
 0.0011063126038064058 0.0105125849084027 -0.0009639573459630968 -0.0066938923291623275 0.004722396132589526 0.021991191797209986 0.9943186821231885 -0.05295473197040613
 -0.000963533318520164 -0.006693902303708818 0.0011176209990244224 0.010511163096864782 0.9943186821231885 -0.05295473197040613 0.0047204087345152695 0.02199140936541833
0.08128386827845 0.005100008624616822 0.023943425561479378 0.9938182495692836 -0.05746173726035117 0.0012593474025186584 0.011390651722786013 -0.0010946521305281866 -0.007256048494948985
 0.9938182495692836 -0.05746173726035117 0.005097028749446496 0.02394373439791746 -0.001095148138063283 -0.007256032681030154 0.0012726216215395664 0.011388946276196965
 0.0012593474025186584 0.011390651722786013 -0.001095148138063283 -0.007256032681030154 0.005099725047994411 0.02394454404368649 0.9938182888073183 -0.05746065788540467
 -0.0010946521305281866 -0.007256048494948985 0.0012726216215395664 0.011388946276196965 0.9938182888073183 -0.05746065788540467 0.005097393803190953 0.023944796249423462
0.08753647353064001 0.005497818198483632 0.025913050736678815 0.9932908526131828 -0.06198190106271687 0.0014229981414011941 0.012268380059554995 -0.001234862446782229 -0.007818114188745468
 0.9932908526131828 -0.06198190106271687 0.0054943633794060686 0.02591340678599315 -0.001235435853325732 -0.007818091456960635 0.0014383963230835714 0.012266355385412837
 0.0014229981414011941 0.012268380059554995 -0.001235435853325732 -0.007818091456960635 0.005497489029854751 0.025914258780980002 0.9932908977024776 -0.06198073954671347
 -0.001234862446782229 -0.007818114188745468 0.0014383963230835714 0.012266355385412837 0.9932908977024776 -0.06198073954671347 0.005494786606329053 0.025914548693118718
0.09378907878283 0.0059164055889817085 0.02789869055521987 0.9927361268687344 -0.06651600794834103 0.0015973485086953644 0.013145608468196632 -0.0013842505335989472 -0.008379936505323158
 0.9927361268687344 -0.06651600794834103 0.005912440773664647 0.02789909813680612 -0.0013849067131327679 -0.008379905711500478 0.0016150288723931212 0.0131432267090408
 0.0015973485086953644 0.013145608468196632 -0.0013849067131327679 -0.008379905711500478 0.005916027441842875 0.02789998897009356 0.9927361781917265 -0.06651476445311111
 -0.0013842505335989472 -0.008379936505323158 0.0016150288723931212 0.0131432267090408 0.9927361781917265 -0.06651476445311111 0.00591292650785101 0.027900319774161755
0.100041684035 0.006356107272835804 0.02990000010962775 0.9921537437024414 -0.07106382940814106 0.0017824793499824044 0.0140221716274761 -0.0015428996947306527 -0.008941349797755167
 0.9921537437024414 -0.07106382940814106 0.006351597400719881 0.029900463745291563 -0.0015436439762192662 -0.008941309732162686 0.0018026001674307443 0.014019392639693942
 0.0017824793499824044 0.0140221716274761 -0.0015436439762192662 -0.008941309732162686 0.006355676766411392 0.02990138976109171 0.9921538016369026 -0.07106250410723947
 -0.0015428996947306527 -0.008941349797755167 0.0018026001674307443 0.014019392639693942 0.9921538016369026 -0.07106250410723947 0.006352149985236106 0.02990176476080091
0.1059090909091 0.006788220984274695 0.03179196147173423 0.991581793941652 -0.07534373466170649 0.001966079148801422 0.014843977607662916 -0.001700269466900347 -0.009467654578902347
 0.991581793941652 -0.07534373466170649 0.006783167736176246 0.03179248200355249 -0.0017011012291281106 -0.009467604654212885 0.0019886340402381743 0.014840787298037261
 0.001966079148801422 0.014843977607662916 -0.0017011012291281106 -0.009467604654212885 0.006787738274089976 0.03179343758308011 0.9915818584179662 -0.07534233275834638
 -0.001700269466900347 -0.009467654578902347 0.0019886340402381743 0.014840787298037261 0.9915818584179662 -0.07534233275834638 0.006783787009587954 0.031793857167164465
0.1062942892872 0.0068172567271706135 0.03191663493980376 0.9915433766866891 -0.07562512266266123 0.0019784685488921285 0.014897900490513703 -0.0017108901676704611 -0.009502185583057602
 0.9915433766866891 -0.07562512266266123 0.006812166725446707 0.031917159356633584 -0.0017117278348710498 -0.009502134970540541 0.0020011881145255103 0.014894681823575553
 0.0019784685488921285 0.014897900490513703 -0.0017117278348710498 -0.009502134970540541 0.0068167704858360136 0.03191811675712535 0.9915434416037864 -0.07562371573601354
 -0.0017108901676704611 -0.009502185583057602 0.0020011881145255103 0.014894681823575553 0.9915434416037864 -0.07562371573601354 0.006812790511281281 0.031918539376064904
0.11254689453939999 0.007300184299193231 0.0339482497103189 0.9909047018163812 -0.08019963197816173 0.002185390908863309 0.01577262241054796 -0.0018882990182391703 -0.010062272500104658
 0.9909047018163812 -0.08019963197816173 0.007294479078945563 0.033948839843651483 -0.0018892353095352416 -0.010062210000213456 0.0022108675087405844 0.015768919286703608
 0.002185390908863309 0.01577262241054796 -0.0018892353095352416 -0.010062210000213456 0.007299638954491272 0.03394982468231606 0.9909047740818183 -0.0801981436159305
 -0.0018882990182391703 -0.010062272500104658 0.0022108675087405844 0.015768919286703608 0.9909047740818183 -0.0801981436159305 0.007295178425800239 0.03395029846581766
0.11879949979160001 0.007805217067511379 0.03599449718072902 0.990237397721296 -0.08478708969843464 0.0024033180363996305 0.01664616125097227 -0.002075200033634147 -0.010621436290763167
 0.990237397721296 -0.08478708969843464 0.007798861519247501 0.035995158177474756 -0.0020762401416581744 -0.010621360497916257 0.002431709915715604 0.01664192654549191
 0.0024033180363996305 0.01664616125097227 -0.0020762401416581744 -0.010621360497916257 0.0078046092580027855 0.035996166357914514 0.9902374776935524 -0.08478552009904224
 -0.002075200033634147 -0.010621436290763167 0.002431709915715604 0.01664192654549191 0.9902374776935524 -0.08478552009904224 0.007799640795270954 0.03599669497519751
0.1250521050438 0.008332678693561758 0.03805502739846553 0.9895411458707241 -0.08938721706325352 0.0026323182249366624 0.017518337484707876 -0.00227166361446793 -0.011179499799493042
 0.9895411458707241 -0.08938721706325352 0.008325637683300958 0.03805576462061783 -0.0022728126858457738 -0.011179409243137125 0.0026637835542522867 0.017513521706679223
 0.0026323182249366624 0.017518337484707876 -0.0022728126858457738 -0.011179409243137125 0.008332005066434767 0.03805679189415501 0.9895412339018421 -0.08938556643251586
 -0.00227166361446793 -0.011179499799493042 0.0026637835542522867 0.017513521706679223 0.9895412339018421 -0.08938556643251586 0.008326501265515436 0.03805737914066591
0.131304710296 0.008882889267778117 0.040129487067562475 0.988815630776305 -0.09399972486063778 0.0028724563393298912 0.018388968288981216 -0.0024777566665282495 -0.01173628298533065
 0.988815630776305 -0.09399972486063778 0.008875127633396636 0.040130306095834886 -0.0024790198014598705 -0.011736176130106376 0.0029071531799793274 0.01838351956261866
 0.0028724563393298912 0.018388968288981216 -0.0024790198014598705 -0.011736176130106376 0.008882146479366729 0.04013134805551439 0.9888157272111625 -0.09399799341432455
 -0.0024777566665282495 -0.01173628298533065 0.0029071531799793274 0.01838351956261866 0.9888157272111625 -0.09399799341432455 0.0088760799074966 0.040131997855416976
0.1375573155481 0.009333961805544041 0.04194794047183015 0.9881827997883539 -0.09835458042210447 0.0030943305447578224 0.01923149547339736 -0.002664046738696977 -0.012265279028811051
 0.9881827997883539 -0.09835458042210447 0.009325442739966551 0.04194882975550823 -0.0026654316297730707 -0.012265155661382443 0.0031323453965179976 0.01922541889137059
 0.0030943305447578224 0.01923149547339736 -0.0026654316297730707 -0.012265155661382443 0.009333147290134182 0.04194989891350862 0.9881829049943824 -0.09835276836239255
 -0.002664046738696977 -0.012265279028811051 0.0031323453965179976 0.01922541889137059 0.9881829049943824 -0.09835276836239255 0.009326487284154533 0.0419505985082916
0.1438099208003 0.00980103799537985 0.043756122864075576 0.9875274711195579 -0.10269768453324428 0.0033251346164844954 0.02007018976957416 -0.002857756787674376 -0.012790723637205653
 0.9875274711195579 -0.10269768453324428 0.009791726071859151 0.04375708684576781 -0.0028592689347836583 -0.012790582235093832 0.0033666124656673555 0.020063437499487993
 0.0033251346164844954 0.02007018976957416 -0.0028592689347836583 -0.012790582235093832 0.009800148563645063 0.04375817996660743 0.9875275854344905 -0.10269579208782133
 -0.002857756787674376 -0.012790723637205653 0.0033666124656673555 0.020063437499487993 0.9875275854344905 -0.10269579208782133 0.009792867142035715 0.043758932140098496
0.1500625260525 0.010283943253802679 0.045553862057203465 0.9868498239515491 -0.10702890777316283 0.0035647818296973004 0.020904952274928095 -0.0030588017951842725 -0.013312522641040393
 0.9868498239515491 -0.10702890777316283 0.010273803013128554 0.04555490540014235 -0.0030604466846613373 -0.013312361620453269 0.0036098667341439446 0.020897474726922882
 0.0035647818296973004 0.020904952274928095 -0.0030604466846613373 -0.013312361620453269 0.010282975734631567 0.04555601907898134 0.9868499477062909 -0.10702693517582684
 -0.0030588017951842725 -0.013312522641040393 0.0036098667341439446 0.020897474726922882 0.9868499477062909 -0.10702693517582684 0.010275044865426016 0.04555682676860812
0.15631513130469998 0.010782501634889807 0.047340990996541876 0.986150038513092 -0.11134812164417722 0.0038131843623362893 0.021735685927874327 -0.0032670956281113015 -0.013830583981978867
 0.986150038513092 -0.11134812164417722 0.010771497584476888 0.047342118586881234 -0.0032688787326482878 -0.013830401698031132 0.0038620194356778193 0.021727431773851703
