! Created with skrf 1.8.0 (http://scikit-rf.org).
# GHz S RI R 50.0 
!freq ReS11 ImS11 ReS12 ImS12 ReS13 ImS13
! ReS14 ImS14
! ReS21 ImS21 ReS22 ImS22 ReS23 ImS23
! ReS24 ImS24
! ReS31 ImS31 ReS32 ImS32 ReS33 ImS33
! ReS34 ImS34
! ReS41 ImS41 ReS42 ImS42 ReS43 ImS43
! ReS44 ImS44
!
0.0 0.001437652379656 0.0 0.9985623476203 0.0 5.542021982182e-05 0.0 -5.542021945579e-05 6.787019436457709e-21
 0.9985623476203 0.0 0.001437652379663 0.0 -5.542021945565e-05 6.787019436440564e-21 5.542021982236e-05 0.0
 5.542021982182e-05 0.0 -5.542021945565e-05 6.787019436440564e-21 0.001437652371129 0.0 0.9985623476118 0.0
 -5.542021945579e-05 6.787019436457709e-21 5.542021982236e-05 0.0 0.9985623476118 0.0 0.001437652371149 0.0
0.005 0.001546542244848381 0.001173680938888071 0.9984246320745355 -0.0030119606670541282 7.786593691395484e-05 0.000626868541456028 -7.556930080040114e-05 -0.00039068806951779526
 0.9984246320745355 -0.0030119606670541282 0.0015465411929681087 0.0011736815604561938 -7.557303244155776e-05 -0.0003906909383307832 7.786548364979121e-05 0.0006268687910802244
 7.786593691395484e-05 0.000626868541456028 -7.557303244155776e-05 -0.0003906909383307832 0.001546539976475321 0.0011736150292607377 0.9984246317283321 -0.0030120277269756676
 -7.556930080040114e-05 -0.00039068806951779526 7.786548364979121e-05 0.0006268687910802244 0.9984246317283321 -0.0030120277269756676 0.0015465427702494405 0.001173613350132158
0.006252605252188 0.0015750171567809586 0.0014717423320551764 0.9983884058275625 -0.003765701936119332 8.422580074669457e-05 0.000783887566617036 -8.121970232543125e-05 -0.0004888739427517073
 0.9983884058275625 -0.003765701936119332 0.0015750155120972957 0.0014717430814827745 -8.122550909221083e-05 -0.00048887748051766 8.422509348911039e-05 0.0007838878787176991
 8.422580074669457e-05 0.000783887566617036 -8.122550909221083e-05 -0.00048887748051766 0.0015750136806902129 0.001471659950786572 0.9983884053565983 -0.0037657857584721855
 -8.121970232543125e-05 -0.0004888739427517073 8.422509348911039e-05 0.0007838878787176991 0.9983884053565983 -0.0037657857584721855 0.0015750180482083413 0.0014716578181337891
0.01250521050438 0.0017244284496510634 0.0029745379741357983 0.9981971320871706 -0.0075323065607944654 0.00012041964398888559 0.0015681209053940294 -0.00011307313817470405 -0.0009801880545789647
 0.9981971320871706 -0.0075323065607944654 0.0017244218781993221 0.002974539205164561 -0.00011309602283289973 -0.0009801946038142967 0.00012041685116504325 0.001568121538322317
 0.00012041964398888559 0.0015681209053940294 -0.00011309602283289973 -0.0009801946038142967 0.0017244151273978286 0.0029743735148725975 0.998197130768747 -0.007532473950530377
 -0.00011307313817470405 -0.0009801880545789647 0.00012041685116504325 0.001568121538322317 0.998197130768747 -0.007532473950530377 0.0017244325721387753 0.002974368889163747
0.01875781575657 0.0018861955563899795 0.004498934501273562 0.9979883007385351 -0.011309001905760821 0.00016408284292155636 0.002353254110232973 -0.00015107538086211658 -0.0014732236701971836
 0.9979883007385351 -0.011309001905760821 0.0018861807829399107 0.004498935964839937 -0.00015112641620949584 -0.0014732326093447757 0.0001640766351315215 0.0023532550879834056
 0.00016408284292155636 0.002353254110232973 -0.00015112641620949584 -0.0014732326093447757 0.0018861660354521368 0.0044986881601531935 0.9979882981983502 -0.011309252763802001
 -0.00015107538086211658 -0.0014732236701971836 0.0001640766351315215 0.0023532550879834056 0.9979882981983502 -0.011309252763802001 0.0018862052445346611 0.004498680606828323
0.02501042100875 0.0020606195648590216 0.006042810896502558 0.9977616776961861 -0.015097635891709397 0.00021529759379733865 0.003139335245385891 -0.00019531838230904704 -0.0019677633115050435
 0.9977616776961861 -0.015097635891709397 0.002060593314820268 0.0060428123592874685 -0.00019540851005523773 -0.00196777391250628 0.0002152866826910037 0.00313933660220833
 0.00021529759379733865 0.003139335245385891 -0.00019540851005523773 -0.00196777391250628 0.0020605675015423364 0.006042482882427202 0.9977616735617687 -0.015097970152370419
 -0.00019531838230904704 -0.0019677633115050435 0.0002152866826910037 0.00313933660220833 0.9977616735617687 -0.015097970152370419 0.0020606371503417474 0.006042471895208171
0.03126302626094 0.0022479890490947883 0.0076050842667060164 0.9975170163522268 -0.018899009578220227 0.00027414665594852424 0.003926338500280444 -0.0002458916267394893 -0.002463658533279163
 0.9975170163522268 -0.018899009578220227 0.002247948046826133 0.0076050855108073705 -0.00024603168019019943 -0.002463669960152497 0.000274129793362235 0.003926340279239451
 0.00027414665594852424 0.003926338500280444 -0.00024603168019019943 -0.002463669960152497 0.0022479081010353605 0.007604674817711664 0.997517010248011 -0.018899427193066344
 -0.0002458916267394893 -0.002463658533279163 0.000274129793362235 0.003926340279239451 0.997517010248011 -0.018899427193066344 0.002248016856225141 0.007604659818147773
0.037515631513130004 0.002448586440085227 0.009185055074338084 0.9972540641223369 -0.02271353187395654 0.0003407125508215947 0.004714209093743967 -0.00030288281332322634 -0.002960785015054575
 0.9972540641223369 -0.02271353187395654 0.002448527407390094 0.009185055897232453 -0.00030308352894112766 -0.0029607963234156522 0.0003406885294298569 0.004714211345608042
 0.0003407125508215947 0.004714209093743967 -0.00030308352894112766 -0.0029607963234156522 0.002448470272295972 0.009184564468010878 0.9972540556769102 -0.02271403280179659
 -0.00030288281332322634 -0.002960785015054575 0.0003406885294298569 0.004714211345608042 0.9972540556769102 -0.02271403280179659 0.0024486267931971427 0.009184544804785968
0.043768236765320004 0.002662690511780303 0.010782207885925932 0.996972565107889 -0.02654141872231058 0.0004150771953971589 0.005502876916551905 -0.00036637810014693 -0.003459028913795191
 0.996972565107889 -0.02654141872231058 0.0026626101672319615 0.010782208100737396 -0.00036665012449253276 -0.003459039050681354 0.0004150448503043314 0.005502879698809687
 0.0004150771953971589 0.005502876916551905 -0.00036665012449253276 -0.003459039050681354 0.0026625327913848097 0.010781636440763687 0.9969725539490261 -0.026542002928572346
 -0.00036637810014693 -0.003459028913795191 0.0004150448503043314 0.005502879698809687 0.9969725539490261 -0.026542002928572346 0.0026627457303618454 0.010781611388806553
0.050020842017509996 0.0028905775264643665 0.012396129008955812 0.9966722614193289 -0.03038277539697165 0.000497321678446937 0.006292262179654315 -0.0004364622029671879 -0.003958281212182106
 0.9966722614193289 -0.03038277539697165 0.0028904725849798717 0.01239612844476418 -0.00043681609713402275 -0.003958289015968576 0.0004972798891444589 0.006292265555478894
 0.000497321678446937 0.006292262179654315 -0.00043681609713402275 -0.003958289015968576 0.0028903719226406736 0.012395477088927492 0.9966722471744576 -0.0303834428498949
 -0.0004364622029671879 -0.003958281212182106 0.0004972798891444589 0.006292265555478894 0.9966722471744576 -0.0303834428498949 0.0028906499255395564 0.0123954458485097
0.055454545454549996 0.0031000247988002636 0.01381201854006753 0.9963958155093291 -0.03373199834437282 0.0005752562609308493 0.006978777340210771 -0.0005027830663648634 -0.004392882447329292
 0.9963958155093291 -0.03373199834437282 0.0030998958103967307 0.013812017172729443 -0.0005032166206738967 -0.0043928871957824795 0.0005752053903608408 0.006978781286805578
 0.0005752562609308493 0.006978777340210771 -0.0005032166206738967 -0.0043928871957824795 0.003099772443511916 0.013811297014045777 0.996395798280459 -0.033732738119870605
 -0.0005027830663648634 -0.004392882447329292 0.0005752053903608408 0.006978781286805578 0.996395798280459 -0.033732738119870605 0.0031001140050049684 0.013811259687487745
0.056273447269699996 0.003132521833384356 0.014026466087214 0.9963528939553818 -0.03423763683951739 0.0005875261077068651 0.0070822781703930105 -0.0005132184209496295 -0.004458434961022892
 0.9963528939553818 -0.03423763683951739 0.0031323890053712067 0.014026464589376984 -0.000513664663560075 -0.004458439161392544 0.0005874738001743643 0.00708228220760174
 0.0005875261077068651 0.0070822781703930105 -0.000513664663560075 -0.004458439161392544 0.003132262018127477 0.014025734099823432 0.9963528762526155 -0.034238387512788224
 -0.0005132184209496295 -0.004458434961022892 0.0005874738001743643 0.00708228220760174 0.9963528762526155 -0.034238387512788224 0.0031326137238979557 0.01402569579559493
0.06252605252188 0.003388796193703126 0.015672905867143365 0.9960142029126439 -0.03810598982774805 0.0006857694877211609 0.00787283277754259 -0.0005967286297391724 -0.0049593837555094635
 0.9960142029126439 -0.03810598982774805 0.003388632184880744 0.015672903297617283 -0.0005972776190437596 -0.004959382973437834 0.0006857056368435718 0.007872837547503795
 0.0006857694877211609 0.00787283277754259 -0.0005972776190437596 -0.004959382973437834 0.0033884758411757104 0.015672094268792333 0.9960141813796446 -0.03810682369596732
 -0.0005967286297391724 -0.0049593837555094635 0.0006857056368435718 0.007872837547503795 0.9960141813796446 -0.03810682369596732 0.0033889098815267672 0.015672047948885912
0.06877865777407 0.0036596719565167067 0.017335160954462563 0.995655928148576 -0.04198778615637739 0.0007921296163937543 0.008663829396155653 -0.000687073254228333 -0.005461020834638854
 0.995655928148576 -0.04198778615637739 0.003659473467508475 0.017335157192199555 -0.0006877353095310774 -0.0054610135824104825 0.0007920532484840052 0.008663834972633625
 0.0007921296163937543 0.008663829396155653 -0.0006877353095310774 -0.0054610135824104825 0.003659284743136967 0.017334270246194907 0.9956559024128105 -0.04198870320007267
 -0.000687073254228333 -0.005461020834638854 0.0007920532484840052 0.008663834972633625 0.9956559024128105 -0.04198870320007267 0.003659809742063016 0.01733421488122325
0.07503126302626001 0.003945419146767789 0.019012961410250107 0.9952778094600058 -0.04588295098111541 0.0009066829924514393 0.009455167502768768 -0.0007843312287486949 -0.0059632385134841285
 0.9952778094600058 -0.04588295098111541 0.003945182872903413 0.019012956351517087 -0.0007851165913933494 -0.005963223194707615 0.0009065931879157597 0.009455173960705238
 0.0009066829924514393 0.009455167502768768 -0.0007851165913933494 -0.005963223194707615 0.003944958752101976 0.019011992145161014 0.9952777791490465 -0.04588395118006148
 -0.0007843312287486949 -0.0059632385134841285 0.0009065931879157597 0.009455173960705238 0.9952777791490465 -0.04588395118006148 0.003945583325387357 0.019011926627280618
0.08128386827845 0.004246306500860304 0.020706049162995024 0.9948795868115945 -0.04979138835007501 0.0010295047291559074 0.01024674304306176 -0.0008885799496143954 -0.006465927806352758
 0.9948795868115945 -0.04979138835007501 0.004246029131687213 0.020706042721835845 -0.0008894987836025221 -0.00646590271600577 0.0010294006251242974 0.010246750457317658
 0.0010295047291559074 0.01024674304306176 -0.0008894987836025221 -0.00646590271600577 0.004245766606606103 0.020705001943002264 0.9948795515524127 -0.0497924716874338
 -0.0008885799496143954 -0.006465927806352758 0.0010294006251242974 0.010246750457317658 0.9948795515524127 -0.0497924716874338 0.004246499361121079 0.020704925084927366
0.08753647353064001 0.004562601462792363 0.02241417414002892 0.9944610005292024 -0.05371298501961555 0.0011606684722386712 0.011038448699975797 -0.0009998952218590617 -0.0069689781730676355
 0.9944610005292024 -0.05371298501961555 0.004562279682038066 0.022414166248550468 -0.001000957614257515 -0.00696894149752983 0.0011605492654573832 0.011038457143966923
 0.0011606684722386712 0.011038448699975797 -0.001000957614257515 -0.00696894149752983 0.004561975754096867 0.02241304961861925 0.9944609599486168 -0.053714151479892745
 -0.0009998952218590617 -0.0069689781730676355 0.0011605492654573832 0.011038457143966923 0.9944609599486168 -0.053714151479892745 0.0045628252870350905 0.02241296015267297
0.09378907878283 0.004894570157119735 0.024137091511035175 0.9940217914718605 -0.05764761316176462 0.0013002463208044916 0.011830174089140883 -0.0011183512018986116 -0.007472277341542732
 0.9940217914718605 -0.05764761316176462 0.0048942006422716955 0.02413708211986856 -0.0011195671630249947 -0.007472227158665426 0.0013001112704331943 0.01183018363343666
 0.0013002463208044916 0.011830174089140883 -0.0011195671630249947 -0.007472227158665426 0.0048938523225169105 0.02413589039312645 0.9940217451960567 -0.05764886273173309
 -0.0011183512018986116 -0.007472277341542732 0.0013001112704331943 0.01183018363343666 0.9940217451960567 -0.05764886273173309 0.004894827220354915 0.024135786970284488
0.100041684035 0.00524247734300835 0.025874559654554544 0.9935617011880217 -0.06159513235263368 0.001448308749688605 0.012621805908049335 -0.001244020337412723 -0.007975711180351883
 0.9935617011880217 -0.06159513235263368 0.005242056765013045 0.025874548733229988 -0.0012453998007891898 -0.00797564545953305 0.0014481571802912175 0.012621816618883177
 0.001448308749688605 0.012621805908049335 -0.0012453998007891898 -0.00797564545953305 0.005241661074474849 0.025873282696993388 0.9935616488424883 -0.061596465021699444
 -0.001244020337412723 -0.007975711180351883 0.0014481571802912175 0.012621816618883177 0.9935616488424883 -0.061596465021699444 0.005242769912525885 0.02587316388590016
0.1059090909091 0.005583681815424248 0.027518009247386007 0.9931107345172381 -0.06531104984342669 0.0015950275536950557 0.013364479917161519 -0.0013685707590832172 -0.008448149546741779
 0.9931107345172381 -0.06531104984342669 0.005583210286621644 0.027517996879598945 -0.0013701126179588227 -0.008448067301854975 0.0015948599294919898 0.013364491777666139
 0.0015950275536950557 0.013364479917161519 -0.0013701126179588227 -0.008448067301854975 0.005582767443924255 0.02751666186122929 0.993110676134909 -0.06531246048122843
 -0.0013685707590832172 -0.008448149546741779 0.0015948599294919898 0.013364491777666139 0.993110676134909 -0.06531246048122843 0.005584009758749762 0.02751652723389378
0.1062942892872 0.005606586355129719 0.027626338638808114 0.9930804720618694 -0.06555539105102243 0.0016049245334156816 0.013413228050893232 -0.0013769733045471844 -0.008479163609649065
 0.9930804720618694 -0.06555539105102243 0.005606111378508984 0.027626326176104343 -0.0013785261268667683 -0.008479080211904804 0.0016047558379168074 0.013413239988584133
 0.0016049245334156816 0.013413228050893232 -0.0013785261268667683 -0.008479080211904804 0.005605665349059512 0.027624986655257554 0.993080413271631 -0.06555680680701337
 -0.0013769733045471844 -0.008479163609649065 0.0016047558379168074 0.013413239988584133 0.993080413271631 -0.06555680680701337 0.005606916690131698 0.0276248509412613
0.11254689453939999 0.005987159034583212 0.029392189060227055 0.9925778474520685 -0.06952822772327104 0.0017701606706734567 0.014204321700417811 -0.0015172789437111996 -0.008982516538809115
 0.9925778474520685 -0.06952822772327104 0.005986626316809457 0.02939217506461577 -0.001519014904535022 -0.008982413216884196 0.0017699743133416772 0.014204334917738893
 0.0017701606706734567 0.014204321700417811 -0.001519014904535022 -0.008982413216884196 0.0059861269917367834 0.029390762915955833 0.9925777818412809 -0.06952972655854384
 -0.0015172789437111996 -0.008982516538809115 0.0017699743133416772 0.014204334917738893 0.9925777818412809 -0.06952972655854384 0.0059875293854062634 0.029390608700188385
0.11879949979160001 0.006384455651397823 0.03117187112982692 0.992053571824777 -0.07351347172520381 0.0019440823093670415 0.014994965406678605 -0.0016650041936703928 -0.00948564982145678
 0.992053571824777 -0.07351347172520381 0.00638386184296503 0.03117185562982194 -0.0016669329951427313 -0.009485524219934698 0.0019438778290464614 0.01499497994714122
 0.0019440823093670415 0.014994965406678605 -0.0016669329951427313 -0.009485524219934698 0.0063833062777801045 0.031170371746007543 0.9920534990169215 -0.07351505363303888
 -0.0016650041936703928 -0.00948564982145678 0.0019438778290464614 0.01499497994714122 0.9920534990169215 -0.07351505363303888 0.006384868259254737 0.03117019734439444
0.1250521050438 0.006798734821398379 0.03296514396113879 0.9915073908831912 -0.07751094398690374 0.0021267526724169186 0.015785035153412928 -0.0018202140244179409 -0.009988441226889877
 0.9915073908831912 -0.07751094398690374 0.0067980765656476825 0.03296512700569878 -0.0018223452908725836 -0.009988290882314965 0.0021265296855813836 0.015785051049423487
 0.0021267526724169186 0.015785035153412928 -0.0018223452908725836 -0.009988290882314965 0.006797461828409498 0.032963572315316055 0.9915073105007344 -0.07751260896181439
 -0.0018202140244179409 -0.009988441226889877 0.0021265296855813836 0.015785051049423487 0.9915073105007344 -0.07751260896181439 0.006799191917397811 0.032963375957661065
0.131304710296 0.007230253416983833 0.034771764996473685 0.9909390516941249 -0.08152045756409215 0.0023182329835652197 0.016574404416891644 -0.00198297136925812 -0.010490766423307206
 0.9909390516941249 -0.08152045756409215 0.00722952734955371 0.03477174665540437 -0.0019853146466891 -0.010490588764359977 0.002317991187427854 0.016574421687893002
 0.0023182329835652197 0.016574404416891644 -0.0019853146466891 -0.010490588764359977 0.007228850521988024 0.034770122121977214 0.9909389633586844 -0.08152220560323079
 -0.00198297136925812 -0.010490766423307206 0.002317991187427854 0.016574421687893002 0.9909389633586844 -0.08152220560323079 0.007230757221711163 0.03476990195099305
0.1375573155481 0.007577862800396238 0.03635509190943735 0.9904497412404937 -0.08530532653557606 0.0024936944478693985 0.017338822118190298 -0.0021284474725160253 -0.010968387224068451
 0.9904497412404937 -0.08530532653557606 0.0075770659697800054 0.03635507541000106 -0.0021310168596069988 -0.010968182172329203 0.002493431203025598 0.017338840697670114
 0.0024936944478693985 0.017338822118190298 -0.0021310168596069988 -0.010968182172329203 0.007576324231095488 0.03635337888703471 0.9904496445938397 -0.0853071575965305
 -0.0021284474725160253 -0.010968387224068451 0.002493431203025598 0.017338840697670114 0.9904496445938397 -0.0853071575965305 0.007578415396260621 0.03635313603964253
0.1438099208003 0.007937615719117254 0.03793047816819576 0.9899433829659128 -0.08908101708573855 0.0026762468309829016 0.0181004222713101 -0.0022797553246719435 -0.011443433304695765
 0.9899433829659128 -0.08908101708573855 0.007936744820604445 0.03793046386463496 -0.0022825610751388225 -0.01144319834478716 0.0026759615279340365 0.018100442193871684
 0.0026762468309829016 0.0181004222713101 -0.0022825610751388225 -0.01144319834478716 0.007935935292321046 0.037928696062379065 0.9899432776330934 -0.08908293115772287
 -0.0022797553246719435 -0.011443433304695765 0.0026759615279340365 0.018100442193871684 0.9899432776330934 -0.08908293115772287 0.00793821928222822 0.037928428892492844
0.1500625260525 0.008309391180303 0.039497804338498095 0.9894201016599105 -0.09284744796226517 0.002865830609942674 0.018859135904311704 -0.0024368370868853733 -0.011915839217817793
 0.9894201016599105 -0.09284744796226517 0.008308442906047472 0.039497792598724275 -0.002439889434330379 -0.01191557173354562 0.0028655226899442394 0.018859157197526583
 0.002865830609942674 0.018859135904311704 -0.002439889434330379 -0.01191557173354562 0.008307562723940955 0.03949595425603403 0.9894199872652514 -0.09284944503464862
 -0.0024368370868853733 -0.011915839217817793 0.0028655226899442394 0.018859157197526583 0.9894199872652514 -0.09284944503464862 0.008310047874044485 0.03949566104982201
0.15631513130469998 0.008693067397624417 0.041056954652251995 0.9888800226768162 -0.09660453795386173 0.0030623855926874403 0.01961489514277833 -0.0025996342406684456 -0.012385540854949504
