! Created with skrf 1.8.0 (http://scikit-rf.org).
# GHz S RI R 50.0 
!freq ReS11 ImS11 ReS12 ImS12 ReS13 ImS13
! ReS14 ImS14
! ReS21 ImS21 ReS22 ImS22 ReS23 ImS23
! ReS24 ImS24
! ReS31 ImS31 ReS32 ImS32 ReS33 ImS33
! ReS34 ImS34
! ReS41 ImS41 ReS42 ImS42 ReS43 ImS43
! ReS44 ImS44
!
0.0 0.002089466711156 0.0 0.9979105332794 0.0 8.156608589722e-05 0.0 -8.156608556358e-05 9.988964560441738e-21
 0.9979105332794 0.0 0.002089466711177 0.0 -8.156608556418e-05 9.988964560515216e-21 8.156608589668e-05 0.0
 8.156608589722e-05 0.0 -8.156608556418e-05 9.988964560515216e-21 0.00208946671436 0.0 0.9979105332826 0.0
 -8.156608556358e-05 9.988964560441738e-21 8.156608589668e-05 0.0 0.9979105332826 0.0 0.002089466714347 0.0
0.005 0.0022502051952318575 0.0017060775189380356 0.9977067919471727 -0.004374776044471782 0.00011578609170362887 0.0009063256741079856 -0.00011216861731496043 -0.0005671596440692341
 0.9977067919471727 -0.004374776044471782 0.0022502255232990003 0.0017060656789208957 -0.00011216985938776854 -0.0005671606655959526 0.00011564988360553937 0.0009063776259201346
 0.00011578609170362887 0.0009063256741079856 -0.00011216985938776854 -0.0005671606655959526 0.002250203801244676 0.0017060110982209725 0.9977067915316011 -0.004374843109328133
 -0.00011216861731496043 -0.0005671596440692341 0.00011564988360553937 0.0009063776259201346 0.9977067915316011 -0.004374843109328133 0.0022502260989108965 0.0017059979817085748
0.006252605252188 0.002292996565657798 0.0021392248290174306 0.9976521091746909 -0.005469436505836513 0.00012592968302684477 0.001133299291587149 -0.00012110596397010316 -0.0007096449475938142
 0.9976521091746909 -0.005469436505836513 0.002293028342196918 0.002139209805969501 -0.00012110789616070775 -0.0007096462077488658 0.0001257168758915528 0.0011333668639357294
 0.00012592968302684477 0.001133299291587149 -0.00012110789616070775 -0.0007096462077488658 0.0022929944789952107 0.0021391418177968942 0.9976521086177019 -0.005469520336235763
 -0.00012110596397010316 -0.0007096449475938142 0.0001257168758915528 0.0011333668639357294 0.9976521086177019 -0.005469520336235763 0.002293029335442318 0.0021391251826003706
0.01250521050438 0.002521951472282709 0.004322340748919875 0.9973571350768701 -0.01093886164829304 0.00018603723535070706 0.00226658743370457 -0.00017340812356490134 -0.0014222989070162748
 0.9973571350768701 -0.01093886164829304 0.0025220783576714715 0.004322308456679158 -0.00017341573080530956 -0.0014223012398745791 0.00018518871295897593 0.002266751591177162
 0.00018603723535070706 0.00226658743370457 -0.00017341573080530956 -0.0014223012398745791 0.0025219436799108754 0.004322175160046017 0.9973571333958371 -0.01093902906748214
 -0.00017340812356490134 -0.0014222989070162748 0.00018518871295897593 0.002266751591177162 0.9973571333958371 -0.01093902906748214 0.0025220828811893525 0.004322139450764681
0.01875781575657 0.0027769590507285666 0.006535425129876142 0.9970251551742904 -0.01642141876810023 0.0002620443130522701 0.0034005143137349403 -0.00023865844371570764 -0.0021368167340609532
 0.9970251551742904 -0.01642141876810023 0.0027772441761126547 0.0065353731569479274 -0.00023867539711027914 -0.002136819907855852 0.00026013846866306477 0.003400811154946126
 0.0002620443130522701 0.0034005143137349403 -0.00023867539711027914 -0.002136819907855852 0.0027769419559200933 0.006535177331088271 0.99702515181371 -0.016421669736479606
 -0.00023865844371570764 -0.0021368167340609532 0.00026013846866306477 0.003400811154946126 0.99702515181371 -0.016421669736479606 0.002777254789698017 0.006535119862669256
0.02501042100875 0.0030586194519640455 0.008775196803250446 0.9966556928727417 -0.021919584066985357 0.00035410761084063425 0.0045350074515312176 -0.00031703316636312774 -0.002852761746624458
 0.9966556928727417 -0.021919584066985357 0.003059125839655461 0.008775122595848443 -0.00031706308877855056 -0.0028527654815568566 0.0003507229324656709 0.004535479990850298
 0.00035410761084063425 0.0045350074515312176 -0.00031706308877855056 -0.0028527654815568566 0.003058589464264473 0.008774867233059813 0.9966556872728722 -0.021919918609462873
 -0.00031703316636312774 -0.002852761746624458 0.0003507229324656709 0.004535479990850298 0.9966556872728722 -0.021919918609462873 0.0030591451154811907 0.008774785099543336
0.03126302626094 0.003367506749808527 0.011039875762935367 0.9962482529333933 -0.02743430698795404 0.00046238209436154885 0.005669885988625885 -0.00040870080466539504 -0.003569791799522028
 0.9962482529333933 -0.02743430698795404 0.0033682973584438654 0.011039776629151286 -0.0004087472785537183 -0.003569795767437557 0.00045709683126353266 0.0056705841987104355
 0.00046238209436154885 0.005669885988625885 -0.0004087472785537183 -0.003569795767437557 0.0033674602814837656 0.011039464959098435 0.9962482445237528 -0.027434725166043703
 -0.00040870080466539504 -0.003569791799522028 0.00045709683126353266 0.0056705841987104355 0.9962482445237528 -0.027434725166043703 0.003368327878650046 0.011039355037117518
0.037515631513130004 0.0037041799168226314 0.013328232247647877 0.9958023331696828 -0.032965961140652346 0.0005870192156714363 0.00680492452427993 -0.0005138233123369896 -0.004287595583955147
 0.9958023331696828 -0.032965961140652346 0.0037053176749717444 0.01332810535895699 -0.0005138898837036271 -0.004287599408360134 0.0005794112618053721 0.006805905400584905
 0.0005870192156714363 0.00680492452427993 -0.0005138898837036271 -0.004287599408360134 0.0037041133913153206 0.013327740840201217 0.9958023213746868 -0.03296646306020759
 -0.0005138233123369896 -0.004287595583955147 0.0005794112618053721 0.006805905400584905 0.9958023213746868 -0.03296646306020759 0.0037053620399096023 0.01332759978941513
0.043768236765320004 0.004069186998782554 0.01563929735017746 0.9953174293479011 -0.0385146336872613 0.0007281660167059256 0.007939872585204765 -0.0006325564249335215 -0.005005873305846119
 0.9953174293479011 -0.0385146336872613 0.004070734834654022 0.015639139741177692 -0.0006326466056656123 -0.00500587656196754 0.000717812887186558 0.007941200216787708
 0.0007281660167059256 0.007939872585204765 -0.0006326466056656123 -0.00500587656196754 0.004069096849748637 0.015638726074561085 0.9953174135820242 -0.03851521948595314
 -0.0006325564249335215 -0.005005873305846119 0.000717812887186558 0.007941200216787708 0.9953174135820242 -0.03851521948595314 0.004070795661207924 0.01563855033647914
0.050020842017509996 0.004463066972642841 0.017972243488741487 0.994793037777106 -0.04408024487211213 0.000885964542662953 0.009074462712901825 -0.000765049710300711 -0.0057243287613186755
 0.994793037777106 -0.04408024487211213 0.004465087841012929 0.017972052055838333 -0.0007651669796740992 -0.005724330976214232 0.0008724434010506717 0.009076208355139842
 0.000885964542662953 0.009074462712901825 -0.0007651669796740992 -0.005724330976214232 0.004462949647366613 0.017971593184654452 0.9947930174443838 -0.0440809147211623
 -0.000765049710300711 -0.0057243287613186755 0.0008724434010506717 0.009076208355139842 0.9947930174443838 -0.0440809147211623 0.004465167764704205 0.017971378980147997
0.055454545454549996 0.004829221360171984 0.020016834492655736 0.994304867141463 -0.04893054192816408 0.0010367257146765068 0.010059947712771116 -0.0008914768031923838 -0.0063486024720919255
 0.994304867141463 -0.04893054192816408 0.004831704475108072 0.02001661103603261 -0.0008916204144009475 -0.006348603360712616 0.0010201078494188856 0.010062120107511575
 0.0010367257146765068 0.010059947712771116 -0.0008916204144009475 -0.006348603360712616 0.004829077544446298 0.020016116269292346 0.9943048423462827 -0.04893128498918741
 -0.0008914768031923838 -0.0063486024720919255 0.0010201078494188856 0.010062120107511575 0.9943048423462827 -0.04893128498918741 0.004831803149990271 0.020015865393151304
0.056273447269699996 0.00488635062493177 0.0203263257575171 0.9942286569267421 -0.049662606685603426 0.0010605513940214134 0.010208414480004488 -0.0009114464892326763 -0.006442665500041285
 0.9942286569267421 -0.049662606685603426 0.004888907532969601 0.020326097256348447 -0.0009115942948488722 -0.006442666152705977 0.0010434391097465005 0.010210656627346113
 0.0010605513940214134 0.010208414480004488 -0.0009115942948488722 -0.006442666152705977 0.004886202586066238 0.02032559736331912 0.9942286314189104 -0.04966336079605207
 -0.0009114464892326763 -0.006442665500041285 0.0010434391097465005 0.010210656627346113 0.9942286314189104 -0.04966336079605207 0.0048890092086513424 0.020325340689009267
0.06252605252188 0.005339560940804469 0.02270084970992629 0.9936237885628506 -0.055261455113430856 0.0012520573475454163 0.011341436744720622 -0.001071883690584648 -0.0071605847686435735
 0.9936237885628506 -0.055261455113430856 0.005342716973734795 0.022700580751634693 -0.001072065449056504 -0.007160583290113172 0.0012309305746762355 0.01134426120257342
 0.0012520573475454163 0.011341436744720622 -0.001072065449056504 -0.007160583290113172 0.005339378670064502 0.022700044273104604 0.993623757258428 -0.0552622937258676
 -0.001071883690584648 -0.0071605847686435735 0.0012309305746762355 0.01134426120257342 0.993623757258428 -0.0552622937258676 0.005342843077572898 0.022699740896635952
0.06877865777407 0.005823213226937327 0.025095152199180026 0.9929779386235286 -0.060876469348092474 0.0014606070181294186 0.012473229041841486 -0.0012464916686325887 -0.007877784336578595
 0.9929779386235286 -0.060876469348092474 0.0058270315727464465 0.025094839245624865 -0.0012467107659438915 -0.007877780110047018 0.0014350422890630785 0.012476728997026702
 0.0014606070181294186 0.012473229041841486 -0.0012467107659438915 -0.007877780110047018 0.005822993225695832 0.02509427087553948 0.9929779008849721 -0.06087739273399355
 -0.0012464916686325887 -0.007877784336578595 0.0014350422890630785 0.012476728997026702 0.9929779008849721 -0.06087739273399355 0.005827184801644588 0.025093916329680662
0.07503126302626001 0.006337815071976052 0.027508589256359645 0.9922906179390887 -0.06650728398498405 0.0016863185445751732 0.013603482514275076 -0.0014353939986451343 -0.008593957801306425
 0.9922906179390887 -0.06650728398498405 0.006342359046716789 0.02750822861413353 -0.0014356537904832477 -0.008593950162225264 0.0016558923752895151 0.013607758603682405
 0.0016863185445751732 0.013603482514275076 -0.0014356537904832477 -0.008593950162225264 0.006337553865762339 0.02750763330695356 0.992290573111995 -0.06650829244976397
 -0.0014353939986451343 -0.008593957801306425 0.0016558923752895151 0.013607758603682405 0.992290573111995 -0.06650829244976397 0.006342542120688284 0.027507222882677793
0.08128386827845 0.0068838662111544765 0.02994052806675908 0.9915613428595105 -0.07215349714270049 0.001929303291376715 0.014731880579635025 -0.0016387072591124876 -0.009308794178606816
 0.9915613428595105 -0.07215349714270049 0.006889199283003761 0.029940115880120032 -0.0016390110709391087 -0.00930878241481021 0.001893592295863741 0.014737040956680932
 0.001929303291376715 0.014731880579635025 -0.0016390110709391087 -0.00930878241481021 0.006883560351408924 0.02993949885984199 0.9915612902710645 -0.07215459102403017
 -0.0016387072591124876 -0.009308794178606816 0.001893592295863741 0.014737040956680932 0.9915612902710645 -0.07215459102403017 0.006889414945797828 0.029939027598229907
0.08753647353064001 0.0074618583193676695 0.032390341451445155 0.9907896358170764 -0.07781467610241714 0.002189665562505235 0.01585809944099635 -0.0018565408047136476 -0.010021977669410627
 0.9907896358170764 -0.07781467610241714 0.007468044133850616 0.0323898736938144 -0.0018568919318875307 -0.010021961021199333 0.0021482465750215355 0.015864259839798424
 0.002189665562505235 0.01585809944099635 -0.0018568919318875307 -0.010021961021199333 0.007461504386787993 0.0323892404645032 0.9907895747738888 -0.07781585576786347
 -0.0018565408047136476 -0.010021977669410627 0.0021482465750215355 0.015864259839798424 0.9907895747738888 -0.07781585576786347 0.00746829515386538 0.0323887031474121
0.09378907878283 0.008072274762310809 0.03485740397032887 0.9899750258482861 -0.08349036134952782 0.0024675023231570795 0.01698180850213013 -0.002088996535043244 -0.010733187543128188
 0.9899750258482861 -0.08349036134952782 0.008079377166945664 0.0348568764348508 -0.002089398242763627 -0.010733165203403462 0.0024199525271525824 0.016989092299011844
 0.0024675023231570795 0.01698180850213013 -0.002089398242763627 -0.010733165203403462 0.008071869369306931 0.03485623278880811 0.9899749556350842 -0.08349162719782649
 -0.002088996535043244 -0.010733187543128188 0.0024199525271525824 0.016989092299011844 0.9899749556350842 -0.08349162719782649 0.008079666338254398 0.03485562392840978
0.100041684035 0.008715590312984701 0.037341089097833895 0.9891170490847662 -0.08918006956861523 0.0027629029296586008 0.018102670720725796 -0.0023361686596847717 -0.011442098104233748
 0.9891170490847662 -0.08918006956861523 0.008723673381557598 0.03734049738648566 -0.002336624182883248 -0.011442069218607565 0.0027087999921127873 0.01811120899305054
 0.0027629029296586008 0.018102670720725796 -0.002336624182883248 -0.011442069218607565 0.008715130106899066 0.037339849414923215 0.989116968962872 -0.08918142202941293
 -0.0023361686596847717 -0.011442098104233748 0.0027087999921127873 0.01811120899305054 0.989116968962872 -0.08918142202941293 0.00872400352525851 0.037339163241961806
0.1059090909091 0.00934961022090508 0.03968632136254544 0.9882720806970707 -0.09453156157195249 0.0030561518818136347 0.01915158624150997 -0.0025815748500927008 -0.012104949813272078
 0.9882720806970707 -0.09453156157195249 0.009358672036465876 0.039685665248007394 -0.0025820837885391313 -0.012104913965905172 0.002995515962282341 0.01916142782853506
 0.0030561518818136347 0.01915158624150997 -0.0025820837885391313 -0.012104913965905172 0.009349095563076603 0.03968501903612885 0.988271990582469 -0.09453299572538017
 -0.0025815748500927008 -0.012104949813272078 0.002995515962282341 0.01916142782853506 0.988271990582469 -0.09453299572538017 0.00935904321872251 0.03968425480448477
0.1062942892872 0.009392270845719114 0.03984076713952557 0.9882152492235778 -0.09488329592264678 0.0030759488645303134 0.01922034292412259 -0.002598143462904076 -0.012148378717731808
 0.9882152492235778 -0.09488329592264678 0.00940139890329791 0.039840106650902464 -0.0025986560062268814 -0.012148342384616732 0.003014871075798098 0.019230274506136107
 0.0030759488645303134 0.01922034292412259 -0.0025986560062268814 -0.012148342384616732 0.00939175251177749 0.03983946075744658 0.9882151584288256 -0.09488473545470537
 -0.002598143462904076 -0.012148378717731808 0.003014871075798098 0.019230274506136107 0.9882151584288256 -0.09488473545470537 0.009401772867989568 0.03983869120836965
0.11254689453939999 0.010102773012967966 0.042355803682564336 0.9872691779798998 -0.10059951582457988 0.003406713478172602 0.020334476102575577 -0.0028749990681172476 -0.012851693878676384
 0.9872691779798998 -0.10059951582457988 0.010113010660086382 0.0423550695985335 -0.0028755718055939457 -0.012851649149416843 0.003338239896282 0.020345947638194768
 0.003406713478172602 0.020334476102575577 -0.0028755718055939457 -0.012851649149416843 0.010102193277162407 0.042354432512485295 0.9872690757212671 -0.10060104291521375
 -0.0028749990681172476 -0.012851693878676384 0.003338239896282 0.020345947638194768 0.9872690757212671 -0.10060104291521375 0.010113431323428308 0.042353573215122585
0.11879949979160001 0.010847543909945646 0.04488555842703457 0.9862783955280756 -0.10632818635477558 0.003755261735667199 0.021444715685877688 -0.0031668052038043197 -0.013551703320002053
 0.9862783955280756 -0.10632818635477558 0.010858956047419719 0.04488474569780234 -0.0031674412788168706 -0.013551649198993801 0.003678972334911632 0.02145788167822797
 0.003755261735667199 0.021444715685877688 -0.0031674412788168706 -0.013551649198993801 0.010846899542367684 0.04488412448782689 0.9862782809861073 -0.1063298015202929
 -0.0031668052038043197 -0.013551703320002053 0.003678972334911632 0.02145788167822797 0.9862782809861073 -0.1063298015202929 0.010859426316807575 0.04488316874586134
0.1250521050438 0.011627020729991062 0.0474293843017541 0.9852424709315717 -0.11206874742052278 0.004121649969335707 0.022550701816366443 -0.0034736229719592097 -0.014248062145599137
 0.9852424709315717 -0.11206874742052278 0.011639672582438754 0.04742848762986102 -0.003474325496908751 -0.014247997590423807 0.004037125792581786 0.02256572467403028
 0.004121649969335707 0.022550701816366443 -0.003474325496908751 -0.014247997590423807 0.011626308547359592 0.047427889719118654 0.9852423432560393 -0.11207045120606672
 -0.0034736229719592097 -0.014248062145599137 0.004037125792581786 0.02256572467403028 0.9852423432560393 -0.11207045120606672 0.011640195395881231 0.047426830495285385
0.131304710296 0.012441630413011103 0.04998662680591059 0.9841609825638866 -0.11782062271710592 0.004505925636750329 0.023652069616040324 -0.0037955046192570275 -0.014940420991102555
 0.9841609825638866 -0.11782062271710592 0.012455587553478593 0.04998564062854781 -0.0037962766753555344 -0.014940344912617406 0.004412748951776958 0.023669119695709603
 0.004505925636750329 0.023652069616040324 -0.0037962766753555344 -0.014940344912617406 0.012440847282333148 0.049985073813570105 0.9841608408729944 -0.11782241569436815
 -0.0037955046192570275 -0.014940420991102555 0.004412748951776958 0.023669119695709603 0.9841608408729944 -0.11782241569436815 0.01245616588096559 0.049983903711410774
0.1375573155481 0.013126320224820066 0.05222484336253399 0.9831991000841557 -0.12325115930496695 0.004866357464708271 0.024718340726094776 -0.004090837186731705 -0.015598269315417556
 0.9831991000841557 -0.12325115930496695 0.013141653714035733 0.05222378203043089 -0.004091683605314155 -0.015598181393427779 0.004764320383011027 0.024737421652212835
 0.004866357464708271 0.024718340726094776 -0.004091683605314155 -0.015598181393427779 0.013125463913863007 0.052223233520027064 0.9831989436964255 -0.12325304181221937
 -0.004090837186731705 -0.015598269315417556 0.004764320383011027 0.024737421652212835 0.9831989436964255 -0.12325304181221937 0.013142289273587375 0.05222196605176631
0.1438099208003 0.013835571186709512 0.05444691599470601 0.9822022597892534 -0.12866350278548347 0.0052411232362108125 0.02577746397165295 -0.004397710956479257 -0.01624961763032917
 0.9822022597892534 -0.12866350278548347 0.013852347851093448 0.054445774718581544 -0.004398635087877048 -0.016249516760895828 0.005129847425674762 0.02579873421711723
 0.0052411232362108125 0.02577746397165295 -0.004398635087877048 -0.016249516760895828 0.013834638795056042 0.0544452515615163 0.982202087819056 -0.12866547537547027
 -0.004397710956479257 -0.01624961763032917 0.005129847425674762 0.02579873421711723 0.982202087819056 -0.12866547537547027 0.013853043432740528 0.054443880167568126
0.1500625260525 0.014569055379472094 0.056652531892598876 0.9811707955288266 -0.13405738806976897 0.0056300406628507806 0.02682924241482073 -0.004715949966911794 -0.016894286010653424
 0.9811707955288266 -0.13405738806976897 0.014587342386837763 0.05665130549811629 -0.004716955152101104 -0.016894171044218642 0.005509151332262618 0.026852866183984345
 0.0056300406628507806 0.02682924241482073 -0.004716955152101104 -0.016894171044218642 0.014568044065065983 0.05665081520878076 0.9811706070628965 -0.13405945131511143
 -0.004715949966911794 -0.016894286010653424 0.005509151332262618 0.026852866183984345 0.9811706070628965 -0.13405945131511143 0.014588100796634666 0.05664933287911691
0.15631513130469998 0.015326441644857755 0.058841387938126766 0.9801050438577881 -0.13943255439089763 0.0060329247827253215 0.027873483852073597 -0.005045375641026418 -0.017532099567126286
 0.9801050438577881 -0.13943255439089763 0.01534630651145102 0.05884007084811194 -0.00504646521157335 -0.017531969308539667 0.005902050752214979 0.027899630996086014
