! Created with skrf 1.8.0 (http://scikit-rf.org).
# GHz S RI R 50.0 
!freq ReS11 ImS11 ReS12 ImS12 ReS13 ImS13
! ReS14 ImS14
! ReS21 ImS21 ReS22 ImS22 ReS23 ImS23
! ReS24 ImS24
! ReS31 ImS31 ReS32 ImS32 ReS33 ImS33
! ReS34 ImS34
! ReS41 ImS41 ReS42 ImS42 ReS43 ImS43
! ReS44 ImS44
!
0.0 0.001252239473674 0.0 0.998747760521 0.0 4.775579106839e-05 0.0 -4.775579111251e-05 5.848397672668499e-21
 0.998747760521 0.0 0.001252239473685 0.0 -4.775579111233e-05 5.848397672646456e-21 4.775579106761e-05 0.0
 4.775579106839e-05 0.0 -4.775579111233e-05 5.848397672646456e-21 0.00125223947047 0.0 0.9987477605178 0.0
 -4.775579111251e-05 5.848397672668499e-21 4.775579106761e-05 0.0 0.9987477605178 0.0 0.001252239470494 0.0
0.005 0.0013465977461558551 0.0010259256399230616 0.9986285020370373 -0.0026239570283947905 6.632291097781146e-05 0.0005200518130845312 -6.454223506596926e-05 -0.00032761550093992904
 0.9986285020370373 -0.0026239570283947905 0.0013465976725069956 0.0010259256364294044 -6.454329008531866e-05 -0.0003276162433554281 6.633801220122191e-05 0.0005200463325007176
 6.632291097781146e-05 0.0005200518130845312 -6.454329008531866e-05 -0.0003276162433554281 0.0013465978852753382 0.0010259927636149793 0.998628502366546 -0.002623889966058664
 -6.454223506596926e-05 -0.00032761550093992904 6.633801220122191e-05 0.0005200463325007176 0.998628502366546 -0.002623889966058664 0.0013465981874604374 0.0010259926328836635
0.006252605252188 0.001371141394186923 0.0012864668944951793 0.9985973202551837 -0.003280619304125996 7.150582398102223e-05 0.0006503328814074092 -6.918679080687289e-05 -0.0004099532409377436
 0.9985973202551837 -0.003280619304125996 0.0013711412788315123 0.0012864668130851303 -6.91884330710371e-05 -0.0004099541552921732 7.152942179179211e-05 0.0006503257282682734
 7.150582398102223e-05 0.0006503328814074092 -6.91884330710371e-05 -0.0004099541552921732 0.001371141542381126 0.0012865507870580323 0.9985973207006615 -0.0032805354802546557
 -6.918679080687289e-05 -0.0004099532409377436 7.152942179179211e-05 0.0006503257282682734 0.9985973207006615 -0.0032805354802546557 0.0013711420137648873 0.0012865505581975242
0.01250521050438 0.001499158579392825 0.002600148573580969 0.9984337690533143 -0.006562218511454324 0.00010058673564135411 0.0013011145707620658 -9.503006337143545e-05 -0.000822015461202659
 0.9984337690533143 -0.006562218511454324 0.0014991581219382846 0.002600147622556608 -9.503654259970966e-05 -0.0008220171415369029 0.00010068094297025797 0.0013010970716441296
 0.00010058673564135411 0.0013011145707620658 -9.503654259970966e-05 -0.0008220171415369029 0.0014991586207442277 0.0026003160210474434 0.9984337702765728 -0.0065620511066909705
 -9.503006337143545e-05 -0.000822015461202659 0.00010068094297025797 0.0013010970716441296 0.9984337702765728 -0.0065620511066909705 0.0014991604918581578 0.0026003148909861393
0.01875781575657 0.0016365277632118971 0.003932840873418355 0.9982569342586243 -0.009852825895673172 0.00013505955227081028 0.00195280033396834 -0.00012535586344296395 -0.0012356274346420337
 0.9982569342586243 -0.009852825895673172 0.001636526745761289 0.00393283821000831 -0.00012537032288078168 -0.0012356297068964951 0.00013527142508823142 0.0019527688142326933
 0.00013505955227081028 0.00195280033396834 -0.00012537032288078168 -0.0012356297068964951 0.001636527448021036 0.003933091667461859 0.9982569365899605 -0.009852574987135671
 -0.00012535586344296395 -0.0012356274346420337 0.00013527142508823142 0.0019527688142326933 0.9982569365899605 -0.009852574987135671 0.0016365316343171904 0.003933088908581209
0.02501042100875 0.0017834808934787463 0.005282724354578018 0.9980666376683731 -0.013154079241481376 0.00017498600097913457 0.0026054431507216147 -0.00016023284386182081 -0.001650629109116541
 0.9980666376683731 -0.013154079241481376 0.0017834791029142363 0.005282719076028497 -0.00016025839318234775 -0.001650631770503198 0.00017536276228224197 0.002605393460741646
 0.00017498600097913457 0.0026054431507216147 -0.00016025839318234775 -0.001650631770503198 0.0017834799754338382 0.005283058303208451 0.9980666414359604 -0.013153744852560703
 -0.00016023284386182081 -0.001650629109116541 0.00017536276228224197 0.002605393460741646 0.9980666414359604 -0.013153744852560703 0.0017834873782306203 0.0052830531285713595
0.03126302626094 0.0019402400380275921 0.006648884500545944 0.9978626905505503 -0.016466705613853744 0.00022042842122393393 0.003259037595646652 -0.0001997281222001393 -0.002066915728737988
 0.9978626905505503 -0.016466705613853744 0.00194023726296962 0.0066488756421638085 -0.00019976784344218954 -0.002066918547274937 0.0002210175004370932 0.0032589651046350207
 0.00022042842122393393 0.003259037595646652 -0.00019976784344218954 -0.002066918547274937 0.0019402382805480815 0.00664930139082341 0.9978626960885383 -0.01646628775113381
 -0.0001997281222001393 -0.002066915728737988 0.0002210175004370932 0.0032589651046350207 0.9978626960885383 -0.01646628775113381 0.001940249785477368 0.006649292952565199
0.037515631513130004 0.002107022657116071 0.008030741518184868 0.9976448990178487 -0.019791091509426678 0.00027144921439366986 0.003913555554102647 -0.00024390777417764427 -0.002484402108876907
 0.9976448990178487 -0.019791091509426678 0.0021070186858155675 0.00803072805192572 -0.00024396472479540178 -0.002484404823204003 0.00027229826637642317 0.003913455142716641
 0.00027144921439366986 0.003913555554102647 -0.00024396472479540178 -0.002484404823204003 0.0021070198254331237 0.00803124112081703 0.9976449066594888 -0.01979059015778377
 -0.00024390777417764427 -0.002484402108876907 0.00027229826637642317 0.003913455142716641 0.9976449066594888 -0.01979059015778377 0.0021070363010867177 0.008031228508866702
0.043768236765320004 0.0022840436322377022 0.009427876857080904 0.9974130661578999 -0.023127456283299305 0.0003281105923809223 0.004568957084397683 -0.0002928370207011432 -0.0029030117628281032
 0.9974130661578999 -0.023127456283299305 0.0022840382505334485 0.009427857690350332 -0.000292914235400743 -0.002903014082086663 0.00032926750751800733 0.0045688231369818404
 0.0003281105923809223 0.004568957084397683 -0.000292914235400743 -0.002903014082086663 0.0022840394965748996 0.009428458923830027 0.9974130762393503 -0.02312687140818038
 -0.0002928370207011432 -0.0029030117628281032 0.00032926750751800733 0.0045688231369818404 0.9974130762393503 -0.02312687140818038 0.002284061792712738 0.00942844116490167
0.050020842017509996 0.002471516224727228 0.01083996149197079 0.9971669930945699 -0.026475923810878828 0.0003904744325018127 0.005225194897658744 -0.00034658030512787797 -0.003322672410854478
 0.9971669930945699 -0.026475923810878828 0.002471509213681553 0.010839935466572201 -0.0003466807969870991 -0.003322674014595658 0.00039198734214457455 0.005225021294284344
 0.0003904744325018127 0.005225194897658744 -0.0003466807969870991 -0.003322674014595658 0.0024715105585835155 0.010840625753040853 0.9971670059546424 -0.02647525536063037
 -0.00034658030512787797 -0.003322672410854478 0.00039198734214457455 0.005225021294284344 0.9971670059546424 -0.02647525536063037 0.002471539504515479 0.010840601809736852
0.055454545454549996 0.0026430883640130914 0.012079032176395497 0.9969414278757336 -0.02939572293154333 0.0004493493276967044 0.005796123985624008 -0.0003972439227763824 -0.003688169156169468
 0.9969414278757336 -0.02939572293154333 0.0026430797541642063 0.01207899919834704 -0.00039736707396073655 -0.003688169854829003 0.0004512108853933135 0.005795910552194561
 0.0004493493276967044 0.005796123985624008 -0.00039736707396073655 -0.003688169854829003 0.002643081185885407 0.012079767630074897 0.9969414434279308 -0.029394981797502343
 -0.0003972439227763824 -0.003688169156169468 0.0004512108853933135 0.005795910552194561 0.9969414434279308 -0.029394981797502343 0.0026431165671903043 0.012079737419387917
0.056273447269699996 0.002669652578024687 0.0122667207375595 0.9969064795953929 -0.029836557616926808 0.00045860217784877126 0.005882216556107601 -0.0004052013226655039 -0.0037433137714962274
 0.9969064795953929 -0.029836557616926808 0.002669643712077933 0.012266686628759807 -0.00040532808389691133 -0.003743314309615717 0.0004605194574038763 0.0058819966645236805
 0.00045860217784877126 0.005882216556107601 -0.00040532808389691133 -0.003743314309615717 0.0026696451573837566 0.012267466899488726 0.9969064955756628 -0.029835805524723785
 -0.0004052013226655039 -0.0037433137714962274 0.0004605194574038763 0.0058819966645236805 0.9969064955756628 -0.029835805524723785 0.0026696815604411424 0.012267435669391152
0.06252605252188 0.0028786639991119356 0.013707914890676246 0.9966313244599643 -0.03320938017793971 0.0005325547615650615 0.0065399656734058155 -0.00046876302471044715 -0.004164866351920858
 0.9966313244599643 -0.03320938017793971 0.002878653043824482 0.013707871406276865 -0.0004689190271970007 -0.004164865444586302 0.0005349250311702878 0.006539692340935703
 0.0005325547615650615 0.0065399656734058155 -0.0004689190271970007 -0.004164865444586302 0.002878654602314514 0.013708742635125535 0.996631343905479 -0.03320854436265291
 -0.00046876302471044715 -0.004164866351920858 0.0005349250311702878 0.006539692340935703 0.996631343905479 -0.03320854436265291 0.0028786992458637146 0.013708702950039913
0.06877865777407 0.003098761120816664 0.015163327696040113 0.9963413257906772 -0.03659438440152491 0.0006123925434974187 0.007198382633007178 -0.0005373276088944654 -0.004587260721574248
 0.9963413257906772 -0.03659438440152491 0.003098747830749141 0.01516327347559737 -0.0005375158045062125 -0.00458725795917309 0.000615264667920871 0.0071980481783726
 0.0006123925434974187 0.007198382633007178 -0.0005375158045062125 -0.00458725795917309 0.003098749528192348 0.015164236678433718 0.9963413490504355 -0.036593464768886586
 -0.0005373276088944654 -0.004587260721574248 0.000615264667920871 0.0071980481783726 0.9963413490504355 -0.036593464768886586 0.0030988031700244414 0.015164187303647029
0.07503126302626001 0.003330153993390776 0.016632759024823987 0.9960362811953464 -0.0399915408945495 0.0006981752542170186 0.0078574050394586 -0.0006109565008316877 -0.005010427054304459
 0.9960362811953464 -0.0399915408945495 0.003330138109991044 0.016632692638793592 -0.0006111798216852831 -0.0050104219973831025 0.0007015983415186033 0.007857001244599574
 0.0006981752542170186 0.0078574050394586 -0.0006111798216852831 -0.0050104219973831025 0.003330139985848752 0.01663374887934379 0.9960363086223093 -0.03999053733196899
 -0.0006109565008316877 -0.005010427054304459 0.0007015983415186033 0.007857001244599574 0.9960363086223093 -0.03999053733196899 0.003330203356084139 0.016633688512913157
0.08128386827845 0.0035730521315844024 0.01811602001758661 0.9957159879474456 -0.043400802768149074 0.0007899619439920858 0.008516968018681466 -0.0006897103296424782 -0.005434294823084328
 0.9957159879474456 -0.043400802768149074 0.0035730333808761676 0.018115939966638964 -0.0006899716881969075 -0.005434287002304833 0.0007939853435199169 0.00851648612054702
 0.0007899619439920858 0.008516968018681466 -0.0006899716881969075 -0.005434287002304833 0.0035730354908835174 0.01811709034824325 0.9957160198995328 -0.04339971515344868
 -0.0006897103296424782 -0.005434294823084328 0.0007939853435199169 0.00851648612054702 0.9957160198995328 -0.04339971515344868 0.003573109290256106 0.018117017620331216
0.08753647353064001 0.0038276645338462343 0.01961292970184832 0.9953802431202468 -0.04682210896970156 0.0008878109340733493 0.009177004425311 -0.0007736488999661898 -0.005858792589327866
 0.9953802431202468 -0.04682210896970156 0.0038276426243831216 0.019612834416175923 -0.0007739511891104946 -0.005858781505417423 0.0008924842339726106 0.009176435107638697
 0.0008878109340733493 0.009177004425311 -0.0007739511891104946 -0.005858781505417423 0.003827645041513421 0.019614080087461568 0.9953802799601346 -0.04682093716593408
 -0.0007736488999661898 -0.005858792589327866 0.0008924842339726106 0.009176435107638697 0.9953802799601346 -0.04682093716593408 0.0038277299393594754 0.019613993559748313
0.09378907878283 0.0040941996806772695 0.021123312591552455 0.9950288437019573 -0.050255386634876865 0.0009917797704426376 0.009837444990548318 -0.0008628311606163336 -0.006283847853409885
 0.9950288437019573 -0.050255386634876865 0.0040941743010286065 0.021123200430207434 -0.0008631772536469202 -0.0062838329771261045 0.0009971527946147237 0.009836778375639042
 0.0009917797704426376 0.009837444990548318 -0.0008631772536469202 -0.0062838329771261045 0.004094177117455 0.02112454258671371 0.9950288857977619 -0.050254130489223676
 -0.0008628311606163336 -0.006283847853409885 0.0009971527946147237 0.009836778375639042 0.9950288857977619 -0.050254130489223676 0.004094273749692934 0.021124440751823303
0.100041684035 0.004372865519028811 0.022646996918027358 0.9946615866994459 -0.053700552809838764 0.0011019251784478178 0.01049821843071896 -0.0009573151713066052 -0.006709386946297073
 0.9946615866994459 -0.053700552809838764 0.004372836335674942 0.022646866168363075 -0.0009577079219250801 -0.006709367718382132 0.0011080479830001514 0.010497444071214194
 0.0011019251784478178 0.01049821843071896 -0.0009577079219250801 -0.006709367718382132 0.004372839664335468 0.022648306048694035 0.9946616344252363 -0.05369921215788956
 -0.0009573151713066052 -0.006709386946297073 0.0011080479830001514 0.010497444071214194 0.9946616344252363 -0.05369921215788956 0.004372948631454866 0.02264818732964687
0.1059090909091 0.004645581329204558 0.02408875964883829 0.9943023519323698 -0.05694420670596202 0.0012109522561481827 0.011118521772879314 -0.0010508511855420685 -0.007109083567373276
 0.9943023519323698 -0.05694420670596202 0.004645548251167091 0.024088609834019167 -0.001051290297213177 -0.007109059720514216 0.001217824379062817 0.011117636290082802
 0.0012109522561481827 0.011118521772879314 -0.001051290297213177 -0.007109059720514216 0.0046455521836021915 0.024090142586402255 0.9943024052873264 -0.05694278659060144
 -0.0010508511855420685 -0.007109083567373276 0.001217824379062817 0.011117636290082802 0.9943024052873264 -0.05694278659060144 0.004645673238317638 0.02409000652674011
0.1062942892872 0.004663869436223131 0.02418381329660448 0.994278269232983 -0.0571575157397649 0.001218303018114881 0.011159251530489267 -0.0010571580677038906 -0.007135334948344746
 0.994278269232983 -0.0571575157397649 0.004663836090933932 0.024183662173719193 -0.0010576003098954922 -0.007135310779499784 0.0012252258875989034 0.01115835840115263
 0.001218303018114881 0.011159251530489267 -0.0010576003098954922 -0.007135310779499784 0.004663840067745467 0.024185201063500247 0.994278322969369 -0.05715609040200985
 -0.0010571580677038906 -0.007135334948344746 0.0012252258875989034 0.01115835840115263 0.994278322969369 -0.05715609040200985 0.0046639619326475125 0.024185063813276425
0.11254689453939999 0.004967418226359589 0.025733593708578723 0.9938786886256834 -0.06062617584439305 0.0013409682400783772 0.01182046920733154 -0.0011624160249834252 -0.007561615628815485
 0.9938786886256834 -0.06062617584439305 0.004967380334032276 0.025733420354818026 -0.0011629105729628012 -0.00756158589967161 0.0013487416833445776 0.01181944569683646
 0.0013409682400783772 0.01182046920733154 -0.0011629105729628012 -0.00756158589967161 0.004967385118933649 0.02573505958539075 0.9938787487597508 -0.060624665627890484
 -0.0011624160249834252 -0.007561615628815485 0.0013487416833445776 0.01181944569683646 0.9938787487597508 -0.060624665627890484 0.004967520404693472 0.02573490208648115
0.11879949979160001 0.005283718049205409 0.027296170705900163 0.9934626424873509 -0.06410642647258871 0.0014699748419876812 0.012481794561543741 -0.0012731442201495253 -0.00798815140178613
 0.9934626424873509 -0.06410642647258871 0.0052836751951754295 0.02729597319043731 -0.0012736938681719007 -0.007988115462882925 0.00147864958769112 0.012480628464264681
 0.0014699748419876812 0.012481794561543741 -0.0012736938681719007 -0.007988115462882925 0.005283680974655237 0.02729771413809562 0.9934627094135036 -0.06410483117209771
 -0.0012731442201495253 -0.00798815140178613 0.00147864958769112 0.012480628464264681 0.9934627094135036 -0.06410483117209771 0.005283830162579294 0.027297534602082778
0.1250521050438 0.005612974385757472 0.02887137677532767 0.9930299287965572 -0.06759815449997093 0.0016053758246444797 0.013143148919344838 -0.0013893967936483584 -0.008414863290985926
 0.9930299287965572 -0.06759815449997093 0.005612926123479649 0.028871153093772178 -0.0013900043158979792 -0.008414820462753306 0.001615002816584969 0.01314182742720828
 0.0016053758246444797 0.013143148919344838 -0.0013900043158979792 -0.008414820462753306 0.0056129331118226836 0.028872997183616952 0.9930300029167533 -0.0675964738944952
 -0.0013893967936483584 -0.008414863290985926 0.001615002816584969 0.01314182742720828 0.9930300029167533 -0.0675964738944952 0.0056130966390298305 0.02887279375089558
0.131304710296 0.005955391988351854 0.030459043836604065 0.9925803459797272 -0.07110124079487826 0.0017472231484665127 0.013804451868563255 -0.0015112268100561828 -0.008841670904203848
 0.9925803459797272 -0.07110124079487826 0.005955337836630181 0.030458791910646044 -0.001511894960440726 -0.008841620476945672 0.0017578535406303022 0.013802961562854443
 0.0017472231484665127 0.013804451868563255 -0.001511894960440726 -0.008841620476945672 0.00595534627856187 0.030460740613224083 0.9925804277040773 -0.07109947465123859
 -0.0015112268100561828 -0.008841670904203848 0.0017578535406303022 0.013802961562854443 0.9925804277040773 -0.07109947465123859 0.00595552453564299 0.030460511352704885
0.1375573155481 0.0062260464415291724 0.03185168662996685 0.9921988447838306 -0.07440818554576925 0.0018757272878225106 0.014444265287978118 -0.0016188291594176302 -0.009247153280390281
 0.9921988447838306 -0.07440818554576925 0.006225984731596492 0.031851412445816255 -0.001619561775381822 -0.00924709529281988 0.001887376880605457 0.014442610123841878
 0.0018757272878225106 0.014444265287978118 -0.001619561775381822 -0.00924709529281988 0.006225995283749507 0.03185345969317463 0.9921989344572734 -0.0744063337284958
 -0.0016188291594176302 -0.009247153280390281 0.001887376880605457 0.014442610123841878 0.9921989344572734 -0.0744063337284958 0.0062261891381908355 0.03185320983791548
0.1438099208003 0.006505988634511064 0.03323807611155649 0.9918043586523918 -0.07770784145229705 0.0020094159042386927 0.015082137945332494 -0.0017307463102063812 -0.009650846484016392
 0.9918043586523918 -0.07770784145229705 0.006505918622008317 0.03323777830971936 -0.0017315463120034734 -0.009650780252898197 0.0020221297532823025 0.015080305937943834
 0.0020094159042386927 0.015082137945332494 -0.0017315463120034734 -0.009650780252898197 0.0065059316451385974 0.033239924876743494 0.9918044566834344 -0.07770590373265314
 -0.0017307463102063812 -0.009650846484016392 0.0020221297532823025 0.015080305937943834 0.9918044566834344 -0.07770590373265314 0.006506141508874952 0.03323965312063623
0.1500625260525 0.006795133543697564 0.03461812864685887 0.991396975597671 -0.08100015934125465 0.0021482506013410355 0.015718026351663434 -0.0018469407430447267 -0.010052708171942364
 0.991396975597671 -0.08100015934125465 0.006795054438501882 0.034617805818637756 -0.0018478110447114869 -0.010052632986981709 0.0021620735501624174 0.015716005088273727
 0.0021482506013410355 0.015718026351663434 -0.0018478110447114869 -0.010052632986981709 0.0067950703253856545 0.03462005250932387 0.9913970824016588 -0.08099813547923244
 -0.0018469407430447267 -0.010052708171942364 0.0021620735501624174 0.015716005088273727 0.9913970824016588 -0.08099813547923244 0.006795296573070305 0.034619757496354334
0.15631513130469998 0.007093395699941706 0.03599176331701374 0.9909767839050958 -0.08428508959941394 0.0022921926218574394 0.016351887625532614 -0.0019673745622942117 -0.010452696803295875
