! Created with skrf 1.8.0 (http://scikit-rf.org).
# GHz S RI R 50.0 
!freq ReS11 ImS11 ReS12 ImS12 ReS13 ImS13
! ReS14 ImS14
! ReS21 ImS21 ReS22 ImS22 ReS23 ImS23
! ReS24 ImS24
! ReS31 ImS31 ReS32 ImS32 ReS33 ImS33
! ReS34 ImS34
! ReS41 ImS41 ReS42 ImS42 ReS43 ImS43
! ReS44 ImS44
!
0.0 0.001396444661697 0.0 0.9986035553354 0.0 5.352170657383e-05 0.0 -5.352170604053e-05 6.554518598744062e-21
 0.9986035553354 0.0 0.001396444661691 0.0 -5.352170604056e-05 6.5545185987477365e-21 5.352170657307e-05 0.0
 5.352170657383e-05 0.0 -5.352170604056e-05 6.5545185987477365e-21 0.001396444663127 0.0 0.9986035553368 0.0
 -5.352170604053e-05 6.554518598744062e-21 5.352170657307e-05 0.0 0.9986035553368 0.0 0.001396444663121 0.0
0.005 0.0015020408550172788 0.001144526015016924 0.9984700262494212 -0.002925511891253043 7.453005946479945e-05 0.0005790051517366718 -7.24424846567585e-05 -0.0003653775747821794
 0.9984700262494212 -0.002925511891253043 0.0015020620839877239 0.0011445136714432693 -7.244433526939536e-05 -0.00036537902478547303 7.439055618007458e-05 0.0005790581732420954
 7.453005946479945e-05 0.0005790051517366718 -7.244433526939536e-05 -0.00036537902478547303 0.0015020394154881243 0.0011444596272139273 0.9984700259071096 -0.0029255789591761134
 -7.24424846567585e-05 -0.0003653775747821794 7.439055618007458e-05 0.0005790581732420954 0.9984700259071096 -0.0029255789591761134 0.0015020628441646119 0.0011444459278014648
0.006252605252188 0.0015296173842579222 0.0014351675993771163 0.9984349520085981 -0.003657622671640594 8.04779110192228e-05 0.0007240484397895036 -7.77283905251985e-05 -0.0004571985322829285
 0.9984349520085981 -0.003657622671640594 0.0015296505685072615 0.0014351519201879256 -7.773127003917199e-05 -0.0004572003210588891 8.025994758546092e-05 0.0007241172665103896
 8.04779110192228e-05 0.0007240484397895036 -7.773127003917199e-05 -0.0004572003210588891 0.001529615200019317 0.0014350846438510785 0.9984349515397596 -0.0036577064838175604
 -7.77283905251985e-05 -0.0004571985322829285 8.025994758546092e-05 0.0007241172665103896 0.9984349515397596 -0.0036577064838175604 0.0015296518234945232 0.0014350672612394296
0.01250521050438 0.0016740986367175044 0.002900503931241083 0.9982500524559038 -0.007316152142345947 0.00011430085245792181 0.001448520721058801 -0.00010741860446069936 -0.0009166758156182856
 0.9982500524559038 -0.007316152142345947 0.001674231134495886 0.0029004700652431477 -0.00010742995021322381 -0.0009166791350152377 0.00011343160396470349 0.001448685708973356
 0.00011430085245792181 0.001448520721058801 -0.00010742995021322381 -0.0009166791350152377 0.0016740904826011327 0.0029003383320596733 0.9982500511551078 -0.007316319543589908
 -0.00010741860446069936 -0.0009166758156182856 0.00011343160396470349 0.001448685708973356 0.9982500511551078 -0.007316319543589908 0.0016742367244743633 0.002900300954721176
0.01875781575657 0.001830180342223381 0.004386841687359769 0.9980486437469085 -0.010984515277074053 0.00015506452388633533 0.0021739023475128775 -0.00014267847915986595 -0.0013777999104775671
 0.9980486437469085 -0.010984515277074053 0.0018304780549726388 0.004386786968915871 -0.00014270377797484806 -0.0013778044574903026 0.0001531117049976361 0.0021741957838202733
 0.00015506452388633533 0.0021739023475128775 -0.00014270377797484806 -0.0013778044574903026 0.0018301624343805079 0.004386593675864927 0.9980486412447476 -0.010984766189955603
 -0.00014267847915986595 -0.0013777999104775671 0.0001531117049976361 0.0021741957838202733 0.9980486412447476 -0.010984766189955603 0.0018304910529529116 0.004386533476789124
0.02501042100875 0.0019981470377613934 0.005892130136730805 0.997830505197689 -0.014664514417431173 0.0002028444637223225 0.0029002337898923576 -0.000183591796129325 -0.0018403797378465153
 0.997830505197689 -0.014664514417431173 0.0019986757242611832 0.005892051765366082 -0.00018363646888820508 -0.0018403851589624742 0.00019937551944990118 0.002900692725776383
 0.0002028444637223225 0.0029002337898923576 -0.00018363646888820508 -0.0018403851589624742 0.001998115598156768 0.005891799975175183 0.997830501125943 -0.014664848797384925
 -0.000183591796129325 -0.0018403797378465153 0.00019937551944990118 0.002900692725776383 0.997830501125943 -0.014664848797384925 0.0019986992083117195 0.005891713938759164
0.03126302626094 0.002178271391184504 0.007415326523581774 0.9975954040401102 -0.018356935959295665 0.00025771694427309966 0.0036274905339756442 -0.0002302402563059731 -0.0023042849250827497
 0.9975954040401102 -0.018356935959295665 0.002179096702383231 0.00741522156919072 -0.0002303096693063063 -0.0023042908155748425 0.0002522986388820163 0.0036281568115415675
 0.00025771694427309966 0.0036274905339756442 -0.0002303096693063063 -0.0023042908155748425 0.0021782226432593343 0.007414914490743389 0.9975953980279715 -0.018357353809327036
 -0.0002302402563059731 -0.0023042849250827497 0.0002522986388820163 0.0036281568115415675 0.9975953980279715 -0.018357353809327036 0.002179133754587418 0.007414799417790293
0.037515631513130004 0.002370820323759828 0.00895576044047117 0.9973431016923588 -0.022062185924114096 0.0003197581785888042 0.0043556225466225935 -0.0002827040606842679 -0.002769406322892574
 0.9973431016923588 -0.022062185924114096 0.0023720078263138214 0.00895562584619657 -0.0002828035315677217 -0.0027694122266055743 0.0003119564051624753 0.004356542847820354
 0.0003197581785888042 0.0043556225466225935 -0.0002828035315677217 -0.0027694122266055743 0.0023707504948429665 0.008955266871687375 0.997343093368584 -0.02206268725524866
 -0.0002827040606842679 -0.002769406322892574 0.0003119564051624753 0.004356542847820354 0.997343093368584 -0.02206268725524866 0.002372061535897509 0.00895511938178347
0.043768236765320004 0.0025760573854889035 0.01051294046096855 0.9970733562860139 -0.025780483262382442 0.00038904395181889117 0.005084566286888451 -0.0003410621269813454 -0.0032356439834307195
 0.9970733562860139 -0.025780483262382442 0.0025776725796259363 0.010512773045355634 -0.00034119692823002154 -0.0032356493927006846 0.00037842363614104063 0.005085792189347519
 0.00038904395181889117 0.005084566286888451 -0.00034119692823002154 -0.0032356493927006846 0.0025759627049057304 0.010512365730324762 0.9970733452767531 -0.025781068112034528
 -0.0003410621269813454 -0.0032356439834307195 0.00037842363614104063 0.005085792189347519 0.9970733452767531 -0.025781068112034528 0.0025777460419031087 0.010512182263322751
0.050020842017509996 0.0027942438636505266 0.012086474170646226 0.9967859239302207 -0.029511939756789975 0.00046564940801416797 0.005814249656753941 -0.0004053921710329328 -0.0037029022015294183
 0.9967859239302207 -0.029511939756789975 0.002796352199140321 0.01208627062920272 -0.00040556753229795426 -0.0037029065571693074 0.000451774462241631 0.005815837692484633
 0.00046564940801416797 0.005814249656753941 -0.00040556753229795426 -0.0037029065571693074 0.002794120563237866 0.012085818707297661 0.9967859098584354 -0.029512608173023824
 -0.0004053921710329328 -0.0037029022015294183 0.000451774462241631 0.005815837692484633 0.9967859098584354 -0.029512608173023824 0.002796448515926488 0.012085595524111615
0.055454545454549996 0.0029945726887639097 0.01346694444924987 0.9965215821412584 -0.03276541062064113 0.0005382241174684332 0.006448906659838927 -0.0004662063782521547 -0.004109719623442249
 0.9965215821412584 -0.03276541062064113 0.0029971627037017018 0.013466706734932778 -0.0004664212024234244 -0.004109722569296776 0.0005211658431136274 0.006450859204247871
 0.0005382241174684332 0.006448906659838927 -0.0004664212024234244 -0.004109722569296776 0.002994421459570015 0.013466219214663925 0.9965215650996873 -0.03276615170990001
 -0.0004662063782521547 -0.004109719623442249 0.0005211658431136274 0.006450859204247871 0.9965215650996873 -0.03276615170990001 0.0029972814069293427 0.01346595834159
0.056273447269699996 0.0030256393573404113 0.013676028955043482 0.9964805594444247 -0.03325659916840101 0.0005496489017463707 0.006544594432732576 -0.0004757707315550151 -0.004171087077442041
 0.9964805594444247 -0.03325659916840101 0.003028306247641558 0.013675785861294887 -0.0004759918412030182 -0.004171089768739413 0.0005320822081431956 0.00654660614817961
 0.0005496489017463707 0.006544594432732576 -0.0004759918412030182 -0.004171089768739413 0.0030254836725580043 0.013675293241036859 0.9964805419301916 -0.03325735121270803
 -0.0004757707315550151 -0.004171087077442041 0.0005320822081431956 0.00654660614817961 0.9964805419301916 -0.03325735121270803 0.0030284285285113203 0.013675026423973762
0.06252605252188 0.003270502095347048 0.015281310418984109 0.9961570168383157 -0.037014458752756274 0.0006411158839715971 0.007275517598784254 -0.0005522731641741884 -0.004640105180730973
 0.9961570168383157 -0.037014458752756274 0.0032737929311209037 0.01528102422531673 -0.0005525451704103052 -0.004640105545456782 0.0006194192983406852 0.007278019615522613
 0.0006411158839715971 0.007275517598784254 -0.0005525451704103052 -0.004640105545456782 0.00327031026553052 0.015280494982666225 0.9961569954979242 -0.0370152945071981
 -0.0005522731641741884 -0.004640105180730973 0.0006194192983406852 0.007278019615522613 0.9961569954979242 -0.0370152945071981 0.0032739442933424024 0.015280180435469987
0.06877865777407 0.003529089111133688 0.01690204952393981 0.9958150496510083 -0.040785482060016344 0.0007401228063381724 0.008006932142065439 -0.0006349736184702579 -0.005109862753897838
 0.9958150496510083 -0.040785482060016344 0.003533069273035066 0.01690171656202034 -0.000635301630066393 -0.005109860078337272 0.0007138571753202458 0.008009996217729113
 0.0007401228063381724 0.008006932142065439 -0.000635301630066393 -0.005109860078337272 0.003528857379315437 0.016901154951303808 0.9958150240964584 -0.04078640161647009
 -0.0006349736184702579 -0.005109862753897838 0.0007138571753202458 0.008009996217729113 0.9958150240964584 -0.04078640161647009 0.0035332528415286933 0.016900788398733997
0.07503126302626001 0.003801656332774593 0.018537994434501576 0.9954544112094835 -0.0445696070282186 0.0008467410362892754 0.00873874755707311 -0.0007239450043664793 -0.00558026521037663
 0.9954544112094835 -0.0445696070282186 0.0038063912044797466 0.018537610915285822 -0.0007243340913036066 -0.005580258729348362 0.0008154662251083763 0.008742450646225345
 0.0008467410362892754 0.00873874755707311 -0.0007243340913036066 -0.005580258729348362 0.0038013809476696316 0.018537021362315678 0.9954543810484773 -0.04457061049576117
 -0.0007239450043664793 -0.00558026521037663 0.0008154662251083763 0.008742450646225345 0.9954543810484773 -0.04457061049576117 0.003806610112640521 0.018536598349458505
0.08128386827845 0.004088458622538647 0.02018890509232527 0.9950748548383069 -0.04836675135195828 0.0009610407794579484 0.009470870181883143 -0.0008192589513272664 -0.0060512168032179695
 0.9950748548383069 -0.04836675135195828 0.0040940136030956495 0.020188467105797706 -0.0008197141450971775 -0.006051205700113731 0.0009243157075120764 0.009475294496723937
 0.0009610407794579484 0.009470870181883143 -0.0008197141450971775 -0.006051205700113731 0.00408813583814379 0.0201878542143462 0.9950748196730311 -0.04836783885123967
 -0.0008192589513272664 -0.0060512168032179695 0.0009243157075120764 0.009475294496723937 0.9950748196730311 -0.04836783885123967 0.004094270992774443 0.020187370105492392
0.08753647353064001 0.004389749781190798 0.02185454946047136 0.9946761340375128 -0.05217681618361242 0.0010830910056792299 0.010203203434293472 -0.0009209857631403908 -0.006522620396863155
 0.9946761340375128 -0.05217681618361242 0.004396190297638057 0.0218540529750215 -0.0009215120570510775 -0.006522603803676466 0.001040473688649507 0.010208436504998067
 0.0010830910056792299 0.010203203434293472 -0.0009215120570510775 -0.006522603803676466 0.004389375858290595 0.021853421524220235 0.9946760934652433 -0.052177987850529586
 -0.0009209857631403908 -0.006522620396863155 0.001040473688649507 0.010208436504998067 0.9946760934652433 -0.052177987850529586 0.004396489319649458 0.02185287150145939
0.09378907878283 0.004705782528372859 0.02353470083935644 0.9942580026394593 -0.05599968876602789 0.0012129593785406244 0.010935647981031346 -0.0010291943686428623 -0.006994377308881533
 0.9942580026394593 -0.05599968876602789 0.004713174048112 0.02353414170072087 -0.0010297967179537114 -0.006994354306259423 0.0011640069758141792 0.010941782715645075
 0.0012129593785406244 0.010935647981031346 -0.0010297967179537114 -0.006994354306259423 0.00470535373447002 0.023533496649458547 0.9942579562505554 -0.05600094474892741
 -0.0010291943686428623 -0.006994377308881533 0.0011640069758141792 0.010941782715645075 0.9942579562505554 -0.05600094474892741 0.00471351786176146 0.023532875710819478
0.100041684035 0.005036808464873479 0.025229135901571845 0.9938202149501015 -0.05983524434987575 0.0013507121863455009 0.01166810186446669 -0.0011439522701606878 -0.007466387197303463
 0.9938202149501015 -0.05983524434987575 0.005045216508332414 0.02522850983145853 -0.0011446355921482028 -0.007466356814588197 0.001294981053091624 0.011675236608332046
 0.0013507121863455009 0.01166810186446669 -0.0011446355921482028 -0.007466356814588197 0.005036321076103708 0.02522785631922111 0.9938201623293305 -0.059836584810505376
 -0.0011439522701606878 -0.007466387197303463 0.001294981053091624 0.011675236608332046 0.9938201623293305 -0.059836584810505376 0.005045608282838447 0.025227159276524472
0.1059090909091 0.00536130043728386 0.026831977065190235 0.9933913021269536 -0.06344592111482637 0.001487207175544474 0.012355347600980225 -0.0012576557333272532 -0.007909457582018865
 0.9933913021269536 -0.06344592111482637 0.0053707220288749845 0.02683128418387747 -0.0012584194779704308 -0.007909419345410541 0.0014247107652443343 0.012363515086551351
 0.001487207175544474 0.012355347600980225 -0.0012584194779704308 -0.007909419345410541 0.005360754684081173 0.02683062756925688 0.9933912432740396 -0.06344734100772095
 -0.0012576557333272532 -0.007909457582018865 0.0014247107652443343 0.012363515086551351 0.9933912432740396 -0.06344734100772095 0.005371161699955529 0.0268298542242197
0.1062942892872 0.005383078024028256 0.026937633206193023 0.9933625258818989 -0.06368334763490316 0.0014964142747519197 0.012400460602421542 -0.0012653254896742518 -0.00793854797814836
 0.9933625258818989 -0.06368334763490316 0.005392568177314084 0.026936935800498163 -0.0012660946636501582 -0.007938509193431871 0.0014334600177553915 0.012408699196908625
 0.0014964142747519197 0.012400460602421542 -0.0012660946636501582 -0.007938509193431871 0.005382528324956504 0.02693627914849638 0.9933624666067252 -0.06368477274956108
 -0.0012653254896742518 -0.00793854797814836 0.0014334600177553915 0.012408699196908625 0.9933624666067252 -0.06368477274956108 0.005393011090973586 0.026935500624744348
0.11254689453939999 0.005744840411926724 0.028659972071244117 0.9928846910788934 -0.06754385385682435 0.001650128979916057 0.01313261726791191 -0.0013933785135048123 -0.008410755766312377
 0.9928846910788934 -0.06754385385682435 0.005755478339359192 0.02865919879783535 -0.0013942383807581027 -0.00841070750649502 0.0015795065171191006 0.013142069108533324
 0.001650128979916057 0.01313261726791191 -0.0013942383807581027 -0.00841070750649502 0.005744224696953159 0.028658544513190803 0.9928846247191311 -0.0675453638147486
 -0.0013933785135048123 -0.008410755766312377 0.0015795065171191006 0.013142069108533324 0.9928846247191311 -0.0675453638147486 0.005755975580246259 0.028657678939611343
0.11879949979160001 0.006122343540631287 0.030395931685246708 0.992386467036076 -0.07141660963882816 0.0018119180625099352 0.013864462553203328 -0.001528174235468129 -0.008882904835478099
 0.992386467036076 -0.07141660963882816 0.006134194997794332 0.030395077881335962 -0.0015291295992067575 -0.008882845976331868 0.0017331816857457565 0.013875242646964976
 0.0018119180625099352 0.013864462553203328 -0.0015291295992067575 -0.008882845976331868 0.006121658114885199 0.03039443166166577 0.9923863931537682 -0.07141820464063098
 -0.001528174235468129 -0.008882904835478099 0.0017331816857457565 0.013875242646964976 0.9923863931537682 -0.07141820464063098 0.006134749763721793 0.030393473274326115
0.1250521050438 0.006515833955326973 0.03214529041232542 0.9918676112163282 -0.07530145365349171 0.0019818416420378194 0.01459588482637242 -0.0016697738991970736 -0.009354887589034726
 0.9918676112163282 -0.07530145365349171 0.006528964801659341 0.03214435128148641 -0.0016708295243419112 -0.009354816955278115 0.0018945450825484716 0.014608113848348866
 0.0019818416420378194 0.01459588482637242 -0.0016708295243419112 -0.009354816955278115 0.00651507513541659 0.0321437190125236 0.9918675293652011 -0.07530313391690685
 -0.0016697738991970736 -0.009354887589034726 0.0018945450825484716 0.014608113848348866 0.9918675293652011 -0.07530313391690685 0.0065295803009218336 0.03214266184849064
0.131304710296 0.006925556756483247 0.03390782522984648 0.991327882163939 -0.07919821715630507 0.002159958131464121 0.015326770181370986 -0.0018182370393073665 -0.009826594541023427
 0.991327882163939 -0.07919821715630507 0.0069400329684501634 0.03390679583848294 -0.0018193976523915038 -0.009826510906393282 0.0020636546281958845 0.015340574530394321
 0.002159958131464121 0.015326770181370986 -0.0018193976523915038 -0.009826510906393282 0.00692472087142887 0.03390618360394363 0.9913277918885751 -0.07919998291016894
 -0.0018182370393073665 -0.009826594541023427 0.0020636546281958845 0.015340574530394321 0.9913277918885751 -0.07919998291016894 0.006940712419396008 0.033905021497075506
0.1375573155481 0.007254020828392001 0.03545372308321573 0.9908648034162603 -0.08287706100488834 0.002323213520058724 0.016033867405910156 -0.0019506246102692622 -0.01027470934545022
 0.9908648034162603 -0.08287706100488834 0.007269914368897102 0.03545262195214913 -0.0019518972648789503 -0.010274612699490484 0.002217682131539654 0.016049220098250636
 0.002323213520058724 0.016033867405910156 -0.0019518972648789503 -0.010274612699490484 0.0072531048089736466 0.03545201217159374 0.9908647043313318 -0.08287891237431537
 -0.0019506246102692622 -0.01027470934545022 0.002217682131539654 0.016049220098250636 0.9908647043313318 -0.08287891237431537 0.007270660265601805 0.03545076266644533
0.1438099208003 0.0075939181321036985 0.0369921096547467 0.9903856635249884 -0.08654720697176703 0.002493077601180829 0.016738391524498877 -0.0020883145132931987 -0.010720513241181461
 0.9903856635249884 -0.08654720697176703 0.0076112960773073515 0.036990933298901976 -0.0020897043000002347 -0.010720402384863404 0.0023779117249181636 0.01675540744054597
 0.002493077601180829 0.016738391524498877 -0.0020897043000002347 -0.010720402384863404 0.00759291843381738 0.03699033063193952 0.9903855551768406 -0.08654914418076179
 -0.0020883145132931987 -0.010720513241181461 0.0023779117249181636 0.01675540744054597 0.9903855551768406 -0.08654914418076179 0.007612111521666874 0.03698898900216934
0.1500625260525 0.0079451370843213 0.03852287498875292 0.9898905775392477 -0.09020858260802461 0.002669497001326041 0.01744028014432354 -0.0022312558152288477 -0.011163948657807364
 0.9898905775392477 -0.09020858260802461 0.007964066663388043 0.038521619706411145 -0.002232767815813032 -0.011163822344018803 0.0025442921900222628 0.01745907834253074
 0.002669497001326041 0.01744028014432354 -0.002232767815813032 -0.011163822344018803 0.007944050181794405 0.03852102907703348 0.9898904594664071 -0.09021060588801096
 -0.0022312558152288477 -0.011163948657807364 0.0025442921900222628 0.01745907834253074 0.9898904594664071 -0.09021060588801096 0.007964954758651112 0.03851959033063736
0.15631513130469998 0.008307565409084776 0.040045912541581456 0.9893796609816241 -0.09386111535649547 0.002852417769657029 0.01813947182854862 -0.0023793970072860516 -0.011604959175949503
