! Created with skrf 1.8.0 (http://scikit-rf.org).
# GHz S RI R 50.0 
!freq ReS11 ImS11 ReS12 ImS12 ReS13 ImS13
! ReS14 ImS14
! ReS21 ImS21 ReS22 ImS22 ReS23 ImS23
! ReS24 ImS24
! ReS31 ImS31 ReS32 ImS32 ReS33 ImS33
! ReS34 ImS34
! ReS41 ImS41 ReS42 ImS42 ReS43 ImS43
! ReS44 ImS44
!
0.0 0.001403321388402 0.0 0.9985966786008 0.0 5.418872755235e-05 0.0 -5.418872802969e-05 6.636205233142631e-21
 0.9985966786008 0.0 0.001403321388387 0.0 -5.418872802927e-05 6.636205233091196e-21 5.418872755185e-05 0.0
 5.418872755235e-05 0.0 -5.418872802927e-05 6.636205233091196e-21 0.001403321393804 0.0 0.9985966786062 0.0
 -5.418872802969e-05 6.636205233142631e-21 5.418872755185e-05 0.0 0.9985966786062 0.0 0.001403321393807 0.0
0.005 0.0015095622337512405 0.0011428418389749669 0.9984623278587144 -0.0029403103308484804 7.646223050225614e-05 0.0006302396126839334 -7.416633780035616e-05 -0.0003898551444031853
 0.9984623278587144 -0.0029403103308484804 0.0015095427316594654 0.0011428531733074004 -7.416680812946097e-05 -0.00038985543639730896 7.658268663741695e-05 0.0006301937887616664
 7.646223050225614e-05 0.0006302396126839334 -7.416680812946097e-05 -0.00038985543639730896 0.0015095619932857555 0.0011427746690423632 0.9984623275146046 -0.0029403773996056985
 -7.416633780035616e-05 -0.0003898551444031853 7.658268663741695e-05 0.0006301937887616664 0.9984623275146046 -0.0029403773996056985 0.0015095422929351427 0.0011427862155980292
0.006252605252188 0.0015373213045052636 0.0014330885210928695 0.998427022188277 -0.0036761265149814625 8.274498219111577e-05 0.0007880978200787256 -7.975980061513354e-05 -0.00048783717370930695
 0.998427022188277 -0.0036761265149814625 0.0015372908195624843 0.0014331029139429902 -7.976053304397182e-05 -0.0004878375323687331 8.293318527457522e-05 0.0007880383415025022
 8.274498219111577e-05 0.0007880978200787256 -7.976053304397182e-05 -0.0004878375323687331 0.0015373209999564705 0.0014330045679121293 0.9984270217210344 -0.003676210340323722
 -7.975980061513354e-05 -0.00048783717370930695 8.293318527457522e-05 0.0007880383415025022 0.9984270217210344 -0.003676210340323722 0.0015372902042707067 0.0014330192380709126
0.01250521050438 0.0016828412484748568 0.002896559261144783 0.9982408128988307 -0.007353193832915332 0.00011835011807257092 0.001576512137695246 -0.00011124440567144805 -0.0009781427555081797
 0.9982408128988307 -0.007353193832915332 0.0016827195286447257 0.002896590301086131 -0.00011124729901414222 -0.0009781434031051475 0.00011910066459201094 0.001576369601214163
 0.00011835011807257092 0.001576512137695246 -0.00011124729901414222 -0.0009781434031051475 0.0016828405960203166 0.0028963915978793605 0.9982408115853554 -0.007353361255359909
 -0.00011124440567144805 -0.0009781427555081797 0.00011910066459201094 0.001576369601214163 0.9982408115853554 -0.007353361255359909 0.0016827176206467818 0.002896423317205372
0.01875781575657 0.0018401768970575212 0.00438118547017071 0.9980378349380401 -0.011040180389746057 0.00016108383869984597 0.002365825446279084 -0.00014873545508247406 -0.0014701800078740423
 0.9980378349380401 -0.011040180389746057 0.0018399034009516473 0.00438123554454484 -0.00014874191703253205 -0.0014701808600927218 0.00016276994731274498 0.002365571980876574
 0.00016108383869984597 0.002365825446279084 -0.00014874191703253205 -0.0014701808600927218 0.0018401758749754496 0.004380934233112222 0.9980378324056371 -0.011040431358362062
 -0.00014873545508247406 -0.0014701800078740423 0.00016276994731274498 0.002365571980876574 0.9980378324056371 -0.011040431358362062 0.0018398995284589629 0.004380985527248103
0.02501042100875 0.002009616433113015 0.005884900677278071 0.9978178646558148 -0.01473889620140461 0.00021102645702132818 0.0031560970914189155 -0.0001923230717006278 -0.001963730634236948
 0.9978178646558148 -0.01473889620140461 0.002009130749471215 0.0058849722852256404 -0.0001923344964213016 -0.0019637315909142006 0.0002140215542719053 0.0031557006993998818
 0.00021102645702132818 0.0031560970914189155 -0.0001923344964213016 -0.0019637315909142006 0.002009615027251905 0.005884566021631673 0.9978178605230769 -0.014739230716807838
 -0.0001923230717006278 -0.001963730634236948 0.0002140215542719053 0.0031557006993998818 0.9978178605230769 -0.014739230716807838 0.002009124232765654 0.005884639542031194
0.03126302626094 0.0021914360149183254 0.007406652485831457 0.9975806662296751 -0.018450129027682855 0.0002682587797493117 0.003947310219235807 -0.00024209497923822774 -0.0024586479303909323
 0.9975806662296751 -0.018450129027682855 0.002190677829895515 0.0074067482338449064 -0.00024211274967360553 -0.0024586488753112817 0.000272936854315792 0.003946734753483073
 0.0002682587797493117 0.003947310219235807 -0.00024211274967360553 -0.0024586488753112817 0.0021914342285787695 0.0074062345880276815 0.9975806601145313 -0.01845054713990457
 -0.00024209497923822774 -0.0024586479303909323 0.000272936854315792 0.003946734753483073 0.9975806601145313 -0.01845054713990457 0.002190667992077422 0.007406333107679983
0.037515631513130004 0.0023859059605310005 0.008945763073041697 0.9973259980141392 -0.022174283815490577 0.00033286139337560547 0.00473941822629501 -0.0002981371977551461 -0.0029548103395340038
 0.9973259980141392 -0.022174283815490577 0.0023848150357976324 0.008945885672500656 -0.0002981626868104364 -0.0029548111403135823 0.0003395971594586016 0.004738623348339392
 0.00033286139337560547 0.00473941822629501 -0.0002981626868104364 -0.0029548111403135823 0.0023859038123748653 0.008945262142541644 0.9973259895308545 -0.022174785612335733
 -0.0002981371977551461 -0.0029548103395340038 0.0003395971594586016 0.004738623348339392 0.9973259895308545 -0.022174785612335733 0.0023848012010969162 0.008945388553852495
0.043768236765320004 0.002593293136532638 0.010501734589179712 0.9970536150945801 -0.025911577235764104 0.0004049143369651513 0.005532358877255053 -0.0003605342962607536 -0.0034521073312914277
 0.9970536150945801 -0.025911577235764104 0.0025918092924166487 0.010501886854729192 -0.00036056886744074095 -0.0034521078393052193 0.00041408331601632437 0.005531300009394945
 0.0004049143369651513 0.005532358877255053 -0.00036056886744074095 -0.0034521078393052193 0.002593290658886279 0.010501150888974676 0.9970536038500364 -0.025912162822428576
 -0.0003605342962607536 -0.0034521073312914277 0.00041408331601632437 0.005531300009394945 0.9970536038500364 -0.025912162822428576 0.002591790785145646 0.01050130820239015
0.050020842017509996 0.0028138620738806077 0.012074168740711733 0.996763270566822 -0.02966211803462999 0.000484496906427703 0.006326060137035878 -0.0004293694930724463 -0.003950433565285218
 0.996763270566822 -0.02966211803462999 0.002811925174211328 0.012074353589101599 -0.0004294145008309413 -0.003950433615598431 0.0004964754654385655 0.00632468841191921
 0.000484496906427703 0.006326060137035878 -0.0004294145008309413 -0.003950433615598431 0.002813859315461552 0.012073502567213746 0.9967632561623877 -0.0296627875540317
 -0.0004293694930724463 -0.003950433565285218 0.0004964754654385655 0.00632468841191921 0.9967632561623877 -0.0296627875540317 0.002811901322160568 0.012073693910311403
0.055454545454549996 0.003016452487292809 0.013453767589870949 0.9964961726495738 -0.03293224265859145 0.0005598324715183811 0.007016367096952292 -0.0004944815293639886 -0.004384250000043859
 0.9964961726495738 -0.03293224265859145 0.003014073054643905 0.013453983201301678 -0.000494536699969517 -0.004384249505947178 0.0005745589631899932 0.007014680432861439
 0.0005598324715183811 0.007016367096952292 -0.000494536699969517 -0.004384249505947178 0.003016449537377344 0.013453030020569712 0.9964961551698213 -0.032932985254252194
 -0.0004944815293639886 -0.004384250000043859 0.0005745589631899932 0.007014680432861439 0.9964961551698213 -0.032932985254252194 0.003014044015107076 0.013453253567090019
0.056273447269699996 0.003047875545383627 0.013662727308499968 0.9964547162826183 -0.03342594645004314 0.0005716875154562098 0.007120443031360611 -0.0005047246888995403 -0.004449686027374402
 0.9964547162826183 -0.03342594645004314 0.0030454254843416072 0.013662947757919555 -0.0005047814788877907 -0.004449685438689708 0.0005868528796321975 0.0071187052405094035
 0.0005716875154562098 0.007120443031360611 -0.0005047814788877907 -0.004449685438689708 0.003047872571538247 0.013661979002297236 0.9964546983124839 -0.03342670007219081
 -0.0005047246888995403 -0.004449686027374402 0.0005868528796321975 0.0071187052405094035 0.9964546983124839 -0.03342670007219081 0.0030453956194207515 0.013662207619320535
0.06252605252188 0.0032955948843065796 0.015267110447864498 0.9961277033379116 -0.03720305584802233 0.000666563587140347 0.007915423217131968 -0.0005866804635194808 -0.004949762458130937
 0.9961277033379116 -0.03720305584802233 0.0032925715736914322 0.015267369617528467 -0.000586750372708443 -0.004949761032729184 0.000685293835296523 0.007913261758882295
 0.000666563587140347 0.007915423217131968 -0.000586750372708443 -0.004949761032729184 0.003295591777965351 0.01526628039275834 0.9961276813883908 -0.03720389377106034
 -0.0005866804635194808 -0.004949762458130937 0.000685293835296523 0.007913261758882295 0.9961276813883908 -0.03720389377106034 0.003292535033318173 0.015266549644505526
0.06877865777407 0.0035572801581598063 0.016887043742408583 0.9957819824186659 -0.04099340560728212 0.000769201461272492 0.008710911914573497 -0.0006753160527779899 -0.005450560421953209
 0.9957819824186659 -0.04099340560728212 0.003553623514866444 0.016887344852516566 -0.0006754004094675659 -0.005450557945648757 0.0007918755088181922 0.008708264741898484
 0.000769201461272492 0.008710911914573497 -0.0006754004094675659 -0.005450557945648757 0.0035572770198039074 0.01688613236756293 0.995781956066706 -0.04099432805544481
 -0.0006753160527779899 -0.005450560421953209 0.0007918755088181922 0.008708264741898484 0.995781956066706 -0.04099432805544481 0.0035535796427313693 0.016886445731514085
0.07503126302626001 0.0038331902566627815 0.018522270010732676 0.9954173040648887 -0.044796929253725595 0.000879676309882006 0.009506816508059996 -0.000770709313753747 -0.005951976710274172
 0.9954173040648887 -0.044796929253725595 0.0038288401908972924 0.01852261638282888 -0.0007708094375883358 -0.005951972952373449 0.000906673883527626 0.009503617076423837
 0.000879676309882006 0.009506816508059996 -0.0007708094375883358 -0.005951972952373449 0.0038331872061937297 0.018521277785003894 0.9954172728784704 -0.04479793648306282
 -0.000770709313753747 -0.005951976710274172 0.000906673883527626 0.009503617076423837 0.9954172728784704 -0.04479793648306282 0.0038287883392556865 0.018521638855873598
0.08128386827845 0.004123582930306834 0.02017254383111128 0.9950334188870562 -0.04861353987984867 0.0009980620591722399 0.01030304093734485 -0.0008729366817776414 -0.006453906957301796
 0.9950334188870562 -0.04861353987984867 0.004118479333650078 0.020172938888638994 -0.0008730538836877756 -0.006453901670553325 0.0010297636640951876 0.010299218152821851
 0.0009980620591722399 0.01030304093734485 -0.0008730538836877756 -0.006453901670553325 0.00412358010669524 0.02017147127202133 0.9950333824227973 -0.04861463216920074
 -0.0008729366817776414 -0.006453906957301796 0.0010297636640951876 0.010299218152821851 0.9950333824227973 -0.04861463216920074 0.004118418863579603 0.020171883762584525
0.08753647353064001 0.004428714790122998 0.021837627778520705 0.994630077747126 -0.052443133854992066 0.001124431315043446 0.011099485976898506 -0.0009820731213628796 -0.006956245370795073
 0.994630077747126 -0.052443133854992066 0.004422797523653066 0.021838075047881666 -0.0009822087034908912 -0.006956238291366044 0.0011612181967505803 0.011094964144596224
 0.001124431315043446 0.011099485976898506 -0.0009822087034908912 -0.006956238291366044 0.004428712353056102 0.02183647544631633 0.9946300355504677 -0.05244431151199381
 -0.0009820731213628796 -0.006956245370795073 0.0011612181967505803 0.011094964144596224 0.9946300355504677 -0.05244431151199381 0.004422727807259916 0.021836943188614476
0.09378907878283 0.004748841286725248 0.023517289722084632 0.9942070319210986 -0.05628559347870133 0.0012588552906138946 0.011896049433581178 -0.0010981920736685485 -0.0074588845477434
 0.9942070319210986 -0.05628559347870133 0.004742050169267795 0.023517792833931652 -0.0010983473292641946 -0.007458875395176249 0.0013011093919226397 0.011890748206477246
 0.0012588552906138946 0.011896049433581178 -0.0010983473292641946 -0.007458875395176249 0.0047488394169611136 0.02351605821874134 0.9942069835248598 -0.05628685684065025
 -0.0010981920736685485 -0.0074588845477434 0.0013011093919226397 0.011890748206477246 0.9942069835248598 -0.05628685684065025 0.004741970590580585 0.023516585165561023
0.100041684035 0.005084216669297842 0.025211300841816945 0.9937640332447167 -0.06014078891825906 0.0014014037348768886 0.012692626299222657 -0.0012213654009854233 -0.007961715338497068
 0.9937640332447167 -0.06014078891825906 0.005076491465530748 0.02521186353281422 -0.0012215416142801437 -0.007961703815685301 0.00144950764930859 0.012686460627585846
 0.0014014037348768886 0.012692626299222657 -0.0012215416142801437 -0.007961703815685301 0.005084215569644875 0.025209990816810985 0.9937639781685335 -0.060142138346256785
 -0.0012213654009854233 -0.007961715338497068 0.00144950764930859 0.012686460627585846 0.9937639781685335 -0.060142138346256785 0.005076401422179655 0.025210581043622653
0.1059090909091 0.0054130249724977245 0.026813798799869188 0.9933299586246817 -0.0637699389888258 0.001542620231529994 0.013440045483557888 -0.0013434289584230517 -0.008433644131744087
 0.9933299586246817 -0.0637699389888258 0.005404368385859257 0.026814420894270698 -0.0013436259981353107 -0.008433630099644589 0.0015965620749426957 0.013432987037492234
 0.001542620231529994 0.013440045483557888 -0.0013436259981353107 -0.008433630099644589 0.00541302480020119 0.026812415718690693 0.9933298968301562 -0.0637713695351322
 -0.0013434289584230517 -0.008433644131744087 0.0015965620749426957 0.013432987037492234 0.9933298968301562 -0.0637713695351322 0.005404267987781387 0.026813069144882754
0.1062942892872 0.005435093933528718 0.026919434142855216 0.9933008342507393 -0.06400857965262734 0.0015521448635177563 0.01348910886321514 -0.001351663328116429 -0.008464626754410717
 0.9933008342507393 -0.06400857965262734 0.005426374342142524 0.02692006025773282 -0.0013518617741904878 -0.008464612547575483 0.0016064817847737524 0.013481988944530504
 0.0015521448635177563 0.01348910886321514 -0.0013518617741904878 -0.008464612547575483 0.005435093829479164 0.026918046288164417 0.9933007719995216 -0.06401001553645862
 -0.001351663328116429 -0.008464626754410717 0.0016064817847737524 0.013481988944530504 0.9933007719995216 -0.06401001553645862 0.005426273246427349 0.02691870399534179
0.11254689453939999 0.005801724758544708 0.028641463320259467 0.9928171882974012 -0.06788881556968585 0.0017111452887994159 0.014285386808067341 -0.0014891543830756206 -0.008967505896045658
 0.9928171882974012 -0.06788881556968585 0.005791950400351534 0.02864215681427482 -0.0014893763277059782 -0.008967488674717417 0.001772098957543373 0.014277218037593306
 0.0017111452887994159 0.014285386808067341 -0.0014893763277059782 -0.008967488674717417 0.005801725899373006 0.02863999837160724 0.9928171183609273 -0.06789033832628845
 -0.0014891543830756206 -0.008967505896045658 0.001772098957543373 0.014277218037593306 0.9928171183609273 -0.06789033832628845 0.00579183768103954 0.028640727887054542
0.11879949979160001 0.006184359437569794 0.03037716186388392 0.9923128496930802 -0.07178133782739896 0.0018784699512300568 0.015081347284237342 -0.0016339053352903109 -0.009470237905773164
 0.9923128496930802 -0.07178133782739896 0.006173469843169222 0.03037792680571155 -0.001634152034757935 -0.009470217322777854 0.0019464245987843268 0.01507203020634684
 0.0018784699512300568 0.015081347284237342 -0.001634152034757935 -0.009470217322777854 0.006184362096864619 0.030375620602422913 0.9923127715447343 -0.07178294789905589
 -0.0016339053352903109 -0.009470237905773164 0.0019464245987843268 0.01507203020634684 0.9923127715447343 -0.07178294789905589 0.006173344946767364 0.030376426384594084
0.1250521050438 0.006583246800737428 0.03212630236470836 0.9917875738162956 -0.07568597951791105 0.002054182050624413 0.015876874974349392 -0.0017859811331742879 -0.00997270593477795
 0.9917875738162956 -0.07568597951791105 0.006571181398755962 0.032127142939703916 -0.001786253834142616 -0.009972681626219424 0.0021295223403244514 0.01586630523451747
 0.002054182050624413 0.015876874974349392 -0.001786253834142616 -0.009972681626219424 0.0065832512776238345 0.03212468561285782 0.9917874869122145 -0.07568767737596911
 -0.0017859811331742879 -0.00997270593477795 0.0021295223403244514 0.01586630523451747 0.9917874869122145 -0.07568767737596911 0.006571043790957999 0.03212557225419655
0.131304710296 0.006998634134476521 0.03388865594533794 0.9912411172338936 -0.07960256621148365 0.0022383429776640144 0.016671852151632395 -0.0019454448405745 -0.010474791119629292
 0.9912411172338936 -0.07960256621148365 0.006985332239127582 0.03388957645930366 -0.0019457447798690271 -0.010474762704909048 0.002321453943794904 0.016659920449269994
 0.0022383429776640144 0.016671852151632395 -0.0019457447798690271 -0.010474762704909048 0.006998640754328383 0.03388696457203737 0.9912410210118644 -0.07960435235093097
 -0.0019454448405745 -0.010474791119629292 0.002321453943794904 0.016659920449269994 0.9912410210118644 -0.07960435235093097 0.0069851814064947875 0.033887936802759186
0.1375573155481 0.007332468650902781 0.03543255064165204 0.9907715716866781 -0.08329937510906367 0.002406456218015681 0.01744214186141003 -0.0020877074718214546 -0.010952437742898474
 0.9907715716866781 -0.08329937510906367 0.007317864101495629 0.0354335341374066 -0.0020880362722848177 -0.010952405204462045 0.0024975296239588864 0.017428871399989363
 0.002406456218015681 0.01744214186141003 -0.0020880362722848177 -0.010952405204462045 0.007332476759590111 0.03543078580476258 0.9907714657150439 -0.08330124985015357
 -0.0020877074718214546 -0.010952437742898474 0.0024975296239588864 0.017428871399989363 0.9907714657150439 -0.08330124985015357 0.007317700283506531 0.035431826256391415
0.1438099208003 0.007677934814974529 0.03696880642173918 0.9902857280967737 -0.0869873449355464 0.0025813582279264474 0.01820977198290429 -0.0022356843718506236 -0.01142760490207835
 0.9902857280967737 -0.0869873449355464 0.007661965906391562 0.03696985586768007 -0.002236043325920568 -0.011427567872487311 0.00268074466971805 0.018195063414912768
 0.0025813582279264474 0.01820977198290429 -0.002236043325920568 -0.011427567872487311 0.0076779445981845496 0.03696696908407325 0.9902856118130098 -0.08698930877080238
 -0.0022356843718506236 -0.01142760490207835 0.00268074466971805 0.018195063414912768 0.9902856118130098 -0.08698930877080238 0.007661788756661728 0.036968081069221795
0.1500625260525 0.008034918381585281 0.03849731024617206 0.9897837044272777 -0.09066640023510364 0.0027629932963378467 0.01897467886539642 -0.0023893203875683194 -0.011900229908155726
 0.9897837044272777 -0.09066640023510364 0.008017523260962951 0.03849842880077443 -0.0023897107829105053 -0.011900188005598411 0.002871041478151214 0.018958429235209552
 0.0027629932963378467 0.01897467886539642 -0.0023897107829105053 -0.011900188005598411 0.008034930039000354 0.03849540141008148 0.9897835772534035 -0.09066845367694087
 -0.0023893203875683194 -0.011900229908155726 0.002871041478151214 0.018958429235209552 0.9897835772534035 -0.09066845367694087 0.008017332462642537 0.03849658844180564
0.15631513130469998 0.008403304376628534 0.040017952560861526 0.9892656191542599 -0.09433646550086933 0.0029513051088784306 0.01973679985205073 -0.002548559732644332 -0.012370251337768071
