! Created with skrf 1.8.0 (http://scikit-rf.org).
# GHz S RI R 50.0 
!freq ReS11 ImS11 ReS12 ImS12 ReS13 ImS13
! ReS14 ImS14
! ReS21 ImS21 ReS22 ImS22 ReS23 ImS23
! ReS24 ImS24
! ReS31 ImS31 ReS32 ImS32 ReS33 ImS33
! ReS34 ImS34
! ReS41 ImS41 ReS42 ImS42 ReS43 ImS43
! ReS44 ImS44
!
0.0 0.001875185787313 0.0 0.9981248141942 0.0 7.32552451953e-05 0.0 -7.325524569027e-05 8.971180215534209e-21
 0.9981248141942 0.0 0.001875185787293 0.0 -7.325524568968e-05 8.971180215461956e-21 7.325524519655e-05 0.0
 7.32552451953e-05 0.0 -7.325524568968e-05 8.971180215461956e-21 0.001875185796544 0.0 0.9981248142034 0.0
 -7.325524569027e-05 8.971180215534209e-21 7.325524519655e-05 0.0 0.9981248142034 0.0 0.001875185796554 0.0
0.005 0.002018785306369777 0.0015260296418693154 0.9979429125451954 -0.003927161368577543 0.00010443825969488434 0.0008491472845559054 -0.00010104751891233679 -0.0005254295940539286
 0.9979429125451954 -0.003927161368577543 0.0020187925327078637 0.0015260254386512582 -0.00010105053826156788 -0.0005254319443595284 0.00010438764945078727 0.000849166668462146
 0.00010443825969488434 0.0008491472845559054 -0.00010105053826156788 -0.0005254319443595284 0.0020187832113136295 0.0015259636289721443 0.9979429121530872 -0.003927228430270736
 -0.00010104751891233679 -0.0005254295940539286 0.00010438764945078727 0.000849166668462146 0.9979429121530872 -0.003927228430270736 0.0020187938530652158 0.001525957336878442
0.006252605252188 0.002056797167665282 0.0019135233776485482 0.9978943992527616 -0.004909858518131038 0.00011355726945248395 0.0010618016014469843 -0.00010906954886017571 -0.0006574536511014606
 0.9978943992527616 -0.004909858518131038 0.002056808463375418 0.0019135180043551522 -0.00010907424691580233 -0.0006574565484105888 0.00011347819788052184 0.0010618267821936964
 0.00011355726945248395 0.0010618016014469843 -0.00010907424691580233 -0.0006574565484105888 0.002056793974567659 0.0019134408746143174 0.9978943987220228 -0.004909942342422253
 -0.00010906954886017571 -0.0006574536511014606 0.00011347819788052184 0.0010618267821936964 0.9978943987220228 -0.004909942342422253 0.0020568106100048575 0.001913432878220469
0.01250521050438 0.0022589369548268574 0.003866858306851737 0.9976344374658316 -0.009820129678875689 0.00016696140283557125 0.00212364930629445 -0.00015552540530049762 -0.0013178885675316494
 0.9976344374658316 -0.009820129678875689 0.0022589820532185156 0.0038668463678734506 -0.00015554391563579091 -0.0013178939107780976 0.00016664613874460012 0.0021237100737644806
 0.00016696140283557125 0.00212364930629445 -0.00015554391563579091 -0.0013178939107780976 0.002258924757538646 0.0038666936804583447 0.997634435901952 -0.009820297097351442
 -0.00015552540530049762 -0.0013178885675316494 0.00016664613874460012 0.0021237100737644806 0.997634435901952 -0.009820297097351442 0.0022589911916100903 0.003866676337951816
0.01875781575657 0.0024821185223087355 0.005847561664301884 0.9973445552890058 -0.014742681711246508 0.00023360089790071614 0.0031862383236871982 -0.00021278194995489713 -0.001980237187608179
 0.9973445552890058 -0.014742681711246508 0.0024822198515690322 0.005847541916737667 -0.0002128232215076013 -0.0019802444232659023 0.00023289282620802068 0.003186347454576959
 0.00023360089790071614 0.0031862383236871982 -0.0002128232215076013 -0.0019802444232659023 0.0024820915298853032 0.005847315257574282 0.997344552192497 -0.014742932655690039
 -0.00021278194995489713 -0.001980237187608179 0.00023289282620802068 0.003186347454576959 0.997344552192497 -0.014742932655690039 0.0024822408276408857 0.00584728706046817
0.02501042100875 0.0027268353568089504 0.007852750093228751 0.9970243627221075 -0.019679804141350822 0.0003136105023837866 0.004249558473602547 -0.00028099102087153743 -0.0026441266866212526
 0.9970243627221075 -0.019679804141350822 0.002727015296224313 0.007852721249878127 -0.0002810638920280584 -0.002644135150168537 0.00031235304931356053 0.0042497310449669205
 0.0003136105023837866 0.004249558473602547 -0.0002810638920280584 -0.002644135150168537 0.0027267877891648867 0.007852422303442559 0.9970243575912625 -0.01968013861267777
 -0.00028099102087153743 -0.0026441266866212526 0.00031235304931356053 0.0042497310449669205 0.9970243575912625 -0.01968013861267777 0.0027270529602200725 0.007852381594819952
0.03126302626094 0.0029935600969674537 0.009880890598260866 0.9966734528709797 -0.024632417210681216 0.0004071244443882693 0.0053134949636140195 -0.000360298672043019 -0.003309278245660044
 0.9966734528709797 -0.024632417210681216 0.002993840990595088 0.00988085132919956 -0.00036041188862142914 -0.003309287160618458 0.00040516094280314394 0.00531374836534374
 0.0004071244443882693 0.0053134949636140195 -0.00036041188862142914 -0.003309287160618458 0.0029934861814310838 0.009880481912764586 0.9966734451992707 -0.02463283524375684
 -0.000360298672043019 -0.003309278245660044 0.00040516094280314394 0.00531374836534374 0.9966734451992707 -0.02463283524375684 0.00299390019874058 0.009880426888083035
0.037515631513130004 0.003282753912080147 0.01193094642119491 0.9962914118147976 -0.02960092596139333 0.0005142749500756259 0.006377890842421165 -0.00045084626827003024 -0.003975444663194927
 0.9962914118147976 -0.02960092596139333 0.003283158079897113 0.011930895354427502 -0.0004510084927648673 -0.00397545314091099 0.0005114485866495735 0.006378244798241069
 0.0005142749500756259 0.006377890842421165 -0.0004510084927648673 -0.00397545314091099 0.0032826478863001753 0.011930457418599877 0.9962914010912447 -0.029601427624574347
 -0.00045084626827003024 -0.003975444663194927 0.0005114485866495735 0.006378244798241069 0.9962914010912447 -0.029601427624574347 0.0032832436978047913 0.011930386125347076
0.043768236765320004 0.0035948700949146443 0.014002117141809059 0.9958778226870061 -0.03458548008482297 0.0006351915208251246 0.007442566011955754 -0.0005527708401079359 -0.004642391412346054
 0.9958778226870061 -0.03458548008482297 0.003595419841599967 0.014002052863799606 -0.0005529906568990789 -0.004642398452007186 0.000631345317749466 0.007443042603038541
 0.0006351915208251246 0.007442566011955754 -0.0005529906568990789 -0.004642398452007186 0.0035947262059111825 0.014001548502391914 0.9958778083943208 -0.03458606547059476
 -0.0005527708401079359 -0.004642391412346054 0.000631345317749466 0.007443042603038541 0.9958778083943208 -0.03458606547059476 0.0035955367443693703 0.014001458839005904
0.050020842017509996 0.003930355691479541 0.016093731269131606 0.9954322678011182 -0.03958608128132478 0.0007700004753440603 0.00850732510616483 -0.000666205177891182 -0.005309888839450129
 0.9954322678011182 -0.03958608128132478 0.003931073315206839 0.016093652324860683 -0.0006664910965652423 -0.005309893328137489 0.0007649772916470192 0.00850794879558872
 0.0007700004753440603 0.00850732510616483 -0.0006664910965652423 -0.005309893328137489 0.003930168197549671 0.016093083771804448 0.9954322494149794 -0.03958675051017352
 -0.000666205177891182 -0.005309888839450129 0.0007649772916470192 0.00850794879558872 0.9954322494149794 -0.03958675051017352 0.003931226388839171 0.016092973486413826
0.055454545454549996 0.004241224759354308 0.017927546235021758 0.9950187829453184 -0.043944716513034644 0.0008985313186691002 0.009432540848968898 -0.0007742303227990464 -0.005890234036616791
 0.9950187829453184 -0.043944716513034644 0.0042421063829864766 0.01792745333143551 -0.0007745805403313125 -0.005890235317625926 0.0008923575675697237 0.009433314106816299
 0.0008985313186691002 0.009432540848968898 -0.0007745805403313125 -0.005890235317625926 0.004240994718564829 0.017926830917322393 0.9950187605697408 -0.043945458724002476
 -0.0007742303227990464 -0.005890234036616791 0.0008923575675697237 0.009433314106816299 0.9950187605697408 -0.043945458724002476 0.0042422948677253705 0.01792670076386307
0.056273447269699996 0.004289652298349691 0.018205193547108506 0.994954329948314 -0.04460263591272112 0.0009188246090407118 0.009571961375085843 -0.0007912778104006387 -0.005977708367070551
 0.994954329948314 -0.04460263591272112 0.0042905600985779745 0.018205098440030217 -0.0007916382678510921 -0.00597770907987619 0.0009124671524837029 0.009572759032538219
 0.0009188246090407118 0.009571961375085843 -0.0007916382678510921 -0.00597770907987619 0.0042894154709212295 0.018204468071387325 0.9949543069362758 -0.04460338913212002
 -0.0007912778104006387 -0.005977708367070551 0.0009124671524837029 0.009572759032538219 0.9949543069362758 -0.04460338913212002 0.004290754241314555 0.018204334759976078
0.06252605252188 0.00467319645137906 0.020335955994720503 0.994443593292681 -0.04963498393038735 0.0010817829120833454 0.010636258847970675 -0.0009281129237875247 -0.006645620428937124
 0.994443593292681 -0.04963498393038735 0.004674316736592307 0.020335843186288165 -0.0009285562854626519 -0.006645616029086791 0.0010739337593300281 0.010637259774378665
 0.0010817829120833454 0.010636258847970675 -0.0009285562854626519 -0.006645616029086791 0.004672904575071692 0.020335153522070444 0.9944435651125824 -0.049635821314361804
 -0.0009281129237875247 -0.006645620428937124 0.0010739337593300281 0.010637259774378665 0.9944435651125824 -0.049635821314361804 0.00467455685881267 0.02033499462648985
0.06877865777407 0.005081419784656028 0.022485500647954387 0.9938996440434522 -0.05468291611324847 0.0012589903206516523 0.011699993641995168 -0.0010768302469821639 -0.007313393271050061
 0.9938996440434522 -0.05468291611324847 0.005082774880270116 0.022485368556818423 -0.0010773648077594105 -0.007313382310025576 0.001249491942555749 0.011701229593814273
 0.0012589903206516523 0.011699993641995168 -0.0010773648077594105 -0.007313382310025576 0.005081067160347345 0.022484622268623272 0.9938996101427489 -0.05468383785628395
 -0.0010768302469821639 -0.007313393271050061 0.001249491942555749 0.011701229593814273 0.9938996101427489 -0.05468383785628395 0.005083065906024719 0.022484435074292757
0.07503126302626001 0.005514749058058622 0.02465332864783402 0.9933220710001692 -0.05974618497241195 0.0014505574883878504 0.012762934816957712 -0.0012375449160819186 -0.007980792218991494
 0.9933220710001692 -0.05974618497241195 0.005516361313821107 0.0246531756489204 -0.0012381789006539082 -0.007980773136691977 0.0014392522796128366 0.01276444003006443
 0.0014505574883878504 0.012762934816957712 -0.0012381789006539082 -0.007980773136691977 0.005514330004384204 0.024652375553652083 0.9933220308153757 -0.059747191297414196
 -0.0012375449160819186 -0.007980792218991494 0.0014392522796128366 0.01276444003006443 0.9933220308153757 -0.059747191297414196 0.005516708181632746 0.024652157186866173
0.08128386827845 0.005973606099581814 0.026838952983906088 0.9927104660187323 -0.06482451201425521 0.0016565905689738861 0.013824844975842195 -0.0014103673271252445 -0.008647579212043647
 0.9927104660187323 -0.06482451201425521 0.005975497897632932 0.026838777406943255 -0.001411108890121555 -0.008647550336943654 0.001643320881027486 0.013826656188894029
 0.0016565905689738861 0.013824844975842195 -0.001411108890121555 -0.008647550336943654 0.005973114954362277 0.026837926474028044 0.9927104189734033 -0.06482560316751143
 -0.0014103673271252445 -0.008647579212043647 0.001643320881027486 0.013826656188894029 0.9927104189734033 -0.06482560316751143 0.005975905560790151 0.026837673899014952
0.08753647353064001 0.006458407690555212 0.029041893500397677 0.9920644244247141 -0.06991759275515283 0.0018771910091957425 0.014885480697353844 -0.0015954029783212332 -0.009313512518475548
 0.9920644244247141 -0.06991759275515283 0.006460601453099341 0.02904169362821921 -0.0015962602043018428 -0.009313472067792008 0.0018617991860844607 0.014887637174475594
 0.0018771910091957425 0.014885480697353844 -0.0015962602043018428 -0.009313472067792008 0.00645783881306586 0.02904079498118626 0.9920643699286488 -0.06991876900698556
 -0.0015954029783212332 -0.009313512518475548 0.0018617991860844607 0.014887637174475594 0.9920643699286488 -0.06991876900698556 0.006461074880159288 0.029040504996824895
0.09378907878283 0.006969565413441617 0.031261673340884706 0.9913835453928223 -0.0750251003125238 0.0021124553468435756 0.015944592878615074 -0.0017927523078241517 -0.009978346553777969
 0.9913835453928223 -0.0750251003125238 0.00697208360992767 0.031261447407457475 -0.0017937332109381886 -0.009978292633665516 0.0020947837629426013 0.015947136431511414
 0.0021124553468435756 0.015944592878615074 -0.0017937332109381886 -0.009978292633665516 0.00696891318597637 0.03126050432883938 0.9913834828408723 -0.07502636195495649
 -0.0017927523078241517 -0.009978346553777969 0.0020947837629426013 0.015947136431511414 0.9913834828408723 -0.07502636195495649 0.006972627785789809 0.03126017356506945
0.100041684035 0.007507485469444942 0.03349781636726975 0.9906674323014223 -0.0801466880372741 0.0023624750136914618 0.017001927012037645 -0.0020025105269311375 -0.01064183177839355
 0.9906674323014223 -0.0801466880372741 0.007510350624822952 0.0334975625552952 -0.0020036230506053233 -0.010641762384163263 0.002342366113687482 0.017004902021316312
 0.0023624750136914618 0.017001927012037645 -0.0020036230506053233 -0.010641762384163263 0.007506744299981458 0.03349657848427322 0.9906673610724522 -0.0801480353891466
 -0.0020025105269311375 -0.01064183177839355 0.002342366113687482 0.017004902021316312 0.9906673610724522 -0.0801480353891466 0.007510970551098529 0.03349620339817533
0.1059090909091 0.008036963381194143 0.03561065636448463 0.9899630418075661 -0.084965236268502 0.0026105885593811404 0.017992274586554464 -0.0022107121960441576 -0.011262989760741166
 0.9899630418075661 -0.084965236268502 0.00804017466305081 0.035610374690534005 -0.002211955392634081 -0.01126290392387871 0.0025880493013820047 0.01799569714197359
 0.0026105885593811404 0.017992274586554464 -0.002211955392634081 -0.01126290392387871 0.008036133687680663 0.03560935542639615 0.9899629618560134 -0.0849666643597618
 -0.0022107121960441576 -0.011262989760741166 0.0025880493013820047 0.01799569714197359 0.9899629618560134 -0.0849666643597618 0.008040870237449671 0.03560893536851692
0.1062942892872 0.008072568478103993 0.03574984522827117 0.9899156930712083 -0.08528199151230378 0.002627336142038785 0.01805722342138105 -0.002224767450940106 -0.011303714650085046
 0.9899156930712083 -0.08528199151230378 0.008075803180437324 0.03574956166641048 -0.0022260194673309006 -0.01130362766639362 0.002604632482871811 0.01806067685709833
 0.002627336142038785 0.01805722342138105 -0.0022260194673309006 -0.01130362766639362 0.008071732802015666 0.03574854020680586 0.9899156125269685 -0.0852834249144545
 -0.002224767450940106 -0.011303714650085046 0.002604632482871811 0.01806067685709833 0.9899156125269685 -0.0852834249144545 0.00807650387610008 0.03574811707831128
0.11254689453939999 0.008665209260367228 0.03801727990943783 0.9891279404905617 -0.09043063008585125 0.0029071193747620943 0.019110217470769877 -0.002459607328355416 -0.011963737617142527
 0.9891279404905617 -0.09043063008585125 0.008668836168665841 0.03801696466921302 -0.00246100663784996 -0.011963630818250266 0.002881663668864024 0.019114198912137
 0.0029071193747620943 0.019110217470769877 -0.00246100663784996 -0.011963630818250266 0.008664273542942283 0.03801590959162633 0.9891278499743302 -0.09043214990228968
 -0.002459607328355416 -0.011963737617142527 0.002881663668864024 0.019114198912137 0.9891278499743302 -0.09043214990228968 0.00866962267063005 0.038015434518916744
0.11879949979160001 0.009285796610152655 0.04029963662064418 0.9883037925315739 -0.09559220808391623 0.003201899677909183 0.020160639757113415 -0.0027071086696759273 -0.01262163914230426
 0.9883037925315739 -0.09559220808391623 0.00928983846221954 0.04029928771293241 -0.0027086630002003762 -0.01262151019234802 0.003173534838076288 0.020165201411391314
 0.003201899677909183 0.020160639757113415 -0.0027086630002003762 -0.01262151019234802 0.009284755348611501 0.04029820296045955 0.9883036913673726 -0.09559381469978037
 -0.0027071086696759273 -0.01262163914230426 0.003173534838076288 0.020165201411391314 0.9883036913673726 -0.09559381469978037 0.009290715825879719 0.0402976718549565
0.1250521050438 0.009934713057438767 0.04259642694017365 0.9874428726589247 -0.10076631578276138 0.003511746156389738 0.02120821629247848 -0.0029673440759601494 -0.013277153751102421
 0.9874428726589247 -0.10076631578276138 0.009939192677101149 0.042596042311422146 -0.0029690610821428032 -0.013277000204340212 0.0034803153419165093 0.02121341301290676
 0.003511746156389738 0.02120821629247848 -0.0029690610821428032 -0.013277000204340212 0.009933560782943912 0.04259493200080068 0.9874427601498837 -0.10076800960711332
 -0.0029673440759601494 -0.013277153751102421 0.0034803153419165093 0.02121341301290676 0.9874427601498837 -0.10076800960711332 0.009940165976913069 0.04259434058188422
0.131304710296 0.010612334623378792 0.044907157148473854 0.9865448101334767 -0.10595253020925051 0.0038367218721007757 0.02225266867856491 -0.0032403800679314185 -0.013930012102246044
 0.9865448101334767 -0.10595253020925051 0.0106172749292286 0.0449067346763188 -0.003242267330448627 -0.013929831403368759 0.003802068536378227 0.02225855798132062
 0.0038367218721007757 0.02225266867856491 -0.003242267330448627 -0.013929831403368759 0.010611065903858569 0.044905603104697774 0.9865446855607903 -0.10595431167249811
 -0.0032403800679314185 -0.013930012102246044 0.003802068536378227 0.02225855798132062 0.9865446855607903 -0.10595431167249811 0.010618349258830151 0.0449049468939769
0.1375573155481 0.011175746826127044 0.046929405367048996 0.9857526043541368 -0.11084828690487862 0.004139811307149875 0.02326477253598399 -0.0034892476827233392 -0.01455099876059102
 0.9857526043541368 -0.11084828690487862 0.011181173494469196 0.04692895445341525 -0.003491316645651726 -0.014550790351487456 0.0041018541639283495 0.023271352418747872
 0.004139811307149875 0.02326477253598399 -0.003491316645651726 -0.014550790351487456 0.011174356927437415 0.04692779403147687 0.985752467145366 -0.11085015625524508
 -0.0034892476827233392 -0.01455099876059102 0.0041018541639283495 0.023271352418747872 0.985752467145366 -0.11085015625524508 0.01118235299241414 0.04692708052413445
0.1438099208003 0.01175927592624118 0.04893858741271066 0.9849318711461177 -0.11572920662681105 0.0044550586737282325 0.02427127941636866 -0.0037479599227796243 -0.015166879732259457
 0.9849318711461177 -0.11572920662681105 0.011765212425711626 0.04893810662900664 -0.0037502187551095288 -0.01516664105995249 0.004413655140530111 0.02427860314721369
 0.0044550586737282325 0.02427127941636866 -0.0037502187551095288 -0.01516664105995249 0.01175775959157481 0.0489369210098959 0.9849317205816229 -0.11573116428236806
 -0.0037479599227796243 -0.015166879732259457 0.004413655140530111 0.02427860314721369 0.9849317205816229 -0.11573116428236806 0.011766502042991312 0.04893614640604178
0.1500625260525 0.012362676565516553 0.050934464957390235 0.9840828614026937 -0.12059509610892817 0.0047823290343857 0.02527203813205124 -0.0040163859416208645 -0.01577751485264146
 0.9840828614026937 -0.12059509610892817 0.012369146469454261 0.05093395276047645 -0.004018842787525903 -0.01577724326080102 0.00473733766848181 0.02528016091557451
 0.0047823290343857 0.02527203813205124 -0.004018842787525903 -0.01577724326080102 0.012361028581244358 0.050932745798656774 0.9840826967443396 -0.12059714250168517
 -0.0040163859416208645 -0.01577751485264146 0.00473733766848181 0.02528016091557451 0.9840826967443396 -0.12059714250168517 0.012370551165227478 0.05093190608940328
0.15631513130469998 0.012985701161031172 0.052916806867264514 0.9832058278319766 -0.12544576449100014 0.005121485571015994 0.026266900690130792 -0.0042943930257159585 -0.016382767482208144
 0.9832058278319766 -0.12544576449100014 0.012992728149492894 0.05291626159447564 -0.004297056003926834 -0.01638246021166039 0.00507276609130789 0.026275879641806707
