! Created with skrf 1.8.0 (http://scikit-rf.org).
# GHz S RI R 50.0 
!freq ReS11 ImS11 ReS12 ImS12 ReS13 ImS13
! ReS14 ImS14
! ReS21 ImS21 ReS22 ImS22 ReS23 ImS23
! ReS24 ImS24
! ReS31 ImS31 ReS32 ImS32 ReS33 ImS33
! ReS34 ImS34
! ReS41 ImS41 ReS42 ImS42 ReS43 ImS43
! ReS44 ImS44
!
0.0 0.001085589972167 0.0 0.9989144100274 0.0 4.092203031813e-05 0.0 -4.09220311618e-05 5.0115034476906615e-21
 0.9989144100274 0.0 0.001085589972171 0.0 -4.092203116178e-05 5.011503447688212e-21 4.092203031789e-05 0.0
 4.092203031813e-05 0.0 -4.092203116178e-05 5.011503447688212e-21 0.00108558997145 0.0 0.9989144100267 0.0
 -4.09220311618e-05 5.0115034476906615e-21 4.092203031789e-05 0.0 0.9989144100267 0.0 0.001085589971462 0.0
0.005 0.001167004726812109 0.000892036513835807 0.9988115666259745 -0.002275086569788245 5.62792975545807e-05 0.00043109592899841156 -5.4887935866530625e-05 -0.0002742016465738977
 0.9988115666259745 -0.002275086569788245 0.0011670030301087996 0.0008920375219311855 -5.4889212155336514e-05 -0.00027420265128365675 5.629112431037025e-05 0.00043109153641588104
 5.62792975545807e-05 0.00043109592899841156 -5.4889212155336514e-05 -0.00027420265128365675 0.0011670036256141792 0.0008919699421616077 0.9988115663092278 -0.0022751536276196193
 -5.4887935866530625e-05 -0.0002742016465738977 5.629112431037025e-05 0.00043109153641588104 0.9988115663092278 -0.0022751536276196193 0.0011670034985253167 0.0008919699778228085
0.006252605252188 0.0011880797502445471 0.0011185786600506514 0.9987848240097209 -0.0028444558563522075 6.050932368674252e-05 0.0005391051984569227 -5.8704462329306504e-05 -0.00034311735796457567
 0.9987848240097209 -0.0028444558563522075 0.0011880770975947284 0.0011185799081695233 -5.870644819206528e-05 -0.00034311859800759153 6.0527803515678925e-05 0.0005390994862728854
 6.050932368674252e-05 0.0005391051984569227 -5.870644819206528e-05 -0.00034311859800759153 0.0011880781022119225 0.0011184954459887626 0.99878482358829 -0.0028445396814038445
 -5.8704462329306504e-05 -0.00034311735796457567 6.0527803515678925e-05 0.0005390994862728854 0.99878482358829 -0.0028445396814038445 0.0011880779038154993 0.0011184954720525836
0.01250521050438 0.001297406607403523 0.0022608789145562493 0.998645407933629 -0.005689907553930644 8.39362173940413e-05 0.0010787007468995554 -7.96793475744696e-05 -0.0006880454867775212
 0.998645407933629 -0.005689907553930644 0.0012973960112971496 0.0022608812906106343 -7.968717232370065e-05 -0.000688047797311138 8.400995654381844e-05 0.0010786869906547107
 8.39362173940413e-05 0.0010787007468995554 -7.968717232370065e-05 -0.000688047797311138 0.0012974005763920094 0.00226071278371456 0.9986454068048808 -0.005690074944937948
 -7.96793475744696e-05 -0.0006880454867775212 8.400995654381844e-05 0.0010786869906547107 0.9986454068048808 -0.005690074944937948 0.0012973997894491138 0.0022607126406751395
0.01875781575657 0.0014137498902334006 0.003419807174896935 0.9984960312327843 -0.00854333264158159 0.00011124811792629266 0.0016191582781760316 -0.00010389824846694965 -0.0010343468862856879
 0.9984960312327843 -0.00854333264158159 0.0014137260741107016 0.0034198105646442672 -0.00010391569681128674 -0.001034350074973381 0.00011141387360215151 0.0016191338149551772
 0.00011124811792629266 0.0016191582781760316 -0.00010391569681128674 -0.001034350074973381 0.001413736751966382 0.0034195582734372672 0.9984960291191899 -0.00854358350807065
 -0.00010389824846694965 -0.0010343468862856879 0.00011141387360215151 0.0016191338149551772 0.9984960291191899 -0.00854358350807065 0.0014137349960777934 0.0034195577387924237
0.02501042100875 0.0015372865257407442 0.004593804828275218 0.9983365599962387 -0.011406169929412879 0.0001424908491064545 0.00216052903396895 -0.00013141189013416625 -0.0013819024666105952
 0.9983365599962387 -0.011406169929412879 0.0015372442200787956 0.004593809119657155 -0.00013144270201730456 -0.0013819063143450756 0.00014278546209375812 0.002160490881452218
 0.0001424908491064545 0.00216052903396895 -0.00013144270201730456 -0.0013819063143450756 0.00153726355171768 0.0045934732930635325 0.9983365566160355 -0.011406504206657373
 -0.00013141189013416625 -0.0013819024666105952 0.00014278546209375812 0.002160490881452218 0.9983365566160355 -0.011406504206657373 0.0015372604549213369 0.004593472115448932
0.03126302626094 0.0016681855805655683 0.005782098257217805 0.9981668515951488 -0.014279069443505179 0.00017771079081926533 0.0027028179603693905 -0.00016227002723972136 -0.0017306374530001432
 0.9981668515951488 -0.014279069443505179 0.0016681195196581347 0.005782103339497731 -0.00016231790581931686 -0.00173064171335111 0.00017817122030220104 0.002702762814021605
 0.00017771079081926533 0.0027028179603693905 -0.00016231790581931686 -0.00173064171335111 0.0016681500423021821 0.005781684230620797 0.9981668466681874 -0.014279487077808151
 -0.00016227002723972136 -0.0017306374530001432 0.00017817122030220104 0.002702762814021605 0.9981668466681874 -0.014279487077808151 0.0016681452400593455 0.005781682128985156
0.037515631513130004 0.0018066125798438118 0.006984204638435584 0.9979867590603018 -0.017162386590881654 0.0002169544963581902 0.003246012168288328 -0.00019652179931233725 -0.002080492915851056
 0.9979867590603018 -0.017162386590881654 0.0018065174998779987 0.006984210401739033 -0.00019659041512717104 -0.0020804973148938633 0.00021761783721210054 0.00324593639714066
 0.0002169544963581902 0.003246012168288328 -0.00019659041512717104 -0.0020804973148938633 0.0018065617475062346 0.006983708262003993 0.9979867523070199 -0.01716288754611442
 -0.00019652179931233725 -0.002080492915851056 0.00021761783721210054 0.00324593639714066 0.9979867523070199 -0.01716288754611442 0.0018065548817740112 0.006983704924829355
0.043768236765320004 0.0019527311770350156 0.008199781547665803 0.9977961328094588 -0.02005633251451136 0.00026026851873540275 0.0037900895843748167 -0.0002342158703877903 -0.002431417108707138
 0.9977961328094588 -0.02005633251451136 0.0019526018147624008 0.008199787882634023 -0.00023430886389421497 -0.002431421344935766 0.00026117201157451684 0.00378998922639348
 0.00026026851873540275 0.0037900895843748167 -0.00023430886389421497 -0.002431421344935766 0.001952662319295168 0.008199202979108998 0.9977961239509602 -0.02005691675537043
 -0.0002342158703877903 -0.002431417108707138 0.00026117201157451684 0.00378998922639348 0.9977961239509602 -0.02005691675537043 0.0019526530375939962 0.008199198063760977
0.050020842017509996 0.002106703940922401 0.009428564806833297 0.9975948214936422 -0.02296103620440889 0.00030769931215897655 0.004335022524685116 -0.00027540049079384336 -0.0027833618832357183
 0.9975948214936422 -0.02296103620440889 0.0021065350323541654 0.009428571604424152 -0.0002755214740596044 -0.0027833656275295963 0.0003088803494354371 0.0043348932819201914
 0.00030769931215897655 0.004335022524685116 -0.0002755214740596044 -0.0027833656275295963 0.0021066143240103825 0.00942790421697526 0.9975948102505735 -0.022961703699750566
 -0.00027540049079384336 -0.0027833618832357183 0.0003088803494354371 0.0043348932819201914 0.9975948102505735 -0.022961703699750566 0.0021066022784602275 0.00942789734904627
0.055454545454549996 0.00224701523615054 0.01050697091033317 0.9974110797609047 -0.025494109340419017 0.00035229738676079115 0.004809256125808906 -0.00031406310912459906 -0.0030900054048029106
 0.9974110797609047 -0.025494109340419017 0.0022468076842903947 0.010506978021497106 -0.0003142113286181731 -0.0030900084328392237 0.0003537501065650827 0.004809098026210327
 0.00035229738676079115 0.004809256125808906 -0.0003142113286181731 -0.0030900084328392237 0.0022469053574080164 0.01050623918820112 0.9974110662193111 -0.025494849166819916
 -0.00031406310912459906 -0.0030900054048029106 0.0003537501065650827 0.004809098026210327 0.9974110662193111 -0.025494849166819916 0.0022468906303623843 0.01050623029420576
0.056273447269699996 0.0022686927738760987 0.010670337981168784 0.9973826724745054 -0.02587657495821205 0.000359293167223922 0.004880779438153038 -0.00032012352360047636 -0.003136280934621283
 0.9973826724745054 -0.02587657495821205 0.0022684790531999196 0.010670345132454575 -0.0003202760814716946 -0.0031362838302232262 0.0003607892969559596 0.004880616671774201
 0.000359293167223922 0.004880779438153038 -0.0003202760814716946 -0.0031362838302232262 0.0022685796621372254 0.01066959555203642 0.9973826585681248 -0.025877325683296037
 -0.00032012352360047636 -0.003136280934621283 0.0003607892969559596 0.004880616671774201 0.9973826585681248 -0.025877325683296037 0.0022685645085711702 0.01066958632470812
0.06252605252188 0.00243885914995649 0.011924915605212949 0.9971595321235289 -0.0288029911128971 0.0004150961622629339 0.005427325870585592 -0.00036843245363628964 -0.0034901288268340187
 0.9971595321235289 -0.0288029911128971 0.002438595348535853 0.01192492300122251 -0.0003686201446288333 -0.0034901304893389887 0.00041694509029923456 0.00542712459586187
 0.0004150961622629339 0.005427325870585592 -0.0003686201446288333 -0.0034901304893389887 0.002438719805544712 0.011924091537297192 0.9971595152751135 -0.028803825042385017
 -0.00036843245363628964 -0.0034901288268340187 0.00041694509029923456 0.00542712459586187 0.9971595152751135 -0.028803825042385017 0.0024387012023697903 0.01192407951076354
0.06877865777407 0.0026173642569353064 0.013192133186256873 0.9969252460266428 -0.03174030199923389 0.0004751541241800629 0.00597462502892547 -0.00042037438617052557 -0.0038448604182117424
 0.9969252460266428 -0.03174030199923389 0.002617045102275832 0.013192140717860996 -0.0004206007430975109 -0.0038448604355687224 0.000477393715328085 0.005974379910128751
 0.0004751541241800629 0.00597462502892547 -0.0004206007430975109 -0.0038448604355687224 0.0026171959401648094 0.01319122769566191 0.9969252259577805 -0.031741219110365856
 -0.00042037438617052557 -0.0038448604182117424 0.000477393715328085 0.005974379910128751 0.9969252259577805 -0.031741219110365856 0.002617173547413177 0.013191212396499808
0.07503126302626001 0.0028043690817454664 0.014471840868723839 0.9966796591325837 -0.03468850623577708 0.0005395125945466373 0.006522638138794496 -0.00047599603928448584 -0.004200430494391841
 0.9966796591325837 -0.03468850623577708 0.0028039892966848627 0.014471848426497451 -0.0004762645697315249 -0.004200428426899133 0.000542180873168596 0.006522343484093993
 0.0005395125945466373 0.006522638138794496 -0.0004762645697315249 -0.004200428426899133 0.002804169050396705 0.014470854186613943 0.9966796355644041 -0.0346895065091637
 -0.00047599603928448584 -0.004200430494391841 0.000542180873168596 0.006522343484093993 0.9966796355644041 -0.0346895065091637 0.002804142528872375 0.014470835107241698
0.08128386827845 0.0030000344609061405 0.01576389920748519 0.9964226158685406 -0.03764758791437231 0.0006082167983793143 0.007071324687051583 -0.0005353437330353491 -0.004556793516934549
 0.9964226158685406 -0.03764758791437231 0.0029995887626073844 0.015763906681656847 -0.0005356579197532649 -0.004556788897247697 0.0006113519480811751 0.007070974443366601
 0.0006082167983793143 0.007071324687051583 -0.0005356579197532649 -0.004556788897247697 0.0029997999711049803 0.015762831582920314 0.9964225885224576 -0.03764867133157581
 -0.0005353437330353491 -0.004556793516934549 0.0006113519480811751 0.007070974443366601 0.9964225885224576 -0.03764867133157581 0.002999768981161323 0.01576280818103241
0.08753647353064001 0.0032045211076141148 0.017068176255658252 0.9961539602324091 -0.04061751947206432 0.0006813116160555372 0.00762064257791803 -0.0005984633744781956 -0.004913903459151037
 0.9961539602324091 -0.04061751947206432 0.0032040042066359617 0.017068183536017457 -0.0005988266756597703 -0.004913895792281948 0.0006849519791947286 0.007620230325758745
 0.0006813116160555372 0.00762064257791803 -0.0005988266756597703 -0.004913895792281948 0.003204249413322353 0.01706702795454645 0.9961539288297511 -0.040618686016872844
 -0.0005984633744781956 -0.004913903459151037 0.0006849519791947286 0.007620230325758745 0.9961539288297511 -0.040618686016872844 0.003204213613741419 0.017066999652584805
0.09378907878283 0.0034179896233747223 0.01838454547399801 0.9958735358727381 -0.04359826374191872 0.0007588415556523187 0.008170548250654767 -0.0006654004417248013 -0.005271713681176691
 0.9958735358727381 -0.04359826374191872 0.0034173962227782347 0.018384552449881655 -0.0006658162912063509 -0.005271702444508674 0.0007630256323659342 0.008170067198925325
 0.0007588415556523187 0.008170548250654767 -0.0006658162912063509 -0.005271702444508674 0.0034176779768193104 0.018383316783895955 0.9958735001348108 -0.043599513395904836
 -0.0006654004417248013 -0.005271713681176691 0.0007630256323659342 0.008170067198925325 0.9958735001348108 -0.043599513395904836 0.0034176370238836917 0.01838328296853451
0.100041684035 0.0036406004984144034 0.019712884204516435 0.9955811861568993 -0.04658977544060516 0.0008408507266106185 0.008720996764365213 -0.0007361999659854375 -0.0056301768387477455
 0.9955811861568993 -0.04658977544060516 0.0036399252928960143 0.019712890764757993 -0.000736671773417833 -0.005630161482051131 0.000845617173419836 0.008720439745171126
 0.0008408507266106185 0.008720996764365213 -0.000736671773417833 -0.005630161482051131 0.0036402461501098857 0.01971157542711534 0.9955811458046441 -0.046591108190909086
 -0.0007361999659854375 -0.0056301768387477455 0.000845617173419836 0.008720439745171126 0.9955811458046441 -0.046591108190909086 0.0036401996963966003 0.019711535448714932
0.1059090909091 0.0038579549280916225 0.02097016848327991 0.9952958612576956 -0.049406738259778114 0.0009219203663914918 0.009237986829382188 -0.0008061903767004725 -0.005967107480712596
 0.9952958612576956 -0.049406738259778114 0.0038571981239352493 0.02097017455190665 -0.000806717774327822 -0.005967087732781741 0.0009272686015367008 0.009237351663445956
 0.0009219203663914918 0.009237986829382188 -0.000806717774327822 -0.005967087732781741 0.0038575580064657586 0.02096878484551805 0.9952958163215111 -0.049408148974664515
 -0.0008061903767004725 -0.005967107480712596 0.0009272686015367008 0.009237351663445956 0.9952958163215111 -0.049408148974664515 0.003857506070576993 0.020968738460192243
0.1062942892872 0.003872514104174235 0.021053072509946046 0.9952767542336165 -0.04959200229087647 0.0009273828137912706 0.009271941858258899 -0.0008109065123851301 -0.005989244817412509
 0.9952767542336165 -0.04959200229087647 0.00387175177911161 0.02105307854285573 -0.0008114376633461047 -0.005989224762845643 0.0009327704422212726 0.00927130132170981
 0.0009273828137912706 0.009271941858258899 -0.0008114376633461047 -0.005989224762845643 0.00387211430278578 0.02105168396721986 0.9952767089878277 -0.04959341812442851
 -0.0008109065123851301 -0.005989244817412509 0.0009327704422212726 0.00927130132170981 0.9952767089878277 -0.04959341812442851 0.0038720619960056386 0.021051637139395136
0.11254689453939999 0.004113890678716352 0.022404992293798862 0.9949600830893202 -0.05260488586452045 0.0010184810519879182 0.009823335999621938 -0.0008895641599208306 -0.006348868679929276
 0.9949600830893202 -0.05260488586452045 0.004113035909188345 0.02240499768719096 -0.0008901580159803122 -0.00634884332206739 0.0010245288267395803 0.009822604008604184
 0.0010184810519879182 0.009823335999621938 -0.0008901580159803122 -0.00634884332206739 0.004113442671702112 0.022403524328185556 0.9949600326707426 -0.05260638476811216
 -0.0008895641599208306 -0.006348868679929276 0.0010245288267395803 0.009822604008604184 0.9949600326707426 -0.05260638476811216 0.004113384153545315 0.022403469927329712
0.11879949979160001 0.004364890308645891 0.023768526609804535 0.9946310156026249 -0.05562836223677214 0.0011141882005342295 0.01037513042032139 -0.0009722164805607207 -0.006708998626082219
 0.9946310156026249 -0.05562836223677214 0.004363937758717067 0.02376853125100741 -0.0009728763793634635 -0.006708967331926992 0.001120935237477598 0.010374298645287931
 0.0011141882005342295 0.01037513042032139 -0.0009728763793634635 -0.006708967331926992 0.004364391342076588 0.023766979582655112 0.9946309597316506 -0.05562994419890017
 -0.0009722164805607207 -0.006708998626082219 0.001120935237477598 0.010374298645287931 0.9946309597316506 -0.05562994419890017 0.00436432624695306 0.023766916847473986
0.1250521050438 0.004625672906362514 0.025143559112050438 0.9942893945947734 -0.0586623625011062 0.00121454651795013 0.010927275147135733 -0.0010589065177595838 -0.007069583959615649
 0.9942893945947734 -0.0586623625011062 0.004624617227841692 0.025143562887982418 -0.0010596357729953352 -0.007069546068624621 0.0012220320819725393 0.010926334860879228
 0.00121454651795013 0.010927275147135733 -0.0010596357729953352 -0.007069546068624621 0.004625120224996004 0.025141933404303346 0.9942893329914392 -0.05866402751165267
 -0.0010589065177595838 -0.007069583959615649 0.0012220320819725393 0.010926334860879228 0.9942893329914392 -0.05866402751165267 0.004625048178910984 0.025141861535406703
0.131304710296 0.004896398184123423 0.02652997361380002 0.9939350628786966 -0.06170681317647859 0.001319597736781118 0.011479719023546053 -0.001149676764138084 -0.007430573064747315
 0.9939350628786966 -0.06170681317647859 0.004895234015771911 0.026529976410992716 -0.0011504786655795972 -0.0074305278888525915 0.0013278612394614835 0.011478661095990885
 0.001319597736781118 0.011479719023546053 -0.0011504786655795972 -0.0074305278888525915 0.004895789031987026 0.02652826962615932 0.9939349952629579 -0.061708561226861455
 -0.001149676764138084 -0.007430573064747315 0.0013278612394614835 0.011478661095990885 0.9939349952629579 -0.061708561226861455 0.0048957096511553 0.02652818778565058
0.1375573155481 0.0051059550483951 0.02774688746542614 0.9936391485051569 -0.06458083027949155 0.0014135612650147185 0.01201373279535263 -0.001228735489936042 -0.007773247085681958
 0.9936391485051569 -0.06458083027949155 0.005104676914625856 0.027746890777099367 -0.0012296149156209386 -0.00777319477128578 0.0014226186887562587 0.012012560817250459
 0.0014135612650147185 0.01201373279535263 -0.0012296149156209386 -0.00777319477128578 0.005105287195807227 0.027745105494837743 0.9936390746071421 -0.06458266134007591
 -0.001228735489936042 -0.007773247085681958 0.0014226186887562587 0.012012560817250459 0.9936390746071421 -0.06458266134007591 0.005105198908200009 0.027745014618331846
0.1438099208003 0.005322538354994992 0.02895883486152529 0.9933334472882198 -0.06744901167681942 0.0015112960295017553 0.012546383187111923 -0.001310952112132189 -0.008114664221006264
 0.9933334472882198 -0.06744901167681942 0.005321140860376712 0.028958838748657734 -0.0013119126038774196 -0.008114604110985418 0.00152118274710291 0.012545089050212762
 0.0015112960295017553 0.012546383187111923 -0.0013119126038774196 -0.008114604110985418 0.005321809139682966 0.028956975308231707 0.9933333668295505 -0.06745092573350851
 -0.001310952112132189 -0.008114664221006264 0.00152118274710291 0.012545089050212762 0.9933333668295505 -0.06745092573350851 0.005321711337047954 0.028956874728034408
0.1500625260525 0.005546088145336424 0.030165757258844957 0.9930180215063285 -0.07031132941527765 0.0016127768165236703 0.01307764270499282 -0.0013963020038142012 -0.008454797329993127
 0.9930180215063285 -0.07031132941527765 0.005544565881976863 0.03016576178767329 -0.0013973470997883126 -0.008454728741235252 0.0016235280662702245 0.0130762180116582
 0.0016127768165236703 0.01307764270499282 -0.0013973470997883126 -0.008454728741235252 0.005545294910353898 0.03016382053665783 0.993017934208735 -0.07031332645531613
 -0.0013963020038142012 -0.008454797329993127 0.0016235280662702245 0.0130762180116582 0.993017934208735 -0.07031332645531613 0.005545186962233777 0.0301637095618406
0.15631513130469998 0.005776544217395075 0.031367598172589564 0.9926929335525768 -0.07316775488074438 0.001717978219042059 0.013607484189608304 -0.0014847603324989983 -0.008793619763900976
