! Created with skrf 1.8.0 (http://scikit-rf.org).
# GHz S RI R 50.0 
!freq ReS11 ImS11 ReS12 ImS12 ReS13 ImS13
! ReS14 ImS14
! ReS21 ImS21 ReS22 ImS22 ReS23 ImS23
! ReS24 ImS24
! ReS31 ImS31 ReS32 ImS32 ReS33 ImS33
! ReS34 ImS34
! ReS41 ImS41 ReS42 ImS42 ReS43 ImS43
! ReS44 ImS44
!
0.0 0.001923812547947 0.0 0.9980761874476 0.0 7.468910271299e-05 0.0 -7.468910269039e-05 9.146777054097407e-21
 0.9980761874476 0.0 0.001923812547978 0.0 -7.468910269192e-05 9.14677705428478e-21 7.468910271372e-05 0.0
 7.468910271299e-05 0.0 -7.468910269192e-05 9.14677705428478e-21 0.001923812537236 0.0 0.9980761874369 0.0
 -7.468910269039e-05 9.146777054097407e-21 7.468910271372e-05 0.0 0.9980761874369 0.0 0.001923812537189 0.0
0.005 0.002071182678277692 0.001575363480037631 0.9978895231472542 -0.004028265849864627 0.00010500942190677362 0.0008063000166149991 -0.00010196406237487794 -0.0005087585684466442
 0.9978895231472542 -0.004028265849864627 0.0020711942645388406 0.0015753567450112057 -0.00010196631276621949 -0.0005087603381088105 0.00010493287096896399 0.0008063292821340348
 0.00010500942190677362 0.0008063000166149991 -0.00010196631276621949 -0.0005087603381088105 0.002071180909666952 0.0015752972782095613 0.9978895227584201 -0.004028332915828226
 -0.00010196406237487794 -0.0005087585684466442 0.00010493287096896399 0.0008063292821340348 0.9978895227584201 -0.004028332915828226 0.0020711952639556833 0.0015752888219593485
0.006252605252188 0.0021102389263140636 0.0019753315806392176 0.9978396800965447 -0.005036250331130212 0.0001138891749073738 0.001008247206858012 -0.00010984407886656138 -0.0006365776592941226
 0.9978396800965447 -0.005036250331130212 0.0021102570372513152 0.0019753229992988636 -0.00010984758027121685 -0.0006365798410469701 0.00011376957419066679 0.0010082852386044093
 0.0001138891749073738 0.001008247206858012 -0.00010984758027121685 -0.0006365798410469701 0.00211023623903156 0.00197524884118258 0.9978396795664369 -0.0050363341611456185
 -0.00010984407886656138 -0.0006365776592941226 0.00011376957419066679 0.0010082852386044093 0.9978396795664369 -0.0050363341611456185 0.002110258677961815 0.001975238094589709
0.01250521050438 0.002318199088972259 0.003991324690078779 0.9975722551246031 -0.010072786294786742 0.00016596002444456805 0.002016705125534851 -0.00015551551445308246 -0.0012759557529646451
 0.9975722551246031 -0.010072786294786742 0.0023182713993233693 0.003991305885498598 -0.00015552930816576676 -0.0012759597783789495 0.0001654831527730851 0.002016797080325052
 0.00016596002444456805 0.002016705125534851 -0.00015552930816576676 -0.0012759597783789495 0.002318188886300415 0.003991159615378448 0.9975722535394085 -0.01007295369457643
 -0.00015551551445308246 -0.0012759557529646451 0.0001654831527730851 0.002016797080325052 0.9975722535394085 -0.01007295369457643 0.0023182784930485794 0.0039911363100333845
0.01875781575657 0.002548229716596977 0.006035219514197585 0.9972735219032745 -0.015121759360423245 0.00023103409401619825 0.003025960621403354 -0.0002118596065276838 -0.001917172118219872
 0.9972735219032745 -0.015121759360423245 0.0025483921898322268 0.006035188728540626 -0.00021189035889236437 -0.001917177571091766 0.0002299630233129498 0.0030261260706319374
 0.00023103409401619825 0.003025960621403354 -0.00021189035889236437 -0.001917177571091766 0.0025482072073100305 0.006034972398919723 0.9972735187628945 -0.015122010286978458
 -0.0002118596065276838 -0.001917172118219872 0.0002299630233129498 0.0030261260706319374 0.9972735187628945 -0.015122010286978458 0.002548408574933082 0.0060349345096497005
0.02501042100875 0.0028008462548039974 0.008104051343644897 0.9969430723962928 -0.020185505741008365 0.00030924494137337457 0.004035979155176632 -0.0002790255921417263 -0.0025598752745450795
 0.9969430723962928 -0.020185505741008365 0.0028011347781343966 0.00810400671411221 -0.00027907988596979064 -0.002559881653940538 0.0003073427889306991 0.004036241247829284
 0.00030924494137337457 0.004035979155176632 -0.00027907988596979064 -0.002559881653940538 0.0028008066453343466 0.008103722570007754 0.9969430671893411 -0.02018584016991922
 -0.0002790255921417263 -0.0025598752745450795 0.0003073427889306991 0.004036241247829284 0.9969430671893411 -0.02018584016991922 0.002801164289937677 0.008103667873076174
0.03126302626094 0.003076542379445476 0.010196238767052465 0.9965804811699117 -0.025264958219389826 0.00040072530759808773 0.005046633480736226 -0.00035715707988124277 -0.0032037957588467
 0.9965804811699117 -0.025264958219389826 0.003076992786565091 0.010196178328268008 -0.0003572414280639894 -0.0032038024784343333 0.0003977550351663611 0.0050470189640650686
 0.00040072530759808773 0.005046633480736226 -0.0003572414280639894 -0.0032038024784343333 0.003076480881406514 0.010195828782779182 0.9965804733811513 -0.025265376167531085
 -0.00035715707988124277 -0.0032037957588467 0.0003977550351663611 0.0050470189640650686 0.9965804733811513 -0.025265376167531085 0.0030770392675138923 0.010195754857590722
0.037515631513130004 0.0033757997174043205 0.012310708497946427 0.9961853156362205 -0.03036052128321345 0.0005056057324665882 0.006057758585643176 -0.0004463930155756145 -0.0038486912545019755
 0.9961853156362205 -0.03036052128321345 0.00337644780469471 0.01231063018285814 -0.0004465138678991777 -0.0038486976424357243 0.0005013300680269708 0.0060582978384716634
 0.0005056057324665882 0.006057758585643176 -0.0004465138678991777 -0.0038486976424357243 0.0033757115517292157 0.012310217820877994 0.9961853047495688 -0.030361022804906306
 -0.0004463930155756145 -0.0038486912545019755 0.0005013300680269708 0.0060582978384716634 0.9961853047495688 -0.030361022804906306 0.0033765151095481857 0.012310122049760383
0.043768236765320004 0.0036990915598199823 0.014446629017378587 0.9957571402927959 -0.03547233743141075 0.0006240138662899464 0.007069168429082531 -0.0005468679827331335 -0.00449432992884805
 0.9957571402927959 -0.03547233743141075 0.0036999731005785998 0.014446530657583778 -0.000547031729878368 -0.004494335227794385 0.0006181952789019858 0.007069895499073982
 0.0006240138662899464 0.007069168429082531 -0.000547031729878368 -0.004494335227794385 0.0036989719520783464 0.014446058264243637 0.995757125783941 -0.03547292259036039
 -0.0005468679827331335 -0.00449432992884805 0.0006181952789019858 0.007069895499073982 0.995757125783941 -0.03547292259036039 0.0037000650913356693 0.014445937831730588
0.050020842017509996 0.004046884540952163 0.01660330056340146 0.9952955189316074 -0.040600397135396 0.0007560740247166383 0.008080662884315233 -0.0006587122699129292 -0.005140483574981528
 0.9952955189316074 -0.040600397135396 0.0040480352973017285 0.016603179889059787 -0.000658925245817343 -0.0051404869422181625 0.0007484747269012391 0.008081615526466012
 0.0007560740247166383 0.008080662884315233 -0.000658925245817343 -0.0051404869422181625 0.004046728726133125 0.01660265042533694 0.9952955002717886 -0.04060106603024878
 -0.0006587122699129292 -0.005140483574981528 0.0007484747269012391 0.008081615526466012 0.9952955002717886 -0.04060106603024878 0.00404815584832218 0.016602502316522754
0.055454545454549996 0.004369383121183572 0.01849388139793931 0.9948668554181127 -0.04506994647917806 0.0008820192162951984 0.008959587445527962 -0.0007652395529343196 -0.005702251918798901
 0.9948668554181127 -0.04506994647917806 0.004370796877764879 0.018493739408933507 -0.0007655004111967793 -0.005702252856687295 0.0008726791306713463 0.008960769686986612
 0.0008820192162951984 0.008959587445527962 -0.0007655004111967793 -0.005702252856687295 0.0043691919787294834 0.01849316290832036 0.9948668327156893 -0.04507068823344457
 -0.0007652395529343196 -0.005702251918798901 0.0008726791306713463 0.008960769686986612 0.9948668327156893 -0.04507068823344457 0.00437094540359984 0.0184929881432236
0.056273447269699996 0.004419639459313753 0.01878010109876978 0.9948000159996349 -0.045744592830330194 0.0009019068562041465 0.009092031157188787 -0.000782051827508404 -0.005786924287916431
 0.9948000159996349 -0.045744592830330194 0.004421095194373025 0.018779955737973246 -0.0007823203109592272 -0.005786924795435548 0.0008922888244713873 0.009093250872748078
 0.0009019068562041465 0.009092031157188787 -0.0007823203109592272 -0.005786924795435548 0.004419442681701128 0.018779372362785457 0.9947999926526095 -0.0457453455737635
 -0.000782051827508404 -0.005786924287916431 0.0008922888244713873 0.009093250872748078 0.9947999926526095 -0.0457453455737635 0.0044212481912022815 0.018779193361504527
0.06252605252188 0.0048178116688582535 0.020976456659999504 0.994270197533906 -0.050904748535395485 0.0010616290600165513 0.010103053704414618 -0.0009170081756793975 -0.006433422652610168
 0.994270197533906 -0.050904748535395485 0.004819608158356793 0.020976284137605328 -0.0009173383913102782 -0.006433419287247561 0.0010497540662285254 0.010104585779554236
 0.0010616290600165513 0.010103053704414618 -0.0009173383913102782 -0.006433419287247561 0.0048175691836356855 0.020975650201138556 0.9942701689552463 -0.050905585262888284
 -0.0009170081756793975 -0.006433422652610168 0.0010497540662285254 0.010104585779554236 0.9942701689552463 -0.050905585262888284 0.004819797498337112 0.020975436887425706
0.06877865777407 0.005241851236368833 0.023191823673475935 0.993705631869842 -0.05608063752005983 0.00123535313793074 0.011113503392322855 -0.0010636982780558699 -0.007079746703795697
 0.993705631869842 -0.05608063752005983 0.005244024279663548 0.023191621409599242 -0.0010640963968740972 -0.007079738367358693 0.0012209827893585338 0.011115396936384813
 0.00123535313793074 0.011113503392322855 -0.0010640963968740972 -0.007079738367358693 0.00524155831190678 0.023190940452169465 0.9937055975070201 -0.056081558393123836
 -0.0010636982780558699 -0.007079746703795697 0.0012209827893585338 0.011115396936384813 0.9937055975070201 -0.056081558393123836 0.005244253873635163 0.02319068919943045
0.07503126302626001 0.005692202961169364 0.025425677764923625 0.9931058902178868 -0.06127199349077894 0.0014231871630769528 0.012123146262227921 -0.001222234398202528 -0.007725661292115935
 0.9931058902178868 -0.06127199349077894 0.005694788392614111 0.025425443072976686 -0.001222706537939088 -0.007725646801532375 0.0014060829489069354 0.012125454245280632
 0.0014231871630769528 0.012123146262227921 -0.001222706537939088 -0.007725646801532375 0.005691854879885227 0.025424718838111607 0.9931058495082108 -0.061272998686562156
 -0.001222234398202528 -0.007725661292115935 0.0014060829489069354 0.012125454245280632 0.9931058495082108 -0.061272998686562156 0.005695062164248253 0.025424425809746427
0.08128386827845 0.006169306304702489 0.027677506335959272 0.992470547155467 -0.06647851802573673 0.0016252345603593955 0.013131742071031982 -0.0013927239449098845 -0.008370927688290683
 0.992470547155467 -0.06647851802573673 0.0061723400046712375 0.027677236420052754 -0.0013932761700744085 -0.008370905775757904 0.001605157902645504 0.013134521360583662
 0.0016252345603593955 0.013131742071031982 -0.0013932761700744085 -0.008370905775757904 0.006168898364532777 0.027676472850356914 0.9924704995253052 -0.06647960774432239
 -0.0013927239449098845 -0.008370927688290683 0.001605157902645504 0.013134521360583662 0.9924704995253052 -0.06647960774432239 0.006172661891004105 0.027676133995943715
0.08753647353064001 0.006673595262604441 0.02994680344717209 0.9917991810663985 -0.07169988571849796 0.0018415938963216969 0.014139044686114799 -0.0015752693075949738 -0.009015303346626632
 0.9917991810663985 -0.07169988571849796 0.006677113168741275 0.029946495399177167 -0.001575907629430858 -0.0090152726597716 0.001818306205824151 0.014142356082925895
 0.0018415938963216969 0.014139044686114799 -0.001575907629430858 -0.0090152726597716 0.006673122779281155 0.02994569664275718 0.9917991259301542 -0.07170106017985073
 -0.0015752693075949738 -0.009015303346626632 0.001818306205824151 0.014142356082925895 0.9917991259301542 -0.07170106017985073 0.006677487120872375 0.029945307693726102
0.09378907878283 0.00720549819578651 0.03223306617720432 0.9910913745441493 -0.07693574786200286 0.0020723586733699625 0.015144802401866287 -0.001769967688619806 -0.009658541760871683
 0.9910913745441493 -0.07693574786200286 0.007209536314285702 0.032232716973236125 -0.001770698064911318 -0.00965850086292936 0.0020456214084782027 0.015148710674671618
 0.0020723586733699625 0.015144802401866287 -0.001770698064911318 -0.00965850086292936 0.007204956504961727 0.03223188738996354 0.991091311303945 -0.07693700730379807
 -0.001769967688619806 -0.009658541760871683 0.0020456214084782027 0.015148710674671618 0.991091311303945 -0.07693700730379807 0.0072099662981280205 0.032231443854762176
0.100041684035 0.007765437633886917 0.03453579198179551 0.9903467147708392 -0.08218573514941074 0.00231761712965949 0.016148758200309123 -0.001976910930880794 -0.01030039239006908
 0.9903467147708392 -0.08218573514941074 0.00777003205024541 0.034535398478167056 -0.0019777392656085673 -0.010300339760054698 0.002287191858235581 0.01615333211943231
 0.00231761712965949 0.016148758200309123 -0.0019777392656085673 -0.010300339760054698 0.007764822092068954 0.03453454264031591 0.9903466428144687 -0.08218707983066531
 -0.001976910930880794 -0.01030039239006908 0.002287191858235581 0.01615333211943231 0.9903466428144687 -0.08218707983066531 0.007770522046169599 0.03453403979916755
0.1059090909091 0.0083167513789121 0.036711179844258195 0.9896140495360339 -0.08712479278736925 0.002561021829587421 0.017088991993445025 -0.0021823187396890634 -0.010901212212390262
 0.9896140495360339 -0.08712479278736925 0.008321900721948676 0.03671074180025503 -0.002183244319418781 -0.010901147114919173 0.0025269190585281037 0.01709425668997246
 0.002561021829587421 0.017088991993445025 -0.002183244319418781 -0.010901147114919173 0.008316062333692148 0.036709865679594264 0.9896139688307035 -0.08712621770897866
 -0.0021823187396890634 -0.010901212212390262 0.0025269190585281037 0.01709425668997246 0.9896139688307035 -0.08712621770897866 0.008322450666790708 0.036709302685086674
0.1062942892872 0.00835383005531046 0.03685447672223886 0.9895647938774539 -0.0874494597226341 0.0025774520418524382 0.017150649974556197 -0.002196185343765078 -0.010940600636027208
 0.9895647938774539 -0.0874494597226341 0.008359016945723928 0.036854035650949295 -0.0021971174867786406 -0.010940534668964557 0.002543100506387202 0.017155962344323056
 0.0025774520418524382 0.017150649974556197 -0.0021971174867786406 -0.010940534668964557 0.008353136042656738 0.036853158349962556 0.9895647125782231 -0.08745088992179731
 -0.002196185343765078 -0.010940600636027208 0.002543100506387202 0.017155962344323056 0.9895647125782231 -0.08745088992179731 0.008359570949789815 0.03685259124900907
0.11254689453939999 0.008971085653115067 0.03918861318025856 0.9887452092915764 -0.09272651675221426 0.002851940531768366 0.01815021073384022 -0.0024278715279337938 -0.011578907853804768
 0.9887452092915764 -0.09272651675221426 0.008976901295731005 0.03918812114375417 -0.0024289132744393844 -0.011578826860877238 0.002813424716417111 0.0181563384236494
 0.002851940531768366 0.01815021073384022 -0.0024289132744393844 -0.011578826860877238 0.008970308575010588 0.03918722739568954 0.9887451180069081 -0.09272803276715935
 -0.0024278715279337938 -0.011578907853804768 0.002813424716417111 0.0181563384236494 0.9887451180069081 -0.09272803276715935 0.008977523319308277 0.03918659084065391
0.11879949979160001 0.009617608088267188 0.04153768992722735 0.9878875640758041 -0.09801648568067312 0.0031411538757617455 0.019147168792304426 -0.0026720441995345735 -0.012215051393031999
 0.9878875640758041 -0.09801648568067312 0.009624088874162391 0.0415371433928644 -0.00267320128966311 -0.012214953601856262 0.0030982360759147154 0.01915419276641632
 0.0031411538757617455 0.019147168792304426 -0.00267320128966311 -0.012214953601856262 0.009616743377403723 0.041536238444880656 0.9878874621464202 -0.09801808782784037
 -0.0026720441995345735 -0.012215051393031999 0.0030982360759147154 0.01915419276641632 0.9878874621464202 -0.09801808782784037 0.009624782944916744 0.04153552699413979
0.1250521050438 0.010293794233375888 0.04390119044771057 0.9869914672581439 -0.1033189312300521 0.003445157316842495 0.020141247948414993 -0.0029287720152133974 -0.012848764663561442
 0.9869914672581439 -0.1033189312300521 0.010300976677689316 0.043900585741426294 -0.0029300501333850543 -0.012848648218416128 0.003397600210723858 0.020149253294279832
 0.003445157316842495 0.020141247948414993 -0.0029300501333850543 -0.012848648218416128 0.010292837351852335 0.0438996750796229 0.9869913540068236 -0.10332061984298717
 -0.0029287720152133974 -0.012848764663561442 0.003397600210723858 0.020149253294279832 0.9869913540068236 -0.10332061984298717 0.010301746839451863 0.043898883036851806
0.131304710296 0.01100003390934612 0.0462785924689229 0.986056534156138 -0.10863340422208093 0.0037640098801403434 0.02113216766369031 -0.0031981173974572424 -0.013479777216686615
 0.986056534156138 -0.10863340422208093 0.011007954662629781 0.04627792576836482 -0.003199522171828509 -0.013479640178735182 0.003711576602428034 0.02114124361878312
 0.0037640098801403434 0.02113216766369031 -0.003199522171828509 -0.013479640178735182 0.010998980350734463 0.046277015120118975 0.9860564088865682 -0.10863517965580259
 -0.0031981173974572424 -0.013479777216686615 0.003711576602428034 0.02114124361878312 0.9860564088865682 -0.10863517965580259 0.01100880497575045 0.046276136526260565
0.1375573155481 0.01158847129510736 0.048361491087666776 0.9852307114328017 -0.11365134706646621 0.004061569652383065 0.022090956440053905 -0.0034440048138466776 -0.014079108395731111
 0.9852307114328017 -0.11365134706646621 0.011597170789267813 0.04836077382050094 -0.0034455448105468723 -0.014078950296010567 0.004004139054171994 0.02210110132354018
 0.004061569652383065 0.022090956440053905 -0.0034455448105468723 -0.014078950296010567 0.01158731734548357 0.04835985321640971 0.9852305735784179 -0.11365320950929513
 -0.0034440048138466776 -0.014079108395731111 0.004004139054171994 0.02210110132354018 0.9852305735784179 -0.11365320950929513 0.011598104292884123 0.04835889800382211
0.1438099208003 0.012197977526293048 0.0504307733414634 0.9843750651380684 -0.11865386222332827 0.004371029752497638 0.02304413971136302 -0.0036995797414998643 -0.01467331470344509
 0.9843750651380684 -0.11865386222332827 0.0122074931661841 0.05043000250916087 -0.0037012610357511897 -0.014673133597805752 0.00430838643408087 0.023055436291882246
 0.004371029752497638 0.02304413971136302 -0.0037012610357511897 -0.014673133597805752 0.012196718864884935 0.050429076882505953 0.9843749140031292 -0.11865581201449568
 -0.0036995797414998643 -0.01467331470344509 0.00430838643408087 0.023055436291882246 0.9843749140031292 -0.11865581201449568 0.012208513761067555 0.05042803992361438
0.1500625260525 0.01282829354783864 0.05248618774681255 0.9834898597602414 -0.12364074467118165 0.004692253619580278 0.023991565706560098 -0.003964709878780323 -0.015262255969272335
 0.9834898597602414 -0.12364074467118165 0.012838662884433227 0.052485360143739855 -0.003966538526718571 -0.015262049834676713 0.004624183935688083 0.024004099768608927
 0.004692253619580278 0.023991565706560098 -0.003966538526718571 -0.015262049834676713 0.01282692589260064 0.05248443470950007 0.9834896946330018 -0.12364278216112536
 -0.003964709878780323 -0.015262255969272335 0.004624183935688083 0.024004099768608927 0.9834896946330018 -0.12364278216112536 0.01283977447580241 0.05248331058565675
0.15631513130469998 0.013479157938265839 0.05452749039830368 0.982575361712663 -0.12861179205275594 0.005025102772516844 0.024933085962706433 -0.0042392610272492404 -0.015845795605750314
 0.982575361712663 -0.12861179205275594 0.013490418672551428 0.05452660260415045 -0.004241243065575837 -0.015845562340632387 0.004951394865396922 0.024946946266986885
