! Created with skrf 1.8.0 (http://scikit-rf.org).
# GHz S RI R 50.0 
!freq ReS11 ImS11 ReS12 ImS12 ReS13 ImS13
! ReS14 ImS14
! ReS21 ImS21 ReS22 ImS22 ReS23 ImS23
! ReS24 ImS24
! ReS31 ImS31 ReS32 ImS32 ReS33 ImS33
! ReS34 ImS34
! ReS41 ImS41 ReS42 ImS42 ReS43 ImS43
! ReS44 ImS44
!
0.0 0.001596722103 0.0 0.9984032778629 0.0 6.173308965615e-05 0.0 -6.173308974533e-05 7.560123075809467e-21
 0.9984032778629 0.0 0.001596722103012 0.0 -6.173308974536e-05 7.560123075813142e-21 6.173308965695e-05 0.0
 6.173308965615e-05 0.0 -6.173308974536e-05 7.560123075813142e-21 0.001596722120064 0.0 0.9984032778799 0.0
 -6.173308974533e-05 7.560123075809467e-21 6.173308965695e-05 0.0 0.9984032778799 0.0 0.001596722120076 0.0
0.005 0.0017181112026536847 0.001305054069916151 0.9982496766784649 -0.0033446241309997194 8.67410187341303e-05 0.0006863485386674845 -8.418862201328958e-05 -0.00042970399304370453
 0.9982496766784649 -0.0033446241309997194 0.0017181198644296944 0.001305048929713633 -8.418975610468444e-05 -0.0004297047775000998 8.668562501432357e-05 0.000686369614700662
 8.67410187341303e-05 0.0006863485386674845 -8.418975610468444e-05 -0.0004297047775000998 0.0017181114221374325 0.001305121155913065 0.9982496770502579 -0.0033445570678051107
 -8.418862201328958e-05 -0.00042970399304370453 8.668562501432357e-05 0.000686369614700662 0.9982496770502579 -0.0033445570678051107 0.0017181203779982955 0.0013051159595999643
0.006252605252188 0.0017499946449231845 0.0016364495592833825 0.9982090703162411 -0.004181590931455617 9.391152534443603e-05 0.0008582621552012649 -9.054993784786114e-05 -0.0005376840068278353
 0.9982090703162411 -0.004181590931455617 0.0017500081856774363 0.0016364430289206606 -9.055170328612211e-05 -0.0005376849721161487 9.382497774099888e-05 0.0008582895304171602
 9.391152534443603e-05 0.0008582621552012649 -9.055170328612211e-05 -0.0005376849721161487 0.0017499949000842944 0.0016365333915031616 0.998209070809152 -0.00418150711541149
 -9.054993784786114e-05 -0.0005376840068278353 9.382497774099888e-05 0.0008582895304171602 0.998209070809152 -0.00418150711541149 0.0017500088994643985 0.0016365268056401001
0.01250521050438 0.001918108175137368 0.0033071460012687234 0.997993512762481 -0.008363936581276725 0.00013516914412787986 0.0017168415177976652 -0.00012675734049691662 -0.001077948239272051
 0.997993512762481 -0.008363936581276725 0.001918162255499845 0.0033071318817908943 -0.0001267643063265274 -0.001077950000730128 0.00013482400705383996 0.001716907403282224
 0.00013516914412787986 0.0017168415177976652 -0.0001267643063265274 -0.001077950000730128 0.0019181086436642746 0.003307313295811401 0.997993514175967 -0.008363769161965566
 -0.00012675734049691662 -0.001077948239272051 0.00013482400705383996 0.001716907403282224 0.997993514175967 -0.008363769161965566 0.00191816453797215 0.0033072992128942522
0.01875781575657 0.0021014403403572567 0.005001564803485635 0.9977563297882308 -0.012557204926857813 0.00018560292412783455 0.0025763102338186255 -0.00017046905585545535 -0.0016199986945335647
 0.9977563297882308 -0.012557204926857813 0.0021015618839548686 0.005001541960003564 -0.00017048460151619324 -0.0016200010461500242 0.0001848276020587012 0.002576427993548475
 0.00018560292412783455 0.0025763102338186255 -0.00017048460151619324 -0.0016200010461500242 0.0021014409867004553 0.005001815262498091 0.9977563325523061 -0.012556953959262812
 -0.00017046905585545535 -0.0016199986945335647 0.0001848276020587012 0.002576427993548475 0.9977563325523061 -0.012556953959262812 0.0021015665717081826 0.005001792699831185
0.02501042100875 0.00230035699673906 0.0067173192406873895 0.9974972348165638 -0.016763414352422748 0.0002453112307074442 0.0034366956809165736 -0.0002217948957340531 -0.0021635797010259267
 0.9974972348165638 -0.016763414352422748 0.002300572886472664 0.006717286471581975 -0.00022182236392154136 -0.0021635823967070798 0.0002439340666268635 0.0034368808344772957
 0.0002453112307074442 0.0034366956809165736 -0.00022182236392154136 -0.0021635823967070798 0.00230035778228562 0.006717652546888994 0.9974972393578593 -0.016763079824280012
 -0.0002217948957340531 -0.0021635797010259267 0.0002439340666268635 0.0034368808344772957 0.9974972393578593 -0.016763079824280012 0.002300580791934069 0.006717620461113128
0.03126302626094 0.002515208861522609 0.008453174008183751 0.9972159270381107 -0.020983420001063492 0.0003143927801548345 0.004297945176140576 -0.0002808414071416165 -0.0027085091909809515
 0.9972159270381107 -0.020983420001063492 0.002515545954038666 0.008453130046949687 -0.0002808841099816102 -0.0027085119440958916 0.00031224190267488373 0.004298215411029957
 0.0003143927801548345 0.004297945176140576 -0.0002808841099816102 -0.0027085119440958916 0.0025152097540396073 0.008453589796563254 0.9972159337920812 -0.02098300186069198
 -0.0002808414071416165 -0.0027085091909809515 0.00031224190267488373 0.004298215411029957 0.9972159337920812 -0.02098300186069198 0.0025155578765277595 0.008453547085851049
0.037515631513130004 0.0027463389439106823 0.010208318290826506 0.9969120991001081 -0.025217640644398933 0.0003929456448510688 0.005159974261591043 -0.0003477126431956129 -0.0032546304207937467
 0.9969120991001081 -0.025217640644398933 0.002746824079584924 0.010208261806961168 -0.00034777386530348013 -0.0032546329040035625 0.00038984890326491505 0.005160349454303867
 0.0003929456448510688 0.005159974261591043 -0.00034777386530348013 -0.0032546329040035625 0.002746339910434286 0.010208816149804328 0.996912108506483 -0.025217138799145958
 -0.0003477126431956129 -0.0032546304207937467 0.00038984890326491505 0.005160349454303867 0.996912108506483 -0.025217138799145958 0.0027468407991050143 0.010208761654899909
0.043768236765320004 0.0029940854036604563 0.011982144575788776 0.9965854402247373 -0.02946627979855689 0.0004810667815407798 0.0060226813919024 -0.0004225104336606714 -0.0038017972916012904
 0.9965854402247373 -0.02946627979855689 0.002994745414295804 0.011982074175198839 -0.0004225934338562321 -0.003801799136729771 0.00047685171837074075 0.0060231836316524635
 0.0004810667815407798 0.0060226813919024 -0.0004225934338562321 -0.003801799136729771 0.002994086409712664 0.011982724032990366 0.9965854527296065 -0.02946569412860952
 -0.0004225104336606714 -0.0038017972916012904 0.00047685171837074075 0.0060231836316524635 0.9965854527296065 -0.02946569412860952 0.0029947676919033018 0.011982656537906759
0.050020842017509996 0.0032587828775857714 0.013774157225857507 0.9962356377999169 -0.03372941707822627 0.0005788517444277311 0.006885953999625939 -0.0005053344770419324 -0.00434986829507998
 0.9962356377999169 -0.03372941707822627 0.0032596445933467844 0.013774071450998866 -0.0005054424893659705 -0.00434986909303552 0.0005733455880360805 0.0068866076130702425
 0.0005788517444277311 0.006885953999625939 -0.0005054424893659705 -0.00434986909303552 0.0032587838861252954 0.013774817752117663 0.9962356538571158 -0.03372874743232165
 -0.0005053344770419324 -0.00434986829507998 0.0005733455880360805 0.0068866076130702425 0.9962356538571158 -0.03372874743232165 0.0032596731709527496 0.013774735984396066
0.055454545454549996 0.0035028370490955293 0.015345905985367794 0.9959126100290688 -0.03744598869309439 0.0006717510544767518 0.007636529793017253 -0.0005839052190515699 -0.004826784217530834
 0.9959126100290688 -0.03744598869309439 0.0035038958456482176 0.01534580561673786 -0.0005840375753212579 -0.004826783741402797 0.0006649823467830415 0.007637336467596923
 0.0006717510544767518 0.007636529793017253 -0.0005840375753212579 -0.004826783741402797 0.0035028380260668113 0.015346636492135145 0.9959126295485136 -0.0374452459191054
 -0.0005839052190515699 -0.004826784217530834 0.0006649823467830415 0.007637336467596923 0.9959126295485136 -0.0374452459191054 0.0035039304847952475 0.01534654124385451
0.056273447269699996 0.0035407631544209584 0.015583927603409844 0.9958623783223147 -0.03800705300178287 0.0006863944786149897 0.007749671481830499 -0.0005962823540248493 -0.004898703542093812
 0.9958623783223147 -0.03800705300178287 0.003541853410303075 0.01558382493316451 -0.000596418588353911 -0.004898702842802958 0.0006794241480615229 0.007750503058152279
 0.0006863944786149897 0.007749671481830499 -0.000596418588353911 -0.004898702842802958 0.003540764123731619 0.015584668616428347 0.9958623983941812 -0.0380062991931817
 -0.0005962823540248493 -0.004898703542093812 0.0006794241480615229 0.007750503058152279 0.9958623983941812 -0.0380062991931817 0.0035418890093309296 0.015584571247211562
0.06252605252188 0.003840355530100176 0.017411069420172853 0.995465348025406 -0.04229913357409125 0.0008037871549584018 0.008613706838004723 -0.0006954494996447218 -0.005448163144676033
 0.995465348025406 -0.04229913357409125 0.0038417011717999253 0.017410948269636028 -0.0006956171420670289 -0.005448160457035378 0.0007951792726879971 0.0086147452540473
 0.0008037871549584018 0.008613706838004723 -0.0006956171420670289 -0.005448160457035378 0.003840356412178095 0.017411890274264576 0.9954653725833212 -0.04229829539068902
 -0.0006954494996447218 -0.005448163144676033 0.0007951792726879971 0.0086147452540473 0.9954653725833212 -0.04229829539068902 0.0038417444921460897 0.0174117759181169
0.06877865777407 0.004157886988943769 0.01925522401112526 0.9950442333368315 -0.04660556495002405 0.000931120026723724 0.009477927656331544 -0.000802929152724955 -0.005998106254700238
 0.9950442333368315 -0.04660556495002405 0.004159514878707673 0.019255082731019457 -0.0008031313656662562 -0.00599810104652631 0.0009207009371722452 0.00947920410159486
 0.000931120026723724 0.009477927656331544 -0.0008031313656662562 -0.00599810104652631 0.004157887728400126 0.0192561240046505 0.9950442628633724 -0.04660464214673824
 -0.000802929152724955 -0.005998106254700238 0.0009207009371722452 0.00947920410159486 0.9950442628633724 -0.04660464214673824 0.004159566598674876 0.01925599121912461
0.07503126302626001 0.004493682281025872 0.02111605103392297 0.9945987212378803 -0.05092622267764492 0.0010684812998470134 0.010342196745790733 -0.0009188122906521985 -0.006548390462059257
 0.9945987212378803 -0.05092622267764492 0.004495619303654255 0.021115887909893983 -0.0009190522129492531 -0.006548382160052001 0.0010560770923870152 0.010343744747179947
 0.0010684812998470134 0.010342196745790733 -0.0009190522129492531 -0.006548382160052001 0.004493682813524852 0.021117029403822356 0.9945987562273798 -0.050925214981697206
 -0.0009188122906521985 -0.006548390462059257 0.0010560770923870152 0.010343744747179947 0.9945987562273798 -0.050925214981697206 0.004495680078713598 0.021116876688862314
0.08128386827845 0.0048480639359721744 0.02299322225419037 0.9941284995612293 -0.055260957861171606 0.0012159570118086059 0.011206372559758466 -0.0010431875545550441 -0.007098871406959173
 0.9941284995612293 -0.055260957861171606 0.004850337004097045 0.022993035505890512 -0.001043468301338985 -0.0070988593966801765 0.0012013935469429133 0.011208228005989328
 0.0012159570118086059 0.011206372559758466 -0.001043468301338985 -0.0070988593966801765 0.004848064185935348 0.022994278178017306 0.99412854052083 -0.05525986497007887
 -0.0010431875545550441 -0.007098871406959173 0.0012013935469429133 0.011208228005989328 0.99412854052083 -0.05525986497007887 0.004850407465716808 0.02299410397506657
0.08753647353064001 0.005221352230891235 0.0248864172690076 0.9936332572486763 -0.05960960139224848 0.0013736309148717784 0.012070309501413443 -0.0011761411687438972 -0.007649402516157313
 0.9936332572486763 -0.05960960139224848 0.005223988290939543 0.024886205048868036 -0.0011764658313563163 -0.007649386142001128 0.001356733853281701 0.012072510666991653
 0.0013736309148717784 0.012070309501413443 -0.0011764658313563163 -0.007649386142001128 0.005221352110351278 0.024887549863066637 0.9936333046992996 -0.059608422975710444
 -0.0011761411687438972 -0.007649402516157313 0.001356733853281701 0.012072510666991653 0.9936333046992996 -0.059608422975710444 0.0052240690456253356 0.02488735255398924
0.09378907878283 0.005613865130781594 0.02679532044454121 0.9931126845842086 -0.06397196697335784 0.0015415843637037014 0.012933858146811729 -0.0013177568548280003 -0.008199834827562471
 0.9931126845842086 -0.06397196697335784 0.0056168911684443025 0.026795080836489023 -0.0013181285005222812 -0.008199813392763225 0.0015221791977607375 0.012936445715582483
 0.0015415843637037014 0.012933858146811729 -0.0013181285005222812 -0.008199813392763225 0.00561386453755626 0.026796528765862283 0.9931127390621294 -0.06397070267140809
 -0.0013177568548280003 -0.008199834827562471 0.0015221791977607375 0.012936445715582483 0.9931127390621294 -0.06397070267140809 0.005616982797356514 0.026796306671509396
0.100041684035 0.006025918205792964 0.028719618679115468 0.9925664734075459 -0.06834785332274504 0.0017198962051693386 0.013796865420901836 -0.001468115742724264 -0.008750016867930926
 0.9925664734075459 -0.06834785332274504 0.006029361251650667 0.028719349696898586 -0.0014685374144962006 -0.008749989634549732 0.0016978082922162933 0.013799882509101115
 0.0017198962051693386 0.013796865420901836 -0.0014685374144962006 -0.008749989634549732 0.006025917021833466 0.028720901723736918 0.9925665354652615 -0.0683465027475756
 -0.001468115742724264 -0.008750016867930926 0.0016978082922162933 0.013799882509101115 0.9925665354652615 -0.0683465027475756 0.006029464308980502 0.02872065310247918
0.1059090909091 0.006430636808500532 0.030539091951832867 0.992030321243279 -0.07246626453272406 0.0018967117402654335 0.014606074401010513 -0.0016172333729541255 -0.009265939537966771
 0.992030321243279 -0.07246626453272406 0.006434495801511666 0.030538793534435588 -0.0016177047345562246 -0.009265906155419522 0.0018719474289382071 0.014609535947830012
 0.0018967117402654335 0.014606074401010513 -0.0016177047345562246 -0.009265906155419522 0.00643063494703664 0.03054044415236362 0.9920303909316671 -0.07246483261854732
 -0.0016172333729541255 -0.009265939537966771 0.0018719474289382071 0.014609535947830012 0.9920303909316671 -0.07246483261854732 0.006434610062356024 0.030540168997109585
0.1062942892872 0.006457824533556276 0.030658999717287375 0.9919943173166611 -0.07273704583541032 0.0019086426698103872 0.014659174734522148 -0.0016272962790852726 -0.00929979457597394
 0.9919943173166611 -0.07273704583541032 0.006461711668995366 0.030658699302575237 -0.001627770995338145 -0.009299760764911583 0.0018836972674604775 0.014662666913199528
 0.0019086426698103872 0.014659174734522148 -0.001627770995338145 -0.009299760764911583 0.006457822623081219 0.03066035642330745 0.9919943875238669 -0.07273560856853899
 -0.0016272962790852726 -0.00929979457597394 0.0018836972674604775 0.014662666913199528 0.9919943875238669 -0.07273560856853899 0.006461826680978104 0.030660079469153216
0.11254689453939999 0.006909894588518051 0.03261315087786488 0.9913959118600371 -0.0771393178373174 0.002107897264738465 0.015520626104462918 -0.0017953741338182696 -0.009849011248700672
 0.9913959118600371 -0.0771393178373174 0.00691425295120127 0.03261281689826175 -0.0017959048880300736 -0.009848970039725355 0.002079919567625666 0.01552464142139017
 0.002107897264738465 0.015520626104462918 -0.0017959048880300736 -0.009848970039725355 0.006909891796392673 0.032614580122122455 0.9913959908051598 -0.07713779343339716
 -0.0017953741338182696 -0.009849011248700672 0.002079919567625666 0.01552464142139017 0.9913959908051598 -0.07713779343339716 0.0069143804152813895 0.03261427296255363
0.11879949979160001 0.007382436122554891 0.03458175805206034 0.9907709547239909 -0.08155443157732348 0.002317730667488137 0.0163810562535953 -0.0019724221050594418 -0.010397507514259103
 0.9907709547239909 -0.08155443157732348 0.007387292912009353 0.03458138829868586 -0.0019730118654089834 -0.010397458046041488 0.002286545845548323 0.01638564525455702
 0.002317730667488137 0.0163810562535953 -0.0019730118654089834 -0.010397458046041488 0.0073824322724766345 0.03458325864975328 0.9907710430152066 -0.08155281956473986
 -0.0019724221050594418 -0.010397507514259103 0.002286545845548323 0.01638564525455702 0.9907710430152066 -0.08155281956473986 0.007387433295841653 0.03458291934344867
0.1250521050438 0.007875754037307198 0.03656450492341053 0.9901191459138399 -0.0859821390047577 0.0025382106206201112 0.01724029870329082 -0.0021585100232443264 -0.010945121319155033
 0.9901191459138399 -0.0859821390047577 0.007881136520925251 0.03656409710828477 -0.0021591617322632346 -0.010945062689286965 0.0025036438586541216 0.01724551445262512
 0.0025382106206201112 0.01724029870329082 -0.0021591617322632346 -0.010945062689286965 0.007875748930250878 0.03656607563299397 0.9901192441803087 -0.08598043888137373
 -0.0021585100232443264 -0.010945121319155033 0.0025036438586541216 0.01724551445262512 0.9901192441803087 -0.08598043888137373 0.007881290261061174 0.03656570216713248
0.131304710296 0.008390150251139775 0.03856107235025836 0.9894401879330139 -0.09042218239260058 0.002769401827172924 0.018098183856586424 -0.0023537046541953267 -0.011491687931435193
 0.9894401879330139 -0.09042218239260058 0.008396085769532683 0.03856062410348418 -0.0023544212282947184 -0.011491619196540572 0.002731278365756437 0.018104081957119943
 0.002769401827172924 0.018098183856586424 -0.0023544212282947184 -0.011491619196540572 0.008390143663237693 0.03856271187027506 0.9894402968259007 -0.09042039362937696
 -0.0023537046541953267 -0.011491687931435193 0.002731278365756437 0.018104081957119943 0.9894402968259007 -0.09042039362937696 0.008396253270656875 0.03856230215760221
0.1375573155481 0.008809828197123589 0.04031083880529432 0.988849929803475 -0.09461387012085748 0.0029828864889099066 0.018928725872160903 -0.0025296372489828204 -0.012011210268133737
 0.988849929803475 -0.09461387012085748 0.008816344929444376 0.040310357207572166 -0.002530422770675411 -0.012011131310649603 0.002941120125171121 0.018935299009811408
 0.0029828864889099066 0.018928725872160903 -0.002530422770675411 -0.012011131310649603 0.008809819009704525 0.040312546534373786 0.9888500498240476 -0.09461199238723175
 -0.0025296372489828204 -0.012011210268133737 0.002941120125171121 0.018935299009811408 0.9888500498240476 -0.09461199238723175 0.008816527750135255 0.040312106822641657
0.1438099208003 0.009244330594314929 0.042051036818375014 0.988238794758109 -0.09879457431274091 0.0032049874966766454 0.0197556627459499 -0.002712594547279498 -0.012527448120537094
 0.988238794758109 -0.09879457431274091 0.009251456068611677 0.04205052005300071 -0.002713452105821907 -0.01252735801622733 0.0031594195390573327 0.01976296185758927
 0.0032049874966766454 0.0197556627459499 -0.002713452105821907 -0.01252735801622733 0.009244318385529138 0.04205281145923404 0.9882389265593041 -0.0987926070857393
 -0.002712594547279498 -0.012527448120537094 0.0031594195390573327 0.01976296185758927 0.9882389265593041 -0.0987926070857393 0.009251654776566549 0.04205234009684593
0.1500625260525 0.009693499288704667 0.0437815105022984 0.9876069453258398 -0.10296418031459502 0.0034356248696434774 0.020578902017465286 -0.002902499201514976 -0.0130403151053719
 0.9876069453258398 -0.10296418031459502 0.009701261098470889 0.04378095664047976 -0.0029034318752679924 -0.013040212893407656 0.0033860977035877747 0.020586979880947737
 0.0034356248696434774 0.020578902017465286 -0.0029034318752679924 -0.013040212893407656 0.009693483601668438 0.04378335070772003 0.9876070895791151 -0.10296212305340217
 -0.002902499201514976 -0.0130403151053719 0.0033860977035877747 0.020586979880947737 0.9876070895791151 -0.10296212305340217 0.009701476243807966 0.04378284593255463
0.15631513130469998 0.010157174941506567 0.045502108647516706 0.9869545449320817 -0.10712257411185837 0.003674717637234923 0.02139835286322422 -0.0030992728742071135 -0.013549726726274221
 0.9869545449320817 -0.10712257411185837 0.010165600747192808 0.04550151564501813 -0.0031002837303985304 -0.013549611409510404 0.003621074743764023 0.02140726407529876
