! Created with skrf 1.8.0 (http://scikit-rf.org).
# GHz S RI R 50.0 
!freq ReS11 ImS11 ReS12 ImS12 ReS13 ImS13
! ReS14 ImS14
! ReS21 ImS21 ReS22 ImS22 ReS23 ImS23
! ReS24 ImS24
! ReS31 ImS31 ReS32 ImS32 ReS33 ImS33
! ReS34 ImS34
! ReS41 ImS41 ReS42 ImS42 ReS43 ImS43
! ReS44 ImS44
!
0.0 0.001892116810948 0.0 0.9981078831464 0.0 7.34071135437e-05 0.0 -7.340711345515e-05 8.989778652749606e-21
 0.9981078831464 0.0 0.001892116811002 0.0 -7.340711345577e-05 8.989778652825534e-21 7.340711354489e-05 0.0
 7.34071135437e-05 0.0 -7.340711345577e-05 8.989778652825534e-21 0.001892116832275 0.0 0.9981078831677 0.0
 -7.340711345515e-05 8.989778652749606e-21 7.340711354489e-05 0.0 0.9981078831677 0.0 0.001892116832294 0.0
0.005 0.002036959120480597 0.0015496270481021852 0.9979244564231219 -0.0039620620933459045 0.00010303439564514297 0.0007913918475091691 -0.00010014261290994883 -0.0004995514235616197
 0.9979244564231219 -0.0039620620933459045 0.002036945745920075 0.0015496349498496456 -0.00010013854367563001 -0.0004995484476579839 0.000103115076190951 0.0007913609000860588
 0.00010303439564514297 0.0007913918475091691 -0.00010013854367563001 -0.0004995484476579839 0.0020369608550426473 0.0015496934061138667 0.9979244568079931 -0.0039619950272666935
 -0.00010014261290994883 -0.0004995514235616197 0.000103115076190951 0.0007913609000860588 0.9979244568079931 -0.0039619950272666935 0.0020369447782998323 0.001549702723238269
0.006252605252188 0.002075315878910715 0.0019430648946208713 0.9978755253734727 -0.004953485971322772 0.00011167204807430608 0.0009896093460934098 -0.00010785245664441801 -0.0006250590950942632
 0.9978755253734727 -0.004953485971322772 0.0020752949720371995 0.0019430750038455843 -0.00010784612350876367 -0.0006250554309917298 0.00011179809973357772 0.0009895691506784801
 0.00011167204807430608 0.0009896093460934098 -0.00010784612350876367 -0.0006250554309917298 0.0020753185182795296 0.0019431478270903624 0.9978755259035962 -0.004953402163319716
 -0.00010785245664441801 -0.0006250590950942632 0.00011179809973357772 0.0009895691506784801 0.9978755259035962 -0.004953402163319716 0.0020752933885399365 0.0019431596851880713
0.01250521050438 0.0022793809262117923 0.003926171797356034 0.9976132623590693 -0.009907310353029474 0.00016212325293060833 0.0019794708482056955 -0.00015246248962559895 -0.0012528894069306741
 0.9976132623590693 -0.009907310353029474 0.002279297437788192 0.0039261943739147594 -0.0001524375187796657 -0.001252882702855227 0.00016262581242866618 0.0019793738981945174
 0.00016212325293060833 0.0019794708482056955 -0.0001524375187796657 -0.001252882702855227 0.00227939089674984 0.0039263375166792526 0.9976132639205978 -0.00990714296352016
 -0.00015246248962559895 -0.0012528894069306741 0.00016262581242866618 0.0019793738981945174 0.9976132639205978 -0.00990714296352016 0.0022792905706125683 0.003926363408085296
0.01875781575657 0.002504831970829381 0.005936780204275436 0.9973207154437969 -0.014873434193149264 0.00022489016381832977 0.0029701699439138372 -0.00020738849194619697 -0.001882553724159721
 0.9973207154437969 -0.014873434193149264 0.002504644350985286 0.0059368177942000595 -0.0002073327907499925 -0.0018825447552896298 0.0002260188569873624 0.002969995861249788
 0.00022489016381832977 0.0029701699439138372 -0.0002073327907499925 -0.0018825447552896298 0.0025048539192848857 0.005937028640877044 0.9973207185238963 -0.014873183331065179
 -0.00020738849194619697 -0.001882553724159721 0.0002260188569873624 0.002969995861249788 0.9973207185238963 -0.014873183331065179 0.002504628513197067 0.005937070989770869
0.02501042100875 0.00275216888532046 0.007971983684710138 0.9969974891358758 -0.01985416527068569 0.0003001026737972314 0.003961683250858198 -0.00027277525323130203 -0.002513713342210646
 0.9969974891358758 -0.01985416527068569 0.002751835658003191 0.007972039012153636 -0.0002726768710340564 -0.002513703046289194 0.0003021070468587607 0.003961407952429866
 0.0003001026737972314 0.003961683250858198 -0.0002726768710340564 -0.002513703046289194 0.002752207443023103 0.007972314772749152 0.996997494230018 -0.019853831002214967
 -0.00027277525323130203 -0.002513713342210646 0.0003021070468587607 0.003961407952429866 0.996997494230018 -0.019853831002214967 0.002751807190387482 0.007972376237040018
0.03126302626094 0.0030218705470593556 0.010030236615971473 0.9966431708221922 -0.02485043136446387 0.00038788982510159906 0.004953896710895858 -0.00034876227981871927 -0.0031461100796269666
 0.9966431708221922 -0.02485043136446387 0.0030213502870296187 0.01003031258189326 -0.0003486093850811474 -0.003146099558349671 0.00039101956711215774 0.004953492388050187
 0.00038788982510159906 0.004953896710895858 -0.0003486093850811474 -0.003146099558349671 0.003021930320832817 0.010030650275831112 0.9966431784229711 -0.02485001373049038
 -0.00034876227981871927 -0.0031461100796269666 0.00039101956711215774 0.004953492388050187 0.9966431784229711 -0.02485001373049038 0.0030213055439111554 0.010030733745496427
0.037515631513130004 0.0033144043094824618 0.012110493424996609 0.9962573407359475 -0.029862640966358964 0.0004883786019240315 0.005946659444989914 -0.0004354847243766132 -0.0037795124970498193
 0.9962573407359475 -0.029862640966358964 0.003313655626541762 0.012110593106923029 -0.00043526559352607996 -0.00377950301648332 0.0004928836364080287 0.0059460945288467935
 0.0004883786019240315 0.005946659444989914 -0.00043526559352607996 -0.00377950301648332 0.0033144898857449204 0.012110989545321324 0.9962573513356158 -0.029862140000090524
 -0.0004354847243766132 -0.0037795124970498193 0.0004928836364080287 0.0059460945288467935 0.9962573513356158 -0.029862140000090524 0.00331359097605225 0.012111098142495629
0.043768236765320004 0.0036302296255229564 0.014211946652305275 0.9958395760758932 -0.034890945160187904 0.000601693323652646 0.006939800147743448 -0.0005330736794584197 -0.004413699571695643
 0.9958395760758932 -0.034890945160187904 0.0036292111516654933 0.014212073304653901 -0.0005327766905956958 -0.004413692562433588 0.0006078238443013674 0.006939039270190201
 0.000601693323652646 0.006939800147743448 -0.0005327766905956958 -0.004413692562433588 0.0036303455720633013 0.014212525093911202 0.9958395901674669 -0.034890360882851724
 -0.0005330736794584197 -0.004413699571695643 0.0006078238443013674 0.006939039270190201 0.9958395901674669 -0.034890360882851724 0.003629122975802486 0.014212662173619347
0.050020842017509996 0.003969799696084033 0.016333918702356107 0.9953894531548546 -0.03993534581562144 0.0007279552508270689 0.00793313388438153 -0.0006416562442009899 -0.005048453974412039
 0.9953894531548546 -0.03993534581562144 0.003968470074117139 0.016334075757124665 -0.0006412698735286003 -0.005048451031622674 0.0007359617270590366 0.007932137837363228
 0.0007279552508270689 0.00793313388438153 -0.0006412698735286003 -0.005048451031622674 0.003969950563533762 0.016334579290770958 0.9953894712331492 -0.03993467824332197
 -0.0006416562442009899 -0.005048453974412039 0.0007359617270590366 0.007932137837363228 0.9953894712331492 -0.03993467824332197 0.003968354767757953 0.01633474844236436
0.055454545454549996 0.004284527900267933 0.018194172525014915 0.9949716750773894 -0.04433208372728165 0.000848287062370859 0.008796376376576223 -0.0007450416249073551 -0.005600367088651808
 0.9949716750773894 -0.04433208372728165 0.00428289429421497 0.018194358926448242 -0.0007445682945442183 -0.005600369103040593 0.0008581274175965412 0.00879514110507652
 0.000848287062370859 0.008796376376576223 -0.0007445682945442183 -0.005600369103040593 0.004284712796248483 0.018194904331763094 0.994971697021836 -0.044331343778560434
 -0.0007450416249073551 -0.005600367088651808 0.0008581274175965412 0.00879514110507652 0.994971697021836 -0.044331343778560434 0.004282752491072001 0.018195104453096623
0.056273447269699996 0.004333562275036901 0.01847580873538921 0.9949065487102438 -0.04499574864731507 0.0008672822846740818 0.008926465442964021 -0.0007613554898119507 -0.005683558799842292
 0.9949065487102438 -0.04499574864731507 0.004331880147606741 0.01847599980336224 -0.0007608683094529296 -0.005683561683265637 0.0008774154491227157 0.008925191137205078
 0.0008672822846740818 0.008926465442964021 -0.0007608683094529296 -0.005683561683265637 0.004333752595619368 0.018476551261115328 0.9949065712701571 -0.044994997790358995
 -0.0007613554898119507 -0.005683558799842292 0.0008774154491227157 0.008925191137205078 0.9949065712701571 -0.044994997790358995 0.004331734116511757 0.018476756310038516
0.06252605252188 0.00472196005947247 0.020637063475069734 0.9943904408061737 -0.05007199236831134 0.0010197887138248226 0.009919591200041378 -0.0008922903731496598 -0.006318795793162736
 0.9943904408061737 -0.05007199236831134 0.004719884058755829 0.0206372923473183 -0.0008916910500559636 -0.00631880642705755 0.0010322995375132502 0.009917991623701472
 0.0010197887138248226 0.009919591200041378 -0.0008916910500559636 -0.00631880642705755 0.004722194347842622 0.020637887692778977 0.9943904683436352 -0.050071158231352275
 -0.0008922903731496598 -0.006318795793162736 0.0010322995375132502 0.009917991623701472 0.9943904683436352 -0.050071158231352275 0.0047197037191807735 0.020638132702916624
0.06877865777407 0.005135430851482871 0.02281715982088648 0.9938407095132128 -0.055163866050070814 0.0011855849873018927 0.010912300253877759 -0.001034575620685363 -0.006953944320167247
 0.9938407095132128 -0.055163866050070814 0.005132919589193132 0.02281743047064676 -0.0010338529162433488 -0.006953964793238501 0.0012007246461851104 0.01091032443145316
 0.0011855849873018927 0.010912300253877759 -0.0010338529162433488 -0.006953964793238501 0.005135713606107715 0.022818065447910842 0.9938407425265748 -0.05516294863311869
 -0.001034575620685363 -0.006953944320167247 0.0012007246461851104 0.01091032443145316 0.9938407425265748 -0.05516294863311869 0.005132701367997692 0.022818354724355786
0.07503126302626001 0.00557440758571466 0.0250155938361584 0.9932569374599252 -0.06027112011984285 0.0013647775028631434 0.011904375169017371 -0.0011883215949246857 -0.0075887807375861266
 0.9932569374599252 -0.06027112011984285 0.005571419643310958 0.025015910421267683 -0.0011874643649939613 -0.007588813302863702 0.001382797337802832 0.011901968120728652
 0.0013647775028631434 0.011904375169017371 -0.0011874643649939613 -0.007588813302863702 0.005574743288074426 0.025016580551440157 0.993256976448753 -0.06027011941873219
 -0.0011883215949246857 -0.0075887807375861266 0.001382797337802832 0.011901968120728652 0.993256976448753 -0.06027011941873219 0.005571159976556845 0.025016918643634475
0.08128386827845 0.006039318270451543 0.02723187343612128 0.9926387103021976 -0.06539347367154404 0.0015574684058304999 0.012895592492406875 -0.0013536341487894725 -0.008223078003885427
 0.9926387103021976 -0.06539347367154404 0.006035812188895111 0.02723224030172752 -0.001352631344167434 -0.008223125078588843 0.0015786198773084243 0.012892695194180454
 0.0015574684058304999 0.012895592492406875 -0.001352631344167434 -0.008223125078588843 0.0060397113858945035 0.027232940884496383 0.9926387557686002 -0.06539238967303874
 -0.0013536341487894725 -0.008223078003885427 0.0015786198773084243 0.012892695194180454 0.9926387557686002 -0.06539238967303874 0.0060355075218080775 0.027233332589967102
0.08753647353064001 0.006530585871422201 0.029465513357760657 0.9919856171420546 -0.07053061950924043 0.001763755394299422 0.01388572313805007 -0.0015306144727338985 -0.008856605433914293
 0.9919856171420546 -0.07053061950924043 0.00652652014177357 0.029465935039563698 -0.0015294551399319474 -0.008856669599257126 0.001788290032836595 0.01388227248229489
 0.001763755394299422 0.01388572313805007 -0.0015294551399319474 -0.008856669599257126 0.0065310408490779955 0.029466661138887913 0.9919856695902419 -0.07052945220156606
 -0.0015306144727338985 -0.008856605433914293 0.001788290032836595 0.01388227248229489 0.9919856695902419 -0.07052945220156606 0.006526166927498347 0.029467111507368835
0.09378907878283 0.0070486281570394235 0.03171603156000407 0.9912972509109799 -0.07568222777528927 0.0019837315295935915 0.014874532683836603 -0.0017193589363738572 -0.009489128554151911
 0.9912972509109799 -0.07568222777528927 0.007043961210192463 0.03171651278789935 -0.0017180322184812112 -0.0094892125551305 0.0020119008825740872 0.014870461440964131
 0.0019837315295935915 0.014874532683836603 -0.0017180322184812112 -0.0094892125551305 0.0070491494299437735 0.031717259237134594 0.9912973108481645 -0.07568097713876308
 -0.0017193589363738572 -0.009489128554151911 0.0020119008825740872 0.014870461440964131 0.9912973108481645 -0.07568097713876308 0.0070435559100152706 0.03171777357514071
0.100041684035 0.007593857514824713 0.033982946623334384 0.9905732087296073 -0.08084794859440601 0.0022174850500761224 0.01586178162035297 -0.0019199589269393849 -0.010120409018871769
 0.9905732087296073 -0.08084794859440601 0.0075885477116847564 0.03398349232556098 -0.0019184540647690373 -0.010120515764007599 0.002249540625411824 0.01585701840131318
 0.0022174850500761224 0.01586178162035297 -0.0019184540647690373 -0.010120515764007599 0.00759444949970114 0.03398425371889624 0.9905732766657686 -0.08084661460528988
 -0.0019199589269393849 -0.010120409018871769 0.002249540625411824 0.01585701840131318 0.9905732766657686 -0.08084661460528988 0.0075880867942162734 0.03398483759487225
0.1059090909091 0.008130586233660341 0.036124688740183646 0.9898609701468976 -0.08570793741870444 0.002449442526215844 0.016786573043386068 -0.002119060105233527 -0.010711452856295694
 0.9898609701468976 -0.08570793741870444 0.008124635237427472 0.03612529960756212 -0.002117378376529764 -0.010711583735086181 0.002485373565735743 0.01678109181324156
 0.002449442526215844 0.016786573043386068 -0.002117378376529764 -0.010711583735086181 0.008131248577089247 0.03612606988907115 0.9898610460556153 -0.08570652518798884
 -0.002119060105233527 -0.010711452856295694 0.002485373565735743 0.01678109181324156 0.9898610460556153 -0.08570652518798884 0.008124118922784607 0.0361267243217636
0.1062942892872 0.008166680746506453 0.03626577580543697 0.9898130922497557 -0.0860274140776988 0.0024650991880408165 0.016847225559088838 -0.0021325006852888485 -0.01075020458010165
 0.9898130922497557 -0.0860274140776988 0.008160686368740896 0.03626639111311599 -0.0021308070188220687 -0.010750337141139956 0.0025012923951628534 0.016841694778846505
 0.0024650991880408165 0.016847225559088838 -0.0021308070188220687 -0.010750337141139956 0.008167347844181848 0.03626716180011066 0.9898131686977132 -0.08602599670848775
 -0.0021325006852888485 -0.01075020458010165 0.0025012923951628534 0.016841694778846505 0.9898131686977132 -0.08602599670848775 0.008160166308822225 0.03626782105005946
0.11254689453939999 0.008767498848651127 0.038564033569215526 0.9890165079841646 -0.09122023987039778 0.002726651989579516 0.01783061542287192 -0.002357065140749875 -0.011378269088826875
 0.9890165079841646 -0.09122023987039778 0.00876077808817392 0.03856472382150559 -0.0023551721103627645 -0.011378430700373905 0.0027672340777588553 0.017824237264973383
 0.002726651989579516 0.01783061542287192 -0.0023551721103627645 -0.011378430700373905 0.00876824544392764 0.038565497899272355 0.9890165934605781 -0.09121873909193579
 -0.002357065140749875 -0.011378269088826875 0.0027672340777588553 0.017824237264973383 0.9890165934605781 -0.09121873909193579 0.0087601953672016 0.038566238632885295
0.11879949979160001 0.009396706780870153 0.040877230455058464 0.9881830676276963 -0.09642602637216054 0.0030022161365325156 0.018811697618876275 -0.002593727745373713 -0.012004352526929106
 0.9881830676276963 -0.09642602637216054 0.009389217729995396 0.040878001204754814 -0.0025916248934337006 -0.012004546586102097 0.003047438130891239 0.018804388001188953
 0.0030022161365325156 0.018811697618876275 -0.0025916248934337006 -0.012004546586102097 0.009397537242239852 0.040878772519336616 0.9881831626527414 -0.09642444214613047
 -0.002593727745373713 -0.012004352526929106 0.003047438130891239 0.018804388001188953 0.9881831626527414 -0.09642444214613047 0.009388568835082772 0.040879601126645376
0.1250521050438 0.010054693224030653 0.04320487222143452 0.9873123883701727 -0.10164435970588008 0.003291858770870638 0.019790214206297445 -0.0028425583081461065 -0.012628201058366508
 0.9873123883701727 -0.10164435970588008 0.010046393865842102 0.04320572924105223 -0.0028402352806547546 -0.012628431124327539 0.0033419714065397446 0.019781884747872666
 0.003291858770870638 0.019790214206297445 -0.0028402352806547546 -0.012628431124327539 0.01005561190385017 0.043206491372415834 0.9873124934679961 -0.10164269199311819
 -0.0028425583081461065 -0.012628201058366508 0.0033419714065397446 0.019781884747872666 0.9873124934679961 -0.10164269199311819 0.01004567528948597 0.04320741453102886
0.131304710296 0.01074184033225979 0.045546459162440614 0.9864040932045549 -0.10687481252688324 0.0035956413216687443 0.020765903055618203 -0.0031036208300158443 -0.013249557102397337
 0.9864040932045549 -0.10687481252688324 0.010732688531115055 0.04554740845082638 -0.0031010673782669333 -0.013249826895875682 0.003650894975790207 0.020756461044848996
 0.0035956413216687443 0.020765903055618203 -0.0031010673782669333 -0.013249826895875682 0.0107428515666627 0.04554815470976851 0.986404208903453 -0.10687306128322825
 -0.0031036208300158443 -0.013249557102397337 0.003650894975790207 0.020756461044848996 0.986404208903453 -0.10687306128322825 0.010731896770298321 0.04554917939263091
0.1375573155481 0.011313511849784718 0.04759819910579141 0.9856029079658454 -0.11181343137550209 0.003878422043447167 0.021709980749286643 -0.0033417275807650945 -0.013839722803669872
 0.9856029079658454 -0.11181343137550209 0.011303463341676047 0.047599224786136214 -0.0033389287366220057 -0.013840033190933687 0.003938949235039817 0.02169942833400317
 0.003878422043447167 0.021709980749286643 -0.0033389287366220057 -0.013840033190933687 0.011314621446866704 0.047599969472069376 0.9856030347451302 -0.11181159662910538
 -0.0033417275807650945 -0.013839722803669872 0.003938949235039817 0.02169942833400317 0.9856030347451302 -0.11181159662910538 0.011302593516830876 0.04760108268683017
0.1438099208003 0.011905647061418962 0.04963676057438313 0.9847728312594294 -0.1167371091930316 0.004172512378667922 0.022648795337836966 -0.0035892331639609666 -0.014424986991789386
 0.9847728312594294 -0.1167371091930316 0.01189465928705168 0.04963786727567292 -0.0035861779804786486 -0.014425341675021063 0.004238541758955071 0.022637046453513634
 0.004172512378667922 0.022648795337836966 -0.0035861779804786486 -0.014425341675021063 0.011906859603898043 0.04963860494482616 0.9847729696424307 -0.11673519091391929
 -0.0035892331639609666 -0.014424986991789386 0.004238541758955071 0.022637046453513634 0.9847729696424307 -0.11673519091391929 0.011893707652888856 0.04963981254828575
0.1500625260525 0.01251799871108456 0.05166190243047764 0.9839141157364668 -0.12164565128883596 0.004477784963786372 0.023582205867353195 -0.0038460123693828847 -0.015005215938877332
 0.9839141157364668 -0.12164565128883596 0.01250602900046181 0.05166309504775204 -0.0038426899440072546 -0.015005618768062346 0.004549543498744953 0.023569171276553957
 0.004477784963786372 0.023582205867353195 -0.0038426899440072546 -0.015005618768062346 0.012519318784362509 0.05166381995372388 0.9839142662491479 -0.12164364944548905
 -0.0038460123693828847 -0.015005215938877332 0.004549543498744953 0.023569171276553957 0.9839142662491479 -0.12164364944548905 0.012504991799984636 0.05166512812962322
0.15631513130469998 0.013150317323521262 0.05367339075798444 0.983027015843442 -0.12653886537119166 0.004794110676138479 0.024510074422750293 -0.004111938209620547 -0.015580279268853955
 0.983027015843442 -0.12653886537119166 0.01313732289273545 0.05367467445865994 -0.004108337685238683 -0.015580734240741452 0.004871823616174708 0.024495661752278526
