! Created with skrf 1.8.0 (http://scikit-rf.org).
# GHz S RI R 50.0 
!freq ReS11 ImS11 ReS12 ImS12 ReS13 ImS13
! ReS14 ImS14
! ReS21 ImS21 ReS22 ImS22 ReS23 ImS23
! ReS24 ImS24
! ReS31 ImS31 ReS32 ImS32 ReS33 ImS33
! ReS34 ImS34
! ReS41 ImS41 ReS42 ImS42 ReS43 ImS43
! ReS44 ImS44
!
0.0 0.001798365958739 0.0 0.9982016340361 0.0 6.980333067598e-05 0.0 -6.980333017111e-05 8.548442486387573e-21
 0.9982016340361 0.0 0.001798365958801 0.0 -6.980333017164e-05 8.54844248645248e-21 6.98033306771e-05 0.0
 6.980333067598e-05 0.0 -6.980333017164e-05 8.54844248645248e-21 0.001798365959554 0.0 0.9982016340369 0.0
 -6.980333017111e-05 8.548442486387573e-21 6.98033306771e-05 0.0 0.9982016340369 0.0 0.001798365959587 0.0
0.005 0.0019357506201274364 0.0014702423167973528 0.998027684161075 -0.0037661640760624105 9.831750727119452e-05 0.0007704519366230528 -9.541766324608504e-05 -0.00048320275246245987
 0.998027684161075 -0.0037661640760624105 0.0019357537908829725 0.001470240438365128 -9.541754423160676e-05 -0.0004832025865906107 9.82950372523534e-05 0.0007704604180544585
 9.831750727119452e-05 0.0007704519366230528 -9.541754423160676e-05 -0.0004832025865906107 0.0019357506854831117 0.0014701749436069494 0.9980276837818899 -0.0037662311423870363
 -9.541766324608504e-05 -0.00048320275246245987 9.82950372523534e-05 0.0007704604180544585 0.9980276837818899 -0.0037662311423870363 0.0019357529809173972 0.0014701736929233372
0.006252605252188 0.0019720381861137834 0.0018435515321104435 0.9979814104014636 -0.004708585041246622 0.00010659878823760637 0.0009634211953186304 -0.00010276611964642185 -0.0006046128649345684
 0.9979814104014636 -0.004708585041246622 0.0019720431431023877 0.0018435491672424015 -0.0001027659350435239 -0.0006046126588337605 0.00010656368032715773 0.0009634322293169644
 0.00010659878823760637 0.0009634211953186304 -0.0001027659350435239 -0.0006046126588337605 0.0019720383570966675 0.0018434673229703496 0.997981409876664 -0.004708668866038083
 -0.00010276611964642185 -0.0006046128649345684 0.00010656368032715773 0.0009634322293169644 0.997981409876664 -0.004708668866038083 0.001972041944757459 0.0018434657576439056
0.01250521050438 0.0021645518776007757 0.003725342828864278 0.9977341218645368 -0.009417669449801332 0.00015480251799926105 0.0019270780353726985 -0.00014508546673265473 -0.0012119865811196355
 0.9977341218645368 -0.009417669449801332 0.0021645716791994806 0.0037253379307671604 -0.00014508474640256334 -0.0012119861816753644 0.00015466249334766894 0.0019271048058503953
 0.00015480251799926105 0.0019270780353726985 -0.00014508474640256334 -0.0012119861816753644 0.0021645531422483165 0.0037251746586144294 0.9977341203362269 -0.009417836881590796
 -0.00014508546673265473 -0.0012119865811196355 0.00015466249334766894 0.0019271048058503953 0.9977341203362269 -0.009417836881590796 0.002164567458920394 0.0037251715208883244
0.01875781575657 0.0023763801034453864 0.005633473655117369 0.9974594237725566 -0.014138650725592557 0.00021453422983151943 0.002891574345631323 -0.0001969022292225346 -0.001821204613463226
 0.9974594237725566 -0.014138650725592557 0.0023764246160839064 0.005633466038901539 -0.00019690063287623323 -0.0018212040333810606 0.00021421962488882024 0.002891622572372952
 0.00021453422983151943 0.002891574345631323 -0.00019690063287623323 -0.0018212040333810606 0.0023763833973302413 0.0056332216808273146 0.9974594207572883 -0.01413890172917315
 -0.0001969022292225346 -0.001821204613463226 0.00021421962488882024 0.002891622572372952 0.9974594207572883 -0.01413890172917315 0.0023764155505893443 0.0056332169856833855
0.02501042100875 0.002607978650419284 0.007565205140573212 0.9971569565386658 -0.018873748364392536 0.00028591477963432185 0.0038569060666297007 -0.00025835150178840524 -0.002431949257988074
 0.9971569565386658 -0.018873748364392536 0.002608057732975429 0.007565194609212527 -0.00025834869633590554 -0.0024319485104207094 0.00028535587137762473 0.0038569824628602338
 0.00028591477963432185 0.0038569060666297007 -0.00025834869633590554 -0.0024319485104207094 0.0026079849224692345 0.00756486954590192 0.9971569515450811 -0.018874082970027906
 -0.00025835150178840524 -0.002431949257988074 0.00028535587137762473 0.0038569824628602338 0.9971569515450811 -0.018874082970027906 0.002608041998688473 0.007564863334308066
0.03126302626094 0.002859784280579183 0.009519093184793796 0.9968263443328514 -0.0236238704466106 0.000369064725854162 0.004822979053015928 -0.00032956369970169703 -0.0030439838901443117
 0.9968263443328514 -0.0236238704466106 0.00285990779159427 0.009519079530109945 -0.00032955935811324077 -0.003043982988699941 0.00036819166709904264 0.004823091333789681
 0.000369064725854162 0.004822979053015928 -0.00032955935811324077 -0.003043982988699941 0.0028597945034103452 0.009518674175562063 0.9968263368683363 -0.023624288754561143
 -0.00032956369970169703 -0.0030439838901443117 0.00036819166709904264 0.004823091333789681 0.9968263368683363 -0.023624288754561143 0.0028598835735514734 0.009518666515950566
0.037515631513130004 0.003132223549856833 0.011494169944830924 0.9964672043089768 -0.028389432096540514 0.0004641031114537625 0.005789662886397876 -0.00041066547444756576 -0.00365709919472501
 0.9964672043089768 -0.028389432096540514 0.003132401352479383 0.011494152947866182 -0.00041065927489029104 -0.003657098153396892 0.0004628459009923072 0.005789819780539205
 0.0004641031114537625 0.005789662886397876 -0.00041065927489029104 -0.003657098153396892 0.0031322387119681245 0.011493667796002475 0.9964671938692946 -0.028389934230017084
 -0.00041066547444756576 -0.00365709919472501 0.0004628459009923072 0.005789819780539205 0.9964671938692946 -0.028389934230017084 0.003132366837860004 0.011493658785162569
0.043768236765320004 0.00342571618114248 0.013489694808486597 0.9960791503887642 -0.03317060444436947 0.0005711468679734366 0.006756807253797169 -0.0005017800153891368 -0.0042710968313773206
 0.9960791503887642 -0.03317060444436947 0.0034259581478920556 0.01348967423969435 -0.000501771640857384 -0.004271095664480503 0.0005694353355016589 0.006757018516952996
 0.0005711468679734366 0.006756807253797169 -0.000501771640857384 -0.004271095664480503 0.0034257372949029526 0.01348910983264121 0.9960791364626524 -0.03317119058101334
 -0.0005017800153891368 -0.0042710968313773206 0.0005694353355016589 0.006757018516952996 0.9960791364626524 -0.03317119058101334 0.0034259115333327467 0.013489099596659039
0.050020842017509996 0.0037406766157399665 0.01550505144030646 0.995661795227502 -0.03796741751559816 0.0006903104399947591 0.0077242487270936504 -0.000603027132493289 -0.004885782704431591
 0.995661795227502 -0.03796741751559816 0.0037409926318968775 0.015505027059555348 -0.000603016270333131 -0.004885781426525711 0.0006880742388187434 0.007724525155351341
 0.0006903104399947591 0.0077242487270936504 -0.000603016270333131 -0.004885781426525711 0.0037407047143846036 0.015504384012556936 0.9956617772909816 -0.03796808786245457
 -0.000603027132493289 -0.004885782704431591 0.0006880742388187434 0.007724525155351341 0.9956617772909816 -0.03796808786245457 0.0037409321218464034 0.015504372707391417
0.055454545454549996 0.004032139730686708 0.017272140584315945 0.9952750038443368 -0.042148650209741026 0.0008037967763650535 0.008565091656755116 -0.0006993333364923871 -0.005420372300408699
 0.9952750038443368 -0.042148650209741026 0.004032528139576539 0.017272112687615544 -0.0006993200618310714 -0.005420370937999573 0.0008010473532001299 0.008565434301740041
 0.0008037967763650535 0.008565091656755116 -0.0006993200618310714 -0.005420370937999573 0.004032174758401563 0.017271401839181067 0.9952749819883895 -0.04214939394607269
 -0.0006993333364923871 -0.005420372300408699 0.0008010473532001299 0.008565434301740041 0.9952749819883895 -0.04214939394607269 0.004032454105174905 0.017271389755193732
0.056273447269699996 0.004077514773643173 0.017539697297287042 0.9952147513954499 -0.04277981065567772 0.0008217055066061137 0.008691814101998558 -0.0007145232410058566 -0.0055009636804271254
 0.9952147513954499 -0.04277981065567772 0.0040779147419510225 0.01753966885385281 -0.0007145095827130837 -0.005500962306252681 0.0008188741112096358 0.008692167545822643
 0.0008217055066061137 0.008691814101998558 -0.0007145095827130837 -0.005500962306252681 0.004077550916094758 0.017538947834282646 0.9952147289132793 -0.042780565470017476
 -0.0007145232410058566 -0.0055009636804271254 0.0008188741112096358 0.008692167545822643 0.9952147289132793 -0.042780565470017476 0.004077838553206228 0.017538935646374293
0.06252605252188 0.004436636442094883 0.019593135840924026 0.9947376321926177 -0.04760766026599243 0.0009654407496358119 0.009659322251735396 -0.0008363812982357283 -0.0061164457993109905
 0.9947376321926177 -0.04760766026599243 0.004437130286173765 0.01959310307314252 -0.0008363645391500952 -0.006116444343718484 0.0009619434564416461 0.009659765629990491
 0.0009654407496358119 0.009659322251735396 -0.0008363645391500952 -0.006116444343718484 0.004436681712596435 0.01959230481781012 0.9947376046148627 -0.047608499838035216
 -0.0008363812982357283 -0.0061164457993109905 0.0009619434564416461 0.009659765629990491 0.9947376046148627 -0.047608499838035216 0.004437036648457157 0.019592291964426682
0.06877865777407 0.0048184434441622065 0.021664900004599533 0.9942300522487418 -0.052450796293183465 0.0011216216501551734 0.010626585243678405 -0.000968710710643294 -0.006732033231540648
 0.9942300522487418 -0.052450796293183465 0.004819041112232455 0.021664862639584365 -0.0009686905496774283 -0.006732031709434464 0.0011173875804165732 0.010627132557837099
 0.0011216216501551734 0.010626585243678405 -0.0009686905496774283 -0.006732031709434464 0.0048184989535828525 0.021663987950798696 0.9942300190094456 -0.05245172095001714
 -0.000968710710643294 -0.006732033231540648 0.0011173875804165732 0.010627132557837099 0.9942300190094456 -0.05245172095001714 0.004818928270574325 0.0216639746802683
0.07503126302626001 0.005223333686134536 0.023754541723616285 0.9936916280083027 -0.05730901266608362 0.001290350300551658 0.011593409065718851 -0.001111617223919744 -0.007347527635007114
 0.9936916280083027 -0.05730901266608362 0.005224045155337064 0.023754499476764192 -0.0011115933634551136 -0.007347526061271103 0.001285308404893613 0.011594075414074695
 0.001290350300551658 0.011593409065718851 -0.0011115933634551136 -0.007347526061271103 0.00522340057514553 0.023753549215617665 0.9936915885247961 -0.057310022778323845
 -0.001111617223919744 -0.007347527635007114 0.001285308404893613 0.011594075414074695 0.9936915885247961 -0.057310022778323845 0.005223911372954839 0.023753535807591045
0.08128386827845 0.005651701126686122 0.025861624954613437 0.9931219781411909 -0.062182074253759476 0.001471725226874386 0.012559594131229522 -0.0012652028017510878 -0.007962727743103849
 0.9931219781411909 -0.062182074253759476 0.005652536406299418 0.02586157752904852 -0.0012651749473442454 -0.007962726132556453 0.0014658042913354998 0.0125603957231287
 0.001471725226874386 0.012559594131229522 -0.0012651749473442454 -0.007962726132556453 0.005651780565990218 0.025860552626928608 0.9931219318117569 -0.06218317022422354
 -0.0012652028017510878 -0.007962727743103849 0.0014658042913354998 0.0125603957231287 0.9931219318117569 -0.06218317022422354 0.005652379966381405 0.02586053939230444
0.08753647353064001 0.0061039356919105085 0.027985720886239088 0.9925207239056921 -0.06706972164393506 0.0016658412175228397 0.013524935641030663 -0.0014295654973440605 -0.008577429105969132
 0.9925207239056921 -0.06706972164393506 0.006104904827762774 0.027985667972049596 -0.0014295333576290453 -0.00857742747330429 0.0016589698705645906 0.013525889811135627
 0.0016658412175228397 0.013524935641030663 -0.0014295333576290453 -0.00857742747330429 0.006104028884329892 0.0279845694234419 0.9925206701080489 -0.06707090391483266
 -0.0014295654973440605 -0.008577429105969132 0.0016589698705645906 0.013525889811135627 0.9925206701080489 -0.06707090391483266 0.006104724035518495 0.027984556704313202
0.09378907878283 0.006580423154125216 0.030126404514149302 0.9918874894777613 -0.07197167456862068 0.0018727891572609423 0.014489223864976551 -0.0016047993192620344 -0.009191423922446273
 0.9918874894777613 -0.07197167456862068 0.006581536232037286 0.03012634578759874 -0.0016047626056824957 -0.009191422282189589 0.0018648958776072277 0.014490349087467647
 0.0018727891572609423 0.014489223864976551 -0.0016047626056824957 -0.009191422282189589 0.006580531335830064 0.03012517465125455 0.9918874275672527 -0.07197294362052925
 -0.0016047993192620344 -0.009191423922446273 0.0018648958776072277 0.014490349087467647 0.9918874275672527 -0.07197294362052925 0.006581329417496114 0.030125162820610174
0.100041684035 0.007081544985056897 0.03228325213873959 0.9912219022606567 -0.07688763441944077 0.0020926558642648556 0.01545224436785798 -0.0017909940937396631 -0.009804500938413627
 0.9912219022606567 -0.07688763441944077 0.007082812135023145 0.03228318726127285 -0.001790952520451786 -0.009804499304874972 0.002083668989710055 0.015453560270572103
 0.0020926558642648556 0.01545224436785798 -0.001790952520451786 -0.009804499304874972 0.007081669427936302 0.032281944665086354 0.9912218315692461 -0.07688899076656039
 -0.0017909940937396631 -0.009804500938413627 0.002083668989710055 0.015453560270572103 0.9912218315692461 -0.07688899076656039 0.007082577655516995 0.03228193412641818
0.1059090909091 0.007574535254617903 0.0343215479421185 0.9905675659291271 -0.08151320003441122 0.002310800553875242 0.016354589007585768 -0.0019757632312981197 -0.010378782703675373
 0.9905675659291271 -0.08151320003441122 0.007575956240927289 0.03432147697056802 -0.0019757168399395894 -0.010378781089228665 0.0023007221630904234 0.016356102734879172
 0.002310800553875242 0.016354589007585768 -0.0019757168399395894 -0.010378781089228665 0.007574676145995578 0.0343201684000343 0.9905674863667852 -0.08151463880087104
 -0.0019757632312981197 -0.010378782703675373 0.0023007221630904234 0.016356102734879172 0.9905674863667852 -0.08151463880087104 0.007575694332525614 0.03432015946743154
0.1062942892872 0.0076076781898317064 0.034455839506868216 0.9905235931777033 -0.08181728613152282 0.0023255239300328935 0.01641377819674098 -0.001988235324607923 -0.010416445394325718
 0.9905235931777033 -0.08181728613152282 0.007609109590148491 0.03445576812397872 -0.0019881886082817385 -0.010416443781551432 0.0023153716666996335 0.01641530557533402
 0.0023255239300328935 0.01641377819674098 -0.0019881886082817385 -0.010416443781551432 0.007607820202201049 0.034454455260605206 0.9905235130113006 -0.0818187303262562
 -0.001988235324607923 -0.010416445394325718 0.0023153716666996335 0.01641530557533402 0.9905235130113006 -0.0818187303262562 0.007608845832013529 0.034454446447382325
0.11254689453939999 0.008159195125790771 0.036643740398505376 0.989792196954098 -0.08676029963546675 0.002571471561342534 0.017373602050960456 -0.0021966040515304865 -0.011027039001238947
 0.989792196954098 -0.08676029963546675 0.008160801006629359 0.03664366213853633 -0.002196551911157664 -0.011027037422992766 0.0025600819937600973 0.017375362882919597
 0.002571471561342534 0.017373602050960456 -0.002196551911157664 -0.011027037422992766 0.00815935605462436 0.036642280266617915 0.9897921065915597 -0.08676183226732267
 -0.0021966040515304865 -0.011027039001238947 0.0025600819937600973 0.017375362882919597 0.9897921065915597 -0.08676183226732267 0.008160506388429134 0.03664227364158426
0.11879949979160001 0.008736463310318143 0.03884652553330855 0.9890273523905452 -0.09171633100259051 0.002830572424353778 0.01833148843062815 -0.0024161767069540044 -0.011636059949323532
 0.9890273523905452 -0.09171633100259051 0.008738253958301342 0.038846440006009356 -0.0024161188637389663 -0.011636058419047541 0.002817873526172141 0.01833350588923207
 0.002830572424353778 0.01833148843062815 -0.0024161188637389663 -0.011636058419047541 0.008736644542792136 0.038844990454286174 0.9890272510818346 -0.091717952694393
 -0.0024161767069540044 -0.011636059949323532 0.002817873526172141 0.01833350588923207 0.9890272510818346 -0.091717952694393 0.008737926932860452 0.038844986508583465
0.1250521050438 0.009339845220385704 0.0410637617322324 0.9882287026309104 -0.09668502334881138 0.003102895490681199 0.019287205777626326 -0.0026470249728455454 -0.012243282935226875
 0.9882287026309104 -0.09668502334881138 0.009341830982299317 0.04106366852724741 -0.0026469611500406433 -0.012243281465990897 0.003088815135483324 0.019289504245813202
 0.003102895490681199 0.019287205777626326 -0.0026469611500406433 -0.012243281465990897 0.009340048185503151 0.04106215269259315 0.9882285895953588 -0.09668673475886252
 -0.0026470249728455454 -0.012243282935226875 0.003088815135483324 0.019289504245813202 0.9882285895953588 -0.09668673475886252 0.009341470039417972 0.04106215194477504
0.131304710296 0.009969698084367968 0.04329501125077197 0.9873958954244464 -0.10166600758061929 0.003388504884799994 0.020240518611834724 -0.002889215637356294 -0.012848479205491165
 0.9873958954244464 -0.10166600758061929 0.009971889371391799 0.043294909935948915 -0.002889145560002548 -0.012848477810020773 0.0033729708579442997 0.02024312369594926
 0.003388504884799994 0.020240518611834724 -0.002889145560002548 -0.012848477810020773 0.009969924254399198 0.04329332928429877 0.9873957698489205 -0.10166780940214826
 -0.002889215637356294 -0.012848479205491165 0.0033729708579442997 0.02024312369594926 0.9873957698489205 -0.10166780940214826 0.009971493040345716 0.04329333227907475
0.1375573155481 0.010490768663405061 0.045249792077326004 0.9866642597176736 -0.10636867849835328 0.003653988181463019 0.021163365153559592 -0.003109363935501706 -0.013423604493725474
 0.9866642597176736 -0.10636867849835328 0.010493175870528561 0.04524968331785687 -0.0031092869858011583 -0.013423603167873811 0.003636966661596746 0.021166275537238922
 0.003653988181463019 0.021163365153559592 -0.0031092869858011583 -0.013423603167873811 0.010491018308356621 0.04524803852644529 0.9866641209944976 -0.10637057117026072
 -0.003109363935501706 -0.013423604493725474 0.003636966661596746 0.021166275537238922 0.9866641209944976 -0.10637057117026072 0.010492743528003515 0.04524804592686292
0.1438099208003 0.011030421985427124 0.04719260700101348 0.9859063791127454 -0.11105772806222954 0.003930132551343269 0.022081414558296698 -0.0033382397721064337 -0.013994329707620974
 0.9859063791127454 -0.11105772806222954 0.011033055583851028 0.04719249035178498 -0.003338155616686248 -0.013994328470840306 0.003911558115882906 0.022084653899016635
 0.003930132551343269 0.022081414558296698 -0.003338155616686248 -0.013994328470840306 0.011030696423958593 0.0471907830118973 0.9859062264240964 -0.11105971226878297
 -0.0033382397721064337 -0.013994329707620974 0.003911558115882906 0.022084653899016635 0.9859062264240964 -0.11105971226878297 0.01103258596820255 0.04719079526872617
0.1500625260525 0.011588441424853813 0.04912324403187521 0.9851224753557499 -0.11573298891503958 0.004216825101069669 0.022994539121709553 -0.003575733301515854 -0.014560535627688644
 0.9851224753557499 -0.11573298891503958 0.011591311940891455 0.04912311901065626 -0.003575641604798142 -0.014560534500746222 0.004196632681112197 0.022998131969906934
 0.004216825101069669 0.022994539121709553 -0.003575641604798142 -0.014560534500746222 0.011588742003931377 0.04912135079787863 0.9851223078561964 -0.11573506536215593
 -0.003575733301515854 -0.014560535627688644 0.004196632681112197 0.022998131969906934 0.9851223078561964 -0.11573506536215593 0.01159080383898732 0.049121368357419315
0.15631513130469998 0.012164608497376753 0.051041497514030545 0.9843127716755399 -0.12039429546062501 0.004513951413790646 0.02390261371683246 -0.0038217331549146704 -0.015122105900224708
 0.9843127716755399 -0.12039429546062501 0.012167726514157873 0.051041363599547966 -0.0038216335790379166 -0.015122104905299852 0.004492076298095351 0.02390658550885379
