! Created with skrf 1.8.0 (http://scikit-rf.org).
# GHz S RI R 50.0 
!freq ReS11 ImS11 ReS12 ImS12 ReS13 ImS13
! ReS14 ImS14
! ReS21 ImS21 ReS22 ImS22 ReS23 ImS23
! ReS24 ImS24
! ReS31 ImS31 ReS32 ImS32 ReS33 ImS33
! ReS34 ImS34
! ReS41 ImS41 ReS42 ImS42 ReS43 ImS43
! ReS44 ImS44
!
0.0 0.001365971590274 0.0 0.9986340284012 0.0 5.24684912939e-05 0.0 -5.246849147208e-05 6.425537013737297e-21
 0.9986340284012 0.0 0.001365971590289 0.0 -5.246849147231e-05 6.425537013765464e-21 5.246849129521e-05 0.0
 5.24684912939e-05 0.0 -5.246849147231e-05 6.425537013765464e-21 0.001365971594548 0.0 0.9986340284054 0.0
 -5.246849147208e-05 6.425537013737297e-21 5.246849129521e-05 0.0 0.9986340284054 0.0 0.001365971594553 0.0
0.005 0.0014692268614176882 0.0011163340276323867 0.9985034659604313 -0.0028620200673819115 7.345919347832352e-05 0.0005869283913150621 -7.13368391784373e-05 -0.00036694909867977256
 0.9985034659604313 -0.0028620200673819115 0.0014692351047199007 0.0011163291687927054 -7.133577209689073e-05 -0.0003669482376863566 7.34239473932368e-05 0.0005869419778683888
 7.345919347832352e-05 0.0005869283913150621 -7.133577209689073e-05 -0.0003669482376863566 0.0014692279593093301 0.0011164006204972396 0.9985034663031782 -0.0028619529955699443
 -7.13368391784373e-05 -0.00036694909867977256 7.34239473932368e-05 0.0005869419778683888 0.9985034663031782 -0.0028619529955699443 0.0014692346923326192 0.0011163967211957077
0.006252605252188 0.0014961716387593893 0.0013998348569195863 0.9984692010125423 -0.0035782468776138004 7.937921041272174e-05 0.0007339494667530501 -7.66018079686035e-05 -0.0004591707813069915
 0.9984692010125423 -0.0035782468776138004 0.001496184524478318 0.0013998286415499116 -7.66001478070616e-05 -0.00045916971860428577 7.932414329048363e-05 0.0007339670707298069
 7.937921041272174e-05 0.0007339494667530501 -7.66001478070616e-05 -0.00045916971860428577 0.001496173286982096 0.0013999180678928235 0.998469201480006 -0.003578163063855711
 -7.66018079686035e-05 -0.0004591707813069915 7.932414329048363e-05 0.0007339670707298069 0.998469201480006 -0.003578163063855711 0.0014961838111163352 0.0013999130613311398
0.01250521050438 0.0016372233958993209 0.0028292493270799233 0.9982887406715133 -0.007157435745425342 0.0001129228268992208 0.0014682819399390763 -0.00010614030306724118 -0.000920662849686588
 0.9982887406715133 -0.007157435745425342 0.0016372748512211263 0.0028292354525462043 -0.00010613376415389283 -0.0009206608709891997 0.00011270328651040333 0.0014683238157450536
 0.0001129228268992208 0.0014682819399390763 -0.00010613376415389283 -0.0009206608709891997 0.001637229395894373 0.002829415465545706 0.9982887419502232 -0.00715726835751523
 -0.00010614030306724118 -0.000920662849686588 0.00011270328651040333 0.0014683238157450536 0.9982887419502232 -0.00715726835751523 0.0016372714090254223 0.002829404115710203
0.01875781575657 0.0017894071304675526 0.00427927459217293 0.9980924429048618 -0.010746308102077972 0.00015317244850072113 0.0022035169223917723 -0.00014116907487089967 -0.001383817574860099
 0.9980924429048618 -0.010746308102077972 0.001789522759008638 0.004279251494057874 -0.00014115449762353247 -0.0013838148509055345 0.00015267940170327158 0.0022035909634689115
 0.00015317244850072113 0.0022035169223917723 -0.00014115449762353247 -0.0013838148509055345 0.001789420200571174 0.0042795234847318 0.998092445353406 -0.010746057258846477
 -0.00014116907487089967 -0.001383817574860099 0.00015267940170327158 0.0022035909634689115 0.998092445353406 -0.010746057258846477 0.0017895145879590396 0.004279504374404376
0.02501042100875 0.001952996322961615 0.005747907550530556 0.9978800959818847 -0.014346632247210198 0.00020020234652605177 0.0029397059457162743 -0.0001817709060996999 -0.0018484402085668578
 0.9978800959818847 -0.014346632247210198 0.0019532016777093087 0.0057478735491902876 -0.00018174516996394082 -0.0018484369374323596 0.00019932678858239897 0.002939821212395215
 0.00020020234652605177 0.0029397059457162743 -0.00018174516996394082 -0.0018484369374323596 0.001953019179728008 0.005748239058575181 0.9978800999538254 -0.014346298022698828
 -0.0001817709060996999 -0.0018484402085668578 0.00019932678858239897 0.002939821212395215 0.9978800999538254 -0.014346298022698828 0.0019531867709252676 0.005748210693785204
0.03126302626094 0.002128252999758869 0.007234131817813668 0.9976514764050124 -0.017959182250546293 0.0002540874750048347 0.0036768323699332855 -0.00022802651969900547 -0.0023144000590270904
 0.9976514764050124 -0.017959182250546293 0.0021285735939758728 0.007234085118769235 -0.0002279865363795668 -0.0023143964665470968 0.00025272032154629513 0.003676999092986972
 0.0002540874750048347 0.0036768323699332855 -0.0002279865363795668 -0.0023143964665470968 0.0021282883626525446 0.007234545805661751 0.9976514822526704 -0.017958764705737075
 -0.00022802651969900547 -0.0023144000590270904 0.00025272032154629513 0.003676999092986972 0.9976514822526704 -0.017958764705737075 0.0021285499406866674 0.00723450661615807
0.037515631513130004 0.0023154336845002464 0.008737295637297348 0.9974063550014316 -0.021584359987130854 0.000314902736211002 0.004414852922042957 -0.00028001518376136967 -0.002781588942860249
 0.9974063550014316 -0.021584359987130854 0.002315894997989887 0.008737234330930125 -0.0002799578936625925 -0.0027815852827318514 0.00031293477327368213 0.004415082512534617
 0.000314902736211002 0.004414852922042957 -0.0002799578936625925 -0.0027815852827318514 0.002315484275373542 0.008737791956556435 0.9974063630749551 -0.021583859185282522
 -0.00028001518376136967 -0.002781588942860249 0.00031293477327368213 0.004415082512534617 0.9974063630749551 -0.021583859185282522 0.0023158605827323423 0.00873774029589448
0.043768236765320004 0.002514791696622836 0.010256922549615806 0.9971444993647269 -0.025222384405814743 0.00038272264483959513 0.005153710323328636 -0.00033781493402902695 -0.0032499085484788102
 0.9971444993647269 -0.025222384405814743 0.002515419180906333 0.01025684461065041 -0.00033773730421752683 -0.0032499051022923495 0.00038004450405589615 0.005154015384464469
 0.00038272264483959513 0.005153710323328636 -0.00033773730421752683 -0.0032499051022923495 0.0025148602408925774 0.010257501052089302 0.9971445100127599 -0.02522180039914529
 -0.00033781493402902695 -0.0032499085484788102 0.00038004450405589615 0.005154015384464469 0.9971445100127599 -0.02522180039914529 0.0025153719837636888 0.010257435197729002
0.050020842017509996 0.002726578229659895 0.011792633184213223 0.9968656750773177 -0.02887336967391107 0.000457621130329655 0.005893338505458783 -0.000401502663551629 -0.0037192652117126602
 0.9968656750773177 -0.02887336967391107 0.0027273973108543808 0.011792536471175792 -0.0004014016862620703 -0.0037192622889401727 0.0004541232769021616 0.005893732845276791
 0.000457621130329655 0.005893338505458783 -0.0004014016862620703 -0.0037192622889401727 0.002726667457484386 0.011793293704488938 0.9968656886481108 -0.02887270252068585
 -0.000401502663551629 -0.0037192652117126602 0.0004541232769021616 0.005893732845276791 0.9968656886481108 -0.02887270252068585 0.002727335309314232 0.011793211857820786
0.055454545454549996 0.0029209145305567246 0.013140024083458596 0.9966094046548273 -0.03205675062151964 0.0005285157310504844 0.006536667748691291 -0.0004616898708908547 -0.004127921444641654
 0.9966094046548273 -0.03205675062151964 0.002921920747321738 0.013139909225298566 -0.0004615661801249392 -0.004127919249706223 0.0005242164347734625 0.006537151833723167
 0.0005285157310504844 0.006536667748691291 -0.0004615661801249392 -0.004127919249706223 0.00292102395355606 0.013140755736039525 0.9966094210477285 -0.032056011259018344
 -0.0004616898708908547 -0.004127921444641654 0.0005242164347734625 0.006537151833723167 0.9966094210477285 -0.032056011259018344 0.0029218442351109956 0.013140658471713173
0.056273447269699996 0.002951042911335149 0.013344106832468061 0.9965696464184128 -0.03253736354038353 0.0005396714013127795 0.00663366516457209 -0.0004711541509720497 -0.004189567355063575
 0.9965696464184128 -0.03253736354038353 0.0029520789936825892 0.013343989087013943 -0.0004710268427112417 -0.004189565293044496 0.0005352441303234705 0.006634163808953917
 0.0005396714013127795 0.00663366516457209 -0.0004710268427112417 -0.004189565293044496 0.0029511555571889846 0.01334484919420166 0.9965696632592845 -0.032536613298158344
 -0.0004711541509720497 -0.004189567355063575 0.0005352441303234705 0.006634163808953917 0.9965696632592845 -0.032536613298158344 0.0029520001617605388 0.013344749480437134
0.06252605252188 0.0031884341140234118 0.01491106034737383 0.9962561768251553 -0.03621436837337677 0.0006289458402883113 0.007374613165749653 -0.0005468440590454432 -0.00466072407852018
 0.9962561768251553 -0.03621436837337677 0.003189712582286791 0.014910919193572358 -0.0005466874598716831 -0.004660723242437938 0.0006234792779660906 0.00737523237160394
 0.0006289458402883113 0.007374613165749653 -0.0005466874598716831 -0.004660723242437938 0.003188572915779517 0.014911884361989817 0.9962561972812843 -0.03621353510002648
 -0.0005468440590454432 -0.00466072407852018 0.0006234792779660906 0.00737523237160394 0.9962561972812843 -0.03621353510002648 0.003189614889908056 0.014911764830033038
0.06877865777407 0.003438999124732141 0.016493235547502243 0.9959250292153536 -0.03990435369557221 0.0007255159154463068 0.00811610137691468 -0.0006286459152030053 -0.005132644323162777
 0.9959250292153536 -0.03990435369557221 0.003440545346623635 0.01649306849098823 -0.0006284570882151291 -0.005132645106015316 0.0007189000241666954 0.008116858645397297
 0.0007255159154463068 0.00811610137691468 -0.0006284570882151291 -0.005132645106015316 0.0034391668256975273 0.01649414101478371 0.9959250536319364 -0.03990343744813286
 -0.0006286459152030053 -0.005132644323162777 0.0007189000241666954 0.008116858645397297 0.9959250536319364 -0.03990343744813286 0.0034404267619572637 0.016493999637067294
0.07503126302626001 0.0037029842389257168 0.01809039124205583 0.9955759662375138 -0.04360726410016787 0.0008294521023920378 0.008858045199790181 -0.0007166320814615466 -0.005605236340103768
 0.9955759662375138 -0.04360726410016787 0.003704823567256742 0.01809019566920833 -0.0007164081124380537 -0.005605239162668243 0.0008215766882524455 0.00885895928950234
 0.0008294521023920378 0.008858045199790181 -0.0007164081124380537 -0.005605239162668243 0.003703183585855595 0.018091377945369826 0.9955759949575865 -0.04360626493934368
 -0.0007166320814615466 -0.005605236340103768 0.0008215766882524455 0.00885895928950234 0.9955759949575865 -0.04360626493934368 0.003704682054973118 0.018091212617551602
0.08128386827845 0.003980634799154738 0.01970229791270076 0.9952087504678108 -0.04732302451295499 0.0009408238117766896 0.009600356923396553 -0.0008108737171909392 -0.006078407339442264
 0.9952087504678108 -0.04732302451295499 0.003982792574085882 0.019702071089673687 -0.0008106117142946412 -0.006078412650244332 0.0009315785346506025 0.009601447863476192
 0.0009408238117766896 0.009600356923396553 -0.0008106117142946412 -0.006078412650244332 0.003980868543337544 0.019703365620656797 0.9952087838334047 -0.04732194250095262
 -0.0008108737171909392 -0.006078407339442264 0.0009315785346506025 0.009601447863476192 0.9952087838334047 -0.04732194250095262 0.003982626096885119 0.019703174161312894
0.08753647353064001 0.004272195203750816 0.021328734042480632 0.9948231445804107 -0.05105154380973249 0.0010596993210649477 0.010342945967431976 -0.000911440737103063 -0.006552063251982283
 0.9948231445804107 -0.05105154380973249 0.004274696754719653 0.02132847311418553 -0.0009111378306924546 -0.006552071527261927 0.0010489737058883854 0.010344235070543292
 0.0010596993210649477 0.010342945967431976 -0.0009111378306924546 -0.006552071527261927 0.004272466100585339 0.02132988250798254 0.9948231829322004 -0.05105037901085985
 -0.000911440737103063 -0.006552063251982283 0.0010489737058883854 0.010344235070543292 0.9948231829322004 -0.05105037901085985 0.004274503273198812 0.02132966265816574
0.09378907878283 0.004577908890167776 0.022969483486101713 0.9944189114942555 -0.05479271739540326 0.001186145708793206 0.011085719060593743 -0.0010184017653293066 -0.007026108558790676
 0.9944189114942555 -0.05479271739540326 0.004580779537862983 0.022969185475069934 -0.0010180551078265282 -0.007026120302457481 0.001173829158557608 0.011087228935772797
 0.001186145708793206 0.011085719060593743 -0.0010180551078265282 -0.007026120302457481 0.004578219699232167 0.0229707124461933 0.994418955171644 -0.054791469875763166
 -0.0010184017653293066 -0.007026108558790676 0.001173829158557608 0.011087228935772797 0.994418955171644 -0.054791469875763166 0.004580557010955015 0.022970461868958954
0.100041684035 0.004898018302910031 0.02462433354727878 0.9939958145078649 -0.058546429078877145 0.001320228790227623 0.011828580373091629 -0.0011318240873208953 -0.007500446169401501
 0.9939958145078649 -0.058546429078877145 0.004901283361158707 0.024623995352530778 -0.0011314308531006469 -0.007500461912999531 0.0013062106000112097 0.0118303349384055
 0.001320228790227623 0.011828580373091629 -0.0011314308531006469 -0.007500461912999531 0.004898371787889518 0.024625642721954645 0.99399586384871 -0.058545098907102924
 -0.0011318240873208953 -0.007500446169401501 0.0013062106000112097 0.0118303349384055 0.99399586384871 -0.058545098907102924 0.004901029746637586 0.024625359001797742
0.1059090909091 0.005211714847442277 0.026189871453449934 0.9935814159428592 -0.06208018018075658 0.001453054493677586 0.012525669637262829 -0.0012441940999742415 -0.00794573961292753
 0.9935814159428592 -0.06208018018075658 0.005215373036306884 0.026189492619131637 -0.0012437546080717567 -0.00794575961804966 0.0014373387270585722 0.012527676748567524
 0.001453054493677586 0.012525669637262829 -0.0012437546080717567 -0.00794575961804966 0.00521211089618714 0.02619125563143954 0.9935814709041647 -0.06207877251282211
 -0.0012441940999742415 -0.00794573961292753 0.0014373387270585722 0.012527676748567524 0.9935814709041647 -0.06207877251282211 0.005215088391051202 0.026190938542712164
0.1062942892872 0.00523276484921077 0.026293073522386853 0.9935536174237872 -0.062312552485041466 0.001462013054836412 0.012571431616497951 -0.0012517735988255786 -0.007974977335667034
 0.9935536174237872 -0.062312552485041466 0.005236449626789349 0.02629269191819726 -0.0012513309841498553 -0.007974997638331241 0.0014461824269296124 0.012573456111513056
 0.001462013054836412 0.012571431616497951 -0.0012513309841498553 -0.007974997638331241 0.005233163777636496 0.02629446261530302 0.9935536727644245 -0.06231113973125296
 -0.0012517735988255786 -0.007974977335667034 0.0014461824269296124 0.012573456111513056 0.9935536727644245 -0.06231113973125296 0.005236162881463732 0.026294143257466887
0.11254689453939999 0.005582388844587828 0.027975493597785308 0.9930920846655217 -0.06609095211626848 0.0016115616033777914 0.013314172126192242 -0.001378314754356839 -0.008449601586018702
 0.9930920846655217 -0.06609095211626848 0.005586518647313097 0.027975065232278055 -0.001377819977391772 -0.008449627034427393 0.001593807663283149 0.013316493124244268
 0.0016115616033777914 0.013314172126192242 -0.001377819977391772 -0.008449627034427393 0.0055828359878774296 0.027976962293718453 0.993092146341101 -0.0660894568540956
 -0.001378314754356839 -0.008449601586018702 0.001593807663283149 0.013316493124244268 0.993092146341101 -0.0660894568540956 0.005586196727329268 0.027976604723533745
0.11879949979160001 0.005947129452146125 0.02967138397829163 0.9926109813910503 -0.06988148418630719 0.0017689360865471985 0.01405669892738768 -0.0015115105132520845 -0.008924216679284504
 0.9926109813910503 -0.06988148418630719 0.00595172958443797 0.02967090537208606 -0.0015109608140258608 -0.008924247887616372 0.0017491478998478429 0.014059344347597898
 0.0017689360865471985 0.01405669892738768 -0.0015109608140258608 -0.008924247887616372 0.005947627585383658 0.02967293194422144 0.9926110497345771 -0.06987990649139926
 -0.0015115105132520845 -0.008924216679284504 0.0017491478998478429 0.014059344347597898 0.9926110497345771 -0.06987990649139926 0.005951370445855262 0.029672533506203674
0.1250521050438 0.006327224615139863 0.03138053420546041 0.9921100736009231 -0.07368399726789825 0.0019341966433387289 0.014798906789563375 -0.0016514222851640406 -0.009398718573222255
 0.9921100736009231 -0.07368399726789825 0.006332320381997391 0.031380001750116134 -0.0016508149256107888 -0.009398756183102768 0.0019122632333112004 0.014801905908636372
 0.0019341966433387289 0.014798906789563375 -0.0016508149256107888 -0.009398756183102768 0.006327776516829032 0.031382161090173256 0.9921101489441168 -0.07368233721795964
 -0.0016514222851640406 -0.009398718573222255 0.0019122632333112004 0.014801905908636372 0.9921101489441168 -0.07368233721795964 0.006331921980925141 0.03138171904709833
0.131304710296 0.006722910985221553 0.03310273260747717 0.9915891282454365 -0.07749833281253327 0.002107401839795196 0.01554068827650655 -0.0017981098745541704 -0.009873001400792659
 0.9915891282454365 -0.07749833281253327 0.0067285276939275385 0.033102142563929154 -0.0017974421385587233 -0.009873046081243054 0.0020832122055961496 0.015544071740274086
 0.002107401839795196 0.01554068827650655 -0.0017974421385587233 -0.009873046081243054 0.006723519437329889 0.03310443804142333 0.9915892109180208 -0.07749659048686991
 -0.0017981098745541704 -0.009873001400792659 0.0020832122055961496 0.015544071740274086 0.9915892109180208 -0.07749659048686991 0.0067280879871237445 0.03310394957338429
0.1375573155481 0.007039419564902206 0.03461250783417094 0.9911429472295255 -0.08109899251074411 0.0022656346103209378 0.016258838991889814 -0.001928685425421975 -0.01032385541828137
 0.9911429472295255 -0.08109899251074411 0.007045583548064817 0.034611870251003526 -0.0019279531909846348 -0.010323907154259147 0.002239126888824743 0.016262599793288254
 0.0022656346103209378 0.016258838991889814 -0.0019279531909846348 -0.010323907154259147 0.007040086637869923 0.03461429168322371 0.9911430375599262 -0.08109716800221865
 -0.001928685425421975 -0.01032385541828137 0.002239126888824743 0.016262599793288254 0.9911430375599262 -0.08109716800221865 0.007045101211124953 0.034613767327642056
0.1438099208003 0.0073669143746451496 0.03611502626235808 0.9906813464497795 -0.08469123887986435 0.0024302688471750477 0.016974529830805874 -0.002064501315174995 -0.010772461577358138
 0.9906813464497795 -0.08469123887986435 0.007373651081397389 0.036114338404006546 -0.0020637016444595836 -0.01077252102269119 0.002401340901080496 0.0169786958580898
 0.0024302688471750477 0.016974529830805874 -0.0020637016444595836 -0.01077252102269119 0.007367642727582048 0.03611688818093032 0.9906814447643558 -0.08468933227658527
 -0.002064501315174995 -0.010772461577358138 0.002401340901080496 0.0169786958580898 0.9906814447643558 -0.08468933227658527 0.007373124203086814 0.03611632610100442
0.1500625260525 0.007705289388924801 0.037610183269484856 0.9902044353638864 -0.08827500415172419 0.0026012538553925944 0.017687702341944417 -0.0022055083934566727 -0.011218764095822141
 0.9902044353638864 -0.08827500415172419 0.007712624274556884 0.03760944227021044 -0.0022046383527080473 -0.011218831930629856 0.002569804096628521 0.017692302495909782
 0.0026012538553925944 0.017687702341944417 -0.0022046383527080473 -0.011218831930629856 0.007706081676115351 0.03761212289989937 0.9902045419870459 -0.08827301554466907
 -0.0022055083934566727 -0.011218764095822141 0.002569804096628521 0.017692302495909782 0.9902045419870459 -0.08827301554466907 0.0077120509528461 0.03761152116335594
0.15631513130469998 0.00805443793946144 0.03909787749945596 0.9897123238643099 -0.09185022038026708 0.002778538408670691 0.018398298955135176 -0.002351656965729799 -0.01166270829471111
