! Created with skrf 1.8.0 (http://scikit-rf.org).
# GHz S RI R 50.0 
!freq ReS11 ImS11 ReS12 ImS12 ReS13 ImS13
! ReS14 ImS14
! ReS21 ImS21 ReS22 ImS22 ReS23 ImS23
! ReS24 ImS24
! ReS31 ImS31 ReS32 ImS32 ReS33 ImS33
! ReS34 ImS34
! ReS41 ImS41 ReS42 ImS42 ReS43 ImS43
! ReS44 ImS44
!
0.0 0.001635317820236 0.0 0.9983646821798 0.0 6.284849541984e-05 0.0 -6.284849541945e-05 7.696720874665654e-21
 0.9983646821798 0.0 0.001635317820249 0.0 -6.284849541968e-05 7.696720874693821e-21 6.284849541921e-05 0.0
 6.284849541984e-05 0.0 -6.284849541968e-05 7.696720874693821e-21 0.0016353177975 0.0 0.998364682157 0.0
 -6.284849541945e-05 7.696720874665654e-21 6.284849541921e-05 0.0 0.998364682157 0.0 0.001635317797502 0.0
0.005 0.001759653648370642 0.0013447706874823617 0.9982073578443083 -0.003424805247151129 8.714852201452954e-05 0.0006494317126253314 -8.483670157688715e-05 -0.00041511514712788596
 0.9982073578443083 -0.003424805247151129 0.0017596802593899392 0.0013447551974890238 -8.483808227595268e-05 -0.0004151162502578431 8.697623427914313e-05 0.000649497297124381
 8.714852201452954e-05 0.0006494317126253314 -8.483808227595268e-05 -0.0004151162502578431 0.0017596523503642329 0.0013447042272739349 0.9982073574891188 -0.0034248723090820284
 -8.483670157688715e-05 -0.00041511514712788596 8.697623427914313e-05 0.000649497297124381 0.9982073574891188 -0.0034248723090820284 0.001759680853908977 0.0013446875395649932
0.006252605252188 0.0017923406645633604 0.0016862086566673709 0.9981657266174472 -0.004281827967435758 9.413681829881313e-05 0.0008121187687991993 -9.106892831897085e-05 -0.0005194160775895812
 0.9981657266174472 -0.004281827967435758 0.0017923822618261867 0.0016861889823209012 -9.107107645030107e-05 -0.0005194174384676859 9.386763524523784e-05 0.0008122039582079483
 9.413681829881313e-05 0.0008121187687991993 -9.107107645030107e-05 -0.0005194174384676859 0.001792338681127679 0.0016861255964385625 0.9981657261080751 -0.004281911788565163
 -9.106892831897085e-05 -0.0005194160775895812 9.386763524523784e-05 0.0008122039582079483 0.9981657261080751 -0.004281911788565163 0.0017923832377459545 0.0016861044131766076
0.01250521050438 0.00196486331742124 0.0034073532681741085 0.9979444963362251 -0.008564327934368267 0.00013445496356825201 0.0016246835453730263 -0.00012655904106356888 -0.0010412585651631784
 0.9979444963362251 -0.008564327934368267 0.001965029406283462 0.0034073107635093493 -0.00012656750250138508 -0.001041261088595197 0.0001333815265682847 0.001624888672834258
 0.00013445496356825201 0.0016246835453730263 -0.00012656750250138508 -0.001041261088595197 0.001964856000357756 0.0034071875016485013 0.9979444949095485 -0.008564495339200591
 -0.00012655904106356888 -0.0010412585651631784 0.0001333815265682847 0.001624888672834258 0.9979444949095485 -0.008564495339200591 0.0019650339199813833 0.003407141841633956
0.01875781575657 0.002153279568809061 0.00515266253440518 0.9977007041524977 -0.012857895359993297 0.00018389868461365707 0.002438173485409119 -0.0001694301720286823 -0.0015648236984677551
 0.9977007041524977 -0.012857895359993297 0.0021536527590170543 0.005152593783801985 -0.00016944903539540092 -0.0015648271467632563 0.00018148733643931554 0.0024385404037926303
 0.00018389868461365707 0.002438173485409119 -0.00016944903539540092 -0.0015648271467632563 0.00215326353932003 0.0051524143304413055 0.9977007013654359 -0.012858146274487624
 -0.0001694301720286823 -0.0015648236984677551 0.00018148733643931554 0.0024385404037926303 0.9977007013654359 -0.012858146274487624 0.0021536633409340827 0.0051523405799376466
0.02501042100875 0.002357970530851886 0.0069196891768809705 0.9974340510142132 -0.0171645891714672 0.00024256532125899687 0.003252594236792339 -0.00021978998820337324 -0.002089874838924776
 0.9974340510142132 -0.0171645891714672 0.0023586332561039963 0.006919590533987088 -0.00021982329119082515 -0.0020898789308209376 0.00023828222846230114 0.003253171675716568
 0.00024256532125899687 0.003252594236792339 -0.00021982329119082515 -0.0020898789308209376 0.0023579424258140104 0.006919358823405243 0.9974340464350836 -0.017164923579778512
 -0.00021978998820337324 -0.002089874838924776 0.00023828222846230114 0.003253171675716568 0.9974340464350836 -0.017164923579778512 0.002358652456154816 0.006919253079850098
0.03126302626094 0.0025793015991128496 0.008707163467647471 0.9971442232349763 -0.021485278218037845 0.000310552509459313 0.00406788148115381 -0.0002777430430444293 -0.0026162388223684983
 0.9971442232349763 -0.021485278218037845 0.0025803361638375437 0.008707031061547478 -0.00027779478100738045 -0.0026162432325622076 0.0003038631785570875 0.0040687250880330665
 0.000310552509459313 0.00406788148115381 -0.00027779478100738045 -0.0026162432325622076 0.002579258057366444 0.008706751310035175 0.9971442164296452 -0.021485696124599885
 -0.0002777430430444293 -0.0026162388223684983 0.0003038631785570875 0.0040687250880330665 0.9971442164296452 -0.021485696124599885 0.002580366539390098 0.008706609387830806
0.037515631513130004 0.0028176301108988593 0.010514249693105266 0.99683090042353 -0.025820384744534252 0.00038795718257254576 0.004883942861862219 -0.00034339145485780335 -0.0031437640295716857
 0.99683090042353 -0.025820384744534252 0.0028191187217770637 0.010514079431415477 -0.00034346558517741514 -0.0031437683886216656 0.00037832624964759465 0.0048851152706929375
 0.00038795718257254576 0.004883942861862219 -0.00034346558517741514 -0.0031437683886216656 0.002817567774294241 0.010513756131295302 0.9968308909550297 -0.025820886177529704
 -0.00034339145485780335 -0.0031437640295716857 0.00037832624964759465 0.0048851152706929375 0.9968308909550297 -0.025820886177529704 0.0028191628395188447 0.01051357356421023
0.043768236765320004 0.0030733083004174655 0.012340319879927435 0.9964937587147132 -0.030170110591697878 0.00047487509832014796 0.005700670723689031 -0.00041683513478108565 -0.003672307653888369
 0.9964937587147132 -0.030170110591697878 0.003075333091967305 0.012340107450598149 -0.00041693557948307346 -0.0036723115482071734 0.0004617662357922676 0.005702241632405974
 0.00047487509832014796 0.005700670723689031 -0.00041693557948307346 -0.0036723115482071734 0.003073223813955508 0.012339745364298504 0.9964937461427926 -0.030170695607789188
 -0.00041683513478108565 -0.003672307653888369 0.0004617662357922676 0.005702241632405974 0.9964937461427926 -0.030170695607789188 0.0030753935281337412 0.012339517406518636
0.050020842017509996 0.0033466846664881394 0.01418486025967078 0.9961324724189844 -0.03453453065596048 0.0005714005465814131 0.006517947389338454 -0.0004981718590647406 -0.004201730437125724
 0.9961324724189844 -0.03453453065596048 0.0033493277235450976 0.014184601131876634 -0.0004983025065153807 -0.004201733409004598 0.000554276432027869 0.00651999364060905
 0.0005714005465814131 0.006517947389338454 -0.0004983025065153807 -0.004201733409004598 0.003346574678532191 0.014184205305724897 0.9961324562983288 -0.03453519932624227
 -0.0004981718590647406 -0.004201730437125724 0.000554276432027869 0.00651999364060905 0.9961324562983288 -0.03453519932624227 0.003349407063590552 0.014183926932049753
0.055454545454549996 0.003598898463990288 0.015802474638994268 0.9957986417275594 -0.03833927411749205 0.0006631585489548389 0.007228534259979974 -0.0005753403888743557 -0.004662421472545734
 0.9957986417275594 -0.03833927411749205 0.0036021454524311092 0.015802171079527298 -0.0005755004159864234 -0.004662423236848654 0.0006421079192152353 0.007231061614733655
 0.0006631585489548389 0.007228534259979974 -0.0005755004159864234 -0.004662423236848654 0.0035987635966190706 0.01580175024506029 0.9957986221578882 -0.03834001556104208
 -0.0005753403888743557 -0.004662421472545734 0.0006421079192152353 0.007231061614733655 0.9957986221578882 -0.03834001556104208 0.0036022433284841294 0.0158014237599372
0.056273447269699996 0.0036381046638808514 0.01604742538955765 0.995746714999843 -0.03891363869517514 0.0006776261388574471 0.007335647744967438 -0.0005874972695104883 -0.004731894101414036
 0.995746714999843 -0.03891363869517514 0.0036414480423984236 0.01604711481395449 -0.000587661975564917 -0.004731895649072403 0.000655948461718551 0.007338253408331258
 0.0006776261388574471 0.007335647744967438 -0.000587661975564917 -0.004731895649072403 0.0036379658280366197 0.01604669057340283 0.9957466948805683 -0.03891439111023368
 -0.0005874972695104883 -0.004731894101414036 0.000655948461718551 0.007338253408331258 0.9957466948805683 -0.03891439111023368 0.003641548882339252 0.016046356478625505
0.06252605252188 0.003947911068179386 0.017927612909957917 0.9953361597297725 -0.04330737250136077 0.000793642638919268 0.008153640671364662 -0.0006849048372036814 -0.0052626599406057385
 0.9953361597297725 -0.04330737250136077 0.0039520368147126705 0.017927245918265736 -0.0006851074259273873 -0.005262659518239605 0.0007668721320685636 0.00815689712580941
 0.000793642638919268 0.008153640671364662 -0.0006851074259273873 -0.005262659518239605 0.003947740044014216 0.017926798866427382 0.9953361351566242 -0.04330820877381721
 -0.0006849048372036814 -0.0052626599406057385 0.0007668721320685636 0.00815689712580941 0.9953361351566242 -0.04330820877381721 0.003952161761740333 0.01792640346409387
0.06877865777407 0.004276444158336745 0.01982504850649986 0.9949004801694116 -0.047715628873953836 0.0009195388162078612 0.00897178989991838 -0.0007904858049593336 -0.005793887992361067
 0.9949004801694116 -0.047715628873953836 0.004281434329574119 0.01982461991039749 -0.0007907300692103644 -0.005793885010210608 0.0008871353054248817 0.008975795916253608
 0.0009195388162078612 0.00897178989991838 -0.0007907300692103644 -0.005793885010210608 0.004276237612273507 0.01982415593955417 0.9949004506808057 -0.04771654912854049
 -0.0007904858049593336 -0.005793887992361067 0.0008871353054248817 0.008975795916253608 0.9949004506808057 -0.04771654912854049 0.004281586001795739 0.019823693360046638
0.07503126302626001 0.004624041792353489 0.021739376374507645 0.9944393505430608 -0.052138273096396646 0.0010554013117902855 0.009789954565173058 -0.0009043291178227256 -0.0063254365193673966
 0.9944393505430608 -0.052138273096396646 0.004629978473653233 0.02173888076390273 -0.000904618819567354 -0.006325430343762229 0.0010168237785894176 0.009794816387877409
 0.0010554013117902855 0.009789954565173058 -0.000904618819567354 -0.006325430343762229 0.004623796398438083 0.021738406047417252 0.9944393156701866 -0.0521392774802943
 -0.0009043291178227256 -0.0063254365193673966 0.0010168237785894176 0.009794816387877409 0.9944393156701866 -0.0521392774802943 0.00463015950055789 0.021737870135437556
0.08128386827845 0.004991039414905653 0.023670252874506702 0.993952446051691 -0.056575145227945836 0.0012013145139364678 0.010607989578579847 -0.001026521343741598 -0.0068571616752627915
 0.993952446051691 -0.056575145227945836 0.0049980047393188955 0.02366968461511663 -0.0010268602143181742 -0.0068571516286977125 0.0011560211688341339 0.010613821006830369
 0.0012013145139364678 0.010607989578579847 -0.0010268602143181742 -0.0068571516286977125 0.0049907518569153085 0.023669205617922396 0.9939524053185986 -0.05657623390323232
 -0.001026521343741598 -0.0068571616752627915 0.0011560211688341339 0.010613821006830369 0.9939524053185986 -0.05657623390323232 0.004998217762711097 0.02366858992926909
0.08753647353064001 0.005377770021779735 0.025617342155086847 0.9934394431464937 -0.06102606443491891 0.0013573604381509794 0.011425745896893692 -0.0011571465893736388 -0.007388917282006187
 0.9934394431464937 -0.06102606443491891 0.00538584618851433 0.025616695385414837 -0.0011575383296057876 -0.007388902643211071 0.0013048088024776659 0.011432668364602378
 0.0013573604381509794 0.011425745896893692 -0.0011575383296057876 -0.007388902643211071 0.0053774369932906374 0.025616218864608128 0.9934393960685147 -0.06102723758136192
 -0.0011571465893736388 -0.007388917282006187 0.0013048088024776659 0.011432668364602378 0.9934393960685147 -0.06102723758136192 0.005386093861979002 0.025615516662284295
0.09378907878283 0.005784564091377035 0.027580313019244768 0.9929000197737323 -0.06549083208543804 0.00152361861152256 0.01224307072158189 -0.001296286410930196 -0.007920554682571274
 0.9929000197737323 -0.06549083208543804 0.005793833384642772 0.027579581646759416 -0.0012967346911859291 -0.007920534686568424 0.0014632656065470659 0.012251213376213599
 0.00152361861152256 0.01224307072158189 -0.0012967346911859291 -0.007920534686568424 0.005784182297694432 0.027579114656221794 0.992899965857243 -0.06549208990012309
 -0.001296286410930196 -0.007920554682571274 0.0014632656065470659 0.012251213376213599 0.992899965857243 -0.06549208990012309 0.005794118374445326 0.02757831890594173
0.100041684035 0.006211749494620639 0.029558836639173885 0.9923338556013976 -0.06996923400314549 0.001700165959209268 0.013059807656861891 -0.0014440197224778481 -0.008451922641352447
 0.9923338556013976 -0.06996923400314549 0.006222294302252264 0.02955801433589228 -0.001444528182695527 -0.008451896479546193 0.0016314680013069312 0.013069307436959601
 0.001700165959209268 0.013059807656861891 -0.001444528182695527 -0.008451896479546193 0.006211315653846979 0.029557564231590585 0.9923337943430985 -0.06997057669996154
 -0.0014440197224778481 -0.008451922641352447 0.0016314680013069312 0.013069307436959601 0.9923337943430985 -0.06997057669996154 0.0062226192872704995 0.02955666759649856
0.1059090909091 0.006631453064859529 0.03142932392515875 0.9917779664629908 -0.07418393648126985 0.0018752609538960456 0.013825551605420145 -0.0015905353459511665 -0.008950173019984757
 0.9917779664629908 -0.07418393648126985 0.0066432698469164565 0.03142841032339824 -0.0015911035619167442 -0.0089501402980284 0.0017982373982195308 0.01383645645494131
 0.0018752609538960456 0.013825551605420145 -0.0015911035619167442 -0.0089501402980284 0.006630967411091206 0.03142798303004049 0.9917778978481073 -0.0741853590394879
 -0.0015905353459511665 -0.008950173019984757 0.0017982373982195308 0.01383645645494131 0.9917778978481073 -0.0741853590394879 0.006643634811814723 0.03142698477766838
0.1062942892872 0.006659651388410378 0.031552584834077364 0.9917406322343284 -0.07446104216572999 0.0018870766930736843 0.013875796838233673 -0.0016004227015418552 -0.008982867280717418
 0.9917406322343284 -0.07446104216572999 0.00667155422060568 0.03155166503130021 -0.0016009949510903685 -0.008982834100968512 0.0018094897945017967 0.01388679854943197
 0.0018870766930736843 0.013875796838233673 -0.0016009949510903685 -0.008982834100968512 0.006659162232732692 0.031551239477186355 0.9917405631204272 -0.07446246997490284
 -0.0016004227015418552 -0.008982867280717418 0.0018094897945017967 0.01388679854943197 0.9917405631204272 -0.07446246997490284 0.006671921893287643 0.03155023431185067
0.11254689453939999 0.007128592096128881 0.03356122876457821 0.9911200334183149 -0.078966015994439 0.0020844222014469167 0.014690875040023183 -0.001765568693223798 -0.009513232045155718
 0.9911200334183149 -0.078966015994439 0.007141935604459098 0.0335602046469568 -0.0017662083108853975 -0.009513190951865376 0.0019974020758877584 0.014703531429583161
 0.0020844222014469167 0.014690875040023183 -0.0017662083108853975 -0.009513190951865376 0.007128044373243371 0.03355981162061714 0.9911199559238264 -0.07896752916320546
 -0.001765568693223798 -0.009513232045155718 0.0019974020758877584 0.014703531429583161 0.9911199559238264 -0.07896752916320546 0.007142348670497196 0.03355868996436916
0.11879949979160001 0.007618890978275707 0.035584437914310416 0.9904717452389777 -0.08348390336492437 0.0022922709401243377 0.015504875773206476 -0.0019395281128654885 -0.010042857682102172
 0.9904717452389777 -0.08348390336492437 0.007633757974643838 0.03558330241309957 -0.0019402386466981808 -0.010042807736291721 0.0021952731128846515 0.015519347602773766
 0.0022922709401243377 0.015504875773206476 -0.0019402386466981808 -0.010042807736291721 0.007618281452750692 0.03558295021172566 0.9904716588270831 -0.08348550215844106
 -0.0019395281128654885 -0.010042857682102172 0.0021952731128846515 0.015519347602773766 0.9904716588270831 -0.08348550215844106 0.007634219153478511 0.035581703781165396
0.1250521050438 0.008130864295893147 0.0376218792934952 0.9897954563157034 -0.08801444140435886 0.002510688324263578 0.01631762937208405 -0.0021223683479340218 -0.010571582240709197
 0.9897954563157034 -0.08801444140435886 0.008147337771436511 0.0376206250790054 -0.0021231533150550823 -0.010571522460149392 0.0024031682464176044 0.016334085488678332
 0.002510688324263578 0.01631762937208405 -0.0021231533150550823 -0.010571522460149392 0.008130189750425053 0.037620322331859586 0.9897953604369948 -0.08801612610085933
 -0.0021223683479340218 -0.010571582240709197 0.0024031682464176044 0.016334085488678332 0.9897953604369948 -0.08801612610085933 0.008147849796661704 0.03761894251261503
0.131304710296 0.008664825066292224 0.03967321680711773 0.9890908579910468 -0.09255735713243005 0.002739736621083893 0.017128963077067835 -0.002314153659107814 -0.011099241081606561
 0.9890908579910468 -0.09255735713243005 0.008682988210731424 0.039671836280396576 -0.0023150165455516547 -0.011099170440862439 0.002621149787601296 0.01714758048225116
 0.002739736621083893 0.017128963077067835 -0.0023150165455516547 -0.011099170440862439 0.00866408230314842 0.03967159195004696 0.9890907520824505 -0.09255912803045326
 -0.002314153659107814 -0.011099241081606561 0.002621149787601296 0.01714758048225116 0.9890907520824505 -0.09255912803045326 0.008683553830240975 0.0396700697876908
0.1375573155481 0.009101294521508358 0.041472935130126246 0.9884774816804771 -0.09684706841055156 0.0029516946946220968 0.017913176462825663 -0.0024873032009974498 -0.011600053481634193
 0.9884774816804771 -0.09684706841055156 0.009121238127612135 0.04147144946602905 -0.0024882493132191417 -0.01159997184429753 0.002821770004372622 0.017933935375281478
 0.0029516946946220968 0.017913176462825663 -0.0024882493132191417 -0.01159997184429753 0.009100481086425905 0.04147124335462574 0.9884773652761824 -0.09684892567239903
 -0.0024873032009974498 -0.011600053481634193 0.002821770004372622 0.017933935375281478 0.9884773652761824 -0.09684892567239903 0.009121859176269892 0.0414695992329248
0.1438099208003 0.009553227729059543 0.04326273471148616 0.9878423381815633 -0.1011254134535136 0.0031721976604865247 0.01869374852962227 -0.0026673410196115157 -0.012097584477150439
 0.9878423381815633 -0.1011254134535136 0.009575036427820647 0.04326113788783773 -0.0026683741264926374 -0.012097490824985555 0.0030304400225155373 0.018716811544521452
 0.0031721976604865247 0.01869374852962227 -0.0026683741264926374 -0.012097490824985555 0.009552340586273203 0.04326097740043698 0.9878422107197496 -0.10112735736515642
 -0.0026673410196115157 -0.012097584477150439 0.0030304400225155373 0.018716811544521452 0.9878422107197496 -0.10112735736515642 0.009575715508742684 0.0432592039632243
0.1500625260525 0.01002045841814556 0.04504245180928273 0.9871855980717508 -0.10539227078534068 0.003401164208679172 0.019470584923901652 -0.0028541894283416343 -0.012591748070635003
 0.9871855980717508 -0.10539227078534068 0.010044217074246443 0.04504073743045433 -0.002855313290695283 -0.01259164134407289 0.0032470817271761368 0.019496120578215922
 0.003401164208679172 0.019470584923901652 -0.002855313290695283 -0.01259164134407289 0.01001949455905895 0.04504063039601955 0.9871854589792496 -0.10539430164622975
 -0.0028541894283416343 -0.012591748070635003 0.0032470817271761368 0.019496120578215922 0.9871854589792496 -0.10539430164622975 0.010044956793687804 0.04503871986213493
0.15631513130469998 0.010502819059023885 0.04681192758025505 0.9865074328792465 -0.10964751968170942 0.0036385120057145985 0.020243592998928847 -0.003047769738369513 -0.013082460164548842
