! Created with skrf 1.8.0 (http://scikit-rf.org).
# GHz S RI R 50.0 
!freq ReS11 ImS11 ReS12 ImS12 ReS13 ImS13
! ReS14 ImS14
! ReS21 ImS21 ReS22 ImS22 ReS23 ImS23
! ReS24 ImS24
! ReS31 ImS31 ReS32 ImS32 ReS33 ImS33
! ReS34 ImS34
! ReS41 ImS41 ReS42 ImS42 ReS43 ImS43
! ReS44 ImS44
!
0.0 0.001232727553118 0.0 0.9987672724469 0.0 4.698076593284e-05 0.0 -4.698076585485e-05 5.7534844525633315e-21
 0.9987672724469 0.0 0.001232727553109 0.0 -4.698076585489e-05 5.75348445256823e-21 4.698076593233e-05 0.0
 4.698076593284e-05 0.0 -4.698076585489e-05 5.75348445256823e-21 0.001232727552588 0.0 0.9987672724463 0.0
 -4.698076585485e-05 5.7534844525633315e-21 4.698076593233e-05 0.0 0.9987672724463 0.0 0.00123272755258 0.0
0.005 0.0013255674531835614 0.001009851154513181 0.9986499352470796 -0.0025830804854910052 6.527983757668833e-05 0.0005127078502955271 -6.34944295064483e-05 -0.0003228093008589167
 0.9986499352470796 -0.0025830804854910052 0.0013255741249617497 0.0010098472905116793 -6.349414250676114e-05 -0.00032280913582494875 6.523197653930839e-05 0.0005127259278015349
 6.527983757668833e-05 0.0005127078502955271 -6.349414250676114e-05 -0.00032280913582494875 0.001325566990391551 0.0010097842163890839 0.9986499349221112 -0.002583147549374989
 -6.34944295064483e-05 -0.0003228093008589167 6.523197653930839e-05 0.0005127259278015349 0.9986499349221112 -0.002583147549374989 0.0013255739426739795 0.0010097801057850813
0.006252605252188 0.0013497017043608349 0.001266312648759482 0.9986192750152705 -0.003229515290795321 7.038962458729316e-05 0.0006411488531657527 -6.805774012341788e-05 -0.00040394014104322147
 0.9986192750152705 -0.003229515290795321 0.0013497121335604067 0.0012663077727586183 -6.805729308158425e-05 -0.00040393993860242573 7.031484345237023e-05 0.000641172324954956
 7.038962458729316e-05 0.0006411488531657527 -6.805729308158425e-05 -0.00040393993860242573 0.0013497010465402704 0.0012662289892761663 0.9986192745729803 -0.003229599114961759
 -6.805774012341788e-05 -0.00040394014104322147 7.031484345237023e-05 0.000641172324954956 0.9986192745729803 -0.003229599114961759 0.001349711914928571 0.0012662237947802873
0.01250521050438 0.001475498718902368 0.0025594382201297085 0.9984585703762291 -0.006460018029927976 9.906887396243566e-05 0.0012827388090644633 -9.341729798683877e-05 -0.0008099675835535213
 0.9984585703762291 -0.006460018029927976 0.001475540359370401 0.002559428012288089 -9.341553065714518e-05 -0.0008099672207951618 9.877059271937546e-05 0.0012827950529713554
 9.906887396243566e-05 0.0012827388090644633 -9.341553065714518e-05 -0.0008099672207951618 0.0014754966398145466 0.0025592712333502503 0.9984585691624797 -0.006460185438612531
 -9.341729798683877e-05 -0.0008099675835535213 9.877059271937546e-05 0.0012827950529713554 0.9984585691624797 -0.006460185438612531 0.0014755400469730361 0.0025592602820890516
0.01875781575657 0.001610348330203285 0.0038713022925929877 0.9982849910232761 -0.009699414413626364 0.00013307775989121362 0.001925220791949005 -0.00012312770654112812 -0.0012175313535443346
 0.9982849910232761 -0.009699414413626364 0.0016104418892873892 0.003871286269353537 -0.00012312375741050963 -0.0012175308808342344 0.0001324075343749923 0.0019253206178714917
 0.00013307775989121362 0.001925220791949005 -0.00012312375741050963 -0.0012175308808342344 0.0016103440702073325 0.0038710521940315884 0.9982849887154343 -0.009699665329331184
 -0.00012312770654112812 -0.0012175313535443346 0.0001324075343749923 0.0019253206178714917 0.9982849887154343 -0.009699665329331184 0.001610441624932502 0.0038710348839315852
0.02501042100875 0.001754475784522417 0.005200116170914851 0.9980983641711219 -0.01294931939789986 0.00017247649549693918 0.0025686482448907732 -0.00015725572943962307 -0.0016264750178707208
 0.9980983641711219 -0.01294931939789986 0.0017546419230504643 0.0052000938306934015 -0.00015724874449145196 -0.0016264744945542885 0.00017128571387496852 0.0025688039114749434
 0.00017247649549693918 0.0025686482448907732 -0.00015724874449145196 -0.0016264744945542885 0.0017544685784036506 0.005199783167472088 0.9980983604433199 -0.012949653797485052
 -0.00015725572943962307 -0.0016264750178707208 0.00017128571387496852 0.0025688039114749434 0.9980983604433199 -0.012949653797485052 0.0017546418564338493 0.005199758866120345
0.03126302626094 0.0019080967004238027 0.006544982071408394 0.9978985067269297 -0.016210451487031492 0.0002173260103993528 0.003213016931387585 -0.00019586665995134932 -0.0020366968462291403
 0.9978985067269297 -0.016210451487031492 0.0019083560443228168 0.006544952897055941 -0.00019585579132969696 -0.0020366963407705994 0.00021546575217553564 0.0032132421547888114
 0.0002173260103993528 0.003213016931387585 -0.00019585579132969696 -0.0020366963407705994 0.0019080857784008365 0.0065445663962178545 0.9978985012503239 -0.016210869367184296
 -0.00019586665995134932 -0.0020366968462291403 0.00021546575217553564 0.0032132421547888114 0.9978985012503239 -0.016210869367184296 0.001908356333507461 0.0065445344431082405
0.037515631513130004 0.002071422209432002 0.007905331844590196 0.9976852305242886 -0.019483193964909194 0.00026768736484336094 0.0038583002352237023 -0.0002390248048278022 -0.002448114498135341
 0.9976852305242886 -0.019483193964909194 0.0020717953573102907 0.007905295304689273 -0.00023900921012780054 -0.0024481140881901704 0.0002650083343393783 0.0038586102047223573
 0.00026768736484336094 0.0038583002352237023 -0.00023900921012780054 -0.0024481140881901704 0.002071406801232084 0.007904833754323515 0.9976852229698357 -0.019483695345171238
 -0.0002390248048278022 -0.002448114498135341 0.0002650083343393783 0.0038586102047223573 0.9976852229698357 -0.019483695345171238 0.002071796172815659 0.007904793461939083
0.043768236765320004 0.0022446609571871346 0.009280756167779762 0.9974583444185569 -0.022767765650328457 0.00032362148680056737 0.004504459887689243 -0.0002867936660798983 -0.002860654283140248
 0.9974583444185569 -0.022767765650328457 0.0022451684860660434 0.009280711717820469 -0.00028677250800306715 -0.0028606540556210414 0.00031997397809559847 0.004504871283552243
 0.00032362148680056737 0.004504459887689243 -0.00028677250800306715 -0.0028606540556210414 0.0022446402902535304 0.009280175937604903 0.997458334454726 -0.022768350578466018
 -0.0002867936660798983 -0.002860654283140248 0.00031997397809559847 0.004504871283552243 0.997458334454726 -0.022768350578466018 0.002245170008518197 0.009280126592302944
0.050020842017509996 0.0024280200381347474 0.010670933925630488 0.9972176553184767 -0.02606429146242837 0.00038518902045387896 0.00515145039820605 -0.0003392360177573861 -0.003274246718307049
 0.9972176553184767 -0.02606429146242837 0.002428682508370727 0.01067088100886286 -0.0003392084638383355 -0.003274246769426485 0.00038042289933561097 0.005151981410390578
 0.00038518902045387896 0.00515145039820605 -0.0003392084638383355 -0.003274246769426485 0.002427993338283731 0.0106702718763846 0.997217642610727 -0.026064959987644257
 -0.0003392360177573861 -0.003274246718307049 0.00038042289933561097 0.005151981410390578 0.997217642610727 -0.026064959987644257 0.002428684929232162 0.010670212739021365
0.055454545454549996 0.0025957436220496533 0.011890813386672408 0.9969971284864579 -0.02893883252745008 0.00044331490261135604 0.005714340362911811 -0.0003886536846051111 -0.003634473541891125
 0.9969971284864579 -0.02893883252745008 0.00259655742908694 0.011890752650871235 -0.00038861990011159094 -0.003634473920553768 0.0004374544071866744 0.005714991284689535
 0.00044331490261135604 0.005714340362911811 -0.00038861990011159094 -0.003634473920553768 0.0025957110498088386 0.011890080509512622 0.9969971131197712 -0.028939573763033802
 -0.0003886536846051111 -0.003634473541891125 0.0004374544071866744 0.005714991284689535 0.9969971131197712 -0.028939573763033802 0.0025965607946594692 0.011890012242846118
0.056273447269699996 0.002621705486611938 0.01207559760020314 0.9969629687755691 -0.029372836976269346 0.0004524502243486601 0.005799221222850819 -0.0003964139355284005 -0.0036888243486073104
 0.9969629687755691 -0.029372836976269346 0.002622543446580692 0.012075535648336659 -0.0003963791580352981 -0.003688824783929715 0.0004464149201351785 0.005799891570172689
 0.0004524502243486601 0.005799221222850819 -0.0003963791580352981 -0.003688824783929715 0.0026216719785893392 0.01207485407275679 0.9969629529858305 -0.02937358917508564
 -0.0003964139355284005 -0.0036888243486073104 0.0004464149201351785 0.005799891570172689 0.9969629529858305 -0.02937358917508564 0.0026225469681633758 0.012074784379187858
0.06252605252188 0.0028259225554428916 0.013494514188850414 0.9966940893630983 -0.0326934274506737 0.0005254648943777836 0.00644771795452173 -0.00045838880211753017 -0.004104320546773267
 0.9966940893630983 -0.0326934274506737 0.0028269565454389 0.01349444262278155 -0.0004583459779558497 -0.004104321481259497 0.0005180093982804044 0.0064485489040428355
 0.0005254648943777836 0.00644771795452173 -0.0004583459779558497 -0.004104321481259497 0.0028258814640244995 0.013493689561838941 0.9966940701502461 -0.032694263409599265
 -0.00045838880211753017 -0.004104320546773267 0.0005180093982804044 0.0064485489040428355 0.9966940701502461 -0.032694263409599265 0.0028269613818725134 0.013493608523317895
0.06877865777407 0.003040875875176128 0.01492747386965963 0.9964108209376331 -0.036026059109690846 0.0006042923004275554 0.00709688302848785 -0.0005252212989048583 -0.004520668799014058
 0.9964108209376331 -0.036026059109690846 0.0030421264316901806 0.014927392099889003 -0.0005251696095905695 -0.004520670357061021 0.0005952651686645864 0.007097897414995638
 0.0006042923004275554 0.00709688302848785 -0.0005251696095905695 -0.004520670357061021 0.0030408264250065763 0.014926568549177349 0.996410797956244 -0.036026978935772606
 -0.0005252212989048583 -0.004520668799014058 0.0005952651686645864 0.007097897414995638 0.996410797956244 -0.036026978935772606 0.003042132808436411 0.014926475352643215
0.07503126302626001 0.003266769545509283 0.016374282777964884 0.9961129668355754 -0.0393707063138106 0.0006889911311558379 0.007746656170282137 -0.0005969713890886041 -0.004937802249749319
 0.9961129668355754 -0.0393707063138106 0.003268257205094317 0.016374190205111463 -0.0005969100207518152 -0.004937804565233212 0.0006782404913934758 0.007747878415793191
 0.0006889911311558379 0.007746656170282137 -0.0005969100207518152 -0.004937804565233212 0.00326671096232874 0.01637329720872941 0.9961129397357569 -0.03937171012373474
 -0.0005969713890886041 -0.004937802249749319 0.0006782404913934758 0.007747878415793191 0.9961129397357569 -0.03937171012373474 0.0032682653597803993 0.016373191017016987
0.08128386827845 0.0035038071834094563 0.01783475823183153 0.9958003300268832 -0.04272732628359103 0.0007796194435035399 0.008396974691685911 -0.0006736982955094538 -0.005355653399702559
 0.9958003300268832 -0.04272732628359103 0.00350555248646791 0.01783465424695418 -0.0006736264389056726 -0.005355656616021318 0.000766993003854969 0.008398430824928667
 0.0007796194435035399 0.008396974691685911 -0.0006736264389056726 -0.005355656616021318 0.0035037386944444596 0.017833692886348035 0.9958002984539402 -0.042728414214856174
 -0.0006736982955094538 -0.005355653399702559 0.000766993003854969 0.008398430824928667 0.9958002984539402 -0.042728414214856174 0.0035055626690721747 0.017833572838294405
0.08753647353064001 0.0037521919436188963 0.019308725402181343 0.9954727132442905 -0.046095862380225554 0.0008762346156993551 0.009047773694346872 -0.0007554604741357915 -0.00577415389790855
 0.9954727132442905 -0.046095862380225554 0.0037542154382530103 0.019308609386997213 -0.0007553773246755948 -0.005774158168007491 0.0008615796759755426 0.009049491370177116
 0.0008762346156993551 0.009047773694346872 -0.0007553773246755948 -0.005774158168007491 0.0037521127781431005 0.019307580793385095 0.9954726768382971 -0.046097034578642594
 -0.0007554604741357915 -0.00577415389790855 0.0008615796759755426 0.009049491370177116 0.9954726768382971 -0.046097034578642594 0.0037542279113773765 0.01930744600385907
0.09378907878283 0.004012126518342062 0.020796014951413595 0.9951299190938361 -0.049476246419056805 0.0009788933020224056 0.009698986215590007 -0.0008423155851270417 -0.006193234393125259
 0.9951299190938361 -0.049476246419056805 0.004014448764505263 0.020795886278448583 -0.0008422203429332727 -0.006193239879542296 0.0009620567666826224 0.009700994734298899
 0.0009788933020224056 0.009698986215590007 -0.0008422203429332727 -0.006193239879542296 0.004012035908296767 0.02079479162284644 0.9951298774887928 -0.049477503048927556
 -0.0008423155851270417 -0.006193234393125259 0.0009620567666826224 0.009700994734298899 0.9951298774887928 -0.049477503048927556 0.004014463803659285 0.02079464118261623
0.100041684035 0.004283813124716864 0.02229646128704794 0.994771750153328 -0.05286840036992635 0.0010876513890878139 0.010350543336516216 -0.0009343204616704949 -0.006612824424611186
 0.994771750153328 -0.05286840036992635 0.0042864546975444956 0.022296319319678844 -0.0009342123316462733 -0.006612831299506765 0.0010684797814232703 0.010352873663064652
 0.0010876513890878139 0.010350543336516216 -0.0009342123316462733 -0.006612831299506765 0.004283710305532062 0.022295159817351754 0.9947717029775166 -0.052869741609680776
 -0.0009343204616704949 -0.006612824424611186 0.0010684797814232703 0.010352873663064652 0.9947717029775166 -0.052869741609680776 0.00428647259160658 0.022294992792950958
0.1059090909091 0.0045496302277321455 0.023716291616920012 0.9944214875830232 -0.05606220463300976 0.0011953057279308749 0.010962210959007403 -0.0010253908069142875 -0.007006964775614816
 0.9944214875830232 -0.05606220463300976 0.004552590184986677 0.023716136586978027 -0.0010252698642102798 -0.007006973118623648 0.00117380299160183 0.010964872929946703
 0.0011953057279308749 0.010962210959007403 -0.0010252698642102798 -0.007006973118623648 0.004549515259858501 0.0237149173778252 0.9944214348353833 -0.05606362544491915
 -0.0010253908069142875 -0.007006964775614816 0.00117380299160183 0.010964872929946703 0.9944214348353833 -0.05606362544491915 0.0045526110329971526 0.0237147339201535
0.1062942892872 0.00456745348064252 0.023809901251464916 0.9943980090638158 -0.056272237623156175 0.0012025639528148847 0.011002374261593242 -0.0010315310770528203 -0.007032852343190046
 0.9943980090638158 -0.056272237623156175 0.004570434974872565 0.023809745343876667 -0.001031409268953537 -0.007032860788374464 0.0011809034308186514 0.011005059044626677
 0.0012025639528148847 0.011002374261593242 -0.001031409268953537 -0.007032860788374464 0.00456733769179383 0.023808522254363848 0.9943979559384701 -0.05627366366551543
 -0.0010315310770528203 -0.007032852343190046 0.0011809034308186514 0.011005059044626677 0.9943979559384701 -0.05627366366551543 0.004570456026254502 0.023808337687838924
0.11254689453939999 0.004863248774017113 0.02533617312206342 0.9940084986138163 -0.05968766394703881 0.0013236852162247525 0.011654406382086663 -0.0011340025104941277 -0.007453245250187428
 0.9940084986138163 -0.05968766394703881 0.004866590807468428 0.025336002619056528 -0.001133866238989547 -0.0074532554571525335 0.0012993815892012749 0.011657479972896033
 0.0013236852162247525 0.011654406382086663 -0.001133866238989547 -0.0074532554571525335 0.004863119259830831 0.025334717246504556 0.9940084391532924 -0.05968917499912419
 -0.0011340025104941277 -0.007453245250187428 0.0012993815892012749 0.011657479972896033 0.9940084391532924 -0.05968917499912419 0.004866615332836551 0.025334514154985395
0.11879949979160001 0.005171399625034919 0.026875115820306904 0.9936030218195646 -0.06311457823844588 0.0014510685072546704 0.012306565326323649 -0.0012417889119096857 -0.00787392895139106
 0.9936030218195646 -0.06311457823844588 0.0051751228427182605 0.02687493005707477 -0.0012416373966932792 -0.007873941121339679 0.0014239672536431839 0.012310063797533244
 0.0014510685072546704 0.012306565326323649 -0.0012416373966932792 -0.007873941121339679 0.005171255635218226 0.02687358375072548 0.9936029556306241 -0.06311617452162611
 -0.0012417889119096857 -0.00787392895139106 0.0014239672536431839 0.012310063797533244 0.9936029556306241 -0.06311617452162611 0.0051751511729308825 0.026873361126004452
0.1250521050438 0.0054921060440679525 0.028426568298020795 0.9931813820032329 -0.066552873098289 0.0015847662171347403 0.012958774999233334 -0.0013549434654915222 -0.008294827923674518
 0.9931813820032329 -0.066552873098289 0.005496231122300207 0.02842636659968583 -0.0013547759313797703 -0.008294842267533084 0.0015547125032604136 0.012962736163355172
 0.0015847662171347403 0.012958774999233334 -0.0013547759313797703 -0.008294842267533084 0.005491946834591261 0.028424960752938662 0.9931813086845139 -0.06655455484968244
 -0.0013549434654915222 -0.008294827923674518 0.0015547125032604136 0.012962736163355172 0.9931813086845139 -0.06655455484968244 0.005496263602898147 0.028424717560853647
0.131304710296 0.005825567385636007 0.029990369028790737 0.9927433828675001 -0.07000243530400313 0.0017248297585415685 0.013610957618349628 -0.0014735183528961076 -0.008715865287019363
 0.9927433828675001 -0.07000243530400313 0.005830115035806625 0.02999015071000261 -0.0014733340298904325 -0.008715882025472086 0.0016916684580935992 0.013615421046106769
 0.0017248297585415685 0.013610957618349628 -0.0014733340298904325 -0.008715882025472086 0.005825392219329527 0.02998868676362316 0.9927433020093588 -0.07000420277376632
 -0.0014735183528961076 -0.008715865287019363 0.0016916684580935992 0.013615421046106769 0.9927433020093588 -0.07000420277376632 0.005830152027603644 0.029988421943349473
0.1375573155481 0.006088517022809488 0.03136207111345213 0.9923723146547105 -0.07325880355888767 0.0018518021126097929 0.014241967088389599 -0.0015781007765277328 -0.00911587813486874
 0.9923723146547105 -0.07325880355888767 0.006093510045693118 0.03136183946497299 -0.001577898701953233 -0.009115897261213124 0.0018154606914390506 0.014246920780510177
 0.0018518021126097929 0.014241967088389599 -0.001577898701953233 -0.009115897261213124 0.006088325858178869 0.03136031446434145 0.9923722259156891 -0.07326065689611488
 -0.0015781007765277328 -0.00911587813486874 0.0018154606914390506 0.014246920780510177 0.9923722259156891 -0.07326065689611488 0.00609355109394451 0.03136003161811354
0.1438099208003 0.006360465275020775 0.03272767661192893 0.9919886533932217 -0.07650806087138849 0.001983905064343748 0.01487108410522731 -0.0016868778450536406 -0.009514165247383223
 0.9919886533932217 -0.07650806087138849 0.006365924770388927 0.03272743113160841 -0.0016866572216115675 -0.009514186972302888 0.001944242941446656 0.01487656363672592
 0.001983905064343748 0.01487108410522731 -0.0016866572216115675 -0.009514186972302888 0.006360257511169312 0.03272584632670062 0.9919885563649796 -0.07651000032462482
 -0.0016868778450536406 -0.009514165247383223 0.001944242941446656 0.01487656363672592 0.9919885563649796 -0.07651000032462482 0.006365970109558669 0.03272554464076545
0.1500625260525 0.006641330267389819 0.03408710504052266 0.9915924838088236 -0.0797501608251998 0.0021211014452338414 0.015498266463693159 -0.0017998136408401357 -0.009910686118722723
 0.9915924838088236 -0.0797501608251998 0.006647277385374944 0.03408684518615488 -0.0017995736738117992 -0.009910710661163667 0.0020779787256095415 0.01550430868492478
 0.0021211014452338414 0.015498266463693159 -0.0017995736738117992 -0.009910710661163667 0.006641105318270955 0.03408520189688484 0.9915923780758878 -0.07975218665217862
 -0.0017998136408401357 -0.009910686118722723 0.0020779787256095415 0.01550430868492478 0.9915923780758878 -0.07975218665217862 0.00664732725488256 0.034084880507157286
0.15631513130469998 0.006931029705274296 0.03544027854591767 0.991183890878327 -0.08298505653295656 0.0022633537457965296 0.016123472534160563 -0.0019168718935557794 -0.010305401005976125
