! Created with skrf 1.8.0 (http://scikit-rf.org).
# GHz S RI R 50.0 
!freq ReS11 ImS11 ReS12 ImS12 ReS13 ImS13
! ReS14 ImS14
! ReS21 ImS21 ReS22 ImS22 ReS23 ImS23
! ReS24 ImS24
! ReS31 ImS31 ReS32 ImS32 ReS33 ImS33
! ReS34 ImS34
! ReS41 ImS41 ReS42 ImS42 ReS43 ImS43
! ReS44 ImS44
!
0.0 0.001820211260154 0.0 0.9981797887399 0.0 7.087090173174e-05 0.0 -7.08709018211e-05 8.679182306789644e-21
 0.9981797887399 0.0 0.001820211260127 0.0 -7.087090182022e-05 8.679182306681875e-21 7.087090173195e-05 0.0
 7.087090173174e-05 0.0 -7.087090182022e-05 8.679182306681875e-21 0.001820211256752 0.0 0.9981797887365 0.0
 -7.08709018211e-05 8.679182306789644e-21 7.087090173195e-05 0.0 0.9981797887365 0.0 0.001820211256765 0.0
0.005 0.0019593822301822426 0.0014845034437019995 0.9980035487925393 -0.003812039699545622 0.00010042299748497706 0.0008034332073727411 -9.73186809415164e-05 -0.0005001767712855828
 0.9980035487925393 -0.003812039699545622 0.001959383177212945 0.0014845028604244777 -9.731965051431466e-05 -0.0005001774201223775 0.00010041139152324282 0.0008034375438374092
 0.00010042299748497706 0.0008034332073727411 -9.731965051431466e-05 -0.0005001774201223775 0.001959381833894647 0.0014844363467555579 0.9980035484152022 -0.003812106756175632
 -9.73186809415164e-05 -0.0005001767712855828 0.00010041139152324282 0.0008034375438374092 0.9980035484152022 -0.003812106756175632 0.0019593828348692132 0.0014844358608809716
0.006252605252188 0.0019961656829526105 0.0018614466656590217 0.997956629366412 -0.0047659379413649864 0.00010902324041743408 0.0010046515167730153 -0.00010492212324672229 -0.0006258551629095448
 0.997956629366412 -0.0047659379413649864 0.00199616716381984 0.001861445940395628 -0.00010492363272154829 -0.0006258559604809199 0.00010900510641605897 0.0010046571654445911
 0.00010902324041743408 0.0010046515167730153 -0.00010492363272154829 -0.0006258559604809199 0.0019961651300146946 0.0018613627856602177 0.9979566288422637 -0.004766021770672425
 -0.00010492212324672229 -0.0006258551629095448 0.00010900510641605897 0.0010046571654445911 0.9979566288422637 -0.004766021770672425 0.001996166694176021 0.0018613621985778778
0.01250521050438 0.002191449163555647 0.0037615971165935952 0.9977056833178535 -0.009532359619278178 0.00015917429757573789 0.002009455012430512 -0.00014879379692257265 -0.0012545715675837264
 0.9977056833178535 -0.009532359619278178 0.002191455086248098 0.003761595711665811 -0.00014879975456204975 -0.0012545730117900313 0.0001591019575362892 0.00200946878821233
 0.00015917429757573789 0.002009455012430512 -0.00014879975456204975 -0.0012545730117900313 0.002191447521385241 0.0037614296244587865 0.9977056817735902 -0.009532527057509637
 -0.00014879379692257265 -0.0012545715675837264 0.0001591019575362892 0.00200946878821233 0.9977056817735902 -0.009532527057509637 0.002191453757199911 0.003761428664309063
0.01875781575657 0.0024065463762590307 0.005688393862550017 0.9974265976234757 -0.01431079827004887 0.00022144868690935734 0.003015059702601763 -0.00020263350442122248 -0.0018851669286201235
 0.9974265976234757 -0.01431079827004887 0.002406559704018805 0.0056883918382091055 -0.0002026468020786133 -0.0018851688309032262 0.00022128612240701091 0.0030150846157273436
 0.00022144868690935734 0.003015059702601763 -0.0002026468020786133 -0.0018851688309032262 0.0024065431393656975 0.0056881429466820645 0.9974265945688843 -0.014311049300598594
 -0.00020263350442122248 -0.0018851669286201235 0.00022128612240701091 0.0030150846157273436 0.9974265945688843 -0.014311049300598594 0.002406557133123111 0.005688141856798806
0.02501042100875 0.002641923972452581 0.00763905601291943 0.9971190039599858 -0.019103493224084812 0.00029597225230368107 0.00402146251706527 -0.0002665824852369467 -0.002517301628732962
 0.9971190039599858 -0.019103493224084812 0.00264194767596172 0.007639053446214973 -0.0002666059835526892 -0.0025173037603410955 0.0002956833971295041 0.004021502099511454
 0.00029597225230368107 0.00402146251706527 -0.0002666059835526892 -0.0025173037603410955 0.0026419186542108847 0.0076387219128581695 0.9971189988957613 -0.019103827903316817
 -0.0002665824852369467 -0.002517301628732962 0.0002956833971295041 0.004021502099511454 0.9971189988957613 -0.019103827903316817 0.002641943478020886 0.007638720968815587
0.03126302626094 0.002898029044423316 0.009612113497140935 0.9967825175825594 -0.02391135568405986 0.00038287046538575006 0.0050285637646240704 -0.00034077689896701844 -0.0031507231165360415
 0.9967825175825594 -0.02391135568405986 0.0028980661043280184 0.009612110482383583 -0.00034081343237603046 -0.0031507252081134315 0.00038241917444458296 0.00502862207500679
 0.00038287046538575006 0.0050285637646240704 -0.00034081343237603046 -0.0031507252081134315 0.0028980211817623554 0.009611696522738024 0.9967825100019604 -0.02391177412213854
 -0.00034077689896701844 -0.0031507231165360415 0.00038241917444458296 0.00502862207500679 0.9967825100019604 -0.02391177412213854 0.002898059897364388 0.00961169603345835
0.037515631513130004 0.0031752981041385554 0.011606578305357133 0.9964167467358602 -0.028734797435418406 0.00048226712039806737 0.006036224886530311 -0.000425348816409489 -0.003785208204306911
 0.9964167467358602 -0.028734797435418406 0.0031753515131012844 0.011606574954659906 -0.0004254011954573653 -0.0037852099457486347 0.00048161715588146534 0.006036306516626648
 0.00048226712039806737 0.006036224886530311 -0.0004254011954573653 -0.0037852099457486347 0.0031752872586268714 0.011606078829925716 0.9964167361231918 -0.0287352998033328
 -0.000425348816409489 -0.003785208204306911 0.00048161715588146534 0.006036306516626648 0.9964167361231918 -0.0287352998033328 0.003175342921251512 0.011606079138403062
0.043768236765320004 0.0034741605212955076 0.013621692264530267 0.9960212965276813 -0.0335739830102165 0.0005942836982647278 0.007044286034631631 -0.0005204265436303918 -0.004420545542230926
 0.9960212965276813 -0.0335739830102165 0.00347423328649304 0.013621688707967079 -0.0005204975563589428 -0.004420546582568646 0.0005933987233826526 0.007044396116432066
 0.0005942836982647278 0.007044286034631631 -0.0005204975563589428 -0.004420546582568646 0.003474146279614368 0.013621110746649602 0.9960212823546247 -0.033574569517982045
 -0.0005204265436303918 -0.004420545542230926 0.0005933987233826526 0.007044396116432066 0.9960212823546247 -0.033574569517982045 0.0034742219405373724 0.013621112230590347
0.050020842017509996 0.003795040093431315 0.01565682284443978 0.9955957709361274 -0.038428933821643634 0.0007190389630062679 0.008052573352197966 -0.0006261347130085056 -0.005056528395851419
 0.9955957709361274 -0.038428933821643634 0.0037951352380894182 0.01565681923035439 -0.0006262271255692567 -0.005056528343193758 0.0007178825397397971 0.008052717565133451
 0.0007190389630062679 0.008052573352197966 -0.0006262271255692567 -0.005056528343193758 0.0037950220704781458 0.015656159814898808 0.9955957526622697 -0.03842960473148832
 -0.0006261347130085056 -0.005056528395851419 0.0007178825397397971 0.008052717565133451 0.9955957526622697 -0.03842960473148832 0.003795120780198741 0.015656162887177492
0.055454545454549996 0.00409210032020296 0.01744123421368592 0.9952012438982971 -0.04266078340207467 0.0008378904153633105 0.008928846359376404 -0.0007267255594954433 -0.005609581307446109
 0.9952012438982971 -0.04266078340207467 0.004092217382935998 0.01744123068429879 -0.0007268387989180088 -0.005609579954838186 0.0008364684243680491 0.008929025276438561
 0.0008378904153633105 0.008928846359376404 -0.0007268387989180088 -0.005609579954838186 0.004092078720058068 0.017440500846458627 0.9952012216088514 -0.04266152790199855
 -0.0007267255594954433 -0.005609581307446109 0.0008364684243680491 0.008929025276438561 0.9952012216088514 -0.04266152790199855 0.0040921999389053896 0.017440505662000772
0.056273447269699996 0.004138355823056031 0.01771141199299516 0.9951397740329998 -0.04329957927506176 0.0008566486622454598 0.009060902557727226 -0.0007425942684885079 -0.005692951128503189
 0.9951397740329998 -0.04329957927506176 0.004138476389063258 0.01771140848803762 -0.0007427108255554523 -0.005692949549961239 0.0008551842512702034 0.009061087136081987
 0.0008566486622454598 0.009060902557727226 -0.0007427108255554523 -0.005692949549961239 0.004138333661965475 0.01771066806726248 0.9951397511014652 -0.043300334888799454
 -0.0007425942684885079 -0.005692951128503189 0.0008551842512702034 0.009061087136081987 0.9951397511014652 -0.043300334888799454 0.004138458473148164 0.01771067317636393
0.06252605252188 0.004504522299039017 0.019784948039812192 0.9946529108136954 -0.04818578481872844 0.0010072252799375211 0.01006908093846024 -0.0008699223967038503 -0.006329607283191342
 0.9946529108136954 -0.04818578481872844 0.004504671348395981 0.019784944829081504 -0.0008700658215461729 -0.0063296037048483356 0.0010054162424380875 0.010069312678755821
 0.0010072252799375211 0.01006908093846024 -0.0008700658215461729 -0.0063296037048483356 0.004504495674787734 0.019784123906161608 0.9946528826519062 -0.04818662548959242
 -0.0008699223967038503 -0.006329607283191342 0.0010054162424380875 0.010069312678755821 0.9946528826519062 -0.04818662548959242 0.004504649645010062 0.01978413153645915
0.06877865777407 0.004893949866886443 0.021876948944639516 0.9941347878241892 -0.05308736865986849 0.0011708778175838395 0.011076908552401508 -0.001008232428099221 -0.006966288465763839
 0.9941347878241892 -0.05308736865986849 0.00489413048421299 0.021876946231610035 -0.0010084054226164438 -0.006966282372631616 0.0011686874180129516 0.011077194820860628
 0.0011708778175838395 0.011076908552401508 -0.0010084054226164438 -0.006966282372631616 0.004893918487127674 0.02187604537340292 0.9941347538403663 -0.05308829478294682
 -0.001008232428099221 -0.006966288465763839 0.0011686874180129516 0.011077194820860628 0.9941347538403663 -0.05308829478294682 0.004894104681661121 0.021876056045409927
0.07503126302626001 0.005307044669364482 0.0239869516915716 0.9935850136622881 -0.05800411234547764 0.0013477115932641567 0.012084179011004951 -0.001157633718800145 -0.0076027836577912886
 0.9935850136622881 -0.05800411234547764 0.005307259963671165 0.023986949698081742 -0.0011578389633192787 -0.007602774493788846 0.0013451030030668747 0.012084527750970664
 0.0013477115932641567 0.012084179011004951 -0.0011578389633192787 -0.007602774493788846 0.005307008276230134 0.023985969529601213 0.9935849732438173 -0.05800512436296843
 -0.001157633718800145 -0.0076027836577912886 0.0013451030030668747 0.012084527750970664 0.9935849732438173 -0.05800512436296843 0.00530722977116739 0.023985983800088
0.08128386827845 0.005744208607020814 0.026114505245438697 0.9930031994042615 -0.06293576779277653 0.0015378280506099333 0.013090680022379245 -0.0013182315214388394 -0.00823887877961007
 0.9930031994042615 -0.06293576779277653 0.005744461714003909 0.026114504211517953 -0.001318471674490144 -0.008238865947557994 0.0015347643525743322 0.013091099761738275
 0.0015378280506099333 0.013090680022379245 -0.001318471674490144 -0.008238865947557994 0.005744166978917222 0.026113445421789134 0.9930031519160372 -0.06293686618789619
 -0.0013182315214388394 -0.00823887877961007 0.0015347643525743322 0.013091099761738275 0.9930031519160372 -0.06293686618789619 0.0057444268642264755 0.026113463883820482
0.08753647353064001 0.006205839244003825 0.02825916568840494 0.9923889589816277 -0.06788206215167256 0.0017413245763448378 0.01409619378523232 -0.0014901268466210905 -0.008874356413763327
 0.9923889589816277 -0.06788206215167256 0.006206133328071686 0.02825916587207728 -0.0014904045447035631 -0.008874339275367989 0.0017377687695592388 0.014096693643774166
 0.0017413245763448378 0.01409619378523232 -0.0014904045447035631 -0.008874339275367989 0.006205792198323508 0.028258029208406227 0.9923889037641588 -0.06788324745394396
 -0.0014901268466210905 -0.008874356413763327 0.0017377687695592388 0.014096693643774166 0.9923889037641588 -0.06788324745394396 0.006206093580195518 0.02825805249138395
0.09378907878283 0.006692329679040343 0.030420492765474275 0.9917419095272478 -0.07284270127104332 0.001958294321910294 0.015100497293327521 -0.0016734163200238564 -0.009508995629156388
 0.9917419095272478 -0.07284270127104332 0.006692667935540964 0.030420494442447404 -0.0016737341771767586 -0.009508973505034421 0.0019542093272073143 0.01510108699008552
 0.001958294321910294 0.015100497293327521 -0.0016737341771767586 -0.009508973505034421 0.006692277073254346 0.030419280714367256 0.9917418458945169 -0.07284397405205746
 -0.0016734163200238564 -0.009508995629156388 0.0019542093272073143 0.01510108699008552 0.9917418458945169 -0.07284397405205746 0.006692623077789561 0.03041930948382807
0.100041684035 0.007204068387555191 0.03259804736174769 0.9910616716967621 -0.07781737224646706 0.002188826029504064 0.016103362581224554 -0.0018681920350137346 -0.01014257187553346
 0.9910616716967621 -0.07781737224646706 0.007204454044885998 0.032598050825081354 -0.0018685526424523124 -0.010142544045231582 0.0021841746953180246 0.01610405244172873
 0.002188826029504064 0.016103362581224554 -0.0018685526424523124 -0.010142544045231582 0.007204010121358095 0.03259676090025346 0.9910615989340599 -0.07781873312349394
 -0.0018681920350137346 -0.01014257187553346 0.0021841746953180246 0.01610405244172873 0.9910615989340599 -0.07781873312349394 0.007204403897323113 0.032596795857638035
0.1059090909091 0.0077075857570636334 0.03465581833232602 0.9903928216218786 -0.08249804163840767 0.0024175650732144753 0.017042930000121373 -0.002061492923657466 -0.010735945972758433
 0.9903928216218786 -0.08249804163840767 0.007708018862868309 0.034655823753557725 -0.002061895983734004 -0.010735912096019932 0.00241234844149111 0.01704372379120828
 0.0024175650732144753 0.017042930000121373 -0.002061895983734004 -0.010735912096019932 0.007707522127555616 0.034654463172651376 0.9903927396145985 -0.08249948578032264
 -0.002061492923657466 -0.010735945972758433 0.00241234844149111 0.01704372379120828 0.9903927396145985 -0.08249948578032264 0.0077079636185505085 0.03465450460642736
0.1062942892872 0.007741439045517491 0.03479138961527232 0.9903478699752504 -0.08280574534597201 0.002433003861043514 0.01710455693148429 -0.0020745414027995737 -0.010774856928251529
 0.9903478699752504 -0.08280574534597201 0.007741875367512253 0.03479139517492907 -0.0020749473285355596 -0.010774822630294608 0.002427748969613762 0.017105357894948683
 0.002433003861043514 0.01710455693148429 -0.0020749473285355596 -0.010774822630294608 0.007741375062957835 0.03479002998484329 0.9903477873374195 -0.08280719497580975
 -0.0020745414027995737 -0.010774856928251529 0.002427748969613762 0.017105357894948683 0.9903477873374195 -0.08280719497580975 0.007741819784827681 0.034790071867204654
0.11254689453939999 0.008304820337537816 0.037000077500372194 0.9896001329710459 -0.08780747547917613 0.002690907229443386 0.018103843055922386 -0.00229254700124056 -0.01140561887085249
 0.9896001329710459 -0.08780747547917613 0.008305310625580532 0.037000085482730684 -0.0022930007895035835 -0.011405577302779368 0.002685011503288792 0.018104766682444307
 0.002690907229443386 0.018103843055922386 -0.0022930007895035835 -0.011405577302779368 0.008304750629300339 0.036998646018218034 0.9896000396806748 -0.08780901456204879
 -0.00229254700124056 -0.01140561887085249 0.002685011503288792 0.018104766682444307 0.9896000396806748 -0.08780901456204879 0.008305249500419332 0.036998695597803506
0.11879949979160001 0.008894585755086396 0.03922366573083466 0.9888180937033824 -0.0928222033609513 0.0029626106323043517 0.019100979262849725 -0.0025222864221887843 -0.012034622103889503
 0.9888180937033824 -0.0928222033609513 0.008895133350600935 0.03922367647802099 -0.0025227905931121167 -0.01203457242233226 0.0029560367412279696 0.01910203774034703
 0.0029626106323043517 0.019100979262849725 -0.0025227905931121167 -0.01203457242233226 0.00889451035997111 0.03922216378960551 0.9888179889482254 -0.0928238326396628
 -0.0025222864221887843 -0.012034622103889503 0.0029560367412279696 0.01910203774034703 0.9888179889482254 -0.0928238326396628 0.008895066615662375 0.039222221873318086
0.1250521050438 0.009511103384096645 0.04146170490722319 0.9880013898802227 -0.09784955644537699 0.0032481834879757743 0.02009571961073485 -0.0027638321188070396 -0.012661627379365284
 0.9880013898802227 -0.09784955644537699 0.009511711670566627 0.041461718776509886 -0.002764389167755571 -0.012661568700129433 0.003240894056036429 0.020096925762013728
 0.0032481834879757743 0.02009571961073485 -0.002764389167755571 -0.012661568700129433 0.00951102239159994 0.041460133976891446 0.9880012728118573 -0.09785127670212178
 -0.0027638321188070396 -0.012661627379365284 0.003240894056036429 0.020096925762013728 0.9880012728118573 -0.09785127670212178 0.00951163930242223 0.041460201405615495
0.131304710296 0.010154735687376359 0.043713740862098394 0.987149664173944 -0.10288914967657078 0.003547689972991515 0.02108781405826241 -0.003017251253113102 -0.013286391851220884
 0.987149664173944 -0.10288914967657078 0.010155408092955696 0.04371375822504948 -0.0030178636502199646 -0.013286323249368568 0.00353964758611493 0.02108918134779934
 0.003547689972991515 0.02108781405826241 -0.0030178636502199646 -0.013286323249368568 0.010154649239061083 0.04371210248598568 0.9871495339049985 -0.10289096173541358
 -0.003017251253113102 -0.013286391851220884 0.00353964758611493 0.02108918134779934 0.9871495339049985 -0.10289096173541358 0.010155330114128723 0.043712180133926505
0.1375573155481 0.010688070251017213 0.045685711233107676 0.9864004078611102 -0.10764678936383902 0.003826358547314146 0.02204873782446564 -0.003247791297017227 -0.01388041680317064
 0.9864004078611102 -0.10764678936383902 0.010688809578781395 0.045685731677432166 -0.0032484624749934523 -0.013880338084484422 0.003817547224732535 0.022050265568684262
 0.003826358547314146 0.02204873782446564 -0.0032484624749934523 -0.013880338084484422 0.01068797715419499 0.045684007361057516 0.986400263744466 -0.10764869375748717
 -0.003247791297017227 -0.01388041680317064 0.003817547224732535 0.022050265568684262 0.986400263744466 -0.10764869375748717 0.010688726932439042 0.04568409409705254
0.1438099208003 0.011240428571203682 0.047645390594720616 0.9856242458862539 -0.11239044589126451 0.004116214105015797 0.023004589422705512 -0.003487467596913245 -0.014469796448416969
 0.9856242458862539 -0.11239044589126451 0.011241238185309749 0.047645414390208425 -0.0034882001633808847 -0.014469706700770612 0.004106600237602422 0.023006290031127533
 0.004116214105015797 0.023004589422705512 -0.0034882001633808847 -0.014469706700770612 0.011240328802382248 0.04764362292161448 0.985624087028201 -0.11239244343289505
 -0.003487467596913245 -0.014469796448416969 0.004106600237602422 0.023006290031127533 0.985624087028201 -0.11239244343289505 0.011241151127815622 0.04764371939385213
0.1500625260525 0.01181158552102174 0.049592559186574875 0.984821408692234 -0.11711994412827571 0.004417136326245667 0.02395523312643205 -0.003736163117939221 -0.01505440422586125
 0.984821408692234 -0.11711994412827571 0.011812468817306864 0.04959258660530844 -0.0037369596680427936 -0.015054302501193616 0.004406686512988277 0.023957119470617072
 0.004417136326245667 0.02395523312643205 -0.0037369596680427936 -0.015054302501193616 0.011811479092074919 0.049590729476132224 0.9848212341656031 -0.11712203565789911
 -0.003736163117939221 -0.01505440422586125 0.004406686512988277 0.023957119470617072 0.9848212341656031 -0.11712203565789911 0.011812377661418103 0.049590836344519204
0.15631513130469998 0.012401314003415568 0.051527003840949354 0.9839921283079908 -0.12183511089797425 0.004729003247255742 0.02490053598817409 -0.003993759184322326 -0.015634116662324987
 0.9839921283079908 -0.12183511089797425 0.012402274410327126 0.05152703515613785 -0.00399462230039699 -0.0156340019769768 0.0047176842980143335 0.02490262139730895
