! Created with skrf 1.8.0 (http://scikit-rf.org).
# GHz S RI R 50.0 
!freq ReS11 ImS11 ReS12 ImS12 ReS13 ImS13
! ReS14 ImS14
! ReS21 ImS21 ReS22 ImS22 ReS23 ImS23
! ReS24 ImS24
! ReS31 ImS31 ReS32 ImS32 ReS33 ImS33
! ReS34 ImS34
! ReS41 ImS41 ReS42 ImS42 ReS43 ImS43
! ReS44 ImS44
!
0.0 0.001540178467341 0.0 0.9984598215254 0.0 5.96906361644e-05 0.0 -5.969063618673e-05 7.309994654514806e-21
 0.9984598215254 0.0 0.001540178467341 0.0 -5.969063618691e-05 7.30999465453685e-21 5.969063616486e-05 0.0
 5.96906361644e-05 0.0 -5.969063618691e-05 7.30999465453685e-21 0.001540178469305 0.0 0.9984598215273 0.0
 -5.969063618673e-05 7.309994654514806e-21 5.969063616486e-05 0.0 0.9984598215273 0.0 0.001540178469291 0.0
0.005 0.001657154146047832 0.0012545883473734684 0.9983118087844782 -0.0032266183051751045 8.447700203396569e-05 0.000690034362591374 -8.181824862449338e-05 -0.00042748004181874323
 0.9983118087844782 -0.0032266183051751045 0.0016571699886817266 0.0012545790353874853 -8.181780593605713e-05 -0.0004274796411754644 8.438384603135125e-05 0.0006900698509192289
 8.447700203396569e-05 0.000690034362591374 -8.181780593605713e-05 -0.0004274796411754644 0.0016571550164375453 0.0012546550648554393 0.9983118091340623 -0.003226551231994626
 -8.181824862449338e-05 -0.00042748004181874323 8.438384603135125e-05 0.0006900698509192289 0.9983118091340623 -0.003226551231994626 0.001657169812617611 0.0012546464601734134
0.006252605252188 0.0016878304680514402 0.0015731960109856683 0.9982727440196342 -0.004034064506599338 9.156845038463586e-05 0.0008628615751303032 -8.806992953124414e-05 -0.0005349101453076566
 0.9982727440196342 -0.004034064506599338 0.0016878552334961914 0.001573184179473065 -8.80692411501708e-05 -0.0005349096500358594 9.142290288091429e-05 0.0008629076527413427
 9.156845038463586e-05 0.0008628615751303032 -8.80692411501708e-05 -0.0005349096500358594 0.0016878317656942102 0.001573279375656549 0.9982727445028413 -0.0040339806893070155
 -8.806992953124414e-05 -0.0005349101453076566 9.142290288091429e-05 0.0008629076527413427 0.9982727445028413 -0.0040339806893070155 0.0016878548944442857 0.0015732684401642731
0.01250521050438 0.0018493009286210474 0.0031795481372826613 0.9980657371661629 -0.008068961325045155 0.0001322887471664419 0.0017259772080110009 -0.00012356389802603711 -0.0010724440341575716
 0.9980657371661629 -0.008068961325045155 0.001849399826276935 0.003179522542092785 -0.0001235611910304804 -0.001072443103472297 0.00013170833908904083 0.0017260878886700848
 0.0001322887471664419 0.0017259772080110009 -0.0001235611910304804 -0.001072443103472297 0.001849305566920799 0.003179714533159177 0.998065738547019 -0.008068793924132754
 -0.00012356389802603711 -0.0010724440341575716 0.00013170833908904083 0.0017260878886700848 0.998065738547019 -0.008068793924132754 0.0018493979144551533 0.003179690861077025
0.01875781575657 0.0020249432349303035 0.004808907006282344 0.9978385432612739 -0.012114515554065395 0.00018194480770889978 0.002589958731785397 -0.0001662827444575949 -0.0016117826914239799
 0.9978385432612739 -0.012114515554065395 0.002025165480080095 0.004808865574020668 -0.0001662767158047395 -0.001611781394589784 0.0001806409881640832 0.0025901561644694664
 0.00018194480770889978 0.002589958731785397 -0.0001662767158047395 -0.001611781394589784 0.0020249532424609275 0.00480915620024689 0.9978385459398692 -0.012114264650941769
 -0.0001662827444575949 -0.0016117826914239799 0.0001806409881640832 0.0025901561644694664 0.9978385459398692 -0.012114264650941769 0.0020251607406176716 0.004809117884133884
0.02501042100875 0.0022151002519471045 0.0064589789485163755 0.9975908944432363 -0.016172685892810814 0.00024063164406900044 0.003454848044065371 -0.0002163329018183499 -0.0021526711030983334
 0.9975908944432363 -0.016172685892810814 0.0022154949712832844 0.006458919481219958 -0.00021632226658566673 -0.0021526695202467795 0.00023831575598068315 0.0034551578746985193
 0.00024063164406900044 0.003454848044065371 -0.00021632226658566673 -0.0021526695202467795 0.0022151176653209767 0.006459310700741247 0.9975908988274471 -0.016172351523872218
 -0.0002163329018183499 -0.0021526711030983334 0.00023831575598068315 0.0034551578746985193 0.9975908988274471 -0.016172351523872218 0.002215486147456921 0.006459255742741213
0.03126302626094 0.002420100624016849 0.00812858209257957 0.9973225092203813 -0.02024430852272251 0.00030844487260867445 0.004320603585337368 -0.0002738176911644075 -0.0026949316847841133
 0.9973225092203813 -0.02024430852272251 0.002420716882183756 0.008128502270710929 -0.0002738011793704992 -0.0026949299070469653 0.0003048278848045127 0.004321054976725695
 0.00030844487260867445 0.004320603585337368 -0.0002738011793704992 -0.0026949299070469653 0.002420127481682716 0.008128996132556972 0.9973225157200656 -0.020243890702988324
 -0.0002738176911644075 -0.0026949316847841133 0.0003048278848045127 0.004321054976725695 0.9973225157200656 -0.020243890702988324 0.0024207027091210534 0.008128922447647588
0.037515631513130004 0.0026402658360121073 0.009816944670556696 0.9970330997581127 -0.024329798742540716 0.0003854796876453636 0.005187150876466127 -0.0003388381095277722 -0.00323841374235834
 0.9970330997581127 -0.024329798742540716 0.002641152653410223 0.009816842054371283 -0.00033881446450420447 -0.0032384118718853266 0.0003802720752375363 0.005187776543309598
 0.0003854796876453636 0.005187150876466127 -0.00033881446450420447 -0.0032384118718853266 0.0026403041753059945 0.009817440704746832 0.9970331087829866 -0.024329297457593692
 -0.0003388381095277722 -0.00323841374235834 0.0003802720752375363 0.005187776543309598 0.9970331087829866 -0.024329297457593692 0.0026411318549291658 0.009817346122520726
0.043768236765320004 0.0028759129387276434 0.01152349151474108 0.9967223748322356 -0.028429364402735118 0.00047183037939099205 0.006054397899005414 -0.0004114931149465732 -0.003782978093464354
 0.9967223748322356 -0.028429364402735118 0.002877119305460556 0.011523363544920262 -0.00041146109230955183 -0.003782976243391745 0.0004647420675957403 0.006055234147600468
 0.00047183037939099205 0.006054397899005414 -0.00041146109230955183 -0.003782976243391745 0.0028759647971478854 0.011524069209350379 0.9967223867942621 -0.02842877962544694
 -0.0004114931149465732 -0.003782978093464354 0.0004647420675957403 0.006055234147600468 0.9967223867942621 -0.02842877962544694 0.002877090595728493 0.011523951475172814
0.050020842017509996 0.003127355813627949 0.013247755801453903 0.9963900413268487 -0.03254309409099074 0.0005675900465665724 0.006922241444087403 -0.000491879730002793 -0.004328490723544418
 0.9963900413268487 -0.03254309409099074 0.0031289307015955866 0.013247599799313543 -0.0004918380969013723 -0.00432848901795786 0.0005583303880869988 0.006923328213938342
 0.0005675900465665724 0.006922241444087403 -0.0004918380969013723 -0.00432848901795786 0.0031274232284933556 0.013248414783761337 0.9963900566412632 -0.03254242577984187
 -0.000491879730002793 -0.004328490723544418 0.0005583303880869988 0.006923328213938342 0.9963900566412632 -0.03254242577984187 0.0031288927855576297 0.013248271559406373
0.055454545454549996 0.003358937266017587 0.014760269237245098 0.9960834562160825 -0.03612956395470546 0.0006585205986973924 0.007676821974706006 -0.0005680910616738421 -0.004803225343448338
 0.9960834562160825 -0.03612956395470546 0.003360872175602868 0.014760086605883039 -0.0005680400841641842 -0.004803223872671667 0.0006471374864932499 0.007678161744527678
 0.0006585205986973924 0.007676821974706006 -0.0005680400841641842 -0.004803223872671667 0.003359019853512508 0.014760998526711968 0.9960834747832515 -0.03612882300621462
 -0.0005680910616738421 -0.004803225343448338 0.0006471374864932499 0.007678161744527678 0.9960834747832515 -0.03612882300621462 0.0033608251995026987 0.014760831187065695
0.056273447269699996 0.0033949058218076377 0.014989335733862384 0.99603580512003 -0.03667100038021323 0.000672850395236666 0.007790570233979358 -0.0005800930637461193 -0.004874819672858332
 0.99603580512003 -0.03667100038021323 0.0033968981959541784 0.014989148901121203 -0.0005800405984000641 -0.00487481824675307 0.000661128168028588 0.007791951140221561
 0.000672850395236666 0.007790570233979358 -0.0005800405984000641 -0.00487481824675307 0.003394990829371625 0.014990075592138991 0.9960358242051389 -0.0366702484788775
 -0.0005800930637461193 -0.004874819672858332 0.000661128168028588 0.007791951140221561 0.9960358242051389 -0.0366702484788775 0.0033968497686532474 0.014989904456177596
0.06252605252188 0.0036788721495509616 0.016747870740259355 0.9956593716698924 -0.040813043563853575 0.0007877015788979758 0.008659266634140201 -0.0006762262940607743 -0.005421833337071949
 0.9956593716698924 -0.040813043563853575 0.003681330978218538 0.016747650158560848 -0.0006761617853203714 -0.005421832336308779 0.0007732249973747714 0.008660989010259528
 0.0007877015788979758 0.008659266634140201 -0.0006761617853203714 -0.005421832336308779 0.0036789767838110382 0.016748691020203883 0.9956593949476279 -0.04081220800439362
 -0.0006762262940607743 -0.005421833337071949 0.0007732249973747714 0.008660989010259528 0.9956593949476279 -0.04081220800439362 0.0036812707246647015 0.016748489467901428
0.06877865777407 0.00397956198682172 0.018523027269416795 0.9952604464377177 -0.04496914579808039 0.0009122320623579376 0.009528207682788295 -0.0007803706263041213 -0.005969399454738093
 0.9952604464377177 -0.04496914579808039 0.003982536251998143 0.01852276989947074 -0.0007802928733594255 -0.005969399036006059 0.0008947087980806104 0.009530322623354766
 0.0009122320623579376 0.009528207682788295 -0.0007802928733594255 -0.005969399036006059 0.003979688279579336 0.018523927478119467 0.9952604743348626 -0.04496822649655856
 -0.0007803706263041213 -0.005969399454738093 0.0008947087980806104 0.009530322623354766 0.9952604743348626 -0.04496822649655856 0.003982462847698427 0.018523692921150886
0.07503126302626001 0.0042972806110802165 0.020314489799213263 0.9948387352208943 -0.04913920003506938 0.0010465284997670794 0.010397265744912672 -0.0008926152372833675 -0.006517384475008873
 0.9948387352208943 -0.04913920003506938 0.004300819318522715 0.020314192479640527 -0.0008925230494267061 -0.0065173848057898465 0.0010256657093042551 0.010399828148121543
 0.0010465284997670794 0.010397265744912672 -0.0008925230494267061 -0.0065173848057898465 0.00429743058985842 0.02031546940133754 0.9948387681682069 -0.04913819689506907
 -0.0008926152372833675 -0.006517384475008873 0.0010256657093042551 0.010399828148121543 0.9948387681682069 -0.04913819689506907 0.004300731428115904 0.02031519916703587
0.08128386827845 0.004632331406231224 0.02212195484515085 0.994393944423387 -0.0533230759614258 0.001190675620835424 0.01126630895493787 -0.0010130472102871072 -0.0070656531415503295
 0.994393944423387 -0.0533230759614258 0.004636483594981132 0.022121614290980116 -0.0010129394066872577 -0.007065654400074367 0.001166179979145849 0.011269377564841802
 0.001190675620835424 0.01126630895493787 -0.0010129394066872577 -0.007065654400074367 0.004632507094274799 0.02212301326289971 0.9943939828570584 -0.053321988873726356
 -0.0010130472102871072 -0.0070656531415503295 0.001166179979145849 0.011269377564841802 0.9943939828570584 -0.053321988873726356 0.004636379873145932 0.02212270459330061
0.08753647353064001 0.004985015842791653 0.023945126825870734 0.9939257812922724 -0.05752062408478624 0.001344756123201567 0.012135201525538994 -0.0011417514629375178 -0.007614068215413041
 0.9939257812922724 -0.05752062408478624 0.004989830595357927 0.023944739626698 -0.0011416268724731263 -0.007614070590632794 0.00131633386156107 0.012138838973847408
 0.001344756123201567 0.012135201525538994 -0.0011416268724731263 -0.007614070590632794 0.004985219257945596 0.023946263437875905 0.9939258256543237 -0.0575194529281721
 -0.0011417514629375178 -0.007614068215413041 0.00131633386156107 0.012138838973847408 0.9939258256543237 -0.0575194529281721 0.004989709686399243 0.023945913488270715
0.09378907878283 0.005355633429222609 0.025783715107069487 0.9934339541285666 -0.0617316786476163 0.0015088505679732166 0.013003803979779486 -0.0012788106709959754 -0.008162490279749371
 0.9934339541285666 -0.0617316786476163 0.00536115988104352 0.025783277724916585 -0.001278668132087993 -0.008162493971305139 0.0014762075156308076 0.013008076827132491
 0.0015088505679732166 0.013003803979779486 -0.001278668132087993 -0.008162493971305139 0.0053558665827488335 0.025784929248340725 0.9934340048668953 -0.061730423288661976
 -0.0012788106709959754 -0.008162490279749371 0.0014762075156308076 0.013008076827132491 0.9934340048668953 -0.061730423288661976 0.005361020418757456 0.025784535085589276
0.100041684035 0.0057444816428139514 0.027637431836181073 0.9929181724804669 -0.06595605975601618 0.001683037277974032 0.013871973323509106 -0.0014243051884495314 -0.008710777609622276
 0.9929181724804669 -0.06595605975601618 0.0057507689923681155 0.027636940602915758 -0.0014241435489731106 -0.008710782827802568 0.0016458789070603874 0.01387695210021443
 0.001683037277974032 0.013871973323509106 -0.0014241435489731106 -0.008710782827802568 0.005744746538651258 0.027638722799420628 0.9929182300495837 -0.06595472004755946
 -0.0014243051884495314 -0.008710777609622276 0.0016458789070603874 0.01387695210021443 0.9929182300495837 -0.06595472004755946 0.005750609599794646 0.027638281399833358
0.1059090909091 0.00612621813861948 0.029390452136592703 0.9924121222921366 -0.06993214246101673 0.0018557395520734273 0.014686133921155406 -0.0015685776515296746 -0.00922503622223843
 0.9924121222921366 -0.06993214246101673 0.006133264319864669 0.029389906915207792 -0.0015683970486239623 -0.009225043073723831 0.0018140758876131569 0.01469184285558042
 0.0018557395520734273 0.014686133921155406 -0.0015683970486239623 -0.009225043073723831 0.006126514636344665 0.029391814505153414 0.9924121866912593 -0.06993072345620105
 -0.0015685776515296746 -0.00922503622223843 0.0018140758876131569 0.01469184285558042 0.9924121866912593 -0.06993072345620105 0.006133084963188174 0.029391325945967404
0.1062942892872 0.006151855845506065 0.02950599031783853 0.9923781473255822 -0.07019357497396018 0.0018673922380203908 0.014739563185986577 -0.0015783129648319892 -0.009258786079138001
 0.9923781473255822 -0.07019357497396018 0.006158953363712893 0.029505441432318015 -0.0015781310819553865 -0.00925879304486541 0.0018254237113123175 0.014745322432094827
 0.0018673922380203908 0.014739563185986577 -0.0015781310819553865 -0.00925879304486541 0.00615215447916815 0.029507357350631667 0.9923782121873957 -0.07019215075768338
 -0.0015783129648319892 -0.009258786079138001 0.0018254237113123175 0.014745322432094827 0.9923782121873957 -0.07019215075768338 0.006158772653356403 0.029506865597505594
0.11254689453939999 0.006578049188386359 0.031389103772386434 0.9918135912447366 -0.07444402054047018 0.0020619889959510996 0.015606423934159903 -0.0017409094609473826 -0.009806369100524836
 0.9918135912447366 -0.07444402054047018 0.006586006229093652 0.03138849329714791 -0.0017407062010885302 -0.009806378045314078 0.0020149152172185456 0.015613042238813164
 0.0020619889959510996 0.015606423934159903 -0.0017407062010885302 -0.009806378045314078 0.006578383546028633 0.03139054607802576 0.9918136638684499 -0.07444251164589755
 -0.0017409094609473826 -0.009806369100524836 0.0020149152172185456 0.015613042238813164 0.9918136638684499 -0.07444251164589755 0.006585802802386322 0.031390000758735354
0.11879949979160001 0.007023352507212717 0.033286484375085565 0.9912242185887533 -0.07870718231276859 0.0022668985652042777 0.016472402771653797 -0.0019121675626565112 -0.010353377584140271
 0.9912242185887533 -0.07870718231276859 0.007032218516515686 0.033285808232762 -0.001911941801328822 -0.010353388750082826 0.002214424231713676 0.016479962811765638
 0.0022668985652042777 0.016472402771653797 -0.001911941801328822 -0.010353388750082826 0.007023724564581665 0.033288001112853474 0.9912242994520334 -0.0787055885569357
 -0.0019121675626565112 -0.010353377584140271 0.002214424231713676 0.016479962811765638 0.9912242994520334 -0.0787055885569357 0.00703199096427435 0.03328739891560557
0.1250521050438 0.007488054210933683 0.03519784249372672 0.9906097456427784 -0.08298283651764164 0.0024821893277076363 0.01733734382331931 -0.0020921574936808443 -0.01089965991892451
 0.9906097456427784 -0.08298283651764164 0.0074978787374041745 0.03519709646289513 -0.0020919081154574842 -0.010899673558687078 0.00242401898501635 0.01734593240134837
 0.0024821893277076363 0.01733734382331931 -0.0020919081154574842 -0.010899673558687078 0.0074884659321384755 0.035199432779397646 0.9906098352317639 -0.08298115770441322
 -0.0020921574936808443 -0.01089965991892451 0.00242401898501635 0.01734593240134837 0.9906098352317639 -0.08298115770441322 0.007497625639177429 0.03519877028952724
0.131304710296 0.007972440163893214 0.037122886087488295 0.9899698907853118 -0.08727075034823885 0.0027079269376953396 0.018201088215356764 -0.002280946727409594 -0.011445061963064048
 0.9899698907853118 -0.08727075034823885 0.007983272868630953 0.03712206579831432 -0.0022806726258507094 -0.011445078339816893 0.002643765036344155 0.01821079629631918
 0.0027079269376953396 0.018201088215356764 -0.0022806726258507094 -0.011445078339816893 0.007972893500504225 0.03712454899056167 0.9899699895951342 -0.08726898627108359
 -0.002280946727409594 -0.011445061963064048 0.002643765036344155 0.01821079629631918 0.9899699895951342 -0.08726898627108359 0.007982992792710203 0.03712382268645653
0.1375573155481 0.008366008966670427 0.038809040856456464 0.9894152018121349 -0.09131829403512204 0.002916146057770429 0.019037958748613887 -0.0024506496911929757 -0.011963875039915669
 0.9894152018121349 -0.09131829403512204 0.008377902206974642 0.038808159647571755 -0.0024503490564080194 -0.01196389416586987 0.0028458442176536327 0.019048772564695577
 0.002916146057770429 0.019037958748613887 -0.0024503490564080194 -0.01196389416586987 0.008366505071640346 0.038810775882978994 0.9894153102661065 -0.09131644458818246
 -0.0024506496911929757 -0.011963875039915669 0.0028458442176536327 0.019048772564695577 0.9894153102661065 -0.09131644458818246 0.008377594649803722 0.03880999924143501
0.1438099208003 0.008773419197842927 0.04048619491523266 0.9888409906242706 -0.09535548070570307 0.003132791241603862 0.019871404926304296 -0.002627149204204084 -0.012479587665045958
 0.9888409906242706 -0.09535548070570307 0.008786423167085874 0.04048524950636429 -0.002626820816100028 -0.01247960980348615 0.003056080368491886 0.01988340769746475
 0.003132791241603862 0.019871404926304296 -0.002626820816100028 -0.01247960980348615 0.008773959860413405 0.04048800114503301 0.9888411092157374 -0.09535354568923356
 -0.002627149204204084 -0.012479587665045958 0.003056080368491886 0.01988340769746475 0.9888411092157374 -0.09535354568923356 0.008786086849713355 0.04048717167760965
0.1500625260525 0.00919452579800859 0.042154205186745716 0.9882474064396545 -0.09938220729295126 0.0033577877867871334 0.02070133986216594 -0.0028103732987416617 -0.01299211877306223
 0.9882474064396545 -0.09938220729295126 0.00920869080518901 0.04215319210210282 -0.0028100159373356417 -0.01299214419833512 0.003274400398088795 0.020714617843606255
 0.0033577877867871334 0.02070133986216594 -0.0028100159373356417 -0.01299214419833512 0.009195112785661536 0.042156081663810546 0.9882475356694839 -0.09938018650107593
 -0.0028103732987416617 -0.01299211877306223 0.003274400398088795 0.020714617843606255 0.9882475356694839 -0.09938018650107593 0.009208324449246623 0.04215519671478076
0.15631513130469998 0.009629182655612719 0.043812932914746576 0.9876345992600238 -0.10339837115584281 0.003591060095485259 0.02152767814114343 -0.00300024910916582 -0.013501389029017452
 0.9876345992600238 -0.10339837115584281 0.009644559129119922 0.043811848477860946 -0.0029998615546850617 -0.013501418026529557 0.003500730345049361 0.021542320591280896
