! Created with skrf 1.8.0 (http://scikit-rf.org).
# GHz S RI R 50.0 
!freq ReS11 ImS11 ReS12 ImS12 ReS13 ImS13
! ReS14 ImS14
! ReS21 ImS21 ReS22 ImS22 ReS23 ImS23
! ReS24 ImS24
! ReS31 ImS31 ReS32 ImS32 ReS33 ImS33
! ReS34 ImS34
! ReS41 ImS41 ReS42 ImS42 ReS43 ImS43
! ReS44 ImS44
!
0.0 0.001587185890754 0.0 0.9984128141092 0.0 6.118496828313e-05 0.0 -6.118496828309e-05 7.49299755638185e-21
 0.9984128141092 0.0 0.001587185890759 0.0 -6.118496828318e-05 7.492997556392871e-21 6.118496828314e-05 0.0
 6.118496828313e-05 0.0 -6.118496828318e-05 7.492997556392871e-21 0.001587185886492 0.0 0.998412814105 0.0
 -6.118496828309e-05 7.49299755638185e-21 6.118496828314e-05 0.0 0.998412814105 0.0 0.001587185886492 0.0
0.005 0.0017077729893790379 0.0013003552151757325 0.9982602302160422 -0.0033245062148787 8.555051060469314e-05 0.000661815005234084 -8.308398473095209e-05 -0.0004175547500621571
 0.9982602302160422 -0.0033245062148787 0.0017078061483302473 0.0013003358142616604 -8.308064801524828e-05 -0.00041755217581746325 8.534516045325104e-05 0.0006618930051948008
 8.555051060469314e-05 0.000661815005234084 -8.308064801524828e-05 -0.00041755217581746325 0.0017077751298657437 0.0013004212112003326 0.9982602305774186 -0.0033244391403974617
 -8.308398473095209e-05 -0.0004175547500621571 8.534516045325104e-05 0.0006618930051948008 0.9982602305774186 -0.0033244391403974617 0.0017078047237462951 0.0013004039619104457
0.006252605252188 0.0017394324953174986 0.0016305446781276112 0.998219908473524 -0.004156438823467995 9.254798256033987e-05 0.0008275914836444488 -8.928000923755301e-05 -0.0005224781303588847
 0.998219908473524 -0.004156438823467995 0.001739484329650089 0.0016305201051326683 -8.927481711671216e-05 -0.000522474956315907 9.222714000927171e-05 0.0008276928112980489
 9.254798256033987e-05 0.0008275914836444488 -8.927481711671216e-05 -0.000522474956315907 0.0017394357649163246 0.0016306271432235348 0.9982199089617366 -0.0041563550032954685
 -8.928000923755301e-05 -0.0005224781303588847 9.222714000927171e-05 0.0008276928112980489 0.9982199089617366 -0.0041563550032954685 0.001739482025672045 0.0016306052684418675
0.01250521050438 0.0019062884599980675 0.0032951147946511344 0.9980059514685211 -0.008313626618687989 0.00013286763882779709 0.0016555474657333985 -0.00012450558786185426 -0.0010474522394584892
 0.9980059514685211 -0.008313626618687989 0.0019064954451283398 0.003295062390920199 -0.00012448512717262242 -0.0010474463725162247 0.00013158812215865646 0.0016557914686585215
 0.00013286763882779709 0.0016555474657333985 -0.00012448512717262242 -0.0010474463725162247 0.0019063009723619075 0.00329527938259247 0.998005952871606 -0.008313459216663167
 -0.00012450558786185426 -0.0010474522394584892 0.00013158812215865646 0.0016557914686585215 0.998005952871606 -0.008313459216663167 0.0019064856911568057 0.0032952324941646393
0.01875781575657 0.002088126700538824 0.004983256354358203 0.9977706711513085 -0.012481669379574652 0.00018223749482982268 0.0024843978229380586 -0.00016697131564707098 -0.001574177499837203
 0.9977706711513085 -0.012481669379574652 0.0020885918229701017 0.004983172566027708 -0.00016692568909738403 -0.0015741695167415777 0.0001793630360482545 0.0024848340760877594
 0.00018223749482982268 0.0024843978229380586 -0.00016692568909738403 -0.0015741695167415777 0.0020881544017835496 0.004983502798456061 0.9977706738856834 -0.012481418464372463
 -0.00016697131564707098 -0.001574177499837203 0.0001793630360482545 0.0024848340760877594 0.9977706738856834 -0.012481418464372463 0.0020885694699309325 0.004983427560035165
0.02501042100875 0.002285308584458339 0.006692601042133228 0.9975137845864166 -0.016662575864430745 0.00024075306231743386 0.003314162971883819 -0.00021678319684540577 -0.002102412468675487
 0.9975137845864166 -0.016662575864430745 0.00228613463796604 0.006692482059451725 -0.00021670262602845484 -0.0021024030517504443 0.00023564706623492734 0.0033148490139338193
 0.00024075306231743386 0.003314162971883819 -0.00021670262602845484 -0.0021024030517504443 0.0022853574114208397 0.006692929024439114 0.9975137890696615 -0.016662241464318703
 -0.00021678319684540577 -0.002102412468675487 0.00023564706623492734 0.0033148490139338193 0.9975137890696615 -0.016662241464318703 0.0022860945372140886 0.0066928219371546385
0.03126302626094 0.0024981805326985355 0.008421924656257962 0.9972349947000698 -0.02085719914916741 0.0003085103943075437 0.004144788367378577 -0.00027404419129066867 -0.0026319844596437267
 0.9972349947000698 -0.02085719914916741 0.002499470177208231 0.008421766421415467 -0.00027391899662481745 -0.0026319743980000774 0.00030053535830314995 0.004145789750629975
 0.0003085103943075437 0.004144788367378577 -0.00027391899662481745 -0.0026319743980000774 0.002498256419954012 0.008422333796125602 0.9972350013563285 -0.020856781262985506
 -0.00027404419129066867 -0.0026319844596437267 0.00030053535830314995 0.004145789750629975 0.9972350013563285 -0.020856781262985506 0.0024994071822707167 0.00842219120676968
0.037515631513130004 0.0027270813858653407 0.01017042485257682 0.9969339978887766 -0.025065958822327657 0.0003856050322161393 0.004976189649163994 -0.0003388549281365808 -0.0031627443890123313
 0.9969339978887766 -0.025065958822327657 0.0027289371870037396 0.010170223063443768 -0.0003386755186228038 -0.0031627345788881075 0.0003741222895834902 0.00497758002177443
 0.0003856050322161393 0.004976189649163994 -0.0003386755186228038 -0.0031627345788881075 0.002727190258435051 0.010170914702422748 0.9969340071417964 -0.025065457423061453
 -0.0003388549281365808 -0.0031627443890123313 0.0003741222895834902 0.00497758002177443 0.9969340071417964 -0.025065457423061453 0.002728846144288989 0.010170732808111673
0.043768236765320004 0.0029723452380951637 0.011937501365932423 0.996610487101925 -0.029289060692191633 0.00047213151533920434 0.005808266366560881 -0.00041131395104799823 -0.0036945530533972495
 0.996610487101925 -0.029289060692191633 0.0029748696987175393 0.011937251478004524 -0.0004110708182049935 -0.0036945444982663615 0.00045650111720587575 0.005810127564805325
 0.00047213151533920434 0.005808266366560881 -0.0004110708182049935 -0.0036945444982663615 0.002972493014975677 0.011938071408614219 0.9966104993792344 -0.02928847572868422
 -0.00041131395104799823 -0.0036945530533972495 0.00045650111720587575 0.005810127564805325 0.9966104993792344 -0.02928847572868422 0.0029747454502748894 0.011937846259842528
0.050020842017509996 0.0032343027526079526 0.013722665192255382 0.9962641534112169 -0.033526587531118326 0.0005681830814227749 0.006640907650143901 -0.0004915178037009273 -0.004227275465433966
 0.9962641534112169 -0.033526587531118326 0.0032375983407402615 0.013722362419505649 -0.0004912015177850158 -0.004227269276019949 0.0005477637524073323 0.006643329794749484
 0.0005681830814227749 0.006640907650143901 -0.0004912015177850158 -0.004227269276019949 0.003234495346374039 0.013723314829059061 0.9962641691446232 -0.033525918939262773
 -0.0004915178037009273 -0.004227275465433966 0.0005477637524073323 0.006643329794749484 0.9962641691446232 -0.033525918939262773 0.0032374357229102307 0.013723042331935836
0.055454545454549996 0.0034757637958187184 0.015288386560179324 0.9959444032982427 -0.03722084639078038 0.000659461615168121 0.007364864781582543 -0.0005675806157460051 -0.0046908657312653744
 0.9959444032982427 -0.03722084639078038 0.0034798127253428974 0.015288033754528455 -0.0005671931586738813 -0.004690862583060596 0.0006343587351363367 0.007367854102525676
 0.000659461615168121 0.007364864781582543 -0.0005671931586738813 -0.004690862583060596 0.003476000132989743 0.015289104822054733 0.9959444223891415 -0.037220105055623405
 -0.0005675806157460051 -0.0046908657312653744 0.0006343587351363367 0.007367854102525676 0.9959444223891415 -0.037220105055623405 0.0034796125652194567 0.015288787741809622
0.056273447269699996 0.0035132818336896417 0.015525493976730061 0.9958946869417276 -0.03777854361548374 0.0006738514570601892 0.007473995001886145 -0.0005795610388581224 -0.004760778075569587
 0.9958946869417276 -0.03777854361548374 0.0035174510074735604 0.015525133291612262 -0.0005791622462685299 -0.004760775469830715 0.0006480005949633357 0.007477076596106328
 0.0006738514570601892 0.007473995001886145 -0.0005791622462685299 -0.004760775469830715 0.0035135251494532974 0.015526222536599825 0.9958947065671727 -0.03777779130811345
 -0.0005795610388581224 -0.004760778075569587 0.0006480005949633357 0.007477076596106328 0.9958947065671727 -0.03777779130811345 0.0035172448503188497 0.015525898454046108
0.06252605252188 0.0038096079812533087 0.017345607534649567 0.9955017774898458 -0.042044879136119484 0.0007892266898475072 0.008307403827004537 -0.0006755361908401313 -0.005294927256895468
 0.9955017774898458 -0.042044879136119484 0.0038147532137828557 0.017345183667177497 -0.0006750456125150482 -0.005294929559973738 0.0007573003953702167 0.008311251855294254
 0.0007892266898475072 0.008307403827004537 -0.0006750456125150482 -0.005294929559973738 0.0038099079166099906 0.017346414256903517 0.9955018014488539 -0.04204404301942037
 -0.0006755361908401313 -0.005294927256895468 0.0007573003953702167 0.008311251855294254 0.9955018014488539 -0.04204404301942037 0.0038144983405075665 0.017346034209191032
0.06877865777407 0.004123604473402716 0.019182653212397486 0.9950851149736705 -0.04632550477307404 0.0009143970054729191 0.00914100435474438 -0.0007795337262320691 -0.005829588406002507
 0.9950851149736705 -0.04632550477307404 0.004129828275819331 0.019182160648513857 -0.000778942156456246 -0.005829597050160901 0.0008757501324982706 0.009145734381385683
 0.0009143970054729191 0.00914100435474438 -0.000778942156456246 -0.005829597050160901 0.004123966916290992 0.01918353726719096 0.9950851437125929 -0.04632458472525463
 -0.0007795337262320691 -0.005829588406002507 0.0008757501324982706 0.009145734381385683 0.9950851437125929 -0.04632458472525463 0.0041295195014764766 0.01918309673167871
0.07503126302626001 0.0044555924455453476 0.021036296646201606 0.9946443897842879 -0.05062030087743265 0.0010494486789085424 0.009974662228286106 -0.0008916419811127511 -0.0063646253798775995
 0.9946443897842879 -0.05062030087743265 0.004462997390241853 0.02103572962542839 -0.0008909402868655955 -0.006364641904426092 0.0010034349005308052 0.009980398495556193
 0.0010494486789085424 0.009974662228286106 -0.0008909402868655955 -0.006364641904426092 0.004456023274897521 0.021037257115703395 0.9946444237564076 -0.05061929676675554
 -0.0008916419811127511 -0.0063646253798775995 0.0010034349005308052 0.009980398495556193 0.9946444237564076 -0.05061929676675554 0.004462629522507015 0.02103675142583661
0.08128386827845 0.004805890905665287 0.02290621558798002 0.9941792930774483 -0.05492912359174544 0.0011944659144635908 0.01080823890131555 -0.0010119470896066175 -0.006899900131491278
 0.9941792930774483 -0.05492912359174544 0.004814579649211194 0.022905568100181933 -0.0010111262101269215 -0.006899926182699878 0.0011404378015257026 0.010815114426881989
 0.0011944659144635908 0.01080823890131555 -0.0010111262101269215 -0.006899926182699878 0.00480639598956058 0.02290725147746108 0.994179332742949 -0.05492803526458093
 -0.0010119470896066175 -0.006899900131491278 0.0011404378015257026 0.010815114426881989 0.994179332742949 -0.05492803526458093 0.004814147487279127 0.022906675820995974
0.08753647353064001 0.005174816706992304 0.02479209565469567 0.99368951702658 -0.059251809052741036 0.0013495307318412766 0.011641591921948538 -0.0011405329063983954 -0.007435272463612081
 0.99368951702658 -0.059251809052741036 0.005184892012878681 0.024791361436169043 -0.001139583853050332 -0.007435309794604965 0.001286839841084114 0.01164974859525266
 0.0013495307318412766 0.011641591921948538 -0.001139583853050332 -0.007435309794604965 0.005175401902126401 0.024793205882861265 0.9936895628531315 -0.059250636342506664
 -0.0011405329063983954 -0.007435272463612081 0.001286839841084114 0.01164974859525266 0.9936895628531315 -0.059250636342506664 0.005184390347421415 0.02479255529931232
0.09378907878283 0.005562684490880285 0.026693627284978223 0.9931747550495553 -0.06358817639300343 0.001514722855953069 0.012474575141860556 -0.0012774809247357451 -0.007970599862979396
 0.9931747550495553 -0.06358817639300343 0.005574249252381718 0.026692799813582645 -0.001276394781010217 -0.00797065033361743 0.0014427198268725766 0.012484163819392035
 0.001514722855953069 0.012474575141860556 -0.001276394781010217 -0.00797065033361743 0.0055633556410641435 0.026694810685583856 0.9931748075129294 -0.06358691911778602
 -0.0012774809247357451 -0.007970599862979396 0.0014427198268725766 0.012484163819392035 0.9931748075129294 -0.06358691911778602 0.005573672864944747 0.026694080062813364
0.100041684035 0.005969806607666031 0.028610503509185526 0.9926347020171664 -0.06793802993575615 0.0016901196092796585 0.01330703887921585 -0.0014228701915993598 -0.008505737386685567
 0.9926347020171664 -0.06793802993575615 0.005982963870239402 0.028609575998902497 -0.0014216381132634666 -0.008505802963445448 0.0016081542680171333 0.013318219478324516
 0.0016901196092796585 0.01330703887921585 -0.0014216381132634666 -0.008505802963445448 0.005970569543080521 0.028611758833804075 0.9926347616021794 -0.06793668789490626
 -0.0014228701915993598 -0.008505737386685567 0.0016081542680171333 0.013318219478324516 0.9926347616021794 -0.06793668789490626 0.00598230753338621 0.028610942903881605
0.1059090909091 0.006369635284919354 0.03042297164850577 0.9921046472319511 -0.07203198580516137 0.0018640585344109003 0.014087609016890166 -0.0015670480118832005 -0.009007603192931389
 0.9921046472319511 -0.07203198580516137 0.006384380815686149 0.030421943849646763 -0.0015656710103288626 -0.00900768482851033 0.001772152666287225 0.014100437061138745
 0.0018640585344109003 0.014087609016890166 -0.0015656710103288626 -0.00900768482851033 0.0063704896399974596 0.030424293251488176 0.9921047139492111 -0.07203056402694832
 -0.0015670480118832005 -0.009007603192931389 0.001772152666287225 0.014100437061138745 0.9921047139492111 -0.07203056402694832 0.006383644691681007 0.03042339233547685
0.1062942892872 0.006396493022783722 0.030542418284737135 0.9920690544507379 -0.07230116083120408 0.0018757958064281159 0.014138830048655453 -0.0015767772199887314 -0.009040537587296176
 0.9920690544507379 -0.07230116083120408 0.006411346007515075 0.030541383679034504 -0.001575390435401214 -0.009040620343114779 0.001783217276124028 0.014151771639945673
 0.0018757958064281159 0.014138830048655453 -0.001575390435401214 -0.009040620343114779 0.006397353558442383 0.030543744196241115 0.9920691216517044 -0.07229973381106948
 -0.0015767772199887314 -0.009040537587296176 0.001783217276124028 0.014151771639945673 0.9920691216517044 -0.07229973381106948 0.00641060448397188 0.030542837530359555
0.11254689453939999 0.006843051210013977 0.032489065215511446 0.9914775107101536 -0.07667734831562607 0.002071823649977676 0.014969792271371492 -0.0017392758996472915 -0.009574850464055809
 0.9914775107101536 -0.07667734831562607 0.006859703336382468 0.03248791618011684 -0.0017377257101320674 -0.009574952578174973 0.00196798046672436 0.014984673169488105
 0.002071823649977676 0.014969792271371492 -0.0017377257101320674 -0.009574952578174973 0.006844015144928292 0.032490460293007305 0.9914775860314767 -0.07667583608414745
 -0.0017392758996472915 -0.009574850464055809 0.00196798046672436 0.014984673169488105 0.9914775860314767 -0.07667583608414745 0.006858871379231242 0.03248945729548752
0.11879949979160001 0.007309786036010103 0.03445013656559819 0.9908597711751299 -0.08106636068350868 0.002278272627341982 0.01579976596969973 -0.00191043740637095 -0.010108523435786233
 0.9908597711751299 -0.08106636068350868 0.007328340944745527 0.034448865480282954 -0.0019087151866808616 -0.010108647193564625 0.002162512861369484 0.015816773822350416
 0.002278272627341982 0.01579976596969973 -0.0019087151866808616 -0.010108647193564625 0.007310859151623393 0.034451599298906975 0.9908598551321802 -0.08106476299506825
 -0.00191043740637095 -0.010108523435786233 0.002162512861369484 0.015816773822350416 0.9908598551321802 -0.08106476299506825 0.007327413297080278 0.0344504942004377
0.1250521050438 0.007796999636206677 0.0364253224786504 0.9902155384228558 -0.08546795606150112 0.0024952094085393174 0.01662858845294757 -0.002090330110233773 -0.010641401328828438
 0.9902155384228558 -0.08546795606150112 0.007817561213026054 0.036423921427963725 -0.0020884273091251342 -0.010641549121568072 0.0023668807900897814 0.01664792032804359
 0.0024952094085393174 0.01662858845294757 -0.0020884273091251342 -0.010641549121568072 0.0077981876954257 0.03642685127133803 0.9902156315425692 -0.08546627265335771
 -0.002090330110233773 -0.010641401328828438 0.0023668807900897814 0.01664792032804359 0.9902156315425692 -0.08546627265335771 0.00781653260757864 0.03642563812115369
0.131304710296 0.008304991286233614 0.03841431036090972 0.9895445174023106 -0.08988188302615663 0.002722697744785173 0.01745609399570137 -0.0022790194829041452 -0.011173326378937627
 0.9895445174023106 -0.08988188302615663 0.008327663684808854 0.038412771124176716 -0.0022769276236777485 -0.011173500703656658 0.0025811477946779625 0.01747795646656053
 0.002722697744785173 0.01745609399570137 -0.0022769276236777485 -0.011173500703656658 0.008306300031552999 0.038415903527627124 0.9895446202236475 -0.08988011362064266
 -0.0022790194829041452 -0.011173326378937627 0.0025811477946779625 0.01747795646656053 0.9895446202236475 -0.08988011362064266 0.008326528843717948 0.038414576184751255
0.1375573155481 0.008718843358571347 0.04015824616724767 0.9889616742305481 -0.09404922967925385 0.0029330887212133446 0.018256738895372437 -0.0024490305768485204 -0.011678658555530973
 0.9889616742305481 -0.09404922967925385 0.008743737604063037 0.0401565890878304 -0.0024467370455611395 -0.011678859686537977 0.0027779984274836807 0.018281104786051702
 0.0029330887212133446 0.018256738895372437 -0.0024467370455611395 -0.011678859686537977 0.008720277970384481 0.04015990216285001 0.988961787202799 -0.0940473741264624
 -0.0024490305768485204 -0.011678658555530973 0.0027779984274836807 0.018281104786051702 0.988961787202799 -0.0940473741264624 0.008742491968760702 0.04015848297629549
0.1438099208003 0.009147303111434114 0.041892749640897495 0.9883582305780209 -0.0982057441776302 0.0031519848730567554 0.01905385388352965 -0.0026258268433628357 -0.012180828250252287
 0.9883582305780209 -0.0982057441776302 0.009174524737734903 0.04189096794359608 -0.0026233225257040116 -0.012181058651866321 0.002982761677180179 0.019080912478869803
 0.0031519848730567554 0.01905385388352965 -0.0026233225257040116 -0.012181058651866321 0.009148869203934875 0.041894466726892766 0.9883583542391602 -0.09820380220941824
 -0.0026258268433628357 -0.012180828250252287 0.002982761677180179 0.019080912478869803 0.9883583542391602 -0.09820380220941824 0.00917316314482093 0.04189295105739097
0.1500625260525 0.009590215550143484 0.04361766814095874 0.9877343455917256 -0.1023513150235178 0.0033793084512851812 0.01984734812663679 -0.002809334271478558 -0.012679752769316866
 0.9877343455917256 -0.1023513150235178 0.009619870377275842 0.04361575463086418 -0.0028066100749460222 -0.012680015004955133 0.00319536344607802 0.019877295626316075
 0.0033793084512851812 0.01984734812663679 -0.0028066100749460222 -0.012680015004955133 0.00959191871207791 0.04361944451016316 0.9877344804897228 -0.10234928636089717
 -0.002809334271478558 -0.012679752769316866 0.00319536344607802 0.019877295626316075 0.9877344804897228 -0.10234928636089717 0.009618387661442651 0.04361782738563661
0.15631513130469998 0.010047424534975055 0.04533285361818645 0.9870901792742465 -0.10648583128605985 0.003614980751147158 0.020637132373434248 -0.002999477912505287 -0.013175351209415065
