! Created with skrf 1.8.0 (http://scikit-rf.org).
# GHz S RI R 50.0 
!freq ReS11 ImS11 ReS12 ImS12 ReS13 ImS13
! ReS14 ImS14
! ReS21 ImS21 ReS22 ImS22 ReS23 ImS23
! ReS24 ImS24
! ReS31 ImS31 ReS32 ImS32 ReS33 ImS33
! ReS34 ImS34
! ReS41 ImS41 ReS42 ImS42 ReS43 ImS43
! ReS44 ImS44
!
0.0 0.001307948371741 0.0 0.9986920516283 0.0 4.994800492577e-05 0.0 -4.994800519225e-05 6.116866468248434e-21
 0.9986920516283 0.0 0.001307948371728 0.0 -4.994800519201e-05 6.116866468219043e-21 4.994800492557e-05 0.0
 4.994800492577e-05 0.0 -4.994800519201e-05 6.116866468219043e-21 0.001307948361784 0.0 0.9986920516183 0.0
 -4.994800519225e-05 6.116866468248434e-21 4.994800492557e-05 0.0 0.9986920516183 0.0 0.001307948361785 0.0
0.005 0.0014066303772286872 0.001072458729355065 0.9985673052394028 -0.002740379542707381 6.935017628533612e-05 0.0005384506480344792 -6.746962112993983e-05 -0.00034015626583787107
 0.9985673052394028 -0.002740379542707381 0.001406641976663367 0.0010724520071006133 -6.747016325101086e-05 -0.000340156727586971 6.928158143450092e-05 0.0005384768176201171
 6.935017628533612e-05 0.0005384506480344792 -6.747016325101086e-05 -0.000340156727586971 0.001406629518618974 0.0010723920135954435 0.9985673048938737 -0.002740446600082997
 -6.746962112993983e-05 -0.00034015626583787107 6.928158143450092e-05 0.0005384768176201171 0.9985673048938737 -0.002740446600082997 0.001406642147830317 0.0010723846110267067
0.006252605252188 0.0014323376143444084 0.001344807161039546 0.9985346308839431 -0.0034261707228173876 7.479923176676737e-05 0.0006733403441637601 -7.233516702781257e-05 -0.0004256422447419056
 0.9985346308839431 -0.0034261707228173876 0.0014323557456531713 0.0013447985940961843 -7.233601025996663e-05 -0.0004256428151812952 7.469205832205534e-05 0.0006733742879092376
 7.479923176676737e-05 0.0006733403441637601 -7.233601025996663e-05 -0.0004256428151812952 0.0014323363565414695 0.0013447237720899791 0.9985346304285279 -0.0034262545450849616
 -7.233516702781257e-05 -0.0004256422447419056 7.469205832205534e-05 0.0006733742879092376 0.9985346304285279 -0.0034262545450849616 0.0014323560983959323 0.0013447143451151237
0.01250521050438 0.0015666528456380173 0.0027179676642575265 0.9983629175280359 -0.006853294604024881 0.00010555143687803565 0.0013471312629025245 -9.950434896606323e-05 -0.0008534441655195269
 0.9983629175280359 -0.006853294604024881 0.0015667252343404777 0.002717948876838416 -9.95076679053553e-05 -0.0008534452337572727 0.0001051240549587385 0.0013472123171950237
 0.00010555143687803565 0.0013471312629025245 -9.95076679053553e-05 -0.0008534452337572727 0.0015666483855100203 0.0027178012072900035 0.9983629162765882 -0.006853462005254787
 -9.950434896606323e-05 -0.0008534441655195269 0.0001051240549587385 0.0013472123171950237 0.9983629162765882 -0.006853462005254787 0.0015667272175867665 0.002717780593871174
0.01875781575657 0.0017111514117524528 0.004110907309143019 0.998176723866125 -0.010289746911118024 0.0001422701319116961 0.0020218316827351414 -0.0001315312557396648 -0.0012828280429666458
 0.998176723866125 -0.010289746911118024 0.0017113140544173938 0.004110876539448639 -0.00013153865147476083 -0.0012828295256516154 0.0001413100639905294 0.0020219753055217443
 0.0001422701319116961 0.0020218316827351414 -0.00013153865147476083 -0.0012828295256516154 0.0017111418026687318 0.0041106579895355995 0.9981767214758765 -0.010289997802803293
 -0.0001315312557396648 -0.0012828280429666458 0.0001413100639905294 0.0020219753055217443 0.9981767214758765 -0.010289997802803293 0.0017113189483741779 0.004110624293136648
0.02501042100875 0.0018660849198583792 0.005521718509422977 0.9979758558294501 -0.013737229747867659 0.00018502195119845586 0.002697488629944187 -0.00016848976302421412 -0.0017136246028286017
 0.9979758558294501 -0.013737229747867659 0.0018663737279123796 0.0055216738981557585 -0.00016850281585849844 -0.0017136264041386173 0.00018331662326798707 0.0026977124702326806
 0.00018502195119845586 0.002697488629944187 -0.00016850281585849844 -0.0017136264041386173 0.0018660682132423268 0.005521386519142002 0.997975851956361 -0.013737564093771764
 -0.00016848976302421412 -0.0017136246028286017 0.00018331662326798707 0.0026977124702326806 0.997975851956361 -0.013737564093771764 0.0018663828187392166 0.005521337717999682
0.03126302626094 0.0020316943678642856 0.006949438273509967 0.9977601082258271 -0.01719649404621385 0.0002338742232568457 0.0033740891758363874 -0.00021045204459926132 -0.0021457210147373027
 0.9977601082258271 -0.01719649404621385 0.0020321451853906646 0.0069493778658954244 -0.00021047231763927866 -0.002145723026183311 0.0002312107568415125 0.003374413083965074
 0.0002338742232568457 0.0033740891758363874 -0.00021047231763927866 -0.002145723026183311 0.002031668613559917 0.006949023831746657 0.9977601025256551 -0.017196911822025967
 -0.00021045204459926132 -0.0021457210147373027 0.0002312107568415125 0.003374413083965074 0.9977601025256551 -0.017196911822025967 0.002032159766677067 0.006948957780666759
0.037515631513130004 0.002208215728121459 0.008393452883247443 0.9975292704401336 -0.020667934836370673 0.0002888943210343303 0.004051596995968118 -0.0002574890873249732 -0.0025790243186435712
 0.9975292704401336 -0.020667934836370673 0.0022088643432666677 0.00839337463005102 -0.00025751812841333014 -0.0025790264190207524 0.0002850594350153584 0.004052043045124007
 0.0002888943210343303 0.004051596995968118 -0.00025751812841333014 -0.0025790264190207524 0.002208178976156168 0.00839295622449608 0.9975292625691058 -0.02066843604193371
 -0.0002574890873249732 -0.0025790243186435712 0.0002850594350153584 0.004052043045124007 0.9975292625691058 -0.02066843604193371 0.002208885717750878 0.008392870655616416
0.043768236765320004 0.0023958821157460237 0.009853316708483443 0.9972831287202101 -0.024151772374266415 0.000350149362663534 0.004729963482627755 -0.00030967088570158045 -0.00301345030029995
 0.9972831287202101 -0.024151772374266415 0.0023967642692319644 0.009853218466776965 -0.0003097102285880899 -0.0030134523556931176 0.000344929321974495 0.004730555993845661
 0.000350149362663534 0.004729963482627755 -0.0003097102285880899 -0.0030134523556931176 0.002395832413128358 0.00985273809867502 0.9972831183314979 -0.02415235701784728
 -0.00030967088570158045 -0.00301345030029995 0.000344929321974495 0.004730555993845661 0.9972831183314979 -0.02415235701784728 0.0023967937455345693 0.009852630621764032
0.050020842017509996 0.002594924800411355 0.011328677332604386 0.9970214673095672 -0.027648126956057305 0.0004177060373774991 0.00540913233838403 -0.0003670665208875904 -0.0034489188869439046
 0.9970214673095672 -0.027648126956057305 0.0025960761924251744 0.011328556866260735 -0.00036711768595430787 -0.0034489207507434868 0.00041088662665456885 0.0054098979070471166
 0.0004177060373774991 0.00540913233838403 -0.00036711768595430787 -0.0034489207507434868 0.0025948601941504588 0.011328017061975828 0.997021454055812 -0.027648795061872747
 -0.0003670665208875904 -0.0034489188869439046 0.00041088662665456885 0.0054098979070471166 0.997021454055812 -0.027648795061872747 0.0025961150883700847 0.011327885164539673
0.055454545454549996 0.0027773164925272323 0.012623164855697434 0.9967813031393598 -0.030696775870063555 0.0004815839167364666 0.005999954431742623 -0.00042123232480492965 -0.003828140265196551
 0.9967813031393598 -0.030696775870063555 0.002778730827475147 0.012623023187278166 -0.0004212949885318198 -0.003828141833589483 0.00047320025396291543 0.006000893778103864
 0.0004815839167364666 0.005999954431742623 -0.0004212949885318198 -0.003828141833589483 0.0027772373475498336 0.012622433880151065 0.9967812871118127 -0.03069751653315979
 -0.00042123232480492965 -0.003828140265196551 0.00047320025396291543 0.006000893778103864 0.9967812871118127 -0.03069751653315979 0.0027787789852277995 0.01262227862500853
0.056273447269699996 0.0028055737383590696 0.012819238805631966 0.9967440691028224 -0.03115705560481046 0.0004916304884355612 0.006089041816425569 -0.00042974418643932846 -0.0038853518975941258
 0.9967440691028224 -0.03115705560481046 0.002807030035234883 0.01281909378559508 -0.0004298086813216104 -0.0038853534105203575 0.00048299700031774614 0.006090009339468438
 0.0004916304884355612 0.006089041816425569 -0.0004298086813216104 -0.0038853534105203575 0.0028054922746719147 0.012818497194022112 0.9967440526346287 -0.031157807208081527
 -0.00042974418643932846 -0.0038853518975941258 0.00048299700031774614 0.006090009339468438 0.9967440526346287 -0.031157807208081527 0.002807079676299789 0.012818338241157702
0.06252605252188 0.0030280578679764973 0.01432474143443371 0.9964507160667976 -0.03467857222071606 0.0005719882219041994 0.006769625957789028 -0.0004977711894460244 -0.004322671798050713
 0.9964507160667976 -0.03467857222071606 0.003029854707637059 0.014324569438987377 -0.0004978505094090089 -0.004322672788177822 0.0005613254551465302 0.006770826661271386
 0.0005719882219041994 0.006769625957789028 -0.0004978505094090089 -0.004322672788177822 0.0030279575919908547 0.014323918835522642 0.9964506960314824 -0.03467940736379457
 -0.0004977711894460244 -0.004322671798050713 0.0005613254551465302 0.006770826661271386 0.9964506960314824 -0.03467940736379457 0.0030299164266779166 0.014323730069757415
0.06877865777407 0.0032626052773357833 0.015844949739031743 0.9961411895360239 -0.038212659566531075 0.0006588440309266238 0.007450815324710028 -0.0005712139363127669 -0.004760800961515965
 0.9961411895360239 -0.038212659566531075 0.0032647782750558824 0.01584474825380358 -0.0005713095645779669 -0.004760801244302266 0.000645936295393797 0.007452282791544758
 0.0006588440309266238 0.007450815324710028 -0.0005713095645779669 -0.004760801244302266 0.0032624842350128637 0.01584404653438311 0.9961411655789474 -0.03821357830525579
 -0.0005712139363127669 -0.004760800961515965 0.000645936295393797 0.007452282791544758 0.9961411655789474 -0.03821357830525579 0.0032648534137081956 0.015843825075258555
0.07503126302626001 0.003509443296307845 0.017379644811092013 0.9958152704356322 -0.04175927685238771 0.000752261930007136 0.008132537463194048 -0.0006501379083012218 -0.005199661201898002
 0.9958152704356322 -0.04175927685238771 0.0035120280499671124 0.017379411229023815 -0.0006502513162693459 -0.005199660580215332 0.0007368930566762365 0.00813430766088294
 0.000752261930007136 0.008132537463194048 -0.0006502513162693459 -0.005199660580215332 0.00350929953425341 0.01737866141437655 0.9958152421994458 -0.041760279252225634
 -0.0006501379083012218 -0.005199661201898002 0.0007368930566762365 0.00813430766088294 0.9958152421994458 -0.041760279252225634 0.0035121179583097136 0.017378404257950782
0.08128386827845 0.0037687985422250945 0.018928619225327285 0.9954727394600106 -0.04531836476965325 0.0008523050933499769 0.008814717213689798 -0.0007346076323329182 -0.0056391734609682245
 0.9954727394600106 -0.04531836476965325 0.0037718306375582426 0.018928350846390735 -0.0007347402797891732 -0.00563917172513178 0.0008342584482692077 0.008816828522042554
 0.0008523050933499769 0.008814717213689798 -0.0007347402797891732 -0.00563917172513178 0.003768630107759943 0.0189275560834375 0.9954727065835361 -0.045319450904859324
 -0.0007346076323329182 -0.0056391734609682245 0.0008342584482692077 0.008816828522042554 0.9954727065835361 -0.045319450904859324 0.003771936673664608 0.01892726010166669
0.08753647353064001 0.004040896933041124 0.02049167353063385 0.9951133772207355 -0.04888984894697861 0.0009590357980071531 0.009497276922444833 -0.0008246866463902888 -0.006079257596931393
 0.9951133772207355 -0.04888984894697861 0.004044411948804787 0.020491367561580247 -0.0008248399816663006 -0.006079254524728672 0.0009380942991866455 0.009499770161185354
 0.0009590357980071531 0.009497276922444833 -0.0008248399816663006 -0.006079254524728672 0.004040701875687883 0.02049053112239104 0.9951133393399387 -0.04889101890227634
 -0.0008246866463902888 -0.006079257596931393 0.0009380942991866455 0.009499770161185354 0.9951133393399387 -0.04889101890227634 0.004044535479731532 0.020490193062340366
0.09378907878283 0.004325963680858097 0.02206861372767089 0.9947369643784872 -0.05247364242223745 0.00107251536822565 0.010180136596550253 -0.0009204374626824587 -0.006519832231477474
 0.9947369643784872 -0.05247364242223745 0.004329997194071245 0.022068267281443392 -0.0009206129227886299 -0.006519827588195046 0.0010484615053523527 0.010183055052743526
 0.00107251536822565 0.010180136596550253 -0.0009206129227886299 -0.006519827588195046 0.0043257400522125474 0.022067392564980488 0.9947369211250544 -0.052474896291936454
 -0.0009204374626824587 -0.006519832231477474 0.0010484615053523527 0.010183055052743526 0.9947369211250544 -0.052474896291936454 0.004330139595132757 0.022067009047944595
0.100041684035 0.0046242232686756115 0.02365924942659549 0.9943432817587448 -0.056069647436600464 0.0011928041221015591 0.010863214017432548 -0.0010219215279334128 -0.006960814640607092
 0.9943432817587448 -0.056069647436600464 0.004628810859422256 0.023658859521781248 -0.001022120538602225 -0.006960808179068157 0.0011654199782155702 0.010866603472733823
 0.0011928041221015591 0.010863214017432548 -0.001022120538602225 -0.006960808179068157 0.004623969122901819 0.02365795005441739 0.9943432327602036 -0.05607098532497744
 -0.0010219215279334128 -0.006960814640607092 0.0011654199782155702 0.010866603472733823 0.9943432327602036 -0.05607098532497744 0.004628973514780627 0.023657517574830998
0.1059090909091 0.004916306298219146 0.025164180586659788 0.9939579507047309 -0.05945512761556799 0.0013119280382607448 0.011504332648994822 -0.0011224216511076053 -0.007374925786077624
 0.9939579507047309 -0.05945512761556799 0.00492144619927501 0.025163747104169853 -0.0011226440482420448 -0.007374917382407998 0.0012812202444656973 0.011508207970801593
 0.0013119280382607448 0.011504332648994822 -0.0011226440482420448 -0.007374917382407998 0.004916021748908974 0.025162808350370824 0.9939578959724449 -0.05945654444831076
 -0.0011224216511076053 -0.007374925786077624 0.0012812202444656973 0.011508207970801593 0.9939578959724449 -0.05945654444831076 0.004921629127931591 0.02516232662233281
0.1062942892872 0.0049358994159429195 0.025263392457886193 0.993932110460366 -0.05967775677812832 0.0013199613188304667 0.011546424827106782 -0.0011291991819311457 -0.007402120675009522
 0.993932110460366 -0.05967775677812832 0.004941076672912768 0.025262956017825345 -0.0011294231577423407 -0.007402112135595277 0.0012890285941074186 0.011550333584770365
 0.0013199613188304667 0.011546424827106782 -0.0011294231577423407 -0.007402112135595277 0.004935612810808259 0.02526201545649025 0.9939320553400476 -0.05967917879736378
 -0.0011291991819311457 -0.007402120675009522 0.0012890285941074186 0.011550333584770365 0.9939320553400476 -0.05967917879736378 0.004941260975638036 0.025261530380757524
0.11254689453939999 0.00526121503694843 0.02688085580618892 0.9935032319577946 -0.06329785480467723 0.0014540451067414325 0.01222968259639569 -0.0012423296147813468 -0.007843664700859834
 0.9935032319577946 -0.06329785480467723 0.0052670175624231295 0.02688036965812513 -0.001242579959237819 -0.007843653811543854 0.0014193451436814056 0.01223416150803267
 0.0014540451067414325 0.01222968259639569 -0.001242579959237819 -0.007843653811543854 0.005260894034207522 0.0268794017887517 0.993503170333824 -0.0632993610775877
 -0.0012423296147813468 -0.007843664700859834 0.0014193451436814056 0.01223416150803267 0.993503170333824 -0.0632993610775877 0.005267224914294149 0.02687886035392005
0.11879949979160001 0.0056003921901992245 0.028511452782654417 0.9930564281967876 -0.0669298182313837 0.0015951124716893125 0.012912898880890832 -0.0013613708227880467 -0.008285359555320188
 0.9930564281967876 -0.0669298182313837 0.005606855605175661 0.028510913656548804 -0.001361648928324925 -0.008285346031699153 0.001556426282011665 0.01291800137290116
 0.0015951124716893125 0.012912898880890832 -0.001361648928324925 -0.008285346031699153 0.005600034856216915 0.028509922396671047 0.9930563596825914 -0.06693140889021644
 -0.0013613708227880467 -0.008285359555320188 0.001556426282011665 0.01291800137290116 0.9930563596825914 -0.06693140889021644 0.005607087417177652 0.02850932070889732
0.1250521050438 0.0059536520244731226 0.030154996364736834 0.9925914816894505 -0.07057351675316377 0.0017432191856200764 0.013595983266240588 -0.0014863795634867689 -0.008727116515152906
 0.9925914816894505 -0.07057351675316377 0.005960811973836111 0.030154400892085233 -0.0014866868115196686 -0.008727100060477283 0.0017003274784320541 0.01360176536598614
 0.0017432191856200764 0.013595983266240588 -0.0014866868115196686 -0.008727100060477283 0.00595325643074367 0.03015339029270906 0.9925914058928252 -0.07057519193920449
 -0.0014863795634867689 -0.008727116515152906 0.0017003274784320541 0.01360176536598614 0.9925914058928252 -0.07057519193920449 0.005961069665977662 0.030152724325612546
0.131304710296 0.006321214718974922 0.031811298669238555 0.9921081756052059 -0.07422881353718068 0.0018984197555506517 0.014278843407957917 -0.0016174113095605415 -0.009168845273492677
 0.9921081756052059 -0.07422881353718068 0.006329106876941481 0.03181064338154695 -0.0016177490705349038 -0.009168825578695597 0.0018511029667679705 0.01428536376952547
 0.0018984197555506517 0.014278843407957917 -0.0016177490705349038 -0.009168825578695597 0.006320778943011383 0.03180961762919693 0.9921080921280948 -0.07423057340032767
 -0.0016174113095605415 -0.009168845273492677 0.0018511029667679705 0.01428536376952547 0.9921080921280948 -0.07423057340032767 0.00632939187850124 0.03180888322203839
0.1375573155481 0.0066133588107380875 0.03326428064238058 0.9916962588942781 -0.07767961221929674 0.0020397933051492134 0.014939396252707038 -0.0017336011799300069 -0.009588435708590757
 0.9916962588942781 -0.07767961221929674 0.0066220223246260205 0.03326357800948459 -0.0017339716037199832 -0.009588412795653431 0.0019879389267460795 0.014946639768709559
 0.0020397933051492134 0.014939396252707038 -0.0017339716037199832 -0.009588412795653431 0.006612881611366277 0.033262525029708584 0.9916961673883313 -0.07768145683500009
 -0.0017336011799300069 -0.009588435708590757 0.0019879389267460795 0.014946639768709559 0.9916961673883313 -0.07768145683500009 0.006622335294862234 0.03326173447977596
0.1438099208003 0.00691558776109522 0.03471054623185621 0.9912702119116475 -0.0811226026616987 0.002186882498874336 0.015597782920316104 -0.0018544478932746035 -0.01000605801850884
 0.9912702119116475 -0.0811226026616987 0.0069250589005639615 0.03470979387643658 -0.0018548524749540814 -0.010006031585019896 0.0021302899670914287 0.015605802702034646
 0.002186882498874336 0.015597782920316104 -0.0018548524749540814 -0.010006031585019896 0.00691506734769322 0.03470871675911975 0.991270111980915 -0.08112453217502497
 -0.0018544478932746035 -0.01000605801850884 0.0021302899670914287 0.015605802702034646 0.991270111980915 -0.08112453217502497 0.006925401141925491 0.03470786703359023
0.1500625260525 0.0072278069663790885 0.03615000231106482 0.9908301324100931 -0.08455772743356331 0.0023396436984465183 0.016253953121158793 -0.0019799093996298225 -0.01042166467487114
 0.9908301324100931 -0.08455772743356331 0.007238122056058755 0.03614919772557887 -0.001980349633158433 -0.01042163440615364 0.0022781134366024417 0.01626280420700813
 0.0023396436984465183 0.016253953121158793 -0.001980349633158433 -0.01042163440615364 0.007227241561918102 0.03614809971823802 0.9908300236537396 -0.08455974199536294
 -0.0019799093996298225 -0.01042166467487114 0.0022781134366024417 0.01626280420700813 0.9908300236537396 -0.08455974199536294 0.007238494870704858 0.036147187629673054
0.15631513130469998 0.007549921291964698 0.03758255871796789 0.9903761184833306 -0.0879849287732849 0.0024980328313458137 0.016907857292357296 -0.002109943206674057 -0.01083520906720114
