! Created with skrf 1.8.0 (http://scikit-rf.org).
# GHz S RI R 50.0 
!freq ReS11 ImS11 ReS12 ImS12 ReS13 ImS13
! ReS14 ImS14
! ReS21 ImS21 ReS22 ImS22 ReS23 ImS23
! ReS24 ImS24
! ReS31 ImS31 ReS32 ImS32 ReS33 ImS33
! ReS34 ImS34
! ReS41 ImS41 ReS42 ImS42 ReS43 ImS43
! ReS44 ImS44
!
0.0 0.001210452127477 0.0 0.9987895478725 0.0 4.620193863096e-05 0.0 -4.620193898601e-05 5.658105669361846e-21
 0.9987895478725 0.0 0.001210452127492 0.0 -4.620193898665e-05 5.658105669440223e-21 4.620193863112e-05 0.0
 4.620193863096e-05 0.0 -4.620193898665e-05 5.658105669440223e-21 0.001210452122081 0.0 0.9987895478671 0.0
 -4.620193898601e-05 5.658105669361846e-21 4.620193863112e-05 0.0 0.9987895478671 0.0 0.001210452122056 0.0
0.005 0.0013015848853852726 0.0009894411326976222 0.9986743652170607 -0.002536602441696741 6.450115742723368e-05 0.0005174127263326319 -6.265841829622971e-05 -0.00032345433974012653
 0.9986743652170607 -0.002536602441696741 0.0013015946831117131 0.0009894354663158996 -6.265645296036964e-05 -0.00032345291119168336 6.445129958027988e-05 0.0005174317791843009
 6.450115742723368e-05 0.0005174127263326319 -6.265645296036964e-05 -0.00032345291119168336 0.001301585147542667 0.0009893737773359397 0.9986743648879253 -0.002536669502562957
 -6.265841829622971e-05 -0.00032345433974012653 6.445129958027988e-05 0.0005174317791843009 0.9986743648879253 -0.002536669502562957 0.0013015937644503537 0.0009893687009531137
0.006252605252188 0.0013252603174575763 0.0012407317094258587 0.9986442876784423 -0.00317140897185982 6.960566023332859e-05 0.0006470268217709362 -6.720160885447425e-05 -0.00040475116712135106
 0.9986442876784423 -0.00317140897185982 0.0013252756323589479 0.0012407244947823211 -6.719854992268001e-05 -0.0004047494065869513 6.95277617818211e-05 0.0006470515213593163
 6.960566023332859e-05 0.0006470268217709362 -6.719854992268001e-05 -0.0004047494065869513 0.0013252608018904837 0.0012406475227769772 0.9986442872390321 -0.003171492797334669
 -6.720160885447425e-05 -0.00040475116712135106 6.95277617818211e-05 0.0006470515213593163 0.9986442872390321 -0.003171492797334669 0.0013252742717575884 0.00124064103289196
0.01250521050438 0.0014485776115994071 0.002507838595896241 0.9984867513248731 -0.006343823607490749 9.822624783167347e-05 0.0012944583082878298 -9.242563549989213e-05 -0.0008116152193043562
 0.9984867513248731 -0.006343823607490749 0.0014486387541892169 0.0025078228366198813 -9.241357139103225e-05 -0.0008116119701938081 9.791561418299878e-05 0.001294517115278591
 9.822624783167347e-05 0.0012944583082878298 -9.241357139103225e-05 -0.0008116119701938081 0.001448580097262547 0.002507670545038191 0.9984867501284951 -0.0063439910068137
 -9.242563549989213e-05 -0.0008116152193043562 9.791561418299878e-05 0.001294517115278591 0.9984867501284951 -0.0063439910068137 0.0014486338878931491 0.002507656112915848
0.01875781575657 0.001580626159424434 0.0037933907636429846 0.9983167768870673 -0.009525013239817444 0.0001321219006695702 0.0019427658152551311 -0.00012194143503761512 -0.0012200232842489724
 0.9983167768870673 -0.009525013239817444 0.0015807635303975854 0.003793365032660178 -0.00012191451792544228 -0.0012200188626633897 0.00013142410873701773 0.0019428696869605983
 0.0001321219006695702 0.0019427658152551311 -0.00012191451792544228 -0.0012200188626633897 0.0015806321495963145 0.0037931390159539604 0.9983167746170913 -0.009525264118318898
 -0.00012194143503761512 -0.0012200232842489724 0.00013142410873701773 0.0019428696869605983 0.9983167746170913 -0.009525264118318898 0.0015807530310088973 0.0037931151079870296
0.02501042100875 0.0017216239338606032 0.005095633453507352 0.9981341974737412 -0.01271656681665213 0.00017135184702235021 0.0025920081579190925 -0.00015581493130106437 -0.0016298161791396728
 0.9981341974737412 -0.01271656681665213 0.001721867859775821 0.005095596235871704 -0.0001557673776916884 -0.001629810951127144 0.00017011240526542884 0.002592169525623161
 0.00017135184702235021 0.0025920081579190925 -0.0001557673776916884 -0.001629810951127144 0.0017216349213295466 0.005095298145191832 0.9981341938140704 -0.01271690111419159
 -0.00015581493130106437 -0.0016298161791396728 0.00017011240526542884 0.002592169525623161 0.9981341938140704 -0.01271690111419159 0.0017218496139558804 0.00509526315301957
0.03126302626094 0.0018717795415302454 0.006413687251486532 0.9979388361253716 -0.015919192666915164 0.00021597608152166856 0.0032421843700261794 -0.00019411058150868612 -0.0020408916105834844
 0.9979388361253716 -0.015919192666915164 0.0018721602891678202 0.006413636945816414 -0.00019403666075917459 -0.0020408859929711173 0.0002140402739356645 0.0032424171450311013
 0.00021597608152166856 0.0032421843700261794 -0.00019403666075917459 -0.0020408859929711173 0.0018717970110898787 0.006413268495676067 0.9979388307615372 -0.015919610350087213
 -0.00019411058150868612 -0.0020408916105834844 0.0002140402739356645 0.0032424171450311013 0.9979388307615372 -0.015919610350087213 0.0018721321977567549 0.0064132207372483655
0.037515631513130004 0.0020312972448637986 0.007746996647937407 0.9977305109227244 -0.019133269896920373 0.00026605476778223855 0.0038932703430999095 -0.000236891868853797 -0.0024531675212475074
 0.9977305109227244 -0.019133269896920373 0.0020318450303893226 0.007746931567053996 -0.00023678589732328308 -0.0024531619819819616 0.00026326757839371397 0.0038935899311291233
 0.00026605476778223855 0.0038932703430999095 -0.00023678589732328308 -0.0024531619819819616 0.00203132267203573 0.007746494554316824 0.9977305035394166 -0.019133770939596208
 -0.000236891868853797 -0.0024531675212475074 0.00026326757839371397 0.0038935899311291233 0.9977305035394166 -0.019133770939596208 0.0020318050053754074 0.007746432274429251
0.043768236765320004 0.00220037890783858 0.009095162244055134 0.9975090370215361 -0.022359016133819114 0.0003216479684811688 0.004545229971920951 -0.00028422149171704623 -0.0028665709314615786
 0.9975090370215361 -0.022359016133819114 0.0022011239032798846 0.009095080615242406 -0.0002840778292203741 -0.0028665659897967135 0.0003178540400453506 0.004545653290092192
 0.0003216479684811688 0.004545229971920951 -0.0002840778292203741 -0.0028665659897967135 0.0022004137596292636 0.009094576921032169 0.9975090273028947 -0.022359600515094512
 -0.00028422149171704623 -0.0028665709314615786 0.0003178540400453506 0.004545653290092192 0.9975090273028947 -0.022359600515094512 0.0022010698677927603 0.009094498291587646
0.050020842017509996 0.0023792249114803618 0.01045787140503677 0.9972742276583162 -0.02559655682038315 0.00038281549331638964 0.005198019750806118 -0.0003361614426594849 -0.0032810333306718836
 0.9972742276583162 -0.02559655682038315 0.0023801972499378943 0.01045777137023948 -0.0003359744902007441 -0.003281029557305251 0.00037785910398334063 0.005198565245731912
 0.00038281549331638964 0.005198019750806118 -0.0003359744902007441 -0.003281029557305251 0.002379270646957736 0.010457202954044289 0.9972742152877717 -0.02559722453037641
 -0.0003361614426594849 -0.0032810333306718836 0.00037785910398334063 0.005198565245731912 0.9972742152877717 -0.02559722453037641 0.002380127138075182 0.01045710607424367
0.055454545454549996 0.0025427322144379416 0.011653715303158757 0.9970591951120742 -0.028419709625583843 0.0004405451442747954 0.005765950349318025 -0.0003850906238301486 -0.0036420222173930467
 0.9970591951120742 -0.028419709625583843 0.0025439265658494664 0.011653597697787482 -0.0003848615348388226 -0.0036420199628211074 0.0004344517833210799 0.005766618202380476
 0.0004405451442747954 0.005765950349318025 -0.0003848615348388226 -0.0036420199628211074 0.002542788587943661 0.011652974691667043 0.9970591801799951 -0.028420449748111164
 -0.0003850906238301486 -0.0036420222173930467 0.0004344517833210799 0.005766618202380476 0.9970591801799951 -0.028420449748111164 0.0025438408143677533 0.011652860351755888
0.056273447269699996 0.0025680346344802082 0.011834864217151098 0.9970258947233303 -0.02884595920546309 0.00044961679693498313 0.005851591025413786 -0.00039277304029787676 -0.0036964884142338763
 0.9970258947233303 -0.02884595920546309 0.0025692644146739847 0.011834743833027999 -0.0003925372385251535 -0.0036964864314084434 0.00044334184772448564 0.005852278691879023
 0.00044961679693498313 0.005851591025413786 -0.0003925372385251535 -0.0036964864314084434 0.0025680927059574974 0.011834112737367971 0.9970258793844634 -0.028846710240725344
 -0.00039277304029787676 -0.0036964884142338763 0.00044334184772448564 0.005852278691879023 0.9970258793844634 -0.028846710240725344 0.0025691761720375997 0.011833995633887455
0.06252605252188 0.002767006726017402 0.013225914776251416 0.9967638491283874 -0.032107251003436615 0.0005221109018957674 0.0065058912282128295 -0.0004541169370915997 -0.004112870837606931
 0.9967638491283874 -0.032107251003436615 0.0027685240164889084 0.013225772014035263 -0.0004538267652186399 -0.004112871319202691 0.0005143609112803568 0.006506742628147443
 0.0005221109018957674 0.0065058912282128295 -0.0004538267652186399 -0.004112871319202691 0.002767078578452343 0.013225080366604018 0.9967638305036888 -0.03210808536487109
 -0.0004541169370915997 -0.004112870837606931 0.0005143609112803568 0.006506742628147443 0.9967638305036888 -0.03210808536487109 0.0027684155992336768 0.013224940993573677
0.06877865777407 0.0029763392623951526 0.01463082002563282 0.996487901059421 -0.03538043150475399 0.0006003563364899207 0.007160864614216987 -0.0005202531124507279 -0.004530115471448163
 0.996487901059421 -0.03538043150475399 0.0029781741053403242 0.014630652771107654 -0.0005199030875171029 -0.004530119143060276 0.0005909744398622501 0.007161902895852688
 0.0006003563364899207 0.007160864614216987 -0.0005199030875171029 -0.004530119143060276 0.002976426333783425 0.014629902787516818 0.9964878788304038 -0.035381349195111426
 -0.0005202531124507279 -0.004530115471448163 0.0005909744398622501 0.007161902895852688 0.9964878788304038 -0.035381349195111426 0.0029780434799992037 0.014629739026532404
0.07503126302626001 0.0031962298376121937 0.01604939269003805 0.9961978601651313 -0.03866547859168509 0.0006844110806146725 0.007816452720850178 -0.0005912408575457242 -0.004948156933880498
 0.9961978601651313 -0.03866547859168509 0.003198412252355406 0.01604919874325714 -0.0005908255338928708 -0.004948164572889771 0.0006732400332359036 0.007817702637962934
 0.0006844110806146725 0.007816452720850178 -0.0005908255338928708 -0.004948164572889771 0.0031963335597193485 0.016048392720916103 0.9961978340125472 -0.03866647962189444
 -0.0005912408575457242 -0.004948156933880498 0.0006732400332359036 0.007817702637962934 0.9961978340125472 -0.03866647962189444 0.003198257396291643 0.016048202380968084
0.08128386827845 0.003426875611790871 0.017481456561683532 0.9958935357061759 -0.04196235340302859 0.0007743325162789203 0.008472594679187748 -0.0006671387547662246 -0.0053669292727593805
 0.9958935357061759 -0.04196235340302859 0.003429435598739138 0.017481233636671367 -0.0006666527237202381 -0.005366941708399769 0.000761214699201299 0.008474082610365318
 0.0007743325162789203 0.008472594679187748 -0.0006666527237202381 -0.005366941708399769 0.0034269974101755083 0.017480373955758983 0.995893505309419 -0.041963437791600756
 -0.0006671387547662246 -0.0053669292727593805 0.000761214699201299 0.008474082610365318 0.995893505309419 -0.041963437791600756 0.00342925449965903 0.01748015477297804
0.08753647353064001 0.0036684733330159492 0.018926843240621098 0.9955747366781664 -0.0452710035458721 0.0008701773819499838 0.009129227423019625 -0.0007480046529467918 -0.005786365751573295
 0.9955747366781664 -0.0452710035458721 0.003671440876695463 0.018926588965035792 -0.0007474425425655008 -0.005786383864990734 0.0008549548099522787 0.00913098139092861
 0.0008701773819499838 0.009129227423019625 -0.0007474425425655008 -0.005786383864990734 0.0036686146272299144 0.018925678096304875 0.9955747017155999 -0.04527217131145886
 -0.0007480046529467918 -0.005786365751573295 0.0008549548099522787 0.00913098139092861 0.9955747017155999 -0.04527217131145886 0.0036712315327738546 0.018925427733840074
0.09378907878283 0.003921219338702647 0.020385389807992232 0.9952412719175368 -0.048591365376023515 0.0009720017287050405 0.009786285841136185 -0.0008338956398767443 -0.006206398693633106
 0.9952412719175368 -0.048591365376023515 0.003924624411333191 0.02038510172263419 -0.0008332521148561133 -0.006206423417935009 0.0009545160600903387 0.009788335531746023
 0.0009720017287050405 0.009786285841136185 -0.0008332521148561133 -0.006206423417935009 0.0039213815426340825 0.020384142223939663 0.9952412320658861 -0.04859261654141186
 -0.0008338956398767443 -0.006206398693633106 0.0009545160600903387 0.009788335531746023 0.9952412320658861 -0.04859261654141186 0.0039243848312136035 0.020383858271558142
0.100041684035 0.004185309545283635 0.021856937119194165 0.9948929501964593 -0.051923365660068575 0.0010798608777776377 0.010443702887710812 -0.0009248680127230007 -0.006626959369745522
 0.9948929501964593 -0.051923365660068575 0.004189182110330342 0.021856612677469616 -0.0009241377743919889 -0.00662699169004129 0.0010599534257205831 0.010446079669452043
 0.0010798608777776377 0.010443702887710812 -0.0009241377743919889 -0.00662699169004129 0.00418549406734704 0.02185560719148401 0.9948929051310039 -0.051924700254970174
 -0.0009248680127230007 -0.006626959369745522 0.0010599534257205831 0.010446079669452043 0.9948929051310039 -0.051924700254970174 0.0041889103128928875 0.02185528716521035
0.1059090909091 0.004443621752133642 0.023249512644614792 0.9945524046386858 -0.05506060701132787 0.0011866124380727795 0.011060883879407226 -0.0010149068280633177 -0.007022028706116604
 0.9945524046386858 -0.05506060701132787 0.004447960255543035 0.023249151691792355 -0.0010140904320518453 -0.0070220690967542415 0.0011642877787719557 0.01106359764619851
 0.0011866124380727795 0.011060883879407226 -0.0010140904320518453 -0.0070220690967542415 0.0044438284939371745 0.023248105535991572 0.9945523543839684 -0.05506201992444396
 -0.0010149068280633177 -0.007022028706116604 0.0011642877787719557 0.01106359764619851 0.9945523543839684 -0.05506201992444396 0.0044476564332881375 0.023247749332934588
0.1062942892872 0.004460939426401613 0.023341328510775385 0.994529580308519 -0.05526692282526326 0.0011938093791846588 0.011101409666383134 -0.0010209772467109507 -0.007047977913815587
 0.994529580308519 -0.05526692282526326 0.004465309441670824 0.02334096507806026 -0.001020155033052419 -0.007048018867259038 0.0011713211242436786 0.011104146609217446
 0.0011938093791846588 0.011101409666383134 -0.001020155033052419 -0.007048018867259038 0.004461147670020419 0.023339916337992452 0.9945295297029685 -0.05526834088130701
 -0.0010209772467109507 -0.007047977913815587 0.0011713211242436786 0.011104146609217446 0.9945295297029685 -0.05526834088130701 0.004465003456380855 0.02333955767961923
0.11254689453939999 0.004748303984671412 0.024838408818991662 0.9941509711500086 -0.058621947899789896 0.0013139009707630442 0.011759335493670958 -0.0011222779625120322 -0.007469383260782282
 0.9941509711500086 -0.058621947899789896 0.004753201405823828 0.024838003671938533 -0.001121358548263515 -0.007469433936605796 0.0012886725746248191 0.011762467388081727
 0.0013139009707630442 0.011759335493670958 -0.001121358548263515 -0.007469433936605796 0.004748537348202265 0.02483691449718839 0.9941509146759777 -0.0586234494554833
 -0.0011222779625120322 -0.007469383260782282 0.0012886725746248191 0.011762467388081727 0.9941509146759777 -0.0586234494554833 0.0047528592724856555 0.02483651457372016
0.11879949979160001 0.00504759771696204 0.026348023606674063 0.9937569317955572 -0.06198834524622897 0.001440188537707021 0.012417407951434029 -0.0012288238924486239 -0.007891103097285905
 0.9937569317955572 -0.06198834524622897 0.005053052500986903 0.02634757393236725 -0.0012278020892811203 -0.007891164636813776 0.0014120603579192653 0.012420971327233936
 0.001440188537707021 0.012417407951434029 -0.0012278020892811203 -0.007891164636813776 0.005047857594147321 0.02634644723486568 0.9937568691229056 -0.06198993034150048
 -0.0012288238924486239 -0.007891103097285905 0.0014120603579192653 0.012420971327233936 0.9937568691229056 -0.06198993034150048 0.005052672269623698 0.02634600333789033
0.1250521050438 0.005359014575351757 0.027870018553447857 0.9933472715723729 -0.06536601313386174 0.0015727240721505856 0.013075552927971374 -0.0013406678459805484 -0.008313063825392887
 0.9933472715723729 -0.06536601313386174 0.005365056683798314 0.027869521448492824 -0.0013395385026420002 -0.008313137422064604 0.0015415361777663386 0.01307958607307668
 0.0015727240721505856 0.013075552927971374 -0.0013395385026420002 -0.008313137422064604 0.005359302355452848 0.027868360230703243 0.9933472023685908 -0.06536768181292131
 -0.0013406678459805484 -0.008313063825392887 0.0015415361777663386 0.01307958607307668 0.9933472023685908 -0.06536768181292131 0.00536463641506835 0.0278678695755958
0.131304710296 0.005682747923815821 0.029404238965220552 0.9929218001310405 -0.06875484419356125 0.0017115586331435608 0.01373369465273118 -0.0014578616740446616 -0.008735190534668277
 0.9929218001310405 -0.06875484419356125 0.005689407326314317 0.029403691434751487 -0.0014566196766273173 -0.008735277434038142 0.0016771508211848307 0.013738237631658635
 0.0017115586331435608 0.01373369465273118 -0.0014566196766273173 -0.008735277434038142 0.005683064992234536 0.029402498788568925 0.9929217240617391 -0.06875659650700891
 -0.0014578616740446616 -0.008735190534668277 0.0016771508211848307 0.013738237631658635 0.9929217240617391 -0.06875659650700891 0.005688945091413958 0.02940195851374455
0.1375573155481 0.0059374297504969295 0.0307494808460354 0.9925619073837677 -0.07195362663980365 0.001837298820003734 0.014370796666720545 -0.0015610539638741942 -0.009136429473887032
 0.9925619073837677 -0.07195362663980365 0.005944739338192368 0.030748892786959303 -0.0015596920616865505 -0.009136529559009761 0.0017995875738552845 0.014375836926915598
 0.001837298820003734 0.014370796666720545 -0.0015596920616865505 -0.009136529559009761 0.005937778355700275 0.030747658318415673 0.9925618241396964 -0.07195546259568042
 -0.0015610539638741942 -0.009136429473887032 0.0017995875738552845 0.014375836926915598 0.9925618241396964 -0.07195546259568042 0.005944232297354576 0.030747079570429676
0.1438099208003 0.006200798205902659 0.032088791183257484 0.9921898428360064 -0.0751454813773048 0.001968122020808858 0.015006038177342838 -0.0016683892963455683 -0.009535978270038634
 0.9921898428360064 -0.0751454813773048 0.006208788434649809 0.032088160508796634 -0.0016669020437165072 -0.009536092737685896 0.0019269606524275832 0.01501161180159503
 0.001968122020808858 0.015006038177342838 -0.0016669020437165072 -0.009536092737685896 0.0062011798835167505 0.03208688634427175 0.9921897520850744 -0.07514740101908544
 -0.0016683892963455683 -0.009535978270038634 0.0019269606524275832 0.01501161180159503 0.9921897520850744 -0.07514740101908544 0.006208234508608154 0.03208626729420233
0.1500625260525 0.006472774680175275 0.03342209278759089 0.9918056879004695 -0.07833036463030038 0.0021039919779142695 0.015639377973956287 -0.0017798326603930433 -0.009933797390641623
 0.9918056879004695 -0.07833036463030038 0.0064814760387002035 0.03342141730397122 -0.0017782146214673086 -0.00993392748497992 0.0020592344352104355 0.015645522353231335
 0.0021039919779142695 0.015639377973956287 -0.0017782146214673086 -0.00993392748497992 0.0064731909719788405 0.03342010567395337 0.9918055893083049 -0.07833236800574997
 -0.0017798326603930433 -0.009933797390641623 0.0020592344352104355 0.015645522353231335 0.9918055893083049 -0.07833236800574997 0.006480873147004334 0.0334194443996499
0.15631513130469998 0.0067532801682196044 0.03474931101353774 0.9914095242225882 -0.08150823212602253 0.0022448721064926504 0.01627077539473656 -0.0018953487055646972 -0.010329848045332293
