! Created with skrf 1.8.0 (http://scikit-rf.org).
# GHz S RI R 50.0 
!freq ReS11 ImS11 ReS12 ImS12 ReS13 ImS13
! ReS14 ImS14
! ReS21 ImS21 ReS22 ImS22 ReS23 ImS23
! ReS24 ImS24
! ReS31 ImS31 ReS32 ImS32 ReS33 ImS33
! ReS34 ImS34
! ReS41 ImS41 ReS42 ImS42 ReS43 ImS43
! ReS44 ImS44
!
0.0 0.00120957429622 0.0 0.9987904256942 0.0 4.629532238391e-05 0.0 -4.629532221774e-05 5.6695418169450634e-21
 0.9987904256942 0.0 0.001209574296215 0.0 -4.629532221744e-05 5.669541816908325e-21 4.629532238434e-05 0.0
 4.629532238391e-05 0.0 -4.629532221744e-05 5.669541816908325e-21 0.001209574292923 0.0 0.9987904256909 0.0
 -4.629532221774e-05 5.6695418169450634e-21 4.629532238434e-05 0.0 0.9987904256909 0.0 0.001209574292933 0.0
0.005 0.0013006747273894117 0.0009862485683124137 0.9986752850415268 -0.002534969370340481 6.495341196712246e-05 0.0005329191902073978 -6.304371078091813e-05 -0.00033065594185326976
 0.9986752850415268 -0.002534969370340481 0.001300667788933309 0.000986252648611697 -6.304643760587303e-05 -0.00033065804736740135 6.498206388760261e-05 0.0005329082218739222
 6.495341196712246e-05 0.0005329191902073978 -6.304643760587303e-05 -0.00033065804736740135 0.0013006736223919676 0.0009863164927375045 0.9986752853782447 -0.002534902310698924
 -6.304371078091813e-05 -0.00033065594185326976 6.498206388760261e-05 0.0005329082218739222 0.9986752853782447 -0.002534902310698924 0.0013006695648481996 0.0009863188415591218
0.006252605252188 0.0013243444371156454 0.0012367398018889538 0.9986452170468239 -0.003169368291190239 7.014952422512618e-05 0.0006664115329779603 -6.766920786285275e-05 -0.000413766118994358
 0.9986452170468239 -0.003169368291190239 0.0013243335907995942 0.0012367449914131065 -6.767345101504922e-05 -0.00041376871646668303 7.019429009439565e-05 0.0006663973168043739
 7.014952422512618e-05 0.0006664115329779603 -6.767345101504922e-05 -0.00041376871646668303 0.0013243426223452533 0.0012368247143878183 0.9986452174860694 -0.003169284461303964
 -6.766920786285275e-05 -0.000413766118994358 7.019429009439565e-05 0.0006663973168043739 0.9986452174860694 -0.003169284461303964 0.0013243362801409486 0.0012368277343094316
0.01250521050438 0.0014476472786242609 0.0024998610809015614 0.9984877223597763 -0.0063397552841431126 9.923834568846702e-05 0.0013331938573592362 -9.335981194945851e-05 -0.0008297059149929106
 0.9984877223597763 -0.0063397552841431126 0.001447603965574953 0.0024998723677702676 -9.337653441944246e-05 -0.0008297107390440519 9.941685130858893e-05 0.0013331600383131926
 9.923834568846702e-05 0.0013331938573592362 -9.337653441944246e-05 -0.0008297107390440519 0.0014476394723956963 0.0025000306581547324 0.998487723559503 -0.00633958789112361
 -9.335981194945851e-05 -0.0008297059149929106 9.941685130858893e-05 0.0013331600383131926 0.998487723559503 -0.00633958789112361 0.001447614152853866 0.0025000375346256325
0.01875781575657 0.001579704939942671 0.0037814353548106206 0.9983177796937075 -0.009518928060111408 0.000133621385304211 0.002000849256183914 -0.00012343630097805104 -0.0012472181281305448
 0.9983177796937075 -0.009518928060111408 0.0015796076057277369 0.0037814537317070614 -0.0001234735948326907 -0.0012472247515105785 0.00013402235742399968 0.002000789557924033
 0.000133621385304211 0.002000849256183914 -0.0001234735948326907 -0.0012472247515105785 0.001579686968169663 0.0037816895587613375 0.998317781969458 -0.009518677174390236
 -0.00012343630097805104 -0.0012472181281305448 0.00013402235742399968 0.002000789557924033 0.998317781969458 -0.009518677174390236 0.0015796300827172487 0.003781701153032519
0.02501042100875 0.0017207353837501965 0.005079707884076149 0.9981352221460884 -0.01270847470285532 0.00017335896314821063 0.0026694428148319282 -0.00015796620155494127 -0.0016661357202285639
 0.9981352221460884 -0.01270847470285532 0.0017205625131696332 0.005079734421825504 -0.00015803206425310805 -0.0016661436509512624 0.00017407116018217233 0.0026693501157019147
 0.00017335896314821063 0.0026694428148319282 -0.00015803206425310805 -0.0016661436509512624 0.0017207030745026307 0.0050800467042516565 0.9981352258139776 -0.01270814037829699
 -0.00015796620155494127 -0.0016661357202285639 0.00017407116018217233 0.0026693501157019147 0.9981352258139776 -0.01270814037829699 0.0017206020666039276 0.005080063899895779
0.03126302626094 0.001870947206659352 0.006393799031664698 0.997939872748698 -0.01590910290667075 0.00021851208865164014 0.0033389763176304207 -0.00019701547885421868 -0.002086351995239026
 0.997939872748698 -0.01590910290667075 0.0018706773141786055 0.006393834878659641 -0.00019711783001655697 -0.0020863606754750468 0.00021962439115823153 0.0033388426473616515
 0.00021851208865164014 0.0033389763176304207 -0.00019711783001655697 -0.0020863606754750468 0.0018708963897762808 0.006394222490637299 0.9979398781274033 -0.015908685175018915
 -0.00019701547885421868 -0.002086351995239026 0.00021962439115823153 0.0033388426473616515 0.9979398781274033 -0.015908685175018915 0.0018707387292538086 0.006394246192895656
0.037515631513130004 0.0020305446635032905 0.007723152992834635 0.9977315495841824 -0.019121191201605804 0.0002691418925945453 0.004009427083297675 -0.00024064906853873245 -0.0025077817555501742
 0.9977315495841824 -0.019121191201605804 0.0020301562870156083 0.007723199375003588 -0.00024079575859640797 -0.0025077905612301272 0.0002707433472227299 0.00400924361481696
 0.0002691418925945453 0.004009427083297675 -0.00024079575859640797 -0.0025077905612301272 0.0020304711659101236 0.007723661140551668 0.9977315569913157 -0.019120690078198627
 -0.00024064906853873245 -0.0025077817555501742 0.0002707433472227299 0.00400924361481696 0.9977315569913157 -0.019120690078198627 0.0020302443448843065 0.007723692275894684
0.043768236765320004 0.002199729606171764 0.009067370026841656 0.9975100678158639 -0.022344956671611977 0.0003253093715009571 0.00468075977856585 -0.00028893107969049913 -0.0029303494771897604
 0.9975100678158639 -0.022344956671611977 0.0021992013031692658 0.009067428247826765 -0.0002891298951634014 -0.0029303577178222706 0.00032748921526563337 0.004680516818314189
 0.0003253093715009571 0.00468075977856585 -0.0002891298951634014 -0.0029303577178222706 0.0021996292524134324 0.009067962937345745 0.9975100775698692 -0.02234437215886764
 -0.00028893107969049913 -0.0029303494771897604 0.00032748921526563337 0.004680516818314189 0.9975100775698692 -0.02234437215886764 0.002199320782269289 0.009068002453023
0.050020842017509996 0.0023787023983146407 0.01042613712691444 0.9972752406953921 -0.025580524232635755 0.0003870752415719357 0.005352931293478739 -0.00034192488188455726 -0.003353984423055441
 0.9972752406953921 -0.025580524232635755 0.0023780127423941103 0.010426208568489487 -0.00034218354877905293 -0.0033539913416355495 0.000389922915631195 0.005352618271063049
 0.0003870752415719357 0.005352931293478739 -0.00034218354877905293 -0.0033539913416355495 0.00237857101090976 0.01042681489022178 0.997275253116041 -0.02557985632837863
 -0.00034192488188455726 -0.003353984423055441 0.000389922915631195 0.005352618271063049 0.997275253116041 -0.02557985632837863 0.0023781684198716144 0.010426863753840634
0.055454545454549996 0.0025423389595100056 0.01161856022909908 0.9970601847043374 -0.028401968134865847 0.0004453451047075458 0.005937712372209071 -0.0003918533385705902 -0.003722949629721684
 0.9970601847043374 -0.028401968134865847 0.0025414916928311777 0.011618644342900079 -0.00039217024746889776 -0.0037229547329188503 0.00044884594510454835 0.0059373291901670885
 0.0004453451047075458 0.005937712372209071 -0.00039217024746889776 -0.0037229547329188503 0.002542177207735572 0.011619311824783209 0.9970601997028234 -0.028401227748533438
 -0.0003918533385705902 -0.003722949629721684 0.00044884594510454835 0.0059373291901670885 0.9970601997028234 -0.028401227748533438 0.0025416827054740593 0.01161936961339353
0.056273447269699996 0.0025676623967336477 0.011799193985250709 0.997026880137438 -0.028827960615412415 0.00045449984098873327 0.006025893126197598 -0.00039969314018867584 -0.003778618247147987
 0.997026880137438 -0.028827960615412415 0.002566789975110659 0.011799280107716992 -0.0004000193264255072 -0.0037786230201059365 0.0004581049983460348 0.0060254985837042
 0.00045449984098873327 0.006025893126197598 -0.0004000193264255072 -0.0037786230201059365 0.0025674957949166533 0.011799956716217964 0.9970268955455696 -0.02882720930431746
 -0.00039969314018867584 -0.003778618247147987 0.0004581049983460348 0.0060254985837042 0.9970268955455696 -0.02882720930431746 0.0025669866256730167 0.011800015915361435
0.06252605252188 0.002766808222159802 0.013186314290124262 0.9967647970866705 -0.0320872930165395 0.0005276430556520344 0.006699592695335243 -0.00046229782461330924 -0.004204183672207301
 0.9967647970866705 -0.0320872930165395 0.0027657316333806357 0.013186416632739973 -0.000462699141751735 -0.004204185409360489 0.0005320955646620752 0.006699104276440135
 0.0005276430556520344 0.006699592695335243 -0.000462699141751735 -0.004204185409360489 0.0027666022219300116 0.013187162122823184 0.9967648158042 -0.032086458275952266
 -0.00046229782461330924 -0.004204183672207301 0.0005320955646620752 0.006699104276440135 0.9967648158042 -0.032086458275952266 0.002765974029350417 0.013187232664712917
0.06877865777407 0.002976337915827387 0.014587294565192546 0.9964888017707932 -0.03535852020789033 0.0006065642581292236 0.00737397411736944 -0.0005298002045142788 -0.004630613703360608
 0.9964888017707932 -0.03535852020789033 0.002975035767409911 0.014587414746792319 -0.0005302842089579188 -0.0046306114479014665 0.000611954203229877 0.007373378556373767
 0.0006065642581292236 0.00737397411736944 -0.0005302842089579188 -0.0046306114479014665 0.002976088330154738 0.014588227650682243 0.9964888241216375 -0.03535760201040313
 -0.0005298002045142788 -0.004630613703360608 0.000611954203229877 0.007373378556373767 0.9964888241216375 -0.03535760201040313 0.0029753286792489676 0.014588310561852834
0.07503126302626001 0.0031964490299920775 0.016001947103498528 0.9961987038907507 -0.03864161955265745 0.0006913222544073732 0.008048978697977499 -0.0006022608337277497 -0.005057841129171184
 0.9961987038907507 -0.03864161955265745 0.0031948999365287003 0.016002086823050543 -0.0006028350276500507 -0.005057833857645997 0.0006977399347445377 0.00804826180876096
 0.0006913222544073732 0.008048978697977499 -0.0006028350276500507 -0.005057833857645997 0.0031961516680670847 0.01600296561598029 0.9961987302004333 -0.03864061786030748
 -0.0006022608337277497 -0.005057841129171184 0.0006977399347445377 0.00804826180876096 0.9961987302004333 -0.03864061786030748 0.003195248131970084 0.016003061941977585
0.08128386827845 0.003427338675792066 0.017430095252229324 0.9958943127694435 -0.04193655167174974 0.0007819752350924 0.008724545259437723 -0.0006797395299538708 -0.005485798187988884
 0.9958943127694435 -0.04193655167174974 0.003425521256987936 0.017430256289461838 -0.0006804113619731681 -0.005485784810290759 0.000789511161607232 0.008723691924390936
 0.0007819752350924 0.008724545259437723 -0.0006804113619731681 -0.005485784810290759 0.003426989343343638 0.017431199384102196 0.9958943433654311 -0.04193546644119467
 -0.0006797395299538708 -0.005485798187988884 0.000789511161607232 0.008723691924390936 0.9958943433654311 -0.04193546644119467 0.0034259295010349417 0.017431310189292216
0.08753647353064001 0.003669203543961192 0.018871570161635407 0.9955754374749797 -0.045243263647375756 0.0008785807300221347 0.009400610363904712 -0.0007622953496185239 -0.005914416339893492
 0.9955754374749797 -0.045243263647375756 0.003667096422981605 0.01887175437771447 -0.0007630722152730198 -0.005914395699258964 0.0008873256212562796 0.009399604522872508
 0.0008785807300221347 0.009400610363904712 -0.0007630722152730198 -0.005914395699258964 0.0036687980431207145 0.01887276012608284 0.9955754726872699 -0.04524209482764977
 -0.0007622953496185239 -0.005914416339893492 0.0008873256212562796 0.009399604522872508 0.9955754726872699 -0.04524209482764977 0.0036675694776632174 0.018872886493437577
0.09378907878283 0.003922239907202701 0.020326208455196237 0.9952418869281073 -0.04856169130700086 0.0009811955643054156 0.01007710847468906 -0.0008499865601866573 -0.006343626102185944
 0.9952418869281073 -0.04856169130700086 0.003919821708814428 0.020326417793421793 -0.00085087580227154 -0.006343596975206412 0.000991240341207565 0.010075933113901661
 0.0009811955643054156 0.01007710847468906 -0.00085087580227154 -0.006343596975206412 0.003921774036300926 0.020327484485027674 0.9952419270888702 -0.048560438841012625
 -0.0008499865601866573 -0.006343626102185944 0.000991240341207565 0.010075933113901661 0.9952419270888702 -0.048560438841012625 0.003920364332654413 0.020327627515943063
0.100041684035 0.004186643608393788 0.021793850518884484 0.9948934699959995 -0.051891760889588565 0.001089875815989463 0.010753972073325957 -0.0009428706099114156 -0.0067733569306901616
 0.9948934699959995 -0.051891760889588565 0.004183892957025249 0.021794087005549783 -0.0009438795186506654 -0.006773318027323988 0.0011013115957809248 0.010752609214389506
 0.001089875815989463 0.010753972073325957 -0.0009438795186506654 -0.006773318027323988 0.0041861131618485346 0.02179521286726343 0.9948935154399895 -0.05189042471375498
 -0.0009428706099114156 -0.0067733569306901616 0.0011013115957809248 0.010752609214389506 0.9948935154399895 -0.05189042471375498 0.004184509904915282 0.021795373681503572
0.1059090909091 0.004445270966139077 0.0231827637143141 0.9945528266162132 -0.05502719316197503 0.001197426396739606 0.01138940737194591 -0.0010348056965459342 -0.007177023789616122
 0.9945528266162132 -0.05502719316197503 0.004442188900648236 0.023183027594381823 -0.0010359334834619842 -0.007176974479524325 0.0012102505242205666 0.011387851345821702
 0.001197426396739606 0.01138940737194591 -0.0010359334834619842 -0.007176974479524325 0.004444676094118749 0.023184207313351503 0.9945528773252157 -0.055025778368506126
 -0.0010348056965459342 -0.007177023789616122 0.0012102505242205666 0.011387851345821702 0.9945528773252157 -0.055025778368506126 0.004442879914559241 0.023184385850060097
0.1062942892872 0.004462610038568049 0.023274339215994404 0.9945299955792486 -0.05523339028835226 0.0012046767741992175 0.011431131748529003 -0.001041004095991178 -0.007203537130841024
 0.9945299955792486 -0.05523339028835226 0.004459505557028691 0.0232746049611153 -0.0010421399092289717 -0.007203487094427466 0.0012175948636381287 0.011429562437459198
 0.0012046767741992175 0.011431131748529003 -0.0010421399092289717 -0.007203487094427466 0.0044620108071756585 0.023275788157947078 0.9945300466442727 -0.05523197033138858
 -0.001041004095991178 -0.007203537130841024 0.0012175948636381287 0.011429562437459198 0.9945300466442727 -0.05523197033138858 0.0044602015795762815 0.023275967893557004
0.11254689453939999 0.0047503341092422074 0.024767518901740275 0.9941512726934764 -0.05858648999508768 0.0013256528981976288 0.012108516265432814 -0.001144442731146827 -0.0076340937902092355
 0.9941512726934764 -0.05858648999508768 0.004746854416604305 0.024767816100011986 -0.0011457126343181624 -0.007634031197502845 0.001340144786045395 0.012106720561705515
 0.0013256528981976288 0.012108516265432814 -0.0011457126343181624 -0.007634031197502845 0.004749661879834056 0.02476905473370275 0.9941513297202569 -0.05858498617887632
 -0.001144442731146827 -0.0076340937902092355 0.001340144786045395 0.012106720561705515 0.9941513297202569 -0.05858498617887632 0.004747634259937691 0.024769254546995783
0.11879949979160001 0.005050010216214185 0.026273234653064987 0.9937571105449773 -0.061950963831598926 0.0014528577763726516 0.012786052618230912 -0.0012532413092109982 -0.008064952729414206
 0.9937571105449773 -0.061950963831598926 0.005046133926300242 0.026273565584729836 -0.0012546524353501984 -0.008064876090610873 0.0014690151253602473 0.012784009583918619
 0.0014528577763726516 0.012786052618230912 -0.0012546524353501984 -0.008064876090610873 0.005049260771698068 0.026274857691260863 0.9937571738774365 -0.061949376073126707
 -0.0012532413092109982 -0.008064952729414206 0.0014690151253602473 0.012784009583918619 0.9937571738774365 -0.061949376073126707 0.00504700233137919 0.0262750787568863
0.1250521050438 0.0053618322007585265 0.027791331655113258 0.9933473186055317 -0.06532670952600099 0.001586344085507915 0.013463666076424552 -0.0013674536696784392 -0.008496038461182005
 0.9933473186055317 -0.06532670952600099 0.005357537920581606 0.02779169868696197 -0.001369013099325759 -0.008495946219965108 0.0016042587238652378 0.013461353765412616
 0.001586344085507915 0.013463666076424552 -0.001369013099325759 -0.008495946219965108 0.0053610013203270485 0.027793042239839062 0.9933473885911236 -0.06532503773348824
 -0.0013674536696784392 -0.008496038461182005 0.0016042587238652378 0.013461353765412616 0.9933473885911236 -0.06532503773348824 0.005358499623043183 0.027793285750874842
0.131304710296 0.005685993306361146 0.029321654716348126 0.9929217066834044 -0.06871361916275326 0.00172616355028126 0.014141280219851886 -0.0014871326613817779 -0.008927274162597634
 0.9929217066834044 -0.06871361916275326 0.00568125963427373 0.029322060302755335 -0.001488847422460152 -0.008927164696186731 0.0017459274626104781 0.01413867566713401
 0.00172616355028126 0.014141280219851886 -0.001488847422460152 -0.008927164696186731 0.005685076765351657 0.029323453208977446 0.9929217836734183 -0.06871186323897749
 -0.0014871326613817779 -0.008927274162597634 0.0017459274626104781 0.01413867566713401 0.9929217836734183 -0.06871186323897749 0.005682319363724635 0.02932372037709126
0.1375573155481 0.005941221068659709 0.030662873533660363 0.9925615708026492 -0.07191034379448465 0.0018525348545845005 0.01479759810171741 -0.0015924761030507873 -0.009337385479391468
 0.9925615708026492 -0.07191034379448465 0.005936026038691773 0.0306633117417883 -0.0015943565251419825 -0.009337258977181889 0.0018741966415650878 0.014794708516776231
 0.0018525348545845005 0.01479759810171741 -0.0015943565251419825 -0.009337258977181889 0.005940215163107304 0.030664760403676185 0.9925616551128282 -0.07190850369840544
 -0.0015924761030507873 -0.009337385479391468 0.0018741966415650878 0.014794708516776231 0.9925616551128282 -0.07190850369840544 0.00593718806781618 0.030665043931610316
0.1438099208003 0.00620515676322179 0.03199814997319373 0.9921892560087527 -0.07510012901574718 0.001984007718050851 0.015452037259950212 -0.0017020528711406647 -0.009745771755092157
 0.9921892560087527 -0.07510012901574718 0.006199478891710907 0.03199862266120573 -0.0017041065018382387 -0.009745626654065597 0.0020076517213548683 0.015448841954487365
 0.001984007718050851 0.015452037259950212 -0.0017041065018382387 -0.009745626654065597 0.0062040573575402585 0.0320001255977214 0.9921893479882286 -0.0750982046548142
 -0.0017020528711406647 -0.009745771755092157 0.0020076517213548683 0.015448841954487365 0.9921893479882286 -0.0750982046548142 0.006200747859135497 0.03200042605348498
0.1500625260525 0.006477721590904131 0.03332740652776573 0.9918048439540518 -0.07828293069740362 0.002120545431784516 0.016104556298833967 -0.0018158270877096355 -0.010152392416648857
 0.9918048439540518 -0.07828293069740362 0.006471539384891247 0.033327915640812264 -0.0018180614641778122 -0.010152227091671462 0.0021462556358824553 0.016101033832918665
 0.002120545431784516 0.016104556298833967 -0.0018180614641778122 -0.010152227091671462 0.0064765245519998035 0.03332947130141022 0.9918049439549561 -0.0782809219730058
 -0.0018158270877096355 -0.010152392416648857 0.0021462556358824553 0.016101033832918665 0.9918049439549561 -0.0782809219730058 0.006472919918232475 0.03332978928812439
0.15631513130469998 0.006758836353209234 0.034650568243286654 0.9914084165300618 -0.0814587042167824 0.0022621109534222625 0.01675511437483922 -0.0019337625241084466 -0.010557207657747064
