! Created with skrf 1.8.0 (http://scikit-rf.org).
# GHz S RI R 50.0 
!freq ReS11 ImS11 ReS12 ImS12 ReS13 ImS13
! ReS14 ImS14
! ReS21 ImS21 ReS22 ImS22 ReS23 ImS23
! ReS24 ImS24
! ReS31 ImS31 ReS32 ImS32 ReS33 ImS33
! ReS34 ImS34
! ReS41 ImS41 ReS42 ImS42 ReS43 ImS43
! ReS44 ImS44
!
0.0 0.001447866781085 0.0 0.9985521332054 0.0 5.568724819911e-05 0.0 -5.568724848848e-05 6.819721061474032e-21
 0.9985521332054 0.0 0.001447866781091 0.0 -5.568724848845e-05 6.819721061470357e-21 5.568724820043e-05 0.0
 5.568724819911e-05 0.0 -5.568724848845e-05 6.819721061470357e-21 0.001447866784996 0.0 0.9985521332093 0.0
 -5.568724848848e-05 6.819721061474032e-21 5.568724820043e-05 0.0 0.9985521332093 0.0 0.001447866785008 0.0
0.005 0.0015575162369676598 0.001184648071891526 0.9984134502989955 -0.0030332396802621848 7.790160898345986e-05 0.0006135914396532197 -7.564713514141442e-05 -0.0003851918790754087
 0.9984134502989955 -0.0030332396802621848 0.0015575350799663114 0.0011846370144306306 -7.564717317687437e-05 -0.0003851918467480677 7.777827147810687e-05 0.0006136382121493876
 7.790160898345986e-05 0.0006135914396532197 -7.564717317687437e-05 -0.0003851918467480677 0.00155751688242042 0.0011847149130191077 0.9984134506521328 -0.0030331726180811173
 -7.564713514141442e-05 -0.0003851918790754087 7.777827147810687e-05 0.0006136382121493876 0.9984134506521328 -0.0030331726180811173 0.001557535136502328 0.0011847042939576525
0.006252605252188 0.0015861940283954093 0.0014854812334160845 0.9983769606740929 -0.003792303597983256 8.421357933000372e-05 0.0007672908245712145 -8.124528559646056e-05 -0.0004819923626174685
 0.9983769606740929 -0.003792303597983256 0.001586223484247226 0.001485467229130871 -8.124534527371702e-05 -0.00048199232145603143 8.402087280001209e-05 0.0007673515685583071
 8.421357933000372e-05 0.0007672908245712145 -8.124534527371702e-05 -0.00048199232145603143 0.0015861949602164775 0.0014855647592972795 0.99837696114864 -0.003792219788024522
 -8.124528559646056e-05 -0.0004819923626174685 8.402087280001209e-05 0.0007673515685583071 0.99837696114864 -0.003792219788024522 0.0015862234946555599 0.0014855513148253447
0.01250521050438 0.001736695124624721 0.0030021964640201196 0.9981842451917855 -0.007585488310994921 0.00012022802776677304 0.0015349620003410986 -0.00011280840392564709 -0.0009663706460613179
 0.9981842451917855 -0.007585488310994921 0.0017368127536534538 0.0030021666230809797 -0.00011280864506977011 -0.0009663705548956288 0.00011945947076984908 0.001535107950764022
 0.00012022802776677304 0.0015349620003410986 -0.00011280864506977011 -0.0009663705548956288 0.0017366982829009592 0.003002363206736629 0.9981842465190267 -0.007585320906639016
 -0.00011280840392564709 -0.0009663706460613179 0.00011945947076984908 0.001535107950764022 0.9981842465190267 -0.007585320906639016 0.001736812218346558 0.0030023346105437125
0.01875781575657 0.001899683225636343 0.004540629367988442 0.9979737583072493 -0.011388802457220704 0.000163810889574539 0.0023035353446603534 -0.00015047038502887644 -0.0014524475176772877
 0.9979737583072493 -0.011388802457220704 0.0018999475633198577 0.0045405817256273335 -0.0001504709311157256 -0.0014524473640239787 0.00016208420143937294 0.002303795492730378
 0.000163810889574539 0.0023035353446603534 -0.0001504709311157256 -0.0014524473640239787 0.001899689909993506 0.00454087909013396 0.9979737608675191 -0.011388551559953962
 -0.00015047038502887644 -0.0014524475176772877 0.00016208420143937294 0.002303795492730378 0.9979737608675191 -0.011388551559953962 0.0018999459194606423 0.004540833525196026
0.02501042100875 0.002075463064908637 0.00609864374930219 0.9977452629971634 -0.015204105368136385 0.0002150440373223503 0.0030730510399086266 -0.00019432225049199702 -0.001940012532656853
 0.9977452629971634 -0.015204105368136385 0.0020759325418250756 0.006098576231486583 -0.00019432322619495417 -0.0019400123004352208 0.00021197665922514217 0.0030734587466230753
 0.0002150440373223503 0.0030730510399086266 -0.00019432322619495417 -0.0019400123004352208 0.0020754745814625364 0.006098976239859519 0.9977452671749957 -0.015203771010639125
 -0.00019432225049199702 -0.001940012532656853 0.00021197665922514217 0.0030734587466230753 0.9977452671749957 -0.015203771010639125 0.002075929220762213 0.006098911802142788
0.03126302626094 0.00226432671151352 0.0076751484253183575 0.997498509592948 -0.01903220247884175 0.00027401002925019394 0.0038434788560130933 -0.0002444526359150373 -0.0024289208267910542
 0.997498509592948 -0.01903220247884175 0.002265059685497241 0.00767505885385082 -0.00024445416688598324 -0.0024289204962800403 0.0002692187674688334 0.003844071879228002
 0.00027401002925019394 0.0038434788560130933 -0.00024445416688598324 -0.0024289204962800403 0.002264344363429861 0.007675563453537367 0.9974985157683824 -0.019031784670782353
 -0.0002444526359150373 -0.0024289208267910542 0.0002692187674688334 0.003844071879228002 0.9974985157683824 -0.019031784670782353 0.002265054103328761 0.0076754781573904664
0.037515631513130004 0.0024665600174545448 0.00926943809008384 0.9972332424011009 -0.02287350440705605 0.0003407912508126213 0.004614760854699931 -0.00030094842957674103 -0.00291905039994621
 0.9972332424011009 -0.02287350440705605 0.0024676147950668166 0.009269324185251275 -0.0003009506422887199 -0.0029190499477395517 0.000333892113649256 0.004615581395127406
 0.0003407912508126213 0.004614760854699931 -0.0003009506422887199 -0.0029190499477395517 0.002466585112333827 0.009269935394825757 0.9972332509580244 -0.022873003145340413
 -0.00030094842957674103 -0.00291905039994621 0.000333892113649256 0.004615581395127406 0.9972332509580244 -0.022873003145340413 0.0024676063603890487 0.009269827176009994
0.043768236765320004 0.002682445122062496 0.010880992713740649 0.9969492023837825 -0.02672822748730504 0.00041546951175868834 0.005386824389875384 -0.0003638950097521288 -0.003410289108388679
 0.9969492023837825 -0.02672822748730504 0.0026838799758785448 0.010880852096055962 -0.0003638980313500767 -0.003410288507347832 0.0004060776292600339 0.005387919143027283
 0.00041546951175868834 0.005386824389875384 -0.0003638980313500767 -0.003410288507347832 0.0026824789691134057 0.010881572005453775 0.996949213707965 -0.026727642753773418
 -0.0003638950097521288 -0.003410289108388679 0.0004060776292600339 0.005387919143027283 0.996949213707965 -0.026727642753773418 0.002683868087436006 0.010881438723166366
0.050020842017509996 0.002912261613967349 0.0125093946463822 0.9966461285006107 -0.030596476598507904 0.0004981258114365471 0.006159587470479561 -0.0004333763317413348 -0.0039025292973817326
 0.9966461285006107 -0.030596476598507904 0.002914134797066103 0.012509224837829085 -0.00043338028988581324 -0.0039025285165843956 0.00048585539884122967 0.006161007681088279
 0.0004981258114365471 0.006159587470479561 -0.00043338028988581324 -0.0039025285165843956 0.00291230552269941 0.012510055612941402 0.996646142979484 -0.030595808353730852
 -0.0004333763317413348 -0.0039025292973817326 0.00048585539884122967 0.006161007681088279 0.996646142979484 -0.030595808353730852 0.0029141188430594706 0.012509895051419228
0.055454545454549996 0.0031235087706133623 0.013937929795455616 0.996367086623235 -0.0339691148419091 0.0005764979617142781 0.006831641360384886 -0.0004991288672100743 -0.004331032081692606
 0.996367086623235 -0.0339691148419091 0.0031258101787129335 0.013937732530714534 -0.0004991337432204298 -0.004331031116604181 0.0005614119964852943 0.006833389595294971
 0.0005764979617142781 0.006831641360384886 -0.0004991337432204298 -0.004331031116604181 0.0031235624877677306 0.013938661458834817 0.9963671041614041 -0.03396837398460483
 -0.0004991288672100743 -0.004331032081692606 0.0005614119964852943 0.006833389595294971 0.9963671041614041 -0.03396837398460483 0.0031257901879414665 0.013938475333970371
0.056273447269699996 0.0031562871314658055 0.014154287935953394 0.9963237584925019 -0.034478285777912086 0.0005888401752608191 0.006932961383062373 -0.0005094749506997314 -0.004395665176795054
 0.9963237584925019 -0.034478285777912086 0.003158656890914491 0.014154086360691966 -0.0005094799734411501 -0.0043956641815012035 0.0005733045228770784 0.006934762900608103
 0.0005888401752608191 0.006932961383062373 -0.0005094799734411501 -0.0043956641815012035 0.0031563424126538177 0.01415503023050454 0.9963237765174258 -0.03447753397298661
 -0.0005094749506997314 -0.004395665176795054 0.0005733045228770784 0.006934762900608103 0.9963237765174258 -0.03447753397298661 0.003158636250683862 0.014154840100105487
0.06252605252188 0.003414797693373392 0.015815355952060683 0.9959818293998796 -0.038373640531063374 0.0006876915260859945 0.007706852147534318 -0.0005922720124374453 -0.0048895913664475515
 0.9959818293998796 -0.038373640531063374 0.0034177222832411916 0.01581511993682057 -0.0005922782281064328 -0.004889590118052326 0.000668503006582203 0.007709095482289784
 0.0006876915260859945 0.007706852147534318 -0.0005922782281064328 -0.004889590118052326 0.003414865656724782 0.01581617919462626 0.9959818513644966 -0.03837280510573537
 -0.0005922720124374453 -0.0048895913664475515 0.000668503006582203 0.007709095482289784 0.9959818513644966 -0.03837280510573537 0.0034176963252758553 0.01581595713248781
0.06877865777407 0.0036880678737495507 0.01749230804572324 0.9956200779272096 -0.04228249110812568 0.0007947575768993701 0.008481161372583573 -0.0006818472239036703 -0.005384202044930335
 0.9956200779272096 -0.04228249110812568 0.0036916055673125807 0.01749203481979427 -0.0006818547609767026 -0.005384200500927312 0.0007715276648653151 0.008483911751778522
 0.0007947575768993701 0.008481161372583573 -0.0006818547609767026 -0.005384200500927312 0.003688149828240557 0.01749321182370039 0.9956201042289916 -0.04228157198990272
 -0.0006818472239036703 -0.005384202044930335 0.0007715276648653151 0.008483911751778522 0.9956201042289916 -0.04228157198990272 0.0036915736503275193 0.017492955394086775
0.07503126302626001 0.003976370892370672 0.01918487109761726 0.9952382407272652 -0.04620476089488811 0.0009101147339716328 0.009255786809531447 -0.0007782788131786356 -0.005879390403258558
 0.9952382407272652 -0.04620476089488811 0.003980579994391343 0.019184557792480652 -0.0007782878001299417 -0.005879388517207666 0.0008824540347534777 0.009259114233439426
 0.0009101147339716328 0.009255786809531447 -0.0007782878001299417 -0.005879388517207666 0.003976468144976504 0.019185854967961512 0.9952382717677446 -0.04620375799664103
 -0.0007782788131786356 -0.005879390403258558 0.0008824540347534777 0.009259114233439426 0.9952382717677446 -0.04620375799664103 0.003980541466903252 0.019185561662171932
0.08128386827845 0.004279978647871114 0.020892783888064315 0.9948360546310338 -0.05014035198530261 0.0010338380087141607 0.010030622715933921 -0.0008816434804205282 -0.006375048292266814
 0.9948360546310338 -0.05014035198530261 0.004284917506562892 0.020892427536660367 -0.0008816540456164765 -0.006375046013754554 0.0010013562942438844 0.010034602013684927
 0.0010338380087141607 0.010030622715933921 -0.0008816540456164765 -0.006375046013754554 0.004280092503032252 0.020893847372759167 0.9948360908160461 -0.05013926520952086
 -0.0008816434804205282 -0.006375048292266814 0.0010013562942438844 0.010034602013684927 0.9948360908160461 -0.05013926520952086 0.0042848717069036485 0.020893514608763902
0.08753647353064001 0.004599161714583222 0.022615793207021066 0.9944132568443702 -0.05408914901782948 0.0011660009329387583 0.010805560114424382 -0.0009920163447137906 -0.006871065978272236
 0.9944132568443702 -0.05408914901782948 0.0046048887335258795 0.02261539074269637 -0.000992028616258955 -0.00687106325288995 0.001128307183305565 0.010810270999503751
 0.0011660009329387583 0.010805560114424382 -0.000992028616258955 -0.00687106325288995 0.004599293473467224 0.02261693579451213 0.9944132985849367 -0.05408797825492635
 -0.0009920163447137906 -0.006871065978272236 0.001128307183305565 0.010810270999503751 0.9944132985849367 -0.05408797825492635 0.004604834989956848 0.022616560916061623
0.09378907878283 0.0049341893136188595 0.024353651070379536 0.9939695851225959 -0.05805102190920839 0.0013066754781934134 0.011580486978071876 -0.0011094708859249605 -0.0073673319760172665
 0.9939695851225959 -0.05805102190920839 0.004940762964019309 0.024353199325367534 -0.0011094849915788654 -0.00736732874533325 0.001263377928125934 0.011586014103276374
 0.0013066754781934134 0.011580486978071876 -0.0011094849915788654 -0.00736732874533325 0.004934340272894719 0.024354872212108022 0.9939696328345463 -0.05804976704083494
 -0.0011094708859249605 -0.0073673319760172665 0.001263377928125934 0.011586014103276374 0.9939696328345463 -0.05804976704083494 0.004940700593973147 0.024354452487624134
0.100041684035 0.00528532926622173 0.02610611268055918 0.9935047779291608 -0.062025827848224864 0.001455931976423945 0.01235528837436442 -0.001234078884583945 -0.007863732926696704
 0.9935047779291608 -0.062025827848224864 0.005292808098668623 0.02610560838414561 -0.0012340949515842576 -0.007863729128229127 0.0014066381657495159 0.012361721386226985
 0.001455931976423945 0.01235528837436442 -0.0012340949515842576 -0.007863729128229127 0.005285500717697971 0.026107411799126273 0.9935048320343248 -0.06202448873885368
 -0.001234078884583945 -0.007863732926696704 0.0014066381657495159 0.012361721386226985 0.9935048320343248 -0.06202448873885368 0.00529273640936035 0.026106944420056916
0.1059090909091 0.005629728168586082 0.027763677374069092 0.9930491509758048 -0.06576738702053042 0.0016038597052359539 0.013082138360114804 -0.0013575786609406717 -0.008329572612222731
 0.9930491509758048 -0.06576738702053042 0.005638109750921437 0.02776312069539711 -0.0013575966836151326 -0.008329568220504572 0.0015485815303221595 0.013089507478759872
 0.0016038597052359539 0.013082138360114804 -0.0013575966836151326 -0.008329568220504572 0.0056299200193966675 0.02776504910499673 0.9930492114692897 -0.06576596873108419
 -0.0013575786609406717 -0.008329572612222731 0.0015485815303221595 0.013089507478759872 0.9930492114692897 -0.06576596873108419 0.005638028676958325 0.027764534382491064
0.1062942892872 0.005652847932716543 0.027872934897627884 0.9930185745839518 -0.06601341278305627 0.001613839042578909 0.013129846573622055 -0.0013659103588279109 -0.00836015351551635
 0.9930185745839518 -0.06601341278305627 0.0056612905894443556 0.02787237467392309 -0.001365928513783716 -0.008360149082720201 0.001558155870350831 0.01313728016627437
 0.001613839042578909 0.013129846573622055 -0.001365928513783716 -0.008360149082720201 0.005653041162207411 0.027874311376616542 0.9930186355100885 -0.06601198929007795
 -0.0013659103588279109 -0.00836015351551635 0.001558155870350831 0.01313728016627437 0.9930186355100885 -0.06601198929007795 0.005661208877411069 0.02787379345544957
0.11254689453939999 0.006037010142062925 0.02965387506429181 0.992510715404469 -0.07001361255943829 0.0017804634977469818 0.013904041138459295 -0.0015050335001204535 -0.008856476412201733
 0.992510715404469 -0.07001361255943829 0.006046475369143403 0.029653255429490967 -0.0015050538688887226 -0.008856471274445523 0.0017179972795167387 0.013912575106726341
 0.0017804634977469818 0.013904041138459295 -0.0015050538688887226 -0.008856471274445523 0.006037226428739346 0.02965532825191965 0.9925107835859829 -0.07001210452928093
 -0.0015050335001204535 -0.008856476412201733 0.0017179972795167387 0.013912575106726341 0.9925107835859829 -0.07001210452928093 0.006046382920304246 0.029654756819750133
0.11879949979160001 0.006438079112913425 0.0314486900885521 0.9919809418410886 -0.07402625380549405 0.0019558702934369117 0.014677749000313154 -0.0016515146070777615 -0.00935258222852773
 0.9919809418410886 -0.07402625380549405 0.006448625772468624 0.03144800744791493 -0.0016515373146161634 -0.009352576311089138 0.0018862268214366164 0.014687488292077437
 0.0019558702934369117 0.014677749000313154 -0.0016515373146161634 -0.009352576311089138 0.00643831972840204 0.03145021929960398 0.9919810177194794 -0.07402466107166869
 -0.0016515146070777615 -0.00935258222852773 0.0018862268214366164 0.014687488292077437 0.9919810177194794 -0.07402466107166869 0.00644852186198454 0.03144959130327785
0.1250521050438 0.006856316368253646 0.03325713572911432 0.9914289966090097 -0.07805115461892702 0.0021401224359629298 0.01545084452260921 -0.001805418018563389 -0.009848349493360928
 0.9914289966090097 -0.07805115461892702 0.006868003450743188 0.03325638637342909 -0.0018054431887809135 -0.009848342717422262 0.0020629070419533827 0.015461899290430646
 0.0021401224359629298 0.01545084452260921 -0.0018054431887809135 -0.009848342717422262 0.006856582575356093 0.0332587402436325 0.9914290806328148 -0.07804947700324436
 -0.001805418018563389 -0.009848349493360928 0.0020629070419533827 0.015461899290430646 0.9914290806328148 -0.07804947700324436 0.006867887342799727 0.033258052542423366
0.131304710296 0.007291981644462003 0.03507896601435129 0.9908546238164047 -0.08208812512518618 0.0023332809113898677 0.01622319955929851 -0.001966806045606999 -0.010343654636703866
 0.9908546238164047 -0.08208812512518618 0.007304868281382506 0.03507814611592909 -0.0019668338012713417 -0.010343646919317911 0.0022480985320035055 0.016235685211071462
 0.0023332809113898677 0.01622319955929851 -0.0019668338012713417 -0.010343646919317911 0.0072922746966469065 0.03508064507622457 0.9908547164424037 -0.08208636243919824
 -0.001966806045606999 -0.010343654636703866 0.0022480985320035055 0.016235685211071462 0.9908547164424037 -0.08208636243919824 0.007304739229145016 0.03507989443805952
0.1375573155481 0.007642988262521366 0.03667626923595547 0.990359947890879 -0.0858992152904616 0.0025107229079953278 0.016970735248752356 -0.0021111618261363623 -0.01081436457266717
 0.990359947890879 -0.0858992152904616 0.007657137012915782 0.036675391149010965 -0.002111192170259091 -0.010814355900707364 0.0024173825481624885 0.016984629752177887
 0.0025107229079953278 0.016970735248752356 -0.002111192170259091 -0.010814355900707364 0.007643308618547354 0.036678022541291766 0.9903600495118874 -0.08589736743812429
 -0.0021111618261363623 -0.01081436457266717 0.0024173825481624885 0.016984629752177887 0.9903600495118874 -0.08589736743812429 0.0076569951784004634 0.03667722115632523
0.1438099208003 0.008006264389540557 0.03826555696188884 0.989848017281241 -0.08970104493565115 0.002695346764042634 0.017715428249538537 -0.0022612995764863726 -0.011282513301689662
 0.989848017281241 -0.08970104493565115 0.008021735072834983 0.03826461774263223 -0.0022613326086809607 -0.011282503598075805 0.002593489699619558 0.01773083667846099
 0.002695346764042634 0.017715428249538537 -0.0022613326086809607 -0.011282503598075805 0.008006613145239878 0.038267383772242335 0.9898481283518908 -0.08969911173425738
 -0.0022612995764863726 -0.011282513301689662 0.002593489699619558 0.01773083667846099 0.9898481283518908 -0.08969911173425738 0.00802157985898357 0.038266529224146695
0.1500625260525 0.008381687364174354 0.03984670822297355 0.989318958351428 -0.09349353156642753 0.0028870924358391555 0.01845720840894333 -0.0024171617940725674 -0.011748035837672264
 0.989318958351428 -0.09349353156642753 0.008398539947693543 0.039845704739290555 -0.002417197611421352 -0.011748025022639575 0.002776361933784295 0.018474239660120833
 0.0028870924358391555 0.01845720840894333 -0.002417197611421352 -0.011748025022639575 0.00838206559679853 0.039848607772042265 0.9893190793330793 -0.09349151282673834
 -0.0024171617940725674 -0.011748035837672264 0.002776361933784295 0.018474239660120833 0.9893190793330793 -0.09349151282673834 0.008398370757882478 0.039847697473718545
0.15631513130469998 0.008769133718806627 0.04141960575859076 0.9887728980356892 -0.09727659274480595 0.003085899203615985 0.019196006689567557 -0.0025786903014586213 -0.012210868522563454
