! Created with skrf 1.8.0 (http://scikit-rf.org).
# GHz S RI R 50.0 
!freq ReS11 ImS11 ReS12 ImS12 ReS13 ImS13
! ReS14 ImS14
! ReS21 ImS21 ReS22 ImS22 ReS23 ImS23
! ReS24 ImS24
! ReS31 ImS31 ReS32 ImS32 ReS33 ImS33
! ReS34 ImS34
! ReS41 ImS41 ReS42 ImS42 ReS43 ImS43
! ReS44 ImS44
!
0.0 0.001719047934634 0.0 0.9982809520568 0.0 6.707796048931e-05 0.0 -6.707796040066e-05 8.214680949800118e-21
 0.9982809520568 0.0 0.001719047934644 0.0 -6.707796040034e-05 8.21468094976093e-21 6.707796048925e-05 0.0
 6.707796048931e-05 0.0 -6.707796040034e-05 8.21468094976093e-21 0.001719047927527 0.0 0.9982809520497 0.0
 -6.707796040066e-05 8.214680949800118e-21 6.707796048925e-05 0.0 0.9982809520497 0.0 0.001719047927557 0.0
0.005 0.0018502224820468982 0.0013968649153387603 0.9981148632632787 -0.00360087715246705 9.57346672925839e-05 0.0007927289521957642 -9.256198364637762e-05 -0.0004881034072298455
 0.9981148632632787 -0.00360087715246705 0.0018502351917839503 0.0013968574136707262 -9.256291340749302e-05 -0.0004881040282391071 9.56529080691881e-05 0.0007927600552498375
 9.57346672925839e-05 0.0007927289521957642 -9.256291340749302e-05 -0.0004881040282391071 0.0018502228185650498 0.0013969319355042027 0.9981148636373492 -0.0036008100810791047
 -9.256198364637762e-05 -0.0004881034072298455 9.56529080691881e-05 0.0007927600552498375 0.9981148636373492 -0.0036008100810791047 0.0018502355892019708 0.001396924520475604
0.006252605252188 0.0018847967290355524 0.0017515935754617042 0.9980707770108441 -0.004501953346334566 0.00010403696804730678 0.000991257631145434 -9.98500075779373e-05 -0.0006107615797306664
 0.9980707770108441 -0.004501953346334566 0.0018848165975618334 0.0017515840575824824 -9.985145508247182e-05 -0.0006107623432275213 0.00010390922726955474 0.000991298047415842
 0.00010403696804730678 0.000991257631145434 -9.985145508247182e-05 -0.0006107623432275213 0.0018847971846536725 0.0017516773144580792 0.9980707775249167 -0.004501869528202254
 -9.98500075779373e-05 -0.0006107615797306664 0.00010390922726955474 0.000991298047415842 0.9980707775249167 -0.004501869528202254 0.0018848171474597482 0.0017516679203120468
0.01250521050438 0.0020677992354041306 0.0035399502677278425 0.9978357257272309 -0.009004557287595763 0.00015225596738591553 0.0019826182258647737 -0.00014169995997656323 -0.0012244134717052917
 0.9978357257272309 -0.009004557287595763 0.0020678785864271495 0.003539929819818076 -0.00014170567329475206 -0.0012244148563482493 0.0001517465674196738 0.001982715755857807
 0.00015225596738591553 0.0019826182258647737 -0.00014170567329475206 -0.0012244148563482493 0.0020678004941010407 0.0035401173419388086 0.9978357272172637 -0.00900438985265172
 -0.00014169995997656323 -0.0012244134717052917 0.0001517465674196738 0.001982715755857807 0.9978357272172637 -0.00900438985265172 0.0020678802035933755 0.0035400973007025287
0.01875781575657 0.0022684915289113853 0.005353696669331065 0.9975754805327279 -0.013518736568125309 0.0002118507593540043 0.0029747746072287386 -0.00019276596234987767 -0.0018399699253009829
 0.9975754805327279 -0.013518736568125309 0.0022686698663647764 0.00535366379143308 -0.00019277871525147751 -0.0018399717549792813 0.00021070645680364803 0.0029749494745478244
 0.0002118507593540043 0.0029747746072287386 -0.00019277871525147751 -0.0018399717549792813 0.002268493944042188 0.005353946712265552 0.997575483467135 -0.013518485551018594
 -0.00019276596234987767 -0.0018399699253009829 0.00021070645680364803 0.0029749494745478244 0.997575483467135 -0.013518485551018594 0.0022686730512980076 0.005353914696435948
0.02501042100875 0.0024872945120252483 0.007190228240892454 0.9972897103376817 -0.018046632282418366 0.00028293900411973934 0.003967749609946708 -0.00025318048612878494 -0.0024571067601695785
 0.9972897103376817 -0.018046632282418366 0.00248761128305562 0.007190181359720353 -0.0002532030228058411 -0.0024571088224625 0.0002809064881987461 0.0039680254590929755
 0.00028293900411973934 0.003967749609946708 -0.0002532030228058411 -0.0024571088224625 0.002487298430998784 0.0071905608472516615 0.9972897151843528 -0.018046297626507207
 -0.00025318048612878494 -0.0024571067601695785 0.0002809064881987461 0.0039680254590929755 0.9972897151843528 -0.018046297626507207 0.002487616509902503 0.007190515470384601
0.03126302626094 0.00272461152838624 0.009048180229291838 0.9969780686118441 -0.022589130948041738 0.0003656385476286885 0.004961467384267295 -0.0003230714877222375 -0.003075590049536946
 0.9969780686118441 -0.022589130948041738 0.0027251061470468783 0.009048117701116494 -0.0003231065275112288 -0.003075592095351146 0.0003624642208562454 0.004961871301322766
 0.0003656385476286885 0.004961467384267295 -0.0003231065275112288 -0.003075592095351146 0.002724617300426747 0.009048594903667419 0.9969780758500356 -0.02258871255623588
 -0.0003230714877222375 -0.003075590049536946 0.0003624642208562454 0.004961871301322766 0.9969780758500356 -0.02258871255623588 0.0027251138735611873 0.009048534723508061
0.037515631513130004 0.002980836637426919 0.010926644294624678 0.9966402020085633 -0.02714664782423848 0.0004600661121765333 0.005955812776820405 -0.0004025633989093274 -0.00369521676558473
 0.9966402020085633 -0.02714664782423848 0.002981548501592314 0.01092656440656655 -0.0004026136387446148 -0.003695218508988975 0.0004554960003439268 0.005956375322986551
 0.0004600661121765333 0.005955812776820405 -0.0004026136387446148 -0.003695218508988975 0.002980844607082815 0.010927140464794576 0.99664021212577 -0.027146145545327308
 -0.0004025633989093274 -0.00369521676558473 0.0004554960003439268 0.005956375322986551 0.99664021212577 -0.027146145545327308 0.0029815591628699987 0.010927063984978135
0.043768236765320004 0.0032563578007200012 0.012824930144752642 0.9962757539040173 -0.031719365212349054 0.0005663366706263236 0.0069506493990763455 -0.000491777468151784 -0.004315796741015304
 0.9962757539040173 -0.031719365212349054 0.003257326305870232 0.012824831115317011 -0.0004918455837519038 -0.004315797859139932 0.0005601163883590963 0.0069514046481238875
 0.0005663366706263236 0.0069506493990763455 -0.0004918455837519038 -0.004315797859139932 0.003256368304168626 0.012825507149019305 0.9962757673964905 -0.03171877885316848
 -0.000491777468151784 -0.004315796741015304 0.0005601163883590963 0.0069514046481238875 0.9962757673964905 -0.03171877885316848 0.003257340312301899 0.012825412819762388
0.050020842017509996 0.0035515583397837513 0.014742467015985772 0.9958843662128534 -0.03630733090939384 0.0006845630632970561 0.00794582709904733 -0.0005908318694951572 -0.0049371452326238095
 0.9958843662128534 -0.03630733090939384 0.003552822891535159 0.014742346995025668 -0.0005909205161194294 -0.004937145365576713 0.0006764378092050566 0.007946812676170579
 0.0006845630632970561 0.00794582709904733 -0.0005909205161194294 -0.004937145365576713 0.003551571704382444 0.014743124109048548 0.9958843835891898 -0.036306660228671045
 -0.0005908318694951572 -0.0049371452326238095 0.0006764378092050566 0.007946812676170579 0.9958843835891898 -0.036306660228671045 0.0035528406290567037 0.014743010327489557
0.055454545454549996 0.0038243733782440553 0.016424109597112265 0.9955220818158896 -0.040306767393990174 0.000797100809981106 0.008810819436627792 -0.0006849941745513186 -0.00547759793009526
 0.9955220818158896 -0.040306767393990174 0.0038259272220440626 0.016423969777798933 -0.0006851028040282916 -0.005477596885834457 0.0007871128343311883 0.008812038519868089
 0.000797100809981106 0.008810819436627792 -0.0006851028040282916 -0.005477596885834457 0.003824389486232857 0.016424835616876205 0.9955221029905748 -0.04030602320451912
 -0.0006849941745513186 -0.00547759793009526 0.0007871128343311883 0.008812038519868089 0.9955221029905748 -0.04030602320451912 0.0038259484951863997 0.016424703587555406
0.056273447269699996 0.003866817669765207 0.016678755331659443 0.9954656804848216 -0.04091050648771618 0.0008148557198844502 0.008941185640604778 -0.0006998417098896488 -0.005559079283687776
 0.9954656804848216 -0.04091050648771618 0.003868417695355242 0.01667861240007162 -0.0006999535227040269 -0.005559078034501919 0.0008045702896812838 0.008942442761713057
 0.0008148557198844502 0.008941185640604778 -0.0006999535227040269 -0.005559078034501919 0.0038668342117129774 0.016679491682416718 0.9954657022671544 -0.040909751198074294
 -0.0006998417098896488 -0.005559079283687776 0.0008045702896812838 0.008942442761713057 0.9954657022671544 -0.040909751198074294 0.0038684395240348064 0.016679356792373062
0.06252605252188 0.004202511671027894 0.01863334013032492 0.9950193386442573 -0.0455287938111018 0.0009573224349718145 0.009936556735395074 -0.0008189189835716064 -0.006181415740982269
 0.9950193386442573 -0.0455287938111018 0.004204486630477372 0.01863317229918953 -0.0008190565777831992 -0.0061814126755698785 0.0009446212467055282 0.009938130246363489
 0.0009573224349718145 0.009936556735395074 -0.0008190565777831992 -0.0061814126755698785 0.004202531691981402 0.018634154808851437 0.995019365369302 -0.045527953591938286
 -0.0008189189835716064 -0.006181415740982269 0.0009446212467055282 0.009938130246363489 0.995019365369302 -0.045527953591938286 0.004204512882403257 0.01863399710017661
0.06877865777407 0.004559012864651297 0.020605795218128862 0.994544983539183 -0.05016205083420482 0.0011120681730715585 0.01093176526497981 -0.0009481724966252275 -0.00680397008938199
 0.994544983539183 -0.05016205083420482 0.004561402262012266 0.020605600427410487 -0.000948338467543932 -0.006803964736479471 0.001096695300858338 0.010933703680568334
 0.0011120681730715585 0.01093176526497981 -0.000948338467543932 -0.006803964736479471 0.004559036650205962 0.020606687212742423 0.9945450157605074 -0.05016112531447256
 -0.0009481724966252275 -0.00680397008938199 0.001096695300858338 0.010933703680568334 0.9945450157605074 -0.05016112531447256 0.004561433240275471 0.020606504920254357
0.07503126302626001 0.004936690471962824 0.02259571314953778 0.994042259378395 -0.0548101015815829 0.0012791948907369332 0.011926630072960822 -0.0010877077737548569 -0.007426555724635201
 0.994042259378395 -0.0548101015815829 0.004939533865713908 0.022595489266483536 -0.001087904696670272 -0.007426547575793242 0.001260894105029319 0.01192898561519729
 0.0012791948907369332 0.011926630072960822 -0.001087904696670272 -0.007426547575793242 0.004936718288869907 0.022596681354072848 0.994042297667837 -0.05480909035266321
 -0.0010877077737548569 -0.007426555724635201 0.001260894105029319 0.01192898561519729 0.994042297667837 -0.05480909035266321 0.004939569842748338 0.02259647265604307
0.08128386827845 0.005335910397711311 0.024602698549011728 0.9935108120975117 -0.05947274279497269 0.0014588013705874334 0.012920964501593187 -0.0012376269522111837 -0.008048983490173488
 0.9935108120975117 -0.05947274279497269 0.0053392474120295495 0.02460244336602486 -0.0012378573822248425 -0.0080489719997176 0.0014373161836507883 0.012923793137553432
 0.0014588013705874334 0.012920964501593187 -0.0012378573822248425 -0.0080489719997176 0.005335942491568028 0.02460374176838442 0.9935108570473005 -0.059471645405275955
 -0.0012376269522111837 -0.008048983490173488 0.0014373161836507883 0.012923793137553432 0.9935108570473005 -0.059471645405275955 0.0053392886281911816 0.02460350478451956
0.08753647353064001 0.00575703516800195 0.02662636351029363 0.9929502896841038 -0.06414974851229144 0.0016509830617455934 0.013914576780012821 -0.001398028668618546 -0.00867106137111534
 0.9929502896841038 -0.06414974851229144 0.005760905503083724 0.026626074742415535 -0.0013982951404329033 -0.008671045956150085 0.001626056777223413 0.013917938258773304
 0.0016509830617455934 0.013914576780012821 -0.0013982951404329033 -0.008671045956150085 0.0057570717603294425 0.026627480459418963 0.9929503419076835 -0.06414856446851978
 -0.001398028668618546 -0.00867106137111534 0.001626056777223413 0.013917938258773304 0.9929503419076835 -0.06414856446851978 0.005760952164452103 0.026627213248510414
0.09378907878283 0.0062004238310254724 0.028666324320198777 0.9923603424695788 -0.06884087333188474 0.0018558319256187208 0.014907270318640732 -0.001569007939719167 -0.009292594291072391
 0.9923603424695788 -0.06884087333188474 0.006204867274085152 0.028665999602170325 -0.0015693129672701154 -0.009292574331484138 0.0018272076918359943 0.014911228207399107
 0.0018558319256187208 0.014907270318640732 -0.0015693129672701154 -0.009292574331484138 0.006200465116981877 0.028667513622643873 0.992360402604077 -0.06883960210087639
 -0.001569007939719167 -0.009292594291072391 0.0018272076918359943 0.014911228207399107 0.992360402604077 -0.06883960210087639 0.006204919551697446 0.028667214179577634
0.100041684035 0.006666431835085247 0.030722199052957477 0.9917406234023952 -0.07354585481670425 0.0020734362854228244 0.0158988439386378 -0.0017506560389655037 -0.009913383983166085
 0.9917406234023952 -0.07354585481670425 0.006671488271198262 0.030721835935696558 -0.0017510021152146024 -0.009913358821618465 0.002040857151650321 0.015903465657909593
 0.0020734362854228244 0.0158988439386378 -0.0017510021152146024 -0.009913358821618465 0.006666477981199556 0.030723459241231196 0.9917406921102875 -0.07354449582553312
 -0.0017506560389655037 -0.009913383983166085 0.002040857151650321 0.015903465657909593 0.9917406921102875 -0.07354449582553312 0.006671546298714678 0.030723125493722175
0.1059090909091 0.007124616312678084 0.03266555276475836 0.9911316989875796 -0.07797333624144226 0.0022893112355776993 0.01682812898868841 -0.0019308946067861463 -0.010495073823347384
 0.9911316989875796 -0.07797333624144226 0.007130284349044051 0.032665151308501915 -0.001931281451083153 -0.010495043149375435 0.002252787117360179 0.016833438423264735
 0.0022893112355776993 0.01682812898868841 -0.001931281451083153 -0.010495043149375435 0.007124667142637497 0.03266687806014126 0.9911317763671739 -0.0779718943367348
 -0.0019308946067861463 -0.010495073823347384 0.002252787117360179 0.016833438423264735 0.9911317763671739 -0.0779718943367348 0.007130347859522495 0.03266651017353835
0.1062942892872 0.007155410888510957 0.032793605783473796 0.9910907883061771 -0.07826441528974457 0.0023038806781450986 0.01688909206266174 -0.0019430603705981 -0.010533228909079853
 0.9910907883061771 -0.07826441528974457 0.00716112031095292 0.03279320173031098 -0.0019434499670552675 -0.010533197851088236 0.002267089653592335 0.01689444892048279
 0.0023038806781450986 0.01688909206266174 -0.0019434499670552675 -0.010533197851088236 0.00715546202949199 0.03279493530250718 0.9910908662768884 -0.07826296792294436
 -0.0019430603705981 -0.010533228909079853 0.002267089653592335 0.01689444892048279 0.9910908662768884 -0.07826296792294436 0.007161184183509505 0.032794565107170166
0.11254689453939999 0.0076677088056120064 0.034880161227278564 0.990410496128369 -0.08299626321396057 0.0025472457086360128 0.01787780487694481 -0.0021463043414920663 -0.011151924216515579
 0.990410496128369 -0.08299626321396057 0.0076741113273490575 0.03487971360942544 -0.0021467399079165756 -0.011151886530395111 0.0025059858240748406 0.017883972101950463
 0.0025472457086360128 0.01787780487694481 -0.0021467399079165756 -0.011151886530395111 0.007667765042149858 0.03488155843119104 0.9904105840799885 -0.08299472681751142
 -0.0021463043414920663 -0.011151924216515579 0.0025059858240748406 0.017883972101950463 0.9904105840799885 -0.08299472681751142 0.007674181099273294 0.034881149569208514
0.11879949979160001 0.008203669342315754 0.03698147968742122 0.9896994091801347 -0.08774109427626839 0.002803607905767693 0.018864768478736225 -0.002360467231613405 -0.011769261720766486
 0.9896994091801347 -0.08774109427626839 0.008210805206215574 0.03698098577922003 -0.002360951195499532 -0.011769216637773342 0.0027576222772172842 0.018871825252170557
 0.002803607905767693 0.018864768478736225 -0.002360951195499532 -0.011769216637773342 0.008203730738176271 0.03698294284148573 0.9896995078613042 -0.08773946815646828
 -0.002360467231613405 -0.011769261720766486 0.0027576222772172842 0.018871825252170557 0.9896995078613042 -0.08773946815646828 0.008210880889789164 0.03698249301371136
0.1250521050438 0.008763632023292249 0.03909717223412893 0.9889571933710243 -0.0924985922500547 0.003073039579949743 0.019849765006272918 -0.0025856240635114755 -0.012385029913853967
 0.9889571933710243 -0.0924985922500547 0.008771541613333536 0.039096629207592125 -0.0025861588297585295 -0.012384976628209225 0.0030220714746304446 0.019857794492756535
 0.003073039579949743 0.019849765006272918 -0.0025861588297585295 -0.012384976628209225 0.008763698602604765 0.03909869951540035 0.9889573035628225 -0.09249687567394735
 -0.0025856240635114755 -0.012385029913853967 0.0030220714746304446 0.019857794492756535 0.9889573035628225 -0.09249687567394735 0.008771623176723857 0.03909820633695913
0.131304710296 0.009347931962563118 0.04122684606416606 0.988183518439936 -0.09726842968974338 0.0033556086823079362 0.020832572765490148 -0.00282184547155885 -0.012999013986754359
 0.988183518439936 -0.09726842968974338 0.00935665581466902 0.04122625098306634 -0.0028224334219565618 -0.012998951655692528 0.0032994015864060613 0.020841662142569262
 0.0033556086823079362 0.020832572765490148 -0.0028224334219565618 -0.012998951655692528 0.009348003707652427 0.041228435561346845 0.9881836409577821 -0.09726662188642715
 -0.00282184547155885 -0.012999013986754359 0.0032994015864060613 0.020841662142569262 0.9881836409577821 -0.09726662188642715 0.009356743180546516 0.04122789655562728
0.1375573155481 0.009829110367353101 0.04309075173386893 0.987505909144542 -0.10177075804670789 0.00361802063314769 0.021785293846217517 -0.0030359107629890684 -0.01358330013517557
 0.987505909144542 -0.10177075804670789 0.009838690456832019 0.043090114163593325 -0.0030365551907565657 -0.013583228614312028 0.0035564485340123532 0.02179543544677064
 0.00361802063314769 0.021785293846217517 -0.0030365551907565657 -0.013583228614312028 0.009829186378133346 0.043092402291989615 0.9875060445849451 -0.1017688585102943
 -0.0030359107629890684 -0.01358330013517557 0.0035564485340123532 0.02179543544677064 0.9875060445849451 -0.1017688585102943 0.009838784810539673 0.043091826342085256
0.1438099208003 0.010327369033244124 0.044943586644729 0.9868041198554459 -0.10626044045745779 0.0038910173369021846 0.02273343652514223 -0.003258506636158642 -0.01416342749733429
 0.9868041198554459 -0.10626044045745779 0.010337846261354193 0.044942904318156306 -0.003259210054381638 -0.014163345959159569 0.0038238475597956695 0.022744710543595843
 0.0038910173369021846 0.02273343652514223 -0.003259210054381638 -0.014163345959159569 0.010327449070085296 0.04494529632449221 0.9868042690386459 -0.10625844842377417
 -0.003258506636158642 -0.01416342749733429 0.0038238475597956695 0.022744710543595843 0.9868042690386459 -0.10625844842377417 0.01033794768774369 0.0449446815069825
0.1500625260525 0.01084251322871375 0.0467851598490491 0.9860783502366002 -0.11073732877614881 0.004174493189869838 0.023676879863263462 -0.0034895310545148325 -0.014739283584965754
 0.9860783502366002 -0.11073732877614881 0.01085392863462973 0.046784430336079326 -0.0034902959651182926 -0.014739191169502204 0.004101494769717634 0.023689369396553032
 0.004174493189869838 0.023676879863263462 -0.0034902959651182926 -0.014739191169502204 0.01084259700015627 0.04678692663782197 0.986078514012367 -0.11073524345433537
 -0.0034895310545148325 -0.014739283584965754 0.004101494769717634 0.023689369396553032 0.986078514012367 -0.11073524345433537 0.010854037189171545 0.046786270874282956
0.15631513130469998 0.011374346600124747 0.048615286115692734 0.985328801234865 -0.11520127620830709 0.0044683411986002316 0.024615505232151707 -0.0037288805959173397 -0.01531075852484478
 0.985328801234865 -0.11520127620830709 0.01138674136422074 0.04861450681663151 -0.0037297094895520607 -0.015310654339838222 0.0043892849106875785 0.02462929624305758
