! Created with skrf 1.8.0 (http://scikit-rf.org).
# GHz S RI R 50.0 
!freq ReS11 ImS11 ReS12 ImS12 ReS13 ImS13
! ReS14 ImS14
! ReS21 ImS21 ReS22 ImS22 ReS23 ImS23
! ReS24 ImS24
! ReS31 ImS31 ReS32 ImS32 ReS33 ImS33
! ReS34 ImS34
! ReS41 ImS41 ReS42 ImS42 ReS43 ImS43
! ReS44 ImS44
!
0.0 0.001806207229822 0.0 0.9981937927702 0.0 7.038820544359e-05 0.0 -7.03882049995e-05 8.62006899503654e-21
 0.9981937927702 0.0 0.001806207229844 0.0 -7.038820500029e-05 8.620068995133286e-21 7.03882054444e-05 0.0
 7.038820544359e-05 0.0 -7.038820500029e-05 8.620068995133286e-21 0.001806207219886 0.0 0.9981937927602 0.0
 -7.03882049995e-05 8.62006899503654e-21 7.03882054444e-05 0.0 0.9981937927602 0.0 0.001806207219873 0.0
0.005 0.0019442887828831608 0.0014715200858901915 0.9980189447224977 -0.003782912671911615 9.988762508283855e-05 0.0008071998863741031 -9.680912628582781e-05 -0.0005009517831488847
 0.9980189447224977 -0.003782912671911615 0.0019442709337156646 0.0014715304128707829 -9.680917566041335e-05 -0.0005009517407759234 0.00010000982654800557 0.0008071534365951476
 9.988762508283855e-05 0.0008071998863741031 -9.680917566041335e-05 -0.0005009517407759234 0.0019442895293950051 0.0014715868718026335 0.9980189451040903 -0.0037828456097556084
 -9.680912628582781e-05 -0.0005009517831488847 0.00010000982654800557 0.0008071534365951476 0.9980189451040903 -0.0037828456097556084 0.0019442709447202247 0.0014715977473731294
0.006252605252188 0.0019807737749986867 0.0018451757891895248 0.997972413696421 -0.004729525217384474 0.00010844919029434672 0.001009359527491945 -0.00010440076754847659 -0.0006268278362320397
 0.997972413696421 -0.004729525217384474 0.001980745873698419 0.0018451888649237682 -0.00010440084499841167 -0.0006268277822197851 0.00010864011786943664 0.0010092991466159554
 0.00010844919029434672 0.001009359527491945 -0.00010440084499841167 -0.0006268277822197851 0.001980774876716782 0.0018452592563651359 0.9979724142273633 -0.004729441395289916
 -0.00010440076754847659 -0.0006268278362320397 0.00010864011786943664 0.0010092991466159554 0.9979724142273633 -0.004729441395289916 0.001980745824820298 0.0018452730329306163
0.01250521050438 0.0021744118211004236 0.0037287950613127544 0.9977236464280815 -0.009459562098220528 0.0001582547724302752 0.0020188635784658313 -0.00014818289601421802 -0.0012565393521443956
 0.9977236464280815 -0.009459562098220528 0.0021743004161834836 0.003728822876742719 -0.00014818320894224434 -0.0012565392314482897 0.0001590161487424432 0.0020187175491410895
 0.0001582547724302752 0.0020188635784658313 -0.00014818320894224434 -0.0012565392314482897 0.002174415627722312 0.0037289616394897873 0.9977236479491458 -0.009459394694238569
 -0.00014818289601421802 -0.0012565393521443956 0.0001590161487424432 0.0020187175491410895 0.9977236479491458 -0.009459394694238569 0.00217429961096923 0.003728991019487399
0.01875781575657 0.0023875992128094894 0.005638893584620083 0.9974471428547375 -0.014201560832155225 0.00021992944847028104 0.0030291802865320045 -0.0002018816453926116 -0.0018881406130639225
 0.9974471428547375 -0.014201560832155225 0.00238734888814521 0.005638937893195349 -0.00020188235378110957 -0.0018881404069976517 0.00022163979502808689 0.0030289178056114915
 0.00021992944847028104 0.0030291802865320045 -0.00020188235378110957 -0.0018881404069976517 0.002387607356250626 0.005639143012151352 0.9974471458510316 -0.014201309939676473
 -0.0002018816453926116 -0.0018881406130639225 0.00022163979502808689 0.0030289178056114915 0.9974471458510316 -0.014201309939676473 0.0023873466345891697 0.005639189946760184
0.02501042100875 0.002620796248336827 0.007572714487834853 0.9971425398053712 -0.018957747302533783 0.0002935984239971251 0.004040314749199316 -0.0002656377652348267 -0.0025212911358897176
 0.9971425398053712 -0.018957747302533783 0.0026203516951876266 0.007572777110723301 -0.0002656390303272188 -0.0025212908197837 0.00029663637531148325 0.004039899628975168
 0.0002935984239971251 0.004040314749199316 -0.0002656390303272188 -0.0025212908197837 0.0026208103557429038 0.007573046514363365 0.9971425447553728 -0.01895741295122
 -0.0002656377652348267 -0.0025212911358897176 0.00029663637531148325 0.004039899628975168 0.9971425447553728 -0.01895741295122 0.0026203472826401295 0.007573113057185898
0.03126302626094 0.0028744439617334754 0.009528802048808405 0.9968094578224485 -0.02372902928555202 0.00037938643209221775 0.005052173996547478 -0.0003395869663032665 -0.0031557390829550325
 0.9968094578224485 -0.02372902928555202 0.0028737499408475363 0.009528884869986822 -0.0003395889502509483 -0.003155738626101189 0.00038413106857532967 0.005051564628639646
 0.00037938643209221775 0.005052173996547478 -0.0003395889502509483 -0.003155738626101189 0.00287446566020474 0.009529216387965904 0.996809465203893 -0.023728611488167965
 -0.0003395869663032665 -0.0031557390829550325 0.00038413106857532967 0.005051564628639646 0.996809465203893 -0.023728611488167965 0.0028737426450607937 0.009529304690514493
0.037515631513130004 0.0031489729947070506 0.011506179090198711 0.9964475104614237 -0.028515819003752964 0.00047741652678428046 0.006064625710386734 -0.0004238609224847974 -0.003791262602295927
 0.9964475104614237 -0.028515819003752964 0.0031479743087089985 0.011506284053907403 -0.0004238637880186955 -0.0037912619678873876 0.0004842475152424356 0.006063775010115062
 0.00047741652678428046 0.006064625710386734 -0.0004238637880186955 -0.0037912619678873876 0.0031490039129195256 0.011506675428810377 0.9964475207544583 -0.02851531774656123
 -0.0004238609224847974 -0.003791262602295927 0.0004842475152424356 0.006063775010115062 0.9964475207544583 -0.02851531774656123 0.0031479633945342474 0.011506787738378961
0.043768236765320004 0.0034448070004886888 0.013504096700121279 0.9960563081200517 -0.03331828334409466 0.0005878094881984565 0.00707751609438862 -0.0005185876043839035 -0.004427652010519111
 0.9960563081200517 -0.03331828334409466 0.003443448470412789 0.013504225809412974 -0.0005185915145539272 -0.004427651155592657 0.000597107139492661 0.0070763714390290125
 0.0005878094881984565 0.00707751609438862 -0.0005185915145539272 -0.004427651155592657 0.0034448487677241537 0.013504674677101952 0.9960563218073557 -0.03331769860745063
 -0.0005185876043839035 -0.004427652010519111 0.000597107139492661 0.0070763714390290125 0.9960563218073557 -0.03331769860745063 0.0034434331916169316 0.013504813335800581
0.050020842017509996 0.0037623642023429608 0.015521930753502585 0.9956354600250681 -0.03813644727602844 0.0007106834459436532 0.008090677278885483 -0.0006238913730244395 -0.005064702444595589
 0.9956354600250681 -0.03813644727602844 0.0037605906457702553 0.015522086069654982 -0.0006238964909529371 -0.005064701319968657 0.000722828728417673 0.008089180443586629
 0.0007106834459436532 0.008090677278885483 -0.0006238964909529371 -0.005064701319968657 0.0037624184477628546 0.01552258997269503 0.9956354775932461 -0.0381357790211258
 -0.0006238913730244395 -0.005064702444595589 0.000722828728417673 0.008089180443586629 0.9956354775932461 -0.0381357790211258 0.0037605702453655213 0.015522757417356132
0.055454545454549996 0.0040562942268852565 0.01729123575280173 0.9952453508130871 -0.04233627798796822 0.0008276902785607832 0.008971226710145674 -0.0007240872920797704 -0.005618697278726653
 0.9952453508130871 -0.04233627798796822 0.004054115166592673 0.017291415562889104 -0.0007240935918805913 -0.005618695874915118 0.000842620132777111 0.00896937213432123
 0.0008276902785607832 0.008971226710145674 -0.0007240935918805913 -0.005618695874915118 0.004056360637713737 0.017291965221699315 0.9952453721515909 -0.04233553710970051
 -0.0007240872920797704 -0.005618697278726653 0.000842620132777111 0.00896937213432123 0.9952453721515909 -0.04233553710970051 0.004054089691918021 0.01729215973530744
0.056273447269699996 0.004102058159387161 0.017559131161292277 0.9951845754322767 -0.04297024454695421 0.0008461535959716512 0.009103930957727763 -0.0007398929689022433 -0.005702210288527672
 0.9951845754322767 -0.04297024454695421 0.0040998143698346865 0.01755931480400114 -0.0007398994574857466 -0.005702208838750375 0.000861528122391285 0.009102018050526956
 0.0008461535959716512 0.009103930957727763 -0.0007398994574857466 -0.005702208838750375 0.004102126510210575 0.017559871186715467 0.9951845973714004 -0.04296949272011971
 -0.0007398929689022433 -0.005702210288527672 0.000861528122391285 0.009102018050526956 0.9951845973714004 -0.04296949272011971 0.004099788079667516 0.01756006994958434
0.06252605252188 0.0044642981494648 0.019615193978894184 0.994703264448769 -0.04781954552678112 0.0009943319646771838 0.010117090415075402 -0.0008667094473617687 -0.006339971218537457
 0.994703264448769 -0.04781954552678112 0.004461528876412902 0.019615408127149545 -0.000866717469048698 -0.006339969381864976 0.0010133179611160595 0.010114691811698827
 0.0009943319646771838 0.010117090415075402 -0.000866717469048698 -0.006339969381864976 0.004464382229754066 0.01961601433543199 0.9947032912529588 -0.047818710058531416
 -0.0008667094473617687 -0.006339971218537457 0.0010133179611160595 0.010114691811698827 0.9947032912529588 -0.047818710058531416 0.004461495916898619 0.019616247045281657
0.06877865777407 0.004849489338394672 0.021689644776461986 0.9941911386463802 -0.052684173799793954 0.0011553271999672006 0.011129961744649851 -0.0010044540825448563 -0.006977779065094073
 0.9941911386463802 -0.052684173799793954 0.004846139267477354 0.021689891670086003 -0.0010044637991021386 -0.006977776773428239 0.001178307461896472 0.011127002023628197
 0.0011553271999672006 0.011129961744649851 -0.0010044637991021386 -0.006977776773428239 0.0048495907684520025 0.02169054494381329 0.9941911708149577 -0.05268325461045944
 -0.0010044540825448563 -0.006977779065094073 0.001178307461896472 0.011127002023628197 0.9941911708149577 -0.05268325461045944 0.004846098848103283 0.02169081432812201
0.07503126302626001 0.005258032824055783 0.02378202810910607 0.9936478115553016 -0.057563916667357364 0.0013292443777521597 0.012142344645316406 -0.0011532362528257482 -0.007615425108564681
 0.9936478115553016 -0.057563916667357364 0.005254046556666565 0.023782310051065292 -0.0011532478250205456 -0.007615422287445812 0.00135660221646322 0.012138742523587173
 0.0013292443777521597 0.012142344645316406 -0.0011532478250205456 -0.007615422287445812 0.005258153218788403 0.023783007525091965 0.9936478495928348 -0.05756291366349716
 -0.0011532362528257482 -0.007615425108564681 0.00135660221646322 0.012138742523587173 0.9936478495928348 -0.05756291366349716 0.005253997876074661 0.023783316412575112
0.08128386827845 0.005690325598907116 0.025891900524964567 0.9930728990816803 -0.06245853212378821 0.001516184818501923 0.01315403296252957 -0.0013131613137363817 -0.008252697639296331
 0.9930728990816803 -0.06245853212378821 0.005685647633190737 0.025892219884305297 -0.0013131749011594373 -0.00825269420787794 0.001548304000060838 0.013149701231774683
 0.001516184818501923 0.01315403296252957 -0.0013131749011594373 -0.00825269420787794 0.005690466567030037 0.025892958584527906 0.9930729434992405 -0.06245744519901359
 -0.0013131613137363817 -0.008252697639296331 0.001548304000060838 0.013149701231774683 0.9930729434992405 -0.06245744519901359 0.005685589879170795 0.025893309908489547
0.08753647353064001 0.006146760461884124 0.02801882574078894 0.9924660198785552 -0.06736775367674237 0.001716245909977676 0.014164815092811001 -0.0014843304634902955 -0.008889381665313596
 0.9924660198785552 -0.06736775367674237 0.0061413351725300505 0.028019184956442466 -0.0014843462242681634 -0.008889377536352652 0.0017535105876528936 0.014159660556794223
 0.001716245909977676 0.014164815092811001 -0.0014843462242681634 -0.008889377536352652 0.006146923604171465 0.0280199617936534 0.9924660711934673 -0.06736658271378938
 -0.0014843304634902955 -0.008889381665313596 0.0017535105876528936 0.014159660556794223 0.9924660711934673 -0.06736658271378938 0.006141267521662086 0.028020358596070424
0.09378907878283 0.006627725892193139 0.030162371204335094 0.9918267956834589 -0.0722912937930504 0.0019295209350843707 0.015174474284897621 -0.001666840602058137 -0.009525258734400632
 0.9918267956834589 -0.0722912937930504 0.006621497510610962 0.030162772789556785 -0.0016668586926061309 -0.00952525381425518 0.001972315576760933 0.015168397697721332
 0.0019295209350843707 0.015174474284897621 -0.0016668586926061309 -0.00952525381425518 0.0066279128007134345 0.030163584559511288 0.9918268544206875 -0.07229003865921199
 -0.001666840602058137 -0.009525258734400632 0.001972315576760933 0.015168397697721332 0.9918268544206875 -0.07229003865921199 0.006621419128978776 0.03016402999580841
0.100041684035 0.007133605897208628 0.03232210559225613 0.9911548516336179 -0.07722884642180865 0.0021560989026972004 0.016182788886227144 -0.0018607841871320135 -0.010160106821944778
 0.9911548516336179 -0.07722884642180865 0.007126518491435229 0.032322552139987124 -0.001860804761895168 -0.010160101010576666 0.002204808213405333 0.01617568489186479
 0.0021560989026972004 0.016182788886227144 -0.001860804761895168 -0.010160101010576666 0.007133818153338755 0.03232339551122546 0.9911549183255924 -0.07722750697560657
 -0.0018607841871320135 -0.010160106821944778 0.002204808213405333 0.01617568489186479 0.9911549183255924 -0.07722750697560657 0.0071264285337728625 0.032323892855864046
0.1059090909091 0.007631318156242699 0.03436312611833365 0.9904942143854758 -0.08187467288360545 0.0023808925659003517 0.01712756073682783 -0.0020532565992681306 -0.010754707604244452
 0.9904942143854758 -0.08187467288360545 0.00762337361455549 0.0343636172931035 -0.002053279643695407 -0.010754700859896344 0.0024355021909340997 0.01711939131467978
 0.0023808925659003517 0.01712756073682783 -0.002053279643695407 -0.010754700859896344 0.0076315556264430736 0.034364487176212634 0.9904942890340043 -0.08187325417671235
 -0.0020532565992681306 -0.010754707604244452 0.0024355021909340997 0.01711939131467978 0.9904942890340043 -0.08187325417671235 0.007623272016047289 0.034365036320970634
0.1062942892872 0.007664779840825176 0.03449759693817245 0.9904498165658622 -0.08218008890058542 0.0023960643815797225 0.017189532549453015 -0.00206624908677115 -0.01079370027022153
 0.9904498165658622 -0.08218008890058542 0.007656777295206975 0.03449809112705033 -0.0020662722979584883 -0.010793693461213987 0.002451073222138946 0.017181289622446805
 0.0023960643815797225 0.017189532549453015 -0.0020662722979584883 -0.010793693461213987 0.00766501901439148 0.03449896264180876 0.990449891753569 -0.08217866498479333
 -0.00206624908677115 -0.01079370027022153 0.002451073222138946 0.017181289622446805 0.990449891753569 -0.08217866498479333 0.007656674905901269 0.03449951529458546
0.11254689453939999 0.008221622257475424 0.036688411217352716 0.9897113233048317 -0.08714468341833075 0.0026494973361457955 0.018194474411512084 -0.0022833184307506013 -0.011425809766642902
 0.9897113233048317 -0.08714468341833075 0.008212648252919251 0.03668895581865554 -0.002283344428140727 -0.011425801847220002 0.002711190638166687 0.018184974799129318
 0.0026494973361457955 0.018194474411512084 -0.002283344428140727 -0.011425801847220002 0.008221889905456537 0.036689851878687584 0.9897114075383378 -0.08714317486720914
 -0.0022833184307506013 -0.011425809766642902 0.002711190638166687 0.018184974799129318 0.9897114075383378 -0.08714317486720914 0.008212532565180872 0.0366904633718494
0.11879949979160001 0.008804502654921937 0.03889411125581322 0.9889390089426775 -0.092122278167752 0.0029164729647142237 0.019197379257215885 -0.002512070460678606 -0.012056202349317731
 0.9889390089426775 -0.092122278167752 0.00879450064790152 0.03889470914127865 -0.0025120993912349956 -0.012056193200386117 0.002985235642109629 0.019186498922996637
 0.0029164729647142237 0.019197379257215885 -0.0025120993912349956 -0.012056193200386117 0.008804800319658955 0.03889562600668323 0.9889391027817459 -0.09212068480057124
 -0.002512070460678606 -0.012056202349317731 0.002985235642109629 0.019186498922996637 0.9889391027817459 -0.09212068480057124 0.008794370784426027 0.03889630001285946
0.1250521050438 0.009413785307768213 0.04111425589056836 0.9881325151125933 -0.09711250826073814 0.0031970615391987236 0.020198007671427907 -0.0027525783797207127 -0.012684641435808263
 0.9881325151125933 -0.09711250826073814 0.009402698510410765 0.0411149100409062 -0.002752610387446079 -0.012684630931992917 0.003273278396654658 0.020185616240287942
 0.0031970615391987236 0.020198007671427907 -0.002752610387446079 -0.012684630931992917 0.009414114515773354 0.04111584381500167 0.9881326191271821 -0.09711082988842908
 -0.0027525783797207127 -0.012684641435808263 0.003273278396654658 0.020185616240287942 0.9881326191271821 -0.09711082988842908 0.009402553582841458 0.04111658415598526
0.131304710296 0.010049829044895327 0.043348399303870015 0.9872914882572206 -0.10211499648398568 0.0034913282470936655 0.02119611618570371 -0.003004910202331605 -0.013310886869535398
 0.9872914882572206 -0.10211499648398568 0.010037600404309836 0.04334911281837957 -0.0030049454280295395 -0.013310874879198667 0.0035753838856414063 0.02118207689065658
 0.0034913282470936655 0.02119611618570371 -0.0030049454280295395 -0.013310874879198667 0.01005019130571764 0.04335005944335615 0.9872916030282296 -0.10211323290402446
 -0.003004910202331605 -0.013310886869535398 0.0035753838856414063 0.02118207689065658 0.9872916030282296 -0.10211323290402446 0.010037439513562446 0.0433508700997613
0.1375573155481 0.010576617563089157 0.04530437124892909 0.9865520244959216 -0.10683743753489656 0.003764646146655267 0.02216312147236085 -0.003234350276770639 -0.013906461444063845
 0.9865520244959216 -0.10683743753489656 0.01056318420663789 0.045305132171751125 -0.0032343887149001594 -0.013906447936031177 0.0038567293245029884 0.02214744182814888
 0.003764646146655267 0.02216312147236085 -0.0032343887149001594 -0.013906447936031177 0.010577013418317578 0.04530610324825072 0.9865521505198859 -0.10683558866140733
 -0.003234350276770639 -0.013906461444063845 0.0038567293245029884 0.02214744182814888 0.9865521505198859 -0.10683558866140733 0.01056300757212094 0.04530697213058832
0.1438099208003 0.011122191633690518 0.04724821673373611 0.9857860287578651 -0.11154607580978243 0.0040489303565266746 0.02312517462349576 -0.003472892241840652 -0.014497437226161689
 0.9857860287578651 -0.11154607580978243 0.011107495253346032 0.04724902752960145 -0.0034729340024349767 -0.01449742207760474 0.004149390106296294 0.023107728325937844
 0.0040489303565266746 0.02312517462349576 -0.0034729340024349767 -0.01449742207760474 0.011122622393524288 0.04725001966608285 0.9857861666131027 -0.11154414145257337
 -0.003472892241840652 -0.014497437226161689 0.004149390106296294 0.023107728325937844 0.9857861666131027 -0.11154414145257337 0.011107302164438266 0.04725095002720843
0.1500625260525 0.011686330442694565 0.04917971981479286 0.9849937272993984 -0.1162407398041841 0.004344063511596021 0.02408214405905561 -0.003720420625505517 -0.015083688937668191
 0.9849937272993984 -0.1162407398041841 0.011670312446507064 0.04918058317255807 -0.003720465813767405 -0.015083672021901121 0.004453246431321529 0.024062800161193797
 0.004344063511596021 0.02408214405905561 -0.003720465813767405 -0.015083672021901121 0.011686797389561823 0.04918159272111178 0.9849938775731385 -0.11623871976605604
 -0.003720420625505517 -0.015083688937668191 0.004453246431321529 0.024062800161193797 0.9849938775731385 -0.11623871976605604 0.011670102196168302 0.049182588063256115
0.15631513130469998 0.012268811256888003 0.05109867101310237 0.9841753479236697 -0.12092125988747261 0.00464992665534491 0.025033900892978408 -0.003976818342494059 -0.015665094335219763
 0.9841753479236697 -0.12092125988747261 0.012251412761884992 0.05109958985738264 -0.0039768670587552474 -0.01566507552179889 0.00476817686779229 0.02501252385745297
