! Created with skrf 1.8.0 (http://scikit-rf.org).
# GHz S RI R 50.0 
!freq ReS11 ImS11 ReS12 ImS12 ReS13 ImS13
! ReS14 ImS14
! ReS21 ImS21 ReS22 ImS22 ReS23 ImS23
! ReS24 ImS24
! ReS31 ImS31 ReS32 ImS32 ReS33 ImS33
! ReS34 ImS34
! ReS41 ImS41 ReS42 ImS42 ReS43 ImS43
! ReS44 ImS44
!
0.0 0.001683213732351 0.0 0.9983167862676 0.0 6.518983371499e-05 0.0 -6.518983445174e-05 7.983452209826924e-21
 0.9983167862676 0.0 0.001683213732307 0.0 -6.518983445111e-05 7.983452209749773e-21 6.51898337113e-05 0.0
 6.518983371499e-05 0.0 -6.518983445111e-05 7.983452209749773e-21 0.001683213725577 0.0 0.9983167862609 0.0
 -6.518983445174e-05 7.983452209826924e-21 6.51898337113e-05 0.0 0.9983167862609 0.0 0.001683213725563 0.0
0.005 0.001811446798729963 0.0013760679151934255 0.998154484610443 -0.003525403693412029 9.166414363627515e-05 0.0007217847568170416 -8.898029448596951e-05 -0.00045235583299126005
 0.998154484610443 -0.003525403693412029 0.0018114508193761748 0.001376065610962048 -8.897735930933906e-05 -0.0004523536990842784 9.164159794597058e-05 0.0007217932817113968
 9.166414363627515e-05 0.0007217847568170416 -8.897735930933906e-05 -0.0004523536990842784 0.0018114473354258157 0.0013760004011753929 0.9981544842364962 -0.0035254707514361
 -8.898029448596951e-05 -0.00045235583299126005 9.164159794597058e-05 0.0007217932817113968 0.9981544842364962 -0.0035254707514361 0.0018114495430947065 0.0013759990166473505
0.006252605252188 0.0018452096196228214 0.001725482135323579 0.9981114626966751 -0.004407595998724321 9.929454355202456e-05 0.0009025707729635999 -9.57571666774795e-05 -0.0005660224056575758
 0.9981114626966751 -0.004407595998724321 0.0018452159046075728 0.001725479245449998 -9.575259836518128e-05 -0.0005660197777259822 9.925931740334236e-05 0.0009025818583607166
 9.929454355202456e-05 0.0009025707729635999 -9.575259836518128e-05 -0.0005660197777259822 0.0018452105370696332 0.0017253977636364954 0.9981114621910517 -0.004407679813022463
 -9.57571666774795e-05 -0.0005660224056575758 9.925931740334236e-05 0.0009025818583607166 0.9981114621910517 -0.004407679813022463 0.0018452139890798836 0.0017253960056874142
0.01250521050438 0.002023707839418392 0.0034869317242320545 0.9978824223446568 -0.008815847283234896 0.00014340615460243505 0.0018054324028950546 -0.0001345296390175774 -0.001134704239841202
 0.9978824223446568 -0.008815847283234896 0.002023732930461355 0.0034869258447161747 -0.00013451162441597859 -0.0011346994210865826 0.00014326566024765782 0.0018054592218690346
 0.00014340615460243505 0.0018054324028950546 -0.00013451162441597859 -0.0011346994210865826 0.002023712057701518 0.003486763346275212 0.9978824208872662 -0.00881601469149908
 -0.0001345296390175774 -0.001134704239841202 0.00014326566024765782 0.0018054592218690346 0.9978824208872662 -0.00881601469149908 0.002023725857411849 0.00348675956531803
0.01875781575657 0.0022191257693575726 0.00527323644408347 0.9976293608938653 -0.013235451103270747 0.00019763128854421083 0.0027091716836940027 -0.00018163224210008755 -0.0017052017033057675
 0.9976293608938653 -0.013235451103270747 0.002219182139885703 0.005273227444959049 -0.00018159205376913517 -0.0017051952269580024 0.00019731563835456934 0.0027092198368481157
 0.00019763128854421083 0.0027091716836940027 -0.00018159205376913517 -0.0017051952269580024 0.002219135654352686 0.005272984316104849 0.9976293580369139 -0.013235702040635518
 -0.00018163224210008755 -0.0017052017033057675 0.00019731563835456934 0.0027092198368481157 0.9976293580369139 -0.013235702040635518 0.0022191666941432826 0.005272978249532893
0.02501042100875 0.002431866801913886 0.007081860654611517 0.9973519612808176 -0.017668514283904122 0.00026207780542169434 0.0036138045993355885 -0.00023718533590306548 -0.002277234309757796
 0.9973519612808176 -0.017668514283904122 0.002431966896888697 0.007081848382628792 -0.00023711434646674147 -0.0022772268135508164 0.000261517068119007 0.003613880613295433
 0.00026207780542169434 0.0036138045993355885 -0.00023711434646674147 -0.0022772268135508164 0.00243188471052596 0.007081525030832649 0.997351956576494 -0.0176688487358793
 -0.00023718533590306548 -0.002277234309757796 0.000261517068119007 0.003613880613295433 0.997351956576494 -0.0176688487358793 0.0024319398882255107 0.007081516421684251
0.03126302626094 0.0026623176216067066 0.008911481649376643 0.9970498913281551 -0.02211591695474592 0.00033685365904160863 0.0045192629636622746 -0.00030130548286838804 -0.002850598272670053
 0.9970498913281551 -0.02211591695474592 0.0026624738659592616 0.008911465929258114 -0.00030119514835995917 -0.0028505904999358337 0.00033597780308129065 0.004519374297010095
 0.00033685365904160863 0.0045192629636622746 -0.00030119514835995917 -0.0028505904999358337 0.0026623459000017268 0.008911062789822463 0.997049884322927 -0.022116334949868022
 -0.00030130548286838804 -0.002850598272670053 0.00033597780308129065 0.004519374297010095 0.997049884322927 -0.022116334949868022 0.0026624321234492957 0.008911051387657432
0.037515631513130004 0.0029108562043216255 0.010761223475903517 0.9967228120603386 -0.026578078669471303 0.00042206582709479956 0.0054254449789535785 -0.0003741062752847105 -0.003425115967917942
 0.9967228120603386 -0.026578078669471303 0.002911081008779416 0.010761204110905071 -0.0003739481269253172 -0.0034251087679788845 0.00042080469865015383 0.005425600031372322
 0.00042206582709479956 0.0054254449789535785 -0.0003739481269253172 -0.0034251087679788845 0.0029108971947233477 0.010760721665718197 0.9967228022991453 -0.02657858026021946
 -0.0003741062752847105 -0.003425115967917942 0.00042080469865015383 0.005425600031372322 0.9967228022991453 -0.02657858026021946 0.00291102138462605 0.010760707227134663
0.043768236765320004 0.0031778549059138903 0.01263042380139427 0.9963703811112881 -0.031055191469153275 0.0005178197990687116 0.006332230623933925 -0.00045569861533944947 -0.004000620566833035
 0.9963703811112881 -0.031055191469153275 0.003178160671356619 0.01263040057347974 -0.00045548425474849056 -0.0040006148951849535 0.0005161031153296024 0.006332438746287048
 0.0005178197990687116 0.006332230623933925 -0.00045548425474849056 -0.0040006148951849535 0.0031779109456082505 0.012629839343174007 0.996370368133869 -0.031055776739771734
 -0.00045569861533944947 -0.004000620566833035 0.0005161031153296024 0.006332438746287048 0.996370368133869 -0.031055776739771734 0.003178080038615443 0.012629821632195464
0.050020842017509996 0.0034636818782553115 0.014518537543781794 0.9959922544626909 -0.03554731617919188 0.0006242192566897686 0.007239488016186762 -0.0005461908050213805 -0.004576949698278884
 0.9959922544626909 -0.03554731617919188 0.003464081000083375 0.014518510213587252 -0.0005459119014431631 -0.0045769466166876525 0.0006219766067688954 0.007239759520889893
 0.0006242192566897686 0.007239488016186762 -0.0005459119014431631 -0.0045769466166876525 0.0034637553001620382 0.014517870770324804 0.9959922378014948 -0.03554798523290687
 -0.0005461908050213805 -0.004576949698278884 0.0006219766067688954 0.007239759520889893 0.9959922378014948 -0.03554798523290687 0.003463976251063529 0.0145178495587216
0.055454545454549996 0.0037276483325526504 0.016174355380218233 0.9956425152427729 -0.039463283754491554 0.000725408040320452 0.008028196264652223 -0.0006321411866563912 -0.005078341755834328
 0.9956425152427729 -0.039463283754491554 0.003728138648767004 0.01617432427391859 -0.0006317994787813861 -0.005078341869947769 0.000722651033159948 0.008028531980081672
 0.000725408040320452 0.008028196264652223 -0.0006317994787813861 -0.005078341869947769 0.0037277387553092695 0.01617361736377107 0.9956424949970746 -0.03946402571920268
 -0.0006321411866563912 -0.005078341755834328 0.000722651033159948 0.008028531980081672 0.9956424949970746 -0.03946402571920268 0.003728010436826213 0.016173592930831888
0.056273447269699996 0.0037687017829642383 0.016425089594899484 0.9955880874855522 -0.040054429616953845 0.0007413658420409472 0.00814707652932721 -0.0006456885475102455 -0.005153942360963742
 0.9955880874855522 -0.040054429616953845 0.003769206654466713 0.01642505790155496 -0.0006453368359433965 -0.00515394303752902 0.0007385266938134136 0.008147422700731675
 0.0007413658420409472 0.00814707652932721 -0.0006453368359433965 -0.00515394303752902 0.003768794920166943 0.016424340866131204 0.9955880666681034 -0.04005518257918655
 -0.0006456885475102455 -0.005153942360963742 0.0007385266938134136 0.008147422700731675 0.9955880666681034 -0.04005518257918655 0.0037690747050009164 0.016424315933587647
0.06252605252188 0.004093276164057941 0.018349648821647663 0.9951575356448829 -0.04457645052665024 0.0008693589678504917 0.009054848533670093 -0.0007542949062329859 -0.0057314372180844895
 0.9951575356448829 -0.04457645052665024 0.004093899180016972 0.018349612482503493 -0.0007538621864736776 -0.0057314429272873205 0.0008658526767907818 0.009055281638434082
 0.0008693589678504917 0.009054848533670093 -0.0007538621864736776 -0.0057314429272873205 0.004093391348912835 0.01834881851890669 0.9951575101904773 -0.044577287550537435
 -0.0007542949062329859 -0.0057314372180844895 0.0008658526767907818 0.009055281638434082 0.9951575101904773 -0.044577287550537435 0.004093736966714526 0.018348789653130845
0.06877865777407 0.00443776362544753 0.02029181256566135 0.9947002550145688 -0.04911325502164111 0.0010082956514939293 0.009962650427271237 -0.0008721102379606421 -0.0063092716081062945
 0.9947002550145688 -0.04911325502164111 0.0044385171851676316 0.020291771275840212 -0.0008715883739707121 -0.006309283730818456 0.0010040514726821087 0.009963183724494139
 0.0010082956514939293 0.009962650427271237 -0.0008715883739707121 -0.006309283730818456 0.004437903191497218 0.020290901098444378 0.9947002244340498 -0.049114176281278614
 -0.0008721102379606421 -0.0063092716081062945 0.0010040514726821087 0.009963183724494139 0.9947002244340498 -0.049114176281278614 0.004438321667105934 0.020290868095078702
0.07503126302626001 0.004802519898036738 0.022251196829110257 0.9942159026865387 -0.05366468634792578 0.0011582703637426992 0.01087032330677551 -0.0009992321100845672 -0.006887280922466799
 0.9942159026865387 -0.05366468634792578 0.004803416409169097 0.022251150260828856 -0.0009986130298687839 -0.006887300945944412 0.0011532174654173785 0.010870971057985925
 0.0011582703637426992 0.01087032330677551 -0.0009986130298687839 -0.006887300945944412 0.004802686181964834 0.022250204635471532 0.9942158664818013 -0.05366569203766962
 -0.0009992321100845672 -0.006887280922466799 0.0011532174654173785 0.010870971057985925 0.9942158664818013 -0.05366569203766962 0.0048031845682408375 0.022250167298069477
0.08128386827845 0.005187897836432581 0.024227429743765 0.993704137113616 -0.058230561371698124 0.0013193748858800216 0.011777703420666301 -0.0011357552081174699 -0.007465298208086402
 0.993704137113616 -0.058230561371698124 0.005188949717599553 0.024227377545735257 -0.0011350309037024286 -0.007465327725955385 0.0013134423646265403 0.011778480899538282
 0.0013193748858800216 0.011777703420666301 -0.0011350309037024286 -0.007465327725955385 0.005188093178984029 0.024226357287490348 0.9937040947762301 -0.05823165170878142
 -0.0011357552081174699 -0.007465298208086402 0.0013134423646265403 0.011778480899538282 0.9937040947762301 -0.05823165170878142 0.005188678559326475 0.024226315427228657
0.08753647353064001 0.005594247367220348 0.0262201470650374 0.9931646184092698 -0.06281067505025312 0.0014916981726535031 0.012684622500076199 -0.0012817712362931076 -0.008043153899586937
 0.9931646184092698 -0.06281067505025312 0.0055954670517272724 0.026220088861547065 -0.001280933764067048 -0.008043194611797042 0.0014848150693472294 0.012685546001869523
 0.0014916981726535031 0.012684622500076199 -0.001280933764067048 -0.008043194611797042 0.005594474115244904 0.026218994834450008 0.993164569420047 -0.0628118502757278
 -0.0012817712362931076 -0.008043153899586937 0.0014848150693472294 0.012685546001869523 0.993164569420047 -0.0628118502757278 0.005595153605899666 0.026218948269809455
0.09378907878283 0.006021915406141209 0.028228988950288723 0.9925970086191958 -0.06740480362709149 0.0016753262192645852 0.013590908000074118 -0.0014373688128738096 -0.008620675648754237
 0.9925970086191958 -0.06740480362709149 0.006023315344544881 0.02822892434026977 -0.0014364102939173834 -0.00862072936151445 0.0016674215364557636 0.013591994850780264
 0.0016753262192645852 0.013590908000074118 -0.0014364102939173834 -0.00862072936151445 0.0060221759128207585 0.028227757461289745 0.9925969524465272 -0.0674060640023457
 -0.0014373688128738096 -0.008620675648754237 0.0016674215364557636 0.013591994850780264 0.9925969524465272 -0.0674060640023457 0.006022956665523973 0.028227706017610977
0.100041684035 0.006471245749554901 0.030253597609416337 0.9920009719721422 -0.07201270696347603 0.0018703419307260216 0.014496383295930436 -0.0016026333623228365 -0.009197688206677082
 0.9920009719721422 -0.07201270696347603 0.006472838413668695 0.030253526165250726 -0.0016015459830913611 -0.00919775683236474 0.0018613446507886658 0.014497651861096762
 0.0018703419307260216 0.014496383295930436 -0.0016015459830913611 -0.00919775683236474 0.006471542377337783 0.030252287404164357 0.992000908072201 -0.07201405277111385
 -0.0016026333623228365 -0.009197688206677082 0.0018613446507886658 0.014497651861096762 0.992000908072201 -0.07201405277111385 0.006472431581598067 0.030252230913103303
0.1059090909091 0.006912899653822923 0.032167499349308945 0.9914155039066624 -0.07634903675186383 0.0020637714748369704 0.015345178171870777 -0.001766581815225041 -0.009738531471998765
 0.9914155039066624 -0.07634903675186383 0.006914684534500997 0.032167421078412126 -0.001765366466681385 -0.009738615925656701 0.002053684317029665 0.015346634893511185
 0.0020637714748369704 0.015345178171870777 -0.001765366466681385 -0.009738615925656701 0.006913232334469903 0.032166115792875254 0.9914154322482017 -0.0763504630050322
 -0.001766581815225041 -0.009738531471998765 0.002053684317029665 0.015346634893511185 0.9914154322482017 -0.0763504630050322 0.0069142298835825145 0.03216605441729731
0.1062942892872 0.0069425789510364514 0.03229361554049944 0.9913761751192228 -0.07663413029426652 0.002076824993792345 0.01540086783881518 -0.0017776470046651535 -0.009774013354508563
 0.9913761751192228 -0.07663413029426652 0.006944376836210226 0.032293536806859195 -0.001776423017547289 -0.009774098911565113 0.002066664097595062 0.015402337531994268
 0.002076824993792345 0.01540086783881518 -0.001776423017547289 -0.009774098911565113 0.00694291407179556 0.03229222718625065 0.9913761029338489 -0.07663556183879836
 -0.0017776470046651535 -0.009774013354508563 0.002066664097595062 0.015402337531994268 0.9913761029338489 -0.07663556183879836 0.006943918957396577 0.03229216548507511
0.11254689453939999 0.007436252182647811 0.03434868419353822 0.9907222873610656 -0.08126880556497013 0.002294851749766362 0.01630417729280252 -0.001962488443117497 -0.010349469860895499
 0.9907222873610656 -0.08126880556497013 0.007438267811291378 0.03434859768587787 -0.0019611201671754265 -0.010349574473695732 0.0022834562365078017 0.01630586858371037
 0.002294851749766362 0.01630417729280252 -0.0019611201671754265 -0.010349574473695732 0.007436628179824616 0.03434721828387088 0.9907222063178464 -0.08127032317091994
 -0.001962488443117497 -0.010349469860895499 0.0022834562365078017 0.01630586858371037 0.9907222063178464 -0.08127032317091994 0.007437756019312219 0.034347151214732974
0.11879949979160001 0.007952599087288592 0.03641844292813888 0.9900389808697905 -0.08591645248450008 0.0025244950694087056 0.0172061236536172 -0.0021572328499875376 -0.010923873466093944
 0.9900389808697905 -0.08591645248450008 0.007954845011980922 0.03641834813128924 -0.0021557126719022757 -0.010923999364766068 0.0025117939766492775 0.017208058075820144
 0.0025244950694087056 0.0172061236536172 -0.0021557126719022757 -0.010923999364766068 0.00795301835678019 0.03641690008122145 0.9900388903802056 -0.08591805649760337
 -0.0021572328499875376 -0.010923873466093944 0.0025117939766492775 0.017208058075820144 0.9900388903802056 -0.08591805649760337 0.007954276468054028 0.036416827490155984
0.1250521050438 0.008491949621948866 0.03850252820682526 0.9893259309047039 -0.09057677935254932 0.0027658242282491163 0.018106515359057846 -0.002361951752256199 -0.011497036882595032
 0.9893259309047039 -0.09057677935254932 0.008494438428381872 0.03850242457316814 -0.0023602721270821166 -0.011497186402856742 0.002751746652717298 0.018108715517305335
 0.0027658242282491163 0.018106515359057846 -0.0023602721270821166 -0.011497186402856742 0.008492414573886116 0.03850090906433566 0.9893258303637263 -0.09057847014001523
 -0.002361951752256199 -0.011497036882595032 0.002751746652717298 0.018108715517305335 0.9893258303637263 -0.09057847014001523 0.008493810322654423 0.038500830800261725
0.131304710296 0.009054629894913412 0.040600572946764835 0.9885828160239112 -0.09524948373829993 0.003018904783401761 0.01900515738889816 -0.002576712915915222 -0.012068769814852925
 0.9885828160239112 -0.09524948373829993 0.009057374205093565 0.04060045989449098 -0.0025748663681056556 -0.012068945397782594 0.0030033799026901228 0.01900764696604735
 0.003018904783401761 0.01900515738889816 -0.0025748663681056556 -0.012068945397782594 0.009055142955024732 0.04059887817398786 0.9885827048090993 -0.09525126168795457
 -0.002576712915915222 -0.012068769814852925 0.0030033799026901228 0.01900764696604735 0.9885827048090993 -0.09525126168795457 0.009056683757370832 0.040598794087537075
0.1375573155481 0.00951661790329511 0.04243906656528153 0.9879337196106944 -0.09966096109263027 0.0032532435618894207 0.019875125145106448 -0.002771051127728612 -0.012612161338601918
 0.9879337196106944 -0.09966096109263027 0.009519631709140669 0.04243894398015489 -0.0027690268656175203 -0.0126123633638548 0.0032362389048358167 0.019877901615313328
 0.0032532435618894207 0.019875125145106448 -0.0027690268656175203 -0.0126123633638548 0.00951718261129662 0.042437295923353095 0.9879335972218297 -0.09966282643041786
 -0.002771051127728612 -0.012612161338601918 0.0032362389048358167 0.019877901615313328 0.9879335972218297 -0.09966282643041786 0.009518874811261178 0.04243720790247396
0.1438099208003 0.009995003107373538 0.04426700875403198 0.9872615115420688 -0.10406037351093825 0.0034970221773421603 0.02074102806327583 -0.0029731295088121197 -0.013151821744321973
 0.9872615115420688 -0.10406037351093825 0.0099982993056599 0.044266875961884826 -0.0029709195591734808 -0.013152052620006143 0.0034784739507761056 0.020744113127138464
 0.0034970221773421603 0.02074102806327583 -0.0029709195591734808 -0.013152052620006143 0.009995622113793673 0.044265162850662655 0.9872613773564491 -0.10406232661541065
 -0.0029731295088121197 -0.013151821744321973 0.0034784739507761056 0.020744113127138464 0.9872613773564491 -0.10406232661541065 0.009997472977767263 0.04426507084567504
0.1500625260525 0.01048960396016774 0.04608422083704426 0.9865663780445265 -0.10844758519396897 0.003750148042800847 0.021602760238994278 -0.0031828580283395184 -0.013687651458606122
 0.9865663780445265 -0.10844758519396897 0.01049319549282481 0.046084077114085416 -0.0031804544445385844 -0.013687913688833058 0.0037299929732671814 0.02160617636742699
 0.003750148042800847 0.021602760238994278 -0.0031804544445385844 -0.013687913688833058 0.010490279944525987 0.04608230029969955 0.9865662314246544 -0.10844962645641795
 -0.0031828580283395184 -0.013687651458606122 0.0037299929732671814 0.02160617636742699 0.9865662314246544 -0.10844962645641795 0.010492296767664298 0.046082204244603554
0.15631513130469998 0.011000237467253435 0.04789052947019156 0.9858485064670378 -0.11282246140358387 0.004012527381403841 0.022460217757225728 -0.003400145460532533 -0.014219553166212186
 0.9858485064670378 -0.11282246140358387 0.011004137322557632 0.047890374040930134 -0.0033975403230618964 -0.014219849350495578 0.003990702725117396 0.02246398818030519
