! Created with skrf 1.8.0 (http://scikit-rf.org).
# GHz S RI R 50.0 
!freq ReS11 ImS11 ReS12 ImS12 ReS13 ImS13
! ReS14 ImS14
! ReS21 ImS21 ReS22 ImS22 ReS23 ImS23
! ReS24 ImS24
! ReS31 ImS31 ReS32 ImS32 ReS33 ImS33
! ReS34 ImS34
! ReS41 ImS41 ReS42 ImS42 ReS43 ImS43
! ReS44 ImS44
!
0.0 0.001236662238044 0.0 0.9987633377543 0.0 4.723038639881e-05 0.0 -4.72303866304e-05 5.7840541809411305e-21
 0.9987633377543 0.0 0.00123666223805 0.0 -4.723038663162e-05 5.7840541810905375e-21 4.723038639687e-05 0.0
 4.723038639881e-05 0.0 -4.723038663162e-05 5.7840541810905375e-21 0.00123666223746 0.0 0.9987633377537 0.0
 -4.72303866304e-05 5.7840541809411305e-21 4.723038639687e-05 0.0 0.9987633377537 0.0 0.0012366622374 0.0
0.005 0.001329822810232933 0.0010113672099121246 0.9986455814582121 -0.002591408979129196 6.591763045336937e-05 0.0005256892048530183 -6.402342582410308e-05 -0.00032917813102000557
 0.9986455814582121 -0.002591408979129196 0.001329839177083985 0.001011357703332734 -6.402185833889157e-05 -0.00032917700304638156 6.581464522315064e-05 0.0005257282551797034
 6.591763045336937e-05 0.0005256892048530183 -6.402185833889157e-05 -0.00032917700304638156 0.0013298228940240642 0.0010112999602559913 0.9986455811273962 -0.0025914760381583867
 -6.402342582410308e-05 -0.00032917813102000557 6.581464522315064e-05 0.0005257282551797034 0.9986455811273962 -0.0025914760381583867 0.0013298384355963156 0.0010112908387060616
0.006252605252188 0.0013540421749423442 0.0012682213271583448 0.9986148062237461 -0.003239928337740212 7.114731958553126e-05 0.0006573765186245727 -6.866736180056735e-05 -0.0004119117982005919
 0.9986148062237461 -0.003239928337740212 0.0013540677590935292 0.0012682092849324242 -6.866492200820751e-05 -0.0004119104083932873 7.098641083114328e-05 0.0006574271967179121
 7.114731958553126e-05 0.0006573765186245727 -6.866492200820751e-05 -0.0004119104083932873 0.001354042379758527 0.0012681372787336606 0.9986148057809002 -0.003240012155866259
 -6.866736180056735e-05 -0.0004119117982005919 7.098641083114328e-05 0.0006574271967179121 0.9986148057809002 -0.003240012155866259 0.0013540666746950434 0.0012681257054820614
0.01250521050438 0.0014802934696618582 0.002563355549136756 0.9984534671307779 -0.006480852157709958 0.00010056112598764209 0.0013151586971730648 -9.449370557785583e-05 -0.0008259595992152796
 0.9984534671307779 -0.006480852157709958 0.0014803956207379905 0.0025633298712315973 -9.44840822744807e-05 -0.0008259570380135321 9.9919364127492e-05 0.001315279901629572
 0.00010056112598764209 0.0013151586971730648 -9.44840822744807e-05 -0.0008259570380135321 0.0014802948339504099 0.002563187775325933 0.9984534659143617 -0.00648101956143569
 -9.449370557785583e-05 -0.0008259595992152796 9.9919364127492e-05 0.001315279901629572 0.9984534659143617 -0.00648101956143569 0.0014803918518113686 0.0025631629153349245
0.01875781575657 0.001615647583532157 0.003877299136773057 0.9982791517459412 -0.009730704447466845 0.00013553198283997717 0.001973818679170345 -0.00012477930506689478 -0.0012415667214627584
 0.9982791517459412 -0.009730704447466845 0.001615877105280869 0.0038772581230801222 -0.00012475783240067237 -0.0012415632438167754 0.00013409010540404081 0.001974033519396897
 0.00013553198283997717 0.001973818679170345 -0.00012475783240067237 -0.0012415632438167754 0.0016156510608090957 0.003877047839124897 0.9982791494350313 -0.009730955351813918
 -0.00012477930506689478 -0.0012415667214627584 0.00013409010540404081 0.001974033519396897 0.9982791494350313 -0.009730955351813918 0.0016158690779013295 0.0038770078813350683
0.02501042100875 0.001760331395384345 0.005208256327772816 0.9980916860210363 -0.012991104838565228 0.00017612136483148013 0.002633412134212673 -0.00015959243803013526 -0.0016585699620599254
 0.9980916860210363 -0.012991104838565228 0.0017607389784230789 0.005208198191423254 -0.0001595545011086247 -0.0016585658640395175 0.00017355982325821347 0.002633746841856241
 0.00017612136483148013 0.002633412134212673 -0.0001595545011086247 -0.0016585658640395175 0.0017603379269797335 0.005207921687607445 0.998091682289726 -0.012991439205937021
 -0.00015959243803013526 -0.0016585699620599254 0.00017355982325821347 0.002633746841856241 0.998091682289726 -0.012991439205937021 0.0017607251281309268 0.005207864741389949
0.03126302626094 0.0019145620787085456 0.006555325374867383 0.9978908855515993 -0.01626277333619437 0.0002223915699048284 0.0032939343097081316 -0.00019899984157163573 -0.0020768634663466032
 0.9978908855515993 -0.01626277333619437 0.001915198326950708 0.0065552482465208945 -0.00019894086736545638 -0.002076859085821836 0.00021839021911715416 0.0032944182558546546
 0.0002223915699048284 0.0032939343097081316 -0.00019894086736545638 -0.002076859085821836 0.001914572597625336 0.006554907574222701 0.9978908800717206 -0.016263191155836795
 -0.00019899984157163573 -0.0020768634663466032 0.00021839021911715416 0.0032944182558546546 0.9978908800717206 -0.016263191155836795 0.001915177100961773 0.006554831673176525
0.037515631513130004 0.0020785522782723674 0.00791793529197327 0.997676560846485 -0.019546093527230135 0.00027440506555094637 0.0039553570157662 -0.00024306721575768198 -0.0024963617252920234
 0.997676560846485 -0.019546093527230135 0.002079467725964629 0.007917837222192631 -0.00024298266848227888 -0.0024963574421928746 0.0002686430152934423 0.003956022743895094
 0.00027440506555094637 0.0039553570157662 -0.00024298266848227888 -0.0024963574421928746 0.0020785677135206257 0.007917434522696429 0.9976765532904273 -0.019546594806333455
 -0.00024306721575768198 -0.0024963617252920234 0.0002686430152934423 0.003956022743895094 0.9976765532904273 -0.019546594806333455 0.002079437586166151 0.007917337626989205
0.043768236765320004 0.002252512121694199 0.009295674443017361 0.9974485194341967 -0.02284128393935716 0.00033222419470591935 0.004617639865728976 -0.00029185941438698355 -0.002916988321061738
 0.9974485194341967 -0.02284128393935716 0.002253757246323572 0.00929555340402251 -0.0002917447927560275 -0.002916984557543669 0.0003243797301092869 0.004618523129580576
 0.00033222419470591935 0.004617639865728976 -0.0002917447927560275 -0.002916984557543669 0.0022525333955705122 0.009295090910823629 0.9974485094713893 -0.022841868699301507
 -0.00029185941438698355 -0.002916988321061738 0.0003243797301092869 0.004618523129580576 0.9974485094713893 -0.022841868699301507 0.0022537166656075827 0.009294970908820187
0.050020842017509996 0.0024366501545998818 0.010688219704637172 0.9972065668967109 -0.026148468824519492 0.0003959110078034505 0.005280734920391384 -0.0003454405254923818 -0.0033386712703941807
 0.9972065668967109 -0.026148468824519492 0.002438275387886397 0.010688073591554178 -0.00034529136093644177 -0.0033386684909452536 0.0003856615462536385 0.005281874723917082
 0.0003959110078034505 0.005280734920391384 -0.00034529136093644177 -0.0033386684909452536 0.0024366781860306 0.010687553626685527 0.997206554195525 -0.02614913710336601
 -0.0003454405254923818 -0.0033386712703941807 0.0003856615462536385 0.005281874723917082 0.997206554195525 -0.02614913710336601 0.0024382228528869987 0.010687408336208057
0.055454545454549996 0.0026050987683556726 0.011910197917784847 0.9969848532609521 -0.029032305041819764 0.0004560699440867641 0.005857602996484515 -0.0003959425384429722 -0.0037059301586528978
 0.9969848532609521 -0.029032305041819764 0.0026070952558690124 0.011910028246100223 -0.0003957597505194236 -0.003705928644557205 0.0004434678005614009 0.0058589999718737865
 0.0004560699440867641 0.005857602996484515 -0.0003957597505194236 -0.003705928644557205 0.0026051334148852355 0.011909460296991952 0.9969848379085242 -0.029033045938469886
 -0.0003959425384429722 -0.0037059301586528978 0.0004434678005614009 0.0058589999718737865 0.9969848379085242 -0.029033045938469886 0.0026070311123265397 0.011909291203946211
0.056273447269699996 0.0026311738404133167 0.012095301686243145 0.9969505074686563 -0.029467712884232715 0.00046552715125698803 0.005944588955724559 -0.000403873901761801 -0.0037613407456977698
 0.9969505074686563 -0.029467712884232715 0.0026332295777955375 0.012095128318198764 -0.0004036857572370661 -0.0037613394572285153 0.0004525492210752254 0.00594602759411633
 0.00046552715125698803 0.005944588955724559 -0.0004036857572370661 -0.0037613394572285153 0.002631209543805456 0.012094553297082786 0.9969504916948144 -0.0294684647310104
 -0.000403873901761801 -0.0037613407456977698 0.0004525492210752254 0.00594602759411633 0.9969504916948144 -0.0294684647310104 0.002633163587108533 0.012094380466543236
0.06252605252188 0.0028362898366155343 0.013516685624655004 0.9966801444162989 -0.0327990403210305 0.0005411337828380886 0.006609144717136012 -0.00046722216682462605 -0.004184927810952216
 0.9966801444162989 -0.0327990403210305 0.0028388264465849513 0.013516482745534616 -0.0004669906359825138 -0.004184928562876014 0.0005251030163069529 0.00661092781838883
 0.0005411337828380886 0.006609144717136012 -0.0004669906359825138 -0.004184928562876014 0.002836334122525613 0.013515855175523214 0.9966801252324722 -0.032799875796588364
 -0.00046722216682462605 -0.004184927810952216 0.0005251030163069529 0.00661092781838883 0.9966801252324722 -0.032799875796588364 0.002838745511076663 0.013515652484610757
0.06877865777407 0.003052204155418309 0.014952159982673095 0.9963952803024327 -0.03614244618669321 0.0006227915031696887 0.007274341655228856 -0.0005355472066259285 -0.0046093636775144395
 0.9963952803024327 -0.03614244618669321 0.003055271987942715 0.014951925261714153 -0.0005352679132694131 -0.004609367061810231 0.0006033826394405642 0.007276518221987603
 0.0006227915031696887 0.007274341655228856 -0.0005352679132694131 -0.004609367061810231 0.003052257931764494 0.014951247738691227 0.9963952573685518 -0.03614336536659204
 -0.0005355472066259285 -0.0046093636775144395 0.0006033826394405642 0.007276518221987603 0.9963952573685518 -0.03614336536659204 0.003055174631358287 0.01495101279919108
0.07503126302626001 0.0032791222546118474 0.01640152922161275 0.9960957171837123 -0.039497903557703315 0.0007105602963145187 0.007940116397815505 -0.0006089101519125685 -0.005034579225146622
 0.9960957171837123 -0.039497903557703315 0.0032827716495735567 0.01640126025385106 -0.0006085787496237222 -0.005034585876425769 0.0006874471917741439 0.007942738849355988
 0.0007105602963145187 0.007940116397815505 -0.0006085787496237222 -0.005034585876425769 0.003279186426746587 0.01640053546614319 0.9960956901558127 -0.03949890652803751
 -0.0006089101519125685 -0.005034579225146622 0.0006874471917741439 0.007942738849355988 0.9960956901558127 -0.03949890652803751 0.0032826564081044523 0.01640026582222441
0.08128386827845 0.003517249085934799 0.017864608990040005 0.9957812567673971 -0.04286536829586661 0.0008044994759843601 0.008606403056570625 -0.0006873713550339159 -0.005460504689998244
 0.9957812567673971 -0.04286536829586661 0.0035215303813388985 0.01786430329646366 -0.0006869835268910431 -0.00546051528555889 0.0007773551202282681 0.008609527270774233
 0.0008044994759843601 0.008606403056570625 -0.0006869835268910431 -0.00546051528555889 0.0035173245574332997 0.017863534022340855 0.9957812252982524 -0.04286645515565735
 -0.0006873713550339159 -0.005460504689998244 0.0007773551202282681 0.008609527270774233 0.9957812252982524 -0.04286645515565735 0.0035213958044140107 0.01786322715087928
0.08753647353064001 0.0037667891144338417 0.01934122279895174 0.9954517005414191 -0.04624478232399649 0.0009046676351215682 0.00927313344609733 -0.0007709903629037986 -0.005887069441797866
 0.9954517005414191 -0.04624478232399649 0.0037717526545967056 0.01934087782650433 -0.000770541821406834 -0.005887084701671306 0.0008731641713726345 0.009276818801373956
 0.0009046676351215682 0.00927313344609733 -0.000770541821406834 -0.005887084701671306 0.003766876787598832 0.01934006693746768 0.9954516642792927 -0.04624595318200658
 -0.0007709903629037986 -0.005887069441797866 0.0008731641713726345 0.009276818801373956 0.9954516642792927 -0.04624595318200658 0.003771597304480271 0.019339720248144354
0.09378907878283 0.004027946318037272 0.020831199640323705 0.9951068498860582 -0.04963607595994119 0.001011122598246322 0.00994023723340425 -0.0008598258866530857 -0.006314201832365873
 0.9951068498860582 -0.04963607595994119 0.004033642461528253 0.020830812761729205 -0.000859312373633511 -0.006314222519366008 0.0009749313475469903 0.009944546650451793
 0.001011122598246322 0.00994023723340425 -0.000859312373633511 -0.006314222519366008 0.004028047094694088 0.020829963218575092 0.9951068084750453 -0.04963733093880943
 -0.0008598258866530857 -0.006314201832365873 0.0009749313475469903 0.009944546650451793 0.9951068084750453 -0.04963733093880943 0.004033464914072852 0.020829574053716687
0.100041684035 0.004300924173833542 0.022334372242209202 0.9947465061746604 -0.05303916961582823 0.0011239213749842185 0.010607642052209227 -0.0009539357693665595 -0.00674182908104697
 0.9947465061746604 -0.05303916961582823 0.0043074033017942975 0.022333940755527523 -0.0009533530559916195 -0.006741856000806242 0.0010827128636764047 0.010612642035599616
 0.0011239213749842185 0.010607642052209227 -0.0009533530559916195 -0.006741856000806242 0.004301038955292557 0.022333055613127976 0.9947464592539028 -0.05304050884782747
 -0.0009539357693665595 -0.00674182908104697 0.0010827128636764047 0.010612642035599616 0.9947464592539028 -0.05304050884782747 0.004307202146121651 0.02233262124734625
0.1059090909091 0.004568016486242692 0.023756794818778806 0.994394094197057 -0.05624326558204787 0.0012355907203796 0.01123413830026459 -0.0010470956185865195 -0.007143496067107978
 0.994394094197057 -0.05624326558204787 0.004575276210401803 0.02375631894772061 -0.0010464441481758278 -0.007143529606533102 0.0011893737077669228 0.011239850020911475
 0.0012355907203796 0.01123413830026459 -0.0010464441481758278 -0.007143529606533102 0.004568145230113774 0.02375540326090935 0.9943940417731404 -0.05624468400658549
 -0.0010470956185865195 -0.007143496067107978 0.0011893737077669228 0.011239850020911475 0.9943940417731404 -0.05624468400658549 0.004575051630016021 0.023754923939402147
0.1062942892872 0.00458592563307425 0.02385057575095421 0.9943704708654493 -0.056453975072051146 0.001243120114904145 0.011275273588722259 -0.0010533769520763233 -0.007169877190483975
 0.9943704708654493 -0.056453975072051146 0.0045932381573782636 0.02385009687897499 -0.001052720838971366 -0.007169911191482115 0.0011965641044275428 0.011281034268265013
 0.001243120114904145 0.011275273588722259 -0.001052720838971366 -0.007169911191482115 0.004586055321447166 0.02384917928548988 0.9943704180689041 -0.056455398700488865
 -0.0010533769520763233 -0.007169877190483975 0.0011965641044275428 0.011281034268265013 0.9943704180689041 -0.056455398700488865 0.004593011996376515 0.02384869692520673
0.11254689453939999 0.0048831530900197585 0.02537964672973193 0.9939785455875771 -0.05988039643686862 0.0013687740629778375 0.011943055646241174 -0.0011582054381832514 -0.0075982708855037275
 0.9939785455875771 -0.05988039643686862 0.00489134946115625 0.02537911761917238 -0.0011574717554655137 -0.007598312859097513 0.0013165395823500714 0.011949650818059848
 0.0013687740629778375 0.011943055646241174 -0.0011574717554655137 -0.007598312859097513 0.004883298588113872 0.025378170814168245 0.9939784865436798 -0.059881904618800864
 -0.0011582054381832514 -0.0075982708855037275 0.0013165395823500714 0.011949650818059848 0.9939784865436798 -0.059881904618800864 0.004891096911794857 0.025377637596842684
0.11879949979160001 0.005192808342519801 0.026921422367454408 0.9935705322226263 -0.06331833089791997 0.001500937515251374 0.012610910200042128 -0.0012684762569881401 -0.00802693356358705
 0.9935705322226263 -0.06331833089791997 0.005201939058173602 0.026920840087821044 -0.001267660864498306 -0.008026984444025958 0.001442692895651535 0.012618417367311213
 0.001500937515251374 0.012610910200042128 -0.001267660864498306 -0.008026984444025958 0.005192970554955946 0.02691986740718174 0.9935704665540258 -0.06331992380026588
 -0.0012684762569881401 -0.00802693356358705 0.001442692895651535 0.012618417367311213 0.9935704665540258 -0.06331992380026588 0.005201658751545297 0.026919280400350087
0.1250521050438 0.005515092549351359 0.02847573985495114 0.9931462329835125 -0.0667676693082081 0.001639663775145808 0.013278757438895316 -0.0013842434261224297 -0.008455787260690842
 0.9931462329835125 -0.0667676693082081 0.0055252081625874585 0.028475101397295005 -0.0013833422135595133 -0.00845584802513072 0.0015750766862991153 0.0132872578523228
 0.001639663775145808 0.013278757438895316 -0.0013833422135595133 -0.00845584802513072 0.0055152723828179396 0.02847410627403777 0.993146160306472 -0.06676934710832987
 -0.0013842434261224297 -0.008455787260690842 0.0015750766862991153 0.0132872578523228 0.993146160306472 -0.06676934710832987 0.005524898744302861 0.02847346247407669
0.131304710296 0.005850206183305248 0.03004243588670676 0.9927054504910273 -0.07022829664920374 0.0017850051097754868 0.013946515802299957 -0.0015055599130262287 -0.008884752623463709
 0.9927054504910273 -0.07022829664920374 0.005861357310861969 0.030041738162089278 -0.001504568800167838 -0.008884824291968997 0.0017137425982890642 0.013956094500119682
 0.0017850051097754868 0.013946515802299957 -0.001504568800167838 -0.008884824291968997 0.0058504045471915135 0.03004072412481034 0.9927053704150554 -0.07023005953772155
 -0.0015055599130262287 -0.008884752623463709 0.0017137425982890642 0.013956094500119682 0.9927053704150554 -0.07023005953772155 0.0058610174413234834 0.030040020455620445
0.1375573155481 0.006114561672496149 0.03141624601856374 0.9923317947403579 -0.07349493883100643 0.0019170421367869191 0.014592852649399787 -0.0016125950999782888 -0.009292450721387674
 0.9923317947403579 -0.07349493883100643 0.00612680360471312 0.031415500720748835 -0.0016115083301170457 -0.009292533219151565 0.0018389423384754598 0.014603484164410702
 0.0019170421367869191 0.014592852649399787 -0.0016115083301170457 -0.009292533219151565 0.006114780294159908 0.031414455941455935 0.9923317069311695 -0.07349678691481501
 -0.0016125950999782888 -0.009292450721387674 0.0018389423384754598 0.014603484164410702 0.9923317069311695 -0.07349678691481501 0.006126431027293348 0.031413705133655025
0.1438099208003 0.006387961488106058 0.03278391748308355 0.9919454506911094 -0.07675441946464089 0.002054423286167607 0.015237218847158104 -0.0017239262100540082 -0.009698378190795158
 0.9919454506911094 -0.07675441946464089 0.006401345682268725 0.03278312242847321 -0.0017227394438532955 -0.00969847249935001 0.001969183358717618 0.015248979739063251
 0.002054423286167607 0.015237218847158104 -0.0017227394438532955 -0.00969847249935001 0.006388201429369291 0.032782049494653145 0.9919453547599888 -0.07675635292973214
 -0.0017239262100540082 -0.009698378190795158 0.001969183358717618 0.015248979739063251 0.9919453547599888 -0.07675635292973214 0.006400938911860835 0.0327812494894128
0.1500625260525 0.00667032281424781 0.03414536896768396 0.9915465040377651 -0.08000669121525515 0.002197109818818427 0.01587956979046674 -0.0018395162157617212 -0.010102493169992184
 0.9915465040377651 -0.08000669121525515 0.006684900825724605 0.03414452183998308 -0.001838225122378901 -0.010102600309724881 0.002104428323190647 0.015892539381678714
 0.002197109818818427 0.01587956979046674 -0.001838225122378901 -0.010102600309724881 0.00667058514977421 0.03414342348560063 0.9915463995905694 -0.08000871025582378
 -0.0018395162157617212 -0.010102493169992184 0.002104428323190647 0.015892539381678714 0.9915463995905694 -0.08000871025582378 0.006684458380615018 0.03414257209983731
0.15631513130469998 0.006961562404193907 0.03550052181390962 0.9911350407359792 -0.08325170629318336 0.0023450626334178977 0.016519861478568647 -0.001959327720686626 -0.010504754589656261
