! Created with skrf 1.8.0 (http://scikit-rf.org).
# GHz S RI R 50.0 
!freq ReS11 ImS11 ReS12 ImS12 ReS13 ImS13
! ReS14 ImS14
! ReS21 ImS21 ReS22 ImS22 ReS23 ImS23
! ReS24 ImS24
! ReS31 ImS31 ReS32 ImS32 ReS33 ImS33
! ReS34 ImS34
! ReS41 ImS41 ReS42 ImS42 ReS43 ImS43
! ReS44 ImS44
!
0.0 0.00139665316644 0.0 0.9986033468333 0.0 5.368086047384e-05 0.0 -5.368085952627e-05 6.5740092794325256e-21
 0.9986033468333 0.0 0.001396653166426 0.0 -5.368085952559e-05 6.5740092793492495e-21 5.368086047649e-05 0.0
 5.368086047384e-05 0.0 -5.368085952559e-05 6.5740092793492495e-21 0.001396653164555 0.0 0.9986033468315 0.0
 -5.368085952627e-05 6.5740092794325256e-21 5.368086047649e-05 0.0 0.9986033468315 0.0 0.001396653164582 0.0
0.005 0.0015023067745685897 0.0011418089269202797 0.9984697438260318 -0.0029261751226612952 7.51308202506963e-05 0.0005977171455807956 -7.297197309070636e-05 -0.00037415509143423576
 0.9984697438260318 -0.0029261751226612952 0.0015023107979557926 0.0011418066506854348 -7.297261203060798e-05 -0.00037415563135152654 7.51001867635257e-05 0.0005977287654947733
 7.51308202506963e-05 0.0005977171455807956 -7.297261203060798e-05 -0.00037415563135152654 0.0015023065420982766 0.001141876370295955 0.9984697441704734 -0.0029261080581894808
 -7.297197309070636e-05 -0.00037415509143423576 7.51001867635257e-05 0.0005977287654947733 0.9984697441704734 -0.0029261080581894808 0.001502311718357928 0.001141873336684424
0.006252605252188 0.0015299019570522477 0.0014317737193568882 0.9984346469873439 -0.0036584529709164084 8.119244199323875e-05 0.0007474405486321248 -7.836527644129982e-05 -0.0004681857619722919
 0.9984346469873439 -0.0036584529709164084 0.001529908245808427 0.001431770832845295 -7.836627031125068e-05 -0.00046818642883944957 8.114457927807602e-05 0.0007474556351444075
 8.119244199323875e-05 0.0007474405486321248 -7.836627031125068e-05 -0.00046818642883944957 0.0015299015193323796 0.0014318580262972223 0.9984346474518034 -0.003658369142791677
 -7.836527644129982e-05 -0.0004681857619722919 8.114457927807602e-05 0.0007474556351444075 0.9984346474518034 -0.003658369142791677 0.0015299096109698937 0.0014318541827664458
0.01250521050438 0.0016745020246531435 0.002893748946341545 0.9982496099675084 -0.007317827305169569 0.00011560314734152212 0.0014952652164064975 -0.00010868012980949952 -0.0009387206455557124
 0.9982496099675084 -0.007317827305169569 0.001674527126079544 0.00289374276639377 -0.00010868404198515326 -0.0009387218924131653 0.00011541226239656452 0.0014953014084941253
 0.00011560314734152212 0.0014952652164064975 -0.00010868404198515326 -0.0009387218924131653 0.0016744997100893333 0.0028939173515552153 0.9982496112621752 -0.0073176599151824825
 -0.00010868012980949952 -0.0009387206455557124 0.00011541226239656452 0.0014953014084941253 0.9982496112621752 -0.0073176599151824825 0.0016745320237078307 0.0028939091433773387
0.01875781575657 0.0018307457669802375 0.004376751693231482 0.9980480224484102 -0.010987054831662122 0.0001569889892669518 0.0022439967722390993 -0.00014471387453970293 -0.0014109337891094454
 0.9980480224484102 -0.010987054831662122 0.001830802152230287 0.00437674180268638 -0.0001447225926264587 -0.0014109355153638713 0.0001565601401718958 0.0022440611771364044
 0.0001569889892669518 0.0022439967722390993 -0.0001447225926264587 -0.0014109355153638713 0.0018307401319115693 0.00437700417490353 0.9980480249369149 -0.010986803976229215
 -0.00014471387453970293 -0.0014109337891094454 0.0001565601401718958 0.0022440611771364044 0.9980480249369149 -0.010986803976229215 0.0018308127490871905 0.004376991037165869
0.02501042100875 0.0019989181937355633 0.005878729167525572 0.9978296633472554 -0.01466793820555432 0.0002054271302705968 0.0029936836229296987 -0.00018655246965939857 -0.0018846243361285485
 0.9978296633472554 -0.01466793820555432 0.0019990182977792366 0.00587871514345032 -0.00018656785687940007 -0.001884626425417241 0.00020466530654056274 0.0029937843956072737
 0.0002054271302705968 0.0029936836229296987 -0.00018656785687940007 -0.001884626425417241 0.0019989077874063314 0.005879065750588344 0.9978296673904004 -0.014667603950606789
 -0.00018655246965939857 -0.0018846243361285485 0.00020466530654056274 0.0029937843956072737 0.9978296673904004 -0.014667603950606789 0.0019990367610467023 0.0058790470802718015
0.03126302626094 0.002179292429678425 0.0073986371239862046 0.9975942994918398 -0.018361263524690728 0.00026099536888752125 0.0037443049948394334 -0.00023427968938320932 -0.002359656234672979
 0.9975942994918398 -0.018361263524690728 0.0021794486584696443 0.007398618539085861 -0.0002343035887639048 -0.002359658554631028 0.00025980540088730284 0.0037444513442984597
 0.00026099536888752125 0.0037443049948394334 -0.0002343035887639048 -0.002359658554631028 0.002179275798326109 0.0073990578636706624 0.9975943054521614 -0.018360845922132572
 -0.00023427968938320932 -0.002359656234672979 0.00025980540088730284 0.0037444513442984597 0.9975943054521614 -0.018360845922132572 0.002179477161286192 0.007399033020814142
0.037515631513130004 0.002372135839643917 0.008935803927808036 0.9973416919002205 -0.022067436210271768 0.0003237713877532365 0.004495813019750985 -0.00028797774422310423 -0.00283591614371319
 0.9973416919002205 -0.022067436210271768 0.0023723605758567616 0.00893578035130848 -0.000288011980876897 -0.0028359185459275672 0.0003220579046022315 0.004496015220089422
 0.0003237713877532365 0.004495813019750985 -0.000288011980876897 -0.0028359185459275672 0.002372111522966582 0.008936308902550608 0.9973417001383539 -0.022066935305098262
 -0.00028797774422310423 -0.00283591614371319 0.0003220579046022315 0.004496015220089422 0.9973417001383539 -0.022066935305098262 0.002372401293341462 0.008936277210787004
0.043768236765320004 0.0025777124035586394 0.010489737003159139 0.9970715983105128 -0.025786674494382426 0.00039383240540860544 0.005248145540353777 -0.0003477275108484058 -0.0033133006198262415
 0.9970715983105128 -0.025786674494382426 0.0025780180102722376 0.01048970800162437 -0.0003477738932715765 -0.003313302939835572 0.00039149981318563446 0.005248414943346134
 0.00039383240540860544 0.005248145540353777 -0.0003477738932715765 -0.003313302939835572 0.0025776789361362886 0.010490326310384391 0.9970716091870503 -0.025786090329067434
 -0.0003477275108484058 -0.0033133006198262415 0.00039149981318563446 0.005248414943346134 0.9970716091870503 -0.025786090329067434 0.0025780731214182207 0.010490287057251897
0.050020842017509996 0.002796283824619854 0.012060042838174719 0.9967837744474972 -0.029519089349337207 0.000471254971768935 0.006001231391525969 -0.00041360862117008346 -0.003791710829178725
 0.9967837744474972 -0.029519089349337207 0.0027966826492607667 0.012060007976098627 -0.0004136689421994714 -0.003791712886490048 0.000468207442681309 0.006001580439837709
 0.000471254971768935 0.006001231391525969 -0.0004136689421994714 -0.003791712886490048 0.002796239735720405 0.012060716600806345 0.9967837883222634 -0.029518421957346875
 -0.00041360862117008346 -0.003791710829178725 0.000468207442681309 0.006001580439837709 0.9967837883222634 -0.029518421957346875 0.0027967543361286824 0.012060669037989791
0.055454545454549996 0.002996984394482974 0.013437722646120307 0.9965190569547887 -0.032773406525984025 0.0005445748504964576 0.006656237489523378 -0.0004759016345165817 -0.00420822160222288
 0.9965190569547887 -0.032773406525984025 0.0029974742466702935 0.0134376823362632 -0.0004759755129413154 -0.0042082232722371275 0.0005408280108974695 0.006656666714413261
 0.0005445748504964576 0.006656237489523378 -0.0004759755129413154 -0.0042082232722371275 0.0029969298773385752 0.013438469916707378 0.9965190737274429 -0.03277266683387929
 -0.0004759016345165817 -0.00420822160222288 0.0005408280108974695 0.006656666714413261 0.9965190737274429 -0.03277266683387929 0.002997562113230082 0.01343841449692549
0.056273447269699996 0.0030281101059123697 0.01364638773886398 0.9964779747600747 -0.03326472366798362 0.0005561148258362459 0.006754992989951675 -0.00048569948979325557 -0.004271049952941954
 0.9964779747600747 -0.03326472366798362 0.003028614484018165 0.013646346579309127 -0.00048577552723781106 -0.004271051551067481 0.0005522562940534586 0.00675543523066542
 0.0005561148258362459 0.006754992989951675 -0.00048577552723781106 -0.004271051551067481 0.0030280539201880197 0.013647146098633347 0.9964779919929626 -0.03326397308074889
 -0.00048569948979325557 -0.004271049952941954 0.0005522562940534586 0.00675543523066542 0.9964779919929626 -0.03326397308074889 0.0030287049321540923 0.013647089441927105
0.06252605252188 0.0032734498664228765 0.01524847623801763 0.9961539529005016 -0.0370235737907006 0.0006484867844573422 0.007509347759255393 -0.0005640773100698517 -0.004751221759414938
 0.9961539529005016 -0.0370235737907006 0.003274072124777232 0.015248428343014786 -0.0005641708271903655 -0.004751222685892334 0.0006437209461172671 0.007509897857532498
 0.0006484867844573422 0.007509347759255393 -0.0005641708271903655 -0.004751222685892334 0.0032733801038139533 0.01524931935242181 0.9961539738509144 -0.03702274004063297
 -0.0005640773100698517 -0.004751221759414938 0.0006437209461172671 0.007509897857532498 0.9961539738509144 -0.03702274004063297 0.003274183522729877 0.015249252781796722
0.06877865777407 0.003532560514748376 0.016866038221332147 0.9958114620648818 -0.04079560231696945 0.0007484446492297365 0.008264208976129051 -0.0006488180310445636 -0.005232129757608471
 0.9958114620648818 -0.04079560231696945 0.003533312974750438 0.016865983152263064 -0.0006489307768814682 -0.005232129784033667 0.0007426749655710829 0.00826488272894497
 0.0007484446492297365 0.008264208976129051 -0.0006489307768814682 -0.005232129784033667 0.003532475690836874 0.016866966266423197 0.9958114870921417 -0.04079468543488128
 -0.0006488180310445636 -0.005232129757608471 0.0007426749655710829 0.00826488272894497 0.9958114870921417 -0.04079468543488128 0.003533447514218717 0.016866888925890108
0.07503126302626001 0.0038056983407080175 0.0184988207770293 0.9954502552543888 -0.04458074619596052 0.0008560611230152932 0.00901948630868995 -0.0007399963237595909 -0.0057136766612591785
 0.9954502552543888 -0.04458074619596052 0.0038065933218392077 0.018498758094999075 -0.0007401300334587041 -0.005713675543322726 0.0008491908257120444 0.0090203006586053
 0.0008560611230152932 0.00901948630868995 -0.0007401300334587041 -0.005713675543322726 0.0038055969668891296 0.018499833949013826 0.995450284717543 -0.044579746209510954
 -0.0007399963237595909 -0.0057136766612591785 0.0008491908257120444 0.0090203006586053 0.995450284717543 -0.044579746209510954 0.0038067531969270315 0.0184997449464626
0.08128386827845 0.0040931185523241445 0.020146582752977326 0.9950700854840624 -0.04837892211237665 0.0009714077325327951 0.009775086176970375 -0.0008376855404557804 -0.006195764033595406
 0.9950700854840624 -0.04837892211237665 0.004094168375271685 0.020146512018987393 -0.0008378419354599428 -0.006195761511108279 0.0009633398306438632 0.009776059225831628
 0.0009714077325327951 0.009775086176970375 -0.0008378419354599428 -0.006195761511108279 0.0040929991365536685 0.020147681267475466 0.995070119742695 -0.04837783904705181
 -0.0008376855404557804 -0.006195764033595406 0.0009633398306438632 0.009776059225831628 0.995070119742695 -0.04837783904705181 0.004094355782928057 0.020147579674451143
0.08753647353064001 0.004395075280889813 0.021809091011749913 0.9946707059639128 -0.05219003017757993 0.0010945547553319307 0.01053091200049153 -0.0009419576679831106 -0.006678292047929291
 0.9946707059639128 -0.05219003017757993 0.004396292271014725 0.021809011786846695 -0.0009421384562262129 -0.006678287844853362 0.001085192043963228 0.010532063023120583
 0.0010945547553319307 0.01053091200049153 -0.0009421384562262129 -0.006678287844853362 0.004394936327260358 0.02181027510101423 0.9946707453769356 -0.05218886405949701
 -0.0009419576679831106 -0.006678292047929291 0.001085192043963228 0.010532063023120583 0.9946707453769356 -0.05218886405949701 0.004396509409881665 0.02181015995234969
0.09378907878283 0.004711821558930139 0.023486117739405954 0.9942518702541272 -0.05601395656998323 0.0012255711490767919 0.011286864381096261 -0.0010528832781533395 -0.007161159316111787
 0.9942518702541272 -0.05601395656998323 0.004713218049543184 0.023486029584711708 -0.0010530901541942915 -0.007161153140598421 0.0012148162188346117 0.011288213838838287
 0.0012255711490767919 0.011286864381096261 -0.0010530901541942915 -0.007161153140598421 0.00471166156890164 0.023487387655294265 0.9942519151811368 -0.056012707423053136
 -0.0010528832781533395 -0.007161159316111787 0.0012148162188346117 0.011288213838838287 0.9942519151811368 -0.056012707423053136 0.0047134671205255165 0.02348725794869685
0.100041684035 0.005043609284330486 0.02517743847838357 0.9938133324099446 -0.059850575454832335 0.0013645244827346227 0.01204284123751523 -0.0011705314748131426 -0.007644262768383548
 0.9938133324099446 -0.059850575454832335 0.005045197619796262 0.025177340955122578 -0.0011707661199021285 -0.007644254312797599 0.001352279730395737 0.012044410791794392
 0.0013645244827346227 0.01204284123751523 -0.0011707661199021285 -0.007644254312797599 0.00504342675589913 0.025178794490627508 0.9938133832099452 -0.05984924330262926
 -0.0011705314748131426 -0.007644262768383548 0.001352279730395737 0.012044410791794392 0.9938133832099452 -0.05984924330262926 0.005045480825072268 0.02517864918622185
0.1059090909091 0.005368860252990857 0.02677736555719078 0.993383673746695 -0.06346225765767838 0.0015021949194238032 0.012752174401605452 -0.0012871061685002054 -0.008097725559696463
 0.993383673746695 -0.06346225765767838 0.0053706398547401024 0.026777258843326886 -0.0012873683892275336 -0.008097714670681338 0.0014884631955500128 0.012753971274683456
 0.0015021949194238032 0.012752174401605452 -0.0012873683892275336 -0.008097714670681338 0.005368655206664391 0.026778802621715864 0.993383730385195 -0.0634608476363177
 -0.0012871061685002054 -0.008097725559696463 0.0014884631955500128 0.012753971274683456 0.993383730385195 -0.0634608476363177 0.005370957095627343 0.026778641700619884
0.1062942892872 0.005390689168559201 0.026882830646024432 0.9933548471134851 -0.06369975042204709 0.0015114808687104945 0.01279873791107165 -0.001294969838963751 -0.008127497565426156
 0.9933548471134851 -0.06369975042204709 0.0053924817081771985 0.026882723315273242 -0.001295233921177073 -0.008127486506379698 0.0014976485088335205 0.012800550436702062
 0.0015114808687104945 0.01279873791107165 -0.001295233921177073 -0.008127486506379698 0.005390482597536611 0.026884273040591843 0.9933549041462868 -0.06369833528952858
 -0.001294969838963751 -0.008127497565426156 0.0014976485088335205 0.012800550436702062 0.9933549041462868 -0.06369833528952858 0.00539280125131941 0.026884111060278427
0.11254689453939999 0.005753310677593202 0.02860207239717791 0.992876169800396 -0.06756133558355748 0.0016665048960323812 0.013554447248533592 -0.0014262643721834423 -0.00861075703658335
 0.992876169800396 -0.06756133558355748 0.005755319798585538 0.02860195481972084 -0.0014265595464772523 -0.008610743034967163 0.0016509869729620672 0.013556526847014522
 0.0016665048960323812 0.013554447248533592 -0.0014265595464772523 -0.008610743034967163 0.005753078557457187 0.028603601481753615 0.9928762334256551 -0.06755983749172252
 -0.0014262643721834423 -0.00861075703658335 0.0016509869729620672 0.013556526847014522 0.9928762334256551 -0.06755983749172252 0.005755677883903155 0.028603421708598725
0.11879949979160001 0.006131721964261767 0.030334941747733817 0.9923770567806025 -0.07143517641367719 0.0018296595635762783 0.014309859672328921 -0.001564479438727389 -0.009093932634173341
 0.9923770567806025 -0.07143517641367719 0.006133960065306465 0.030334813483708086 -0.001564807346964004 -0.009093915335189015 0.0018123579645187842 0.014312231684933637
 0.0018296595635762783 0.014309859672328921 -0.001564807346964004 -0.009093915335189015 0.006131462786640025 0.0303365578474861 0.9923771273583765 -0.07143359538383666
 -0.001564479438727389 -0.009093932634173341 0.0018123579645187842 0.014312231684933637 0.9923771273583765 -0.07143359538383666 0.006134358897844416 0.030336359124883343
0.1250521050438 0.0065261697941753445 0.03208121587003469 0.9918572653552593 -0.07532111042152133 0.002001006214139303 0.015064863238867004 -0.001709677706241326 -0.009576913903266121
 0.9918572653552593 -0.07532111042152133 0.0065286492991011805 0.03208107647849403 -0.0017100399772546912 -0.009576892936452093 0.001981822682702741 0.015067554259600794
 0.002001006214139303 0.015064863238867004 -0.0017100399772546912 -0.009576892936452093 0.006525882049106455 0.03208291932744313 0.9918573432457748 -0.07531944647561994
 -0.001709677706241326 -0.009576913903266121 0.001981822682702741 0.015067554259600794 0.9918573432457748 -0.07531944647561994 0.006529091083916215 0.03208270045836389
0.131304710296 0.0069368994675189245 0.033840670533596746 0.9913165539314494 -0.07921896768237066 0.002180604468439293 0.01581934369037724 -0.0018619200857698727 -0.01005958846146525
 0.9913165539314494 -0.07921896768237066 0.006939632828763891 0.03384051957189026 -0.0018623183353898146 -0.010059563440736212 0.002159440618726024 0.015822381578774747
 0.002180604468439293 0.01581934369037724 -0.0018623183353898146 -0.010059563440736212 0.0069365816438844196 0.03384246171225559 0.9913166394953902 -0.07921722083921938
 -0.0018619200857698727 -0.01005958846146525 0.002159440618726024 0.015822381578774747 0.9913166394953902 -0.07921722083921938 0.0069401197706175834 0.033842221458204376
0.1375573155481 0.007266420668988591 0.03538315165550535 0.9908524472340196 -0.08289855776347954 0.002344906701962596 0.016549731911266356 -0.0019976876069201454 -0.010518383944352255
 0.9908524472340196 -0.08289855776347954 0.007269422676473464 0.03538299275620396 -0.0019981243601419623 -0.010518354875841148 0.0023217143824031177 0.016553110739804835
 0.002344906701962596 0.016549731911266356 -0.0019981243601419623 -0.010518354875841148 0.007266072039057832 0.03538503067079524 0.9908525408165448 -0.08289672807358134
 -0.0019976876069201454 -0.010518383944352255 0.0023217143824031177 0.016553110739804835 0.9908525408165448 -0.08289672807358134 0.0072699562288873875 0.03538477242661779
0.1438099208003 0.007607414447986298 0.036918095519004324 0.9903722431433322 -0.0865694224494447 0.0025158538901564292 0.017277534707504323 -0.0021389003058622127 -0.010974815996925812
 0.9903722431433322 -0.0865694224494447 0.007610697985588208 0.03691792847166764 -0.002139377323563303 -0.010974782500895803 0.0024905436192912025 0.01728127979333506
 0.0025158538901564292 0.017277534707504323 -0.002139377323563303 -0.010974782500895803 0.007607033641844576 0.036920062720595025 0.9903723451017604 -0.08656750994060658
 -0.0021389003058622127 -0.010974815996925812 0.0024905436192912025 0.01728127979333506 0.9903723451017604 -0.08656750994060658 0.007611280217631873 0.03691978551916
0.1500625260525 0.00795976873035859 0.038445391474626264 0.9898760572721503 -0.09023148862491467 0.002693392235226134 0.018002689905417143 -0.0022855059795574206 -0.011428825449194335
 0.9898760572721503 -0.09023148862491467 0.007963346730539477 0.038445216041788556 -0.002286025021126637 -0.01142878713040855 0.002665874991510875 0.01800682748893375
 0.002693392235226134 0.018002689905417143 -0.002286025021126637 -0.01142878713040855 0.007959354386636126 0.038447447226318675 0.9898761679638324 -0.09022949332513074
 -0.0022855059795574206 -0.011428825449194335 0.002665874991510875 0.01800682748893375 0.9898761679638324 -0.09022949332513074 0.007963979702483416 0.03844715004549917
0.15631513130469998 0.008323370741257486 0.03996493229981665 0.9893640057165176 -0.09388468307814744 0.0028774673611462677 0.01872513629065658 -0.0024374518337266344 -0.011880354315202866
