! Created with skrf 1.8.0 (http://scikit-rf.org).
# GHz S RI R 50.0 
!freq ReS11 ImS11 ReS12 ImS12 ReS13 ImS13
! ReS14 ImS14
! ReS21 ImS21 ReS22 ImS22 ReS23 ImS23
! ReS24 ImS24
! ReS31 ImS31 ReS32 ImS32 ReS33 ImS33
! ReS34 ImS34
! ReS41 ImS41 ReS42 ImS42 ReS43 ImS43
! ReS44 ImS44
!
0.0 0.001440150356691 0.0 0.9985598496433 0.0 5.524631490375e-05 0.0 -5.524631534628e-05 6.76572232535071e-21
 0.9985598496433 0.0 0.001440150356685 0.0 -5.524631534628e-05 6.76572232535071e-21 5.524631490057e-05 0.0
 5.524631490375e-05 0.0 -5.524631534628e-05 6.76572232535071e-21 0.001440150349582 0.0 0.9985598496362 0.0
 -5.524631534628e-05 6.76572232535071e-21 5.524631490057e-05 0.0 0.9985598496362 0.0 0.001440150349574 0.0
0.005 0.0015491727139645222 0.0011807798840939555 0.9984219818112068 -0.00301696126695467 7.685703005362148e-05 0.0005941086392489905 -7.47677402397743e-05 -0.00037551203513903973
 0.9984219818112068 -0.00301696126695467 0.0015491777394240865 0.0011807770101265917 -7.476619220731474e-05 -0.00037551093007598337 7.681482337613134e-05 0.0005941244859609921
 7.685703005362148e-05 0.0005941086392489905 -7.476619220731474e-05 -0.00037551093007598337 0.0015491734218845382 0.0011808467894074979 0.9984219821605512 -0.0030168942040575135
 -7.47677402397743e-05 -0.00037551203513903973 7.681482337613134e-05 0.0005941244859609921 0.9984219821605512 -0.0030168942040575135 0.0015491777259975792 0.0011808442273179907
0.006252605252188 0.0015776815521588608 0.0014806202693011224 0.9983857181164353 -0.003771951545118505 8.297947237425036e-05 0.0007429359053461912 -8.023708163865476e-05 -0.0004698769635446053
 0.9983857181164353 -0.003771951545118505 0.001577689407867046 0.0014806166867656042 -8.02346720848309e-05 -0.0004698756026123566 8.291352542369026e-05 0.0007429565112977244
 8.297947237425036e-05 0.0007429359053461912 -8.02346720848309e-05 -0.0004698756026123566 0.0015776825863983669 0.0014807038988680795 0.9983857185907141 -0.0037718677238165565
 -8.023708163865476e-05 -0.0004698769635446053 8.291352542369026e-05 0.0007429565112977244 0.9983857185907141 -0.0037718677238165565 0.0015776893154097005 0.001480700692324418
0.01250521050438 0.00172726673757235 0.002992291556897526 0.9981942616614107 -0.007544776978454026 0.00011781785913032885 0.0014863066488239704 -0.00011104232792599663 -0.0009420703908495499
 0.9981942616614107 -0.007544776978454026 0.001727298100240175 0.002992284502675947 -0.0001110328235734231 -0.0009420678925417086 0.00011755479060626982 0.0014863564027933413
 0.00011781785913032885 0.0014863066488239704 -0.0001110328235734231 -0.0009420678925417086 0.001727270283318143 0.002992458615515726 0.9981942629810953 -0.0075446095762400295
 -0.00011104232792599663 -0.0009420703908495499 0.00011755479060626982 0.0014863564027933413 0.9981942629810953 -0.0075446095762400295 0.0017272971634988746 0.002992452177399428
0.01875781575657 0.0018892153969628845 0.004525553754852815 0.9979852544358415 -0.011327673895953261 0.00015983995123927352 0.0022306035354478313 -0.000147752821806072 -0.0014159313670925851
 0.9979852544358415 -0.011327673895953261 0.001889285855335416 0.004525543348370709 -0.0001477316145530012 -0.0014159279985373888 0.00015924879094908397 0.002230692522130702
 0.00015983995123927352 0.0022306035354478313 -0.0001477316145530012 -0.0014159279985373888 0.0018892229271992235 0.004525804167257175 0.9979852569850401 -0.011327422996098895
 -0.000147752821806072 -0.0014159313670925851 0.00015924879094908397 0.002230692522130702 0.9979852569850401 -0.011327422996098895 0.0018892833469809243 0.0045257944882743425
0.02501042100875 0.002063828820477043 0.006078284811811579 0.9977584621558091 -0.015122493156665334 0.00020912532448181002 0.0029758641262627706 -0.00019045677814276364 -0.0018912600959159985
 0.9977584621558091 -0.015122493156665334 0.0020639539246783394 0.006078271190846781 -0.00019041931071765584 -0.001891256172274379 0.00020807492809717318 0.002976003927163025
 0.00020912532448181002 0.0029758641262627706 -0.00019041931071765584 -0.001891256172274379 0.0020638417860406174 0.006078618506288823 0.9977584663117963 -0.015122158807777421
 -0.00019045677814276364 -0.0018912600959159985 0.00020807492809717318 0.002976003927163025 0.9977584663117963 -0.015122158807777421 0.0020639491185372324 0.006078605600797361
0.03126302626094 0.00225139578361765 0.007649401761928786 0.9975136379686577 -0.018930037823755012 0.00026575408729137366 0.0037220596207060983 -0.00023924016811126945 -0.002367918497523369
 0.9975136379686577 -0.018930037823755012 0.002251591055419685 0.00764938508552145 -0.00023918192519323887 -0.002367914382635426 0.000264113018427638 0.0037222633256789525
 0.00026575408729137366 0.0037220596207060983 -0.00023918192519323887 -0.002367914382635426 0.0022514156205573903 0.007649818677318881 0.997513644109058 -0.018929620032906866
 -0.00023924016811126945 -0.002367918497523369 0.000264113018427638 0.0037222633256789525 0.997513644109058 -0.018929620032906866 0.002251583232828208 0.0076498025855945935
0.037515631513130004 0.0024521989468785357 0.009238205377107489 0.9972505290238054 -0.02275071845387276 0.0003298061301153177 0.004469135089422408 -0.0002941873181470864 -0.002845789969615665
 0.9972505290238054 -0.02275071845387276 0.0024524798875249134 0.009238185827290699 -0.0002941038220480028 -0.0028457860762448935 0.00032744260619135677 0.004469417314008187
 0.0003298061301153177 0.004469135089422408 -0.0002941038220480028 -0.0028457860762448935 0.0024522270788874647 0.009238705423597114 0.9972505375290602 -0.022750217225594484
 -0.0002941873181470864 -0.002845789969615665 0.00032744260619135677 0.004469417314008187 0.9972505375290602 -0.022750217225594484 0.0024524683376826286 0.009238686213576307
0.043768236765320004 0.002666517334870524 0.010844180704447013 0.9969688791253631 -0.026584752492936358 0.0004013607728639888 0.005217021714336727 -0.00035538112898175013 -0.0033247671413512954
 0.9969688791253631 -0.026584752492936358 0.0026668994312707443 0.010844158487633647 -0.00035526793695258316 -0.0033247639313341254 0.0003981426388729387 0.005217398618910867
 0.0004013607728639888 0.005217021714336727 -0.00035526793695258316 -0.0033247639313341254 0.0026665551722728905 0.010844763783975208 0.9969688903779931 -0.026584167808729808
 -0.00035538112898175013 -0.0033247671413512954 0.0003981426388729387 0.005217398618910867 0.9969688903779931 -0.026584167808729808 0.0026668834503119866 0.010844741552409788
0.050020842017509996 0.002894627487431774 0.01246691465194604 0.9966684300580698 -0.030432246621616577 0.00048049655698317764 0.005965641836990319 -0.00042290315557552227 -0.0038047468204884427
 0.9966684300580698 -0.030432246621616577 0.0028951262177317185 0.012466890000070166 -0.0004227558582583768 -0.003804744804833635 0.00047629127349435124 0.005966131146611079
 0.00048049655698317764 0.005965641836990319 -0.0004227558582583768 -0.003804744804833635 0.002894676426127946 0.012467580647172127 0.9966684444419507 -0.030431578450841316
 -0.00042290315557552227 -0.0038047468204884427 0.00047629127349435124 0.005966131146611079 0.9966684444419507 -0.030431578450841316 0.0028951051064721183 0.012467555520737385
0.055454545454549996 0.0031042760723132843 0.013890455442238863 0.9963918620040869 -0.03378679635349468 0.0005554850696387834 0.006616745974716244 -0.0004867834725877186 -0.004222599023913505
 0.9963918620040869 -0.03378679635349468 0.0031048887285410353 0.013890428883071012 -0.00048660298093348265 -0.004222598499454424 0.0005503139841141367 0.006617348593111365
 0.0005554850696387834 0.006616745974716244 -0.00048660298093348265 -0.004222598499454424 0.003104335781542807 0.013891193380153084 0.9963918794232332 -0.033786055599221314
 -0.0004867834725877186 -0.004222599023913505 0.0005503139841141367 0.006617348593111365 0.9963918794232332 -0.033786055599221314 0.003104862595154526 0.013891165864726386
0.056273447269699996 0.003136804057239141 0.014106055532208275 0.9963489223639703 -0.03429323714319249 0.0005672910970603082 0.00671491143628844 -0.0004968336289069321 -0.004285627513143442
 0.9963489223639703 -0.03429323714319249 0.00313743489629222 0.014106028703628906 -0.0004966478492614616 -0.00428562725211853 0.0005619657371329252 0.006715532460971335
 0.0005672910970603082 0.00671491143628844 -0.0004966478492614616 -0.00428562725211853 0.00313686547942282 0.014106804303823115 0.996348940265777 -0.034292485445581014
 -0.0004968336289069321 -0.004285627513143442 0.0005619657371329252 0.006715532460971335 0.996348940265777 -0.034292485445581014 0.0031374079606489255 0.0141067764399506
0.06252605252188 0.003393320136050692 0.01576129081431598 0.9960100958507662 -0.03816771216483214 0.0006618209650000573 0.00746474149144338 -0.0005772514452397685 -0.004767308060973945
 0.9960100958507662 -0.03816771216483214 0.0033940985604991067 0.01576126209464437 -0.0005770228378482532 -0.00476731016417975 0.0006552422167924936 0.007465515146552273
 0.0006618209650000573 0.00746474149144338 -0.0005770228378482532 -0.00476731016417975 0.003393395410357261 0.015762122202189983 0.9960101176603033 -0.03816687688926271
 -0.0005772514452397685 -0.004767308060973945 0.0006552422167924936 0.007465515146552273 0.9960101176603033 -0.03816687688926271 0.0033940651113863515 0.015762091789799954
0.06877865777407 0.003664447432767665 0.01743233386104863 0.9956516899547521 -0.04205562479597714 0.0007641615911277755 0.00821503879141068 -0.0006642341377141664 -0.005249686834677754
 0.9956516899547521 -0.04205562479597714 0.003665388926086915 0.017432303563727936 -0.0006639583883924255 -0.005249691961099928 0.0007561957647093687 0.00821598761808968
 0.0007641615911277755 0.00821503879141068 -0.0006639583883924255 -0.005249691961099928 0.003664537913190525 0.01743324768944841 0.9956517160643809 -0.042054705875053534
 -0.0006642341377141664 -0.005249686834677754 0.0007561957647093687 0.00821598761808968 0.9956517160643809 -0.042054705875053534 0.003665348277568582 0.01743321494959212
0.07503126302626001 0.003950456362036141 0.019118915520979114 0.9952734440175204 -0.04595690149470657 0.0008743871753761285 0.008965706452714373 -0.0007578578370732218 -0.005732661222137646
 0.9952734440175204 -0.04595690149470657 0.003951576419470332 0.019118883987835542 -0.0007575306625871459 -0.005732670080213371 0.0008649002124881377 0.008966854638295814
 0.0008743871753761285 0.008965706452714373 -0.0007575306625871459 -0.005732670080213371 0.003950563388742421 0.019119911589791577 0.9952734748239399 -0.04595589885343095
 -0.0007578578370732218 -0.005732661222137646 0.0008649002124881377 0.008966854638295814 0.9952734748239399 -0.04595589885343095 0.003951527889706046 0.019119876776062937
0.08128386827845 0.00425161607977014 0.02082077853876416 0.9948750975137037 -0.04987144759904325 0.0009925706046202145 0.009716644264133635 -0.0008581972249878455 -0.006216127292928022
 0.9948750975137037 -0.04987144759904325 0.004252930213627573 0.020820746140337385 -0.0008578143729817846 -0.006216140640583534 0.0009814280909865806 0.009718017662481879
 0.0009925706046202145 0.009716644264133635 -0.0008578143729817846 -0.006216140640583534 0.004251740977941921 0.020821856627499784 0.9948751334169973 -0.04987036115076395
 -0.0008581972249878455 -0.006216127292928022 0.0009814280909865806 0.009718017662481879 0.9948751334169973 -0.04987036115076395 0.004252873123019325 0.020821820026429284
0.08753647353064001 0.004568194481227752 0.02253767367379725 0.9944563902426684 -0.053799151153569105 0.0011187833742994722 0.010467748927485395 -0.0009653254822977589 -0.006699979570075811
 0.9944563902426684 -0.053799151153569105 0.004569718225675293 0.022537640809545692 -0.0009648827313076153 -0.0066999982147662425 0.0011058505534977396 0.01046937507921641
 0.0011187833742994722 0.010467748927485395 -0.0009648827313076153 -0.0066999982147662425 0.00456833856174288 0.022538833541109672 0.9944564316476971 -0.053797980800248564
 -0.0009653254822977589 -0.006699979570075811 0.0011058505534977396 0.01046937507921641 0.9944564316476971 -0.053797980800248564 0.004569651897160494 0.022538795472329724
0.09378907878283 0.004900458174625705 0.024269356942782143 0.9940170625002035 -0.057739885615674204 0.001253095511969298 0.011218914234119247 -0.0010793142338469295 -0.007184110869563867
 0.9940170625002035 -0.057739885615674204 0.004902207090793128 0.024269324041149235 -0.0010788073933421295 -0.007184135668307707 0.0012382373013704524 0.011220822386676887
 0.001253095511969298 0.011218914234119247 -0.0010788073933421295 -0.007184135668307707 0.004900622733191537 0.0242705983244939 0.9940171098164914 -0.05773863124992373
 -0.0010793142338469295 -0.007184110869563867 0.0012382373013704524 0.011220822386676887 0.9940171098164914 -0.05773863124992373 0.0049021308490090265 0.02427055914081337
0.100041684035 0.00524867243560637 0.026015587585799027 0.9935568552334022 -0.06169351184240461 0.001395575503323815 0.011970031196607661 -0.0012002334901056208 -0.007668412188279946
 0.9935568552334022 -0.06169351184240461 0.005250662116959494 0.026015555104129808 -0.0011996584006637692 -0.007668444047678296 0.001378656511133789 0.011972252324172716
 0.001395575503323815 0.011970031196607661 -0.0011996584006637692 -0.007668444047678296 0.005248858752653486 0.026016910197226104 0.9935569088757629 -0.061692173344983815
 -0.0012002334901056208 -0.007668412188279946 0.001378656511133789 0.011972252324172716 0.9935569088757629 -0.061692173344983815 0.005250575287691742 0.02601687028450536
0.1059090909091 0.00559017653887275 0.02766725754326397 0.9931057797652476 -0.06541516192589189 0.001536766025230402 0.012674731398944565 -0.0013200675002215726 -0.008122933474524521
 0.9931057797652476 -0.06541516192589189 0.0055924063678581245 0.02766722589719048 -0.0013194246113309217 -0.008122972828326603 0.0015177898113550156 0.012677275946475806
 0.001536766025230402 0.012674731398944565 -0.0013194246113309217 -0.008122972828326603 0.005590384424662312 0.02766865609943132 0.9931058397260427 -0.06541374436436144
 -0.0013200675002215726 -0.008122933474524521 0.0015177898113550156 0.012677275946475806 0.9931058397260427 -0.06541374436436144 0.0055923089907891224 0.02766861588283917
0.1062942892872 0.00561310114994905 0.02777612654556659 0.9930755101866685 -0.06565987956812026 0.0015462902189114674 0.0127209881524362 -0.0013281515870317106 -0.008152772623571836
 0.9930755101866685 -0.06565987956812026 0.005615347227039828 0.02777609496989134 -0.0013275041205357287 -0.008152812499826143 0.0015271747623985014 0.012723554975600376
 0.0015462902189114674 0.0127209881524362 -0.0013275041205357287 -0.008152812499826143 0.0056133104902949815 0.027777530078231864 0.9930755705752998 -0.06565845681124448
 -0.0013281515870317106 -0.008152772623571836 0.0015271747623985014 0.012723554975600376 0.9930755705752998 -0.06565845681124448 0.005615249136718574 0.02777748985523492
0.11254689453939999 0.005994006744337515 0.029550735294937503 0.9925727700387703 -0.06963882853826249 0.0017053048416699414 0.013471670847664577 -0.0014631351240566 -0.008637079316678507
 0.9925727700387703 -0.06963882853826249 0.005996524890457611 0.029550705139554646 -0.0014624111839777415 -0.008637128215588865 0.001683856966680297 0.013474617852950793
 0.0017053048416699414 0.013471670847664577 -0.0014624111839777415 -0.008637128215588865 0.0059942403570727686 0.029552219420765045 0.992572837599817 -0.06963732138130221
 -0.0014631351240566 -0.008637079316678507 0.001683856966680297 0.013474617852950793 0.992572837599817 -0.06963732138130221 0.00599641486540548 0.029552179338734795
0.11879949979160001 0.0063916501103418516 0.031339174935017394 0.9920483785352519 -0.0736301893768139 0.0018726827951447613 0.014221962506393168 -0.0016052489008014158 -0.009121217414192095
 0.9920483785352519 -0.0736301893768139 0.0063944560466891705 0.031339146741965515 -0.0016044444224917137 -0.009121276391155127 0.001848766296384045 0.014225325965491656
 0.0018726827951447613 0.014221962506393168 -0.0016044444224917137 -0.009121276391155127 0.0063919092283972615 0.031340739301856435 0.9920484537013994 -0.07362859767085041
 -0.0016052489008014158 -0.009121217414192095 0.001848766296384045 0.014225325965491656 0.9920484537013994 -0.07362859767085041 0.00639433341254594 0.031340699844003075
0.1250521050438 0.006806290521608432 0.0331412054681425 0.9915020806174887 -0.07763378428371445 0.0020484856718818545 0.014971743891612212 -0.0017545558527401347 -0.00960507004209173
 0.9915020806174887 -0.07763378428371445 0.006809400022344388 0.033141179806497174 -0.0017536668037079202 -0.009605140202094272 0.002021964114219639 0.01497556188038863
 0.0020484856718818545 0.014971743891612212 -0.0017536668037079202 -0.009605140202094272 0.006806576361286719 0.03314284970341992 0.9915021638280127 -0.07763210786784716
 -0.0017545558527401347 -0.00960507004209173 0.002021964114219639 0.01497556188038863 0.9915021638280127 -0.07763210786784716 0.00680926410382476 0.03314281138419988
0.131304710296 0.007238185545563884 0.034956585229972414 0.9909336225482028 -0.08164942757759376 0.002232773162242701 0.01572089335880965 -0.0019111169857699342 -0.010088518291115681
 0.9909336225482028 -0.08164942757759376 0.007241614443593513 0.03495656269494107 -0.0019101393660466736 -0.010088600788703276 0.0022035099029215155 0.015725205775974242
 0.002232773162242701 0.01572089335880965 -0.0019101393660466736 -0.010088600788703276 0.007238499306437955 0.03495830893791361 0.9909337142495613 -0.08164766628173421
 -0.0019111169857699342 -0.010088518291115681 0.0022035099029215155 0.015725205775974242 0.9909337142495613 -0.08164766628173421 0.007241464563543214 0.03495827230224227
0.1375573155481 0.007585930322531265 0.03654886833017581 0.9904444466268139 -0.0854406279255121 0.002401671239796882 0.01644559779182221 -0.002051100857152789 -0.010547739318764111
 0.9904444466268139 -0.0854406279255121 0.007589697100446554 0.03654884796707523 -0.002050029007400986 -0.010547834213357341 0.0023696059231963335 0.016450396757864492
 0.002401671239796882 0.01644559779182221 -0.002050029007400986 -0.010547834213357341 0.007586274233594521 0.03655067062167868 0.9904445472062948 -0.08543878166723307
 -0.002051100857152789 -0.010547739318764111 0.0023696059231963335 0.016450396757864492 0.9904445472062948 -0.08543878166723307 0.0075895316575647215 0.036550635793679474
0.1438099208003 0.00794583317018197 0.0381332292653727 0.9899382212898925 -0.0892226748560069 0.0025773921946746787 0.017167590346020018 -0.00219668747862759 -0.011004482000629891
 0.9899382212898925 -0.0892226748560069 0.007949954186581497 0.03813321137608617 -0.0021955171463551677 -0.011004590417537687 0.002542401673954082 0.01717291208968426
 0.0025773921946746787 0.017167590346020018 -0.0021955171463551677 -0.011004590417537687 0.007946208593647985 0.03813510966994914 0.9899383311920193 -0.08922074347056184
 -0.00219668747862759 -0.011004482000629891 0.002542401673954082 0.01717291208968426 0.9899383311920193 -0.08922074347056184 0.007949772334426926 0.038135077024685354
0.1500625260525 0.008317773618469844 0.03970954910483077 0.9894150706823353 -0.09299548796298128 0.002759878881258239 0.017886804823497877 -0.002347821497758561 -0.01145868385064368
 0.9894150706823353 -0.09299548796298128 0.008322265311136282 0.039709533978033014 -0.0023465484416428134 -0.011458806959967283 0.002721840697185086 0.017892686886920386
 0.002759878881258239 0.017886804823497877 -0.0023465484416428134 -0.011458806959967283 0.008318181912768275 0.03971150713079691 0.9894151903575424 -0.09299347128012922
 -0.002347821497758561 -0.01145868385064368 0.002721840697185086 0.017892686886920386 0.9894151903575424 -0.09299347128012922 0.008322066190612681 0.03971147703693005
0.15631513130469998 0.008701630419100978 0.04127771256797757 0.9888751194954091 -0.09675898685528952 0.0029490735187703942 0.0186031760831965 -0.0025044469188063878 -0.011910283651355328
