! Created with skrf 1.8.0 (http://scikit-rf.org).
# GHz S RI R 50.0 
!freq ReS11 ImS11 ReS12 ImS12 ReS13 ImS13
! ReS14 ImS14
! ReS21 ImS21 ReS22 ImS22 ReS23 ImS23
! ReS24 ImS24
! ReS31 ImS31 ReS32 ImS32 ReS33 ImS33
! ReS34 ImS34
! ReS41 ImS41 ReS42 ImS42 ReS43 ImS43
! ReS44 ImS44
!
0.0 0.001726146451718 0.0 0.9982738535227 0.0 6.712270402981e-05 0.0 -6.712270385251e-05 8.22016044230921e-21
 0.9982738535227 0.0 0.001726146451757 0.0 -6.71227038532e-05 8.22016044239371e-21 6.712270403119e-05 0.0
 6.712270402981e-05 0.0 -6.71227038532e-05 8.22016044239371e-21 0.001726146460246 0.0 0.9982738535312 0.0
 -6.712270385251e-05 8.22016044230921e-21 6.712270403119e-05 0.0 0.9982738535312 0.0 0.001726146460248 0.0
0.005 0.0018578487693053558 0.0014072048274150982 0.9981071378030962 -0.0036153971922152583 9.497757705708343e-05 0.000766205928515536 -9.212179076979996e-05 -0.0004761519564153895
 0.9981071378030962 -0.0036153971922152583 0.0018578238552303453 0.0014072193320485596 -9.212063813271711e-05 -0.0004761510149843405 9.513961923221383e-05 0.0007661442179469086
 9.497757705708343e-05 0.000766205928515536 -9.212063813271711e-05 -0.0004761510149843405 0.0018578492637575685 0.0014071372098307853 0.9981071374257835 -0.0036154642525693596
 -9.212179076979996e-05 -0.0004761519564153895 9.513961923221383e-05 0.0007661442179469086 0.9981071374257835 -0.0036154642525693596 0.0018578226105498631 0.001407152831802126
0.006252605252188 0.0018925723482642823 0.0017645370084559207 0.9980628817453072 -0.004520104093234103 0.00010301079404868673 0.0009581061325272121 -9.926801006227859e-05 -0.0005958005390153658
 0.9980628817453072 -0.004520104093234103 0.0018925334031448678 0.0017645554230607827 -9.926621690978556e-05 -0.0005957993772969712 0.0001032639682000241 0.0009580259538779484
 0.00010301079404868673 0.0009581061325272121 -9.926621690978556e-05 -0.0005957993772969712 0.001892573205622016 0.0017644524906377634 0.9980628812395081 -0.004520187909647787
 -9.926801006227859e-05 -0.0005958005390153658 0.0001032639682000241 0.0009580259538779484 0.9980628812395081 -0.004520187909647787 0.0018925315411009351 0.0017644723147580946
0.01250521050438 0.002076423764589802 0.0035659301157690937 0.9978269057516228 -0.009040828011704999 0.00014947806694366313 0.001916424731448366 -0.00014028700697393739 -0.0011943926372509814
 0.9978269057516228 -0.009040828011704999 0.0020762682588419826 0.003565969793497012 -0.0001402799459791083 -0.0011943904798778135 0.00015048764010938426 0.0019162313319022808
 0.00014947806694366313 0.001916424731448366 -0.0001402799459791083 -0.0011943904798778135 0.002076427740169639 0.003565761272308172 0.9978269042745447 -0.009040995404547
 -0.00014028700697393739 -0.0011943926372509814 0.00015048764010938426 0.0019162313319022808 0.9978269042745447 -0.009040995404547 0.002076261360261389 0.0035658039167490454
0.01875781575657 0.0022781391196545994 0.005392766083481435 0.997565605938104 -0.013573134943129008 0.00020663930072784985 0.002875601243274425 -0.00019031441529055067 -0.0017948495094680373
 0.997565605938104 -0.013573134943129008 0.0022777896936513405 0.005392830052694445 -0.00019029867706471147 -0.0017948465558712094 0.00020890712469702304 0.0028752545573163912
 0.00020663930072784985 0.002875601243274425 -0.00019029867706471147 -0.0017948465558712094 0.002278148495040503 0.005392512945251108 0.9975656030416754 -0.013573385830984781
 -0.00019031441529055067 -0.0017948495094680373 0.00020890712469702304 0.0028752545573163912 0.9975656030416754 -0.013573385830984781 0.002277774604400377 0.005392581644197514
0.02501042100875 0.00249814163597659 0.007242431145998564 0.9972786491539066 -0.01811917375764844 0.0002746098186715413 0.0038356551459904267 -0.0002494795989519157 -0.0023968619304742308
 0.9972786491539066 -0.01811917375764844 0.0024975210808121334 0.007242522587035074 -0.0002494518177048083 -0.0023968584169840558 0.000278637856419654 0.0038351082961737286
 0.0002746098186715413 0.0038356551459904267 -0.0002494518177048083 -0.0023968584169840558 0.002498158692993918 0.007242093715303697 0.9972786443833804 -0.0181195080860799
 -0.0002494795989519157 -0.0023968619304742308 0.000278637856419654 0.0038351082961737286 0.9972786443833804 -0.0181195080860799 0.002497494640330951 0.007242191911228023
0.03126302626094 0.0027368369510089616 0.009113555631004957 0.9969656867189218 -0.022679834360460154 0.0003535047143398104 0.00479651361708726 -0.0003179075990747229 -0.003000204745031374
 0.9969656867189218 -0.022679834360460154 0.002735868161099994 0.009113677870445333 -0.00031786444530921117 -0.003000200945232185 0.00035979548367308796 0.00479571287265507
 0.0003535047143398104 0.00479651361708726 -0.00031786444530921117 -0.003000200945232185 0.0027368639812291227 0.009113133873573265 0.9969656796203316 -0.022680252109923603
 -0.0003179075990747229 -0.003000204745031374 0.00035979548367308796 0.00479571287265507 0.9969656796203316 -0.022680252109923603 0.0027358272102159667 0.009113265211987678
0.037515631513130004 0.0029946214204766477 0.01100522786138338 0.9966263630875901 -0.027255533731514067 0.00044343780371583133 0.0057580669919343255 -0.00039572005754274695 -0.0036046814544863585
 0.9966263630875901 -0.027255533731514067 0.0029932273601382185 0.011005384369045 -0.0003956582343416482 -0.0036046776792831568 0.0004524945641913385 0.005756951701308284
 0.00044343780371583133 0.0057580669919343255 -0.0003956582343416482 -0.0036046776792831568 0.0029946607220769374 0.011004721723240449 0.9966263532039278 -0.02725603490042651
 -0.00039572005754274695 -0.0036046814544863585 0.0004524945641913385 0.005756951701308284 0.9966263532039278 -0.02725603490042651 0.0029931687371986984 0.011004890050378096
0.043768236765320004 0.0032718853107793545 0.012916754947614625 0.9962603194001597 -0.031846455064749216 0.000544521113369072 0.006720185642478654 -0.00048303553089487015 -0.004210107373184607
 0.9962603194001597 -0.031846455064749216 0.0032699889863422866 0.01291694933508017 -0.0004829517716437434 -0.004210103970768771 0.0005568479424708373 0.006718688157742301
 0.000544521113369072 0.006720185642478654 -0.0004829517716437434 -0.004210103970768771 0.003271939191763143 0.012916164366672632 0.9962603062737331 -0.03184703965761172
 -0.00048303553089487015 -0.004210107373184607 0.0005568479424708373 0.006718688157742301 0.9962603062737331 -0.03184703965761172 0.003269909530706188 0.012916373728864079
0.050020842017509996 0.00356901426749345 0.014847563932871724 0.9958671953109519 -0.036452646554556954 0.0006568645567704553 0.00768272695865686 -0.0005799695880775674 -0.00481630268353625
 0.9958671953109519 -0.036452646554556954 0.0035665387018947122 0.014847799952767367 -0.0005798606550587452 -0.004816300039332844 0.0006729663672907216 0.007680772556986469
 0.0006568645567704553 0.00768272695865686 -0.0005798606550587452 -0.004816300039332844 0.0035690850447347346 0.014846888827023756 0.9958671784818793 -0.03645331459362561
 -0.0005799695880775674 -0.00481630268353625 0.0006729663672907216 0.007680772556986469 0.9958671784818793 -0.03645331459362561 0.003566435252967934 0.014847143470874373
0.055454545454549996 0.0038436577802941126 0.016540763928522436 0.9955032857992596 -0.04046793961440343 0.0007637226183053648 0.00851942981109934 -0.0006721071996359775 -0.005343591108505713
 0.9955032857992596 -0.04046793961440343 0.0038406163174518177 0.016541039285664562 -0.0006719737821257105 -0.005343589465098595 0.0007835156886496046 0.008517012096024724
 0.0007637226183053648 0.00851942981109934 -0.0006719737821257105 -0.005343589465098595 0.0038437451292348147 0.01654001528904219 0.9955032653765619 -0.04046868019912085
 -0.0006721071996359775 -0.005343591108505713 0.0007835156886496046 0.008517012096024724 0.9955032653765619 -0.04046868019912085 0.0038404894510097767 0.01654031288921615
0.056273447269699996 0.0038863900466716067 0.01679715327314019 0.9954466300862247 -0.041074069850832125 0.0007805756944737664 0.008645538780963321 -0.0006866348104761363 -0.0054230890447886605
 0.9954466300862247 -0.041074069850832125 0.00388325825652944 0.01679743481950354 -0.0006864974938861419 -0.005423087581396867 0.0008009582166435348 0.008643045584959833
 0.0007805756944737664 0.008645538780963321 -0.0006864974938861419 -0.005423087581396867 0.0038864800458970387 0.016796393546998512 0.9954466090916445 -0.04107482136912522
 -0.0006866348104761363 -0.0054230890447886605 0.0008009582166435348 0.008643045584959833 0.9954466090916445 -0.04107482136912522 0.003883127654114104 0.016796697920577194
0.06252605252188 0.004224390889385884 0.01876506617053393 0.9949982633473203 -0.04571062666713877 0.0009157595345504838 0.009608461299194383 -0.0008031407441474302 -0.006030287742006982
 0.9949982633473203 -0.04571062666713877 0.004220525861855544 0.018765397279770155 -0.0008029718614650762 -0.00603028791911529 0.0009409292737057215 0.009605340197077589
 0.0009157595345504838 0.009608461299194383 -0.0008029718614650762 -0.00603028791911529 0.004224502445653659 0.01876422171558346 0.9949982377210752 -0.04571146170789091
 -0.0008031407441474302 -0.006030287742006982 0.0009409292737057215 0.009605340197077589 0.9949982377210752 -0.04571146170789091 0.004220364946831644 0.018764580470395215
0.06877865777407 0.004583391697655993 0.020750874676481467 0.9945217356218096 -0.050362174626081994 0.0010625183557526124 0.01057132819682072 -0.0009295938233589716 -0.006637718596621483
 0.9945217356218096 -0.050362174626081994 0.004578716368588396 0.020751259529233006 -0.0009293902188351077 -0.0066377209109411885 0.0010929825337378904 0.010567482763064417
 0.0010625183557526124 0.01057132819682072 -0.0009293902188351077 -0.0066377209109411885 0.004583527155320631 0.020749945370370247 0.9945217048943961 -0.05036309324323301
 -0.0009295938233589716 -0.006637718596621483 0.0010929825337378904 0.010567482763064417 0.9945217048943961 -0.05036309324323301 0.004578521983768728 0.020750363364008102
0.07503126302626001 0.004963764093189579 0.022754169625619203 0.9940166887819251 -0.05502853728247264 0.0012209515443106164 0.011533967388230303 -0.001066097277293629 -0.007245199291896844
 0.9940166887819251 -0.05502853728247264 0.004958201324828411 0.022754612549357112 -0.0010658558216446376 -0.007245204277078474 0.0012572180274286954 0.011529293804975116
 0.0012209515443106164 0.011533967388230303 -0.0010658558216446376 -0.007245204277078474 0.004963925806488695 0.022753155334058875 0.9940166524800905 -0.05502953953835311
 -0.001066097277293629 -0.007245199291896844 0.0012572180274286954 0.011529293804975116 0.9940166524800905 -0.05502953953835311 0.0049579703160819505 0.022753637633798902
0.08128386827845 0.0053658764027432705 0.02477455394001419 0.9934827664138491 -0.05970951078475905 0.0013911554394275994 0.012496201521634814 -0.0012127510247236454 -0.007852544940875292
 0.9934827664138491 -0.05970951078475905 0.005359348961913156 0.024775059412586026 -0.0012124686149326417 -0.007852553167432153 0.001433732656649694 0.012490588501201596
 0.0013911554394275994 0.012496201521634814 -0.0012124686149326417 -0.007852553167432153 0.005366066734918308 0.024773454513112247 0.9934827240594031 -0.059710596753428734
 -0.0012127510247236454 -0.007852544940875292 0.001433732656649694 0.012490588501201596 0.9934827240594031 -0.059710596753428734 0.005359078177817416 0.02477400640026326
0.08753647353064001 0.00579009359319311 0.026811638006965885 0.9929196141412231 -0.06440486847247609 0.0015732231836544412 0.013457848342541143 -0.001369651561883172 -0.008459567802265732
 0.9929196141412231 -0.06440486847247609 0.005782524129496746 0.02681221066074893 -0.0013693251211017508 -0.008459579877480663 0.0016226200364905055 0.013451177051190621
 0.0015732231836544412 0.013457848342541143 -0.0013693251211017508 -0.008459579877480663 0.005790314917606201 0.02681045328183146 0.9929195652514875 -0.0644060382366683
 -0.001369651561883172 -0.008459567802265732 0.0016226200364905055 0.013451177051190621 0.9929195652514875 -0.0644060382366683 0.00578221042301041 0.026811080256881375
0.09378907878283 0.0062367771736333835 0.028865036388764906 0.9923268799205983 -0.06911436415146796 0.001767244577219979 0.014418720968252554 -0.0015368918447715833 -0.009066077093936795
 0.9923268799205983 -0.06911436415146796 0.006228088197490986 0.02886568101591038 -0.0015365183221795946 -0.009066093661790231 0.0018239703426516799 0.014410864951436949
 0.001767244577219979 0.014418720968252554 -0.0015365183221795946 -0.009066093661790231 0.006237031873165264 0.02886376618683505 0.9923268240075516 -0.06911561780495429
 -0.0015368918447715833 -0.009066077093936795 0.0018239703426516799 0.014410864951436949 0.9923268240075516 -0.06911561780495429 0.006227728426679951 0.028864473975450403
0.100041684035 0.006706285072431451 0.030934365409342014 0.9917042143147043 -0.07383773450236884 0.0019733059353465804 0.015378628104437395 -0.0017145611674353794 -0.009671878873458422
 0.9917042143147043 -0.07383773450236884 0.006696398933011879 0.030935086967780006 -0.0017141375382893759 -0.00967190061452728 0.0020378701623793537 0.015369453213632981
 0.0019733059353465804 0.015378628104437395 -0.0017141375382893759 -0.00967190061452728 0.0067065755398229236 0.030933009539440125 0.9917041508846112 -0.0738390721463545
 -0.0017145611674353794 -0.009671878873458422 0.0020378701623793537 0.015369453213632981 0.9917041508846112 -0.0738390721463545 0.006695989961656532 0.030933804099477866
0.1059090909091 0.007167942479945357 0.03289035815684906 0.9910923776595411 -0.07828248744475946 0.0021776965866646177 0.016278346919984404 -0.0018908463001280334 -0.01023954051641253
 0.9910923776595411 -0.07828248744475946 0.007156862144106043 0.032891156570071925 -0.0018903729235759848 -0.010239567763495645 0.002250079954858749 0.016267805482753875
 0.0021776965866646177 0.016278346919984404 -0.0018903729235759848 -0.010239567763495645 0.007168268696776926 0.03288892170796767 0.9910923067210098 -0.0782839040068433
 -0.0018908463001280334 -0.01023954051641253 0.002250079954858749 0.016267805482753875 0.9910923067210098 -0.0782839040068433 0.007156404157139781 0.03288980332595153
0.1062942892872 0.00719897149635331 0.033019241358661175 0.9910512707524113 -0.07857470088198003 0.002191489947101292 0.01633737422378238 -0.0019027450376972253 -0.010276775965508661
 0.9910512707524113 -0.07857470088198003 0.007187810359360879 0.033020044979038904 -0.0019022683033420387 -0.010276803596887062 0.0022644023483696265 0.01632673854511195
 0.002191489947101292 0.01633737422378238 -0.0019022683033420387 -0.010276803596887062 0.007199300134362772 0.03301779961337098 0.9910511993053948 -0.07857612262837826
 -0.0019027450376972253 -0.010276775965508661 0.0022644023483696265 0.01632673854511195 0.9910511993053948 -0.07857612262837826 0.007187349058327383 0.033018687142553946
0.11254689453939999 0.007715186775932241 0.03511927912333924 0.9903677057778066 -0.08332497070919935 0.0024218755360501548 0.017294759718513412 -0.002101525051068432 -0.010880567924908331
 0.9903677057778066 -0.08332497070919935 0.00770267260187881 0.03512017011684457 -0.0021009922390270797 -0.010880602200077584 0.0025036458744351693 0.01728251350315511
 0.0024218755360501548 0.017294759718513412 -0.0021009922390270797 -0.010880602200077584 0.007715555996851239 0.03511775128006759 0.9903676258072507 -0.08332647667899262
 -0.002101525051068432 -0.010880567924908331 0.0025036458744351693 0.01728251350315511 0.9903676258072507 -0.08332647667899262 0.007702155849192785 0.035118738224791404
0.11879949979160001 0.00825527720030767 0.03723409113147665 0.9896531792917573 -0.08808823854777727 0.0026645377225001333 0.01825058103890437 -0.002310978763155863 -0.011483051022974422
 0.9896531792917573 -0.08808823854777727 0.008241331721562759 0.037235074998736274 -0.002310386927145568 -0.011483092731741484 0.0027556756932228155 0.018236566635574915
 0.0026645377225001333 0.01825058103890437 -0.002310386927145568 -0.011483092731741484 0.00825568942644786 0.03723247695173611 0.9896530902839773 -0.0880898288713029
 -0.002310978763155863 -0.011483051022974422 0.0027556756932228155 0.018236566635574915 0.9896530902839773 -0.0880898288713029 0.008240756404186483 0.037233570016689206
0.1250521050438 0.008819584843234968 0.03936328652447207 0.9889073547880903 -0.09286418697356794 0.0029195474866436913 0.019204630817199298 -0.0025311795612123775 -0.01208401825817942
 0.9889073547880903 -0.09286418697356794 0.008804129542452665 0.03936436896529649 -0.002530525781355694 -0.012084068226578306 0.003020562595615871 0.019188682606698416
 0.0029195474866436913 0.019204630817199298 -0.002530525781355694 -0.012084068226578306 0.008820042506808293 0.039361585755176565 0.9889072562217931 -0.09286586178867079
 -0.0025311795612123775 -0.01208401825817942 0.003020562595615871 0.019188682606698416 0.9889072562217931 -0.09286586178867079 0.008803492556790178 0.03936279191399022
0.131304710296 0.009408447383254687 0.041506470513966116 0.9881298995848733 -0.09765248726812624 0.003186971633397774 0.02015669798699145 -0.0027621965354718294 -0.01268325938106735
 0.9881298995848733 -0.09765248726812624 0.00939140347044138 0.041507657438200604 -0.0027614779183873306 -0.012683318471208875 0.0032983730714321495 0.02013864231892455
 0.003186971633397774 0.02015669798699145 -0.0027614779183873306 -0.012683318471208875 0.009408952926503568 0.041504682884713935 0.9881297909309616 -0.09765424672237169
 -0.0027621965354718294 -0.01268325938106735 0.0032983730714321495 0.02013864231892455 0.9881297909309616 -0.09765424672237169 0.009390701723561167 0.041506009391601956
0.1375573155481 0.009893708121075118 0.04338335339821798 0.9874490410580765 -0.10217273082031099 0.0034345117816607746 0.021079012350830262 -0.0029716127218796253 -0.013253128507130488
 0.9874490410580765 -0.10217273082031099 0.009874990016846658 0.04338462458715729 -0.0029708247968797635 -0.013253196854729943 0.00355655305914557 0.021058863507272742
 0.0034345117816607746 0.021079012350830262 -0.0029708247968797635 -0.013253196854729943 0.00989426302186675 0.0433814789063504 0.9874489218544107 -0.10217457496913512
 -0.0029716127218796253 -0.013253128507130488 0.00355655305914557 0.021058863507272742 0.9874489218544107 -0.10217457496913512 0.009874221257803033 0.04338290618702322
0.1438099208003 0.010396226928310036 0.04524912555776359 0.9867438716549443 -0.1066802932685422 0.00369200208448634 0.02199696657428363 -0.0031893641970908125 -0.013818918686156083
 0.9867438716549443 -0.1066802932685422 0.01037575445042535 0.045250485524807524 -0.0031885038253734684 -0.013818997151233036 0.003825145844363828 0.02197456461557646
 0.00369200208448634 0.02199696657428363 -0.0031885038253734684 -0.013818997151233036 0.01039683346883003 0.04524716396302548 0.986743741375198 -0.10668222224778513
 -0.0031893641970908125 -0.013818918686156083 0.003825145844363828 0.02197456461557646 0.986743741375198 -0.10668222224778513 0.010374915751450907 0.04524869783620545
0.1500625260525 0.010915808615051469 0.047103595015208444 0.986014591640327 -0.11117502614519503 0.003959341620751505 0.022910446790384068 -0.0034153510101638776 -0.014380519944333866
 0.986014591640327 -0.11117502614519503 0.010893501288628598 0.04710504860225166 -0.0034144150595611447 -0.014380609421898404 0.004104047267817929 0.02288562594298391
 0.003959341620751505 0.022910446790384068 -0.0034144150595611447 -0.014380609421898404 0.010916469075560849 0.04710154606626347 0.9860144497518992 -0.11117704009665054
 -0.0034153510101638776 -0.014380519944333866 0.004104047267817929 0.02288562594298391 0.9860144497518992 -0.11117704009665054 0.010892589741547293 0.04710319272965313
0.15631513130469998 0.01145225637819058 0.04894657551811811 0.9852614025536143 -0.11565678232300561 0.004236428152031244 0.023819341350542145 -0.0036494718552657858 -0.014937824863415619
 0.9852614025536143 -0.11565678232300561 0.011428033428557697 0.048948127908463826 -0.0036484572003218784 -0.014937926283289642 0.004393151797057225 0.023791930075829925
