! Created with skrf 1.8.0 (http://scikit-rf.org).
# GHz S RI R 50.0 
!freq ReS11 ImS11 ReS12 ImS12 ReS13 ImS13
! ReS14 ImS14
! ReS21 ImS21 ReS22 ImS22 ReS23 ImS23
! ReS24 ImS24
! ReS31 ImS31 ReS32 ImS32 ReS33 ImS33
! ReS34 ImS34
! ReS41 ImS41 ReS42 ImS42 ReS43 ImS43
! ReS44 ImS44
!
0.0 0.001573957867228 0.0 0.9984260421271 0.0 6.123570447081e-05 0.0 -6.123570438179e-05 7.499210936469267e-21
 0.9984260421271 0.0 0.001573957867247 0.0 -6.123570438224e-05 7.499210936524377e-21 6.123570447088e-05 0.0
 6.123570447081e-05 0.0 -6.123570438224e-05 7.499210936524377e-21 0.00157395785444 0.0 0.9984260421143 0.0
 -6.123570438179e-05 7.499210936469267e-21 6.123570447088e-05 0.0 0.9984260421143 0.0 0.00157395785444 0.0
0.005 0.0016936538633021603 0.0012786633134034965 0.9982745735315297 -0.0032974614217092376 8.715989169815334e-05 0.0007279408667364733 -8.436179369308313e-05 -0.00044759297690929046
 0.9982745735315297 -0.0032974614217092376 0.0016936422357233289 0.001278670181077596 -8.436002094830987e-05 -0.0004475917153101449 8.72349157734215e-05 0.0007279123111393996
 8.715989169815334e-05 0.0007279408667364733 -8.436002094830987e-05 -0.0004475917153101449 0.0016936546459679145 0.0012787301814744612 0.9982745738886254 -0.0032973943655609387
 -8.436179369308313e-05 -0.00044759297690929046 8.72349157734215e-05 0.0007279123111393996 0.9982745738886254 -0.0032973943655609387 0.0016936421659923563 0.001278737425648993
0.006252605252188 0.001725079097193814 0.001603396047015627 0.9982345496935154 -0.004122632330969472 9.457603091574517e-05 0.0009102525572300681 -9.091484314112375e-05 -0.0005600801288101353
 0.9982345496935154 -0.004122632330969472 0.0017250609203748595 0.0016034047761126833 -9.09120838091646e-05 -0.0005600785754440616 9.46932491807484e-05 0.0009102154722202678
 9.457603091574517e-05 0.0009102525572300681 -9.09120838091646e-05 -0.0005600785754440616 0.0017250802559815206 0.0016034796306298087 0.9982345501875466 -0.004122548519891925
 -9.091484314112375e-05 -0.0005600801288101353 9.46932491807484e-05 0.0009102154722202678 0.9982345501875466 -0.004122548519891925 0.0017250607476714398 0.0016034888150124095
0.01250521050438 0.0018906978762570882 0.0032406608287156792 0.9980221917423224 -0.008246081813387639 0.000137157551356969 0.0018206968657485218 -0.0001282232319425261 -0.0011229040674517797
 0.9980221917423224 -0.008246081813387639 0.00189062528295548 0.0032406797343278396 -0.00012821234784990215 -0.0011229012214616612 0.00013762499731693426 0.001820607678187824
 0.000137157551356969 0.0018206968657485218 -0.00012821234784990215 -0.0011229012214616612 0.001890701913334598 0.003240827836101364 0.9980221931343317 -0.008245914426300606
 -0.0001282232319425261 -0.0011229040674517797 0.00013762499731693426 0.001820607678187824 0.9980221931343317 -0.008245914426300606 0.0018906240213899974 0.0032408475003381696
0.01875781575657 0.002071182995736908 0.004901409453092631 0.9977886993158747 -0.01238038527031601 0.00018908000899206143 0.00273199803764907 -0.00017327864426600615 -0.0016875827675283334
 0.9977886993158747 -0.01238038527031601 0.0020710198492076056 0.004901440061234568 -0.00017325435878937299 -0.0016875789443451122 0.0001901300908057021 0.002731838752472758
 0.00018908000899206143 0.00273199803764907 -0.00017325435878937299 -0.0016875789443451122 0.002071191625996471 0.004901659844796192 0.9977887020212508 -0.01238013441735063
 -0.00017327864426600615 -0.0016875827675283334 0.0001901300908057021 0.002731838752472758 0.9977887020212508 -0.01238013441735063 0.002071016608892115 0.004901691369889346
0.02501042100875 0.002266891930892953 0.0065832885457580625 0.9975337927105765 -0.01652753656819498 0.000250444249295901 0.0036442032341884173 -0.0002261945793225956 -0.0022538384770566257
 0.9975337927105765 -0.01652753656819498 0.002266602151188245 0.006583332448648031 -0.00022615167467660485 -0.002253834051864832 0.00025230946955321856 0.003643952978349369
 0.000250444249295901 0.0036442032341884173 -0.00022615167467660485 -0.002253834051864832 0.0022669068554286823 0.006583622317274394 0.9975337971437094 -0.01652720232099824
 -0.0002261945793225956 -0.0022538384770566257 0.00025230946955321856 0.003643952978349369 0.9975337971437094 -0.01652720232099824 0.0022665960526817527 0.006583667155036935
0.03126302626094 0.0024781673340255185 0.008285081174231417 0.9972571782518352 -0.020688381659987903 0.0003213514701199364 0.004557269142183155 -0.0002870810577483852 -0.002821477349549532
 0.9972571782518352 -0.020688381659987903 0.002477714877177913 0.008285140027870872 -0.0002870143650255884 -0.0028214727579793913 0.000324264639619447 0.004556904147511344
 0.0003213514701199364 0.004557269142183155 -0.0002870143650255884 -0.0028214727579793913 0.0024781902342027214 0.008285498343588079 0.9972571848192403 -0.02068796406416497
 -0.0002870810577483852 -0.002821477349549532 0.000324264639619447 0.004556904147511344 0.9972571848192403 -0.02068796406416497 0.002477705043383625 0.008285558013881549
0.037515631513130004 0.002705344308377906 0.010005989464117003 0.9969585558242872 -0.024863335909002037 0.00040190223085671107 0.005471116774677928 -0.0003560454863468401 -0.0033903346598400746
 0.9969585558242872 -0.024863335909002037 0.0027046931524916037 0.010006064986859757 -0.00035594988059531194 -0.003390330398230468 0.0004060965634983686 0.005470610348614221
 0.00040190223085671107 0.005471116774677928 -0.00035594988059531194 -0.003390330398230468 0.0027053768570297755 0.010006490041911934 0.996958564934727 -0.024862835013901678
 -0.0003560454863468401 -0.0033903346598400746 0.0004060965634983686 0.005470610348614221 0.996958564934727 -0.024862835013901678 0.0027046787179177845 0.01000656613119337
0.043768236765320004 0.002948753223547729 0.011745416262059724 0.9966376219422585 -0.02905260235696136 0.0004921959806075608 0.006385648143428825 -0.00043319296967511787 -0.003960258142360662
 0.9966376219422585 -0.02905260235696136 0.0029478673579058077 0.011745510233821354 -0.0004330633671181977 -0.0039602547679065 0.000497905137376017 0.006384970636068002
 0.0004921959806075608 0.006385648143428825 -0.0004330633671181977 -0.0039602547679065 0.0029487970842774765 0.011746000265567557 0.9966376340051718 -0.029052018201490993
 -0.00043319296967511787 -0.003960258142360662 0.000497905137376017 0.006384970636068002 0.9966376340051718 -0.029052018201490993 0.0029478474661598923 0.011746094426072327
0.050020842017509996 0.003208721017192445 0.013502874937368963 0.9962940713077607 -0.03325626185227751 0.0005923307723176446 0.007300753152598779 -0.0005186264222696633 -0.004531101109299513
 0.9962940713077607 -0.03325626185227751 0.0032075644317377406 0.013502989199270994 -0.000518457778559042 -0.0045310992401505394 0.0005997888781707245 0.007299871922205346
 0.0005923307723176446 0.007300753152598779 -0.000518457778559042 -0.0045310992401505394 0.0032087778427425467 0.013503542382863172 0.9962940867314387 -0.03325559447242865
 -0.0005186264222696633 -0.004531101109299513 0.0005997888781707245 0.007299871922205346 0.9962940867314387 -0.03325559447242865 0.00320753823290074 0.01350365633232187
0.055454545454549996 0.0034483405710715545 0.015044476187628905 0.9959769100393242 -0.03692106195125695 0.0006874180240554178 0.008096380900236441 -0.0005996782010025987 -0.005027815451119707
 0.9959769100393242 -0.03692106195125695 0.0034469194711750023 0.01504460962488558 -0.0005994715625765787 -0.0050278154395277915 0.0006965865186685027 0.008095293769240178
 0.0006874180240554178 0.008096380900236441 -0.0005994715625765787 -0.0050278154395277915 0.00344840999845157 0.015045216161581007 0.9959769287147344 -0.036920322271190534
 -0.0005996782010025987 -0.005027815451119707 0.0006965865186685027 0.008095293769240178 0.9959769287147344 -0.036920322271190534 0.003446887106083085 0.015045348754095913
0.056273447269699996 0.003485571858136195 0.01527794508258408 0.9959275977354262 -0.03747431728138194 0.0007024030601929758 0.008216312980327939 -0.0006124465902596397 -0.00510271908411252
 0.9959275977354262 -0.03747431728138194 0.0034841085345469424 0.015278081536771682 -0.0006122338994508415 -0.005102719399437613 0.000711844704646919 0.008215192358202459
 0.0007024030601929758 0.008216312980327939 -0.0006122338994508415 -0.005102719399437613 0.003485643292050833 0.015278695987557152 0.9959276169277949 -0.037473566707672844
 -0.0006124465902596397 -0.00510271908411252 0.000711844704646919 0.008215192358202459 0.9959276169277949 -0.037473566707672844 0.0034840751853573975 0.015278831509155134
0.06252605252188 0.0037796274963829125 0.01707024817995099 0.9955378947665559 -0.0417067178373536 0.00082250753452792 0.009132201942076132 -0.0007147520310197585 -0.005674967957470974
 0.9955378947665559 -0.0417067178373536 0.0037778213987217017 0.017070408789832417 -0.0007144903248863066 -0.005674971197513498 0.0008341677613725898 0.009130803197215164
 0.00082250753452792 0.009132201942076132 -0.0007144903248863066 -0.005674971197513498 0.0037797151736685295 0.01707108255804304 0.995537918135583 -0.04170588409989621
 -0.0007147520310197585 -0.005674967957470974 0.0008341677613725898 0.009130803197215164 0.995537918135583 -0.04170588409989621 0.0037777800625796187 0.0170712415007284
0.06877865777407 0.004091207442472442 0.018879433088556913 0.9951246561175169 -0.045953373472838115 0.0009527369800665184 0.010048288607208326 -0.0008256390657681571 -0.006247702894811335
 0.9951246561175169 -0.045953373472838115 0.0040890225085344605 0.01887961987922997 -0.0008253234134689958 -0.0062477098609278105 0.0009668512694139688 0.010046569910962484
 0.0009527369800665184 0.010048288607208326 -0.0008253234134689958 -0.0062477098609278105 0.004091312990171874 0.01888035094925395 0.9951246840715448 -0.04595245660123874
 -0.0008256390657681571 -0.006247702894811335 0.0009668512694139688 0.010046569910962484 0.9951246840715448 -0.04595245660123874 0.004088972354963306 0.018880535228359203
0.07503126302626001 0.0044206290455885856 0.020705166840016203 0.9946875760306548 -0.05021416404916066 0.0010931821474101998 0.010964436508426928 -0.0009452017163345279 -0.006820777656200363
 0.9946875760306548 -0.05021416404916066 0.004418029178509648 0.02070538189895158 -0.0009448272243289064 -0.0068207892108804345 0.0011099863921628062 0.010962352899331729
 0.0010931821474101998 0.010964436508426928 -0.0009448272243289064 -0.0068207892108804345 0.004420754083101529 0.020706168194716757 0.9946876089777346 -0.05021316406630275
 -0.0009452017163345279 -0.006820777656200363 0.0011099863921628062 0.010962352899331729 0.9946876089777346 -0.05021316406630275 0.004417969382081653 0.02070637979287607
0.08128386827845 0.004768207506777832 0.02254712853200558 0.9942263495633901 -0.05448894539349328 0.0012439316317076972 0.011880504631208788 -0.0010735316327268728 -0.007394044141728534
 0.9942263495633901 -0.05448894539349328 0.00476515656637751 0.022547374010116483 -0.0010730934447569305 -0.007394061208617987 0.00126366210920424 0.011878007980092446
 0.0012439316317076972 0.011880504631208788 -0.0010730934447569305 -0.007394061208617987 0.0047683536465008515 0.0225482133843188 0.99422638791189 -0.054487862325022236
 -0.0010735316327268728 -0.007394044141728534 0.00126366210920424 0.011878007980092446 0.99422638791189 -0.054487862325022236 0.004765086306696604 0.022548454352706006
0.08753647353064001 0.005134255852056368 0.024405005086195454 0.9937406728415951 -0.05877755349750138 0.0014050717576121335 0.01279634774567819 -0.0012107180121433787 -0.0079673521000737
 0.9937406728415951 -0.05877755349750138 0.005130717646105324 0.02440528319916582 -0.001210211309395255 -0.007967375663967047 0.0014279650979264636 0.012793386721175373
 0.0014050717576121335 0.01279634774567819 -0.001210211309395255 -0.007967375663967047 0.0051344246996370855 0.024406173436989892 0.993740717000177 -0.05877638736647266
 -0.0012107180121433787 -0.0079673521000737 0.0014279650979264636 0.012793386721175373 0.993740717000177 -0.05877638736647266 0.005130636106977192 0.024406445896879982
0.09378907878283 0.00551908487312519 0.026278488241423394 0.9932302432845099 -0.06307980748718875 0.0015766864667877477 0.013711816662618182 -0.0013568475141325618 -0.008540548918960729
 0.9932302432845099 -0.06307980748718875 0.005515023148776426 0.026278801271290935 -0.0013562675154526265 -0.008540580025789073 0.0016029796177849801 0.013708336697040524
 0.0015766864667877477 0.013711816662618182 -0.0013562675154526265 -0.008540580025789073 0.005519278028217777 0.026279740086949447 0.9932302936623739 -0.06307855831572891
 -0.0013568475141325618 -0.008540548918960729 0.0016029796177849801 0.013708336697040524 0.9932302936623739 -0.06307855831572891 0.005514929518162363 0.026280046231602686
0.100041684035 0.005923003049484166 0.028167272339581287 0.9926947598135557 -0.06739551180654191 0.0017588572082260976 0.014626758423663034 -0.0015120041713814686 -0.009113479487387506
 0.9926947598135557 -0.06739551180654191 0.005918381484782991 0.028167622636667708 -0.0015113461336234617 -0.009113519244188135 0.001788787398157249 0.014622701679451225
 0.0017588572082260976 0.014626758423663034 -0.0015113461336234617 -0.009113519244188135 0.005923222105918683 0.028168607671839797 0.992694816820207 -0.06739417961513246
 -0.0015120041713814686 -0.009113479487387506 0.001788787398157249 0.014622701679451225 0.992694816820207 -0.06739417961513246 0.005918274953860407 0.02816894976873718
0.1059090909091 0.006319671474124955 0.02995334047953275 0.9921692124051108 -0.07145738984586822 0.0019394759942168635 0.015484715358430013 -0.0016658848066795028 -0.009650731456637047
 0.9921692124051108 -0.07145738984586822 0.0063144914549567045 0.029953727948385262 -0.0016651492578536858 -0.009650780391763453 0.0019730351305687907 0.015480061824167867
 0.0019394759942168635 0.015484715358430013 -0.0016651492578536858 -0.009650780391763453 0.006319916281066407 0.029954754142962028 0.99216927600515 -0.07145597976726283
 -0.0016658848066795028 -0.009650731456637047 0.0019730351305687907 0.015480061824167867 0.99216927600515 -0.07145597976726283 0.00631437208551425 0.029955132107756154
0.1062942892872 0.006346316454142878 0.03007105266491129 0.9921339230489227 -0.07172445785466731 0.0019516628299885827 0.015541016458424626 -0.0016762692981921459 -0.009685986097216158
 0.9921339230489227 -0.07172445785466731 0.006341098649214908 0.030071442650133545 -0.0016755285165567031 -0.009686035672104075 0.0019854675275754363 0.015536321795054639
 0.0019516628299885827 0.015541016458424626 -0.0016755285165567031 -0.009686035672104075 0.006346563000275801 0.030072471471039846 0.992133987094269 -0.07172304266259547
 -0.0016762692981921459 -0.009685986097216158 0.0019854675275754363 0.015536321795054639 0.992133987094269 -0.07172304266259547 0.006340978412099683 0.030072851864335753
0.11254689453939999 0.0067893286467399306 0.03198952418543711 0.9915474354959031 -0.07606642522793135 0.002155179472506605 0.01645443070999064 -0.001849721396357736 -0.01025790838272105
 0.9915474354959031 -0.07606642522793135 0.006783478115150159 0.03198995635279675 -0.0018488932048712694 -0.010257969004804354 0.0021930963449726965 0.01644903365155027
 0.002155179472506605 0.01645443070999064 -0.0018488932048712694 -0.010257969004804354 0.0067896042663062855 0.03199102644695017 0.9915475069905507 -0.07606492705363599
 -0.001849721396357736 -0.01025790838272105 0.0021930963449726965 0.01644903365155027 0.9915475069905507 -0.07606492705363599 0.0067833433683753145 0.03199144756056349
0.11879949979160001 0.0072523405588931205 0.03392238056806218 0.9909350017269378 -0.0804211826955344 0.002369480462368789 0.017366837743739493 -0.0020324360598080126 -0.010829083283328633
 0.9909350017269378 -0.0804211826955344 0.00724582071874247 0.03392285748767112 -0.002031515831785451 -0.01082915624266883 0.0024117473318862616 0.017360670447093333
 0.002369480462368789 0.017366837743739493 -0.002031515831785451 -0.01082915624266883 0.007252646831087504 0.033923966260675203 0.9909350810824062 -0.08041960155658623
 -0.0020324360598080126 -0.010829083283328633 0.0024117473318862616 0.017360670447093333 0.9909350810824062 -0.08041960155658623 0.007245670660779701 0.03392443060143519
0.1250521050438 0.007735650370853995 0.03586931340925475 0.9902963285580083 -0.08478848896731324 0.0025946362071904918 0.018278070847171788 -0.0022244858780476992 -0.01139934502186021
 0.9902963285580083 -0.08478848896731324 0.007728424536012827 0.0358698377305318 -0.0022234690265786994 -0.011399431669363603 0.002641491005256381 0.018271062070842996
 0.0025946362071904918 0.018278070847171788 -0.0022234690265786994 -0.011399431669363603 0.007735988870544921 0.03587098250364777 0.9902964161860353 -0.08478682487931136
 -0.0022244858780476992 -0.01139934502186021 0.002641491005256381 0.018271062070842996 0.9902964161860353 -0.08478682487931136 0.007728258366653257 0.03587149266495933
0.131304710296 0.008239553382663245 0.03783001162279507 0.9896311252207219 -0.08916809331183333 0.002830714091129311 0.019187960116989224 -0.002425940338526566 -0.011968525102430511
 0.9896311252207219 -0.08916809331183333 0.008231584753843346 0.03783058607815008 -0.002424822317072969 -0.011968626849731755 0.002882394811387202 0.019180035190693227
 0.002830714091129311 0.019187960116989224 -0.002424822317072969 -0.011968626849731755 0.00823992568124201 0.0378317640827513 0.9896312215342628 -0.08916634628991067
 -0.002425940338526566 -0.011968525102430511 0.002882394811387202 0.019180035190693227 0.9896312215342628 -0.08916634628991067 0.008231401673778298 0.03783232274872449
0.1375573155481 0.00865042106881452 0.039546427799000756 0.9890530719949919 -0.09330186978464369 0.003048301958879744 0.020070061437041258 -0.002607334956949533 -0.012510246074359223
 0.9890530719949919 -0.09330186978464369 0.008641671340062346 0.03954704187673944 -0.002606109303953596 -0.012510363070014663 0.0031049269499899682 0.020061230705554187
 0.003048301958879744 0.020070061437041258 -0.002606109303953596 -0.012510363070014663 0.008650829825884766 0.03954826300933898 0.9890531773847007 -0.09330003988370084
 -0.002607334956949533 -0.012510246074359223 0.0031049269499899682 0.020061230705554187 0.9890531773847007 -0.09330003988370084 0.0086414695076258 0.03954886085992894
0.1438099208003 0.009075773410481923 0.04125344429616442 0.9884546154741104 -0.09742484714778327 0.003274677103087041 0.020948531862498152 -0.002795994066245191 -0.01304861460423233
 0.9884546154741104 -0.09742484714778327 0.009066205444762577 0.041254099916086036 -0.002794655948133274 -0.013048748230720565 0.003336462838516426 0.020938726943108617
 0.003274677103087041 0.020948531862498152 -0.002794655948133274 -0.013048748230720565 0.009076220391699003 0.04125536215958021 0.9884547303486196 -0.09742293439231735
 -0.002795994066245191 -0.01304861460423233 0.003336462838516426 0.020938726943108617 0.9884547303486196 -0.09742293439231735 0.009065983872893058 0.04125600120379247
0.1500625260525 0.009515456108206935 0.04295090878953826 0.9878359144308775 -0.10153691363585149 0.0035097591713970345 0.021823279068996424 -0.0029918388117684837 -0.013583542058365173
 0.9878359144308775 -0.10153691363585149 0.009505032662627979 0.04295160800056837 -0.0029903834104755386 -0.013583693752869877 0.003576920801980977 0.021812429082981366
 0.0035097591713970345 0.021823279068996424 -0.0029903834104755386 -0.013583693752869877 0.009515943089261087 0.04295290920315334 0.9878360391990517 -0.10153491805013318
 -0.0029918388117684837 -0.013583542058365173 0.003576920801980977 0.021812429082981366 0.9878360391990517 -0.10153491805013318 0.009504790352746614 0.04295359158946899
0.15631513130469998 0.009969313703337956 0.04463867353539989 0.9871971285209294 -0.10563795807775567 0.0037534668298626283 0.022694212347641397 -0.00319478933275396 -0.014114941731139542
 0.9871971285209294 -0.10563795807775567 0.00995799742580339 0.044639418520320585 -0.003193211846094247 -0.014115112985152469 0.0038262181632506345 0.022682243946804587
