! Created with skrf 1.8.0 (http://scikit-rf.org).
# GHz S RI R 50.0 
!freq ReS11 ImS11 ReS12 ImS12 ReS13 ImS13
! ReS14 ImS14
! ReS21 ImS21 ReS22 ImS22 ReS23 ImS23
! ReS24 ImS24
! ReS31 ImS31 ReS32 ImS32 ReS33 ImS33
! ReS34 ImS34
! ReS41 ImS41 ReS42 ImS42 ReS43 ImS43
! ReS44 ImS44
!
0.0 0.001682260027466 0.0 0.9983177399725 0.0 6.529618431833e-05 0.0 -6.529618419646e-05 7.996476297273073e-21
 0.9983177399725 0.0 0.001682260027486 0.0 -6.529618419638e-05 7.996476297263275e-21 6.529618431883e-05 0.0
 6.529618431833e-05 0.0 -6.529618419638e-05 7.996476297263275e-21 0.00168226002329 0.0 0.9983177399683 0.0
 -6.529618419646e-05 7.996476297273073e-21 6.529618431883e-05 0.0 0.9983177399683 0.0 0.001682260023313 0.0
0.005 0.0018104628062282767 0.0013725794821761365 0.9981554811137663 -0.0035235632643693484 9.215771901576168e-05 0.0007392483330341086 -8.943078633776167e-05 -0.0004604566973459743
 0.9981554811137663 -0.0035235632643693484 0.0018104414208115508 0.0013725919299971575 -8.94297229993239e-05 -0.00046045582536919716 9.229629403650909e-05 0.0007391955575268181
 9.215771901576168e-05 0.0007392483330341086 -8.94297229993239e-05 -0.00046045582536919716 0.00181046325934128 0.0013725118847202093 0.9981554807397873 -0.0035236303382838526
 -8.943078633776167e-05 -0.0004604566973459743 9.229629403650909e-05 0.0007391955575268181 0.9981554807397873 -0.0035236303382838526 0.0018104402311725307 0.0013725253914555816
0.006252605252188 0.0018442217462667186 0.0017211203074574296 0.9981124683308646 -0.004405296204536076 9.988184123320864e-05 0.0009244022811366275 -9.63091065804248e-05 -0.0005761625453171438
 0.9981124683308646 -0.004405296204536076 0.001844188317262627 0.0017211361154728915 -9.630745238499062e-05 -0.0005761614691905481 0.00010009835073794065 0.0009243337221523637
 9.988184123320864e-05 0.0009244022811366275 -9.630745238499062e-05 -0.0005761614691905481 0.0018442225351951384 0.0017210358336529543 0.998112467826215 -0.004405380023298498
 -9.63091065804248e-05 -0.0005761625453171438 0.00010009835073794065 0.0009243337221523637 0.998112467826215 -0.004405380023298498 0.0018441865373172352 0.0017210529777537881
0.01250521050438 0.0020227227029100923 0.003478215157518959 0.9978834639634664 -0.008811262205894056 0.00014444292569284572 0.0018490596266402246 -0.000135680215659061 -0.001155047461060623
 0.9978834639634664 -0.008811262205894056 0.0020225892245990013 0.003478249266358371 -0.00013567370208007916 -0.0011550454608835032 0.00014530629767273154 0.001848894413865092
 0.00014444292569284572 0.0018490596266402246 -0.00013567370208007916 -0.0011550454608835032 0.0020227264186555615 0.003478046451958205 0.997883462501267 -0.00881142962313183
 -0.000135680215659061 -0.001155047461060623 0.00014530629767273154 0.001848894413865092 0.997883462501267 -0.00881142962313183 0.0020225826678286927 0.00347808337607683
0.01875781575657 0.0022181802036979753 0.005260173437865119 0.9976304225466269 -0.013228592341764935 0.00019908830932436364 0.0027745946282255744 -0.00018353699035621624 -0.0017357733999364012
 0.9976304225466269 -0.013228592341764935 0.002217880278344937 0.005260228499871347 -0.0001835224725615965 -0.0017357706575372878 0.00020102773186982516 0.0027742988056609053
 0.00019908830932436364 0.0027745946282255744 -0.0001835224725615965 -0.0017357706575372878 0.0022181889949357274 0.005259920623880577 0.9976304196749324 -0.013228843322155329
 -0.00018353699035621624 -0.0017357733999364012 0.00020102773186982516 0.0027742988056609053 0.9976304196749324 -0.013228843322155329 0.0022178659575359553 0.005259980177697133
0.02501042100875 0.0024309976030554865 0.007064459144733824 0.9973530270356283 -0.017659392084840794 0.0002639274828216108 0.003701031257121923 -0.00024000206135530979 -0.0023180498941053995
 0.9973530270356283 -0.017659392084840794 0.0024304649669646054 0.007064537948254681 -0.00023997643479580242 -0.0023180466243483437 0.00026737225254843864 0.0037005651901887873
 0.0002639274828216108 0.003701031257121923 -0.00023997643479580242 -0.0023180466243483437 0.0024310136324545892 0.0070641223625232934 0.9973530223010753 -0.01765972664353804
 -0.00024000206135530979 -0.0023180498941053995 0.00026737225254843864 0.0037005651901887873 0.9973530223010753 -0.01765972664353804 0.0024304399017534236 0.007064207584162274
0.03126302626094 0.0026615615408912773 0.00888974894658827 0.9970509452847741 -0.022104540448634788 0.00033906985176960613 0.004628305327589007 -0.00030519412569271763 -0.0029016670418424003
 0.9970509452847741 -0.022104540448634788 0.0026607300238102294 0.00888985441101306 -0.00030515431926992465 -0.0029016634929536853 0.00034444975669031065 0.004627623669271646
 0.00033906985176960613 0.004628305327589007 -0.00030515431926992465 -0.0029016634929536853 0.002661586982113472 0.008889328358080418 0.9970509382269176 -0.02210495864646237
 -0.00030519412569271763 -0.0029016670418424003 0.00034444975669031065 0.004627623669271646 0.9970509382269176 -0.02210495864646237 0.002660691236654349 0.008889442469558567
0.037515631513130004 0.0029102499435389494 0.010735166185278446 0.9967238383754992 -0.026564455925467176 0.00042462375248717804 0.005556317546360142 -0.00037922881388195294 -0.003486442492868499
 0.9967238383754992 -0.026564455925467176 0.002909053441304831 0.010735301358506068 -0.0003791717865101208 -0.0034864389465013358 0.00043236923491264657 0.0055553691810396304
 0.00042462375248717804 0.005556317546360142 -0.0003791717865101208 -0.0034864389465013358 0.0029102869863379954 0.01073466197184099 0.9967238285287828 -0.026564957871215683
 -0.00037922881388195294 -0.003486442492868499 0.00043236923491264657 0.0055553691810396304 0.9967238285287828 -0.026564957871215683 0.0029089979617567844 0.010734808377218831
0.043768236765320004 0.00317743510090454 0.012600047754644439 0.9963713640164142 -0.03103932953741118 0.0005206959720402653 0.0064849496561766124 -0.00046221898935294074 -0.004072205330777635
 0.9963713640164142 -0.03103932953741118 0.003175807552584852 0.012600215811599326 -0.0004621417278808805 -0.004072202101980524 0.000531238197161512 0.006483677636561316
 0.0005206959720402653 0.0064849496561766124 -0.0004621417278808805 -0.004072202101980524 0.0031774859500735214 0.012599460135020188 0.9963713509068703 -0.031039915369699647
 -0.00046221898935294074 -0.004072205330777635 0.000531238197161512 0.006483677636561316 0.9963713509068703 -0.031039915369699647 0.0031757324162299773 0.012599642419741144
0.050020842017509996 0.0034634850859712528 0.014483847773785405 0.9959931782888994 -0.03552922109181047 0.0006273914466568628 0.007414071102917267 -0.0005542748456441776 -0.004658789432921455
 0.9959931782888994 -0.03552922109181047 0.0034613604531577202 0.014484052015821671 -0.0005541743634980755 -0.004658786870097593 0.0006411623207215591 0.0074124125843988056
 0.0006273914466568628 0.007414071102917267 -0.0005541743634980755 -0.004658786870097593 0.0034635519639377773 0.014483176996526646 0.9959931614339641 -0.03552989098650832
 -0.0005542748456441776 -0.004658789432921455 0.0006411623207215591 0.0074124125843988056 0.9959931614339641 -0.03552989098650832 0.0034612627044508146 0.014483398927530915
0.055454545454549996 0.003727674962134647 0.016135920296315564 0.9956433750999514 -0.03944325210219923 0.0007288203736210344 0.00822179499179674 -0.0006417201955495099 -0.00516908793144442
 0.9956433750999514 -0.03944325210219923 0.0037250647196810185 0.016136158763539667 -0.0006415971283932665 -0.005169086256176167 0.0007457483689286745 0.008219744926194662
 0.0007288203736210344 0.00822179499179674 -0.0006415971283932665 -0.005169086256176167 0.0037277575889814014 0.016135177484290712 0.995643354590849 -0.0394439952145941
 -0.0006417201955495099 -0.00516908793144442 0.0007457483689286745 0.008219744926194662 0.995643354590849 -0.0394439952145941 0.0037249449281245004 0.016135437069913626
0.056273447269699996 0.0037687644675432506 0.016386090302589505 0.9955889366902638 -0.04003410639762512 0.0007448130401487208 0.008343542322418643 -0.0006555039114049133 -0.005246030214822669
 0.9955889366902638 -0.04003410639762512 0.00376607671529475 0.01638633415745209 -0.000655377247661436 -0.005246028699666226 0.0007622451983732061 0.008341428496399421
 0.0007448130401487208 0.008343542322418643 -0.000655377247661436 -0.005246028699666226 0.0037688496152343156 0.016385336653729293 0.9955889155974476 -0.040034860559996624
 -0.0006555039114049133 -0.005246030214822669 0.0007622451983732061 0.008341428496399421 0.9955889155974476 -0.040034860559996624 0.0037659534089605658 0.01638560218029828
0.06252605252188 0.004093634678424149 0.018306343352912233 0.9951582948359714 -0.044553903191260284 0.0008730613613570935 0.009273216546278858 -0.0007660110094045357 -0.005833762861121846
 0.9951582948359714 -0.044553903191260284 0.004090317756671186 0.018306630375472886 -0.0007658552281417636 -0.005833762808558201 0.000894588135422671 0.009270572573336182
 0.0008730613613570935 0.009273216546278858 -0.0007658552281417636 -0.005833762808558201 0.004093740356529529 0.018305507146287894 0.995158269002042 -0.04455474186530335
 -0.0007660110094045357 -0.005833762861121846 0.000894588135422671 0.009270572573336182 0.995158269002042 -0.04455474186530335 0.004090165959396508 0.01830582040154613
0.06877865777407 0.0044384541943661635 0.020244203395408854 0.9947009089787346 -0.049088486573155087 0.0010122346017626884 0.010202940895762316 -0.0008858981903789264 -0.006421821274714258
 0.9947009089787346 -0.049088486573155087 0.0044344420203391 0.020244537268863647 -0.0008857103803230341 -0.006421823132819889 0.001038289972864599 0.010199685839127129
 0.0010122346017626884 0.010202940895762316 -0.0008857103803230341 -0.006421823132819889 0.004438582684358337 0.020243284982235345 0.9947008778872344 -0.04908941003164583
 -0.0008858981903789264 -0.006421821274714258 0.001038289972864599 0.010199685839127129 0.9947008778872344 -0.04908941003164583 0.004434258811696842 0.02024365028525015
0.07503126302626001 0.004803578600269957 0.022199285543958704 0.9942164364175873 -0.05363769877372993 0.0011624283867599217 0.011132557078941285 -0.001015264649850155 -0.007010037429406572
 0.9942164364175873 -0.05363769877372993 0.004798805040009463 0.02219967008180409 -0.0010150419239143731 -0.007010041679350084 0.001193446927793821 0.011128603838600254
 0.0011624283867599217 0.011132557078941285 -0.0010150419239143731 -0.007010041679350084 0.004803732205458753 0.02219828530917964 0.994216399538864 -0.05363870732150784
 -0.001015264649850155 -0.007010037429406572 0.001193446927793821 0.011128603838600254 0.994216399538864 -0.05363870732150784 0.0047985875152673114 0.022198707167661955
0.08128386827845 0.005189360584782669 0.024171217033526954 0.9937045358416867 -0.058201355633717325 0.0013237356348004563 0.012061901868718422 -0.001154206634093503 -0.007598240948940134
 0.9937045358416867 -0.058201355633717325 0.005183759436057986 0.02417165618205884 -0.0011539461292775696 -0.007598248104901975 0.0013601524440138325 0.012057157116299884
 0.0013237356348004563 0.012061901868718422 -0.0011539461292775696 -0.007598248104901975 0.0051895416319815545 0.024170135391820287 0.9937044926308325 -0.05820244961113037
 -0.001154206634093503 -0.007598240948940134 0.0013601524440138325 0.012057157116299884 0.9937044926308325 -0.05820244961113037 0.005183504707585882 0.024170618505552133
0.08753647353064001 0.005596149889278493 0.026159632700541804 0.9931648676312441 -0.06277925109018372 0.0014962464210919735 0.012990807445532602 -0.001302817339653239 -0.0081862588285724
 0.9931648676312441 -0.06277925109018372 0.005589654863598064 0.026160130542077227 -0.0013025162168769364 -0.008186269437671688 0.0015384970486747459 0.012985171560286767
 0.0014962464210919735 0.012990807445532602 -0.0013025162168769364 -0.008186269437671688 0.005596360729470166 0.026158470102373186 0.9931648175270833 -0.06278043086647925
 -0.001302817339653239 -0.0081862588285724 0.0015384970486747459 0.012985171560286767 0.9931648175270833 -0.06278043086647925 0.005589360062516172 0.02615901936719503
0.09378907878283 0.006024293222793897 0.02816417177783882 0.9925970941292438 -0.06737116035641924 0.0016800478458190167 0.013919101650591754 -0.0014611868066266905 -0.008773915254019554
 0.9925970941292438 -0.06737116035641924 0.006016837927484188 0.028164732534672495 -0.0014608422506224704 -0.008773929896236212 0.0017285682145260918 0.013912468656446967
 0.0016800478458190167 0.013919101650591754 -0.0014608422506224704 -0.008773929896236212 0.006024536232422094 0.028162928704727638 0.9925970365529361 -0.06737242633391326
 -0.0014611868066266905 -0.008773915254019554 0.0017285682145260918 0.013912468656446967 0.9925970365529361 -0.06737242633391326 0.006016500205921237 0.028163549217225324
0.100041684035 0.006474134154509402 0.030184475538157483 0.992000879894909 -0.07197684226246956 0.001875223903128964 0.014846608188459889 -0.0016294018098330374 -0.00936103147868676
 0.992000879894909 -0.07197684226246956 0.006465652075220054 0.030185103577079667 -0.0016290110291194886 -0.009361050766790594 0.0019304502238302037 0.014838865692420114
 0.001875223903128964 0.014846608188459889 -0.0016290110291194886 -0.009361050766790594 0.006474411736863906 0.030183152504785985 0.9920008142486597 -0.07197819487364596
 -0.0016294018098330374 -0.00936103147868676 0.0019304502238302037 0.014838865692420114 0.9920008142486597 -0.07197819487364596 0.006465268608460474 0.030183849567705756
0.1059090909091 0.006916299068249017 0.032094334846061036 0.9914152328849714 -0.0763110846216021 0.002068793018706806 0.015716097798587653 -0.0017962824900738346 -0.009911324609079921
 0.9914152328849714 -0.0763110846216021 0.0069067928430335095 0.03209503012700268 -0.00179584581479865 -0.009911348843282904 0.002130709071793407 0.015707206163406144
 0.002068793018706806 0.015716097798587653 -0.00179584581479865 -0.009911348843282904 0.0069166113039890375 0.03209293727104407 0.9914151591041029 -0.07631251895390384
 -0.0017962824900738346 -0.009911324609079921 0.002130709071793407 0.015707206163406144 0.9914151591041029 -0.07631251895390384 0.006906363902046246 0.032093711180178015
0.1062942892872 0.0069460129875973785 0.03222018553658657 0.9913758919412067 -0.07659604100579494 0.0020818553534147134 0.015773146793938552 -0.0018075457457148911 -0.009947425744839979
 0.9913758919412067 -0.07659604100579494 0.0069364374704387515 0.03222088537420093 -0.001807105972653288 -0.009947450324293986 0.002144224036342611 0.015764175925817935
 0.0020818553534147134 0.015773146793938552 -0.001807105972653288 -0.009947450324293986 0.00694632757376211 0.032218783086018624 0.9913758176068039 -0.07659748071729079
 -0.0018075457457148911 -0.009947425744839979 0.002144224036342611 0.015764175925817935 0.9913758176068039 -0.07659748071729079 0.006936005458316914 0.03221956221435134
0.11254689453939999 0.007440266621625295 0.0342709422652548 0.9907217999651627 -0.08122848749905104 0.002300019596327712 0.01669853336670255 -0.001995698518232923 -0.010532913245117365
 0.9907217999651627 -0.08122848749905104 0.0074295308551974 0.03427171857403202 -0.001995207009006088 -0.010532943794000922 0.002369967157931379 0.016688208720406238
 0.002300019596327712 0.01669853336670255 -0.001995207009006088 -0.010532943794000922 0.00744062067187815 0.03426946097443912 0.9907217163028541 -0.08123001480535195
 -0.001995698518232923 -0.010532913245117365 0.002369967157931379 0.016688208720406238 0.9907217163028541 -0.08123001480535195 0.007429047524758546 0.034270327902190534
0.11879949979160001 0.00795722840313683 0.03633638412475108 0.9900382765691372 -0.08587390041130401 0.0025297905449669276 0.017622580098065263 -0.002193936423110954 -0.011117306100273828
 0.9900382765691372 -0.08587390041130401 0.007945265400302862 0.03633724173986361 -0.0021933904578309783 -0.011117343329187535 0.0026077535111588375 0.017610769674455778
 0.0025297905449669276 0.017622580098065263 -0.0021933904578309783 -0.011117343329187535 0.007957624408006144 0.03633482459933758 0.9900381829161379 -0.08587551583891327
 -0.002193936423110954 -0.011117306100273828 0.0026077535111588375 0.017610769674455778 0.9900381829161379 -0.08587551583891327 0.00794472800773878 0.03633578528717134
0.1250521050438 0.008497227968832703 0.03841614660531965 0.9893249974775589 -0.0905319870091423 0.0027712385011178487 0.01854509558233539 -0.0024023320310926763 -0.01170041336086556
 0.9893249974775589 -0.0905319870091423 0.008483970548965283 0.03841709053214404 -0.0024017289138766316 -0.011700458012850752 0.0028576533072161843 0.018531660733730585
 0.0027712385011178487 0.01854509558233539 -0.0024017289138766316 -0.011700458012850752 0.008497668450359696 0.03841450948069018 0.9893248931466183 -0.09053369111452597
 -0.0024023320310926763 -0.01170041336086556 0.0028576533072161843 0.018531660733730585 0.9893248931466183 -0.09053369111452597 0.008483376381574408 0.03841557012416297
0.131304710296 0.009060591082067053 0.04050986165182732 0.9885816417495688 -0.09520244382445973 0.003024430031484039 0.01946588492381463 -0.0026209540707127347 -0.012282041021851877
 0.9885816417495688 -0.09520244382445973 0.009045971852803439 0.040510897074359606 -0.0026202911297343954 -0.012282093872297973 0.0031197329190340664 0.019450680300306264
 0.003024430031484039 0.01946588492381463 -0.0026202911297343954 -0.012282093872297973 0.009061078594779197 0.04050814759262407 0.9885815260275403 -0.09520423719338685
 -0.0026209540707127347 -0.012282041021851877 0.0031197329190340664 0.019450680300306264 0.9885815260275403 -0.09520423719338685 0.009045318231145396 0.04050931463134727
0.1375573155481 0.009523400119432984 0.042343874815440885 0.9879321921660619 -0.09961151022728187 0.003258436284834841 0.020357731572345092 -0.0028187725983427466 -0.012835079605729641
 0.9879321921660619 -0.09961151022728187 0.00950734566702327 0.04234498391920536 -0.002818045700541123 -0.012835140762196145 0.003362844731641057 0.020340771337656046
 0.003258436284834841 0.020357731572345092 -0.002818045700541123 -0.012835140762196145 0.009523936183156138 0.042342084670244175 0.9879320645100228 -0.09961339323211378
 -0.0028187725983427466 -0.012835079605729641 0.003362844731641057 0.020340771337656046 0.9879320645100228 -0.09961339323211378 0.009506630650360138 0.04234334086343405
0.1438099208003 0.010002638209006197 0.04416731659481914 0.9872596219826122 -0.10400849033331248 0.003501857626509257 0.021245513880449544 -0.0030244752407772284 -0.013384322175084229
 0.9872596219826122 -0.10400849033331248 0.00998507993557555 0.04416850329642723 -0.0030236814862512366 -0.013384392409928158 0.0036157681352496137 0.02122666436077951
 0.003501857626509257 0.021245513880449544 -0.0030236814862512366 -0.013384392409928158 0.010003225239232433 0.04416545111085858 0.9872594816770816 -0.10401046355199542
 -0.0030244752407772284 -0.013384322175084229 0.0036157681352496137 0.02122666436077951 0.9872594816770816 -0.10401046355199542 0.009984301025574379 0.044166801591006014
0.1500625260525 0.010498123396397366 0.04598000768660346 0.9865641180097457 -0.1083932477018508 0.0037546012632997056 0.02212912660617142 -0.003237970232828707 -0.013929667146967624
 0.9865641180097457 -0.1083932477018508 0.010478992470027381 0.04598127617889416 -0.0032371067274317416 -0.013929747263906595 0.003878407633611951 0.022108249256173836
 0.0037546012632997056 0.02212912660617142 -0.0032371067274317416 -0.013929747263906595 0.01049876382827351 0.045978067639515466 0.9865639643169631 -0.10839531173408097
 -0.003237970232828707 -0.013929667146967624 0.003878407633611951 0.022108249256173836 0.9865639643169631 -0.10839531173408097 0.010478147209202107 0.04597951786219316
0.15631513130469998 0.011009672270039393 0.04778177412840425 0.98584586819432 -0.11276564697738992 0.0040165732146653305 0.023008466500649343 -0.0034591645882529314 -0.014471015246218558
 0.98584586819432 -0.11276564697738992 0.01098889961858997 0.04778312889098897 -0.003458228443592259 -0.014471106080289061 0.0041506664971635255 0.022985417960096222
