! Created with skrf 1.8.0 (http://scikit-rf.org).
# GHz S RI R 50.0 
!freq ReS11 ImS11 ReS12 ImS12 ReS13 ImS13
! ReS14 ImS14
! ReS21 ImS21 ReS22 ImS22 ReS23 ImS23
! ReS24 ImS24
! ReS31 ImS31 ReS32 ImS32 ReS33 ImS33
! ReS34 ImS34
! ReS41 ImS41 ReS42 ImS42 ReS43 ImS43
! ReS44 ImS44
!
0.0 0.001659086720082 0.0 0.9983409132742 0.0 6.439693296055e-05 0.0 -6.439693247149e-05 7.886349722611848e-21
 0.9983409132742 0.0 0.001659086720121 0.0 -6.439693247268e-05 7.88634972275758e-21 6.439693296065e-05 0.0
 6.439693296055e-05 0.0 -6.439693247268e-05 7.88634972275758e-21 0.001659086717276 0.0 0.9983409132714 0.0
 -6.439693247149e-05 7.886349722611848e-21 6.439693296065e-05 0.0 0.9983409132714 0.0 0.001659086717251 0.0
0.005 0.001785431930887451 0.0013530218841314766 0.99818097912418 -0.0034752070496244848 9.112540011896584e-05 0.0007330005571450089 -8.823902345204079e-05 -0.000455940848506901
 0.99818097912418 -0.0034752070496244848 0.0017854661874734106 0.001353001834401333 -8.823830915347129e-05 -0.00045594023945102005 9.091008651426003e-05 0.0007330824501581473
 9.112540011896584e-05 0.0007330005571450089 -8.823830915347129e-05 -0.00045594023945102005 0.0017854329606517827 0.0013530884990481556 0.9981809794905372 -0.0034751399935148983
 -8.823902345204079e-05 -0.000455940848506901 9.091008651426003e-05 0.0007330824501581473 0.9981809794905372 -0.0034751399935148983 0.0017854658857566705 0.0013530693283810222
0.006252605252188 0.0018186722719650858 0.0016966030027968683 0.9981386123371822 -0.004344843064066543 9.884862332463896e-05 0.0009165859726912143 -9.502482140711301e-05 -0.0005705141514326675
 0.9981386123371822 -0.004344843064066543 0.001818725822133837 0.0016965775755668103 -9.502371038538359e-05 -0.0005705133992959307 9.851221592399623e-05 0.0009166923657960098
 9.884862332463896e-05 0.0009165859726912143 -9.502371038538359e-05 -0.0005705133992959307 0.001818673806977294 0.0016966862730599115 0.9981386128346866 -0.0043447592342292715
 -9.502482140711301e-05 -0.0005705141514326675 9.851221592399623e-05 0.0009166923657960098 0.9981386128346866 -0.0043447592342292715 0.001818725274812209 0.0016966619573292028
0.01250521050438 0.0019942614726478473 0.003428729197511282 0.9979132168616025 -0.008690386431278988 0.00014359722359795423 0.00183339038640721 -0.0001338177501575711 -0.0011437421678842604
 0.9979132168616025 -0.008690386431278988 0.0019944753136069576 0.003428674667999802 -0.0001338133776190835 -0.0011437407640302226 0.00014225569004415212 0.0018336468079725228
 0.00014359722359795423 0.00183339038640721 -0.0001338133776190835 -0.0011437407640302226 0.0019942670633499395 0.0034288953732000077 0.997913218303859 -0.008690219036038657
 -0.0001338177501575711 -0.0011437421678842604 0.00014225569004415212 0.0018336468079725228 0.997913218303859 -0.008690219036038657 0.0019944725742434125 0.0034288432091592056
0.01875781575657 0.002186261197677195 0.005185424425159352 0.9976644303190446 -0.013047183646887891 0.00019874789181792115 0.0027510310686634245 -0.0001809005832735778 -0.001718809219920767
 0.9976644303190446 -0.013047183646887891 0.0021867417385819364 0.005185336848977184 -0.000180890840652139 -0.0017188072833053704 0.0001957342451678025 0.002751490144148771
 0.00019874789181792115 0.0027510310686634245 -0.000180890840652139 -0.0017188072833053704 0.002186273346702639 0.005185673285498095 0.9976644331357784 -0.013046932754301924
 -0.0001809005832735778 -0.001718809219920767 0.0001957342451678025 0.002751490144148771 0.9976644331357784 -0.013046932754301924 0.002186735139210732 0.005185589516949484
0.02501042100875 0.0023950648370087983 0.006964192731572838 0.9973919438817807 -0.017417316794999384 0.00026440805749912275 0.0036695292115336326 -0.000236393500620808 -0.0022954298660771795
 0.9973919438817807 -0.017417316794999384 0.002395918298285365 0.006964067934470888 -0.00023637630725244633 -0.0022954275364456115 0.00025905506323151134 0.0036702522783790496
 0.00026440805749912275 0.0036695292115336326 -0.00023637630725244633 -0.0022954275364456115 0.0023950860565311845 0.0069645240223423525 0.9973919485120774 -0.017416982454764755
 -0.000236393500620808 -0.0022954298660771795 0.00025905506323151134 0.0036702522783790496 0.9973919485120774 -0.017416982454764755 0.0023959061717074557 0.006964404707526822
0.03126302626094 0.002621049453563224 0.00876373443506673 0.997095433866271 -0.021801658423681133 0.0003406856266944725 0.004588818180164686 -0.0003004128808959251 -0.0028733991156694137
 0.997095433866271 -0.021801658423681133 0.0026223819302277087 0.008763568020694936 -0.0003003861793712595 -0.0028733965537769183 0.0003323252017663792 0.004589875342027455
 0.0003406856266944725 0.004588818180164686 -0.0003003861793712595 -0.0028733965537769183 0.0026210822542072775 0.008764147889495087 0.9970954407472286 -0.021801240645780186
 -0.0003004128808959251 -0.0028733991156694137 0.0003323252017663792 0.004589875342027455 0.9970954407472286 -0.021801240645780186 0.002622362597095602 0.008763988909391817
0.037515631513130004 0.002864583627525946 0.010583190602002874 0.9967745698713785 -0.02620062701134716 0.00042768774045495386 0.0055087963679493306 -0.00037307215711259486 -0.003452539576593492
 0.9967745698713785 -0.02620062701134716 0.002866501132690988 0.010582977955555762 -0.00037303391075990726 -0.0034525369642245123 0.0004156506927505321 0.005510266583330962
 0.00042768774045495386 0.0055087963679493306 -0.00037303391075990726 -0.0034525369642245123 0.0028646305230509866 0.010583685908065542 0.9967745794435988 -0.026200125798280672
 -0.00037307215711259486 -0.003452539576593492 0.0004156506927505321 0.005510266583330962 0.9967745794435988 -0.026200125798280672 0.0028664729065324274 0.010583482970554297
0.043768236765320004 0.003126030490704954 0.012421913112424974 0.9964290181139152 -0.030614416831864246 0.0005255201842645507 0.006429343288004739 -0.00045448211708327805 -0.00403268537750119
 0.9964290181139152 -0.030614416831864246 0.0031286389914371173 0.012421649402524897 -0.00045443030855794625 -0.0040326829174282715 0.0005091360981665273 0.006431314469542525
 0.0005255201842645507 0.006429343288004739 -0.00045443030855794625 -0.0040326829174282715 0.003126093993588708 0.012422489922713305 0.9964290308177473 -0.03061383216817879
 -0.00045448211708327805 -0.00403268537750119 0.0005091360981665273 0.006431314469542525 0.9964290308177473 -0.03061383216817879 0.0031286001736535373 0.012422238565214199
0.050020842017509996 0.0034057491177661475 0.014279369636396337 0.9960584431261752 -0.03504309290751451 0.000634287032005527 0.00735032622241158 -0.0005447510019306311 -0.004613675538397947
 0.9960584431261752 -0.03504309290751451 0.0034091545663994033 0.014279049815692517 -0.0005446836321411866 -0.0046136734543458175 0.0006128842313651544 0.007352895340375973
 0.000634287032005527 0.00735032622241158 -0.0005446836321411866 -0.0046136734543458175 0.0034058317420569964 0.014280027565779093 0.9960584594057317 -0.035042424761675205
 -0.0005447510019306311 -0.004613675538397947 0.0006128842313651544 0.007352895340375973 0.9960584594057317 -0.035042424761675205 0.003409103450154014 0.014279723156435156
0.055454545454549996 0.003663948339364331 0.015908409014755234 0.9957158192564632 -0.03890382390116994 0.0007377681471993498 0.008150932546895558 -0.0006304740872791653 -0.005119135567503055
 0.9957158192564632 -0.03890382390116994 0.003668132417245077 0.015908036164887448 -0.0006303915845018717 -0.00511913400813112 0.0007114574765589135 0.008154107155210482
 0.0007377681471993498 0.008150932546895558 -0.0006303915845018717 -0.00511913400813112 0.003664049622232261 0.015909137088000923 0.99571583900636 -0.0389030831773007
 -0.0006304740872791653 -0.005119135567503055 0.0007114574765589135 0.008154107155210482 0.99571583900636 -0.0389030831773007 0.0036680692190226133 0.015908782682187435
0.056273447269699996 0.003704095233724606 0.016155097011015165 0.9956625087759441 -0.039486637564064224 0.0007540903925891362 0.008271603487644877 -0.0006439845147441847 -0.005195350730990431
 0.9956625087759441 -0.039486637564064224 0.003708403597929815 0.016154715815682265 -0.0006438996022705962 -0.005195349267558388 0.0007269959508958652 0.008274876675141722
 0.0007540903925891362 0.008271603487644877 -0.0006438996022705962 -0.005195349267558388 0.003704199493008793 0.016155835626025142 0.9956625290780389 -0.03948588589849664
 -0.0006439845147441847 -0.005195350730990431 0.0007269959508958652 0.008274876675141722 0.9956625290780389 -0.03948588589849664 0.0037083384657144356 0.016155473364067193
0.06252605252188 0.004021421578785823 0.018048675586050045 0.9952408789481532 -0.04394497602178706 0.0008850302075417065 0.00919302624056461 -0.000752285784494138 -0.005777551504626498
 0.9952408789481532 -0.04394497602178706 0.0040267388693785554 0.01804822753444404 -0.0007521813649823227 -0.005777550927248792 0.0008515699891559395 0.009197118899192207
 0.0008850302075417065 0.00919302624056461 -0.0007521813649823227 -0.005777550927248792 0.004021549985959707 0.018049494416742105 0.9952409037232922 -0.04394414078056469
 -0.000752285784494138 -0.005777551504626498 0.0008515699891559395 0.009197118899192207 0.9952409037232922 -0.04394414078056469 0.0040266579941004126 0.01804906933167274
0.06877865777407 0.004358078087761544 0.01995971395981323 0.994793218046994 -0.04841799160210081 0.0010272040768376665 0.010114439564171896 -0.00086975530383418 -0.006360117238978729
 0.994793218046994 -0.04841799160210081 0.004364510386975044 0.019959193350083414 -0.000869629429738868 -0.006360117833846918 0.000986702800676317 0.010119476469442008
 0.0010272040768376665 0.010114439564171896 -0.000869629429738868 -0.006360117833846918 0.0043582331539773105 0.01996061248850755 0.9947932477491159 -0.048417072721724186
 -0.00086975530383418 -0.006360117238978729 0.000986702800676317 0.010119476469442008 0.9947932477491159 -0.048417072721724186 0.004364412030595326 0.01996011943853703
0.07503126302626001 0.004714411960569843 0.02188783929031099 0.9943191913922292 -0.05290553536557122 0.0011807071023122524 0.01103568315967946 -0.0009964908507742378 -0.006942885497169968
 0.9943191913922292 -0.05290553536557122 0.0047220654488208 0.021887240197135116 -0.0009963415910366636 -0.006942887571174436 0.0011324884219188367 0.011041798565720339
 0.0011807071023122524 0.01103568315967946 -0.0009963415910366636 -0.006942887571174436 0.004714596194685942 0.021888816957338565 0.9943192264797058 -0.05290453276869735
 -0.0009964908507742378 -0.006942885497169968 0.0011324884219188367 0.011041798565720339 0.9943192264797058 -0.05290453276869735 0.004721947862869887 0.021888250626793913
0.08128386827845 0.005090767661349823 0.023832690853430177 0.9938184655505091 -0.05740743251011184 0.0013456317412449484 0.011956591825425819 -0.001132587399893711 -0.007525691599003931
 0.9938184655505091 -0.05740743251011184 0.0050997486448192755 0.023832007123722736 -0.001132412839737674 -0.0075256954796731135 0.001289018338419669 0.011963929568637363
 0.0013456317412449484 0.011956591825425819 -0.001132412839737674 -0.0075256954796731135 0.005090983569087607 0.023833747053100134 0.9938185064864135 -0.05740634610923495
 -0.001132587399893711 -0.007525691599003931 0.001289018338419669 0.011963929568637363 0.9938185064864135 -0.05740634610923495 0.005099610070119772 0.023833101948833035
0.08753647353064001 0.005487486872537779 0.025793915600636052 0.9932907086244837 -0.06192348677730994 0.0015220676675512068 0.012876995791892436 -0.001278137026212314 -0.008108368345360162
 0.9932907086244837 -0.06192348677730994 0.005497901809971491 0.025793140848326852 -0.001277935267010327 -0.008108374380797449 0.0014563813562741698 0.012885709393289427
 0.0015220676675512068 0.012876995791892436 -0.001277935267010327 -0.008108374380797449 0.0054877369560255625 0.025795049679845125 0.9932907558771441 -0.061922316475697334
 -0.001278137026212314 -0.008108368345360162 0.0014563813562741698 0.012885709393289427 0.9932907558771441 -0.061922316475697334 0.005497740476780091 0.02579432012667749
0.09378907878283 0.005904908417379532 0.02777116498052633 0.9927355905148006 -0.06645348360301276 0.0017101016369001215 0.013796720977687273 -0.0014332288044302459 -0.008690745828993386
 0.9927355905148006 -0.06645348360301276 0.005916863947467002 0.027770292580313077 -0.001432997963587506 -0.008690754387811835 0.0016346634766057266 0.013806973743684762
 0.0017101016369001215 0.013796720977687273 -0.001432997963587506 -0.008690754387811835 0.005905195173748251 0.027772376241297397 0.9927356445581926 -0.06645222929179517
 -0.0014332288044302459 -0.008690745828993386 0.0016346634766057266 0.013806973743684762 0.9927356445581926 -0.06645222929179517 0.005916678074791324 0.0277715563765133
0.100041684035 0.00634336815790972 0.02976409262397402 0.992152783161888 -0.07099719241259453 0.0019098173558166687 0.014715589186447605 -0.001597948704131571 -0.00927265131192009
 0.992152783161888 -0.07099719241259453 0.006356971126430148 0.029763115703991847 -0.0015976869149989558 -0.009272662783177999 0.0018239477722710234 0.014727554307990874
 0.0019098173558166687 0.014715589186447605 -0.0015976869149989558 -0.009272662783177999 0.006343694078825466 0.029765380322784273 0.9921528444759574 -0.07099585397113088
 -0.001597948704131571 -0.00927265131192009 0.0018239477722710234 0.014727554307990874 0.9921528444759574 -0.07099585397113088 0.0063567589223150756 0.029764464089449855
0.1059090909091 0.006774246610490005 0.03164819489797472 0.9915804069725264 -0.07527323417764778 0.002107925574351979 0.015576907926668576 -0.0017613512925239284 -0.009818122180850982
 0.9915804069725264 -0.07527323417764778 0.006789492908736444 0.031647113420495566 -0.0017610587781688343 -0.009818136757132685 0.00201164868900057 0.015590646318034274
 0.002107925574351979 0.015576907926668576 -0.0017610587781688343 -0.009818136757132685 0.006774611543727325 0.03164955360465692 0.9915804755521286 -0.07527181667273464
 -0.0017613512925239284 -0.009818122180850982 0.00201164868900057 0.015590646318034274 0.9915804755521286 -0.07527181667273464 0.006789254355756278 0.03164854125121505
0.1062942892872 0.0068031988775463055 0.03177235260104285 0.9915419607753839 -0.07555436835327696 0.00212129535277184 0.015633418269681627 -0.0017723794826110565 -0.009853909144659737
 0.9915419607753839 -0.07555436835327696 0.006818556364730101 0.03177126403458014 -0.0017720848944456874 -0.009853923937800442 0.0020243142658582566 0.01564727891949738
 0.00212129535277184 0.015633418269681627 -0.0017720848944456874 -0.009853923937800442 0.006803566448440693 0.03177371594408291 0.9915420298470575 -0.07555294565358096
 -0.0017723794826110565 -0.009853909144659737 0.0020243142658582566 0.01564727891949738 0.9915420298470575 -0.07555294565358096 0.006818316026158617 0.03177269708339531
0.11254689453939999 0.007284730149887103 0.03379559809972949 0.9909028000530559 -0.08012475361345772 0.00234461285166866 0.01655002226375923 -0.001956600575225662 -0.010434340719175445
 0.9909028000530559 -0.08012475361345772 0.00730194949770413 0.033794390495723484 -0.0019562713531475593 -0.010434359263960476 0.002235839809373008 0.016565971691541406
 0.00234461285166866 0.01655002226375923 -0.0019562713531475593 -0.010434359263960476 0.007285141848433071 0.033797036248139845 0.9909028773759511 -0.08012324651467317
 -0.001956600575225662 -0.010434340719175445 0.002235839809373008 0.016565971691541406 0.9909028773759511 -0.08012324651467317 0.0073016792101654624 0.033795908290612985
0.11879949979160001 0.007788288197201051 0.03583348040157325 0.9902349803935625 -0.08470807845447965 0.0025798436463868417 0.01746521150928333 -0.002150687984747269 -0.011013764447394709
 0.9902349803935625 -0.08470807845447965 0.0078074770372634945 0.035832146094081356 -0.002150322309750931 -0.011013787193844294 0.002458597964339839 0.017483453134750616
 0.0025798436463868417 0.01746521150928333 -0.002150322309750931 -0.011013787193844294 0.007788746493142501 0.035834992467970235 0.9902350664690847 -0.0847064868060992
 -0.002150687984747269 -0.011013764447394709 0.002458597964339839 0.017483453134750616 0.9902350664690847 -0.0847064868060992 0.007807174974883622 0.035833748723541115
0.1250521050438 0.008314195742046894 0.03788564807932988 0.9895381841037809 -0.08930406202961223 0.002827057976793051 0.018378792764087527 -0.0023547141696242616 -0.011591995754277247
 0.9895381841037809 -0.08930406202961223 0.008335462023161246 0.03788417911574675 -0.002354310238531141 -0.011592023172610308 0.0026926588830931265 0.018399540267747438
 0.002827057976793051 0.018378792764087527 -0.002354310238531141 -0.011592023172610308 0.0083147030956805 0.03788723312821546 0.9895382794412876 -0.08930238567089466
 -0.0023547141696242616 -0.011591995754277247 0.0026926588830931265 0.018399540267747438 0.9895382794412876 -0.08930238567089466 0.0083351263484202 0.03788586667511025
0.131304710296 0.008862771851176558 0.03995174636316389 0.9888120966020327 -0.0939124130443283 0.0030863224059412236 0.01929056930273792 -0.002568747931416621 -0.012168847092606348
 0.9888120966020327 -0.0939124130443283 0.00888622386704014 0.039950134491381205 -0.002568303956916416 -0.012168879673131922 0.0029380891907319667 0.019314046714197907
 0.0030863224059412236 0.01929056930273792 -0.002568303956916416 -0.012168879673131922 0.008863330712617018 0.03995340341003884 0.9888122017193933 -0.09391065180500967
 -0.002568747931416621 -0.012168847092606348 0.0029380891907319667 0.019314046714197907 0.9888122017193933 -0.09391065180500967 0.008885852730900128 0.03995190708249469
0.1375573155481 0.00931231586074921 0.04176147811321434 0.9881784748060904 -0.09826276139406499 0.0033268878174480933 0.020173726255332654 -0.0027622202258422283 -0.01271740592256492
 0.9881784748060904 -0.09826276139406499 0.00933806874111393 0.04175974799188072 -0.0027617333788788143 -0.012717443725073725 0.0031644843840452587 0.020199910001501405
 0.0033268878174480933 0.020173726255332654 -0.0027617333788788143 -0.012717443725073725 0.00931292783843765 0.04176320662623112 0.9881785901518878 -0.09826091520054064
 -0.0027622202258422283 -0.01271740592256492 0.0031644843840452587 0.020199910001501405 0.9881785901518878 -0.09826091520054064 0.009337661260938143 0.04176160542815928
0.1438099208003 0.009777775832977367 0.0435609091118961 0.9875223339827429 -0.1026013149657739 0.0035771767347842457 0.021052768700493666 -0.0029634104643614964 -0.013262281121666284
 0.9875223339827429 -0.1026013149657739 0.009805939320452801 0.04355905424539888 -0.0029628787932733432 -0.013262324636001913 0.00339998464390782 0.021081864629808055
 0.0035771767347842457 0.021052768700493666 -0.0029628787932733432 -0.013262324636001913 0.009778443211723675 0.043562708119554684 0.9875224600725483 -0.10259938365734537
 -0.0029634104643614964 -0.013262281121666284 0.00339998464390782 0.021081864629808055 0.9875224600725483 -0.10259938365734537 0.00980549380548754 0.04356099659051429
0.1500625260525 0.010258975913191372 0.045349866593560655 0.9868438544727446 -0.10692794306015616 0.0038370963323813303 0.021927588766413812 -0.003172230151023205 -0.013803374403706522
 0.9868438544727446 -0.10692794306015616 0.010289660101902768 0.045347880051028404 -0.0031716517068787363 -0.013803424139763619 0.0036445011725564787 0.021959810252016522
 0.0038370963323813303 0.021927588766413812 -0.0031716517068787363 -0.013803424139763619 0.01025970095828923 0.04535173508703338 0.9868439918286023 -0.10692592647087637
 -0.003172230151023205 -0.013803374403706522 0.0036445011725564787 0.021959810252016522 0.9868439918286023 -0.10692592647087637 0.010289174861557598 0.04534990737046756
0.15631513130469998 0.010755738853693962 0.04712818296840439 0.9861432176907643 -0.11124251594341093 0.004106552596081458 0.022798080546381935 -0.0033885896227274005 -0.014340589693659686
 0.9861432176907643 -0.11124251594341093 0.01078905419894113 0.0471260573684512 -0.003387962459453569 -0.014340646181356421 0.0038979440490045326 0.022833648402887576
