! Created with skrf 1.8.0 (http://scikit-rf.org).
# GHz S RI R 50.0 
!freq ReS11 ImS11 ReS12 ImS12 ReS13 ImS13
! ReS14 ImS14
! ReS21 ImS21 ReS22 ImS22 ReS23 ImS23
! ReS24 ImS24
! ReS31 ImS31 ReS32 ImS32 ReS33 ImS33
! ReS34 ImS34
! ReS41 ImS41 ReS42 ImS42 ReS43 ImS43
! ReS44 ImS44
!
0.0 0.001711795891648 0.0 0.9982882040853 0.0 6.605937493129e-05 0.0 -6.605937425277e-05 8.089940123233185e-21
 0.9982882040853 0.0 0.001711795891647 0.0 -6.605937425293e-05 8.08994012325278e-21 6.605937492887e-05 0.0
 6.605937493129e-05 0.0 -6.605937425293e-05 8.08994012325278e-21 0.00171179589982 0.0 0.9982882040934 0.0
 -6.605937425277e-05 8.089940123233185e-21 6.605937492887e-05 0.0 0.9982882040934 0.0 0.001711795899812 0.0
0.005 0.0018422321932609336 0.001404601188900948 0.9981231187173226 -0.0035848728473075694 9.212398989893184e-05 0.0006998468570959508 -8.96112109694929e-05 -0.00044407748963598825
 0.9981231187173226 -0.0035848728473075694 0.0018422410442673817 0.0014045960681575243 -8.960979233988728e-05 -0.0004440764939470734 9.207485216979815e-05 0.0006998656419879911
 9.212398989893184e-05 0.0006998468570959508 -8.960979233988728e-05 -0.0004440764939470734 0.0018422320725493084 0.0014045340454254748 0.9981231183465452 -0.0035849399130637753
 -8.96112109694929e-05 -0.00044407748963598825 9.207485216979815e-05 0.0006998656419879911 0.9981231183465452 -0.0035849399130637753 0.0018422404309342817 0.001404529086841869
0.006252605252188 0.0018765995366021387 0.0017612328119441306 0.9980793265802513 -0.004481940230804363 9.964514993731977e-05 0.000875151131855004 -9.632395537558231e-05 -0.0005556552130183481
 0.9980793265802513 -0.004481940230804363 0.0018766133716327281 0.0017612263003068587 -9.632174712876213e-05 -0.0005556539877068896 9.956837816719522e-05 0.0008751755257242732
 9.964514993731977e-05 0.000875151131855004 -9.632174712876213e-05 -0.0005556539877068896 0.0018765994222454086 0.0017611489009517144 0.9980793260753245 -0.004482024055897694
 -9.632395537558231e-05 -0.0005556552130183481 9.956837816719522e-05 0.0008751755257242732 0.9980793260753245 -0.004482024055897694 0.0018766124884037267 0.001761142576147917
0.01250521050438 0.00205843535259281 0.003558947746156656 0.9978460013446692 -0.008964474090440806 0.0001431717580103549 0.0017506786343941207 -0.0001347498512422156 -0.0011138752726824156
 0.9978460013446692 -0.008964474090440806 0.0020584905861477897 0.0035589335938406223 -0.000134741139944969 -0.0011138730368028718 0.00014286564343688667 0.0017507373455716549
 0.0001431717580103549 0.0017506786343941207 -0.000134741139944969 -0.0011138730368028718 0.0020584354358857563 0.00355878030460061 0.9978459998745257 -0.008964641494740121
 -0.0001347498512422156 -0.0011138752726824156 0.00014286564343688667 0.0017507373455716549 0.9978459998745257 -0.008964641494740121 0.0020584876180162097 0.0035587663674096935
0.01875781575657 0.0022577332929396418 0.0053818473489245545 0.9975879148671124 -0.013458467568734622 0.0001967455679354357 0.0026271111276488044 -0.00018146096633823145 -0.0016738715052781808
 0.9975879148671124 -0.013458467568734622 0.0022578573859568193 0.005381824315761613 -0.0001814415279235809 -0.0016738685229060256 0.00019605799736177913 0.0026272161929137157
 0.0001967455679354357 0.0026271111276488044 -0.0001814415279235809 -0.0016738685229060256 0.0022577338904305544 0.005381596622496805 0.9975879119844581 -0.013458718496493424
 -0.00018146096633823145 -0.0016738715052781808 0.00019605799736177913 0.0026272161929137157 0.9975879119844581 -0.013458718496493424 0.002257851164308889 0.005381573674425179
0.02501042100875 0.002474908636568439 0.007227349802422536 0.9973047403802352 -0.017966056688987916 0.00026047407046809876 0.003504450685613517 -0.00023657670760489355 -0.0022353742373564167
 0.9973047403802352 -0.017966056688987916 0.0024751289839714426 0.007227316546307163 -0.0002365423650397506 -0.0022353708258866364 0.00025925293428988246 0.0035046161864919494
 0.00026047407046809876 0.003504450685613517 -0.0002365423650397506 -0.0022353708258866364 0.002474910051703533 0.007227016060018353 0.9973047356293813 -0.017966391117782157
 -0.00023657670760489355 -0.0022353742373564167 0.00025925293428988246 0.0035046161864919494 0.9973047356293813 -0.017966391117782157 0.0024751183511611415 0.007226982598980279
0.03126302626094 0.0027103594683087345 0.009094105716353456 0.9969961356876239 -0.022488130699029333 0.00033446471860237035 0.004382621472101198 -0.0003002127471787388 -0.0027981841628776554
 0.9969961356876239 -0.022488130699029333 0.002710703414431225 0.009094060794573436 -0.00030015936271209656 -0.0027981806935509015 0.000332557775920474 0.0043828635456900945
 0.00033446471860237035 0.004382621472101198 -0.00030015936271209656 -0.0027981806935509015 0.0027103620025085906 0.009093689244736814 0.9969961286130824 -0.022488548645470043
 -0.0003002127471787388 -0.0027981841628776554 0.000332557775920474 0.0043828635456900945 0.9969961286130824 -0.022488548645470043 0.002710687232906374 0.009093643666200179
0.037515631513130004 0.0029644748892494518 0.01098121952215885 0.9966617517054105 -0.027025110615661905 0.00041882389624727656 0.005261516341444751 -0.0003724817859129923 -0.00336212576334464
 0.9966617517054105 -0.027025110615661905 0.0029649697376065167 0.01098116139209022 -0.0003724052572729987 -0.0033621226614711027 0.00041607871863990226 0.005261853199370302
 0.00041882389624727656 0.005261516341444751 -0.0003724052572729987 -0.0033621226614711027 0.002964478837981862 0.010980720637389559 0.9966617418459327 -0.02702561212441586
 -0.0003724817859129923 -0.00336212576334464 0.00041607871863990226 0.005261853199370302 0.9966617418459327 -0.02702561212441586 0.002964946884625009 0.010980661234617379
0.043768236765320004 0.0032376381547880952 0.012888012549162694 0.9963012359353836 -0.031577186076397465 0.0005136564117601859 0.006141011025170172 -0.0004534938137122143 -0.003927033143964663
 0.9963012359353836 -0.031577186076397465 0.0032383111764248914 0.012887939568232922 -0.00045339007195562475 -0.003927030889040194 0.0005099203613137873 0.006141462975092713
 0.0005136564117601859 0.006141011025170172 -0.00045339007195562475 -0.003927030889040194 0.003237643813496238 0.012887431604646655 0.9963012228277964 -0.031577771212419635
 -0.0004534938137122143 -0.003927033143964663 0.0005099203613137873 0.006141462975092713 0.9963012228277964 -0.031577771212419635 0.003238280549044234 0.01288735656853909
0.050020842017509996 0.003530228134615519 0.014813925104772146 0.9959142342633451 -0.03614441318577256 0.0006190651858729182 0.007020969989970352 -0.0005433561819951526 -0.004492744202737238
 0.9959142342633451 -0.03614441318577256 0.003531106574862119 0.014813835530384971 -0.0005432211902710648 -0.004492743328517407 0.0006141854107504776 0.007021559457996438
 0.0006190651858729182 0.007020969989970352 -0.0005432211902710648 -0.004492743328517407 0.003530235795930358 0.014813262487590519 0.9959142174375597 -0.03614508203829183
 -0.0005433561819951526 -0.004492744202737238 0.0006141854107504776 0.007021559457996438 0.9959142174375597 -0.03614508203829183 0.0035310670861358425 0.014813169906458555
0.055454545454549996 0.0038005660500889976 0.016502748011819435 0.9955561328419371 -0.04012575567986215 0.0007193361625265717 0.0077859464619065575 -0.0006287182503881918 -0.0049848917737746615
 0.9955561328419371 -0.04012575567986215 0.0038016451165545284 0.016502642523965345 -0.0006285528474213558 -0.004984892575094228 0.0007133381607753343 0.00778667531244777
 0.0007193361625265717 0.0077859464619065575 -0.0006285528474213558 -0.004984892575094228 0.003800575689536006 0.016502014764204 0.9955561123988677 -0.0401264973709708
 -0.0006287182503881918 -0.0049848917737746615 0.0007133381607753343 0.00778667531244777 0.9955561123988677 -0.0401264973709708 0.00380159705864526 0.016501905303272224
0.056273447269699996 0.0038426200341034715 0.016758468412548966 0.9955003920243394 -0.04072676250715895 0.0007351510182938039 0.007901249331271502 -0.0006421735984324593 -0.005059097769416132
 0.9955003920243394 -0.04072676250715895 0.0038437311188310665 0.016758360401619116 -0.0006420033512194342 -0.005059098863978733 0.0007289744599714988 0.00790200088465708
 0.0007351510182938039 0.007901249331271502 -0.0006420033512194342 -0.005059098863978733 0.003842629991087669 0.016757724549112653 0.9955003710048675 -0.040727515184245236
 -0.0006421735984324593 -0.005059097769416132 0.0007289744599714988 0.00790200088465708 0.9955003710048675 -0.040727515184245236 0.0038436817004310576 0.016757612408095972
0.06252605252188 0.004175185772495024 0.018721198201572135 0.9950593547308644 -0.04532414540861598 0.0008620123990868267 0.008781698360218195 -0.0007500480774154922 -0.00562593205730151
 0.9950593547308644 -0.04532414540861598 0.004176556713940487 0.01872106980990631 -0.0007498386001319442 -0.0056259357630934 0.0008543858061091483 0.008782638730089528
 0.0008620123990868267 0.008781698360218195 -0.0007498386001319442 -0.0056259357630934 0.0041751983194139326 0.018720373554807792 0.9950593290354807 -0.04532498204018463
 -0.0007500480774154922 -0.00562593205730151 0.0008543858061091483 0.008782638730089528 0.9950593290354807 -0.04532498204018463 0.004176496316178378 0.018720239735156817
0.06877865777407 0.004528294160124638 0.020701698956088754 0.9945907686035488 -0.04993642975497429 0.0009997453397845738 0.009662160570199183 -0.0008670788692315106 -0.00619308374225622
 0.9945907686035488 -0.04993642975497429 0.004529952162847465 0.02070154813752898 -0.0008668262181255701 -0.006193090756112827 0.0009905152873942707 0.009663318674098292
 0.0009997453397845738 0.009662160570199183 -0.0008668262181255701 -0.006193090756112827 0.004528309594031241 0.020700794026923663 0.9945907377426081 -0.04993735049135706
 -0.0008670788692315106 -0.00619308374225622 0.0009905152873942707 0.009663318674098292 0.9945907377426081 -0.04993735049135706 0.004529879755046251 0.020700636305103957
0.07503126302626001 0.004902310964288946 0.022699573939377445 0.9940942809969647 -0.054563449833239575 0.0011484432211501675 0.01054247425141267 -0.0009933623721121798 -0.006760387400804661
 0.9940942809969647 -0.054563449833239575 0.0049042832305210525 0.02269939854470404 -0.0009930626342092709 -0.006760398473986421 0.001137456134475428 0.010543881215558755
 0.0011484432211501675 0.01054247425141267 -0.0009930626342092709 -0.006760398473986421 0.00490232958591747 0.02269858926705937 0.9940942444725809 -0.05456445484507504
 -0.0009933623721121798 -0.006760387400804661 0.001137456134475428 0.010543881215558755 0.9940942444725809 -0.05456445484507504 0.004904197801735715 0.02269840531356515
0.08128386827845 0.005297598900821679 0.024714438556840194 0.993569540754823 -0.059205012946905354 0.001308196647287716 0.01142247292047909 -0.0011289920365519237 -0.007327675140635083
 0.993569540754823 -0.059205012946905354 0.005299912635925163 0.024714236332540922 -0.00112864132981836 -0.007327691078827274 0.0012952988276424208 0.011424162101672892
 0.001308196647287716 0.01142247292047909 -0.00112864132981836 -0.007327691078827274 0.005297621015751621 0.024713374720139424 0.9935694980596195 -0.05920610242380399
 -0.0011289920365519237 -0.007327675140635083 0.0012952988276424208 0.011424162101672892 0.9935694980596195 -0.05920610242380399 0.005299813195183323 0.024713162098236215
0.08753647353064001 0.005714517576314788 0.02674591577842736 0.9930161985209665 -0.06386090395942372 0.001479093306623127 0.012301985622237721 -0.001274058261697075 -0.007894776366634429
 0.9930161985209665 -0.06386090395942372 0.005717199994416004 0.0267456843650728 -0.0012736527352427058 -0.007894798029949388 0.001464130960632524 0.012303992629278261
 0.001479093306623127 0.012301985622237721 -0.0012736527352427058 -0.007894798029949388 0.00571454349644583 0.026744773395549624 0.9930161491378556 -0.06386207811023835
 -0.001274058261697075 -0.007894776366634429 0.001464130960632524 0.012303992629278261 0.9930161491378556 -0.06386207811023835 0.005717085571667037 0.02674452955960534
0.09378907878283 0.0061534233990180745 0.02879363286666337 0.992433907023368 -0.06853088854136305 0.0016612178362186369 0.013180837164948353 -0.0014286482877405883 -0.008461517621342838
 0.992433907023368 -0.06853088854136305 0.006156501728191317 0.028793369797242254 -0.0014281841221917484 -0.008461545924296885 0.0016440371068571018 0.013183199879613776
 0.0016612178362186369 0.013180837164948353 -0.0014281841221917484 -0.008461545924296885 0.0061534534439953575 0.0287924125954074 0.9924338504244692 -0.0685321475937181
 -0.0014286482877405883 -0.008461517621342838 0.0016440371068571018 0.013183199879613776 0.9924338504244692 -0.0685321475937181 0.006156371374600055 0.02879213488930766
0.100041684035 0.006614669463543889 0.030857218992235747 0.9918223213357649 -0.07321471553902767 0.001854651689017654 0.0140588482991929 -0.001592846084796067 -0.00902772248985795
 0.9918223213357649 -0.07321471553902767 0.006618170951094258 0.03085692169015641 -0.001592319492602793 -0.00902775840135329 0.0018350986883977816 0.014061606896683712
 0.001854651689017654 0.0140588482991929 -0.001592319492602793 -0.00902775840135329 0.006614703961827625 0.030855921528216444 0.9918222569815625 -0.07321605974112264
 -0.001592846084796067 -0.00902772248985795 0.0018350986883977816 0.014061606896683712 0.9918222569815625 -0.07321605974112264 0.006618023739972783 0.03085560718326649
0.1059090909091 0.007068129689839059 0.03280777818898236 0.9912214653112441 -0.07762234299274895 0.002046524196983279 0.014881841184485123 -0.0017557382955067636 -0.009558398066494481
 0.9912214653112441 -0.07762234299274895 0.007072053069860803 0.03280744632018863 -0.0017551497065361355 -0.009558442047412045 0.0020246051151191803 0.014885009875290614
 0.002046524196983279 0.014881841184485123 -0.0017551497065361355 -0.009558442047412045 0.007068168674776743 0.032806408957019854 0.9912213931775891 -0.07762376733971534
 -0.0017557382955067636 -0.009558398066494481 0.0020246051151191803 0.014885009875290614 0.9912213931775891 -0.07762376733971534 0.007071889216943915 0.03280605761007856
0.1062942892872 0.007098605418901774 0.032936303439458456 0.9911810991266811 -0.07791211876326368 0.0020594730025150195 0.014935835875140524 -0.0017667322395749578 -0.009593211534617679
 0.9911810991266811 -0.07791211876326368 0.007102557337015484 0.03293596921627444 -0.0017661394654505563 -0.00959325607789757 0.0020373938466993176 0.014939032843893713
 0.0020594730025150195 0.014935835875140524 -0.0017661394654505563 -0.00959325607789757 0.007098644708989547 0.03293492951865226 0.9911810264649978 -0.07791354838104939
 -0.0017667322395749578 -0.009593211534617679 0.0020373938466993176 0.014939032843893713 0.9911810264649978 -0.07791354838104939 0.007102392364181494 0.03293457565137962
0.11254689453939999 0.007605577322622271 0.03503051424863215 0.9905099008982563 -0.08262281835129674 0.0022757564700289687 0.015811612970113787 -0.0019503838396587813 -0.010157802268332232
 0.9905099008982563 -0.08262281835129674 0.00761000697350373 0.03503014030158181 -0.0019497211611163507 -0.010157856520901534 0.002250997315018462 0.01581529313099346
 0.0022757564700289687 0.015811612970113787 -0.0019497211611163507 -0.010157856520901534 0.007605621754801415 0.03502906464602252 0.9905098193637683 -0.08262433366952021
 -0.0019503838396587813 -0.010157802268332232 0.002250997315018462 0.01581529313099346 0.9905098193637683 -0.08262433366952021 0.007609823358112922 0.03502866825581628
0.11879949979160001 0.008135927484180709 0.03713947716439467 0.9898083902170558 -0.0873465218326319 0.0025035732123252167 0.016685989006855712 -0.002143874357556845 -0.010721309144640085
 0.9898083902170558 -0.0873465218326319 0.008140862205237522 0.03713906057371559 -0.0021431380853006417 -0.010721374238242676 0.0024759802913227715 0.016690199531777385
 0.0025035732123252167 0.016685989006855712 -0.0021431380853006417 -0.010721374238242676 0.008135977421484388 0.0371379526928038 0.9898082992302832 -0.08734812315577344
 -0.002143874357556845 -0.010721309144640085 0.0024759802913227715 0.016690199531777385 0.9898082992302832 -0.08734812315577344 0.008140659090394495 0.03713751065918428
0.1250521050438 0.008689994300048449 0.03926281481135385 0.9890762339406876 -0.09208292497867236 0.0027429906508777985 0.017558769863631432 -0.0023472735330584875 -0.011283543565801642
 0.9890762339406876 -0.09208292497867236 0.008695461469536977 0.039262352537173445 -0.002346460011583339 -0.011283620686287152 0.002712410313257303 0.017563560293381398
 0.0027429906508777985 0.017558769863631432 -0.002346460011583339 -0.011283620686287152 0.008690050119633516 0.03926121632286117 0.9890761329068223 -0.09208461262904183
 -0.0023472735330584875 -0.011283543565801642 0.002712410313257303 0.017563560293381398 0.9890761329068223 -0.09208461262904183 0.008695238023039533 0.039260725402559905
0.131304710296 0.009268112082254417 0.04140014604330149 0.9883131024390226 -0.09683171248904077 0.0029940723823308436 0.018429757974609207 -0.0025606472555995026 -0.01184431390876525
 0.9883131024390226 -0.09683171248904077 0.009274139124209994 0.04139963492250628 -0.0025597528637758813 -0.011844404295992835 0.0029603511332361204 0.018435180235995306
 0.0029940723823308436 0.018429757974609207 -0.0025597528637758813 -0.011844404295992835 0.009268174177049063 0.04139847443002643 0.9883129907477236 -0.09683348680562015
 -0.0025606472555995026 -0.01184431390876525 0.0029603511332361204 0.018435180235995306 0.9883129907477236 -0.09683348680562015 0.009273894539371406 0.04139793125383026
0.1375573155481 0.00974348411440578 0.043274286906933856 0.9876458559459964 -0.10131560591760734 0.003226719919225137 0.019272145081523986 -0.002753941305387079 -0.012376808048106492
 0.9876458559459964 -0.10131560591760734 0.009750101380545809 0.04327373420796948 -0.0027529609110351076 -0.012376911916195754 0.003189778901649164 0.019278194749457956
 0.003226719919225137 0.019272145081523986 -0.0027529609110351076 -0.012376911916195754 0.009743553887092254 0.04327254231641131 0.9876457330989766 -0.10131746709243328
 -0.002753941305387079 -0.012376808048106492 0.003189778901649164 0.019278194749457956 0.9876457330989766 -0.10131746709243328 0.009749833643396249 0.04327195520151335
0.1438099208003 0.010235762599755461 0.045137592166966244 0.9869547999737905 -0.10578712362620521 0.0034687235797569017 0.02011043648149843 -0.002954914254567204 -0.01290554892033306
 0.9869547999737905 -0.10578712362620521 0.010242998041426872 0.04513699531869961 -0.002953844013525221 -0.012905667491515782 0.0034284229823735553 0.02011716140547144
 0.0034687235797569017 0.02011043648149843 -0.002953844013525221 -0.012905667491515782 0.010235840648029498 0.04513577545309044 0.9869546653609234 -0.10578907198965967
 -0.002954914254567204 -0.01290554892033306 0.0034284229823735553 0.02011716140547144 0.9869546653609234 -0.10578907198965967 0.010242706162246018 0.045135141760017074
0.1500625260525 0.010744759237143676 0.04698987662378016 0.9862401275312566 -0.11024612398744334 0.003719989487990141 0.02094452496212651 -0.0031634750597719654 -0.01343043652096907
 0.9862401275312566 -0.11024612398744334 0.010752640869667008 0.04698923290679481 -0.003162311142549466 -0.013430571066010807 0.0036761905071853065 0.02095197473018831
 0.003719989487990141 0.02094452496212651 -0.003162311142549466 -0.013430571066010807 0.010744846185779982 0.04698798867054849 0.9862399805289245 -0.11024815988147613
 -0.0031634750597719654 -0.01343043652096907 0.0036761905071853065 0.02095197473018831 0.9862399805289245 -0.11024815988147613 0.010752323868848671 0.04698730561457358
0.15631513130469998 0.011270284212119763 0.048830960593654306 0.9855020328019766 -0.11469246654713694 0.0039804225467584275 0.02177430536345005 -0.0033795314608100406 -0.013951373138884858
 0.9855020328019766 -0.11469246654713694 0.01127884011656948 0.04883026713682507 -0.0033782700529262494 -0.0139515249767644 0.003932987405107337 0.021782531280801883
