! Created with skrf 1.8.0 (http://scikit-rf.org).
# GHz S RI R 50.0 
!freq ReS11 ImS11 ReS12 ImS12 ReS13 ImS13
! ReS14 ImS14
! ReS21 ImS21 ReS22 ImS22 ReS23 ImS23
! ReS24 ImS24
! ReS31 ImS31 ReS32 ImS32 ReS33 ImS33
! ReS34 ImS34
! ReS41 ImS41 ReS42 ImS42 ReS43 ImS43
! ReS44 ImS44
!
0.0 0.001915730359112 0.0 0.9980842696409 0.0 7.453433852564e-05 0.0 -7.453433825861e-05 9.127823877497284e-21
 0.9980842696409 0.0 0.001915730359083 0.0 -7.453433825852e-05 9.127823877486264e-21 7.453433852431e-05 0.0
 7.453433852564e-05 0.0 -7.453433825852e-05 9.127823877486264e-21 0.001915730352001 0.0 0.9980842696338 0.0
 -7.453433825861e-05 9.127823877497284e-21 7.453433852431e-05 0.0 0.9980842696338 0.0 0.001915730351974 0.0
0.005 0.002062500161788244 0.0015655310565565177 0.9978983657683258 -0.0040116178669604595 0.00010523670750602656 0.0008237483482646323 -0.00010210921225957261 -0.0005163578491943573
 0.9978983657683258 -0.0040116178669604595 0.002062494187043014 0.001565534630694942 -0.00010210938172132399 -0.0005163580581548792 0.00010526044486190161 0.0008237391253082011
 0.00010523670750602656 0.0008237483482646323 -0.00010210938172132399 -0.0005163580581548792 0.0020625000636169586 0.0015655984785543275 0.9978983661563794 -0.004011550789744537
 -0.00010210921225957261 -0.0005163578491943573 0.00010526044486190161 0.0008237391253082011 0.9978983661563794 -0.004011550789744537 0.0020624950581437105 0.001565601362512774
0.006252605252188 0.002101392773343571 0.0019630185390676 0.9978487334403822 -0.005015439090434621 0.00011421639473097897 0.0010300579364190007 -0.00011007775981176369 -0.0006460910361554425
 0.9978487334403822 -0.005015439090434621 0.002101383433499847 0.001963023125356945 -0.00011007802287549215 -0.0006460912954481283 0.00011425347934820775 0.001030045975442646
 0.00011421639473097897 0.0010300579364190007 -0.00011007802287549215 -0.0006460912954481283 0.002101392546061777 0.001963102789999564 0.9978487339737433 -0.005015355277843107
 -0.00011007775981176369 -0.0006460910361554425 0.00011425347934820775 0.001030045975442646 0.9978487339737433 -0.005015355277843107 0.0021013847225120888 0.0019631064976422985
0.01250521050438 0.002308455268652081 0.003966572000500753 0.9975824825401288 -0.010031192353086221 0.00016681230842834223 0.002060276623879626 -0.00015627222152456036 -0.0012950473370397736
 0.9975824825401288 -0.010031192353086221 0.002308417969633388 0.00396658239579176 -0.0001562732506470894 -0.001295047835451012 0.00016696011507000597 0.0020602479463470644
 0.00016681230842834223 0.002060276623879626 -0.0001562732506470894 -0.001295047835451012 0.0023084537925997127 0.003966740346704165 0.9975824841113258 -0.01003102496047135
 -0.00015627222152456036 -0.0012950473370397736 0.00016696011507000597 0.0020602479463470644 0.9975824841113258 -0.01003102496047135 0.002308422565897792 0.003966748810567217
0.01875781575657 0.0025374508523549814 0.005997949881666197 0.9972851289828008 -0.015059365885601658 0.00023245625102199868 0.0030912815453610193 -0.00021327600700500647 -0.0019458666373537992
 0.9972851289828008 -0.015059365885601658 0.0025373670291477125 0.005997967445084467 -0.00021327829141989363 -0.0019458673531397117 0.0002327880906991822 0.0030912302658400673
 0.00023245625102199868 0.0030912815453610193 -0.00021327829141989363 -0.0019458673531397117 0.0025374470973346533 0.005998202296345088 0.9972851320953282 -0.01505911502830345
 -0.00021327600700500647 -0.0019458666373537992 0.0002327880906991822 0.0030912302658400673 0.9972851320953282 -0.01505911502830345 0.002537376954153533 0.005998216656811382
0.02501042100875 0.0027888915260085895 0.008054199638782695 0.9969562675676916 -0.020102287851293258 0.00031128320221984366 0.004123046533815842 -0.0002812402525869034 -0.002598187424157962
 0.9969562675676916 -0.020102287851293258 0.0027887426478792818 0.00805422586287186 -0.0002812442724120875 -0.0025981883333590712 0.00031187227886124924 0.004122965678858594
 0.00031128320221984366 0.004123046533815842 -0.0002812442724120875 -0.0025981883333590712 0.002788884446378489 0.008054536169001932 0.996956272718207 -0.02010195358190733
 -0.0002812402525869034 -0.002598187424157962 0.00031187227886124924 0.004122965678858594 0.996956272718207 -0.02010195358190733 0.002788759920570317 0.008054557655858687
0.03126302626094 0.003063267651491548 0.010133746842744927 0.9965954757844312 -0.02516088833728739 0.00040342726701349577 0.0051554483926917905 -0.00036031034430275885 -0.003251734436091759
 0.9965954757844312 -0.02516088833728739 0.0030630352144253034 0.010133783353886922 -0.0003603165721387583 -0.0032517355125106736 0.0004043467353911538 0.0051553298987770625
 0.00040342726701349577 0.0051554483926917905 -0.0003603165721387583 -0.0032517355125106736 0.003063256197217301 0.01013416754578413 0.9965954834743218 -0.02516047070932198
 -0.00036031034430275885 -0.003251734436091759 0.0004043467353911538 0.0051553298987770625 0.9965954834743218 -0.02516047070932198 0.003063061862600126 0.010134197478134117
0.037515631513130004 0.003361057622258652 0.012235523278143904 0.996202324008333 -0.030235571217365493 0.0005090203206049005 0.006188324541982583 -0.0004506269301937607 -0.003906261095974581
 0.996202324008333 -0.030235571217365493 0.0033607231448237853 0.012235571837448379 -0.0004506358320792605 -0.003906262311230097 0.0005103433037670983 0.006188159249104404
 0.0005090203206049005 0.006188324541982583 -0.0004506358320792605 -0.003906262311230097 0.0033610407321853467 0.012236028249246987 0.9962023347368956 -0.03023507025753167
 -0.0004506269301937607 -0.003906261095974581 0.0005103433037670983 0.006188159249104404 0.9962023347368956 -0.03023507025753167 0.0033607611975105442 0.012236068035811473
0.043768236765320004 0.0036827315525263904 0.014358701653972556 0.9957763797123202 -0.03532647939132663 0.000628191332751274 0.007221490575768348 -0.0005523262396587734 -0.004561532031673741
 0.9957763797123202 -0.03532647939132663 0.0036822765729334662 0.014358764158277373 -0.0005523382756990696 -0.004561533355272491 0.0006299909224582686 0.0072212682198174874
 0.000628191332751274 0.007221490575768348 -0.0005523382756990696 -0.004561533355272491 0.0036827081568630454 0.01435929100492809 0.9957763939791445 -0.03532589512106435
 -0.0005523262396587734 -0.004561532031673741 0.0006299909224582686 0.0072212682198174874 0.9957763939791445 -0.03532589512106435 0.003682328062235553 0.014359342144439015
0.050020842017509996 0.0040287529492636235 0.01650258596965962 0.9953172096674129 -0.040433604370900454 0.0007610659342715482 0.008254747536146415 -0.0006655401544327439 -0.005217315887511776
 0.9953172096674129 -0.040433604370900454 0.004028159023533322 0.016502664452755778 -0.0006655557793220563 -0.005217317286911068 0.000763415182026931 0.008254456741161586
 0.0007610659342715482 0.008254747536146415 -0.0006655557793220563 -0.005217317286911068 0.004028721971319488 0.01650325982532301 0.9953172279740117 -0.04043293681001254
 -0.0006655401544327439 -0.005217315887511776 0.000763415182026931 0.008254456741161586 0.9953172279740117 -0.04043293681001254 0.004028225984876906 0.01650332390707118
0.055454545454549996 0.004349584772641244 0.018382020435601706 0.9948908576155451 -0.04488494020213024 0.0008877617972979342 0.009152590189749637 -0.0007733768787212211 -0.005787449227723864
 0.9948908576155451 -0.04488494020213024 0.004348855132308747 0.01838211456372289 -0.0007733959877759507 -0.005787450665016563 0.0008906479990615754 0.009152229811116354
 0.0008877617972979342 0.009152590189749637 -0.0007733959877759507 -0.005787450665016563 0.00434954632445869 0.018382767848210694 0.9948908798402897 -0.044884200265723206
 -0.0007733768787212211 -0.005787449227723864 0.0008906479990615754 0.009152229811116354 0.9948908798402897 -0.044884200265723206 0.004348937193001282 0.01838284453871451
0.056273447269699996 0.004399579527911743 0.0186665577069406 0.9948243812925233 -0.0455568400476454 0.0009077660854951565 0.009287885507238412 -0.0007903961736169651 -0.0058733818255438984
 0.9948243812925233 -0.0455568400476454 0.004398828228245413 0.018666654340769032 -0.0007904158370145746 -0.005873383266202732 0.0009107379878604546 0.009287513777636461
 0.0009077660854951565 0.009287885507238412 -0.0007904158370145746 -0.005873383266202732 0.004399539882802555 0.018667316214808705 0.9948244041409532 -0.04555608920471375
 -0.0007903961736169651 -0.0058733818255438984 0.0009107379878604546 0.009287513777636461 0.9948244041409532 -0.04555608920471375 0.004398912698162626 0.018667394919340392
0.06252605252188 0.004795663603168119 0.02085004628569348 0.9942974635854894 -0.050696012207542065 0.0010684097994636637 0.010320685616668088 -0.0009270173210379941 -0.006529497630489306
 0.9942974635854894 -0.050696012207542065 0.0047947365161525 0.020850163381916562 -0.000927041467835225 -0.006529499075936936 0.0010720772795737795 0.010320219329921254
 0.0010684097994636637 0.010320685616668088 -0.000927041467835225 -0.006529499075936936 0.004795614198634855 0.02085088960620659 0.9942974914791177 -0.05069517808983509
 -0.0009270173210379941 -0.006529497630489306 0.0010720772795737795 0.010320219329921254 0.9942974914791177 -0.05069517808983509 0.004794840532507411 0.020850984706205822
0.06877865777407 0.005217452245391272 0.02305251144491831 0.9937360278263956 -0.05585089613346778 0.0012431108941857144 0.011352921254618153 -0.001075522021480068 -0.007185428609424484
 0.9937360278263956 -0.05585089613346778 0.005216330971461032 0.02305265145628606 -0.0010755510922028449 -0.007185430021295652 0.0012475467803429216 0.0113523456542401
 0.0012431108941857144 0.011352921254618153 -0.0010755510922028449 -0.007185430021295652 0.00521739198238047 0.023053439759310863 0.9937360612698949 -0.05584997873912658
 -0.001075522021480068 -0.007185428609424484 0.0012475467803429216 0.0113523456542401 0.9937360612698949 -0.05584997873912658 0.005216456571976166 0.02305355312052159
0.07503126302626001 0.005665387299902653 0.02527343210504105 0.9931396481484449 -0.06102122773979451 0.0014319787636923411 0.012384358871179984 -0.0012360239567451472 -0.007840936925791311
 0.9931396481484449 -0.06102122773979451 0.005664053451895505 0.025273597627212784 -0.0012360583877324984 -0.007840938263878374 0.0014372557658878765 0.012383658060297235
 0.0014319787636923411 0.012384358871179984 -0.0012360583877324984 -0.007840938263878374 0.005665315073436147 0.025274445607791334 0.9931396876490395 -0.06102022706549257
 -0.0012360239567451472 -0.007840936925791311 0.0014372557658878765 0.012383658060297235 0.9931396876490395 -0.06102022706549257 0.005664202674427261 0.02527457919018918
0.08128386827845 0.0061399053196572895 0.027512298965562457 0.992507902028898 -0.06620671098673177 0.0016351181595615633 0.013414758535671893 -0.001408631910232595 -0.00849578118489833
 0.992507902028898 -0.06620671098673177 0.00613834052224798 0.027512492738809978 -0.0014086721339508254 -0.008495782407186743 0.0016413088443346226 0.013413915471049562
 0.0016351181595615633 0.013414758535671893 -0.0014086721339508254 -0.008495782407186743 0.006139820018766518 0.027513397869093008 0.9925079480956155 -0.06620562702315787
 -0.001408631910232595 -0.00849578118489833 0.0016413088443346226 0.013413915471049562 0.9925079480956155 -0.06620562702315787 0.006138515402922425 0.027513553728088266
0.08753647353064001 0.00664143743802622 0.029768609407301447 0.9918403707238559 -0.07140702300558793 0.0018526289806385494 0.014443874352351555 -0.0015934496031334944 -0.009149716176408213
 0.9918403707238559 -0.07140702300558793 0.006639623326902933 0.029768834318424302 -0.0015934960483630692 -0.00914971723909837 0.001859805744525117 0.014442870839137763
 0.0018526289806385494 0.014443874352351555 -0.0015934960483630692 -0.00914971723909837 0.006641337945949222 0.02976979394156231 0.9918404238677412 -0.07140585573784893
 -0.0015934496031334944 -0.009149716176408213 0.001859805744525117 0.014442870839137763 0.9918404238677412 -0.07140585573784893 0.006639825899438923 0.029769974229551497
0.09378907878283 0.007170409201350578 0.03204186386983205 0.9911366396680792 -0.07662181776476636 0.002084606068578504 0.015471454785320863 -0.0017905755250444788 -0.009802492721765744
 0.9911366396680792 -0.07662181776476636 0.007168327422716511 0.03204212295420504 -0.0017906286171629924 -0.009802493579300412 0.002092841110226438 0.015470271472324711
 0.002084606068578504 0.015471454785320863 -0.0017906286171629924 -0.009802493579300412 0.007170294397099562 0.03204313428009998 0.991136700403543 -0.07662056717481351
 -0.0017905755250444788 -0.009802492721765744 0.002092841110226438 0.015470271472324711 0.991136700403543 -0.07662056717481351 0.00716855971814053 0.032043341247933614
0.100041684035 0.007727240375204392 0.034331563218496085 0.9903962988518414 -0.08185072876305587 0.002331139007644166 0.016497242925869047 -0.002000102761130211 -0.010453857593208486
 0.9903962988518414 -0.08185072876305587 0.007724872584991567 0.0343318596622746 -0.0020001629222745365 -0.010453858198289787 0.0023405042987885223 0.0164958593015866
 0.002331139007644166 0.016497242925869047 -0.0020001629222745365 -0.010453858198289787 0.007727109132847792 0.03433291976628146 0.9903963676958135 -0.08184939482878041
 -0.002000102761130211 -0.010453857593208486 0.0023405042987885223 0.0164958593015866 0.9903963676958135 -0.08184939482878041 0.007725136629984309 0.03433315576509456
0.1059090909091 0.008275473862202821 0.0364947136759686 0.9896679104214235 -0.08677000304935083 0.002575797424448087 0.017457972860917315 -0.0022080787327076025 -0.011063581383582186
 0.9896679104214235 -0.08677000304935083 0.00827282100515759 0.03649504821169112 -0.0022081459086203117 -0.01106358170719124 0.0025862885643620033 0.017456381574201034
 0.002575797424448087 0.017457972860917315 -0.0022081459086203117 -0.01106358170719124 0.008275326166967198 0.03649615130770678 0.9896679873474404 -0.08676859088097975
 -0.0022080787327076025 -0.011063581383582186 0.0025862885643620033 0.017456381574201034 0.9896679873474404 -0.08676859088097975 0.008273116682725082 0.036496416778318296
0.1062942892872 0.008312344726120366 0.03663720677705589 0.9896189431774824 -0.08709337107412299 0.002592311927670939 0.017520976723212317 -0.00222211881725027 -0.011103553483896533
 0.9896189431774824 -0.08709337107412299 0.008309672589752577 0.036637543919487266 -0.002222186466540013 -0.011103553787479343 0.002602879183660002 0.01751937111249144
 0.002592311927670939 0.017520976723212317 -0.002222186466540013 -0.011103553787479343 0.008312195915884864 0.036638649741435256 0.9896190206502128 -0.08709195376822448
 -0.00222211881725027 -0.011103553483896533 0.002602879183660002 0.01751937111249144 0.9896190206502128 -0.08709195376822448 0.008309970406210553 0.03663891722450671
0.11254689453939999 0.008926129790413049 0.038958290856105623 0.9888041728048227 -0.092349342912941 0.0028682033108641974 0.018542389193041204 -0.0024567054436255564 -0.0117513190146735
 0.9888041728048227 -0.092349342912941 0.008923134982199635 0.03895867219192446 -0.002456780997349211 -0.011751318965983217 0.002880043959756099 0.018540538754583637
 0.0028682033108641974 0.018542389193041204 -0.002456780997349211 -0.011751318965983217 0.008925962278689302 0.038959820532166865 0.9888042594297516 -0.0923478422045486
 -0.0024567054436255564 -0.0117513190146735 0.002880043959756099 0.018540538754583637 0.9888042594297516 -0.0923478422045486 0.008923468585868894 0.038960122057056214
0.11879949979160001 0.009568996628672255 0.04129430761766758 0.9879515934855346 -0.09761822688367226 0.003158885801000038 0.019561208608140413 -0.0027039384581078107 -0.01239688877363658
 0.9879515934855346 -0.09761822688367226 0.009565660831983328 0.0412947367997262 -0.0027040223300131903 -0.012396888320169268 0.0031720709523209768 0.01955908933265966
 0.003158885801000038 0.019561208608140413 -0.0027040223300131903 -0.012396888320169268 0.009568809279282234 0.041295924317787336 0.9879516897902012 -0.09761664273715741
 -0.0027039384581078107 -0.01239688877363658 0.0031720709523209768 0.01955908933265966 0.9879516897902012 -0.09761664273715741 0.009566032231881209 0.04129626254853656
0.1250521050438 0.010241339573027641 0.043644744208863245 0.9870608168913129 -0.10289959097679299 0.0034644260157619873 0.020577158682898108 -0.0029638875700424418 -0.013039993376556243
 0.9870608168913129 -0.10289959097679299 0.010237644480053367 0.04364522505078946 -0.002963980171436065 -0.013039992464027237 0.003479026428183728 0.02057474539215196
 0.0034644260157619873 0.020577158682898108 -0.002963980171436065 -0.013039992464027237 0.010241131246822835 0.04364644826271814 0.9870609234069507 -0.10289792335193049
 -0.0029638875700424418 -0.013039993376556243 0.003479026428183728 0.02057474539215196 0.9870609234069507 -0.10289792335193049 0.010238055676992699 0.043646825972273665
0.131304710296 0.010943545966524646 0.04600908208967269 0.9861314609350448 -0.10819298939042503 0.0037848843617409255 0.021589958750807273 -0.0032366162046021125 -0.013680359549233564
 0.9861314609350448 -0.10819298939042503 0.010939473277734833 0.04600961856879654 -0.0032367179445499496 -0.01368035812159459 0.003800970410571395 0.02158722509743207
 0.0037848843617409255 0.021589958750807273 -0.0032367179445499496 -0.01368035812159459 0.010943315522385717 0.04601087384308921 0.986131578197265 -0.1081912382435847
 -0.0032366162046021125 -0.013680359549233564 0.003800970410571395 0.02158722509743207 0.986131578197265 -0.1081912382435847 0.010939926263824621 0.04601129391594615
0.1375573155481 0.01152858855029559 0.04807975194916033 0.9853106447765686 -0.11319068834532942 0.0040836852451543015 0.02257043595567265 -0.0034855442789257975 -0.014288866455814002
 0.9853106447765686 -0.11319068834532942 0.011524119774517639 0.048080336763209136 -0.003485655983107123 -0.014288864501274654 0.004101297710170347 0.022567382621746953
 0.0040836852451543015 0.02257043595567265 -0.003485655983107123 -0.014288864501274654 0.011528335973765022 0.04808163129328597 0.9853107732714195 -0.11318885371084032
 -0.0034855442789257975 -0.014288866455814002 0.004101297710170347 0.022567382621746953 0.9853107732714195 -0.11318885371084032 0.011524615509884999 0.04808208638963889
0.1438099208003 0.012134570070624308 0.05013687621949007 0.9844602020739687 -0.1181730362860628 0.004394436614612597 0.023545300807968066 -0.0037442897338620315 -0.014892199158781575
 0.9844602020739687 -0.1181730362860628 0.012129686927873626 0.05013751258116801 -0.0037444118826592877 -0.014892196612487463 0.0044136400026213276 0.02354190334380535
 0.004394436614612597 0.023545300807968066 -0.0037444118826592877 -0.014892196612487463 0.01213429442309856 0.05013884345969496 0.9844603423314932 -0.11817111813471491
 -0.0037442897338620315 -0.014892199158781575 0.0044136400026213276 0.02354190334380535 0.9844603423314932 -0.11817111813471491 0.01213022720722694 0.05013933579047853
0.1500625260525 0.012761233235950959 0.05218020501154253 0.983580395669266 -0.12313982959580537 0.0047170018580437205 0.024514401762925173 -0.0040127190506817605 -0.015490215850291419
 0.983580395669266 -0.12313982959580537 0.012755917461775654 0.05218089628907919 -0.004012852127181529 -0.015490212643705748 0.004737859970210325 0.024510634871612914
 0.0047170018580437205 0.024514401762925173 -0.004012852127181529 -0.015490212643705748 0.012760933590700659 0.052182260463964944 0.9835805482226606 -0.12313782789733098
 -0.0040127190506817605 -0.015490215850291419 0.004737859970210325 0.024510634871612914 0.9835805482226606 -0.12313782789733098 0.012756504059647681 0.052182792361441944
0.15631513130469998 0.01340831840243352 0.054209495967021515 0.9826714903233661 -0.1280908672989175 0.005051242450932662 0.025477590572522486 -0.004290696795273734 -0.016082778341546082
 0.9826714903233661 -0.1280908672989175 0.013402551748436192 0.05421024568555417 -0.0042908412853712155 -0.016082774402357513 0.0050738183662788735 0.025473428127025664
