! Created with skrf 1.8.0 (http://scikit-rf.org).
# GHz S RI R 50.0 
!freq ReS11 ImS11 ReS12 ImS12 ReS13 ImS13
! ReS14 ImS14
! ReS21 ImS21 ReS22 ImS22 ReS23 ImS23
! ReS24 ImS24
! ReS31 ImS31 ReS32 ImS32 ReS33 ImS33
! ReS34 ImS34
! ReS41 ImS41 ReS42 ImS42 ReS43 ImS43
! ReS44 ImS44
!
0.0 0.001287026127665 0.0 0.9987129738681 0.0 4.941289479959e-05 0.0 -4.941289490051e-05 6.0513343576514145e-21
 0.9987129738681 0.0 0.001287026127654 0.0 -4.941289489948e-05 6.051334357525276e-21 4.941289480053e-05 0.0
 4.941289479959e-05 0.0 -4.941289489948e-05 6.051334357525276e-21 0.001287026122661 0.0 0.9987129738631 0.0
 -4.941289490051e-05 6.0513343576514145e-21 4.941289480053e-05 0.0 0.9987129738631 0.0 0.001287026122705 0.0
0.005 0.0013841544395194797 0.001049624007591693 0.9985901909144985 -0.002696936708040902 6.938167658062528e-05 0.0005671107497364864 -6.735073465718475e-05 -0.00035211562581040123
 0.9985901909144985 -0.002696936708040902 0.0013841439078900424 0.001049630154601602 -6.735302158520266e-05 -0.0003521174029493113 6.944599279422534e-05 0.0005670864179015351
 6.938167658062528e-05 0.0005671107497364864 -6.735302158520266e-05 -0.0003521174029493113 0.0013841528311709904 0.0010495577186760833 0.9985901905741952 -0.0026970037638068102
 -6.735073465718475e-05 -0.00035211562581040123 6.944599279422534e-05 0.0005670864179015351 0.9985901905741952 -0.0026970037638068102 0.0013841448325864765 0.0010495623271729048
0.006252605252188 0.0014094469311240565 0.0013162021202159204 0.9985580468928326 -0.0033718608082287218 7.497030680305657e-05 0.0007091653557670661 -7.233141316715694e-05 -0.00044061598803345176
 0.9985580468928326 -0.0033718608082287218 0.0014094304680199077 0.0013162098857049536 -7.233497171886228e-05 -0.0004406181804134004 7.507079778516115e-05 0.0007091337653101797
 7.497030680305657e-05 0.0007091653557670661 -7.233497171886228e-05 -0.0004406181804134004 0.0014094444981783934 0.0013161192655292324 0.9985580464424091 -0.003371944622773711
 -7.233141316715694e-05 -0.00044061598803345176 7.507079778516115e-05 0.0007091337653101797 0.9985580464424091 -0.003371944622773711 0.0014094319952689535 0.0013161251011466904
0.01250521050438 0.0015415362732620083 0.0026603859230915285 0.9983892133330511 -0.00674471463841047 0.0001064059236477825 0.0014186964492065956 -0.00010014117363880822 -0.0008835093804418907
 0.9983892133330511 -0.00674471463841047 0.001541470532140952 0.0026604022739430797 -0.00010015519666689167 -0.0008835134510226206 0.00010680673255263892 0.0014186207356039102
 0.0001064059236477825 0.0014186964492065956 -0.00010015519666689167 -0.0008835134510226206 0.0015415271205838617 0.002660220473555311 0.9983892121029982 -0.006744882016144928
 -0.00010014117363880822 -0.0008835093804418907 0.00010680673255263892 0.0014186207356039102 0.9983892121029982 -0.006744882016144928 0.001541477202731232 0.0026602328791497896
0.01875781575657 0.0016835444153228977 0.004024106855368373 0.9982062906133744 -0.010126813275092387 0.0001437866831779795 0.00212911968945445 -0.00013291995372950147 -0.001328035541752432
 0.9982062906133744 -0.010126813275092387 0.0016833966868250556 0.004024132677125313 -0.00013295122523054704 -0.001328041125952236 0.00014468723420251993 0.002128985206311605
 0.0001437866831779795 0.00212911968945445 -0.00013295122523054704 -0.001328041125952236 0.0016835242541461807 0.004023858943107506 0.9982062882680628 -0.010127064087084718
 -0.00013291995372950147 -0.001328035541752432 0.00014468723420251993 0.002128985206311605 0.9982062882680628 -0.010127064087084718 0.0016834121005580378 0.0040238786613592415
0.02501042100875 0.0018357162366002917 0.005405487533483192 0.9980090900978075 -0.013519835031610066 0.00018718019896606523 0.002840497351990229 -0.00017074349971588638 -0.0017740103891847644
 0.9980090900978075 -0.013519835031610066 0.001835453873712809 0.00540552376359145 -0.00017079872339851538 -0.0017740170649850238 0.0001887801125706678 0.002840287422251989
 0.00018718019896606523 0.002840497351990229 -0.00017079872339851538 -0.0017740170649850238 0.001835680786895737 0.0054051572509453355 0.9980090863116562 -0.013520169181485056
 -0.00017074349971588638 -0.0017740103891847644 0.0001887801125706678 0.002840287422251989 0.9980090863116562 -0.013520169181485056 0.0018354816356957622 0.005405185022871279
0.03126302626094 0.00199828625806035 0.006803581140890593 0.9977974122500071 -0.01692452131610733 0.000236654698610883 0.0035528243506911124 -0.00021368572428794532 -0.002221313664758366
 0.9977974122500071 -0.01692452131610733 0.0019978766586929014 0.006803628765854002 -0.00021377153768357447 -0.0022213209518045026 0.00023915398304654107 0.0035525202542129788
 0.000236654698610883 0.0035528243506911124 -0.00021377153768357447 -0.0022213209518045026 0.001998231234238476 0.006803168578239965 0.9977974066955767 -0.016924938702740863
 -0.00021368572428794532 -0.002221313664758366 0.00023915398304654107 0.0035525202542129788 0.9977974066955767 -0.016924938702740863 0.001997920368230738 0.0068032051401753285
0.037515631513130004 0.0021714841022990325 0.008217785000249979 0.9975710522109781 -0.020341263008749902 0.00029227841799253054 0.004266069453297637 -0.0002618192854401354 -0.002669847715238524
 0.9975710522109781 -0.020341263008749902 0.0021708946978009794 0.00821784505418073 -0.0002619422671520949 -0.0026698550745333687 0.0002958775601577555 0.004265650404848947
 0.00029227841799253054 0.004266069453297637 -0.0002619422671520949 -0.0026698550745333687 0.0021714052189217023 0.008217290235794338 0.9975710445663359 -0.020341763536114298
 -0.0002618192854401354 -0.002669847715238524 0.0002958775601577555 0.004265650404848947 0.9975710445663359 -0.020341763536114298 0.0021709579558894894 0.00821733631742538
0.043768236765320004 0.0023555366199629444 0.009647662072715842 0.9973298020419012 -0.023770278906295895 0.00035411932094590935 0.004980187808484051 -0.0003152158079953462 -0.0031195249558669145
 0.9973298020419012 -0.023770278906295895 0.0023547348662170376 0.009647735636281645 -0.0003153824820478746 -0.0031195317896447025 0.00035901933461484633 0.004979630932650499
 0.00035411932094590935 0.004980187808484051 -0.0003153824820478746 -0.0031195317896447025 0.0023554295871348694 0.009647085186593598 0.997329791987112 -0.023770862470079132
 -0.0003152158079953462 -0.0031195249558669145 0.00035901933461484633 0.004979630932650499 0.997329791987112 -0.023770862470079132 0.00235482127218745 0.009647141509256354
0.050020842017509996 0.0025506688784465658 0.01109286722238215 0.9970734518301712 -0.027211689399491822 0.0004222449365698043 0.005695126127393666 -0.00037394597556256697 -0.0035702626790137743
 0.9970734518301712 -0.027211689399491822 0.002549622248960579 0.01109295542214146 -0.00037416281437681277 -0.0035702683306868973 0.0004286473879508155 0.005694406432229381
 0.0004222449365698043 0.005695126127393666 -0.00037416281437681277 -0.0035702683306868973 0.002550529401991282 0.011092208297618832 0.9970734390480933 -0.027212355886425753
 -0.00037394597556256697 -0.0035702626790137743 0.0004286473879508155 0.005694406432229381 0.9970734390480933 -0.027212355886425753 0.0025497354003254907 0.011092275572864935
0.055454545454549996 0.0027294166737017425 0.012361016765806525 0.9968382486085754 -0.030212491640950384 0.0004866041542292335 0.006317049246003226 -0.00042937005700301693 -0.003962766210774047
 0.9968382486085754 -0.030212491640950384 0.0027281308324220615 0.012361118635017541 -0.0004296357082353867 -0.003962770256220975 0.0004944764040211321 0.006316166095278489
 0.0004866041542292335 0.006317049246003226 -0.0004296357082353867 -0.003962770256220975 0.002729245511427374 0.012360286617107513 0.9968382332015079 -0.030213230091503677
 -0.00042937005700301693 -0.003962766210774047 0.0004944764040211321 0.006316166095278489 0.9968382332015079 -0.030213230091503677 0.0027282701468900163 0.012360363979780515
0.056273447269699996 0.0027571046836425755 0.012553111003301151 0.9968017903298629 -0.0306655526279403 0.0004967222489522584 0.006410825213207302 -0.0004380795642240909 -0.004021980515521971
 0.9968017903298629 -0.0306655526279403 0.002755780662140945 0.012553215011191972 -0.00043835299047687443 -0.004021984269645365 0.000504829268525442 0.006409915563235206
 0.0004967222489522584 0.006410825213207302 -0.00043835299047687443 -0.004021984269645365 0.0027569284641333837 0.012552370124685604 0.9968017745065036 -0.03066630191733195
 -0.0004380795642240909 -0.004021980515521971 0.000504829268525442 0.006409915563235206 0.9968017745065036 -0.03066630191733195 0.00275592415481765 0.01255244905300531
0.06252605252188 0.00297506686913453 0.014028139761146113 0.9965146053727876 -0.03413188432091408 0.0005776176107950303 0.007127221356258605 -0.0005076854481294693 -0.004474599031744874
 0.9965146053727876 -0.03413188432091408 0.0029734329436856793 0.01402826079423936 -0.0005080218362001648 -0.00447460011401648 0.0005876318966383803 0.007126092445123145
 0.0005776176107950303 0.007127221356258605 -0.0005080218362001648 -0.00447460011401648 0.0029748496026685083 0.014027317018221777 0.9965145861986815 -0.034132716282101135
 -0.0005076854481294693 -0.004474599031744874 0.0005876318966383803 0.007126092445123145 0.9965145861986815 -0.034132716282101135 0.002973610372553216 0.014027408287857774
0.06877865777407 0.0032047774628074727 0.015517723768935393 0.9962116841581317 -0.03761066960539339 0.0006649966726835175 0.007844247156744677 -0.0005828315872847763 -0.0049280389005508535
 0.9962116841581317 -0.03761066960539339 0.003202801119810619 0.01551786308922367 -0.0005832372642968834 -0.004928036477807901 0.0006771214871168726 0.007842867479713961
 0.0006649966726835175 0.007844247156744677 -0.0005832372642968834 -0.004928036477807901 0.003204514838962209 0.015516819254971895 0.9962116613265185 -0.037611584099212815
 -0.0005828315872847763 -0.0049280389005508535 0.0006771214871168726 0.007842867479713961 0.9962116613265185 -0.037611584099212815 0.0032030160763461494 0.015516923540966784
0.07503126302626001 0.0034464577757755085 0.017021649692013578 0.9958928134664972 -0.04110187048635653 0.0007589243184218806 0.00856183205218907 -0.0006635850068843294 -0.005382220369320838
 0.9958928134664972 -0.04110187048635653 0.0034441064938718047 0.017021808606460406 -0.0006640662533816196 -0.005382213549548507 0.0007733634803473987 0.00856016787857823
 0.0007589243184218806 0.00856183205218907 -0.0006640662533816196 -0.005382213549548507 0.0034461454783930264 0.017020663508411887 0.9958927866756054 -0.04110286736119596
 -0.0006635850068843294 -0.005382220369320838 0.0007733634803473987 0.00856016787857823 0.9958927866756054 -0.04110286736119596 0.0034443625673020043 0.017020781471747088
0.08128386827845 0.00370032845003353 0.018539715590295127 0.9955577798359867 -0.04460543079160516 0.0008594646072236715 0.00927990266356658 -0.0007500117681223047 -0.005837062911181197
 0.9955577798359867 -0.04460543079160516 0.0036975696943714327 0.01853989545095965 -0.0007505748185904513 -0.005837050743530983 0.000876422480910876 0.009277918009170237
 0.0008594646072236715 0.00927990266356658 -0.0007505748185904513 -0.005837050743530983 0.003699962155945591 0.018538647842423806 0.9955577487880017 -0.04460650988812134
 -0.0007500117681223047 -0.005837062911181197 0.000876422480910876 0.009277918009170237 0.9955577487880017 -0.04460650988812134 0.003697870470249968 0.018538780129290038
0.08753647353064001 0.0039666094709997456 0.020071727448459597 0.9952063697045002 -0.048121279590636716 0.0009666807178094418 0.009998383036562997 -0.0008421769356829511 -0.00629248498309351
 0.9952063697045002 -0.048121279590636716 0.003963410687842885 0.02007192965273228 -0.0008428279789900216 -0.006292466457896538 0.0009863621986635044 0.00999603963615351
 0.0009666807178094418 0.009998383036562997 -0.0008428279789900216 -0.006292466457896538 0.003966184850672773 0.02007057825001182 0.9952063341064746 -0.04812244073780879
 -0.0008421769356829511 -0.00629248498309351 0.0009863621986635044 0.00999603963615351 0.9952063341064746 -0.04812244073780879 0.003963759747785453 0.020070725491232715
0.09378907878283 0.0042455201632429565 0.021617496700149893 0.9948383695370748 -0.05164933362158033 0.0010806348951451325 0.010717194812710816 -0.00094014454115307 -0.006748403856171883
 0.9948383695370748 -0.05164933362158033 0.0042418487737979965 0.021617722691274464 -0.000940889720700696 -0.006748377904973006 0.001103245393352537 0.010714452092632264
 0.0010806348951451325 0.010717194812710816 -0.000940889720700696 -0.006748377904973006 0.0042450328797800415 0.021616266173039796 0.9948383291012719 -0.05165057663738099
 -0.00094014454115307 -0.006748403856171883 0.001103245393352537 0.010714452092632264 0.9948383291012719 -0.05165057663738099 0.004242249694967472 0.021616428983649117
0.100041684035 0.004537279168665476 0.023176838409113013 0.9944535659391375 -0.055189499063479516 0.0012013883981252095 0.011436257359377776 -0.0010439775443114347 -0.007204735489319297
 0.9944535659391375 -0.055189499063479516 0.004533102563647496 0.02317708967675799 -0.0010448229581960682 -0.0072047009849119 0.0012271338201669704 0.011433072410268943
 0.0012013883981252095 0.011436257359377776 -0.0010448229581960682 -0.0072047009849119 0.004536724877716848 0.02317552668466126 0.9944535203830388 -0.055190823754262534
 -0.0010439775443114347 -0.007204735489319297 0.0012271338201669704 0.011433072410268943 0.9944535203830388 -0.055190823754262534 0.004533558918148235 0.023175705663623675
0.1059090909091 0.004822943587445695 0.024652296466644446 0.9940769961658202 -0.05852249235868556 0.0013209403234129243 0.012111175626225223 -0.0011468034269004946 -0.007633253636864098
 0.9940769961658202 -0.05852249235868556 0.004818263201097137 0.02465257285047262 -0.0011477484059653918 -0.007633210028687396 0.0013498152330188916 0.012107534562075774
 0.0013209403234129243 0.012111175626225223 -0.0011477484059653918 -0.007633210028687396 0.004822322459121842 0.024650908674604875 0.9940769455530576 -0.058523893507077616
 -0.0011468034269004946 -0.007633253636864098 0.0013498152330188916 0.012107534562075774 0.9940769455530576 -0.058523893507077616 0.004818774817357116 0.02465110335621825
0.1062942892872 0.004842104414564471 0.024749569902193666 0.9940517457603762 -0.058741672859082175 0.0013290014484902384 0.012155487863637376 -0.0011537377919812698 -0.007661394441228534
 0.9940517457603762 -0.058741672859082175 0.004837389948269222 0.024749847983209977 -0.0011546894931016396 -0.007661350197686874 0.0013580881769807841 0.012151815413359815
 0.0013290014484902384 0.012155487863637376 -0.0011546894931016396 -0.007661350197686874 0.004841478764100481 0.024748177120213048 0.9940516948071829 -0.05874307902101842
 -0.0011537377919812698 -0.007661394441228534 0.0013580881769807841 0.012151815413359815 0.9940516948071829 -0.05874307902101842 0.0048379053021925245 0.02474837285035229
0.11254689453939999 0.005160213073390196 0.026335509724556862 0.9936326961932015 -0.06230574371793496 0.0014635331796307284 0.012874801410905192 -0.0012694859760012838 -0.008118293799993478
 0.9936326961932015 -0.06230574371793496 0.005154928058195119 0.026335816203865887 -0.0012705499719843768 -0.008118238572728509 0.0014961680517616425 0.01287059379755997
 0.0014635331796307284 0.012874801410905192 -0.0012705499719843768 -0.008118238572728509 0.005159511703466799 0.02633403603502395 0.9936326395721731 -0.06230723113590511
 -0.0012694859760012838 -0.008118293799993478 0.0014961680517616425 0.01287059379755997 0.9936326395721731 -0.06230723113590511 0.005155505971468493 0.02633424908297042
0.11879949979160001 0.0054918215155895095 0.02793447681536668 0.9931962048661589 -0.06588159290151942 0.0016050415865726413 0.013594111044256613 -0.0013912815890902313 -0.008575345134300236
 0.9931962048661589 -0.06588159290151942 0.005485933215758629 0.027934813327077156 -0.0013924638422746576 -0.00857527762010275 0.0016414318709583604 0.013589318189561035
 0.0016050415865726413 0.013594111044256613 -0.0013924638422746576 -0.00857527762010275 0.005491040058019258 0.02793292237760764 0.9931961423129063 -0.06588316135056896
 -0.0013912815890902313 -0.008575345134300236 0.0016414318709583604 0.013589318189561035 0.9931961423129063 -0.06588316135056896 0.0054865772411028715 0.027933153294110804
0.1250521050438 0.00583714525754232 0.02954628986391601 0.9927420599343234 -0.06946909483070444 0.0017535834754058425 0.014313327815273842 -0.001519182880279184 -0.009032458455719363
 0.9927420599343234 -0.06946909483070444 0.00583062088357789 0.029546658092563384 -0.0015204893075773257 -0.009032377292832707 0.0017939368478722968 0.014307897198050982
 0.0017535834754058425 0.014313327815273842 -0.0015204893075773257 -0.009032377292832707 0.005836279335683885 0.029544654849632347 0.9927419911912526 -0.06947074407357941
 -0.001519182880279184 -0.009032458455719363 0.0017939368478722968 0.014307897198050982 0.9927419911912526 -0.06947074407357941 0.00583133456597895 0.029544904169890022
0.131304710296 0.0061963989047640325 0.0311707667882924 0.9922700501673272 -0.07306811757337536 0.0019092144129830748 0.01503236082730955 -0.0016532468092483603 -0.009489542190923933
 0.9922700501673272 -0.07306811757337536 0.006189205607554411 0.031171168470262422 -0.001654683282019558 -0.009489445959102389 0.001953738931222792 0.015026237457296747
 0.0019092144129830748 0.01503236082730955 -0.001654683282019558 -0.009489445959102389 0.006195444133424316 0.031169051380191867 0.9922699749836967 -0.07306984736259926
 -0.0016532468092483603 -0.009489542190923933 0.001953738931222792 0.015026237457296747 0.9922699749836967 -0.07306984736259926 0.006189992483513156 0.03116931962440343
0.1375573155481 0.006481713995048421 0.0325944469104906 0.9918680730392897 -0.07646517337490649 0.002050453557655504 0.01572880712762137 -0.0017719398280953381 -0.009924238243569741
 0.9918680730392897 -0.07646517337490649 0.0064738167725835 0.03259487664186447 -0.0017735150311938856 -0.00992412703581541 0.0020992485466342398 0.015722005910721246
 0.002050453557655504 0.01572880712762137 -0.0017735150311938856 -0.00992412703581541 0.00648066658639775 0.03259265127762299 0.9918679911286074 -0.07646698350435009
 -0.0017719398280953381 -0.009924238243569741 0.0020992485466342398 0.015722005910721246 0.9918679911286074 -0.07646698350435009 0.006474679835985214 0.03259293188551789
0.1438099208003 0.006776856301744513 0.03401154707172218 0.9914523452908448 -0.0798545730294262 0.0021973957256677945 0.01642309979585737 -0.001895402469088202 -0.010356942242792629
 0.9914523452908448 -0.0798545730294262 0.006768221890420809 0.03401200620934359 -0.0018971227155068747 -0.010356814682785936 0.002250650096571392 0.01641557109896785
 0.0021973957256677945 0.01642309979585737 -0.0018971227155068747 -0.010356814682785936 0.006775711964966053 0.03400967137970562 0.9914522564065433 -0.07985646324172131
 -0.001895402469088202 -0.010356942242792629 0.002250650096571392 0.01641557109896785 0.9914522564065433 -0.07985646324172131 0.006769164566513679 0.034009964464101136
0.1500625260525 0.00708173408390378 0.03542197679998477 0.991022961856917 -0.08323626117190291 0.0023499976220022873 0.01711518963904722 -0.002023592164600515 -0.010787605856248423
 0.991022961856917 -0.08323626117190291 0.007072329149260772 0.03542246678493995 -0.002025463757585362 -0.010787460512815105 0.00240789938278171 0.017106882032567973
 0.0023499976220022873 0.01711518963904722 -0.002025463757585362 -0.010787460512815105 0.00708048852604415 0.03542002121651425 0.9910228657585178 -0.0832382312033305
 -0.002023592164600515 -0.010787605856248423 0.00240789938278171 0.017106882032567973 0.9910228657585178 -0.0832382312033305 0.00707335484839286 0.03542032692448656
0.15631513130469998 0.007396255088292101 0.03682564851131898 0.9905800180031049 -0.08661018208900631 0.002508215526533687 0.017805028166632687 -0.00215646590080072 -0.011216181685650207
