! Created with skrf 1.8.0 (http://scikit-rf.org).
# GHz S RI R 50.0 
!freq ReS11 ImS11 ReS12 ImS12 ReS13 ImS13
! ReS14 ImS14
! ReS21 ImS21 ReS22 ImS22 ReS23 ImS23
! ReS24 ImS24
! ReS31 ImS31 ReS32 ImS32 ReS33 ImS33
! ReS34 ImS34
! ReS41 ImS41 ReS42 ImS42 ReS43 ImS43
! ReS44 ImS44
!
0.0 0.001615361865702 0.0 0.9983846381213 0.0 6.268039353492e-05 0.0 -6.268039351916e-05 7.676134329253579e-21
 0.9983846381213 0.0 0.00161536186572 0.0 -6.268039351884e-05 7.67613432921439e-21 6.268039353635e-05 0.0
 6.268039353492e-05 0.0 -6.268039351884e-05 7.67613432921439e-21 0.001615361872178 0.0 0.9983846381278 0.0
 -6.268039351916e-05 7.676134329253579e-21 6.268039353635e-05 0.0 0.9983846381278 0.0 0.001615361872209 0.0
0.005 0.0017382673005915676 0.0013166361339567254 0.998229091326821 -0.0033837476084216476 8.86886403579312e-05 0.0007189394244825157 -8.592348862019338e-05 -0.0004462818719373816
 0.998229091326821 -0.0033837476084216476 0.00173827932789417 0.001316629149395355 -8.592377902391466e-05 -0.000446282160980609 8.861697586806324e-05 0.000718966810608555
 8.86886403579312e-05 0.0007189394244825157 -8.592377902391466e-05 -0.000446282160980609 0.001738266464270678 0.0013165693901151247 0.9982290909620574 -0.003383814681370631
 -8.592348862019338e-05 -0.0004462818719373816 8.861697586806324e-05 0.000718966810608555 0.9982290909620574 -0.003383814681370631 0.0017382794384404293 0.0013165617498134548
0.006252605252188 0.0017705669233200416 0.0016509869362719514 0.9981879420003525 -0.004230503521218367 9.616376293747304e-05 0.0008990045273734654 -9.252130544480895e-05 -0.0005584316308015696
 0.9981879420003525 -0.004230503521218367 0.0017705857236955903 0.001650978040532178 -9.252175682332858e-05 -0.0005584319885729111 9.605179527715407e-05 0.0008990400804581778
 9.616376293747304e-05 0.0008990045273734654 -9.252175682332858e-05 -0.0005584319885729111 0.0017705656915267323 0.0016509035279744845 0.9981879415059717 -0.004230587348665363
 -9.252130544480895e-05 -0.0005584316308015696 9.605179527715407e-05 0.0008990400804581778 0.9981879415059717 -0.004230587348665363 0.001770585972840184 0.0016508937997207808
0.01250521050438 0.001940979155795762 0.0033366313464114374 0.9979693387025126 -0.008461760740036673 0.0001392671951184131 0.0017982466425691091 -0.00013014655417533289 -0.0011195513704980748
 0.9979693387025126 -0.008461760740036673 0.0019410542175859631 0.0033366118921360367 -0.00013014832664014908 -0.0011195520479658162 0.0001388207325227189 0.0017983320473695756
 0.0001392671951184131 0.0017982466425691091 -0.00013014832664014908 -0.0011195520479658162 0.001940974788673752 0.003336464882032217 0.9979693372861576 -0.008461928135335995
 -0.00013014655417533289 -0.0011195513704980748 0.0001388207325227189 0.0017983320473695756 0.9979693372861576 -0.008461928135335995 0.0019410557793562912 0.0033364436225625884
0.01875781575657 0.0021269853451824326 0.0050462752473905415 0.9977285462220001 -0.012704057998555509 0.0001920919095632187 0.0026983472550681474 -0.0001756757766792116 -0.0016825015356659806
 0.9977285462220001 -0.012704057998555509 0.002127153997303878 0.005046243461116579 -0.00017567972051432194 -0.00168250248950409 0.0001910890727037743 0.0026984997254242225
 0.0001920919095632187 0.0026983472550681474 -0.00017567972051432194 -0.00168250248950409 0.0021269759398350675 0.005046025938128636 0.997728543458391 -0.012704308883459732
 -0.0001756757766792116 -0.0016825015356659806 0.0001910890727037743 0.0026984997254242225 0.997728543458391 -0.012704308883459732 0.0021271579445625547 0.005045991198810725
0.02501042100875 0.002328959958215678 0.0067774974826096245 0.9974652710606924 -0.01695943254355788 0.00025474075038754446 0.0035993377156027383 -0.000229224254578809 -0.0022470071641343616
 0.9974652710606924 -0.01695943254355788 0.0023292594457703128 0.006777451491677173 -0.00022923120711852433 -0.002247008344712062 0.0002529596386858481 0.003599577279509346
 0.00025474075038754446 0.0035993377156027383 -0.00022923120711852433 -0.002247008344712062 0.0023289436122981375 0.006777165553392298 0.9974652665274731 -0.01695976686614469
 -0.000229224254578809 -0.0022470071641343616 0.0002529596386858481 0.003599577279509346 0.9974652665274731 -0.01695976686614469 0.0023292668629119966 0.006777115252335577
0.03126302626094 0.002547261944541525 0.008529042174215767 0.9971792053150214 -0.02122874405258881 0.000327316965995476 0.0045011627711425365 -0.00029090370561807256 -0.002812873030690114
 0.9971792053150214 -0.02122874405258881 0.0025477294499177726 0.008528980008963025 -0.0002909144935540495 -0.002812874382026815 0.00032453545475817435 0.004501512285628276
 0.000327316965995476 0.0045011627711425365 -0.0002909144935540495 -0.002812874382026815 0.002547236750512211 0.0085286278646327 0.9971791985860672 -0.021229161786742765
 -0.00029090370561807256 -0.002812873030690114 0.00032453545475817435 0.004501512285628276 0.9971791985860672 -0.021229161786742765 0.0025477414269974314 0.008528559788413378
0.037515631513130004 0.0027822422828514297 0.010300082944341118 0.9968700344937207 -0.025512410352756004 0.0004099231051698313 0.005403732842616509 -0.0003608231353119529 -0.003379931377465027
 0.9968700344937207 -0.025512410352756004 0.0027829149396127635 0.010300002539063241 -0.00036083857584979373 -0.0033799328372289073 0.00040591875740644573 0.00540421802053262
 0.0004099231051698313 0.005403732842616509 -0.00036083857584979373 -0.0033799328372289073 0.002782206332637746 0.0102995865125139 0.9968700251437489 -0.025512911494749504
 -0.0003608231353119529 -0.003379931377465027 0.00040591875740644573 0.00540421802053262 0.9968700251437489 -0.025512911494749504 0.0027829325771082463 0.01029949831672471
0.043768236765320004 0.003034246898893424 0.012089999013412902 0.9965374407109182 -0.029810631252494026 0.0005026605071141321 0.006306939904967929 -0.00043908912503536784 -0.003948026044967816
 0.9965374407109182 -0.029810631252494026 0.0030351618037849004 0.012089898206799694 -0.00043911002677748424 -0.003948027544512364 0.0004972105350740326 0.006307589345473571
 0.0005026605071141321 0.006306939904967929 -0.00043911002677748424 -0.003948027544512364 0.003034198282608891 0.01208942075787485 0.9965374283124623 -0.029811215799401165
 -0.00043908912503536784 -0.003948026044967816 0.0004972105350740326 0.006307589345473571 0.9965374283124623 -0.029811215799401165 0.0030351862100454546 0.012089309967168052
0.050020842017509996 0.0033036180130009084 0.013898282694703203 0.9961811043124592 -0.034123480975583945 0.0006056289828849497 0.00721066408348148 -0.0005258059388021714 -0.0045170058905218404
 0.9961811043124592 -0.034123480975583945 0.0033048122352380316 0.013898159230149964 -0.0005258331021763724 -0.00451700735494759 0.0005985102351325903 0.007211509303962144
 0.0006056289828849497 0.00721066408348148 -0.0005258331021763724 -0.00451700735494759 0.0033035548192463194 0.013897622933544702 0.9961810884358593 -0.03412414894676971
 -0.0005258059388021714 -0.0045170058905218404 0.0005985102351325903 0.007211509303962144 0.9961810884358593 -0.03412414894676971 0.003304844527082443 0.013897486941249466
0.055454545454549996 0.003552076900431602 0.015484309794248368 0.995851906401492 -0.037883355332808705 0.000703496799257788 0.007996348101380406 -0.0006081078231141352 -0.00501206952148724
 0.995851906401492 -0.037883355332808705 0.003553543948945924 0.015484164732356023 -0.000608141072158637 -0.005012070889723446 0.0006947463288809482 0.007997391347439188
 0.000703496799257788 0.007996348101380406 -0.000608141072158637 -0.005012070889723446 0.0035519994866779567 0.015483579491366183 0.9958518871523849 -0.03788409581978575
 -0.0006081078231141352 -0.00501206952148724 0.0006947463288809482 0.007997391347439188 0.9958518871523849 -0.03788409581978575 0.0035535840074415567 0.01548341937879526
0.056273447269699996 0.0035906948215445908 0.015724493941702087 0.9958007048405646 -0.038450953544969975 0.0007189265956810664 0.00811477685266693 -0.0006210755331638079 -0.005086721608749623
 0.9958007048405646 -0.038450953544969975 0.0035922054129018006 0.015724345466990544 -0.0006211097509692012 -0.00508672295692462 0.0007099155609150337 0.008115852321211727
 0.0007189265956810664 0.00811477685266693 -0.0006211097509692012 -0.00508672295692462 0.0035906151393883443 0.015723753030302167 0.995800685054712 -0.038451704964576
 -0.0006210755331638079 -0.005086721608749623 0.0007099155609150337 0.008115852321211727 0.995800685054712 -0.038451704964576 0.0035922467158195264 0.015723589097876814
0.06252605252188 0.00389581385692973 0.017568235417526203 0.9953959216821245 -0.04279298764805965 0.000842649477435311 0.009019142839314796 -0.0007249975323743007 -0.005657023952952489
 0.9953959216821245 -0.04279298764805965 0.003897677860282107 0.017568059484431887 -0.000725039590071627 -0.005657025097569885 0.000831522298155178 0.009020486007313427
 0.000842649477435311 0.009019142839314796 -0.000725039590071627 -0.005657025097569885 0.003895715776092116 0.01756741374498979 0.9953958975531699 -0.04279382254900867
 -0.0007249975323743007 -0.005657023952952489 0.000831522298155178 0.009020486007313427 0.9953958975531699 -0.04279382254900867 0.003897729308131311 0.017567219001029973
0.06877865777407 0.0042193091676306065 0.019429137590852043 0.9949664345406284 -0.04714948148085688 0.0009768916760939364 0.009923620880538973 -0.0008376691719382478 -0.006227762707057817
 0.9949664345406284 -0.04714948148085688 0.004221563625436267 0.019428931654440616 -0.0008377198479127849 -0.00622776355466818 0.0009634241698884815 0.00992527221522839
 0.0009768916760939364 0.009923620880538973 -0.0008377198479127849 -0.00622776355466818 0.004219190778906199 0.019428235578551445 0.9949664056318084 -0.047150399906741365
 -0.0008376691719382478 -0.006227762707057817 0.0009634241698884815 0.00992527221522839 0.9949664056318084 -0.047150399906741365 0.004221626360111108 0.019428007017665987
0.07503126302626001 0.004561512392102136 0.021306849311912034 0.9945119238068684 -0.051520302117749356 0.0011217450149068628 0.010828064701864742 -0.0009591852291189932 -0.006798786043439822
 0.9945119238068684 -0.051520302117749356 0.0045641943550382156 0.02130661072945776 -0.0009592452949352434 -0.006798786494494132 0.0011057127018163128 0.010830067718526723
 0.0011217450149068628 0.010828064701864742 -0.0009592452949352434 -0.006798786494494132 0.004561371788620224 0.021305867416151328 0.9945118896783167 -0.05152130412041785
 -0.0009591852291189932 -0.006798786043439822 0.0011057127018163128 0.010830067718526723 0.9945118896783167 -0.05152130412041785 0.0045642695267238955 0.021305601897430908
0.08128386827845 0.004922752767661993 0.023201031536446683 0.9940320708685364 -0.05590529173961388 0.0012772989603005156 0.011732323396750729 -0.0010896379444703778 -0.00736994008535076
 0.9940320708685364 -0.05590529173961388 0.004925899302966352 0.023200757566150365 -0.0010897081650788382 -0.007369940034226551 0.0012584770938258649 0.011734724690588236
 0.0012772989603005156 0.011732323396750729 -0.0010897081650788382 -0.007369940034226551 0.004922588045139668 0.023199970245480244 0.9940320310763252 -0.05590637738252432
 -0.0010896379444703778 -0.00736994008535076 0.0012584770938258649 0.011734724690588236 0.9940320310763252 -0.05590637738252432 0.004925988069337604 0.023199664490771352
0.08753647353064001 0.005303357093895245 0.025111352992405352 0.9935265583782172 -0.06030427192590384 0.0014436404983676529 0.012636241739313207 -0.0012291169329857812 -0.007941068642494022
 0.9935265583782172 -0.06030427192590384 0.005307005293730186 0.025111040791748272 -0.0012291980669070354 -0.007941067977528284 0.0014218041007656994 0.012639091016882518
 0.0014436404983676529 0.012636241739313207 -0.0012291980669070354 -0.007941067977528284 0.005303166352184755 0.02511021283243169 0.9935265124751752 -0.06030544127842759
 -0.0012291169329857812 -0.007941068642494022 0.0014218041007656994 0.012639091016882518 0.9935265124751752 -0.06030544127842759 0.005307108820598242 0.025109863424335292
0.09378907878283 0.005703649666733033 0.027037487087727286 0.9929950704966787 -0.06471704671280792 0.0016208540121382862 0.013539660439825707 -0.0013777090940218673 -0.008512013010382782
 0.9929950704966787 -0.06471704671280792 0.00570783665641311 0.02703713371157672 -0.0013778018935249818 -0.00851201161389475 0.0015957779123212182 0.013543010549850546
 0.0016208540121382862 0.013539660439825707 -0.0013778018935249818 -0.00851201161389475 0.005703431010097869 0.0270362686196438 0.992995018030536 -0.06471829985370753
 -0.0013777090940218673 -0.008512013010382782 0.0015957779123212182 0.013543010549850546 0.992995018030536 -0.06471829985370753 0.005707956116887463 0.027035871999174472
0.100041684035 0.006123952188726819 0.02897910964466845 0.9924372931145424 -0.06914340483211459 0.0018090211639614163 0.014442416329490674 -0.0015354985150358709 -0.00908261184706193
 0.9924372931145424 -0.06914340483211459 0.006128715135280486 0.028978712042976452 -0.0015356037262806532 -0.009082609595375293 0.001780480038106985 0.01444632329316339
 0.0018090211639614163 0.014442416329490674 -0.0015356037262806532 -0.009082609595375293 0.006123703727565997 0.028977813464344918 0.9924372336293475 -0.06914474184950202
 -0.0015354985150358709 -0.00908261184706193 0.001780480038106985 0.01444632329316339 0.9924372336293475 -0.06914474184950202 0.006128851710529106 0.028977365928325727
0.1059090909091 0.00653684456060644 0.030814914926517025 0.991889690089302 -0.0733092261831809 0.0019956285455126205 0.01528880554798838 -0.0016920043094288584 -0.009617597964283266
 0.991889690089302 -0.0733092261831809 0.006542181828878726 0.030814472954147753 -0.0016921218410808337 -0.009617594792281569 0.0019636308323859515 0.015293288862410763
 0.0019956285455126205 0.01528880554798838 -0.0016921218410808337 -0.009617594792281569 0.006536566417612679 0.030813546396699365 0.9918896235973276 -0.07331064199630595
 -0.0016920043094288584 -0.009617597964283266 0.0019636308323859515 0.015293288862410763 0.9918896235973276 -0.07331064199630595 0.00654233554470602 0.030813047582780022
0.1062942892872 0.006564583665975516 0.030935897203646506 0.9918529140656714 -0.07358312138828597 0.0020082207785658357 0.015344342517698858 -0.0017025663739438915 -0.009652701084197562
 0.9918529140656714 -0.07358312138828597 0.006569959786210436 0.03093545221888707 -0.0017026847371197176 -0.00965269784766293 0.0019759891930544917 0.015348865558269155
 0.0020082207785658357 0.015344342517698858 -0.0017026847371197176 -0.00965269784766293 0.00656430351647633 0.030934523944506492 0.9918528470993713 -0.07358454237727521
 -0.0017025663739438915 -0.009652701084197562 0.0019759891930544917 0.015348865558269155 0.9918528470993713 -0.07358454237727521 0.0065701146641358584 0.03093402164259675
0.11254689453939999 0.00702586028888738 0.032907525728273504 0.9912416233265913 -0.0780359591421714 0.0022185287281161407 0.01624526851759384 -0.0018789908389982945 -0.010222113876833416
 0.9912416233265913 -0.0780359591421714 0.007031886858021378 0.03290703009251481 -0.0018791230884702306 -0.010222109519840154 0.002182381184456828 0.016250470089267548
 0.0022185287281161407 0.01624526851759384 -0.0018791230884702306 -0.010222109519840154 0.0070255465751074605 0.03290607605876019 0.9912415484122754 -0.07803746420756982
 -0.0018789908389982945 -0.010222113876833416 0.002182381184456828 0.016250470089267548 0.9912415484122754 -0.07803746420756982 0.007032061233970698 0.032905514990217884
0.11879949979160001 0.0075080953067546375 0.03489366960116316 0.990603113213356 -0.08250166951214943 0.0024400178188215553 0.017145020358692534 -0.0020648469668850243 -0.010790680573183855
 0.990603113213356 -0.08250166951214943 0.007514809666671801 0.03489311993276941 -0.002064993831312671 -0.010790674954167486 0.0023997288004205257 0.01715096617481664
 0.0024400178188215553 0.017145020358692534 -0.002064993831312671 -0.010790674954167486 0.007507746161110607 0.034892144228761184 0.9906030298781809 -0.08250325876456173
 -0.0020648469668850243 -0.010790680573183855 0.0023997288004205257 0.01715096617481664 0.9906030298781809 -0.08250325876456173 0.007515004743121994 0.034891520238896696
0.1250521050438 0.00801159889247407 0.03689400084533955 0.9899370785712002 -0.08697999335792571 0.002672757677484631 0.018043420687807364 -0.002260206600411446 -0.011358228703416481
 0.9899370785712002 -0.08697999335792571 0.008019038460337911 0.03689339364538846 -0.0022603688029067667 -0.011358221674859833 0.0026281016983379147 0.018050179748206732
 0.002672757677484631 0.018043420687807364 -0.0022603688029067667 -0.011358221674859833 0.008011212456610375 0.03689240051154182 0.9899369863359081 -0.0869816669189038
 -0.002260206600411446 -0.011358228703416481 0.0026281016983379147 0.018050179748206732 0.9899369863359081 -0.0869816669189038 0.008019255446576185 0.036891709287732104
0.131304710296 0.008536678001926062 0.03890818848868869 0.9892432169608784 -0.09147066162975595 0.0029168146401167922 0.01894028886339867 -0.002465138264925679 -0.011924582982177363
 0.9892432169608784 -0.09147066162975595 0.008544880278320746 0.03890752013695744 -0.0024653165230861507 -0.011924574390629309 0.002867566294647234 0.018947933480951105
 0.0029168146401167922 0.01894028886339867 -0.0024653165230861507 -0.011924574390629309 0.008536252428102636 0.03890651397249142 0.9892431153400897 -0.09147241962839342
 -0.002465138264925679 -0.011924582982177363 0.002867566294647234 0.018947933480951105 0.9892431153400897 -0.09147241962839342 0.0085451203904656 0.038905751040007104
0.1375573155481 0.008965792393577199 0.04067239931338581 0.9886391216605959 -0.09570976932771388 0.003142500574051273 0.019809140629149253 -0.002650014648197678 -0.012463242037702528
 0.9886391216605959 -0.09570976932771388 0.008974798679950002 0.040671682024505273 -0.002650210211531129 -0.012463231873102353 0.003088543928284799 0.01981766202895186
 0.003142500574051273 0.019809140629149253 -0.002650210211531129 -0.012463231873102353 0.008965326697125665 0.04067065092413003 0.9886390102256644 -0.09571161180789933
 -0.002650014648197678 -0.012463242037702528 0.003088543928284799 0.01981766202895186 0.9886390102256644 -0.09571161180789933 0.008975062166735465 0.04066982844279619
0.1438099208003 0.009410070742731168 0.042426797370188014 0.9880136297323565 -0.09993762134982116 0.0033773022305830613 0.0206741733227123 -0.0028422769824786942 -0.01299843135608269
 0.9880136297323565 -0.09993762134982116 0.009419919250655684 0.04242602851319744 -0.002842490656375069 -0.01299841946144151 0.003318431758096288 0.020683637895306677
 0.0033773022305830613 0.0206741733227123 -0.002842490656375069 -0.01299841946144151 0.009409563246560244 0.04242497586197325 0.9880135080006314 -0.09993954843086175
 -0.0028422769824786942 -0.01299843135608269 0.003318431758096288 0.020683637895306677 0.9880135080006314 -0.09993954843086175 0.009420207161510338 0.042424090413657245
0.1500625260525 0.009869348976965994 0.04417122107840427 0.9873669097233839 -0.10415409747771774 0.00362113432794356 0.02153528831083694 -0.003041842884620865 -0.01353005895696544
 0.9873669097233839 -0.10415409747771774 0.009880078023718188 0.04417039785735757 -0.0030420754756287434 -0.013530045168363466 0.003557145842841617 0.021545764864617546
 0.00362113432794356 0.02153528831083694 -0.0030420754756287434 -0.013530045168363466 0.009868798024124322 0.044169327231814264 0.9873667772068672 -0.10415610928400189
 -0.003041842884620865 -0.01353005895696544 0.003557145842841617 0.021545764864617546 0.9873667772068672 -0.10415610928400189 0.009880391402606858 0.04416837520626772
0.15631513130469998 0.010343461764026875 0.045905513704723656 0.986699131144887 -0.10835907824759339 0.003873910516578514 0.022392388724597877 -0.0032486289039931164 -0.01405803488926764
 0.986699131144887 -0.10835907824759339 0.010355109775121394 0.04590463315402061 -0.003248881219805335 -0.014058019035722924 0.003804601195685079 0.022403948458344963
