! Created with skrf 1.8.0 (http://scikit-rf.org).
# GHz S RI R 50.0 
!freq ReS11 ImS11 ReS12 ImS12 ReS13 ImS13
! ReS14 ImS14
! ReS21 ImS21 ReS22 ImS22 ReS23 ImS23
! ReS24 ImS24
! ReS31 ImS31 ReS32 ImS32 ReS33 ImS33
! ReS34 ImS34
! ReS41 ImS41 ReS42 ImS42 ReS43 ImS43
! ReS44 ImS44
!
0.0 0.001274935267749 0.0 0.9987250647237 0.0 4.896319914748e-05 0.0 -4.896319993504e-05 5.996262607645862e-21
 0.9987250647237 0.0 0.001274935267768 0.0 -4.896319993579e-05 5.996262607737712e-21 4.896319914678e-05 0.0
 4.896319914748e-05 0.0 -4.896319993579e-05 5.996262607737712e-21 0.001274935264569 0.0 0.9987250647205 0.0
 -4.896319993504e-05 5.996262607645862e-21 4.896319914678e-05 0.0 0.9987250647205 0.0 0.00127493526455 0.0
0.005 0.0013711211533753503 0.001038990603657056 0.9986034636966036 -0.0026717489457400113 6.888635571693192e-05 0.0005663165536099451 -6.680551830644869e-05 -0.0003509051855725717
 0.9986034636966036 -0.0026717489457400113 0.0013711268729837069 0.0010389872206828907 -6.680376511759614e-05 -0.00035090381027182334 6.886399691542809e-05 0.0005663251592051542
 6.888635571693192e-05 0.0005663165536099451 -6.680376511759614e-05 -0.00035090381027182334 0.001371122520745301 0.0010390570242956717 0.9986034640318111 -0.0026716818889668432
 -6.680551830644869e-05 -0.0003509051855725717 6.886399691542809e-05 0.0005663251592051542 0.9986034640318111 -0.0026716818889668432 0.0013711261739966364 0.001039054912199503
0.006252605252188 0.0013961573462002972 0.0013028730495998771 0.9985716407718315 -0.003340371274560982 7.447035810880144e-05 0.0007081699789346197 -7.175691438402445e-05 -0.0004391027753883679
 0.9985716407718315 -0.003340371274560982 0.001396166287100953 0.0013028687338397552 -7.175418645450772e-05 -0.0004391010784521578 7.443542525517675e-05 0.0007081811280825963
 7.447035810880144e-05 0.0007081699789346197 -7.175418645450772e-05 -0.0004391010784521578 0.0013961594053101547 0.001302956070857205 0.9985716412173224 -0.0033402874536560905
 -7.175691438402445e-05 -0.0004391027753883679 7.443542525517675e-05 0.0007081811280825963 0.9985716412173224 -0.0033402874536560905 0.0013961651154843504 0.0013029533511235423
0.01250521050438 0.001526844536560007 0.002633486963959364 0.9984045610639268 -0.00668174388340877 0.00010592298670442443 0.0014166872121558767 -9.938803575833723e-05 -0.0008804844124716675
 0.9984045610639268 -0.00668174388340877 0.0015268802423071208 0.002633477445474197 -9.9377287149161e-05 -0.0008804812583399084 0.0001057837091529093 0.001416713704175648
 0.00010592298670442443 0.0014166872121558767 -9.9377287149161e-05 -0.0008804812583399084 0.0015268522172797031 0.0026336527019991296 0.9984045622969918 -0.006681576488600038
 -9.938803575833723e-05 -0.0008804844124716675 0.0001057837091529093 0.001416713704175648 0.9984045622969918 -0.006681576488600038 0.00152687501200794 0.0026336464649187132
0.01875781575657 0.0016672427980158385 0.003983476590437811 0.9982236462502004 -0.01003229508829355 0.00014338693345654943 0.0021260819506329466 -0.00013193339933107657 -0.001323497698893071
 0.9982236462502004 -0.01003229508829355 0.0016673230399155464 0.003983460902618656 -0.00013190943150392424 -0.0013234933649927303 0.00014307412179737623 0.0021261287082069646
 0.00014338693345654943 0.0021260819506329466 -0.00013190943150392424 -0.0013234933649927303 0.0016672596464251375 0.003983724858090127 0.9982236486021989 -0.010032044212519974
 -0.00013193339933107657 -0.001323497698893071 0.00014307412179737623 0.0021261287082069646 0.9982236486021989 -0.010032044212519974 0.0016673108560864458 0.003983714273917883
0.02501042100875 0.0018175928648141333 0.005350983443586894 0.9980287110870288 -0.013393689336743444 0.00018692914035060675 0.002836417431610828 -0.00016946788193860144 -0.0017679589846520982
 0.9980287110870288 -0.013393689336743444 0.001817735382580391 0.00535096054480888 -0.00016942555835568052 -0.0017679537915101398 0.00018637360802934076 0.0028364900697255106
 0.00018692914035060675 0.002836417431610828 -0.00016942555835568052 -0.0017679537915101398 0.0018176224273329042 0.005351314060002453 0.9980287148915401 -0.013393355031197804
 -0.00016946788193860144 -0.0017679589846520982 0.00018637360802934076 0.0028364900697255106 0.9980287148915401 -0.013393355031197804 0.0018177133511185068 0.005351298268606786
0.03126302626094 0.0019781252515387237 0.00673507109456672 0.997819559555752 -0.016766662843994168 0.0002366173228248467 0.0035476891310789412 -0.000212064557567458 -0.0022137489120810424
 0.997819559555752 -0.016766662843994168 0.001978347761054139 0.006735039868440478 -0.0002119987928233981 -0.002213743224036651 0.00023574981562406397 0.0035477939591642385
 0.0002366173228248467 0.0035476891310789412 -0.0002119987928233981 -0.002213743224036651 0.0019781710723235355 0.006735483862689368 0.997819565144861 -0.016766245140470724
 -0.000212064557567458 -0.0022137489120810424 0.00023574981562406397 0.0035477939591642385 0.997819565144861 -0.016766245140470724 0.0019783129832409165 0.006735461973848105
0.037515631513130004 0.002149065655572223 0.00813514411955222 0.9975959903742039 -0.02015160459573334 0.0002925192872992839 0.004259866247009306 -0.00025979528066702 -0.0026607709216008757
 0.9975959903742039 -0.02015160459573334 0.0021493858534840974 0.008135103374677438 -0.00025970103483622916 -0.0026607651470203757 0.00029127044970650955 0.004260010275163819
 0.0002925192872992839 0.004259866247009306 -0.00025970103483622916 -0.0026607651470203757 0.002149131281705846 0.00813563880658333 0.9975959980835822 -0.02015110352577246
 -0.00025979528066702 -0.0026607709216008757 0.00029127044970650955 0.004260010275163819 0.9975959980835822 -0.02015110352577246 0.0021493354300154825 0.008135609900268688
0.043768236765320004 0.0023306370542468093 0.00955077126044438 0.9973577992043892 -0.02354873313233465 0.00035470262843418884 0.004972904299053369 -0.0003127309009234247 -0.0031089386405970918
 0.9973577992043892 -0.02354873313233465 0.0023310726209803904 0.009550719730102004 -0.00031260317613690893 -0.003108933231973772 0.0003530029856846644 0.0049730952454682936
 0.00035470262843418884 0.004972904299053369 -0.00031260317613690893 -0.003108933231973772 0.0023307260303944122 0.009551347622583495 0.9973578093676561 -0.02354814870211138
 -0.0003127309009234247 -0.0031089386405970918 0.0003530029856846644 0.0049730952454682936 0.9973578093676561 -0.02354814870211138 0.002331003646085918 0.009551310749135867
0.050020842017509996 0.002523060682976849 0.010981612373599004 0.9971047797431501 -0.02695816954331267 0.0004232345492879357 0.0056867503543559066 -0.00037094135816934364 -0.0035581706466448313
 0.9971047797431501 -0.02695816954331267 0.0025236292850401255 0.010981548715305526 -0.00037077519638141785 -0.003558166100631809 0.0004210144977311048 0.005686996653266313
 0.0004232345492879357 0.0056867503543559066 -0.00037077519638141785 -0.003558166100631809 0.002523176554797265 0.010982270132168116 0.9971047926954313 -0.026957501757003403
 -0.00037094135816934364 -0.0035581706466448313 0.0004210144977311048 0.005686996653266313 0.9971047926954313 -0.026957501757003403 0.0025235388496610096 0.010982224312528634
0.055454545454549996 0.002699266880445709 0.012237189998676507 0.9968726945417447 -0.029931115924259954 0.00048799850207224794 0.006307714813125515 -0.00042586548004456295 -0.003949369808357503
 0.9968726945417447 -0.029931115924259954 0.0026999654324225885 0.01223711465133792 -0.00042566191853174717 -0.003949366449630707 0.0004852695691124853 0.006308016626975181
 0.00048799850207224794 0.006307714813125515 -0.00042566191853174717 -0.003949366449630707 0.0026994090048763773 0.012237918241144338 0.9968727101907768 -0.029930375699136473
 -0.00042586548004456295 -0.003949369808357503 0.0004852695691124853 0.006308016626975181 0.9968727101907768 -0.029930375699136473 0.002699853981295785 0.012237863829176552
0.056273447269699996 0.0027265565505087846 0.012427382548427242 0.9968367243519315 -0.03037997329146761 0.0004981817461799186 0.00640134555575916 -0.00043449571335670803 -0.004008387929371299
 0.9968367243519315 -0.03037997329146761 0.0027272758426452643 0.012427305343432194 -0.00043428619476345513 -0.004008384786796314 0.0004953715485447399 0.006401656365682472
 0.0004981817461799186 0.00640134555575916 -0.00043428619476345513 -0.004008384786796314 0.0027267028633996765 0.012428121392144307 0.9968367404292019 -0.030379222148543925
 -0.00043449571335670803 -0.004008387929371299 0.0004953715485447399 0.006401656365682472 0.9968367404292019 -0.030379222148543925 0.0027271610331249018 0.012428065618016225
0.06252605252188 0.0029413437278686255 0.013887832386582798 0.9965534244623261 -0.033814161877239166 0.0005796103156843481 0.007116626541086807 -0.0005034621570706649 -0.004459512462623876
 0.9965534244623261 -0.033814161877239166 0.0029422313547021618 0.013887740139318823 -0.0005032043990325674 -0.004459511308498066 0.0005761400995931381 0.007117011753172231
 0.0005796103156843481 0.007116626541086807 -0.0005032043990325674 -0.004459511308498066 0.0029415240273745658 0.013888651975845682 0.996553444001963 -0.0338133273676799
 -0.0005034621570706649 -0.004459512462623876 0.0005761400995931381 0.007117011753172231 0.996553444001963 -0.0338133273676799 0.0029420892531380914 0.013888585209838086
0.06877865777407 0.003167640511418555 0.015362736250681821 0.9962546708587982 -0.03726072253453083 0.0006675856816326804 0.007832526262856847 -0.0005779079974485994 -0.004911466377797634
 0.9962546708587982 -0.03726072253453083 0.0031687141088529306 0.015362627388210837 -0.0005775971536561428 -0.004911467841303861 0.0006633854404126827 0.007832996509302623
 0.0006675856816326804 0.007832526262856847 -0.0005775971536561428 -0.004911467841303861 0.0031678583423571283 0.015363636213724084 0.9962546941989041 -0.037259804642234357
 -0.0005779079974485994 -0.004911466377797634 0.0006633854404126827 0.007832996509302623 0.9962546941989041 -0.037259804642234357 0.003168541792480631 0.015363557389473186
0.07503126302626001 0.003405664513918528 0.01685188480286305 0.9959402538902309 -0.04071961963832126 0.0007621725292517454 0.008548974518666663 -0.0006578996401117189 -0.005364171428204821
 0.9959402538902309 -0.04071961963832126 0.003406941710734708 0.016851757674236214 -0.0006575308999985526 -0.005364176182694163 0.0007571721243650406 0.008549541181163247
 0.0007621725292517454 0.008548974518666663 -0.0006575308999985526 -0.005364176182694163 0.0034059234209146577 0.016852864735165684 0.9959402813708308 -0.040718618341220654
 -0.0006578996401117189 -0.005364171428204821 0.0007571721243650406 0.008549541181163247 0.9959402813708308 -0.040718618341220654 0.0034067362525975146 0.016852772757364246
0.08128386827845 0.0036556327107831865 0.018355080050081466 0.9956099636403011 -0.044190799607036736 0.0008634347453112272 0.00926589830405151 -0.0007435025611164038 -0.005817548632837117
 0.9956099636403011 -0.044190799607036736 0.0036571311298625986 0.018354932925695622 -0.0007430711494159078 -0.005817557395809093 0.0008575639101796134 0.009266573522222576
 0.0008634347453112272 0.00926589830405151 -0.0007430711494159078 -0.005817557395809093 0.0036559362372061686 0.018356139514779317 0.9956099956027791 -0.0441897148762167
 -0.0007435025611164038 -0.005817548632837117 0.0008575639101796134 0.009266573522222576 0.9956099956027791 -0.0441897148762167 0.0036568895981886115 0.018356033259292713
0.08753647353064001 0.003917761455929487 0.01987213190450045 0.9952635900685526 -0.04767419429187658 0.000971435362809062 0.009983222049160611 -0.0008347812745319317 -0.006271518038258774
 0.9952635900685526 -0.04767419429187658 0.003919498715417275 0.019871962975389745 -0.0008342824509602258 -0.006271531571345403 0.0009646237074855903 0.009984018728980169
 0.000971435362809062 0.009983222049160611 -0.0008342824509602258 -0.006271531571345403 0.003918113143786107 0.019873270427427172 0.9952636268558458 -0.04767302609604418
 -0.0008347812745319317 -0.006271518038258774 0.0009646237074855903 0.009984018728980169 0.9952636268558458 -0.04767302609604418 0.00391921817384318 0.01987314874124979
0.09378907878283 0.004192266476157395 0.02140285573401265 0.9949009231326685 -0.05116972337791729 0.0010862365066049943 0.010700867796130123 -0.000931799297936049 -0.006725998541832593
 0.9949009231326685 -0.05116972337791729 0.004194260190939977 0.021402663111089307 -0.0009312283569926277 -0.006726017650775618 0.0010784135234427647 0.010701799618255547
 0.0010862365066049943 0.010700867796130123 -0.0009312283569926277 -0.006726017650775618 0.004192669866393724 0.021404072808634888 0.9949009650904869 -0.05116847167809093
 -0.000931799297936049 -0.006725998541832593 0.0010784135234427647 0.010701799618255547 0.9949009650904869 -0.05116847167809093 0.0041939376989884 0.021403934509855303
0.100041684035 0.004479362853258066 0.022947070558439593 0.994521752900589 -0.054677296141746864 0.0012078993418349437 0.011418755324349434 -0.0010346191143064108 -0.0071809077691359175
 0.994521752900589 -0.054677296141746864 0.004481630635792568 0.0229468522717985 -0.0010339713851004574 -0.0071809333037679175 0.001198994411842825 0.011419836752500407
 0.0012078993418349437 0.011418755324349434 -0.0010339713851004574 -0.0071809333037679175 0.00447982148436928 0.022948365643642863 0.9945218003760378 -0.0546759608929623
 -0.0010346191143064108 -0.0071809077691359175 0.001198994411842825 0.011419836752500407 0.9945218003760378 -0.0546759608929623 0.004481263248231389 0.022948209521349582
0.1059090909091 0.004760415052896338 0.02440826310524585 0.9941507454671612 -0.05797964594269848 0.0013283612392629813 0.012092563166778656 -0.0011364359903905015 -0.007608107173408387
 0.9941507454671612 -0.05797964594269848 0.004762956036320751 0.02440801887153379 -0.0011357119862099724 -0.007608139550017507 0.0013183766964925219 0.012093798843629216
 0.0013283612392629813 0.012092563166778656 -0.0011357119862099724 -0.007608139550017507 0.0047609287378801626 0.024409630869881755 0.9941507984383438 -0.057978232247777865
 -0.0011364359903905015 -0.007608107173408387 0.0013183766964925219 0.012093798843629216 0.9941507984383438 -0.057978232247777865 0.004762543836404379 0.024409456894911124
0.1062942892872 0.00477926499230766 0.02450459769728468 0.9941258696506984 -0.05819681275984772 0.0013364840225266502 0.012136802249128447 -0.0011433021328064337 -0.007636161980239157
 0.9941258696506984 -0.05819681275984772 0.004781824454051514 0.024504351695291186 -0.001142572979014939 -0.007636194834438382 0.0013264264221220336 0.012138048538264258
 0.0013364840225266502 0.012136802249128447 -0.001142572979014939 -0.007636194834438382 0.004779782400536347 0.024505970214549398 0.9941259229934344 -0.0581953939135619
 -0.0011433021328064337 -0.007636161980239157 0.0013264264221220336 0.012138048538264258 0.9941259229934344 -0.0581953939135619 0.004781409221215726 0.024505795028759204
0.11254689453939999 0.00509218658344177 0.026075259727546447 0.9937130639674129 -0.06172816530919323 0.0014720496412823725 0.012854924096233062 -0.0012579086474117924 -0.008091676002221802
 0.9937130639674129 -0.06172816530919323 0.005095055335803624 0.026074983876031726 -0.0012570934672265356 -0.008091717113890545 0.0014607685499283653 0.012856351300772586
 0.0014720496412823725 0.012854924096233062 -0.0012570934672265356 -0.008091717113890545 0.005092766302224223 0.026076709063592076 0.9937131235297952 -0.06172666281021379
 -0.0012579086474117924 -0.008091676002221802 0.0014607685499283653 0.012856351300772586 0.9937131235297952 -0.06172666281021379 0.005094589303722361 0.026076513545054796
0.11879949979160001 0.0054183405568506305 0.027658879678088655 0.9932831268326586 -0.06527123853382644 0.0016146541792939149 0.013573034364590581 -0.0013784977946047624 -0.008547363175975332
 0.9932831268326586 -0.06527123853382644 0.005421536212441138 0.027658571759404966 -0.0013775920207274874 -0.008547413526997201 0.0016020786874081097 0.01357465934648984
 0.0016146541792939149 0.013573034364590581 -0.0013775920207274874 -0.008547413526997201 0.005418986116432933 0.02766040518243557 0.9932831929697182 -0.06526965232236773
 -0.0013784977946047624 -0.008547363175975332 0.0016020786874081097 0.01357465934648984 0.9932831929697182 -0.06526965232236773 0.005421016423048049 0.027660188032394485
0.1250521050438 0.005757939032698509 0.02925528038190433 0.9928358497135856 -0.06882591045619832 0.0017643544566095105 0.014291044574478044 -0.0015051275098839567 -0.009003135319754248
 0.9928358497135856 -0.06882591045619832 0.0057614792063965265 0.029254938094010276 -0.0015041266096167932 -0.009003195935950984 0.0017504135738460073 0.014292885011233741
 0.0017643544566095105 0.014291044574478044 -0.0015041266096167932 -0.009003195935950984 0.005758653959523957 0.02925688136655536 0.9928359227831112 -0.06882424046771617
 -0.0015051275098839567 -0.009003135319754248 0.0017504135738460073 0.014292885011233741 0.9928359227831112 -0.06882424046771617 0.005760902697227042 0.029256641256486703
0.131304710296 0.006111193266273455 0.030864283964659414 0.9923710246474635 -0.07239205285463571 0.0019212060824537723 0.015008864311935691 -0.0016378544834483692 -0.009458902699063625
 0.9923710246474635 -0.07239205285463571 0.006115095576281888 0.030863904920112813 -0.0016367539587772487 -0.009458974650141522 0.0019058287465303623 0.015010938704459739
 0.0019212060824537723 0.015008864311935691 -0.0016367539587772487 -0.009458974650141522 0.006111981082691383 0.030865959706030982 0.9923711050102454 -0.07239029901755058
 -0.0016378544834483692 -0.009458902699063625 0.0019058287465303623 0.015010938704459739 0.9923711050102454 -0.07239029901755058 0.006114459380699694 0.03086569527737713
0.1375573155481 0.006391278855577445 0.032274230261164105 0.9919755031715278 -0.07575798762610803 0.0020637936351438667 0.015704236973373628 -0.0017552836485012068 -0.009892408313647757
 0.9919755031715278 -0.07575798762610803 0.006395561229350178 0.032273820393275816 -0.0017540768112879667 -0.00989249151757628 0.0020469407049174887 0.01570654019716813
 0.0020637936351438667 0.015704236973373628 -0.0017540768112879667 -0.00989249151757628 0.006392142504611847 0.032275980171047124 0.9919755911568977 -0.0757561499216613
 -0.0017552836485012068 -0.009892408313647757 0.0020469407049174887 0.01570654019716813 0.9919755911568977 -0.0757561499216613 0.006394863018425106 0.032275698199653154
0.1438099208003 0.006680990705002482 0.0336776951235705 0.9915664743242005 -0.07911637570289401 0.00221215118620021 0.016397460764671586 -0.0018774344999671663 -0.010323954301548238
 0.9915664743242005 -0.07911637570289401 0.006685670792905216 0.03367725265301935 -0.0018761165071958133 -0.010324049794675412 0.002193757282253808 0.016400009568186467
 0.00221215118620021 0.016397460764671586 -0.0018761165071958133 -0.010324049794675412 0.006681933598382252 0.03367951846861993 0.9915665702906237 -0.0791144540663167
 -0.0018774344999671663 -0.010323954301548238 0.002193757282253808 0.016400009568186467 0.9915665702906237 -0.0791144540663167 0.006684907710170324 0.03367921821192209
0.1500625260525 0.006980239052376211 0.03507459012801107 0.9911440309723463 -0.0824671634392363 0.0023662357572975484 0.01708848648563472 -0.0020042653373466917 -0.010753493263214455
 0.9911440309723463 -0.0824671634392363 0.006985334506971823 0.03507411319313155 -0.0020028313527448807 -0.010753602123259043 0.0023462358037179307 0.01709129822695866
 0.0023662357572975484 0.01708848648563472 -0.0020028313527448807 -0.010753602123259043 0.006981264591269001 0.03507648614807434 0.9911441352811 -0.08246515780119332
 -0.0020042653373466917 -0.010753493263214455 0.0023462358037179307 0.01709129822695866 0.9911441352811 -0.08246515780119332 0.006984503699639053 0.03507616682195847
0.15631513130469998 0.00728893363956499 0.0364648296920721 0.9907082662999396 -0.08581029681365253 0.0025260039531219817 0.017777265626430408 -0.0021357340281615783 -0.011180978709331144
