! Created with skrf 1.8.0 (http://scikit-rf.org).
# GHz S RI R 50.0 
!freq ReS11 ImS11 ReS12 ImS12 ReS13 ImS13
! ReS14 ImS14
! ReS21 ImS21 ReS22 ImS22 ReS23 ImS23
! ReS24 ImS24
! ReS31 ImS31 ReS32 ImS32 ReS33 ImS33
! ReS34 ImS34
! ReS41 ImS41 ReS42 ImS42 ReS43 ImS43
! ReS44 ImS44
!
0.0 0.001951029095658 0.0 0.9980489709043 0.0 7.589824432146e-05 0.0 -7.589824369914e-05 9.294854120705756e-21
 0.9980489709043 0.0 0.001951029095617 0.0 -7.589824369885e-05 9.294854120670242e-21 7.589824431996e-05 0.0
 7.589824432146e-05 0.0 -7.589824369885e-05 9.294854120670242e-21 0.001951029088553 0.0 0.9980489708972 0.0
 -7.589824369914e-05 9.294854120705756e-21 7.589824431996e-05 0.0 0.9980489708972 0.0 0.001951029088528 0.0
0.005 0.0021006017609374894 0.0015953056435501856 0.9978594803874388 -0.004085352137175536 0.00010715429333433908 0.0008324870020294796 -0.00010391688480730242 -0.0005229284576367629
 0.9978594803874388 -0.004085352137175536 0.0021006245609581425 0.001595292234261195 -0.00010391938049619417 -0.0005229302479966157 0.00010700967910048176 0.000832542198262182
 0.00010715429333433908 0.0008324870020294796 -0.00010391938049619417 -0.0005229302479966157 0.0021006015013950224 0.0015953730056158198 0.9978594807917835 -0.004085285078543567
 -0.00010391688480730242 -0.0005229284576367629 0.00010700967910048176 0.000832542198262182 0.9978594807917835 -0.004085285078543567 0.0021006256181927705 0.0015953589790252956
0.006252605252188 0.0021402703843728756 0.0020003428960707046 0.9978088376107853 -0.005107617082762594 0.00011633744441366094 0.0010409840463611658 -0.00011202890718098004 -0.0006543087151837652
 0.9978088376107853 -0.005107617082762594 0.0021403060256960627 0.002000325845089814 -0.00011203279159268862 -0.0006543109185692372 0.00011611150304792774 0.0010410557971768622
 0.00011633744441366094 0.0010409840463611658 -0.00011203279159268862 -0.0006543109185692372 0.0021402698890499224 0.0020004270874958937 0.9978088381528785 -0.00510753325601927
 -0.00011202890718098004 -0.0006543087151837652 0.00011611150304792774 0.0010410557971768622 0.9978088381528785 -0.00510753325601927 0.002140307587638602 0.002000409284004913
0.01250521050438 0.0023516563216220386 0.004041897232947364 0.997536866867634 -0.010215481827481656 0.0001703376835321478 0.0020821076722069717 -0.0001591349009185605 -0.0013114872925516395
 0.997536866867634 -0.010215481827481656 0.0023517986526191826 0.00404186019796362 -0.00015915021984393556 -0.0013114913110981357 0.00016943678439957334 0.0020822813947381984
 0.0001703376835321478 0.0020821076722069717 -0.00015915021984393556 -0.0013114913110981357 0.0023516537904421605 0.004042065196895879 0.9975368684725212 -0.010215314416478265
 -0.0001591349009185605 -0.0013114872925516395 0.00016943678439957334 0.0020822813947381984 0.9975368684725212 -0.010215314416478265 0.002351804313459497 0.004042026841435229
0.01875781575657 0.0025857384632921167 0.006111710027746026 0.9972326574283574 -0.015335911214507014 0.00023803588622582145 0.0031239846948170817 -0.0002173787559850076 -0.0019705228064453204
 0.9972326574283574 -0.015335911214507014 0.0025860583202013503 0.006111649831524794 -0.0002174129310991488 -0.001970528154334126 0.00023601237530473704 0.0031242976560382
 0.00023803588622582145 0.0031239846948170817 -0.0002174129310991488 -0.001970528154334126 0.0025857323633762257 0.006111961482996844 0.9972326606133955 -0.015335660250019824
 -0.0002173787559850076 -0.0019705228064453204 0.00023601237530473704 0.0031242976560382 0.9972326606133955 -0.015335660250019824 0.0025860705841637723 0.006111899562295518
0.02501042100875 0.002843046113764092 0.008206764399630853 0.9968957900858018 -0.02047126507919305 0.00031957043718255186 0.004166575634123608 -0.0002869154913669412 -0.0026310443445716767
 0.9968957900858018 -0.02047126507919305 0.002843614216650841 0.008206677643972805 -0.000286975858141823 -0.0026310504314481847 0.00031597671840103813 0.00416707195942876
 0.00031957043718255186 0.004166575634123608 -0.000286975858141823 -0.0026310504314481847 0.0028430349234928372 0.008207099014611313 0.9968957953753331 -0.02047093056655191
 -0.0002869154913669412 -0.0026310443445716767 0.00031597671840103813 0.00416707195942876 0.9968957953753331 -0.02047093056655191 0.0028436355673022327 0.00820701027703564
0.03126302626094 0.003124086100867605 0.010325446393326604 0.9965258280205153 -0.025622479321899087 0.00041507886455284656 0.005209743508328926 -0.00036789408717318464 -0.003292767204463709
 0.9965258280205153 -0.025622479321899087 0.003124973097356142 0.010325329463116064 -0.00036798790848642645 -0.003292773334589809 0.00040946702655373046 0.0052104742224569275
 0.00041507886455284656 0.005209743508328926 -0.00036798790848642645 -0.003292773334589809 0.003124068303197774 0.010325863819541006 0.9965258359438787 -0.025622061207168825
 -0.00036789408717318464 -0.003292767204463709 0.00040946702655373046 0.0052104742224569275 0.9965258359438787 -0.025622061207168825 0.0031250059949203077 0.01032574477942981
0.037515631513130004 0.003429352708431258 0.012466657190041414 0.9961223272854771 -0.030789953666438035 0.0005246963197868508 0.006253311597292781 -0.0004604585059564082 -0.003955435205106768
 0.9961223272854771 -0.030789953666438035 0.003430629205348219 0.012466506254393928 -0.0004605929787188575 -0.003955440577089057 0.0005166179937095575 0.006254334689042861
 0.0005246963197868508 0.006253311597292781 -0.0004605929787188575 -0.003955440577089057 0.0034293267861470007 0.012467157038779542 0.9961223383759992 -0.03078945185948581
 -0.0004604585059564082 -0.003955435205106768 0.0005166179937095575 0.006254334689042861 0.9961223383759992 -0.03078945185948581 0.003430676084352184 0.012467003977699774
0.043768236765320004 0.0037593314629315038 0.014629542964368077 0.995684841148616 -0.035973821759470545 0.0006485548213160847 0.007297081045991422 -0.0005647480125479876 -0.004618803168920199
 0.995684841148616 -0.035973821759470545 0.0037610680526754775 0.01462935397652654 -0.0005649302712346267 -0.004618806875607645 0.0006375611378485032 0.007298461539946277
 0.0006485548213160847 0.007297081045991422 -0.0005649302712346267 -0.004618806875607645 0.003759295899677273 0.01463012479400297 0.9956848559484337 -0.03597323614652932
 -0.0005647480125479876 -0.004618803168920199 0.0006375611378485032 0.007298461539946277 0.9956848559484337 -0.03597323614652932 0.003761131325537755 0.014629933760356614
0.050020842017509996 0.004114500846493437 0.016813383231509823 0.9952129223689948 -0.041174062781904615 0.0007867827727672551 0.008340838154016695 -0.000680897239488599 -0.005282629728309882
 0.9952129223689948 -0.041174062781904615 0.004116768130910872 0.016813151927613058 -0.0006811343582239171 -0.005282630756756858 0.0007724243721504869 0.008342648184641477
 0.0007867827727672551 0.008340838154016695 -0.0006811343582239171 -0.005282630756756858 0.004114454122984628 0.016814046561501147 0.9952129414286224 -0.04117339321159983
 -0.000680897239488599 -0.005282629728309882 0.0007724243721504869 0.008342648184641477 0.9952129414286224 -0.04117339321159983 0.004116850185375657 0.016813813369182567
0.055454545454549996 0.004443978611349875 0.01872772430158922 0.9947745004337468 -0.04570643489206423 0.000918673540456633 0.00924771023620746 -0.0007915670311541359 -0.005859700363496182
 0.9947745004337468 -0.04570643489206423 0.004446764447324729 0.018727452590758868 -0.0007918575238966908 -0.005859698159672204 0.0009010258146258238 0.009249957707266998
 0.000918673540456633 0.00924771023620746 -0.0007918575238966908 -0.005859698159672204 0.004443920951562126 0.018728458032806407 0.9947745236503106 -0.04570569221276995
 -0.0007915670311541359 -0.005859700363496182 0.0009010258146258238 0.009249957707266998 0.9947745236503106 -0.04570569221276995 0.00444686474350573 0.018728184619633173
0.056273447269699996 0.004495333126686071 0.01901753608164168 0.9947061245957848 -0.04639055618194601 0.0009395045976221255 0.00938435799306004 -0.0008090361437043146 -0.005946673816125088
 0.9947061245957848 -0.04639055618194601 0.004498201739942641 0.019017257978558074 -0.0008093351373033476 -0.005946671047595121 0.0009213316725840137 0.009386676879309473
 0.0009395045976221255 0.00938435799306004 -0.0008093351373033476 -0.005946671047595121 0.0044952737186751334 0.019018280386809378 0.9947061484759127 -0.04638980247110918
 -0.0008090361437043146 -0.005946673816125088 0.0009213316725840137 0.009386676879309473 0.9947061484759127 -0.04638980247110918 0.004498304938943951 0.019018000612628514
0.06252605252188 0.004902294748076913 0.021241408092649267 0.9941640033369641 -0.051623111741601245 0.001106840436617776 0.010427406411425864 -0.0009492899041339581 -0.006610692781964761
 0.9941640033369641 -0.051623111741601245 0.004905835378364769 0.021241078484826533 -0.000949657728648959 -0.006610684991948993 0.0010844027967456668 0.010430320730902573
 0.001106840436617776 0.010427406411425864 -0.000949657728648959 -0.006610684991948993 0.004902221124284378 0.0212422327961817 0.9941640326096352 -0.05162227368241284
 -0.0009492899041339581 -0.006610692781964761 0.0010844027967456668 0.010430320730902573 0.9941640326096352 -0.05162227368241284 0.004905962058920799 0.02124190177655326
0.06877865777407 0.005335846485537818 0.023484436396350592 0.993586116695197 -0.05687148750354588 0.0012889058781897485 0.01146974126784233 -0.0011017787876829337 -0.00727444129270851
 0.993586116695197 -0.05687148750354588 0.005340129896683718 0.023484050351880777 -0.001102222340411251 -0.007274427150994256 0.0012617530303309322 0.01147334492995654
 0.0012889058781897485 0.01146974126784233 -0.001102222340411251 -0.007274427150994256 0.005335757105845953 0.023485340873480563 0.9935861519453967 -0.056870564860166374
 -0.0011017787876829337 -0.00727444129270851 0.0012617530303309322 0.01147334492995654 0.9935861519453967 -0.056870564860166374 0.005340282369856906 0.023484953699910514
0.07503126302626001 0.005796443453976843 0.025746077331593505 0.9929720259664109 -0.06213540112634004 0.0014858117092297865 0.012511113238509466 -0.00126661799593334 -0.00793767067397624
 0.9929720259664109 -0.06213540112634004 0.0058015405065971245 0.02574562968720504 -0.0012671441151987366 -0.007937648744719616 0.0014534929497104993 0.012515507556181589
 0.0014858117092297865 0.012511113238509466 -0.0012671441151987366 -0.007937648744719616 0.0057963367664579804 0.025747060916039552 0.992972067793207 -0.06213439362899339
 -0.00126661799593334 -0.00793767067397624 0.0014534929497104993 0.012515507556181589 0.992972067793207 -0.06213439362899339 0.005801721055697059 0.02574661242970444
0.08128386827845 0.006284535028149308 0.028025798931773985 0.9923212961543024 -0.06741453742146683 0.0016976636800897775 0.01355126638778669 -0.0014439174983770981 -0.008600128502344262
 0.9923212961543024 -0.06741453742146683 0.006290516700524155 0.028025284286935053 -0.0014445329630423979 -0.008600097244182826 0.00165972819646878 0.01355656014754985
 0.0016976636800897775 0.01355126638778669 -0.0014445329630423979 -0.008600097244182826 0.0062844094673409154 0.02802686090702364 0.9923213451721354 -0.06741344477548714
 -0.0014439174983770981 -0.008600128502344262 0.00165972819646878 0.01355656014754985 0.9923213451721354 -0.06741344477548714 0.006290727580836515 0.02802634569244975
0.08753647353064001 0.0068005647022044615 0.030323075726409097 0.9916334964292282 -0.07270855359304194 0.0019245622776947688 0.014589938594556425 -0.0016337818584026378 -0.009261558356880277
 0.9916334964292282 -0.07270855359304194 0.006807502111726878 0.03032248843641233 -0.0016344933872694083 -0.009261516123064091 0.0018805592585719709 0.014596248124632972
 0.0019245622776947688 0.014589938594556425 -0.0016344933872694083 -0.009261516123064091 0.006800418686986298 0.03032421533173856 0.9916335532695142 -0.07270737547360244
 -0.0016337818584026378 -0.009261558356880277 0.0018805592585719709 0.014596248124632972 0.9916335532695142 -0.07270737547360244 0.006807745549244873 0.030323627709321618
0.09378907878283 0.007344969908806148 0.03263738506859079 0.990908200550756 -0.07801708296939895 0.002166602506038524 0.0156268618874491 -0.0018363100533948778 -0.009921699676893093
 0.990908200550756 -0.07801708296939895 0.007352934332514674 0.03263671923664932 -0.001837124304390214 -0.009921644715457166 0.0021160812573820177 0.015634311123810272
 0.002166602506038524 0.0156268618874491 -0.001837124304390214 -0.009921644715457166 0.007344801839594447 0.03263860149422036 0.9909082658628897 -0.07801581902705487
 -0.0018363100533948778 -0.009921699676893093 0.0021160812573820177 0.015634311123810272 0.9909082658628897 -0.07801581902705487 0.0073532125227120035 0.03263793551176851
0.100041684035 0.007918181807129828 0.0349682044552487 0.9901449872642777 -0.08333973775980785 0.002423873671228274 0.016661762726944723 -0.002051595291746401 -0.010580287688225132
 0.9901449872642777 -0.08333973775980785 0.007927244703374815 0.034967453923482245 -0.0020525188610961186 -0.01058021814213893 0.0023663837388205764 0.016670483276985344
 0.002423873671228274 0.016661762726944723 -0.0020525188610961186 -0.01058021814213893 0.00791799006451272 0.03496949684718358 0.9901450617173002 -0.08333838761647955
 -0.002051595291746401 -0.010580287688225132 0.0023663837388205764 0.016670483276985344 0.9901450617173002 -0.08333838761647955 0.007927559810545047 0.0349687462703292
0.1059090909091 0.008482658114005252 0.03716997988443578 0.9893939365350513 -0.088346969497652 0.002679222111480521 0.017630819657577002 -0.0022652978505554797 -0.011196650395191209
 0.9893939365350513 -0.088346969497652 0.008492816980220709 0.037169144029080996 -0.002266329946849616 -0.011196565380705637 0.0026147834508350324 0.017640859783694708
 0.002679222111480521 0.017630819657577002 -0.002266329946849616 -0.011196565380705637 0.008482442663217737 0.037171342748049147 0.9893940201929198 -0.08834553809395318
 -0.0022652978505554797 -0.011196650395191209 0.0026147834508350324 0.017640859783694708 0.9893940201929198 -0.08834553809395318 0.008493168669376955 0.037170506857553846
0.1062942892872 0.008520625051226548 0.03731500953865521 0.9893434406790901 -0.08867611113846571 0.00269645917122757 0.017694362246819736 -0.002279724827765548 -0.011237053385762173
 0.9893434406790901 -0.08867611113846571 0.008530858080091824 0.03731416787818508 -0.0022807642489085437 -0.011236967293252213 0.002631550468055611 0.017704493450681938
 0.00269645917122757 0.017694362246819736 -0.0022807642489085437 -0.011236967293252213 0.008520407992981004 0.03731637699928158 0.9893435249630703 -0.08867467438792608
 -0.002279724827765548 -0.011237053385762173 0.002631550468055611 0.017704493450681938 0.9893435249630703 -0.08867467438792608 0.008531212235954266 0.03731553530085554
0.11254689453939999 0.009152717540593523 0.03967727263280758 0.9885031506334296 -0.09402577885284283 0.0029844362893821086 0.018724376475734744 -0.0025207797751983464 -0.011891723551695302
 0.9885031506334296 -0.09402577885284283 0.009164192584951835 0.039676333132549764 -0.002521941517850361 -0.011891618846421564 0.002911659227827885 0.018736065464982094
 0.0029844362893821086 0.018724376475734744 -0.002521941517850361 -0.011891618846421564 0.00915247349973448 0.03967871421905529 0.9885032454605265 -0.09402425506350674
 -0.0025207797751983464 -0.011891723551695302 0.002911659227827885 0.018736065464982094 0.9885032454605265 -0.09402425506350674 0.009164587887509339 0.03967777456730767
0.11879949979160001 0.009814870159200151 0.042054461572518596 0.9876237130482638 -0.09938830049822578 0.0032878759910399237 0.01975151654283584 -0.002774834921274998 -0.012544020805629733
 0.9876237130482638 -0.09938830049822578 0.0098276593457569 0.04205341722704963 -0.002776125390177889 -0.01254389531697964 0.0032067816194595007 0.019764918296430033
 0.0032878759910399237 0.01975151654283584 -0.002776125390177889 -0.01254389531697964 0.009814597441804778 0.0420559762976971 0.98762381915465 -0.09938668921271114
 -0.002774834921274998 -0.012544020805629733 0.0032067816194595007 0.019764918296430033 0.98762381915465 -0.09938668921271114 0.00982809785841892 0.042054931543330995
0.1250521050438 0.01050748650518665 0.04444603883626773 0.9867047302746736 -0.10476322054867629 0.003606842724026255 0.020775488876190167 -0.003041958540750793 -0.013193663677778359
 0.9867047302746736 -0.10476322054867629 0.010521662225359598 0.04444488233241558 -0.0030433840746301737 -0.013193515131249904 0.003516982867266257 0.020790766273636636
 0.003606842724026255 0.020775488876190167 -0.0030433840746301737 -0.013193515131249904 0.01050718338826061 0.044447625672453826 0.9867048484214602 -0.10476152128261172
 -0.003041958540750793 -0.013193663677778359 0.003516982867266257 0.020790766273636636 0.9867048484214602 -0.10476152128261172 0.010522145975654727 0.044446468334515175
0.131304710296 0.01123096261408696 0.046851460875095605 0.9857458114329651 -0.11015006920136063 0.0039413942223282495 0.021795995394501045 -0.0033222122115339563 -0.013840366705238256
 0.9857458114329651 -0.11015006920136063 0.011246597544332885 0.046850184577505935 -0.003323779081775768 -0.013840192722773354 0.0038423216258037514 0.021813319265984715
 0.0039413942223282495 0.021795995394501045 -0.003323779081775768 -0.013840192722773354 0.011230627343115808 0.046853118750989915 0.9857459424083262 -0.11014828144715696
 -0.0033222122115339563 -0.013840366705238256 0.0038423216258037514 0.021813319265984715 0.9857459424083262 -0.11014828144715696 0.011247128522611286 0.04685184100165914
0.1375573155481 0.011834663151955442 0.048958170042855124 0.984897686823598 -0.1152361319132406 0.004254101823454807 0.02278373412056889 -0.0035782877268770606 -0.014454780625376728
 0.984897686823598 -0.1152361319132406 0.01185183400772606 0.04895679249610167 -0.003580005023071869 -0.014454580612539755 0.004145591129057111 0.022803102277654336
 0.004254101823454807 0.02278373412056889 -0.003580005023071869 -0.014454580612539755 0.011834292803117841 0.04895989884891543 0.9848978312429888 -0.11523425536896802
 -0.0035782877268770606 -0.014454780625376728 0.004145591129057111 0.022803102277654336 0.9848978312429888 -0.11523425536896802 0.01185241567543566 0.048958517426957116
0.1438099208003 0.012459979871548402 0.05105085156150136 0.9840188987876748 -0.12030631208855895 0.004579314225838218 0.023765539867336954 -0.0038444425791716104 -0.015063808463332232
 0.9840188987876748 -0.12030631208855895 0.012478760235310698 0.05104936646208361 -0.003846316983396427 -0.015063580053856804 0.004460959387593171 0.023787110775213137
 0.004579314225838218 0.023765539867336954 -0.003846316983396427 -0.015063580053856804 0.012459572432307615 0.05105265027586247 0.9840190574413954 -0.12030434625900899
 -0.0038444425791716104 -0.015063808463332232 0.004460959387593171 0.023787110775213137 0.9840190574413954 -0.12030434625900899 0.012479394797863308 0.05105115848810996
0.1500625260525 0.013106642569683235 0.05312924408422467 0.9831097230445547 -0.12536039485370415 0.004916885816568418 0.02474125103696216 -0.004120536482897076 -0.015667302353506527
 0.9831097230445547 -0.12536039485370415 0.013127106291575312 0.05312764471063038 -0.004122574646459185 -0.01566704308729045 0.004788284192656609 0.02476518892199201
 0.004916885816568418 0.02474125103696216 -0.004122574646459185 -0.01566704308729045 0.013106195982587991 0.053131111651485874 0.9831098967453439 -0.12535833922891831
 -0.004120536482897076 -0.015667302353506527 0.004788284192656609 0.02476518892199201 0.9831098967453439 -0.12535833922891831 0.013127795936306788 0.05312950235994658
0.15631513130469998 0.013774378533425195 0.055193094181764414 0.9821704373676211 -0.13039816826333772 0.005266668913182642 0.025710709599428477 -0.004406427124331372 -0.01626511827177411
 0.9821704373676211 -0.13039816826333772 0.013796599737011412 0.055191373380172194 -0.004408635667098382 -0.01626482559560887 0.005127421330945631 0.025737184371291227
