! Created with skrf 1.8.0 (http://scikit-rf.org).
# GHz S RI R 50.0 
!freq ReS11 ImS11 ReS12 ImS12 ReS13 ImS13
! ReS14 ImS14
! ReS21 ImS21 ReS22 ImS22 ReS23 ImS23
! ReS24 ImS24
! ReS31 ImS31 ReS32 ImS32 ReS33 ImS33
! ReS34 ImS34
! ReS41 ImS41 ReS42 ImS42 ReS43 ImS43
! ReS44 ImS44
!
0.0 0.001621899300225 0.0 0.9983781006998 0.0 6.259847364573e-05 0.0 -6.259847337822e-05 7.666102005414793e-21
 0.9983781006998 0.0 0.001621899300249 0.0 -6.259847337927e-05 7.66610200554338e-21 6.259847364465e-05 0.0
 6.259847364573e-05 0.0 -6.259847337927e-05 7.66610200554338e-21 0.001621899288879 0.0 0.9983781006884 0.0
 -6.259847337822e-05 7.666102005414793e-21 6.259847364465e-05 0.0 0.9983781006884 0.0 0.001621899288846 0.0
0.005 0.0017452464081569282 0.001328342353081744 0.9982220219169644 -0.003397119424394045 8.756102733768441e-05 0.0006792793435465923 -8.509148566401052e-05 -0.0004281515364140688
 0.9982220219169644 -0.003397119424394045 0.0017452538850707485 0.001328337913352839 -8.509247009319127e-05 -0.0004281522086080277 8.751687661189311e-05 0.0006792961943377555
 8.756102733768441e-05 0.0006792793435465923 -8.509247009319127e-05 -0.0004281522086080277 0.0017452466922910702 0.0013284094062744117 0.9982220222806036 -0.003397052357298556
 -8.509148566401052e-05 -0.0004281515364140688 8.751687661189311e-05 0.0006792961943377555 0.9982220222806036 -0.003397052357298556 0.0017452543241494986 0.0013284049916005207
0.006252605252188 0.0017776660159713087 0.0016656355239133174 0.998180731366588 -0.004247218062650997 9.472473742251464e-05 0.0008494289263250376 -9.146975485752599e-05 -0.0005357363501461516
 0.998180731366588 -0.004247218062650997 0.0017776777042286095 0.0016656298681912934 -9.147128736990071e-05 -0.0005357371770412889 9.46557566110378e-05 0.0008494508064687366
 9.472473742251464e-05 0.0008494289263250376 -9.147128736990071e-05 -0.0005357371770412889 0.0017776663901370334 0.0016657193183425404 0.9981807318646388 -0.0042471342420951136
 -9.146975485752599e-05 -0.0005357363501461516 9.46557566110378e-05 0.0008494508064687366 0.9981807318646388 -0.0042471342420951136 0.0017776783196600445 0.0016657137084969
0.01250521050438 0.0019487337155772175 0.0033659935777809315 0.9979613748616878 -0.008495150206734007 0.0001359763195343235 0.0016992190378555285 -0.0001278074692420133 -0.0010740140115540553
 0.9979613748616878 -0.008495150206734007 0.0019487803964203935 0.0033659811899622175 -0.0001278135168099097 -0.0010740155173084877 0.00013570125531236856 0.0016992716413483358
 0.0001359763195343235 0.0016992190378555285 -0.0001278135168099097 -0.0010740155173084877 0.001948734644922631 0.003366160828080743 0.9979613762785791 -0.008494982805278944
 -0.0001278074692420133 -0.0010740140115540553 0.00013570125531236856 0.0016992716413483358 0.9979613762785791 -0.008494982805278944 0.0019487822718218916 0.0033661486805649145
0.01875781575657 0.0021354909265795603 0.0050903837403913025 0.9977197477823618 -0.012754115946263337 0.00018645139826330807 0.0025499154171599024 -0.00017172623003511067 -0.0016140618499622646
 0.9977197477823618 -0.012754115946263337 0.002135595839735261 0.005090363455774233 -0.000171739727478412 -0.0016140638534612426 0.000185833534044495 0.0025500093912461715
 0.00018645139826330807 0.0025499154171599024 -0.000171739727478412 -0.0016140638534612426 0.002135492608516109 0.005090634222202179 0.9977197505466334 -0.012753865060501267
 -0.00017172623003511067 -0.0016140618499622646 0.000185833534044495 0.0025500093912461715 0.9977197505466334 -0.012753865060501267 0.002135599612742622 0.005090614528776614
0.02501042100875 0.0023383138282115144 0.006836378051190641 0.9974555551186364 -0.017026160038694338 0.000246249398410066 0.0034015381107248706 -0.00022333669794134554 -0.0021556271799528467
 0.9974555551186364 -0.017026160038694338 0.0023385001774841228 0.00683634862371663 -0.00022336054845159667 -0.0021556294642559423 0.00024515199379450495 0.0034016858457292425
 0.000246249398410066 0.0034015381107248706 -0.00022336054845159667 -0.0021556294642559423 0.002338316464662104 0.006836711564802757 0.9974555596565494 -0.017025825710898796
 -0.00022333669794134554 -0.0021556271799528467 0.00024515199379450495 0.0034016858457292425 0.9974555596565494 -0.017025825710898796 0.00233850647008386 0.006836683245012036
0.03126302626094 0.0025575630592096837 0.00860271743343159 0.997168487362577 -0.021312146036986283 0.0003154699890588802 0.004254029852843663 -0.00028274625542703223 -0.0026985280324640574
 0.997168487362577 -0.021312146036986283 0.0025578540246964615 0.008602677536854406 -0.0002827833358845885 -0.0026985303444191054 0.0003137561556873102 0.004254245491738948
 0.0003154699890588802 0.004254029852843663 -0.0002827833358845885 -0.0026985303444191054 0.0025575668550526696 0.008603133772085545 0.9971684940980302 -0.021311728286458585
 -0.00028274625542703223 -0.0026985280324640574 0.0003137561556873102 0.004254245491738948 0.9971684940980302 -0.021311728286458585 0.002557863442571074 0.008603095674739058
0.037515631513130004 0.002793591300580849 0.010388573677164769 0.9968582283629828 -0.025612494244243278 0.00039421211689844797 0.005107302591096198 -0.0003500597516417418 -0.00324260663844
 0.9968582283629828 -0.025612494244243278 0.002794010046611717 0.010388521905404053 -0.000350112915207106 -0.0032426086885126216 0.00039174476499192047 0.005107602046255417
 0.00039421211689844797 0.005107302591096198 -0.000350112915207106 -0.0032426086885126216 0.0027935964692600494 0.010389072615392212 0.9968582377238546 -0.025611993078586227
 -0.0003500597516417418 -0.00324260663844 0.00039174476499192047 0.005107602046255417 0.9968582377238546 -0.025611993078586227 0.002794023185794965 0.01038902351923005
0.043768236765320004 0.003046746203920472 0.01219332481457973 0.9965244585274333 -0.029927406265774725 0.0004825735428890014 0.005961251626258606 -0.0004253797619396079 -0.0037877152993101176
 0.9965244585274333 -0.029927406265774725 0.003047315884861829 0.012193259681747249 -0.00042545183947629005 -0.003787716761472223 0.0004792153578535443 0.00596165259844894
 0.0004825735428890014 0.005961251626258606 -0.00042545183947629005 -0.003787716761472223 0.0030467529625258227 0.012193906112045384 0.9965244709422957 -0.02992682167674823
 -0.0004253797619396079 -0.0037877152993101176 0.0004792153578535443 0.00596165259844894 0.9965244709422957 -0.02992682167674823 0.003047333327930643 0.012193844726045297
0.050020842017509996 0.003317371739771754 0.014016462311910982 0.9961668564487672 -0.03425695774308552 0.0005806505569169931 0.006815761464608007 -0.0005088066739642172 -0.0043337105481031
 0.9961668564487672 -0.03425695774308552 0.0033181155057962807 0.014016382252211121 -0.0005089004749256165 -0.004333711059763206 0.0005762639922294496 0.006816283462870812
 0.0005806505569169931 0.006815761464608007 -0.0005089004749256165 -0.004333711059763206 0.003317380309267713 0.014017125706080316 0.9961668723478758 -0.03425628971372315
 -0.0005088066739642172 -0.0043337105481031 0.0005762639922294496 0.006816283462870812 0.9961668723478758 -0.03425628971372315 0.0033181378225635937 0.014017050669522203
0.055454545454549996 0.003567006710532526 0.015615412568636852 0.9958364844432865 -0.038031355962568396 0.0006738462259524476 0.007558716161176985 -0.0005879673120688047 -0.00480880662609544
 0.9958364844432865 -0.038031355962568396 0.0035679205626866555 0.015615318203072858 -0.0005880822566991343 -0.004808805988824343 0.0006684540852777576 0.007559360598082654
 0.0006738462259524476 0.007558716161176985 -0.0005880822566991343 -0.004808805988824343 0.0035670170364462553 0.015616147081671743 0.9958365037221822 -0.03803061539536613
 -0.0005879673120688047 -0.00480880662609544 0.0006684540852777576 0.007559360598082654 0.9958365037221822 -0.03803061539536613 0.003567947568606966 0.015616059023071503
0.056273447269699996 0.003605808886116707 0.015857545501101262 0.9957850998760623 -0.0386011438502383 0.0006885377723639687 0.0076707086875650145 -0.0006004386949676421 -0.004880450297409366
 0.9957850998760623 -0.0386011438502383 0.0036067498877979547 0.01585744886844475 -0.0006005570078831071 -0.0048804494593457865 0.0006829850521158145 0.007671373049410634
 0.0006885377723639687 0.0076707086875650145 -0.0006005570078831071 -0.0048804494593457865 0.0036058194913235137 0.01585829071295795 0.9957851196924917 -0.03860039234874897
 -0.0006004386949676421 -0.004880450297409366 0.0006829850521158145 0.007671373049410634 0.9957851196924917 -0.03860039234874897 0.0036067776361188254 0.015858200595298032
0.06252605252188 0.0039123959878859665 0.017716176541177322 0.9953788663605716 -0.042959904264194444 0.0008063279593632148 0.008525963539209721 -0.0007003718199307011 -0.0054277922742396395
 0.9953788663605716 -0.042959904264194444 0.003913557380707348 0.01771606160873205 -0.0007005174126609137 -0.005427789650550817 0.000799471087283236 0.008526793450892795
 0.0008063279593632148 0.008525963539209721 -0.0007005174126609137 -0.005427789650550817 0.003912408856364859 0.017717003271231168 0.9953788905300501 -0.042959069247718876
 -0.0007003718199307011 -0.0054277922742396395 0.000799471087283236 0.008526793450892795 0.9953788905300501 -0.042959069247718876 0.003913591106208143 0.017716896571811882
0.06877865777407 0.004237468939379266 0.019591985490696386 0.9949478337296647 -0.047333138029056705 0.0009341118997509523 0.009381390874788112 -0.0008086997770470924 -0.005975593099167055
 0.9949478337296647 -0.047333138029056705 0.004238873888316772 0.019591850450242986 -0.000808875396909433 -0.005975588217228839 0.0009258126727010586 0.009382411391510456
 0.0009341118997509523 0.009381390874788112 -0.000808875396909433 -0.005975588217228839 0.0042374843006929295 0.019592893412410595 0.9949478626910917 -0.04733221945016491
 -0.0008086997770470924 -0.005975593099167055 0.0009258126727010586 0.009382411391510456 0.9949478626910917 -0.04733221945016491 0.004238914124093363 0.019592768559955464
0.07503126302626001 0.004581361258793214 0.021484620834249724 0.9944916804572844 -0.05172071297211577 0.0010719782554628715 0.010236850769973976 -0.0009255139583477702 -0.006523707710287307
 0.9944916804572844 -0.05172071297211577 0.004583032942444547 0.02148446379533444 -0.0009257223321298443 -0.0065237000607118265 0.0010620982806931586 0.010238088835920967
 0.0010719782554628715 0.010236850769973976 -0.0009257223321298443 -0.0065237000607118265 0.004581379343842304 0.02148560960473206 0.9944917146530143 -0.05171971076774087
 -0.0009255139583477702 -0.006523707710287307 0.0010620982806931586 0.010238088835920967 0.9944917146530143 -0.05171971076774087 0.004583080209032441 0.02148546495670348
0.08128386827845 0.004944404097982024 0.02339374319944069 0.9940100859730495 -0.056122471935277356 0.0012200134442081328 0.011092198933807473 -0.0010509033421458418 -0.007071988989317348
 0.9940100859730495 -0.056122471935277356 0.004946365712871546 0.023393562188460015 -0.0010511471759547825 -0.007071978025931347 0.0012084141590195689 0.01109368340193827
 0.0012200134442081328 0.011092198933807473 -0.0010511471759547825 -0.007071978025931347 0.004944425138652682 0.023394812450781628 0.9940101258497102 -0.05612138603531719
 -0.0010509033421458418 -0.007071988989317348 0.0012084141590195689 0.01109368340193827 0.9940101258497102 -0.05612138603531719 0.004946420518916737 0.02339464629257374
0.08753647353064001 0.005326926207504359 0.025319021002819284 0.9935027309318575 -0.06053823708443189 0.0013783015210089573 0.011947287004129406 -0.0011849544080745375 -0.007620287511256494
 0.9935027309318575 -0.06053823708443189 0.005329200972335852 0.025318813961819057 -0.0011852363872472663 -0.007620272651074794 0.0013648442148189801 0.01194904865568515
 0.0013783015210089573 0.011947287004129406 -0.0011852363872472663 -0.007620272651074794 0.005326950435281489 0.025320170342305357 0.9935027769399203 -0.06053706741138022
 -0.0011849544080745375 -0.007620287511256494 0.0013648442148189801 0.01194904865568515 0.9935027769399203 -0.06053706741138022 0.005329263813406831 0.025319980886203363
0.09378907878283 0.005729253869673505 0.027260127336830454 0.9929692974545128 -0.06496781298467094 0.001546924062622116 0.012801962764984362 -0.0013277510484480544 -0.008168451378347106
 0.9929692974545128 -0.06496781298467094 0.005731865029299486 0.02725989212225598 -0.001328073837288503 -0.008168432001571281 0.00153146990073963 0.012804034328629893
 0.001546924062622116 0.012801962764984362 -0.001328073837288503 -0.008168432001571281 0.005729281515641679 0.027261356351865534 0.9929693500496832 -0.06496655944853606
 -0.0013277510484480544 -0.008168451378347106 0.00153146990073963 0.012804034328629893 0.9929693500496832 -0.06496655944853606 0.0057319363888936135 0.02726114173586533
0.100041684035 0.006151710811375453 0.029216737711581047 0.9924094693524836 -0.0694109888278181 0.0017259600548281127 0.013656070318505877 -0.0014793744755856222 -0.008716326105848172
 0.9924094693524836 -0.0694109888278181 0.006154681641096873 0.02921647209275906 -0.0014797407171202401 -0.008716301555858485 0.0017083701039448515 0.013658486489158638
 0.0017259600548281127 0.013656070318505877 -0.0014797407171202401 -0.008716301555858485 0.0061517421046064285 0.029218045964784205 0.9924095289952035 -0.06940965133105131
 -0.0014793744755856222 -0.008716326105848172 0.0017083701039448515 0.013658486489158638 0.9924095289952035 -0.06940965133105131 0.006154761989613627 0.029217804251223414
0.1059090909091 0.006566735241806682 0.0310666213463319 0.991859844445554 -0.07359260730058725 0.0019035052513395603 0.01445690090599377 -0.0016297547547180296 -0.00923004551157337
 0.991859844445554 -0.07359260730058725 0.0065700647831898685 0.03106632508852713 -0.001630164156608821 -0.009230015477092138 0.0018837846665299667 0.014459673776035915
 0.0019035052513395603 0.01445690090599377 -0.001630164156608821 -0.009230015477092138 0.006566770164244758 0.031068003538152093 0.991859911125481 -0.0735911909181581
 -0.0016297547547180296 -0.00923004551157337 0.0018837846665299667 0.014459673776035915 0.991859911125481 -0.0735911909181581 0.006570153983684381 0.031067734565311193
0.1062942892872 0.006594618098691062 0.031188528338121243 0.9918229323380159 -0.07386754012628607 0.0019154857808264616 0.014509450221989349 -0.0016399031272927344 -0.009263754549321278
 0.9918229323380159 -0.07386754012628607 0.006597971908507361 0.031188229995603948 -0.001640315442992579 -0.009263724132688767 0.0018956210360298682 0.014512247679142755
 0.0019154857808264616 0.014509450221989349 -0.001640315442992579 -0.009263724132688767 0.006594653266272437 0.03118991536935706 0.9918229994943898 -0.07386611856154623
 -0.0016399031272927344 -0.009263754549321278 0.0018956210360298682 0.014512247679142755 0.9918229994943898 -0.07386611856154623 0.006598061703873384 0.031189644543304185
0.11254689453939999 0.007058294020521701 0.03317517483600015 0.9912093742260341 -0.07833722999010907 0.0021155747117697758 0.015361939604843397 -0.0018094125698847937 -0.009810576858566357
 0.9912093742260341 -0.07833722999010907 0.007062054158989683 0.03317484135972238 -0.0018098735593321202 -0.009810539845070576 0.0020932961244056495 0.015365157030555483
 0.0021155747117697758 0.015361939604843397 -0.0018098735593321202 -0.009810539845070576 0.007058333286447609 0.03317664016101265 0.9912094493681134 -0.0783357242417561
 -0.0018094125698847937 -0.009810576858566357 0.0020932961244056495 0.015365157030555483 0.9912094493681134 -0.0783357242417561 0.007062153846262214 0.033176338128507274
0.11879949979160001 0.007543053961534657 0.03517635122060029 0.9905684851297912 -0.08281981013256172 0.0023262973973328543 0.016213372270372756 -0.0019879754002257314 -0.010356630453675495
 0.9905684851297912 -0.08281981013256172 0.0075472438204705755 0.03517598010782013 -0.0019884876407959273 -0.010356586076326979 0.0023014659046028552 0.016217050366692926
 0.0023262973973328543 0.016213372270372756 -0.0019884876407959273 -0.010356586076326979 0.0075430975459763565 0.035177894332248896 0.9905685687358649 -0.0828182200752839
 -0.0019879754002257314 -0.010356630453675495 0.0023014659046028552 0.016217050366692926 0.9905685687358649 -0.0828182200752839 0.007547353831634497 0.03517755891833567
0.1250521050438 0.008049210267883604 0.03719172911509651 0.989899957650506 -0.08731502165897642 0.002547721357925969 0.017063578787245196 -0.0021756611465809056 -0.010901750018232985
 0.989899957650506 -0.08731502165897642 0.008053853285967512 0.03719131776818805 -0.0021762271930015273 -0.010901697473326512 0.002520197913071089 0.017067760293219915
 0.002547721357925969 0.017063578787245196 -0.0021762271930015273 -0.010901697473326512 0.008049258386277902 0.03719334948258148 0.989900050205818 -0.08731334715877635
 -0.0021756611465809056 -0.010901750018232985 0.002520197913071089 0.017067760293219915 0.989900050205818 -0.08731334715877635 0.008053974040137538 0.03719297842906106
0.131304710296 0.008577072106210492 0.0392209771212207 0.9892034870652366 -0.09182259570568581 0.002779910977222922 0.017912386575271704 -0.0023725361686944926 -0.011445767505318791
 0.9892034870652366 -0.09182259570568581 0.008582191773554878 0.03922052284518892 -0.0023731585527256875 -0.011445705952463386 0.002749556580896134 0.017917116283373908
 0.002779910977222922 0.017912386575271704 -0.0023731585527256875 -0.011445705952463386 0.008577124968699511 0.03922267418977975 0.9892035890618534 -0.09182083662007198
 -0.0023725361686944926 -0.011445767505318791 0.002749556580896134 0.017917116283373908 0.9892035890618534 -0.09182083662007198 0.00858232367648026 0.03922226515287701
0.1375573155481 0.009008457138057998 0.04099999779534241 0.9885973109076294 -0.096078360098459 0.002994415829835747 0.018733737018904587 -0.002550189675873253 -0.011962620501406519
 0.9885973109076294 -0.096078360098459 0.009014077438553895 0.04099950762390541 -0.0025508719199282925 -0.01196254982462921 0.002961159899952692 0.018739009636599618
 0.002994415829835747 0.018733737018904587 -0.0025508719199282925 -0.01196254982462921 0.009008513984769422 0.04100177163359908 0.9885974227771799 -0.09607651637274671
 -0.002550189675873253 -0.011962620501406519 0.002961159899952692 0.018739009636599618 0.9885974227771799 -0.09607651637274671 0.009014221975827366 0.041001330899116915
0.1438099208003 0.009455109505083277 0.04276919654711448 0.9879696488383195 -0.10032286487178589 0.003217570137918871 0.019551437604475728 -0.0027349273164776937 -0.012476131435382242
 0.9879696488383195 -0.10032286487178589 0.009461254033583534 0.04276866839761646 -0.002735672097941772 -0.012476050810855257 0.0031812860943177257 0.019557294260991342
 0.003217570137918871 0.019551437604475728 -0.002735672097941772 -0.012476050810855257 0.00945517036344403 0.042771046647416565 0.9879697710703258 -0.10032093637296645
 -0.0027349273164776937 -0.012476131435382242 0.0031812860943177257 0.019557294260991342 0.9879697710703258 -0.10032093637296645 0.00946141178873786 0.04277057236989552
0.1500625260525 0.009916865231863147 0.04452841167896819 0.9873206692431594 -0.10455599025098233 0.0034492924052420986 0.020365394529650204 -0.002926670033580876 -0.012986212321195626
 0.9873206692431594 -0.10455599025098233 0.009923557626018513 0.04452784335379556 -0.0029274800198423544 -0.012986120892538122 0.003409854502835475 0.020371877851272056
 0.0034492924052420986 0.020365394529650204 -0.0029274800198423544 -0.012986120892538122 0.009916930112492558 0.044530337517407224 0.9873208023327529 -0.10455397684037804
 -0.002926670033580876 -0.012986212321195626 0.003409854502835475 0.020371877851272056 0.9873208023327529 -0.10455397684037804 0.009923729182801107 0.04452982774116893
0.15631513130469998 0.010393559099592161 0.04627748632925079 0.98665054145083 -0.10877761719163048 0.0036895001212198 0.02117551568435608 -0.003125337752293219 -0.013492777108514093
 0.98665054145083 -0.10877761719163048 0.010400823041440695 0.04627687551344354 -0.0031262156004652005 -0.013492673987012364 0.0036467834641294617 0.021182669777238566
