! Created with skrf 1.8.0 (http://scikit-rf.org).
# GHz S RI R 50.0 
!freq ReS11 ImS11 ReS12 ImS12 ReS13 ImS13
! ReS14 ImS14
! ReS21 ImS21 ReS22 ImS22 ReS23 ImS23
! ReS24 ImS24
! ReS31 ImS31 ReS32 ImS32 ReS33 ImS33
! ReS34 ImS34
! ReS41 ImS41 ReS42 ImS42 ReS43 ImS43
! ReS44 ImS44
!
0.0 0.001369544477417 0.0 0.9986304555141 0.0 5.244571034776e-05 0.0 -5.244570999249e-05 6.422747087131324e-21
 0.9986304555141 0.0 0.001369544477399 0.0 -5.244570999156e-05 6.4227470870174314e-21 5.244571034685e-05 0.0
 5.244571034776e-05 0.0 -5.244570999156e-05 6.4227470870174314e-21 0.001369544480232 0.0 0.9986304555169 0.0
 -5.244570999249e-05 6.422747087131324e-21 5.244571034685e-05 0.0 0.9986304555169 0.0 0.001369544480262 0.0
0.005 0.0014730498553972746 0.001122425894131407 0.9984995968371962 -0.0028692500159489633 7.292040437224198e-05 0.0005679702648186602 -7.096515560846785e-05 -0.00035830459813557134
 0.9984995968371962 -0.0028692500159489633 0.0014730450712261128 0.0011224287121642785 -7.096517082494244e-05 -0.0003583046662159021 7.295611343698405e-05 0.0005679568117130723
 7.292040437224198e-05 0.0005679702648186602 -7.096517082494244e-05 -0.0003583046662159021 0.0014730492085738042 0.0011223590421785914 0.9984995964915643 -0.0028693170857363583
 -7.096515560846785e-05 -0.00035830459813557134 7.295611343698405e-05 0.0005679568117130723 0.9984995964915643 -0.0028693170857363583 0.00147304502496523 0.001122361420910809
0.006252605252188 0.0015000636284839147 0.001407458600832486 0.9984652534224577 -0.0035872844691752716 7.868200081790068e-05 0.0007102518306560102 -7.612995322506364e-05 -0.0004483493914837486
 0.9984652534224577 -0.0035872844691752716 0.0015000561494256175 0.0014074621476958937 -7.612997645466527e-05 -0.00044834947662327385 7.873779495813491e-05 0.0007102343498749747
 7.868200081790068e-05 0.0007102518306560102 -7.612997645466527e-05 -0.00044834947662327385 0.001500062697574146 0.0014073750651431135 0.9984652529629338 -0.0035873682811521685
 -7.612995322506364e-05 -0.0004483493914837486 7.873779495813491e-05 0.0007102343498749747 0.9984652529629338 -0.0035873682811521685 0.0015000561581133402 0.0014073780518643378
0.01250521050438 0.0016414981553476695 0.0028445363880994284 0.9982843756957778 -0.007175492530169005 0.0001112598835702628 0.001420948035213432 -0.00010509114581665866 -0.000898946717884647
 0.9982843756957778 -0.007175492530169005 0.0016414682848210395 0.0028445437219237024 -0.00010509123189438267 -0.0008989468891864192 0.00011148243646802078 0.001420905972558546
 0.0001112598835702628 0.001420948035213432 -0.00010509123189438267 -0.0008989468891864192 0.00164149499093808 0.0028443695923138536 0.9982843744210509 -0.007175659911966764
 -0.00010509114581665866 -0.000898946717884647 0.00011148243646802078 0.001420905972558546 0.9982843744210509 -0.007175659911966764 0.0016414688858943068 0.0028443756889840314
0.01875781575657 0.0017941291799825356 0.004302246218573508 0.9980876171967822 -0.010773383902942739 0.00015025138101631464 0.0021325713242502267 -0.0001394123084963905 -0.0013511740520112665
 0.9980876171967822 -0.010773383902942739 0.0017940620483485185 0.004302257597062616 -0.000139412492805368 -0.0013511743124763917 0.0001507514603154282 0.0021324963339644605
 0.00015025138101631464 0.0021325713242502267 -0.000139412492805368 -0.0013511743124763917 0.0017941224753795241 0.004301996306869398 0.9980876147546356 -0.010773634729692512
 -0.0001394123084963905 -0.0013511740520112665 0.0001507514603154282 0.0021324963339644605 0.9980876147546356 -0.010773634729692512 0.0017940638323995907 0.004302005633232549
0.02501042100875 0.0019582309985982154 0.0057785810093417 0.9978747654674511 -0.01438273075476662 0.00019572922380656305 0.002845167367550067 -0.0001791742822206879 -0.0018048464520633654
 0.9978747654674511 -0.01438273075476662 0.001958111759343772 0.00577859670079714 -0.00017917459724665428 -0.00180484680651425 0.00019661772615856089 0.0028450499014340573
 0.00019572922380656305 0.002845167367550067 -0.00017917459724665428 -0.00180484680651425 0.001958219441483453 0.005778248082091231 0.9978747615078769 -0.014383064931277945
 -0.0001791742822206879 -0.0018048464520633654 0.00019661772615856089 0.0028450499014340573 0.9978747615078769 -0.014383064931277945 0.0019581153231122803 0.00577826074757553
0.03126302626094 0.00213406644773692 0.007272522418301335 0.9976455962548381 -0.018004308984076373 0.000247766646166779 0.003558718113518728 -0.000224455946419507 -0.0022598386701889995
 0.9976455962548381 -0.018004308984076373 0.002133880268915111 0.0072725426997449555 -0.00022445642218623844 -0.0022598391252625716 0.000249154700040545 0.0035585474125585854
 0.000247766646166779 0.003558718113518728 -0.00022445642218623844 -0.0022598391252625716 0.0021340487179311745 0.007272106552171303 0.9976455904291586 -0.018004726424891853
 -0.000224455946419507 -0.0022598386701889995 0.000249154700040545 0.0035585474125585854 0.9976455904291586 -0.018004726424891853 0.0021338862137246072 0.007272122653832598
0.037515631513130004 0.002321892857838733 0.008783417468214226 0.997399879608794 -0.021638521540673535 0.00030643675634287986 0.004273180562420666 -0.0002753347790490864 -0.0027160463749519408
 0.997399879608794 -0.021638521540673535 0.002321624916227575 0.008783442624421507 -0.0002753354434388802 -0.0027160469391547446 0.00030843576952218943 0.004272944643326609
 0.00030643675634287986 0.004273180562420666 -0.0002753354434388802 -0.0027160469391547446 0.002321867630036085 0.00878291871850544 0.9973998715724586 -0.021639022167948604
 -0.0002753347790490864 -0.0027160463749519408 0.00030843576952218943 0.004272944643326609 0.9973998715724586 -0.021639022167948604 0.0023216338504034096 0.008782938339685955
0.043768236765320004 0.0025219643628015 0.010310788849145141 0.9971373823353349 -0.025285588060751218 0.0003718122381695866 0.004988498562345634 -0.00033188706828007946 -0.0031733743478090694
 0.9971373823353349 -0.025285588060751218 0.0025215998394801198 0.010310819171809753 -0.00033188794724597784 -0.0031733750315460184 0.00037453392225953055 0.004988184202449363
 0.0003718122381695866 0.004988498562345634 -0.00033188794724597784 -0.0031733750315460184 0.0025219303023366873 0.010310207270650074 0.9971373717439691 -0.025286171783588683
 -0.00033188706828007946 -0.0031733743478090694 0.00037453392225953055 0.004988184202449363 0.9971373717439691 -0.025286171783588683 0.002521612373789903 0.010310230479869262
0.050020842017509996 0.002734532973266926 0.011854256533108577 0.9968578692152849 -0.028945623187673297 0.0004439651797544166 0.0057046076671765766 -0.0003941879906330132 -0.0036317316175922573
 0.9968578692152849 -0.028945623187673297 0.0027340570494626465 0.011854292320328417 -0.0003941891083467657 -0.003631732433224281 0.00044752156179359714 0.005704200388699946
 0.0004439651797544166 0.0057046076671765766 -0.0003941891083467657 -0.003631732433224281 0.002734488739024494 0.011853592167763875 0.9968578557284753 -0.02894628991473279
 -0.0003941879906330132 -0.0036317316175922573 0.00044752156179359714 0.005704200388699946 0.9968578557284753 -0.02894628991473279 0.0027340737999744747 0.011853619017780004
0.055454545454549996 0.0029296052640424867 0.013208398343043768 0.9966009612200286 -0.032136875299046734 0.0005122278448398808 0.006327516142916876 -0.0004530555447459991 -0.004030824647342119
 0.9966009612200286 -0.032136875299046734 0.002929020492529456 0.01320843912581195 -0.0004530568883208996 -0.0040308255891755495 0.0005166008328508308 0.006327015370770556
 0.0005122278448398808 0.006327516142916876 -0.0004530568883208996 -0.0040308255891755495 0.0029295510924462324 0.013207662061481523 0.9966009449415564 -0.032137614080963425
 -0.0004530555447459991 -0.004030824647342119 0.0005166008328508308 0.006327015370770556 0.9966009449415564 -0.032137614080963425 0.0029290414090394645 0.013207692105437135
0.056273447269699996 0.0029598491437013907 0.013413499274739097 0.9965611037197379 -0.0326186750067434 0.000522966947701147 0.0064214375344724805 -0.0004623116391995555 -0.004091029056375711
 0.9965611037197379 -0.0326186750067434 0.0029592469970227825 0.013413540830521582 -0.00046231301821431136 -0.004091030018253501 0.0005274703747102865 0.006420921588438271
 0.000522966947701147 0.0064214375344724805 -0.00046231301821431136 -0.004091030018253501 0.0029597933857356744 0.013412752158111982 0.9965610869985168 -0.03261942464001052
 -0.0004623116391995555 -0.004091029056375711 0.0005274703747102865 0.006420921588438271 0.9965610869985168 -0.03261942464001052 0.0029592685821169342 0.013412782685100951
0.06252605252188 0.003198162077890454 0.014988233473094604 0.996246848465691 -0.036304746120192855 0.0006088880932803844 0.007138913222418803 -0.0005363310176405822 -0.004551178078013743
 0.996246848465691 -0.036304746120192855 0.003197418878792574 0.01498828110699338 -0.0005363326790102103 -0.004551179202519562 0.0006144512315218446 0.007138271572422341
 0.0006088880932803844 0.007138913222418803 -0.0005363326790102103 -0.004551179202519562 0.003198093438714038 0.014987403631747767 0.9962468281742178 -0.036305578557771556
 -0.0005363310176405822 -0.004551178078013743 0.0006144512315218446 0.007138271572422341 0.9962468281742178 -0.036305578557771556 0.003197445920201789 0.014987437854592544
0.06877865777407 0.0034497199046453174 0.016578200534670347 0.9959148655453708 -0.04000380622235897 0.0007017982689763676 0.007856955978685408 -0.0006163180213713086 -0.005012089846879703
 0.9959148655453708 -0.04000380622235897 0.0034488208130085724 0.01657825456154797 -0.0006163199847597176 -0.005012091152474895 0.0007085341000099286 0.007856170284605186
 0.0007017982689763676 0.007856955978685408 -0.0006163199847597176 -0.005012091152474895 0.003449637018793744 0.016577287988620147 0.9959148413511678 -0.040004721356309225
 -0.0006163180213713086 -0.005012089846879703 0.0007085341000099286 0.007856170284605186 0.9959148413511678 -0.040004721356309225 0.0034488539350541582 0.01657732590835473
0.07503126302626001 0.0037147697676874936 0.018183158887064073 0.9955649167715704 -0.043715800026568795 0.0008017661555721188 0.008575483732048092 -0.0007023434065353958 -0.005473674786153554
 0.9955649167715704 -0.043715800026568795 0.0037136999292307457 0.01818321962696722 -0.0007023456903031028 -0.005473676293415905 0.0008097879697576736 0.008574534333748387
 0.0008017661555721188 0.008575483732048092 -0.0007023456903031028 -0.005473676293415905 0.003714671260997303 0.018182163655625732 0.9955648883450527 -0.0437167977373758
 -0.0007023434065353958 -0.005473674786153554 0.0008097879697576736 0.008574534333748387 0.9955648883450527 -0.0437167977373758 0.003713739757857561 0.01818220525488836
0.08128386827845 0.003993557867280434 0.01980287865994252 0.9951967638786008 -0.047440652527259215 0.0009088593944214087 0.009294411419463426 -0.0007944767523389342 -0.005935842253129202
 0.9951967638786008 -0.047440652527259215 0.003992302410191281 0.01980294643796166 -0.0007944793736848607 -0.005935843984789705 0.0009182807821269967 0.009293277320527807
 0.0009088593944214087 0.009294411419463426 -0.0007944793736848607 -0.005935843984789705 0.0039934423572813285 0.01980180075426927 0.9951967308936869 -0.0474417326914723
 -0.0007944767523389342 -0.005935842253129202 0.0009182807821269967 0.009293277320527807 0.9951967308936869 -0.0474417326914723 0.003992349572677839 0.019801845996878602
0.08753647353064001 0.004286329467203397 0.021437137991896765 0.9948101686901294 -0.05117827263852775 0.0010231445211468441 0.01001365121891672 -0.0008927864202514559 -0.006398500311315094
 0.9948101686901294 -0.05117827263852775 0.00428487349897092 0.021437213138275367 -0.0008927893953307688 -0.006398502292291359 0.0010340793626867255 0.010012310070484328
 0.0010231445211468441 0.01001365121891672 -0.0008927893953307688 -0.006398502292291359 0.004286195562771875 0.021435977417342926 0.9948101308240112 -0.05117943512672196
 -0.0008927864202514559 -0.006398500311315094 0.0010340793626867255 0.010012310070484328 0.9948101308240112 -0.05117943512672196 0.004284928622974445 0.021436026248047677
0.09378907878283 0.0045933288797237876 0.023085720401847056 0.9944048932679297 -0.05492855577139215 0.0011446869037438695 0.010733112713084011 -0.0009973395077209092 -0.006861555574460559
 0.9944048932679297 -0.05492855577139215 0.004591657483352128 0.02308580325204246 -0.0009973428516851866 -0.006861557831895407 0.0011572493578780698 0.010731540797742368
 0.0011446869037438695 0.010733112713084011 -0.0009973428516851866 -0.006861557831895407 0.004593175181034155 0.023084477161469562 0.9944048502018513 -0.054929800444910644
 -0.0009973395077209092 -0.006861555574460559 0.0011572493578780698 0.010731540797742368 0.9944048502018513 -0.054929800444910644 0.0045917211969245565 0.02308452950574817
0.100041684035 0.004914799432773703 0.024748412859306984 0.9939807000458724 -0.05869138571494894 0.0012735506805822883 0.011452703010731558 -0.0011082018007165292 -0.0073249130955901414
 0.9939807000458724 -0.05869138571494894 0.004912897663571191 0.02474850375426308 -0.001108205527841523 -0.007324915658888301 0.0012878551717543985 0.011450875226537654
 0.0012735506805822883 0.011452703010731558 -0.001108205527841523 -0.007324915658888301 0.004914624531050575 0.024747086954548816 0.9939806514650981 -0.0586927124256412
 -0.0011082018007165292 -0.0073249130955901414 0.0012878551717543985 0.011450875226537654 0.9939806514650981 -0.0586927124256412 0.004912970594211768 0.024747142718429028
0.1059090909091 0.005229842645735699 0.026321318303649015 0.9935652229820419 -0.062233701219032274 0.0014011903961942639 0.012127994497320967 -0.0012180298642671123 -0.007759913862579228
 0.9935652229820419 -0.062233701219032274 0.005227711076305231 0.026321417063003682 -0.0012180339632548076 -0.007759916741672928 0.001417233896798676 0.012125902530174659
 0.0014011903961942639 0.012127994497320967 -0.0012180339632548076 -0.007759916741672928 0.005229646558075203 0.02631991482247453 0.9935651689437575 -0.06223510477439155
 -0.0012180298642671123 -0.007759913862579228 0.001417233896798676 0.012125902530174659 0.9935651689437575 -0.06223510477439155 0.005227793225950941 0.026319973692589923
0.1062942892872 0.005250983425331372 0.0264250043290377 0.9935373519544095 -0.062466636046464005 0.001409798699647408 0.012172326845379808 -0.0012254377238575794 -0.007788476281755062
 0.9935373519544095 -0.062466636046464005 0.005248836307387599 0.026425103615510984 -0.0012254418476650522 -0.007788479182601355 0.0014259599043127162 0.012170216690031864
 0.001409798699647408 0.012172326845379808 -0.0012254418476650522 -0.007788479182601355 0.005250785903056946 0.026423595754839758 0.9935372975483657 -0.06246804464174402
 -0.0012254377238575794 -0.007788476281755062 0.0014259599043127162 0.012170216690031864 0.9935372975483657 -0.06246804464174402 0.005248919081594642 0.026423654825008327
0.11254689453939999 0.005602122074277557 0.028115284660759365 0.9930746125382782 -0.0662541711996458 0.0015534924584386972 0.01289188664863654 -0.0013491102888381194 -0.008252146836958966
 0.9930746125382782 -0.0662541711996458 0.005599714596963856 0.028115392691725978 -0.0013491148221602342 -0.008252150109359879 0.0015716252906463066 0.01288946620376733
 0.0015534924584386972 0.01289188664863654 -0.0013491148221602342 -0.008252150109359879 0.005601900504578479 0.02811379341023536 0.9930745520009268 -0.06625566151818474
 -0.0013491102888381194 -0.008252146836958966 0.0015716252906463066 0.01288946620376733 0.9930745520009268 -0.06625566151818474 0.005599807839400199 0.02811385565411525
0.11879949979160001 0.0059684554522186775 0.02981904371746927 0.9925922460689708 -0.07005384729778777 0.0017046920440763585 0.013611282612576403 -0.0014792810418562024 -0.008715824719194588
 0.9925922460689708 -0.07005384729778777 0.005965772566587123 0.02981916085269557 -0.0014792859969521286 -0.008715828399494393 0.0017249116400070341 0.013608522528211289
 0.0017046920440763585 0.013611282612576403 -0.0014792859969521286 -0.008715828399494393 0.005968208399399946 0.029817469781966664 0.9925921790992408 -0.07005541916984874
 -0.0014792810418562024 -0.008715824719194588 0.0017249116400070341 0.013608522528211289 0.9925921790992408 -0.07005541916984874 0.005965876899945194 0.029817535047969485
0.1250521050438 0.006350222421365297 0.03153607069213249 0.9920900176543606 -0.07386551280208707 0.0018634560737807793 0.014330412742624404 -0.0016160100096482646 -0.009179408110001239
 0.9920900176543606 -0.07386551280208707 0.006347249036563173 0.031536197298823024 -0.0016160153982654924 -0.009179412236921033 0.0018858777757243814 0.014327282221885694
 0.0018634560737807793 0.014330412742624404 -0.0016160153982654924 -0.009179412236921033 0.006349948440251417 0.031534414058632096 0.9920899439560874 -0.07386716605240819
 -0.0016160100096482646 -0.009179408110001239 0.0018858777757243814 0.014327282221885694 0.9920899439560874 -0.07386716605240819 0.006347365080751153 0.03153448217646137
0.131304710296 0.006747660560932501 0.033266153554905455 0.9915676933450094 -0.07768900903315192 0.0020298416353627673 0.015049172902912479 -0.0017593556448156917 -0.00964279339485578
 0.9915676933450094 -0.07768900903315192 0.006744381540733717 0.033266290008478076 -0.0017593614783743357 -0.009642798009492562 0.00205458097486664 0.015045639686856451
 0.0020298416353627673 0.015049172902912479 -0.0017593614783743357 -0.009642798009492562 0.0067473581972128755 0.03326441421079487 0.9915676126269913 -0.07769074347652491
 -0.0017593556448156917 -0.00964279339485578 0.00205458097486664 0.015045639686856451 0.9915676126269913 -0.07769074347652491 0.006744509912041792 0.03326448499204626
0.1375573155481 0.0070656660026194255 0.03478362906695474 0.9911204108106227 -0.08129863804195607 0.002181537239523092 0.015744558261205816 -0.001886978226569586 -0.010083007173533304
 0.9911204108106227 -0.08129863804195607 0.007062065453012773 0.034783774003502646 -0.001886984688442738 -0.010083012287665193 0.0022086471692868313 0.015740629732022362
 0.002181537239523092 0.015744558261205816 -0.001886984688442738 -0.010083012287665193 0.007065334621362868 0.034781806649663974 0.9911203227611373 -0.08130045351448642
 -0.001886978226569586 -0.010083007173533304 0.0022086471692868313 0.015740629732022362 0.9911203227611373 -0.08130045351448642 0.007062205977631987 0.034781878862612664
0.1438099208003 0.007394723876056317 0.03629383858272767 0.9906576641065421 -0.08489984481039178 0.002339353958849054 0.016437557486190527 -0.002019714524707915 -0.010521014403930544
 0.9906576641065421 -0.08489984481039178 0.007390786491067485 0.03629399235431614 -0.0020197216566133543 -0.010521020054517485 0.002368938957890662 0.016433204423792414
 0.002339353958849054 0.016437557486190527 -0.0020197216566133543 -0.010521020054517485 0.007394362156777969 0.0362919330236487 0.9906575684386457 -0.08490174111840937
 -0.002019714524707915 -0.010521014403930544 0.002368938957890662 0.016433204423792414 0.9906575684386457 -0.08490174111840937 0.007390939635962675 0.036292006516667565
0.1500625260525 0.007734728027251995 0.03779667733303245 0.9901795628468056 -0.08849256162620675 0.0025032426072439692 0.01712811418848312 -0.0021575163545676248 -0.010956760572297674
 0.9901795628468056 -0.08849256162620675 0.007730438455382189 0.03779684032289556 -0.002157524199878311 -0.010956766797577401 0.0025354066073703004 0.0171233063143725
 0.0025032426072439692 0.01712811418848312 -0.002157524199878311 -0.010956766797577401 0.007734334649897248 0.03779468855546714 0.9901794592786011 -0.08849453857199259
 -0.0021575163545676248 -0.010956760572297674 0.0025354066073703004 0.0171233063143725 0.9901794592786011 -0.08849453857199259 0.0077306046743311815 0.037794763190369424
0.15631513130469998 0.008085571664029243 0.03929204381566096 0.9896862170761646 -0.09207672059643128 0.0026731534821440566 0.017816172839118287 -0.0023003349980307373 -0.011390192243497034
