! Created with skrf 1.8.0 (http://scikit-rf.org).
# GHz S RI R 50.0 
!freq ReS11 ImS11 ReS12 ImS12 ReS13 ImS13
! ReS14 ImS14
! ReS21 ImS21 ReS22 ImS22 ReS23 ImS23
! ReS24 ImS24
! ReS31 ImS31 ReS32 ImS32 ReS33 ImS33
! ReS34 ImS34
! ReS41 ImS41 ReS42 ImS42 ReS43 ImS43
! ReS44 ImS44
!
0.0 0.001782003098269 0.0 0.9982179969016 0.0 6.947100201109e-05 0.0 -6.947100276618e-05 8.507744117115925e-21
 0.9982179969016 0.0 0.00178200309829 0.0 -6.9471002766e-05 8.507744117093881e-21 6.94710020113e-05 0.0
 6.947100201109e-05 0.0 -6.9471002766e-05 8.507744117093881e-21 0.001782003094889 0.0 0.9982179968983 0.0
 -6.947100276618e-05 8.507744117115925e-21 6.94710020113e-05 0.0 0.9982179968983 0.0 0.001782003094919 0.0
0.005 0.0019181555740291748 0.00145075984424298 0.9980455843593595 -0.0037323652661602398 9.879708251550902e-05 0.0008034069370288362 -9.563663943247958e-05 -0.0004974999808718815
 0.9980455843593595 -0.0037323652661602398 0.001918163919178888 0.0014507548917671355 -9.563576704135048e-05 -0.0004974992466921488 9.875326999300993e-05 0.0008034236884905837
 9.879708251550902e-05 0.0008034069370288362 -9.563576704135048e-05 -0.0004974992466921488 0.001918156703197851 0.001450826405428154 0.9980455847284383 -0.003732298206824589
 -9.563663943247958e-05 -0.0004974999808718815 9.875326999300993e-05 0.0008034236884905837 0.9980455847284383 -0.003732298206824589 0.0019181635268240584 0.0014508224500628592
0.006252605252188 0.001954103571559559 0.0018191526219067727 0.9979997341709878 -0.0046663334910984665 0.00010731899972509292 0.0010046136334735003 -0.00010314538094344014 -0.0006225116849768893
 0.9979997341709878 -0.0046663334910984665 0.0019541166171928815 0.0018191463229690417 -0.0001031440239588144 -0.00062251077861848 0.00010725054806969314 0.0010046353922284457
 0.00010731899972509292 0.0010046136334735003 -0.0001031440239588144 -0.00062251077861848 0.0019541052785689507 0.0018192358182169397 0.9979997346894286 -0.0046662496653327844
 -0.00010314538094344014 -0.0006225116849768893 0.00010725054806969314 0.0010046353922284457 0.9979997346894286 -0.0046662496653327844 0.0019541159447334262 0.001819230779425163
0.01250521050438 0.0021447346256718825 0.0036762848058963476 0.9977547925021019 -0.00933321882949688 0.00015694772984918228 0.0020093479762885347 -0.00014639912421593343 -0.0012479098018306307
 0.9977547925021019 -0.00933321882949688 0.0021447867271979157 0.0036762711027505893 -0.00014639378286194674 -0.0012479081142974366 0.0001566747927187943 0.002009400425689665
 0.00015694772984918228 0.0020093479762885347 -0.00014639378286194674 -0.0012479081142974366 0.0021447408802021213 0.003676450859475517 0.9977547940028749 -0.009333051440908633
 -0.00014639912421593343 -0.0012479098018306307 0.0001566747927187943 0.002009400425689665 0.9977547940028749 -0.009333051440908633 0.0021447834643675266 0.0036764398320324274
0.01875781575657 0.002354362419109536 0.005559596686592245 0.9974828323618028 -0.014011960501413482 0.00021847873071778427 0.0030148754690010296 -0.0001993767560484136 -0.0018752020359853964
 0.9974828323618028 -0.014011960501413482 0.00235447951407837 0.005559574365573712 -0.0001993648536998802 -0.001875199717408994 0.00021786568580272773 0.003014969496569079
 0.00021847873071778427 0.0030148754690010296 -0.0001993648536998802 -0.001875199717408994 0.0023543760682618636 0.005559845387041634 0.9974828353142889 -0.014011709658258235
 -0.0001993767560484136 -0.0018752020359853964 0.00021786568580272773 0.003014969496569079 0.9974828353142889 -0.014011709658258235 0.0023544717463022356 0.005559827367116398
0.02501042100875 0.0025834362099273612 0.007466374019584869 0.9971834996352227 -0.018704761037273622 0.00029203505951147036 0.004021203276276621 -0.00026221667397392437 -0.0025040521511629932
 0.9971834996352227 -0.018704761037273622 0.002583644196462656 0.007466341766701394 -0.0002621956678194113 -0.002504049379323973 0.0002909462922854819 0.00402135166506455
 0.00029203505951147036 0.004021203276276621 -0.0002621956678194113 -0.002504049379323973 0.0025834600974786134 0.007466705172223106 0.9971835045024829 -0.018704426806578127
 -0.00026221667397392437 -0.0025040521511629932 0.0002909462922854819 0.00402135166506455 0.9971835045024829 -0.018704426806578127 0.002583629998428137 0.007466679108596666
0.03126302626094 0.0028323864482909865 0.009395186684331161 0.9968564241504465 -0.02341252250516404 0.00037773962605043055 0.005028240247133184 -0.00033505237634622287 -0.0031342130577944618
 0.9968564241504465 -0.02341252250516404 0.0028327111991258997 0.009395143086325039 -0.0003350197517184807 -0.0031342100384003004 0.00037603941003528626 0.005028457686383332
 0.00037773962605043055 0.005028240247133184 -0.0003350197517184807 -0.0031342100384003004 0.002832423420778594 0.00939560007709392 0.996856431394209 -0.023412104945390054
 -0.00033505237634622287 -0.0031342130577944618 0.00037603941003528626 0.005028457686383332 0.996856431394209 -0.023412104945390054 0.0028326886395747463 0.009395564872629316
0.037515631513130004 0.0031016334947761765 0.011345076986478572 0.996501228797012 -0.028135658157744593 0.0004757138662882218 0.0060358558472398795 -0.0004180134636390716 -0.0037654679218203212
 0.996501228797012 -0.028135658157744593 0.0031021008666871144 0.011345020530852633 -0.0004179667310004233 -0.003765464888531541 0.0004732663139493995 0.006036158950307365
 0.0004757138662882218 0.0060358558472398795 -0.0004179667310004233 -0.003765464888531541 0.0031016864029134237 0.011345572390692369 0.9965012388798125 -0.028135157317604156
 -0.0004180134636390716 -0.0037654679218203212 0.0004732663139493995 0.006036158950307365 0.9965012388798125 -0.028135157317604156 0.003102068010387367 0.011345526902928293
0.043768236765320004 0.003391590967087351 0.013315312647117696 0.9961175332752719 -0.032874339381254225 0.0005860771043578844 0.007043898090590334 -0.0005112259703625458 -0.004397612276829856
 0.9961175332752719 -0.032874339381254225 0.003392226808397519 0.0133152417216811 -0.000511162663553175 -0.004397609491224979 0.0005827461480055469 0.0070443054151118865
 0.0005860771043578844 0.007043898090590334 -0.000511162663553175 -0.004397609491224979 0.003391662663533001 0.013315889810853082 0.9961175466581301 -0.03287375530570484
 -0.0005112259703625458 -0.004397612276829856 0.0005827461480055469 0.0070443054151118865 0.9961175466581301 -0.03287375530570484 0.003392181714012166 0.013315832852356688
0.050020842017509996 0.0037026672668172733 0.015305284741372977 0.9957049560304562 -0.037628597695182606 0.0007089461520923583 0.008052200964254581 -0.000614812464477755 -0.005030446649008861
 0.9957049560304562 -0.037628597695182606 0.0037034974236233556 0.015305197633592617 -0.0006147301394771905 -0.005030444400539789 0.000704595540812172 0.0080527330331522
 0.0007089461520923583 0.008052200964254581 -0.0006147301394771905 -0.005030444400539789 0.0037027606072108704 0.015305943387379586 0.9957049731743464 -0.03762793042701531
 -0.000614812464477755 -0.005030446649008861 0.000704595540812172 0.0080527330331522 0.9957049731743464 -0.03762793042701531 0.0037034381459618393 0.0153058737258109
0.055454545454549996 0.003990466897837893 0.017050241871501507 0.9953226620001184 -0.04177279915113138 0.0008259679417958057 0.008928521607522697 -0.0007133497963631313 -0.0055808054386657195
 0.9953226620001184 -0.04177279915113138 0.003991486913693283 0.017050139231377322 -0.0007132489757127773 -0.005580803913661523 0.0008206204299614338 0.0089291802925284
 0.0008259679417958057 0.008928521607522697 -0.0007132489757127773 -0.005580803913661523 0.003990581368055663 0.01705097108182674 0.9953226827864804 -0.04177205962012254
 -0.0007133497963631313 -0.0055808054386657195 0.0008206204299614338 0.0089291802925284 0.9953226827864804 -0.04177205962012254 0.003991413727317603 0.01705088934503275
0.056273447269699996 0.004035266339076397 0.01731445759401963 0.995263115425141 -0.04239837480007929 0.0008444350154515025 0.00906058808301026 -0.0007288920405677945 -0.00566377295975941
 0.995263115425141 -0.04239837480007929 0.004036316661304729 0.017314352490090147 -0.0007287882746759267 -0.005663771565694329 0.0008389283221553426 0.0090612674057541
 0.0008444350154515025 0.00906058808301026 -0.0007287882746759267 -0.005663771565694329 0.004035384181066665 0.017315197418210772 0.995263136790735 -0.04239762438085724
 -0.0007288920405677945 -0.00566377295975941 0.0008389283221553426 0.0090612674057541 0.995263136790735 -0.04239762438085724 0.004036241251146656 0.017315113776082594
0.06252605252188 0.004389788053373226 0.019342341260464295 0.9947916305385737 -0.04718355004740982 0.0009926546536304925 0.010068874715303995 -0.0008535802602393917 -0.006297392565461799
 0.9947916305385737 -0.04718355004740982 0.004391084400313207 0.019342216244162283 -0.0008534526514997559 -0.00629739237083369 0.000985855288231725 0.010069725809200132
 0.0009926546536304925 0.010068874715303995 -0.0008534526514997559 -0.00629739237083369 0.004389933255625394 0.01934316193339387 0.9947916565855892 -0.04718271651542245
 -0.0008535802602393917 -0.006297392565461799 0.000985855288231725 0.010069725809200132 0.9947916565855892 -0.04718271651542245 0.004390990904259466 0.01934306298768882
0.06877865777407 0.0047666283735678695 0.021388475115036564 0.9942901217604434 -0.051983956810836056 0.001153712767914463 0.011076869005499375 -0.0009889890615270484 -0.0069311051101370045
 0.9942901217604434 -0.051983956810836056 0.0047681966192689605 0.02138832816632409 -0.0009888352282736153 -0.006931106487678737 0.0011454839954477328 0.011077918416751558
 0.001153712767914463 0.011076869005499375 -0.0009888352282736153 -0.006931106487678737 0.004766803796513452 0.021389376278436723 0.9942901529489765 -0.05198304020404754
 -0.0009889890615270484 -0.0069311051101370045 0.0011454839954477328 0.011077918416751558 0.9942901529489765 -0.05198304020404754 0.0047680830817903 0.021389260659981164
0.07503126302626001 0.005166179406893072 0.02345241746335797 0.9937582112689872 -0.05679939284345972 0.0013277136078431251 0.012084372767092526 -0.001135226650057705 -0.007564707816635247
 0.9937582112689872 -0.05679939284345972 0.005168045445408901 0.023452246456833095 -0.0011350442305925609 -0.0075647111667380695 0.0013179185701274422 0.012085649091669664
 0.0013277136078431251 0.012084372767092526 -0.0011350442305925609 -0.0075647111667380695 0.0051663879114673015 0.023453398730646828 0.9937582480588917 -0.0567983931984616
 -0.001135226650057705 -0.007564707816635247 0.0013179185701274422 0.012085649091669664 0.9937582480588917 -0.0567983931984616 0.005167909908540993 0.02345326502314294
0.08128386827845 0.0055888293741521615 0.025533738633990555 0.9931955234347508 -0.061629627166269525 0.0015147577889678978 0.013091182028309766 -0.0012923973778539597 -0.008197995035485421
 0.9931955234347508 -0.061629627166269525 0.005591019124692723 0.025533541337049052 -0.0012921840301893183 -0.008198000786143654 0.001503259528794446 0.013092715932441237
 0.0015147577889678978 0.013091182028309766 -0.0012921840301893183 -0.008198000786143654 0.005589073821187982 0.025534799590268803 0.9931955662859082 -0.06162854451776002
 -0.0012923973778539597 -0.008197995035485421 0.001503259528794446 0.013092715932441237 0.9931955662859082 -0.06162854451776002 0.005590859628952204 0.025534646329192393
0.08753647353064001 0.006034962527044745 0.027632016222826895 0.9926016851768265 -0.06647440481503888 0.00171494211757648 0.014097087429080007 -0.0014606016141137917 -0.008830757952588053
 0.9926016851768265 -0.06647440481503888 0.0060375019392145245 0.027631790293598392 -0.0014603550158113815 -0.008830766559354088 0.001701603605553861 0.014098911669280918
 0.00171494211757648 0.014097087429080007 -0.0014603550158113815 -0.008830766559354088 0.006035245776948826 0.027633156421255783 0.9926017345489794 -0.06647323919896794
 -0.0014606016141137917 -0.008830757952588053 0.001701603605553861 0.014098911669280918 0.9926017345489794 -0.06647323919896794 0.006037316524258641 0.02763298209242724
0.09378907878283 0.006504959031485281 0.029746831697533654 0.9919763262881632 -0.07133345023880161 0.001928359420904278 0.015101874521320969 -0.001639935610447854 -0.009462784404035751
 0.9919763262881632 -0.07133345023880161 0.006507874090140669 0.029746574682613696 -0.0016396534584858485 -0.009462796349964137 0.001913043583898307 0.015104023964050388
 0.001928359420904278 0.015101874521320969 -0.0016396534584858485 -0.009462796349964137 0.0065052839431261784 0.02974805066081538 0.9919763826411375 -0.07133220169037095
 -0.001639935610447854 -0.009462784404035751 0.001913043583898307 0.015104023964050388 0.9919763826411375 -0.07133220169037095 0.006507660795113051 0.02974785369878783
0.100041684035 0.006999194823032533 0.031877767919029014 0.9913190797386957 -0.07620646979334522 0.002155098380742967 0.016105324013128235 -0.0018304913622803841 -0.010093858757862667
 0.9913190797386957 -0.07620646979334522 0.007002511553421529 0.03187747725097083 -0.0018301713729632152 -0.010093874553469334 0.002137668132223555 0.016107835653864387
 0.002155098380742967 0.016105324013128235 -0.0018301713729632152 -0.010093874553469334 0.006999564253537087 0.03187906514191171 0.9913191435325407 -0.0762051383440842
 -0.0018304913622803841 -0.010093858757862667 0.002137668132223555 0.016107835653864387 0.9913191435325407 -0.0762051383440842 0.007002268418007032 0.03187884392799426
0.1059090909091 0.0074853590862002314 0.03389171522148161 0.9906729981782385 -0.08079171529183277 0.002380059962398581 0.01704553898127172 -0.0020195918780732147 -0.010684993998745933
 0.9906729981782385 -0.08079171529183277 0.007489076453231999 0.03389139053434866 -0.002019234322595252 -0.01068501389561032 0.0023605209001606522 0.017048426066261637
 0.002380059962398581 0.01704553898127172 -0.002019234322595252 -0.01068501389561032 0.007485772889285867 0.03389308539095092 0.9906730693731894 -0.08079030608116099
 -0.0020195918780732147 -0.010684993998745933 0.0023605209001606522 0.017048426066261637 0.9906730693731894 -0.08079030608116099 0.007488803533934225 0.03389283989767805
0.1062942892872 0.007518041445002534 0.03402440730180685 0.9906295819629469 -0.08109315360828646 0.002395243370483485 0.017107211970725948 -0.0020323564672431365 -0.010723761848799097
 0.9906295819629469 -0.08109315360828646 0.007521785918127027 0.03402408029626414 -0.0020319963761366903 -0.010723782032027743 0.0023755616422585237 0.017110124952568372
 0.002395243370483485 0.017107211970725948 -0.0020319963761366903 -0.010723782032027743 0.007518458248995981 0.034025782243542566 0.9906296536579372 -0.08109173929302199
 -0.0020323564672431365 -0.010723761848799097 0.0023755616422585237 0.017110124952568372 0.9906296536579372 -0.08109173929302199 0.007521510983111367 0.034025535103604995
0.11254689453939999 0.008061865871673091 0.036186330403985056 0.9899074731369519 -0.08599317703720624 0.0026488742940834514 0.018107309994096675 -0.002245613982079491 -0.011352270950591839
 0.9899074731369519 -0.08599317703720624 0.008066064208778992 0.03618596425671838 -0.0022452115440277053 -0.01135229608674458 0.002626804069370204 0.018110665625705916
 0.0026488742940834514 0.018107309994096675 -0.0022452115440277053 -0.01135229608674458 0.008062332900451982 0.03618778249292323 0.9899075531937519 -0.08599167988907297
 -0.002245613982079491 -0.011352270950591839 0.002626804069370204 0.018110665625705916 0.9899075531937519 -0.08599167988907297 0.008065755516861712 0.03618750769494954
0.11879949979160001 0.00863103032040572 0.03836311485622275 0.9891523974464866 -0.09090620178170075 0.0029160664274935012 0.01910538537658246 -0.00247034227820128 -0.011979159775502754
 0.9891523974464866 -0.09090620178170075 0.008635708698354396 0.038362706639868994 -0.002469895267218248 -0.01197919045722729 0.0028914707752864185 0.01910922714957157
 0.0029160664274935012 0.01910538537658246 -0.002469895267218248 -0.01197919045722729 0.00863155042087904 0.03836464348743802 0.9891524863260949 -0.09090462183414824
 -0.00247034227820128 -0.011979159775502754 0.0028914707752864185 0.01910922714957157 0.9891524863260949 -0.09090462183414824 0.008635364294494722 0.038364339238693146
0.1250521050438 0.009225892055038785 0.040554334521068026 0.9883640033497749 -0.09583187679881658 0.0031968902618455114 0.020101201252627775 -0.002706614896786423 -0.012604198496943149
 0.9883640033497749 -0.09583187679881658 0.009231076711216896 0.04055388118145009 -0.0027061211061752428 -0.012604235344169696 0.0031696323722870405 0.02010557485829839
 0.0031968902618455114 0.020101201252627775 -0.0027061211061752428 -0.012604235344169696 0.009226468069647885 0.04055593905879677 0.9883641015135944 -0.09583021408266558
 -0.002706614896786423 -0.012604198496943149 0.0031696323722870405 0.02010557485829839 0.9883641015135944 -0.09583021408266558 0.009230694643745988 0.04055560350277808
0.131304710296 0.009846803183072086 0.042759558838224486 0.987541943834096 -0.10076983903555815 0.003491411348589021 0.02109451673889996 -0.0029545004037535173 -0.01322715379045368
 0.987541943834096 -0.10076983903555815 0.009852520420171654 0.042759057190624436 -0.0029539576461044613 -0.013227197450376345 0.003461354569429953 0.02109947008425646
 0.003491411348589021 0.02109451673889996 -0.0029539576461044613 -0.013227197450376345 0.009847437948547174 0.04276123861308788 0.9875420517442373 -0.10076809358140833
 -0.0029545004037535173 -0.01322715379045368 0.003461354569429953 0.02109947008425646 0.9875420517442373 -0.10076809358140833 0.0098520987413927 0.04276086982619137
0.1375573155481 0.010360139881279387 0.04469004016044915 0.9868199161835178 -0.10543122471317806 0.003765284586577225 0.02205700152066656 -0.0031796959402589538 -0.0138197023854214
 0.9868199161835178 -0.10543122471317806 0.010366416539717191 0.04468949687107712 -0.003179100775375605 -0.013819752973666367 0.0037323588166470905 0.022062531571371197
 0.003765284586577225 0.02205700152066656 -0.003179100775375605 -0.013819752973666367 0.010360835306076229 0.04469179495317573 0.9868200342763249 -0.1054293966008074
 -0.0031796959402589538 -0.0138197023854214 0.0037323588166470905 0.022062531571371197 0.9868200342763249 -0.1054293966008074 0.010365954283177551 0.04469140005983739
0.1438099208003 0.010891752562296748 0.04660869644794425 0.9860720206531958 -0.11007913323487298 0.004050171870033118 0.023014569584564566 -0.003413834795692702 -0.014407770694767072
 0.9860720206531958 -0.11007913323487298 0.0108986150703434 0.046608108917863204 -0.0034131848386116646 -0.014407828861276915 0.004014252673885454 0.023020720576877526
 0.004050171870033118 0.023014569584564566 -0.0034131848386116646 -0.014407828861276915 0.010892511308923974 0.046610525629071226 0.986072149384977 -0.11007722250808939
 -0.003413834795692702 -0.014407770694767072 0.004014252673885454 0.023020720576877526 0.986072149384977 -0.11007722250808939 0.010898110473054399 0.0466101032336625
0.1500625260525 0.011441427699145074 0.04851531904952119 0.9852984760055518 -0.11471339971940321 0.004345957761846805 0.02396708976445898 -0.0036568050994170097 -0.014991236869918446
 0.9852984760055518 -0.11471339971940321 0.011448902540014272 0.048514684534747714 -0.003656097968713586 -0.014991303291652752 0.004306921617340063 0.023973907547508853
 0.004345957761846805 0.02396708976445898 -0.003656097968713586 -0.014991303291652752 0.011442252414344836 0.048517221967630954 0.9852986158323923 -0.11471140642346561
 -0.0036568050994170097 -0.014991236869918446 0.004306921617340063 0.023973907547508853 0.9852986158323923 -0.11471140642346561 0.011448353855055837 0.04851677057304777
0.15631513130469998 0.01200894992706465 0.05040970557410404 0.9844995024765961 -0.11933386100874427 0.004652525263031434 0.024914433510409947 -0.003908493426895241 -0.01556998198629416
 0.9844995024765961 -0.11933386100874427 0.012017063640531626 0.05040902118234551 -0.0039077267447792914 -0.015570057367231358 0.0046102495778739296 0.024921965526355314
