! Created with skrf 1.8.0 (http://scikit-rf.org).
# GHz S RI R 50.0 
!freq ReS11 ImS11 ReS12 ImS12 ReS13 ImS13
! ReS14 ImS14
! ReS21 ImS21 ReS22 ImS22 ReS23 ImS23
! ReS24 ImS24
! ReS31 ImS31 ReS32 ImS32 ReS33 ImS33
! ReS34 ImS34
! ReS41 ImS41 ReS42 ImS42 ReS43 ImS43
! ReS44 ImS44
!
0.0 0.001019430981166 0.0 0.9989805690046 0.0 3.843893107123e-05 0.0 -3.843893081625e-05 4.7074113586767115e-21
 0.9989805690046 0.0 0.001019430981181 0.0 -3.843893081616e-05 4.707411358665691e-21 3.84389310719e-05 0.0
 3.843893107123e-05 0.0 -3.843893081616e-05 4.707411358665691e-21 0.001019430978147 0.0 0.9989805690016 0.0
 -3.843893081625e-05 4.7074113586767115e-21 3.84389310719e-05 0.0 0.9989805690016 0.0 0.001019430978162 0.0
0.005 0.0010957723270737217 0.0008345241624721588 0.9988841262708131 -0.002136840269143854 5.333282390215812e-05 0.00042418087476866855 -5.1842917294366695e-05 -0.00026632293469799656
 0.9988841262708131 -0.002136840269143854 0.0010957897345230385 0.000834514062656736 -5.1845471197954945e-05 -0.0002663249012609308 5.321644649561479e-05 0.00042422500128768065
 5.333282390215812e-05 0.00042418087476866855 -5.1845471197954945e-05 -0.0002663249012609308 0.0010957706876680603 0.0008344578996510034 0.9988841259542611 -0.0021369073257010863
 -5.1842917294366695e-05 -0.00026632293469799656 5.321644649561479e-05 0.00042422500128768065 0.9988841259542611 -0.0021369073257010863 0.0010957907444828678 0.0008344462153369405
0.006252605252188 0.0011154938135424883 0.0010464809552208406 0.9988591000626894 -0.0026716185495477443 5.743638568006715e-05 0.0005304489089255865 -5.5491581536349154e-05 -0.0003332651067348824
 0.9988591000626894 -0.0026716185495477443 0.0011155210239702333 0.001046468119919911 -5.5495555691883726e-05 -0.0003332675332938415 5.725455095996512e-05 0.0005305061296348272
 5.743638568006715e-05 0.0005304489089255865 -5.5495555691883726e-05 -0.0003332675332938415 0.0011154913314900237 0.0010463981309272387 0.9988590996487949 -0.002671702369336601
 -5.5491581536349154e-05 -0.0003332651067348824 5.725455095996512e-05 0.0005305061296348272 0.9988590996487949 -0.002671702369336601 0.0011155226839522343 0.001046383311308985
0.01250521050438 0.0012175621723582934 0.002115330460270831 0.9987289346569891 -0.0053442484077013625 8.01678650628106e-05 0.001061315884278176 -7.546458127137498e-05 -0.0006683298953511111
 0.9987289346569891 -0.0053442484077013625 0.001217670816185375 0.0021153026890772158 -7.548024486725125e-05 -0.0006683344107988175 7.944262124771796e-05 0.0010614520656541024
 8.01678650628106e-05 0.001061315884278176 -7.548024486725125e-05 -0.0006683344107988175 0.0012175528119609852 0.002115165099257429 0.9987289335568942 -0.005344415809972389
 -7.546458127137498e-05 -0.0006683298953511111 7.944262124771796e-05 0.0010614520656541024 0.9987289335568942 -0.005344415809972389 0.0012176780020349452 0.0021151333081799446
0.01875781575657 0.0013257953508644142 0.0031998864218572677 0.9985899570303568 -0.008024453809059777 0.00010667455156242254 0.0015929909720984589 -9.840548040174804e-05 -0.0010047456286714905
 0.9985899570303568 -0.008024453809059777 0.0013260394623986025 0.003199841516836504 -9.84404151396296e-05 -0.0010047518520056094 0.00010504505759079381 0.001593230935965736
 0.00010667455156242254 0.0015929909720984589 -9.84404151396296e-05 -0.0010047518520056094 0.0013257747361028844 0.003199638706051342 0.9985899549806279 -0.00802470471129674
 -9.840548040174804e-05 -0.0010047456286714905 0.00010504505759079381 0.001593230935965736 0.9985899549806279 -0.00802470471129674 0.001326056041422062 0.0031995876456266345
0.02501042100875 0.0014403509403131543 0.004298689550886207 0.9984420488443347 -0.010713593025403772 0.00013699866234154765 0.002125531854517028 -0.0001243610709422986 -0.0013423943114103472
 0.9984420488443347 -0.010713593025403772 0.0014407844320306778 0.004298625235186663 -0.00012442277127726702 -0.0013424018103729803 0.0001341037014791931 0.0021259033395305397
 0.00013699866234154765 0.002125531854517028 -0.00012442277127726702 -0.0013424018103729803 0.001440314694726367 0.004298359670902764 0.9984420455748302 -0.010713927383579742
 -0.0001243610709422986 -0.0013423943114103472 0.0001341037014791931 0.0021259033395305397 0.9984420455748302 -0.010713927383579742 0.0014408142636648483 0.0042982869198311315
0.03126302626094 0.0015613793502879626 0.005411018638944032 0.9982850837301457 -0.013412283074822978 0.000171183213690131 0.002658948293713665 -0.00015337723315835583 -0.0016812041487343052
 0.9982850837301457 -0.013412283074822978 0.0015620560388065878 0.005410932560926008 -0.00015347312204330206 -0.0016812124387003123 0.0001666608303000784 0.002659481967968559
 0.000171183213690131 0.002658948293713665 -0.00015347312204330206 -0.0016812124387003123 0.0015613231036506376 0.0054106068018382044 0.9982850789721451 -0.013412700875726432
 -0.00015337723315835583 -0.0016812041487343052 0.0001666608303000784 0.002659481967968559 0.9982850789721451 -0.013412700875726432 0.0015621029851955852 0.005410509819736425
0.037515631513130004 0.0016890277902057874 0.00653642599461514 0.9981189313106522 -0.01612086425495031 0.00020927154650066728 0.0031932316824831615 -0.00018549929115838011 -0.00202111997688678
 0.9981189313106522 -0.01612086425495031 0.0016900014121682195 0.006536315730347153 -0.0001856367282328948 -0.0020211285204610793 0.00020275886631235826 0.003193961173749819
 0.00020927154650066728 0.0031932316824831615 -0.0001856367282328948 -0.0020211285204610793 0.0016889471746973582 0.00653593244553622 0.9981189247938834 -0.016121365494847238
 -0.00018549929115838011 -0.00202111997688678 0.00020275886631235826 0.003193961173749819 0.9981189247938834 -0.016121365494847238 0.0016900693362769993 0.006535808575160412
0.043768236765320004 0.0018234418058107268 0.007674596105651491 0.9979434587807713 -0.018839541446321197 0.0002513071131914997 0.003728364029998101 -0.00022077215719548254 -0.002362094263860478
 0.9979434587807713 -0.018839541446321197 0.0018247660295965913 0.0076744591608457 -0.0002209584437775252 -0.002362102470678685 0.0002424402415767565 0.003729325961406102
 0.0002513071131914997 0.003728364029998101 -0.0002209584437775252 -0.002362102470678685 0.0018233324565357493 0.007674021119506904 0.9979434502338878 -0.018840126139739684
 -0.00022077215719548254 -0.002362094263860478 0.0002424402415767565 0.003729325961406102 0.9979434502338878 -0.018840126139739684 0.0018248587969295163 0.007673867588199643
0.050020842017509996 0.001964766004255098 0.008825287207838648 0.9977585316778621 -0.021568442507526316 0.0002973333611967792 0.0042643216694134576 -0.000259240396592275 -0.002704083389625468
 0.9977585316778621 -0.021568442507526316 0.00196649443949033 0.008825121019507378 -0.0002594827790092204 -0.0027040906162379354 0.00028574732246136917 0.004265555697465971
 0.0002973333611967792 0.0042643216694134576 -0.0002594827790092204 -0.0027040906162379354 0.00196462355921812 0.008824631096180336 0.9977585208284466 -0.021569110680753522
 -0.000259240396592275 -0.002704083389625468 0.00028574732246136917 0.004265555697465971 0.9977585208284466 -0.021569110680753522 0.0019666159187820553 0.008824445017005895
0.055454545454549996 0.0020933048184011024 0.009835287646046631 0.9975900407966295 -0.023948305871222902 0.00034060617222753293 0.004730734029677431 -0.0002952998684340763 -0.0030020741902064283
 0.9975900407966295 -0.023948305871222902 0.0020954280238276108 0.009835093910507776 -0.00029559684378281946 -0.0030020800011424428 0.0003263598228651628 0.004732239109258275
 0.00034060617222753293 0.004730734029677431 -0.00029559684378281946 -0.0030020800011424428 0.0020931300710814987 0.009834561315749031 0.9975900277233423 -0.02394904662145979
 -0.0002952998684340763 -0.0030020741902064283 0.0003263598228651628 0.004732239109258275 0.9975900277233423 -0.02394904662145979 0.002095577598574721 0.009834344518827908
0.056273447269699996 0.002113144439930361 0.00998830261239211 0.997564014314652 -0.024307646911111758 0.00034739366006649055 0.004801077067460286 -0.0003009482564578888 -0.0030470458250784964
 0.997564014314652 -0.024307646911111758 0.0021153306457688966 0.00998810455033138 -0.00030125392836043087 -0.003047051374874083 0.00033272236117597555 0.004802625921264632
 0.00034739366006649055 0.004801077067460286 -0.00030125392836043087 -0.003047051374874083 0.0021129645388947215 0.009987565723064648 0.9975640008881362 -0.024308398603157314
 -0.0003009482564578888 -0.0030470458250784964 0.00033272236117597555 0.004802625921264632 0.9975640008881362 -0.024308398603157314 0.0021154847083845515 0.009987344095654181
0.06252605252188 0.0022687208354857558 0.011163474947521202 0.9973597700485108 -0.027057201465393393 0.00040153124746850126 0.005338599828625944 -0.0003459396789755415 -0.003390941116974624
 0.9973597700485108 -0.027057201465393393 0.00227141832824941 0.011163242315625847 -0.0003463157830619357 -0.0033909442401222063 0.00038340745766099986 0.005340509349812863
 0.00040153124746850126 0.005338599828625944 -0.0003463157830619357 -0.0033909442401222063 0.002268499121681142 0.011162657671724129 0.997359753769094 -0.027058036721299753
 -0.0003459396789755415 -0.003390941116974624 0.00038340745766099986 0.005340509349812863 0.997359753769094 -0.027058036721299753 0.0022716088500139464 0.011162397382968274
0.06877865777407 0.002431638715216908 0.012350656771093052 0.9971456614634623 -0.029817129665022687 0.00045978918966564967 0.005876857274481113 -0.0003942583020094246 -0.0037357292982615974
 0.9971456614634623 -0.029817129665022687 0.0024349009753459384 0.012350386808529052 -0.00039471193127019666 -0.003735729191664727 0.0004378445311096361 0.005879176457548908
 0.00045978918966564967 0.005876857274481113 -0.00039471193127019666 -0.003735729191664727 0.0024313708336102242 0.012349759533057057 0.9971456420522992 -0.029818048546733724
 -0.0003942583020094246 -0.0037357292982615974 0.0004378445311096361 0.005879176457548908 0.9971456420522992 -0.029818048546733724 0.002435131835197341 0.012349457357701434
0.07503126302626001 0.0026020414866228074 0.013549714594102367 0.996921550502557 -0.03258743763116323 0.0005222103453991168 0.006415814828336972 -0.0004459474572014453 -0.0040813704936423075
 0.996921550502557 -0.03258743763116323 0.002605921965344095 0.013549404476450776 -0.0004464856558501676 -0.004081366300910039 0.0004960752917693281 0.006418595861260571
 0.0005222103453991168 0.006415814828336972 -0.0004464856558501676 -0.004081366300910039 0.0026017230854757387 0.013548737864023623 0.9969215276792613 -0.03258844020508094
 -0.0004459474572014453 -0.0040813704936423075 0.0004960752917693281 0.006418595861260571 0.9969215276792613 -0.03258844020508094 0.0026061970470619665 0.013548390465053281
0.08128386827845 0.0027800724896572585 0.014760524933996872 0.9966872985685512 -0.03536811802216163 0.0005888373372673353 0.006955436249031703 -0.0005010501607425174 -0.004427824676608221
 0.9966872985685512 -0.03536811802216163 0.002784624615786005 0.014760171774141444 -0.0005016799249964789 -0.004427815488019201 0.0005581412185933683 0.0069587345540129434
 0.0005888373372673353 0.006955436249031703 -0.0005016799249964789 -0.004427815488019201 0.002779699220315859 0.014759469217280828 0.9966872720498298 -0.03536920437041775
 -0.0005010501607425174 -0.004427824676608221 0.0005581412185933683 0.0069587345540129434 0.9966872720498298 -0.03536920437041775 0.002784947807518057 0.014759073146206926
0.08753647353064001 0.0029658750253042307 0.015982971559753433 0.9964427666050747 -0.03815915275288894 0.0006597125239042521 0.0074956838095909615 -0.0005596091036618675 -0.004775051482183393
 0.9964427666050747 -0.03815915275288894 0.0029711522115276586 0.015982572408745323 -0.0005603373822376617 -0.004775036334665783 0.0006240835360420813 0.007499558083911011
 0.0006597125239042521 0.0074956838095909615 -0.0005603373822376617 -0.004775036334665783 0.0029654425419277986 0.015981837407017235 0.996442736104403 -0.038160322963770116
 -0.0005596091036618675 -0.004775051482183393 0.0006240835360420813 0.007499558083911011 0.996442736104403 -0.038160322963770116 0.002971527405851559 0.01598138910407915
0.09378907878283 0.0031595923693189965 0.01721694354134079 0.9961878151632328 -0.04096051491022421 0.0007348779749001222 0.008036518409994038 -0.0006216666390070606 -0.005123010086217875
 0.9961878151632328 -0.04096051491022421 0.0031656480186139984 0.017216495389164158 -0.0006225003335751593 -0.005122987963336348 0.0006939431930045795 0.008041030666878387
 0.0007348779749001222 0.008036518409994038 -0.0006225003335751593 -0.005122987963336348 0.003159096329999521 0.017215731544552578 0.9961877803914908 -0.040961769082584636
 -0.0006216666390070606 -0.005123010086217875 0.0006939431930045795 0.008041030666878387 0.9961877803914908 -0.040961769082584636 0.00316607911326955 0.017215227338764984
0.100041684035 0.003361367777017374 0.01846233380449941 0.9959223044620776 -0.043772170163870694 0.0008143754468896548 0.008577899665026204 -0.0006872647677615249 -0.005471659110247307
 0.9959223044620776 -0.043772170163870694 0.003368255289073469 0.01846183358064817 -0.0006882107332331885 -0.005471628942186781 0.0007677608420824268 0.008583115274498202
 0.0008143754468896548 0.008577899665026204 -0.0006882107332331885 -0.005471628942186781 0.003360803843496967 0.018461044596507742 0.9959222651265768 -0.043773508408034324
 -0.0006872647677615249 -0.005471659110247307 0.0007677608420824268 0.008583115274498202 0.9959222651265768 -0.043773508408034324 0.003368746186791769 0.01846048070554951
0.1059090909091 0.003558168905664191 0.019641292337593555 0.9956634225381146 -0.04641993568749381 0.0008929522185214627 0.009086388685840661 -0.0007520788770123052 -0.005799419759201815
 0.9956634225381146 -0.04641993568749381 0.003565885601791745 0.01964074040391335 -0.0007531363898383138 -0.005799381021052232 0.0008406665608711123 0.009092326796467041
 0.0008929522185214627 0.009086388685840661 -0.0007531363898383138 -0.005799381021052232 0.0035575373188922975 0.019639931290424066 0.9956633786506538 -0.04642135293176246
 -0.0007520788770123052 -0.005799419759201815 0.0008406665608711123 0.009092326796467041 0.9956633786506538 -0.04642135293176246 0.003566436172603199 0.01963930785198645
0.1062942892872 0.003571344479242239 0.019719038050475448 0.9956460944394693 -0.04659407781266351 0.0008982463597487914 0.0091197859724262 -0.0007564451242809555 -0.005820956546742811
 0.9956460944394693 -0.04659407781266351 0.0035791172568402888 0.019718482624408243 -0.0007575101690450387 -0.005820917210302396 0.0008455768185388251 0.009125773702108073
 0.0008982463597487914 0.0091197859724262 -0.0007575101690450387 -0.005820917210302396 0.0035707083175969528 0.01971767230923087 0.9956460502440811 -0.046595500246731876
 -0.0007564451242809555 -0.005820956546742811 0.0008455768185388251 0.009125773702108073 0.9956460502440811 -0.046595500246731876 0.003579671865708628 0.01971704483930189
0.11254689453939999 0.003789665674328405 0.020986953926172076 0.9953590448011637 -0.049426191581396044 0.0009865317745002718 0.009662134555814805 -0.0008292489596932567 -0.006170859710283133
 0.9953590448011637 -0.049426191581396044 0.0037983771295772143 0.020986340107721636 -0.0008304398457245859 -0.006170810028875776 0.0009274311205818954 0.009668966611637493
 0.0009865317745002718 0.009662134555814805 -0.0008304398457245859 -0.006170810028875776 0.0037889529550357254 0.020985512371934804 0.9953589954457607 -0.049427698334403296
 -0.0008292489596932567 -0.006170859710283133 0.0009274311205818954 0.009668966611637493 0.9953589954457607 -0.049427698334403296 0.0037989993632214394 0.020984817317380035
0.11879949979160001 0.0040164745139009495 0.022265980372183015 0.9950610150640935 -0.05226846024020233 0.0010792723706506632 0.010204901507095722 -0.0009057171254219046 -0.006521325189981845
 0.9950610150640935 -0.05226846024020233 0.004026178074899204 0.022265304911754404 -0.000907040568413751 -0.006521263933639875 0.0010133633887853466 0.010212653573917358
 0.0010792723706506632 0.010204901507095722 -0.000907040568413751 -0.006521263933639875 0.004015680912432871 0.022264463769713735 0.9950609602444954 -0.05227005145048259
 -0.0009057171254219046 -0.006521325189981845 0.0010133633887853466 0.010212653573917358 0.9950609602444954 -0.05227005145048259 0.00402687185249375 0.022263697012570676
0.1250521050438 0.004251914087368582 0.023556017111837736 0.9947518645998626 -0.05512082808382796 0.001176508424342155 0.010748041811956365 -0.00098589005551574 -0.006872308819613035
 0.9947518645998626 -0.05512082808382796 0.004262663204558407 0.023555276700488976 -0.0009873527248742784 -0.006872234704995445 0.0011034128862105013 0.01075679309399468
 0.001176508424342155 0.010748041811956365 -0.0009873527248742784 -0.006872234704995445 0.004251035284383705 0.02355442626974876 0.9947518040075567 -0.055122503900068856
 -0.00098589005551574 -0.006872308819613035 0.0011034128862105013 0.01075679309399468 0.9947518040075567 -0.055122503900068856 0.004263432451150695 0.02355358357914863
0.131304710296 0.0044961274018963165 0.024856964234641427 0.9944314526745245 -0.05798323531728158 0.0012782797861913317 0.011291509376099068 -0.0010698077488725064 -0.007223765647672393
 0.9944314526745245 -0.05798323531728158 0.004507975554644838 0.024856155504027543 -0.0010714162677247952 -0.007223677338086294 0.0011976184778788315 0.011301342637279945
 0.0012782797861913317 0.011291509376099068 -0.0010714162677247952 -0.007223677338086294 0.004495159083905849 0.02485530000673805 0.9944313859964812 -0.05798499589764659
 -0.0010698077488725064 -0.007223765647672393 0.0011976184778788315 0.011301342637279945 0.9944313859964812 -0.05798499589764659 0.004508824201396361 0.02485437703815049
0.1375573155481 0.004683323878636469 0.025998117485423893 0.9941655816842156 -0.060684990099640616 0.001369418228087753 0.01181732998539623 -0.0011423986316544494 -0.007557664632674054
 0.9941655816842156 -0.060684990099640616 0.004696329243840454 0.025997257360421428 -0.0011441626637234362 -0.007557562487224403 0.0012810055944957246 0.011828208260504099
 0.001369418228087753 0.01181732998539623 -0.0011441626637234362 -0.007557562487224403 0.004682262087612221 0.025996380787809147 0.9941655086488494 -0.060686835533159594
 -0.0011423986316544494 -0.007557664632674054 0.0012810055944957246 0.011828208260504099 0.9941655086488494 -0.060686835533159594 0.00469726079553251 0.02599539325164214
0.1438099208003 0.004876710834223478 0.02713474167919892 0.9938910387585637 -0.0633814052647502 0.00146423039802923 0.012341878373241235 -0.0012178907097125501 -0.007890433165704444
 0.9938910387585637 -0.0633814052647502 0.00489092768737634 0.02713382822798206 -0.001219817360111453 -0.007890315918374096 0.0013677209697574148 0.012353875019908221
 0.00146423039802923 0.012341878373241235 -0.001219817360111453 -0.007890315918374096 0.004875551329431311 0.027132933408788695 0.9938909590543671 -0.06338333570564653
 -0.0012178907097125501 -0.007890433165704444 0.0013677209697574148 0.012353875019908221 0.9938909590543671 -0.06338333570564653 0.004891946006009585 0.027131878342896786
0.1500625260525 0.005076236251886282 0.028266786180543547 0.9936078779687412 -0.06607245901557607 0.0015626933649507103 0.012865129417973187 -0.0012962623148191808 -0.008222047563477686
 0.9936078779687412 -0.06607245901557607 0.005091718934609664 0.028265817360315464 -0.001298358681252308 -0.008221913898520112 0.0014577430061399764 0.012878320395864408
 0.0015626933649507103 0.012865129417973187 -0.001298358681252308 -0.008221913898520112 0.005074974802200538 0.028264907267429216 0.993607791280524 -0.06607447462770899
 -0.0012962623148191808 -0.008222047563477686 0.0014577430061399764 0.012878320395864408 0.993607791280524 -0.06607447462770899 0.005092827882983015 0.028263781557197165
0.15631513130469998 0.005281847921407765 0.02939420220380751 0.9933161534632582 -0.06875812885491164 0.0016647840375792965 0.013387058274053183 -0.0013774916110675275 -0.008552484571258453
