! Created with skrf 1.8.0 (http://scikit-rf.org).
# GHz S RI R 50.0 
!freq ReS11 ImS11 ReS12 ImS12 ReS13 ImS13
! ReS14 ImS14
! ReS21 ImS21 ReS22 ImS22 ReS23 ImS23
! ReS24 ImS24
! ReS31 ImS31 ReS32 ImS32 ReS33 ImS33
! ReS34 ImS34
! ReS41 ImS41 ReS42 ImS42 ReS43 ImS43
! ReS44 ImS44
!
0.0 0.001506005431471 0.0 0.99849399456 0.0 5.771163909092e-05 0.0 -5.771163926896e-05 7.067637430427856e-21
 0.99849399456 0.0 0.001506005431489 0.0 -5.771163926909e-05 7.067637430443777e-21 5.771163909185e-05 0.0
 5.771163909092e-05 0.0 -5.771163926909e-05 7.067637430443777e-21 0.001506005435723 0.0 0.9984939945643 0.0
 -5.771163926896e-05 7.067637430427856e-21 5.771163909185e-05 0.0 0.9984939945643 0.0 0.001506005435737 0.0
0.005 0.0016201746425851817 0.0012379746028884089 0.9983496182141719 -0.0031545053170388025 7.979370121369034e-05 0.0006004554222392084 -7.78133330655931e-05 -0.00038308475247711047
 0.9983496182141719 -0.0031545053170388025 0.0016201547589606163 0.0012379862435779319 -7.781404620699827e-05 -0.00038308534916860334 7.990598301145513e-05 0.0006004125871873416
 7.979370121369034e-05 0.0006004554222392084 -7.781404620699827e-05 -0.00038308534916860334 0.001620174365614097 0.0012380420745871227 0.9983496185701626 -0.003154438256594027
 -7.78133330655931e-05 -0.00038308475247711047 7.990598301145513e-05 0.0006004125871873416 0.9983496185701626 -0.003154438256594027 0.0016201557428169456 0.001238052888581468
0.006252605252188 0.0016500875317969 0.0015523153633966145 0.9983115668969783 -0.003943905737546607 8.605182005531892e-05 0.0007508806725760509 -8.346473048455159e-05 -0.0004793449405419143
 0.9983115668969783 -0.003943905737546607 0.001650056450200123 0.0015523301770027631 -8.346583980889936e-05 -0.0004793456773273924 8.62272493401843e-05 0.000750825073948134
 8.605182005531892e-05 0.0007508806725760509 -8.346583980889936e-05 -0.0004793456773273924 0.0016500870260193789 0.0015523996911541074 0.9983115673812741 -0.003943821927403984
 -8.346473048455159e-05 -0.0004793449405419143 8.62272493401843e-05 0.000750825073948134 0.9983115673812741 -0.003943821927403984 0.0016500579161951117 0.0015524134600817107
0.01250521050438 0.0018073788849495259 0.0031369791808395593 0.9981102377760966 -0.007888616011721836 0.00012167539835209388 0.0015022577755068696 -0.0001154007470369148 -0.0009610007265379056
 0.9981102377760966 -0.007888616011721836 0.0018072547745914443 0.0031370114801666654 -0.00011540511415527887 -0.000961002101172671 0.000122374948384374 0.001502124429636483
 0.00012167539835209388 0.0015022577755068696 -0.00011540511415527887 -0.000961002101172671 0.0018073762795583225 0.0031371476439445056 0.9981102391329378 -0.007888448611757333
 -0.0001154007470369148 -0.0009610007265379056 0.000122374948384374 0.001502124429636483 0.9981102391329378 -0.007888448611757333 0.001807260056691951 0.0031371777277320453
0.01875781575657 0.0019782159130120693 0.004744093640827385 0.9978897615804746 -0.011843731981130841 0.00016466630922094583 0.0022546008142955683 -0.00015361568745200386 -0.0014443270343520809
 0.9978897615804746 -0.011843731981130841 0.001977937028204783 0.004744146337855195 -0.00015362541986371596 -0.0014443289306292884 0.00016623772436134978 0.002254363289021197
 0.00016466630922094583 0.0022546008142955683 -0.00015362541986371596 -0.0014443289306292884 0.001978209618503602 0.004744346164832929 0.9978897642085282 -0.011843481078323467
 -0.00015361568745200386 -0.0014443270343520809 0.00016623772436134978 0.002254363289021197 0.9978897642085282 -0.011843481078323467 0.001977948484944419 0.004744395309202878
0.02501042100875 0.002162925525751429 0.006371429485490224 0.9976498831422689 -0.015811176422972906 0.0002151087923979799 0.003007938184250537 -0.00019820276218864317 -0.0019291194411870203
 0.9976498831422689 -0.015811176422972906 0.0021624302446914727 0.006371505712742646 -0.00019821994013467987 -0.001929121723366776 0.0002178999267366793 0.0030075659210583817
 0.0002151087923979799 0.003007938184250537 -0.00019821994013467987 -0.001929121723366776 0.0021629139414677694 0.006371766029639703 0.9976498874375018 -0.01581084205435384
 -0.00019820276218864317 -0.0019291194411870203 0.0002178999267366793 0.0030075659210583817 0.9976498874375018 -0.01581084205435384 0.002162450231958823 0.006371837162176276
0.03126302626094 0.0023618211443815536 0.008017843030094935 0.9973903340104907 -0.01979177667231337 0.00027308725453745457 0.00376223354362946 -0.0002492527623918898 -0.002415233153469589
 0.9973903340104907 -0.01979177667231337 0.0023610479380325984 0.008017946137368549 -0.00024927944352664486 -0.0024152356660390823 0.00027744640147973453 0.0037616918352823426
 0.00027308725453745457 0.00376223354362946 -0.00024927944352664486 -0.0024152356660390823 0.002361802660663669 0.00801826357212707 0.9973903403699033 -0.0197913588400482
 -0.0002492527623918898 -0.002415233153469589 0.00027744640147973453 0.0037616918352823426 0.9973903403699033 -0.0197913588400482 0.002361078812129859 0.008018359798773645
0.037515631513130004 0.0025752095101831294 0.009682591221716729 0.9971108394681385 -0.023785949500042845 0.0003386856286666994 0.004517424908411165 -0.00030685465635970987 -0.002902543921640689
 0.9971108394681385 -0.023785949500042845 0.0025740969219654863 0.009682724774978791 -0.00030689287808890396 -0.0029025464892744866 0.0003449616709026502 0.004516674858004281
 0.0003386856286666994 0.004517424908411165 -0.00030689287808890396 -0.0029025464892744866 0.002575182509165194 0.009683095731973743 0.9971108482918302 -0.023785448197411015
 -0.00030685465635970987 -0.002902543921640689 0.0003449616709026502 0.004516674858004281 0.9971108482918302 -0.023785448197411015 0.0025741410413488712 0.009683220335343592
0.043768236765320004 0.0028033933132460298 0.011365123210507531 0.9968111213671768 -0.02779390947033372 0.000411987062286228 0.005273436535734963 -0.00037109580392688014 -0.0033909361582682767
 0.9968111213671768 -0.02779390947033372 0.0028018799437843616 0.011365290991444949 -0.00037114758492521964 -0.0033909385858416903 0.00042052954491809524 0.005272435009985875
 0.000411987062286228 0.005273436535734963 -0.00037114758492521964 -0.0033909385858416903 0.0028033561656122296 0.011365711669260285 0.9968111330558526 -0.02779332466439794
 -0.00037109580392688014 -0.0033909361582682767 0.00042052954491809524 0.005272435009985875 0.9968111330558526 -0.02779332466439794 0.0028019396654149864 0.011365868107671592
0.050020842017509996 0.003046672411492975 0.013064994213397066 0.9964908995552881 -0.03181575500351625 0.0004930737253076982 0.006030183835528909 -0.00044206203106604363 -0.0038802980274771806
 0.9964908995552881 -0.03181575500351625 0.0030446969052644536 0.013065200219437627 -0.0004421293721584854 -0.0038803001001039756 0.0005042328884508436 0.006028883415612728
 0.0004930737253076982 0.006030183835528909 -0.0004421293721584854 -0.0038803001001039756 0.003046623478588167 0.0130656665968376 0.9964909145133888 -0.03181508664930429
 -0.00044206203106604363 -0.0038802980274771806 0.0005042328884508436 0.006028883415612728 0.9964909145133888 -0.03181508664930429 0.0030447745872153043 0.013065858503689106
0.055454545454549996 0.003270579771599357 0.014556017974774271 0.9961957471141196 -0.03532215783080791 0.0005699260291596412 0.006688347062718338 -0.0005092609344775611 -0.0043062699610214444
 0.9961957471141196 -0.03532215783080791 0.003268152852114379 0.014556260613812018 -0.0005093434093861489 -0.004306271535354499 0.0005836441508250648 0.006686745018668414
 0.0005699260291596412 0.006688347062718338 -0.0005093434093861489 -0.004306271535354499 0.0032705192582838994 0.014556763269662253 0.9961957652445442 -0.03532141682393362
 -0.0005092609344775611 -0.0043062699610214444 0.0005836441508250648 0.006686745018668414 0.9961957652445442 -0.03532141682393362 0.0032682480567269422 0.014556989086269444
0.056273447269699996 0.003305344463737685 0.014781823215967238 0.996149892719624 -0.03585151060177024 0.0005820266688170304 0.006787575779056405 -0.0005198376436923835 -0.004370519039139367
 0.996149892719624 -0.03585151060177024 0.0033028454979113597 0.014782071660657268 -0.0005199225285845375 -0.004370520522209157 0.0005961534556361232 0.00678592471036839
 0.0005820266688170304 0.006787575779056405 -0.0005199225285845375 -0.004370520522209157 0.0033052820966598933 0.014782579497547884 0.9961499113550126 -0.035850758641007396
 -0.0005198376436923835 -0.004370519039139367 0.0005961534556361232 0.00678592471036839 0.9961499113550126 -0.035850758641007396 0.003302943497763893 0.014782810681141992
0.06252605252188 0.0035797052672087333 0.016515269736988584 0.9957878189383462 -0.03990115001424993 0.0006789257104531529 0.007545516220767744 -0.0006045054090191442 -0.00486148873243239
 0.9957878189383462 -0.03990115001424993 0.0035766215404679593 0.016515565050767723 -0.0006046098047338147 -0.004861489371662137 0.0006963717589800314 0.007543458362181073
 0.0006789257104531529 0.007545516220767744 -0.0006046098047338147 -0.004861489371662137 0.0035796278055082176 0.016516109891556784 0.9957878416621214 -0.03990031437135614
 -0.0006045054090191442 -0.00486148873243239 0.0006963717589800314 0.007543458362181073 0.9957878416621214 -0.03990031437135614 0.0035767422139789565 0.016516384335224923
0.06877865777407 0.003870048937906312 0.018265019964515107 0.9954043960782504 -0.04396461003386074 0.0007838493331971811 0.008303904691710606 -0.0006961465193219365 -0.005353095890976114
 0.9954043960782504 -0.04396461003386074 0.003866319160150076 0.01826536679573442 -0.0006962723765523018 -0.005353095412454885 0.0008049669567697036 0.008301379464752928
 0.0007838493331971811 0.008303904691710606 -0.0006962723765523018 -0.005353095412454885 0.0038699547108343537 0.018265943961114743 0.9954044233064413 -0.04396369062327112
 -0.0006961465193219365 -0.005353095890976114 0.0008049669567697036 0.008301379464752928 0.9954044233064413 -0.04396369062327112 0.00386646486221174 0.018266265823640184
0.07503126302626001 0.004176667998575595 0.020030777967086032 0.994999342103867 -0.04804179922235583 0.0008968745930661531 0.009062636903492793 -0.0007948405438004884 -0.0058452280509609334
 0.994999342103867 -0.04804179922235583 0.004172230880802347 0.02003118118343117 -0.0007949897971349346 -0.0058452261612101115 0.0009220167522382261 0.009059579241590291
 0.0008968745930661531 0.009062636903492793 -0.0007949897971349346 -0.0058452261612101115 0.004176555323474332 0.020031785777447693 0.9949993742570219 -0.04804079594033168
 -0.0007948405438004884 -0.0058452280509609334 0.0009220167522382261 0.009059579241590291 0.9949993742570219 -0.04804079594033168 0.004172403963688709 0.02003215939380001
0.08128386827845 0.004499853405898699 0.02181225984798689 0.9945723753289889 -0.052132603696642 0.0010180770315190563 0.009821605085653605 -0.0009006653732214391 -0.006337771179588744
 0.9945723753289889 -0.052132603696642 0.004494647650444048 0.02181272453811888 -0.0009008399413691706 -0.00633776756560731 0.001047597299339882 0.00981794538364899
 0.0010180770315190563 0.009821605085653605 -0.0009008399413691706 -0.00633776756560731 0.004499720588106544 0.021813351437912926 0.9945724128325505 -0.05213151642992861
 -0.0009006653732214391 -0.006337771179588744 0.001047597299339882 0.00981794538364899 0.9945724128325505 -0.05213151642992861 0.004494850462982514 0.02181378132031052
0.08753647353064001 0.004839894539444657 0.023609189699719074 0.9941232146332847 -0.056236891118928996 0.001147530590976838 0.010580698225048585 -0.001013697159489856 -0.006830609455424103
 0.9941232146332847 -0.056236891118928996 0.004833858829985406 0.02360972117532953 -0.0010138989453984243 -0.0068306037847399945 0.0011817831128715936 0.010576362289114028
 0.001147530590976838 0.010580698225048585 -0.0010138989453984243 -0.0068306037847399945 0.004839739872467787 0.02361036503648041 0.994123257918676 -0.05623571973768942
 -0.001013697159489856 -0.006830609455424103 0.0011817831128715936 0.010576362289114028 0.994123257918676 -0.05623571973768942 0.004834093717486848 0.023610855875864794
0.09378907878283 0.005197079163493879 0.02542129671790243 0.9936515796557756 -0.06035451353239119 0.001285307532509679 0.011339802238497034 -0.0011340102512071497 -0.007323625119567836
 0.9936515796557756 -0.06035451353239119 0.005190152155755567 0.02542190051606475 -0.0011342411421575932 -0.007323617040302833 0.0013246469817795401 0.011334711236504846
 0.001285307532509679 0.011339802238497034 -0.0011342411421575932 -0.007323617040302833 0.005196900928493915 0.0254225557616779 0.9936516291606711 -0.06035325789898645
 -0.0011340102512071497 -0.007323625119567836 0.0013246469817795401 0.011334711236504846 0.9936516291606711 -0.06035325789898645 0.0051904214589736045 0.025423112429340488
0.100041684035 0.005571693369764767 0.02724831307654184 0.9931571909712662 -0.06448530944010163 0.0014314783547483068 0.01209880010726691 -0.0012616771265835272 -0.007816698369261774
 0.9931571909712662 -0.06448530944010163 0.005563813681422366 0.027248994962367903 -0.0012619389942705036 -0.007816687510177554 0.0014762598841490597 0.01209287051972343
 0.0014314783547483068 0.01209880010726691 -0.0012619389942705036 -0.007816687510177554 0.005571489835145222 0.027249655790055498 0.993157247140066 -0.06448396939962937
 -0.0012616771265835272 -0.007816698369261774 0.0014762598841490597 0.01209287051972343 0.993157247140066 -0.06448396939962937 0.005564119735597724 0.027250283339821973
0.1059090909091 0.005939334400397458 0.028976096680329536 0.992672317439316 -0.0683734500311555 0.0015763394926752358 0.012810835844176851 -0.0013882299946914706 -0.00827933911481557
 0.992672317439316 -0.0683734500311555 0.005930504853565578 0.028976857292317502 -0.0013885226191544138 -0.008279325292340814 0.0016265512263404444 0.012804039154959855
 0.0015763394926752358 0.012810835844176851 -0.0013885226191544138 -0.008279325292340814 0.005939105538288195 0.028977517873476508 0.9926723802719671 -0.06837203063166297
 -0.0013882299946914706 -0.00827933911481557 0.0016265512263404444 0.012804039154959855 0.9926723802719671 -0.06837203063166297 0.005930847513257417 0.028978216699625515
0.1062942892872 0.0059640215049306545 0.029089972340554975 0.9926397702564826 -0.06862910535173906 0.0015861117137002626 0.012857571981423687 -0.0013967683240707666 -0.008309707285886437
 0.9926397702564826 -0.06862910535173906 0.005955127706011408 0.02909073831031545 -0.0013970630245905447 -0.008309693256451832 0.0016366909038329472 0.012850715553038279
 0.0015861117137002626 0.012857571981423687 -0.0013970630245905447 -0.008309693256451832 0.005963790926062518 0.029091398684067002 0.9926398335408511 -0.06862768073753757
 -0.0013967683240707666 -0.008309707285886437 0.0016366909038329472 0.012850715553038279 0.9926398335408511 -0.06862768073753757 0.005955472840544916 0.029092102354620418
0.11254689453939999 0.0063743460877173546 0.030946008249597114 0.9920990404473031 -0.0727857169644883 0.0017492743430408942 0.01361599526593929 -0.0015393523714680815 -0.008802527785769607
 0.9920990404473031 -0.0727857169644883 0.006364376691005543 0.030946864534050125 -0.0015396817454051159 -0.00880251017621145 0.0018060071475442428 0.013608118957865002
 0.0017492743430408942 0.01361599526593929 -0.0015396817454051159 -0.00880251017621145 0.0063740867066304895 0.030947518182782803 0.9920991113064298 -0.07278420759633694
 -0.0015393523714680815 -0.008802527785769607 0.0018060071475442428 0.013608118957865002 0.9920991113064298 -0.07278420759633694 0.00636476322797334 0.03094830340059895
0.11879949979160001 0.006802947717200989 0.03281615376825416 0.9915347258906979 -0.07695495008270181 0.0019210309750006946 0.014373944693470846 -0.00168949571342813 -0.009295033588764705
 0.9915347258906979 -0.07695495008270181 0.0067918411683243664 0.032817106836514454 -0.0016898615858089452 -0.00929501197013738 0.0019842736631892027 0.014364950636328972
 0.0019210309750006946 0.014373944693470846 -0.0016898615858089452 -0.00929501197013738 0.006802657762396843 0.032817747248005194 0.99153480479215 -0.07695335576954587
 -0.00168949571342813 -0.009295033588764705 0.0019842736631892027 0.014364950636328972 0.99153480479215 -0.07695335576954587 0.006792271422158581 0.03281861963041454
0.1250521050438 0.007250104974261836 0.03470014033870616 0.9909465524931697 -0.0811366013409746 0.0021014442612528263 0.015131292390405714 -0.0018472626381740242 -0.009787096198364374
 0.9909465524931697 -0.0811366013409746 0.007237799641958333 0.03470119690235765 -0.0018476668184588293 -0.00978707012260222 0.002171553358286167 0.015121077838073859
 0.0021014442612528263 0.015131292390405714 -0.0018476668184588293 -0.00978707012260222 0.0072497826600342145 0.034701817322005356 0.9909466399131212 -0.08113492187834162
 -0.0018472626381740242 -0.009787096198364374 0.002171553358286167 0.015121077838073859 0.9909466399131212 -0.08113492187834162 0.007238275918186257 0.034702782680869515
0.131304710296 0.0077160943168773566 0.03659769728325751 0.9903342478647645 -0.08533045878294156 0.0022905746942698266 0.015887907933089487 -0.0020127152031346775 -0.010278584896249688
 0.9903342478647645 -0.08533045878294156 0.0077025284832727145 0.03659886430095104 -0.0020131594852034612 -0.010278553896241788 0.002367906918950967 0.01587636521739425
 0.0022905746942698266 0.015887907933089487 -0.0020131594852034612 -0.010278553896241788 0.007715737843680732 0.03659945772836814 0.9903343442891339 -0.0853286939521279
 -0.0020127152031346775 -0.010278584896249688 0.002367906918950967 0.01587636521739425 0.9903343442891339 -0.0853286939521279 0.007703053078077809 0.03660052207399881
0.1375573155481 0.008093510904157504 0.03826272061389332 0.9898052631115447 -0.0892903506729943 0.002463819991731941 0.01661935800822035 -0.002161167607428519 -0.01074514422373772
 0.9898052631115447 -0.0892903506729943 0.008078619005993569 0.03826398048695967 -0.002161654791573866 -0.010745108271954462 0.002548557315842647 0.01660650447690603
 0.002463819991731941 0.01661935800822035 -0.002161654791573866 -0.010745108271954462 0.008093119354159718 0.038264564248446827 0.9898053689534337 -0.08928850036279166
 -0.002161167607428519 -0.01074514422373772 0.002548557315842647 0.01660650447690603 0.9898053689534337 -0.08928850036279166 0.008079193461206006 0.038265709655641425
0.1438099208003 0.00848420742589625 0.039919194622505545 0.989257715523937 -0.09324039887266805 0.002644037030672368 0.017347949969154928 -0.00231554815871696 -0.011209017132885904
 0.989257715523937 -0.09324039887266805 0.008467927060867231 0.039920552762715195 -0.002316080197415261 -0.011208975766920181 0.0027365048582829073 0.017333687143525123
 0.002644037030672368 0.017347949969154928 -0.002316080197415261 -0.011208975766920181 0.008483779138444683 0.039921121365849854 0.9892578312671535 -0.09323846287208813
 -0.00231554815871696 -0.011209017132885904 0.0027365048582829073 0.017333687143525123 0.9892578312671535 -0.09323846287208813 0.008468553523316604 0.039922352337043915
0.1500625260525 0.008888049677753845 0.041566986442964624 0.9886917432642057 -0.09718051073215743 0.0028311641911613213 0.018073613699482606 -0.0024757958144889483 -0.011670135127591099
 0.9886917432642057 -0.09718051073215743 0.00887031834193221 0.041568448550474583 -0.002476374657352947 -0.01167008786630399 0.0029316860874390185 0.01805783949476015
 0.0028311641911613213 0.018073613699482606 -0.002476374657352947 -0.01167008786630399 0.008887582988936198 0.04156899620983116 0.9886918694004588 -0.0971784888233324
 -0.0024757958144889483 -0.011670135127591099 0.0029316860874390185 0.01805783949476015 0.9886918694004588 -0.0971784888233324 0.008870998940381127 0.041570317500907956
0.15631513130469998 0.009304902544766422 0.04320596722582582 0.9881074851514694 -0.10111059381471896 0.003025139146468654 0.01879628027551204 -0.0026418487993300037 -0.012128431134593116
 0.9881074851514694 -0.10111059381471896 0.009285657629114596 0.04320753929406181 -0.002642476392958646 -0.012128377478205058 0.0031340368107421078 0.01877888903662988
