! Created with skrf 1.8.0 (http://scikit-rf.org).
# GHz S RI R 50.0 
!freq ReS11 ImS11 ReS12 ImS12 ReS13 ImS13
! ReS14 ImS14
! ReS21 ImS21 ReS22 ImS22 ReS23 ImS23
! ReS24 ImS24
! ReS31 ImS31 ReS32 ImS32 ReS33 ImS33
! ReS34 ImS34
! ReS41 ImS41 ReS42 ImS42 ReS43 ImS43
! ReS44 ImS44
!
0.0 0.001646718492994 0.0 0.9983532814981 0.0 6.360765833349e-05 0.0 -6.360765806086e-05 7.789691484549154e-21
 0.9983532814981 0.0 0.001646718492999 0.0 -6.360765806144e-05 7.789691484620185e-21 6.360765833282e-05 0.0
 6.360765833349e-05 0.0 -6.360765806144e-05 7.789691484620185e-21 0.001646718497447 0.0 0.9983532815026 0.0
 -6.360765806086e-05 7.789691484549154e-21 6.360765833282e-05 0.0 0.9983532815026 0.0 0.001646718497419 0.0
0.005 0.0017720258927504124 0.0013483835365141737 0.9981947006028288 -0.003449032899432202 8.909355358179944e-05 0.0006915577966202361 -8.652516537884358e-05 -0.00043564866378070815
 0.9981947006028288 -0.003449032899432202 0.0017720456589633668 0.0013483719221965816 -8.652581390088766e-05 -0.0004356490822631957 8.896626217184099e-05 0.0006916061884700865
 8.909355358179944e-05 0.0006915577966202361 -8.652581390088766e-05 -0.0004356490822631957 0.0017720263269090963 0.0013484505034390623 0.9981947009669694 -0.0034489658302665586
 -8.652516537884358e-05 -0.00043564866378070815 8.896626217184099e-05 0.0006916061884700865 0.9981947009669694 -0.0034489658302665586 0.00177204594697391 0.0013484390883255492
0.006252605252188 0.0018049817373145519 0.001690763438427444 0.9981527153301344 -0.004312118851103393 9.643162082918096e-05 0.0008647800821147776 -9.303454194058321e-05 -0.0005451162886619882
 0.9981527153301344 -0.004312118851103393 0.0018050126363366266 0.0016907487075159893 -9.303555172056423e-05 -0.000545116802847904 9.623273953148017e-05 0.0008648429532453212
 9.643162082918096e-05 0.0008647800821147776 -9.303555172056423e-05 -0.000545116802847904 0.0018049823475904247 0.0016908471190348294 0.9981527158305351 -0.004312035032918592
 -9.303454194058321e-05 -0.0005451162886619882 9.623273953148017e-05 0.0008648429532453212 0.9981527158305351 -0.004312035032918592 0.001805013017161953 0.001690832651432861
0.01250521050438 0.001979001219005231 0.0034167475005403387 0.9979294808091235 -0.008624925185553776 0.0001388135073491641 0.001729898694730592 -0.00013017653129169407 -0.0010928047536363458
 0.9979294808091235 -0.008624925185553776 0.0019791246118662504 0.003416715887947073 -0.00013018051839642627 -0.0010928056826228641 0.00013802039375816996 0.001730050225996065
 0.0001388135073491641 0.001729898694730592 -0.00013018051839642627 -0.0010928056826228641 0.0019790031012393854 0.003416914510807207 0.9979294822467496 -0.008624757781802482
 -0.00013017653129169407 -0.0010928047536363458 0.00013802039375816996 0.001730050225996065 0.9979294822467496 -0.008624757781802482 0.001979125560778221 0.0034168835739825285
0.01875781575657 0.00216917698399929 0.005167092592316159 0.9976832862363155 -0.012948890906466752 0.0001908541015951912 0.0025959072698468755 -0.00017515174396016717 -0.001642275579532648
 0.9976832862363155 -0.012948890906466752 0.0021694542778626347 0.005167041775394608 -0.00017516064585990852 -0.0016422768006173806 0.0001890724136909006 0.0025961785297705865
 0.0001908541015951912 0.0025959072698468755 -0.00017516064585990852 -0.0016422768006173806 0.0021691807966934267 0.005167342680657887 0.9976832890398699 -0.012948639998519418
 -0.00017515174396016717 -0.001642275579532648 0.0001890724136909006 0.0025961785297705865 0.9976832890398699 -0.012948639998519418 0.0021694559595841763 0.005167293116942639
0.02501042100875 0.0023758960385888775 0.006939327918877701 0.997413827829475 -0.01728608625397528 0.0002526558197148799 0.003462821454819762 -0.00022807413427237592 -0.002193267892467531
 0.997413827829475 -0.01728608625397528 0.002376388534416997 0.006939255426047362 -0.00022808986860362563 -0.0021932692578987413 0.00024949105715712264 0.0034632486276170616
 0.0002526558197148799 0.003462821454819762 -0.00022808986860362563 -0.0021932692578987413 0.002375902452957732 0.006939660841771124 0.9974138324365448 -0.01728575186268926
 -0.00022807413427237592 -0.002193267892467531 0.00024949105715712264 0.0034632486276170616 0.9974138324365448 -0.01728575186268926 0.0023763911077581577 0.006939590361106508
0.03126302626094 0.0025995293892637408 0.008732169311420413 0.9971207870572877 -0.021637381961568267 0.00032432138587876365 0.0043305779233272085 -0.0002890542120177353 -0.002745592882737068
 0.9971207870572877 -0.021637381961568267 0.0026002983168236927 0.008732072526773929 -0.0002890786797952186 -0.002745594219417245 0.00031937853663698755 0.004331202340561214
 0.00032432138587876365 0.0043305779233272085 -0.0002890786797952186 -0.002745594219417245 0.0025995390780597072 0.008732584797291816 0.9971207939055851 -0.021636964082967943
 -0.0002890542120177353 -0.002745592882737068 0.00031937853663698755 0.004331202340561214 0.9971207939055851 -0.021636964082967943 0.0026003019251262883 0.008732490982281882
0.037515631513130004 0.0028404397950110138 0.01054476984783277 0.9968038386769594 -0.02600319857418719 0.00040595276819724475 0.005199081825005233 -0.0003581998075857561 -0.003299086361267246
 0.9968038386769594 -0.02600319857418719 0.00284154633751673 0.010544646013257171 -0.00035823489485674494 -0.0032990874706369014 0.0003988361560642979 0.005199950017333438
 0.00040595276819724475 0.005199081825005233 -0.00035823489485674494 -0.0032990874706369014 0.002840453433084547 0.010545267586319176 0.9968038482059268 -0.02600269718982691
 -0.0003581998075857561 -0.003299086361267246 0.0003988361560642979 0.005199950017333438 0.9968038482059268 -0.02600269718982691 0.002841551109345653 0.010545147894646799
0.043768236765320004 0.0030989847520383677 0.012376491831207441 0.9964626540082013 -0.030383734397574455 0.0004976506671082086 0.0060682212268688245 -0.0004356163399983492 -0.0038535943299356726
 0.9964626540082013 -0.030383734397574455 0.0031004900655539893 0.012376338047620969 -0.0004356639186816969 -0.0038535949878779553 0.0004879638854079074 0.0060693849820880426
 0.0004976506671082086 0.0060682212268688245 -0.0004356639186816969 -0.0038535949878779553 0.0030990030167727927 0.012377071483967899 0.9964626666611005 -0.030383149463295542
 -0.0004356163399983492 -0.0038535943299356726 0.0004879638854079074 0.0060693849820880426 0.9964626666611005 -0.030383149463295542 0.003100496116075556 0.012376923250044976
0.050020842017509996 0.003375517875468543 0.01422681253641067 0.9960969026086183 -0.03477905967790744 0.0005995142051054637 0.006937873082040315 -0.0005214069015292032 -0.0044089670291383165
 0.9960969026086183 -0.03477905967790744 0.0033774831061912326 0.01422662576419492 -0.0005214688298435462 -0.0044089669859140165 0.0005868600961699092 0.006939389505498684
 0.0005995142051054637 0.006937873082040315 -0.0005214688298435462 -0.0044089669859140165 0.003375541444892537 0.014227473731418722 0.9960969188321591 -0.03477839112929695
 -0.0005214069015292032 -0.0044089670291383165 0.0005868600961699092 0.006939389505498684 0.9960969188321591 -0.03477839112929695 0.0033774905363936508 0.014227294166954731
0.055454545454549996 0.003630714367719747 0.01584954792742941 0.9957588451449393 -0.03861073387444142 0.0006963680801338378 0.0076939413260643475 -0.0006028405575998614 -0.004892189717136122
 0.9957588451449393 -0.03861073387444142 0.0036331289433250576 0.015849329909276455 -0.0006029164548988313 -0.0048921888418041 0.0006808121554056837 0.007695814781511081
 0.0006963680801338378 0.0076939413260643475 -0.0006029164548988313 -0.0048921888418041 0.0036307430974970726 0.0158502796515682 0.995758864837548 -0.03860999259930654
 -0.0006028405575998614 -0.004892189717136122 0.0006808121554056837 0.007695814781511081 0.995758864837548 -0.03860999259930654 0.0036331376427763498 0.015850070500474628
0.056273447269699996 0.003670389598050083 0.01609527797010129 0.9957062532716275 -0.03918916277055588 0.0007116407019951701 0.007807906165015739 -0.0006156722633531793 -0.0049650560237022206
 0.9957062532716275 -0.03918916277055588 0.003672875898841544 0.0160950550289253 -0.0006157503861801356 -0.0049650550038774326 0.0006956213646572823 0.007809837741020165
 0.0007116407019951701 0.007807906165015739 -0.0006157503861801356 -0.0049650550038774326 0.0036704191501262732 0.016096020295448505 0.9957062735169555 -0.03918841052865908
 -0.0006156722633531793 -0.0049650560237022206 0.0006956213646572823 0.007809837741020165 0.9957062735169555 -0.03918841052865908 0.0036728847946416164 0.01609580648982909
0.06252605252188 0.003983947534636348 0.01798147743346229 0.9952903746943251 -0.04361397551001536 0.0008341254948817956 0.008678182684166124 -0.0007185108395273321 -0.005521712616998223
 0.9952903746943251 -0.04361397551001536 0.0039870160798384235 0.0179812150017117 -0.0007186069883844735 -0.005521710319408749 0.0008143423100785208 0.008680597337610722
 0.0008341254948817956 0.008678182684166124 -0.0007186069883844735 -0.005521710319408749 0.0039839837462358405 0.017982300441782045 0.9952903994176244 -0.043613139476797666
 -0.0007185108395273321 -0.005521712616998223 0.0008143423100785208 0.008680597337610722 0.9952903994176244 -0.043613139476797666 0.003987026512876552 0.01798204936154275
0.06877865777407 0.004316536663404972 0.019885028365305972 0.9948489359678788 -0.04805338830514847 0.0009670617813626807 0.009548559256737484 -0.0008300186279348849 -0.006078786908366048
 0.9948489359678788 -0.04805338830514847 0.0043202486644250086 0.01988472297883169 -0.0008301346211377189 -0.0060787830060560774 0.0009431154510557226 0.009551530414550133
 0.0009670617813626807 0.009548559256737484 -0.0008301346211377189 -0.0060787830060560774 0.0043165802102159015 0.019885931568741317 0.994848965631328 -0.04805246836817595
 -0.0008300186279348849 -0.006078786908366048 0.0009431154510557226 0.009551530414550133 0.994848965631328 -0.04805246836817595 0.004320260691287687 0.019885640056747665
0.07503126302626001 0.004668499398503032 0.02180556673943135 0.9943816069625477 -0.05250725968617602 0.001110540477335021 0.010418887533024248 -0.0009502891367659177 -0.006636127207427462
 0.9943816069625477 -0.05250725968617602 0.004672916118411535 0.021805214789886295 -0.0009504267792287994 -0.006636121347618175 0.0010820310734663667 0.010422494185154502
 0.001110540477335021 0.010418887533024248 -0.0009504267792287994 -0.006636121347618175 0.00466855095272081 0.021806549611953843 0.9943816420345497 -0.05250625571608843
 -0.0009502891367659177 -0.006636127207427462 0.0010820310734663667 0.010422494185154502 0.9943816420345497 -0.05250625571608843 0.00467292978013658 0.021806214385946848
0.08128386827845 0.005040175594629496 0.023742740670387057 0.9938880586501405 -0.05697542265001938 0.001264650084315859 0.011289014621226149 -0.0010794133009080086 -0.007193579654064992
 0.9938880586501405 -0.05697542265001938 0.0050453583627792275 0.02374233840297979 -0.0010795743840921182 -0.007193571458119403 0.001231177105216059 0.01129334138097889
 0.001264650084315859 0.011289014621226149 -0.0010795743840921182 -0.007193571458119403 0.005040235824895423 0.02374380264655266 0.9938880996063032 -0.05697433450161728
 -0.0010794133009080086 -0.007193579654064992 0.001231177105216059 0.01129334138097889 0.9938880996063032 -0.05697433450161728 0.005045373684927213 0.023743420297123678
0.08753647353064001 0.0054319025057295986 0.025696206003098753 0.9933679633844742 -0.061457689028906505 0.001429476562012962 0.012158783387943415 -0.0012174793922775217 -0.00775098796934962
 0.9933679633844742 -0.061457689028906505 0.005437912732349255 0.025695749513861194 -0.001217665693987464 -0.007750977032745036 0.0013906389953739105 0.01216392055152964
 0.001429476562012962 0.012158783387943415 -0.001217665693987464 -0.007750977032745036 0.005431972075465356 0.02569734647727936 0.9933680107077963 -0.06145651654175707
 -0.0012174793922775217 -0.00775098796934962 0.0013906389953739105 0.01216392055152964 0.9933680107077963 -0.06145651654175707 0.0054379297242948856 0.02569691346541618
0.09378907878283 0.0058440147121523135 0.027665623161248414 0.9928209951542701 -0.06595385260781543 0.0016051032049239687 0.013028032685544753 -0.0013645729254467996 -0.00830819328634716
 0.9928209951542701 -0.06595385260781543 0.005850913903420942 0.027665108393650117 -0.0013647862096575212 -0.008308179178656297 0.0015604995960264547 0.013034076290591081
 0.0016051032049239687 0.013028032685544753 -0.0013647862096575212 -0.008308179178656297 0.0058440942788261846 0.02766684148755531 0.9928210493362561 -0.06595259560627849
 -0.0013645729254467996 -0.00830819328634716 0.0015604995960264547 0.013034076290591081 0.9928210493362561 -0.06595259560627849 0.005850932558028349 0.027666354141470163
0.100041684035 0.006276844025618603 0.02965065484396291 0.992246829818049 -0.07046369140141817 0.0017916105217863614 0.013896597532113725 -0.0015207765597492955 -0.008865034035120218
 0.992246829818049 -0.07046369140141817 0.006284693797827296 0.029650077585055168 -0.001521018576345486 -0.008865016300006011 0.001740839046437072 0.013903649415289366
 0.0017916105217863614 0.013896597532113725 -0.001521018576345486 -0.008865016300006011 0.006276934239382449 0.02965195033658776 0.9922468913590531 -0.07046234969425835
 -0.0015207765597492955 -0.008865034035120218 0.001740839046437072 0.013903649415289366 0.9922468913590531 -0.07046234969425835 0.006284714091115266 0.029651404848027408
0.1059090909091 0.00670214345846139 0.03152729779367528 0.9916830141720061 -0.07470792415574815 0.0019765928782058454 0.014710880810527415 -0.0016757136789501029 -0.009387092089990246
 0.9916830141720061 -0.07470792415574815 0.00671094140064688 0.03152665791842579 -0.0016759842365946756 -0.009387070512800381 0.0019196677980188002 0.014718976690383865
 0.0019765928782058454 0.014710880810527415 -0.0016759842365946756 -0.009387070512800381 0.006702244247219147 0.03152866503942067 0.9916830830820297 -0.07470650277350252
 -0.0016757136789501029 -0.009387092089990246 0.0019196677980188002 0.014718976690383865 0.9916830830820297 -0.07470650277350252 0.006710963194401548 0.031528061401468084
0.1062942892872 0.006730719376963182 0.03165096429168512 0.991645145325164 -0.07498696936994026 0.0019890761170975784 0.014764309251811356 -0.0016861699988911908 -0.009421345874625292
 0.991645145325164 -0.07498696936994026 0.006739581471530056 0.03165032016763288 -0.0016864424834303815 -0.009421324029832505 0.001931734658419061 0.014772477105188628
 0.0019890761170975784 0.014764309251811356 -0.0016864424834303815 -0.009421324029832505 0.006730820879681881 0.031652336224539925 0.9916452147349919 -0.07498554275066126
 -0.0016861699988911908 -0.009421345874625292 0.001931734658419061 0.014772477105188628 0.9916452147349919 -0.07498554275066126 0.006739603362292852 0.031651728644546455
0.11254689453939999 0.007205966690821775 0.03366621397671493 0.9910156219274235 -0.07952343771887596 0.0021975745738463384 0.015630995599798192 -0.0018608298887883739 -0.009976961647013788
 0.9910156219274235 -0.07952343771887596 0.007215902989180069 0.03366549844770765 -0.0018611345622052482 -0.009976935184377925 0.0021332608030340127 0.01564039302601698
 0.0021975745738463384 0.015630995599798192 -0.0018611345622052482 -0.009976935184377925 0.0072060801148236915 0.03366766158571593 0.9910156997262347 -0.07952192596351483
 -0.0018608298887883739 -0.009976961647013788 0.0021332608030340127 0.01564039302601698 0.9910156997262347 -0.07952192596351483 0.007215926418557851 0.03366698781968791
0.11879949979160001 0.0077029087508767085 0.035696064580978216 0.9903579423844224 -0.08407283592001215 0.0024171773378081278 0.016496480868823 -0.002044829713771115 -0.010531711357797211
 0.9903579423844224 -0.08407283592001215 0.007713981289342554 0.03569527293550171 -0.0020451682821210878 -0.010531679743251476 0.0023454887980004207 0.01650722743496659
 0.0024171773378081278 0.016496480868823 -0.0020451682821210878 -0.010531679743251476 0.007703034718221267 0.03569758705882617 0.9903580291035544 -0.0840712387924141
 -0.002044829713771115 -0.010531711357797211 0.0023454887980004207 0.01650722743496659 0.9903580291035544 -0.0840712387924141 0.0077140061806309605 0.035696842860989564
0.1250521050438 0.00822186505752304 0.03774017419334884 0.9896717921643148 -0.08863489252177569 0.0026479526027241448 0.017360585987093235 -0.00223823969207605 -0.011085422172052715
 0.9896717921643148 -0.08863489252177569 0.008234136042175665 0.037739301541891423 -0.0022386138462215078 -0.011085384845663014 0.002568486795916163 0.01737280727713645
 0.0026479526027241448 0.017360585987093235 -0.0022386138462215078 -0.011085384845663014 0.008222004178407 0.03774177069253836 0.989671888346309 -0.08863320977077357
 -0.00223823969207605 -0.011085422172052715 0.002568486795916163 0.01737280727713645 0.989671888346309 -0.08863320977077357 0.008234162299808737 0.037740951659815565
0.131304710296 0.008763151677679614 0.03979819767799449 0.9889568596394672 -0.09320932579773136 0.0028899651960720783 0.01822312861105912 -0.002441126670697158 -0.011637918423377625
 0.9889568596394672 -0.09320932579773136 0.00877668349938954 0.03979723894603922 -0.002441538085967293 -0.01163787479934172 0.002802319673161951 0.0182369562768565
 0.0028899651960720783 0.01822312861105912 -0.002441538085967293 -0.01163787479934172 0.008763304549391584 0.039799867311737125 0.9889569658395758 -0.09320755715639596
 -0.002441126670697158 -0.011637918423377625 0.002802319673161951 0.0182369562768565 0.9889569658395758 -0.09320755715639596 0.00877671100923393 0.03979896887678665
0.1375573155481 0.009206229778880972 0.041602294055963975 0.9883337400330897 -0.09752821908753258 0.0031140279293835043 0.01905780422118076 -0.0026244120990060434 -0.01216284553238978
 0.9883337400330897 -0.09752821908753258 0.009221088345941396 0.041601263194180976 -0.0026248630401841957 -0.012162795521915175 0.0030180050246124226 0.019073223809757105
 0.0031140279293835043 0.01905780422118076 -0.0026248630401841957 -0.012162795521915175 0.009206396070218477 0.04160403655369623 0.9883338567149307 -0.09752636441223755
 -0.0026244120990060434 -0.01216284553238978 0.0030180050246124226 0.019073223809757105 0.9883338567149307 -0.09752636441223755 0.009221118084545782 0.04160307213599971
0.1438099208003 0.009665004510703649 0.04339628651818388 0.9876884911703572 -0.10183554112160681 0.0033471317764334364 0.019888648302838652 -0.002815001935069341 -0.0126842973689601
 0.9876884911703572 -0.10183554112160681 0.009681252953575767 0.04339517945369429 -0.0028154941616447098 -0.012684240399027696 0.003242366066145573 0.019905780714464014
 0.0033471317764334364 0.019888648302838652 -0.0028154941616447098 -0.012684240399027696 0.009665184632916145 0.04339810101955634 0.9876886188878762 -0.10183360015465273
 -0.002815001935069341 -0.0126842973689601 0.003242366066145573 0.019905780714464014 0.9876886188878762 -0.10183360015465273 0.009681284977572683 0.043397066950984386
0.1500625260525 0.010139305106399344 0.04518000688860724 0.9870212882407827 -0.10613116603403153 0.0035891906478163543 0.02071556144915252 -0.0030128133712857734 -0.01320218200579438
 0.9870212882407827 -0.10613116603403153 0.010157006739465084 0.045178819287510434 -0.003013348635036422 -0.013202117480848445 0.0034753191155058915 0.020734531993191405
 0.0035891906478163543 0.02071556144915252 -0.003013348635036422 -0.013202117480848445 0.010139499447153028 0.04518189250188701 0.9870214275577466 -0.10612913850852602
 -0.0030128133712857734 -0.01320218200579438 0.0034753191155058915 0.020734531993191405 0.9870214275577466 -0.10612913850852602 0.010157041100350593 0.04518078486499191
0.15631513130469998 0.010628959478637056 0.04695329202154614 0.9863323074417307 -0.1104149688060691 0.003840117367586471 0.021538446063994195 -0.0032177625220955316 -0.013716409561410672
 0.9863323074417307 -0.1104149688060691 0.010648177805537134 0.04695201928050261 -0.0032183425669586267 -0.013716336863569911 0.003716779443636013 0.021559384409297378
