! Created with skrf 1.8.0 (http://scikit-rf.org).
# GHz S RI R 50.0 
!freq ReS11 ImS11 ReS12 ImS12 ReS13 ImS13
! ReS14 ImS14
! ReS21 ImS21 ReS22 ImS22 ReS23 ImS23
! ReS24 ImS24
! ReS31 ImS31 ReS32 ImS32 ReS33 ImS33
! ReS34 ImS34
! ReS41 ImS41 ReS42 ImS42 ReS43 ImS43
! ReS44 ImS44
!
0.0 0.00112753882787 0.0 0.9988724611711 0.0 4.27291531103e-05 0.0 -4.272915413135e-05 5.232812183723168e-21
 0.9988724611711 0.0 0.001127538827871 0.0 -4.272915413173e-05 5.232812183769704e-21 4.272915310998e-05 0.0
 4.27291531103e-05 0.0 -4.272915413173e-05 5.232812183769704e-21 0.001127538827875 0.0 0.9988724611711 0.0
 -4.272915413135e-05 5.232812183723168e-21 4.272915310998e-05 0.0 0.9988724611711 0.0 0.001127538827853 0.0
0.005 0.0012122209823480286 0.0009240823834388263 0.9987654704034944 -0.002363051815826742 5.915995692616941e-05 0.00046418982564226994 -5.760634389131958e-05 -0.0002926693742017258
 0.9987654704034944 -0.002363051815826742 0.0012122188552546385 0.0009240835748245716 -5.760544171304841e-05 -0.00029266864844418745 5.917977771657607e-05 0.0004641823390190175
 5.915995692616941e-05 0.00046418982564226994 -5.760544171304841e-05 -0.00029266864844418745 0.0012122219380351828 0.0009241490414948039 0.9987654707284549 -0.002362984755713178
 -5.760634389131958e-05 -0.0002926693742017258 5.917977771657607e-05 0.0004641823390190175 0.9987654707284549 -0.002362984755713178 0.0012122185464177977 0.0009241510342473572
0.006252605252188 0.0012341690347598504 0.001158770186286162 0.9987376093489259 -0.002954432592948748 6.37022520445974e-05 0.0005804819445258902 -6.168688566559223e-05 -0.0003662284402254316
 0.9987376093489259 -0.002954432592948748 0.0012341657102075707 0.001158771693774073 -6.168548204479169e-05 -0.00036622754422127146 6.373322133922425e-05 0.0005804722282125896
 6.37022520445974e-05 0.0005804819445258902 -6.168548204479169e-05 -0.00036622754422127146 0.001234170447124229 0.0011588534979533485 0.9987376097750746 -0.002954348773621831
 -6.168688566559223e-05 -0.0003662284402254316 6.373322133922425e-05 0.0005804722282125896 0.9987376097750746 -0.002954348773621831 0.001234165145102856 0.0011588560146150843
0.01250521050438 0.0013481854309815757 0.0023421631447136993 0.9985921300036715 -0.005909871158002491 8.894935095250868e-05 0.0011614200840087728 -8.419587840765533e-05 -0.0007343871850258935
 0.9985921300036715 -0.005909871158002491 0.001348172163395629 0.0023421663360885807 -8.419034937599219e-05 -0.0007343855128373093 8.907287868435732e-05 0.001161396861846892
 8.894935095250868e-05 0.0011614200840087728 -8.419034937599219e-05 -0.0007343855128373093 0.0013481905288605625 0.002342329470602938 0.9985921311596001 -0.00590970375252185
 -8.419587840765533e-05 -0.0007343871850258935 8.907287868435732e-05 0.001161396861846892 0.9985921311596001 -0.00590970375252185 0.00134816935516844 0.002342334763652998
0.01875781575657 0.001469781325499648 0.0035428036881617196 0.998435882316713 -0.00887356076888968 0.0001185204263977603 0.0017432284608717619 -0.00011031322752099635 -0.001103986666763128
 0.998435882316713 -0.00887356076888968 0.0014697515285025504 0.003542808736767618 -0.00011030090063060616 -0.0011039843544665433 0.00011879798867759464 0.0017431873668118658
 0.0001185204263977603 0.0017432284608717619 -0.00011030090063060616 -0.0011039843544665433 0.0014697923660924404 0.003543052832787848 0.9984358844925207 -0.008873309871462459
 -0.00011031322752099635 -0.001103986666763128 0.00011879798867759464 0.0017431873668118658 0.9984358844925207 -0.008873309871462459 0.0014697447832411792 0.0035430611874324304
0.02501042100875 0.0015991470624387837 0.004759067500813503 0.998268721589969 -0.01184699139764682 0.00015246596464303487 0.0023259633524134594 -0.00014009497326665396 -0.0014748927974553947
 0.998268721589969 -0.01184699139764682 0.0015990941732158298 0.004759074574209157 -0.00014007320849986242 -0.0014748900002139263 0.00015295911088689432 0.0023258994698980837
 0.00015246596464303487 0.0023259633524134594 -0.00014007320849986242 -0.0014748900002139263 0.00159916630881456 0.004759399283940166 0.9982687250815528 -0.011846657050838112
 -0.00014009497326665396 -0.0014748927974553947 0.00015295911088689432 0.0023258994698980837 0.9982687250815528 -0.011846657050838112 0.0015990817982742638 0.004759411006656123
0.03126302626094 0.0017364646431941675 0.005990145765279363 0.9980904939571076 -0.014830833260538847 0.00019083705260742665 0.0029096293104324098 -0.00017359602115676905 -0.0018470209407850907
 0.9980904939571076 -0.014830833260538847 0.0017363821190994598 0.0059901550243801945 -0.0001735622051687505 -0.0018470178332388204 0.0001916074664315749 0.002909537169222759
 0.00019083705260742665 0.0029096293104324098 -0.0001735622051687505 -0.0018470178332388204 0.0017364943597305853 0.005990559992627667 0.9980904990617196 -0.014830415484462081
 -0.00017359602115676905 -0.0018470209407850907 0.0001916074664315749 0.002909537169222759 0.9980904990617196 -0.014830415484462081 0.0017363624170642234 0.005990575410207185
0.037515631513130004 0.0018819122723084593 0.007235531641347659 0.9979010409978095 -0.017825450300208517 0.00023368494403020078 0.0034942109367196925 -0.0002108705446563983 -0.0022203041279806246
 0.9979010409978095 -0.017825450300208517 0.0018817935881448673 0.007235543239713842 -0.00021082208780246538 -0.002220300904356032 0.0002347944731833835 0.003494084506794303
 0.00023368494403020078 0.0034942109367196925 -0.00021082208780246538 -0.002220300904356032 0.0018819547228684503 0.007236028098925087 0.9979010480119243 -0.01782494909783475
 -0.0002108705446563983 -0.0022203041279806246 0.0002347944731833835 0.003494084506794303 0.9979010480119243 -0.01782494909783475 0.0018817648541408487 0.007236047558134744
0.043768236765320004 0.002035666118736101 0.008494864006700343 0.9977002015663909 -0.02083105640132131 0.0002810608588030977 0.00407968255481926 -0.0002519721460251294 -0.0025946833749083053
 0.9977002015663909 -0.02083105640132131 0.002035504764807592 0.00849487808992883 -0.0002519064805008729 -0.002594680249065207 0.00028257153206528903 0.004079515239356975
 0.0002810608588030977 0.00407968255481926 -0.0002519064805008729 -0.002594680249065207 0.00203572356912155 0.008495442454159913 0.9977002107887375 -0.020830471764851467
 -0.0002519721460251294 -0.0025946833749083053 0.00028257153206528903 0.004079515239356975 0.9977002107887375 -0.020830471764851467 0.00203546528881371 0.008495466321439727
0.050020842017509996 0.00219790114774291 0.009767862874699159 0.9974878126923371 -0.023847779927529414 0.0003330158728857627 0.004666012189504338 -0.00029695392303354286 -0.0029701036909878424
 0.9974878126923371 -0.023847779927529414 0.0021976906281996962 0.009767879579804245 -0.00029686850167335855 -0.002970100896423554 0.00033498990998579977 0.004665796817477606
 0.0003330158728857627 0.004666012189504338 -0.00029686850167335855 -0.002970100896423554 0.002197975863899577 0.009768523044152943 0.9974878244221526 -0.023847111839130374
 -0.00029695392303354286 -0.0029701036909878424 0.00033498990998579977 0.004665796817477606 0.9974878244221526 -0.023847111839130374 0.002197638692947747 0.009768551705442838
0.055454545454549996 0.002345911366768787 0.010885056385998966 0.9972937331971916 -0.0264784916523924 0.0003819246467546536 0.0051762191051955885 -0.0003392365092866915 -0.003297159632088381
 0.9972937331971916 -0.0264784916523924 0.002345652854887035 0.010885075473806164 -0.0003391318662985203 -0.0032971573303018312 0.00038435204379263995 0.0051759556951164395
 0.0003819246467546536 0.0051762191051955885 -0.0003391318662985203 -0.0032971573303018312 0.0023460029288644006 0.01088578734037591 0.9972937473509734 -0.02647775101422915
 -0.0003392365092866915 -0.003297159632088381 0.00038435204379263995 0.0051759556951164395 0.9972937473509734 -0.02647775101422915 0.0023455886927910715 0.01088582049628334
0.056273447269699996 0.0023687915570101254 0.011054297691969996 0.9972637100865231 -0.026875695378077283 0.00038960084234606354 0.005253163524358388 -0.00034586849948424123 -0.003346512110199917
 0.9972637100865231 -0.026875695378077283 0.0023685253881884465 0.011054317146839642 -0.00034576079493006624 -0.003346509900057101 0.0003921006597601405 0.005252892342908083
 0.00038960084234606354 0.005253163524358388 -0.00034576079493006624 -0.003346509900057101 0.0023688858062481193 0.011055039292071935 0.9972637246253238 -0.026874943805480698
 -0.00034586849948424123 -0.003346512110199917 0.0003921006597601405 0.005252892342908083 0.9972637246253238 -0.026874943805480698 0.0023684592700886596 0.011055073152674073
0.06252605252188 0.002548511028353841 0.012353969918470977 0.9970277284639449 -0.029914840761825816 0.00045086634805395286 0.0058410969716915185 -0.00039876803359259727 -0.0037238566102820924
 0.9970277284639449 -0.029914840761825816 0.0025481827371845833 0.012353992241411883 -0.00039863553763920583 -0.003723855257337615 0.00045395456225461923 0.005840761638375849
 0.00045086634805395286 0.0058410969716915185 -0.00039863553763920583 -0.003723855257337615 0.0025486270784420887 0.012354792628593493 0.9970277461147636 -0.029914005663773186
 -0.00039876803359259727 -0.0037238566102820924 0.00045395456225461923 0.005840761638375849 0.9970277461147636 -0.029914005663773186 0.002548100705631208 0.01235483211312599
0.06877865777407 0.002737232874585813 0.013666702640715678 0.996779701762999 -0.03296522793881914 0.0005168626500888413 0.006429770307510498 -0.0004557042156499409 -0.004102085467551527
 0.996779701762999 -0.03296522793881914 0.0027368359971243015 0.013666727939895986 -0.0004555444387975286 -0.004102085264207671 0.0005206020786309964 0.006429361882475345
 0.0005168626500888413 0.006429770307510498 -0.0004555444387975286 -0.004102085264207671 0.0027373729932641776 0.013667606108701696 0.9967797228309527 -0.032964309266966384
 -0.0004557042156499409 -0.004102085467551527 0.0005206020786309964 0.006429361882475345 0.9967797228309527 -0.032964309266966384 0.00273673631391713 0.013667651660990486
0.07503126302626001 0.0029351301267555425 0.014992333974608642 0.9965194633073758 -0.03602684917244749 0.0005876396480514837 0.007019139070705348 -0.0005167282585016106 -0.004481146848312404
 0.9965194633073758 -0.03602684917244749 0.002934658206586755 0.01499236234762858 -0.0005165387295751447 -0.0044811481065820695 0.0005920933096206858 0.007018648008823516
 0.0005876396480514837 0.007019139070705348 -0.0005165387295751447 -0.0044811481065820695 0.0029352965820796935 0.014993317819758576 0.9965194880999924 -0.036025846868009075
 -0.0005167282585016106 -0.004481146848312404 0.0005920933096206858 0.007018648008823516 0.9965194880999924 -0.036025846868009075 0.0029345391265837993 0.014993369902828959
0.08128386827845 0.003142375584603647 0.01633071268965281 0.99624684593152 -0.03909968146130645 0.0006632468451776196 0.007609156832736515 -0.0005818908835172847 -0.004860988530653591
 0.99624684593152 -0.03909968146130645 0.0031418221714681876 0.016330744223109567 -0.0005816691494353032 -0.004860991582143165 0.0006684779583715299 0.007608572975682073
 0.0006632468451776196 0.007609156832736515 -0.0005816691494353032 -0.004860991582143165 0.003142570644236846 0.016331776503823368 0.9962468747587405 -0.03909859545359029
 -0.0005818908835172847 -0.004860988530653591 0.0006684779583715299 0.007608572975682073 0.9962468747587405 -0.03909859545359029 0.003141681941572517 0.016331835599923558
0.08753647353064001 0.003359141842123739 0.017681695172739733 0.9959616820833775 -0.04218368953209499 0.0007437333150064597 0.008199775373967063 -0.0006512423030515977 -0.005241557720523957
 0.9959616820833775 -0.04218368953209499 0.003358500490284359 0.017681729941834243 -0.0006509859285617714 -0.005241562916417442 0.0007498052964258466 0.00819908794231046
 0.0007437333150064597 0.008199775373967063 -0.0006509859285617714 -0.005241562916417442 0.0033593677733180466 0.017682838515732616 0.9959617152582377 -0.04218251974279504
 -0.0006512423030515977 -0.005241557720523957 0.0007498052964258466 0.00819908794231046 0.9959617152582377 -0.04218251974279504 0.003358337350143718 0.017682905126353142
0.09378907878283 0.003585601296594848 0.01904514326183655 0.9956638039118326 -0.04527882796381826 0.0008291476692084649 0.008790944816107886 -0.0007248322009242152 -0.005622800912716927
 0.9956638039118326 -0.04527882796381826 0.0035848655633776666 0.019045181329951272 -0.0007245387684928366 -0.005622808623754696 0.0008361241307832296 0.008790142401371432
 0.0008291476692084649 0.008790944816107886 -0.0007245387684928366 -0.005622808623754696 0.0035858603656956658 0.019046365660100466 0.9956638417503301 -0.045277574307936004
 -0.0007248322009242152 -0.005622800912716927 0.0008361241307832296 0.008790142401371432 0.9956638417503301 -0.045277574307936004 0.0035846777445332515 0.019046440306024284
0.100041684035 0.0038219261456134603 0.020420922649159935 0.9953530433436044 -0.04838504274317878 0.0009195380264083006 0.009382613717731466 -0.0008027097111564843 -0.006004663789811495
 0.9953530433436044 -0.04838504274317878 0.0038210895898359233 0.020420964067556755 -0.0008023768208217775 -0.006004674406268332 0.0009274827722097585 0.009381684274473445
 0.0009195380264083006 0.009382613717731466 -0.0008023768208217775 -0.006004674406268332 0.0038222206176330535 0.020422223600429733 0.9953530861651362 -0.048383705124101596
 -0.0008027097111564843 -0.006004663789811495 0.0009274827722097585 0.009381684274473445 0.9953530861651362 -0.048383705124101596 0.0038208753158086237 0.020422306821855123
0.1059090909091 0.004052817625354533 0.02172304356308581 0.9950495612609563 -0.051309915028896376 0.0010089278138288751 0.009938239343720909 -0.0008797322959479345 -0.006363516035295825
 0.9950495612609563 -0.051309915028896376 0.004051880600208069 0.02172308816088187 -0.0008793602114080582 -0.006363529750513894 0.0010178393887501232 0.009937179168097644
 0.0010089278138288751 0.009938239343720909 -0.0008793602114080582 -0.006363529750513894 0.0040531473779143725 0.021724417741425604 0.9950496090522338 -0.0513084985249362
 -0.0008797322959479345 -0.006363516035295825 0.0010178393887501232 0.009937179168097644 0.9950496090522338 -0.0513084985249362 0.004051639877775304 0.02172450951875613
0.1062942892872 0.00406828837523652 0.021808901686239866 0.9950292321527484 -0.05150227241959113 0.0010149519822073693 0.009974729140671337 -0.0008849233946857041 -0.00638709115133325
 0.9950292321527484 -0.05150227241959113 0.004067344555757433 0.02180894649370583 -0.0008845486639733437 -0.006387105082998895 0.0010239290048381213 0.009973659978544007
 0.0010149519822073693 0.009974729140671337 -0.0008845486639733437 -0.006387105082998895 0.004068620513534436 0.02181028065557556 0.9950292802801848 -0.05150085073267382
 -0.0008849233946857041 -0.00638709115133325 0.0010239290048381213 0.009973659978544007 0.9950292802801848 -0.05150085073267382 0.004067102041797569 0.021810373012235835
0.11254689453939999 0.004324859741648455 0.023208950465608565 0.9946922020251525 -0.05463044898442863 0.0011154365786237594 0.010567236707252452 -0.0009715212160339537 -0.0067700268531817286
 0.9946922020251525 -0.05463044898442863 0.004323802215776836 0.023208998688177208 -0.0009711022799178927 -0.006770044529327386 0.0011255100550753264 0.010566014483111523
 0.0011154365786237594 0.010567236707252452 -0.0009711022799178927 -0.006770044529327386 0.004325231807675984 0.023210406885955815 0.9946922557851973 -0.05462894311618564
 -0.0009715212160339537 -0.0067700268531817286 0.0011255100550753264 0.010566014483111523 0.9946922557851973 -0.05462894311618564 0.004323529668666414 0.023210508957237135
0.11879949979160001 0.004591811747981555 0.024620940100117228 0.9943417846191278 -0.05776949855398579 0.0012210382746094736 0.011160080640546247 -0.001062550518133014 -0.0071534137652478685
 0.9943417846191278 -0.05776949855398579 0.004590634069741686 0.024620991750802707 -0.001062085028945555 -0.007153435634609571 0.0012322725618417393 0.01115869135055426
 0.0012210382746094736 0.011160080640546247 -0.001062085028945555 -0.007153435634609571 0.0045922260005987516 0.024622473370816387 0.9943418443425779 -0.05776790838325053
 -0.001062550518133014 -0.0071534137652478685 0.0012322725618417393 0.01115869135055426 0.9943418443425779 -0.05776790838325053 0.004590329687781695 0.024622585755989024
0.1250521050438 0.0048693156163142175 0.0260447421530241 0.9939778116232627 -0.060919341903041636 0.001331802916199665 0.011753203798433979 -0.0011580579968552692 -0.0075371937363477625
 0.9939778116232627 -0.060919341903041636 0.004868011334949406 0.026044797231597888 -0.0011575436243069824 -0.007537220267092364 0.0013442625463128814 0.011751632770183736
 0.001331802916199665 0.011753203798433979 -0.0011575436243069824 -0.007537220267092364 0.004869774311633448 0.026046351643497074 0.9939778776453645 -0.060917667296981386
 -0.0011580579968552692 -0.0075371937363477625 0.0013442625463128814 0.011751632770183736 0.9939778776453645 -0.060917667296981386 0.004867673307669867 0.02604647496188441
0.131304710296 0.0051575422570321145 0.02748022818439435 0.993600114812998 -0.06407989488322924 0.0014477757068475335 0.012346547700969709 -0.001258089674687236 -0.007921307567172294
 0.993600114812998 -0.06407989488322924 0.005156104915423465 0.02748028667720317 -0.0012575241058498197 -0.007921339246865984 0.0014615253820663714 0.012344779585677777
 0.0014477757068475335 0.012346547700969709 -0.0012575241058498197 -0.007921339246865984 0.005158047647832776 0.027481913228255613 0.9936001874732504 -0.06407813570294177
 -0.001258089674687236 -0.007921307567172294 0.0014615253820663714 0.012344779585677777 0.9936001874732504 -0.06407813570294177 0.005155731423302431 0.027482048119534943
0.1375573155481 0.00538198942261997 0.028739590178279754 0.9932832162675704 -0.06706334263584388 0.0015518872012679644 0.012920511217609102 -0.001345561731577878 -0.008286171029713515
 0.9932832162675704 -0.06706334263584388 0.005380410849162608 0.028739650144943694 -0.0013449414854538374 -0.008286207765296514 0.0015669576531735974 0.01291855163009758
 0.0015518872012679644 0.012920511217609102 -0.0013449414854538374 -0.008286207765296514 0.005382543203937302 0.028741350311827497 0.9932832958642793 -0.06706149880703072
 -0.001345561731577878 -0.008286171029713515 0.0015669576531735974 0.01291855163009758 0.9932832958642793 -0.06706149880703072 0.005380000704456353 0.02874149518852877
0.1438099208003 0.005614010430333714 0.029993670334199213 0.9929557513044122 -0.07004059768578108 0.0016601873447939885 0.013492958976168869 -0.00143653737929896 -0.008649634420213019
 0.9929557513044122 -0.07004059768578108 0.005612283864017513 0.02999373164881861 -0.0014358599572945104 -0.008649676679375795 0.0016766373578158825 0.013490794200197054
 0.0016601873447939885 0.013492958976168869 -0.0014358599572945104 -0.008649676679375795 0.005614614749282508 0.029995504885457693 0.99295583817558 -0.07003866907135828
 -0.00143653737929896 -0.008649634420213019 0.0016766373578158825 0.013490794200197054 0.99295583817558 -0.07003866907135828 0.005611835349192158 0.029995660262280614
0.1500625260525 0.005853539402765186 0.03124240414642155 0.9926177882896691 -0.07301162712069546 0.0017726475430990744 0.014063859525793776 -0.0015309886289082049 -0.009011666547318014
 0.9926177882896691 -0.07301162712069546 0.005851658059299656 0.031242466685696507 -0.0015302515349229179 -0.009011714816293087 0.0017905356664516038 0.014061475351851432
 0.0017726475430990744 0.014063859525793776 -0.0015302515349229179 -0.009011714816293087 0.00585419639665084 0.03124431241694024 0.9926178827768615 -0.07300961357776377
 -0.0015309886289082049 -0.009011666547318014 0.0017905356664516038 0.014061475351851432 0.9926178827768615 -0.07300961357776377 0.0058511694556521825 0.031244478835965785
0.15631513130469998 0.006100510173384262 0.03248572932263667 0.9922693957390725 -0.0759763974117653 0.001889238970825352 0.014633181810558211 -0.00162888724532008 -0.009372236791443231
