! Created with skrf 1.8.0 (http://scikit-rf.org).
# GHz S RI R 50.0 
!freq ReS11 ImS11 ReS12 ImS12 ReS13 ImS13
! ReS14 ImS14
! ReS21 ImS21 ReS22 ImS22 ReS23 ImS23
! ReS24 ImS24
! ReS31 ImS31 ReS32 ImS32 ReS33 ImS33
! ReS34 ImS34
! ReS41 ImS41 ReS42 ImS42 ReS43 ImS43
! ReS44 ImS44
!
0.0 0.001549394633393 0.0 0.9984506053666 0.0 5.98210021519e-05 0.0 -5.982100230794e-05 7.325959899820515e-21
 0.9984506053666 0.0 0.001549394633401 0.0 -5.982100230729e-05 7.325959899740914e-21 5.982100215242e-05 0.0
 5.98210021519e-05 0.0 -5.982100230729e-05 7.325959899740914e-21 0.001549394619612 0.0 0.9984506053528 0.0
 -5.982100230794e-05 7.325959899820515e-21 5.982100215242e-05 0.0 0.9984506053528 0.0 0.001549394619651 0.0
0.005 0.0016670548649767223 0.0012666589675691964 0.9983017566265329 -0.0032455705738890727 8.391316127162883e-05 0.00066446685762053 -8.150303296807557e-05 -0.00041613061728498307
 0.9983017566265329 -0.0032455705738890727 0.0016670477822233584 0.0012666630577088873 -8.150332549077539e-05 -0.0004161307713411769 8.394531098935454e-05 0.0006644544063515756
 8.391316127162883e-05 0.00066446685762053 -8.150332549077539e-05 -0.0004161307713411769 0.001667054712502438 0.0012665917347374133 0.998301756264 -0.003245637637471002
 -8.150303296807557e-05 -0.00041613061728498307 8.394531098935454e-05 0.0006644544063515756 0.998301756264 -0.003245637637471002 0.001667047216847343 0.0012665961700181643
0.006252605252188 0.0016979203197870496 0.001588309560669329 0.9982624652863232 -0.004057756486820345 9.078633202672397e-05 0.0008309033994606479 -8.762629025358678e-05 -0.0005207021042218699
 0.9982624652863232 -0.004057756486820345 0.00169790924929814 0.0015883148104649774 -8.762674600953917e-05 -0.000520702292659138 9.083656050042141e-05 0.0008308872659572379
 9.078633202672397e-05 0.0008309033994606479 -8.762674600953917e-05 -0.000520702292659138 0.0016979201636276693 0.0015882255159680157 0.9982624648012652 -0.004057840316652191
 -8.762629025358678e-05 -0.0005207021042218699 9.083656050042141e-05 0.0008308872659572379 0.9982624648012652 -0.004057840316652191 0.0016979084467464282 0.0015882312102671625
0.01250521050438 0.0018604418139188672 0.003209912799960973 0.998054223847059 -0.008116314079715841 0.00013015111689160385 0.0016621539467437882 -0.00012237743402017352 -0.0010439293801060407
 0.998054223847059 -0.008116314079715841 0.0018603976223400143 0.003209924694346815 -0.000122379236988199 -0.0010439297108174892 0.00013035133959165044 0.0016621155089397714
 0.00013015111689160385 0.0016621539467437882 -0.000122379236988199 -0.0010439297108174892 0.0018604417535238499 0.0032097449483010384 0.9980542224622667 -0.008116481486815015
 -0.00012237743402017352 -0.0010439293801060407 0.00013035133959165044 0.0016621155089397714 0.9980542224622667 -0.008116481486815015 0.0018603949648805856 0.0032097578689459323
0.01875781575657 0.00203731558023174 0.004854606338407387 0.9978256209314631 -0.012185549326640614 0.0001780075410412566 0.0024943130858584846 -0.00016418184946707367 -0.0015689198432770118
 0.9978256209314631 -0.012185549326640614 0.0020372163037735277 0.0048546263822151015 -0.00016418587972171912 -0.0015689202586184428 0.00017845713868306387 0.0024942449158235243
 0.0001780075410412566 0.0024943130858584846 -0.00016418587972171912 -0.0015689202586184428 0.002037315885986173 0.004854354764637382 0.9978256182378982 -0.012185800254839087
 -0.00016418184946707367 -0.0015689198432770118 0.00017845713868306387 0.0024942449158235243 0.9978256182378982 -0.012185800254839087 0.0020372107422403944 0.004854376574657936
0.02501042100875 0.002228887485738305 0.006520083795793565 0.9975763861230227 -0.0162674309783835 0.00023444874365030822 0.0033274155863041357 -0.0002131434105245519 -0.0020954322338247204
 0.9975763861230227 -0.0162674309783835 0.002228711221540278 0.0065201136001126585 -0.00021315054071394555 -0.0020954326639849 0.00023524702578379373 0.0033273090543938463
 0.00023444874365030822 0.0033274155863041357 -0.00021315054071394555 -0.0020954326639849 0.0022288884390535535 0.006519748591600595 0.9975763817079703 -0.01626776540839956
 -0.0002131434105245519 -0.0020954322338247204 0.00023524702578379373 0.0033273090543938463 0.9975763817079703 -0.01626776540839956 0.002228701702290723 0.006519781081173399
0.03126302626094 0.0024354890958657323 0.008205156433113375 0.9973062352704993 -0.020362799314054738 0.0002995681919015576 0.004161418970415975 -0.0002693630233274368 -0.002623296636948948
 0.9973062352704993 -0.020362799314054738 0.0024352139921327166 0.008205197715093105 -0.00026937411997301813 -0.002623296999805519 0.00030081449285414714 0.004161264241908653
 0.0002995681919015576 0.004161418970415975 -0.00026937411997301813 -0.002623296999805519 0.0024354909930571493 0.008204737697450901 0.9973062287206246 -0.020363217263128106
 -0.0002693630233274368 -0.002623296636948948 0.00030081449285414714 0.004161264241908653 0.9973062287206246 -0.020363217263128106 0.002435199460777509 0.008204782784062855
0.037515631513130004 0.0026574447786474158 0.009909047758414412 0.997014877826393 -0.024472071473362597 0.00037345881389546785 0.004996250211045333 -0.0003329393596523929 -0.003152367793743438
 0.997014877826393 -0.024472071473362597 0.002657049028353792 0.009909102341433471 -0.0003329552836852358 -0.003152367994769229 0.00037525253468926033 0.0049960362366999675
 0.00037345881389546785 0.004996250211045333 -0.0003329552836852358 -0.003152367994769229 0.0026574479279308405 0.009908545609260916 0.9970148687232934 -0.024472572983546985
 -0.0003329393596523929 -0.003152367793743438 0.00037525253468926033 0.0049960362366999675 0.9970148687232934 -0.024472572983546985 0.0026570284274404533 0.009908605338300786
0.043768236765320004 0.0028950744505683947 0.011631178875889903 0.9967020198255829 -0.028595456036841747 0.0004562125876570923 0.005831819936884212 -0.00040396911685166626 -0.0036825109008212626
 0.9967020198255829 -0.028595456036841747 0.0028945362871787028 0.0116312486898109 -0.0004039907239214387 -0.0036825108330061584 0.0004586532151924682 0.0058315344415822735
 0.0004562125876570923 0.005831819936884212 -0.0004039907239214387 -0.0036825108330061584 0.0028950791751192247 0.011630593450225738 0.9967020077479896 -0.028596041175038698
 -0.00040396911685166626 -0.0036825109008212626 0.0004586532151924682 0.0058315344415822735 0.9967020077479896 -0.028596041175038698 0.002894508559486537 0.01163066999566606
0.050020842017509996 0.003148694849430713 0.01337107977211055 0.9963673653944805 -0.032733041666922306 0.0005479202912156305 0.006668028295617792 -0.00048254710973382153 -0.004213595753250175
 0.9963673653944805 -0.032733041666922306 0.0031479925429826012 0.013371166853765815 -0.0004825752503416494 -0.004213595297040362 0.0005511074048533843 0.006667657766349511
 0.0005479202912156305 0.006668028295617792 -0.0004825752503416494 -0.004213595297040362 0.0031487014861207247 0.013370411234730411 0.9963673499153657 -0.032733710516193275
 -0.00048254710973382153 -0.004213595753250175 0.0005511074048533843 0.006667657766349511 0.9963673499153657 -0.032733710516193275 0.0031479566306733993 0.013370506899912598
0.055454545454549996 0.003382329174249758 0.014897222163782501 0.9960586086182203 -0.03634027287343 0.0006349582183144383 0.007395154050622507 -0.000557036093591515 -0.0046757896011440534
 0.9960586086182203 -0.03634027287343 0.0033814666013828256 0.014897325989132218 -0.0005570705987951288 -0.004675788700522829 0.0006388749930832536 0.007394697679336519
 0.0006349582183144383 0.007395154050622507 -0.0005570705987951288 -0.004675788700522829 0.003382337758997582 0.014896481548519398 0.9960585898335192 -0.036341014556750845
 -0.000557036093591515 -0.0046757896011440534 0.0006388749930832536 0.007394697679336519 0.9960585898335192 -0.036341014556750845 0.0033814227192804137 0.0148965958010624
0.056273447269699996 0.0034186201832069854 0.015128345781507603 0.996010617639167 -0.03688484057162189 0.0006486713224085088 0.007504767833918477 -0.0005687662879899346 -0.004745493873573449
 0.996010617639167 -0.03688484057162189 0.003417732037410873 0.015128452275083902 -0.000568801807548108 -0.004745492896803876 0.0006527045934127525 0.007504297507430083
 0.0006486713224085088 0.007504767833918477 -0.000568801807548108 -0.004745492896803876 0.003418629085299034 0.015127594316497425 0.9960105983278139 -0.03688559323955352
 -0.0005687662879899346 -0.004745493873573449 0.0006527045934127525 0.007504297507430083 0.9960105983278139 -0.03688559323955352 0.0034176868851111186 0.015127711535012993
0.06252605252188 0.0037051624799344755 0.01690261364442388 0.9956314792392167 -0.0410508123781065 0.0007585535544859373 0.008341925084651688 -0.0006627177148136665 -0.0052780769372463
 0.9956314792392167 -0.0410508123781065 0.0037040668294131547 0.016902741802098956 -0.0006627614536742606 -0.005278075295088607 0.0007635327405076727 0.00834133893504461
 0.0007585535544859373 0.008341925084651688 -0.0006627614536742606 -0.005278075295088607 0.003705174015354067 0.016901779458369237 0.9956314556574903 -0.041051648993682834
 -0.0006627177148136665 -0.0052780769372463 0.0007635327405076727 0.00834133893504461 0.9956314556574903 -0.041051648993682834 0.00370401138251622 0.016901920795039767
0.06877865777407 0.004008631766249946 0.018693547233058234 0.995229652872445 -0.04523087834241337 0.0008776532104113518 0.009179381514775625 -0.0007644905244107736 -0.005811215841564992
 0.995229652872445 -0.04523087834241337 0.0040073069734094776 0.0186936994156835 -0.0007645433177347117 -0.005811213376473227 0.0008836781463475179 0.009178662241121646
 0.0008776532104113518 0.009179381514775625 -0.0007645433177347117 -0.005811213376473227 0.004008646319583489 0.018692630559672217 0.9952296245764023 -0.045231799051402476
 -0.0007644905244107736 -0.005811215841564992 0.0008836781463475179 0.009178662241121646 0.9952296245764023 -0.045231799051402476 0.0040072401812800236 0.018692798711550808
0.07503126302626001 0.004329336149938702 0.02050082851173155 0.994804841549227 -0.04942493032947422 0.0010060547488041332 0.010017014130988417 -0.0008741718652799841 -0.006344780121300907
 0.994804841549227 -0.04942493032947422 0.004327760603123226 0.02050100718953296 -0.0008742345430436106 -0.006344776662956959 0.0010132253354961113 0.010016143145098957
 0.0010060547488041332 0.010017014130988417 -0.0008742345430436106 -0.006344776662956959 0.004329354122627726 0.020499829604446948 0.9948048080872334 -0.049425935301635575
 -0.0008741718652799841 -0.006344780121300907 0.0010132253354961113 0.010016143145098957 0.9948048080872334 -0.049425935301635575 0.004327681418932016 0.020500027401966634
0.08128386827845 0.0046675818414445664 0.02232415150900817 0.994356748888231 -0.053632836785962784 0.0011438407572751104 0.010854695887380353 -0.0009918468349145227 -0.006878637567088224
 0.994356748888231 -0.053632836785962784 0.004665733951990149 0.022324359262476955 -0.0009919202217437088 -0.006878632932353744 0.0011522569475682304 0.010853653301700045
 0.0011438407572751104 0.010854695887380353 -0.0009919202217437088 -0.006878632932353744 0.004667603651837477 0.022323070648615592 0.99435670980043 -0.053633926207337874
 -0.0009918468349145227 -0.006878637567088224 0.0011522569475682304 0.010853653301700045 0.99435670980043 -0.053633926207337874 0.00466564133376763 0.022323301056830405
0.08753647353064001 0.005023673131040293 0.02416321816524686 0.9938850793525013 -0.05785444684313165 0.0012910918496193222 0.011692295974737367 -0.0011175984082689252 -0.007412653967022421
 0.9938850793525013 -0.05785444684313165 0.005021531331237853 0.024163457686049383 -0.0011176833233348127 -0.007412647959903013 0.001300853633379468 0.011691060590534761
 0.0012910918496193222 0.011692295974737367 -0.0011176833233348127 -0.007412647959903013 0.005023699215621708 0.02416205565854918 0.9938850341702271 -0.05785562091723393
 -0.0011175984082689252 -0.007412653967022421 0.001300853633379468 0.011691060590534761 0.9938850341702271 -0.05785562091723393 0.0050214242434356545 0.024162321778400594
0.09378907878283 0.005397912340710596 0.02601773535652469 0.9933895384626661 -0.062089593248814405 0.001447886566427798 0.012529680031610563 -0.001251507361887969 -0.007946692931682658
 0.9933895384626661 -0.062089593248814405 0.00539545508143163 0.02601800944859086 -0.0012516046188027292 -0.007946685343282604 0.0014590939537972695 0.012528229327299833
 0.001447886566427798 0.012529680031610563 -0.0012516046188027292 -0.007946685343282604 0.005397943154715747 0.026016491531272626 0.9933894867077954 -0.06209085220156388
 -0.001251507361887969 -0.007946692931682658 0.0014590939537972695 0.012528229327299833 0.9933894867077954 -0.06209085220156388 0.005395332495702439 0.0260167966009961
0.100041684035 0.005790599753823154 0.02788741271914511 0.9928698329924485 -0.06633809450473892 0.0016143012774415954 0.013366710306546492 -0.0013936521947806601 -0.008480615773183285
 0.9928698329924485 -0.06633809450473892 0.0057878055020540616 0.027887724299796024 -0.001393762601369367 -0.008480606381671106 0.0016270542811292767 0.01336502042635297
 0.0016143012774415954 0.013366710306546492 -0.001393762601369367 -0.008480606381671106 0.005790635771112789 0.02788608792779509 0.992869774176339 -0.06633943858044562
 -0.0013936521947806601 -0.008480615773183285 0.0016270542811292767 0.01336502042635297 0.992869774176339 -0.06633943858044562 0.0057876663982969435 0.027886435324431285
0.1059090909091 0.006176139306593459 0.029655436967827044 0.9923599071679612 -0.07033683563552633 0.0017792791521534681 0.014151727113379099 -0.0015345983419652724 -0.00898141448426311
 0.9923599071679612 -0.07033683563552633 0.006173009251750295 0.029655786482924384 -0.0015347218176192407 -0.008981403187416102 0.001793573498967958 0.014149789897284024
 0.0017792791521534681 0.014151727113379099 -0.0015347218176192407 -0.008981403187416102 0.006176180655539611 0.02965403654064136 0.992359841271377 -0.07033825982873285
 -0.0015345983419652724 -0.00898141448426311 0.001793573498967958 0.014149789897284024 0.992359841271377 -0.07033825982873285 0.006172853728273521 0.029654426853049705
0.1062942892872 0.006202033529813262 0.029771961013960787 0.9923256711519229 -0.07059975647009771 0.0017904100854229134 0.014203245789837922 -0.0015441090467080228 -0.00901428142003969
 0.9923256711519229 -0.07059975647009771 0.006198880766865745 0.029772313115151782 -0.0015442334049512296 -0.009014269990614712 0.0018048087018521486 0.014201291532804753
 0.0017904100854229134 0.014203245789837922 -0.0015442334049512296 -0.009014269990614712 0.006202075244533135 0.029770555632843695 0.9923256047750111 -0.07060118593201342
 -0.0015441090467080228 -0.00901428142003969 0.0018048087018521486 0.014201291532804753 0.9923256047750111 -0.07060118593201342 0.0061987241344862625 0.029770948873861853
0.11254689453939999 0.006632509608219947 0.03167109087977137 0.9917567627632973 -0.0748743735822522 0.0019762847309295734 0.015039142318421413 -0.0017029516147688908 -0.009547546364506321
 0.9917567627632973 -0.0748743735822522 0.006628976827048356 0.03167148664950769 -0.0017030907205502041 -0.009547532649373771 0.0019924289204675794 0.015036897127641594
 0.0019762847309295734 0.015039142318421413 -0.0017030907205502041 -0.009547532649373771 0.006632557534514749 0.03166960531094283 0.9917566883139808 -0.07487588871043263
 -0.0017029516147688908 -0.009547546364506321 0.0019924289204675794 0.015036897127641594 0.9917566883139808 -0.07487588871043263 0.006628801665997173 0.03167004805592027
0.11879949979160001 0.007082321602248203 0.03358451186448257 0.9911628194292266 -0.07916172980625445 0.0021719944978638053 0.01587425266924018 -0.0018702510682469735 -0.010080264627036943
 0.9911628194292266 -0.07916172980625445 0.007078387305550127 0.033584954568276044 -0.0018704057111785918 -0.01008024836540395 0.00218998416441433 0.015871688621434572
 0.0021719944978638053 0.01587425266924018 -0.0018704057111785918 -0.01008024836540395 0.00708237627547023 0.03358294653208132 0.9911627363836508 -0.07916333090095368
 -0.0018702510682469735 -0.010080264627036943 0.00218998416441433 0.015871688621434572 0.9911627363836508 -0.07916333090095368 0.007078192627667559 0.033583442584452054
0.1250521050438 0.007551760686390946 0.035511931659083736 0.990543554698736 -0.08346159938831389 0.0023776061196373816 0.01670842663963322 -0.002046075962564189 -0.010612287739356222
 0.990543554698736 -0.08346159938831389 0.007547403384539484 0.035512424681519536 -0.0020462469258806897 -0.010612268657371157 0.0023975410892298253 0.0167055144352066
 0.0023776061196373816 0.01670842663963322 -0.0020462469258806897 -0.010612268657371157 0.007551822663512174 0.03551028701083703 0.990543462519457 -0.08346328676791952
 -0.002046075962564189 -0.010612287739356222 0.0023975410892298253 0.0167055144352066 0.990543462519457 -0.08346328676791952 0.007547188214304318 0.03551084031991946
0.131304710296 0.00804111547764395 0.03745305549038951 0.9898986842278752 -0.08777374745706391 0.0025931836857668836 0.01754151112191613 -0.0022304921522568514 -0.011143464739327794
 0.9898986842278752 -0.08777374745706391 0.008036313686131877 0.037453602336919925 -0.0022306802125293896 -0.011143442550092877 0.0026151636844984616 0.01753822007526809
 0.0025931836857668836 0.01754151112191613 -0.0022306802125293896 -0.011143442550092877 0.008041185337846963 0.03745133199729046 0.9898985823632763 -0.0877755214581599
 -0.0022304921522568514 -0.011143464739327794 0.0026151636844984616 0.01753822007526809 0.9898985823632763 -0.0877755214581599 0.008036077062304822 0.03745194666025281
0.1375573155481 0.008439011911481576 0.03915442981584257 0.9893396317780286 -0.09184464851503285 0.002791578840992201 0.01834802681012133 -0.0023963352693628817 -0.011648352855861237
 0.9893396317780286 -0.09184464851503285 0.008433741517632187 0.03915502025376945 -0.0023965413737956514 -0.01164832752182588 0.0028156613605846773 0.018344361301487387
 0.002791578840992201 0.01834802681012133 -0.0023965413737956514 -0.01164832752182588 0.008439089215202252 0.03915262828798485 0.9893395197788578 -0.09184650933504568
 -0.0023963352693628817 -0.011648352855861237 0.0028156613605846773 0.018344361301487387 0.9893395197788578 -0.09184650933504568 0.00843348331856449 0.03915329377202616
0.1438099208003 0.008850929088681769 0.04084674491127274 0.9887608859821411 -0.09590513391935515 0.0029979790157082927 0.01915124316609129 -0.002568809359008949 -0.012150197427227985
 0.9887608859821411 -0.09590513391935515 0.008845168189212651 0.04084738146636072 -0.002569034305701093 -0.012150168670784209 0.0030242560052909486 0.019147174999692575
 0.0029979790157082927 0.01915124316609129 -0.002569034305701093 -0.012150168670784209 0.008851014262706016 0.04084486589386103 0.9887607632975233 -0.09590708188750299
 -0.002568809359008949 -0.012150197427227985 0.0030242560052909486 0.019147174999692575 0.9887607632975233 -0.09590708188750299 0.008844887625360603 0.040845585235159555
0.1500625260525 0.00927672085650088 0.042529856378655376 0.9881625971929096 -0.0999550998524086 0.003212312042642594 0.019951077102241133 -0.002747843828699212 -0.01264891919965012
 0.9881625971929096 -0.0999550998524086 0.009270447531383076 0.042530541704468454 -0.002748088411612525 -0.01264888673235615 0.0032408748670555527 0.01994657705581911
 0.003212312042642594 0.019951077102241133 -0.002748088411612525 -0.01264888673235615 0.009276814337384599 0.04252790043773109 0.9881624632598585 -0.09995713531201547
 -0.002747843828699212 -0.01264891919965012 0.0032408748670555527 0.01994657705581911 0.9881624632598585 -0.09995713531201547 0.00927014383677204 0.042528676817753054
0.15631513130469998 0.00971624000950728 0.044203624166056193 0.987544916545605 -0.10399444292759956 0.0034345048917785764 0.020747446963878886 -0.0029333672059188823 -0.013144440611579565
 0.987544916545605 -0.10399444292759956 0.009709432321338645 0.04420436104532931 -0.0029336322146684556 -0.013144404134269363 0.003465444321209483 0.02074248480054854
