! Created with skrf 1.8.0 (http://scikit-rf.org).
# GHz S RI R 50.0 
!freq ReS11 ImS11 ReS12 ImS12 ReS13 ImS13
! ReS14 ImS14
! ReS21 ImS21 ReS22 ImS22 ReS23 ImS23
! ReS24 ImS24
! ReS31 ImS31 ReS32 ImS32 ReS33 ImS33
! ReS34 ImS34
! ReS41 ImS41 ReS42 ImS42 ReS43 ImS43
! ReS44 ImS44
!
0.0 0.001350175314153 0.0 0.9986498246679 0.0 5.198113559927e-05 0.0 -5.198113565424e-05 6.365853139500938e-21
 0.9986498246679 0.0 0.001350175314123 0.0 -5.198113565412e-05 6.365853139486241e-21 5.198113559803e-05 0.0
 5.198113559927e-05 0.0 -5.198113565412e-05 6.365853139486241e-21 0.001350175323121 0.0 0.9986498246769 0.0
 -5.198113565424e-05 6.365853139500938e-21 5.198113559803e-05 0.0 0.9986498246769 0.0 0.001350175323099 0.0
0.005 0.0014522311380924578 0.0011006588597071967 0.9985207777209315 -0.002829134458972757 7.316743990187732e-05 0.0005982620910000601 -7.096197982330817e-05 -0.0003711530575681829
 0.9985207777209315 -0.002829134458972757 0.0014522334575174495 0.0011006574372017185 -7.096320775963955e-05 -0.0003711539227208656 7.315702934453016e-05 0.0005982661368980602
 7.316743990187732e-05 0.0005982620910000601 -7.096320775963955e-05 -0.0003711539227208656 0.0014522312441670234 0.001100726010993775 0.9985207780678362 -0.002829067397767655
 -7.096197982330817e-05 -0.0003711530575681829 7.315702934453016e-05 0.0005982661368980602 0.9985207780678362 -0.002829067397767655 0.001452234044225555 0.0011007244086776325
0.006252605252188 0.001478852830513067 0.0013801934711208603 0.9984869247034591 -0.003537134565662649 7.913620680809431e-05 0.000748115169204224 -7.625576145966687e-05 -0.00046443577050635037
 0.9984869247034591 -0.003537134565662649 0.0014788564565858249 0.001380191633707569 -7.625767287747e-05 -0.0004644368359046587 7.911994213429458e-05 0.0007481204064750391
 7.913620680809431e-05 0.000748115169204224 -7.625767287747e-05 -0.0004644368359046587 0.0014788529096184475 0.0013802773954657622 0.9984869251585817 -0.003537050747576123
 -7.625576145966687e-05 -0.00046443577050635037 7.911994213429458e-05 0.0007481204064750391 0.9984869251585817 -0.003537050747576123 0.0014788572861379663 0.001380275345982504
0.01250521050438 0.001618154085231615 0.002789671682650822 0.9983087155695931 -0.0070752345202593605 0.00011292174307097472 0.001496569390836214 -0.00010594200377180354 -0.0009312425198466296
 0.9983087155695931 -0.0070752345202593605 0.001618168571897222 0.0027896674070160073 -0.00010594954457527706 -0.0009312444755583596 0.00011285691031320376 0.0014965817993148108
 0.00011292174307097472 0.001496569390836214 -0.00010594954457527706 -0.0009312444755583596 0.0016181538642781664 0.002789839220603535 0.9983087168428035 -0.007075067131336545
 -0.00010594200377180354 -0.0009312425198466296 0.00011285691031320376 0.0014965817993148108 0.9983087168428035 -0.007075067131336545 0.0016181713322855368 0.0027898346476791726
0.01875781575657 0.00176835359735537 0.004219566674538292 0.9981149970283302 -0.010622946417953904 0.0001534108755358686 0.0022459124989364053 -0.0001411253609387578 -0.0013997325693344254
 0.9981149970283302 -0.010622946417953904 0.0017683861654076245 0.00421955932091211 -0.00014114218884487675 -0.001399735207928343 0.00015326529893406837 0.002245934370048252
 0.0001534108755358686 0.0022459124989364053 -0.00014114218884487675 -0.001399735207928343 0.0017683526911762611 0.0042198176600483405 0.9981149994648577 -0.010622695561041404
 -0.0001411253609387578 -0.0013997325693344254 0.00015326529893406837 0.002245934370048252 0.9981149994648577 -0.010622695561041404 0.0017683919278378205 0.004219810049530731
0.02501042100875 0.0019297193506033418 0.0056678992988471065 0.9979055617971214 -0.014182020735330625 0.00020067786587281826 0.002996203108485121 -0.0001818889306908794 -0.0018697053845197233
 0.9979055617971214 -0.014182020735330625 0.001929777214098726 0.005667888188922738 -0.00018191866385675135 -0.001869708462674097 0.00020041939381755864 0.0029962370720305223
 0.00020067786587281826 0.002996203108485121 -0.00018191866385675135 -0.001869708462674097 0.0019297173901283713 0.005668233604027808 0.9979055657490288 -0.0141816864744742
 -0.0001818889306908794 -0.0018697053845197233 0.00020041939381755864 0.0029962370720305223 0.9979055657490288 -0.0141816864744742 0.00192978704601058 0.005668222403586144
0.03126302626094 0.002102508085346523 0.007133666255464235 0.9976801910058957 -0.017753224803648316 0.000254797680787751 0.003747428379738466 -0.00022831370817797796 -0.0023410278026353795
 0.9976801910058957 -0.017753224803648316 0.00210259845377375 0.007133650672340265 -0.00022835993213021443 -0.002341031040641401 0.00025439415373722463 0.0037474774043627906
 0.000254797680787751 0.003747428379738466 -0.00022835993213021443 -0.002341031040641401 0.002102504709063512 0.007134083760247378 0.997680196823706 -0.01775280719420802
 -0.00022831370817797796 -0.0023410278026353795 0.00025439415373722463 0.0037474774043627906 0.997680196823706 -0.01775280719420802 0.0021026134117506845 0.007134068379531604
0.037515631513130004 0.002286971147015889 0.008616224904762389 0.9974386601824853 -0.021336957942671105 0.00031584525763274764 0.0044995476331215955 -0.0002804792160818029 -0.0028135904095802793
 0.9974386601824853 -0.021336957942671105 0.002287101226738922 0.008616204092607244 -0.0002805454872097545 -0.002813593491119297 0.000315264493449086 0.004499615028750522
 0.00031584525763274764 0.0044995476331215955 -0.0002805454872097545 -0.002813593491119297 0.002286966000994114 0.008616725499916341 0.9974386682162864 -0.021336457028050634
 -0.0002804792160818029 -0.0028135904095802793 0.000315264493449086 0.004499615028750522 0.9974386682162864 -0.021336457028050634 0.002287122357707584 0.008616705310435109
0.043768236765320004 0.0024833567498036228 0.010115106054459698 0.9971807416549034 -0.02493343861331857 0.00038389516421880656 0.005252505604067352 -0.0003384637432454815 -0.003287294275937711
 0.9971807416549034 -0.02493343861331857 0.0024835337449005852 0.010115079218289422 -0.00033855359080778286 -0.0032872968479530245 0.00038310495141627226 0.005252595024986002
 0.00038389516421880656 0.005252505604067352 -0.00033855359080778286 -0.0032872968479530245 0.0024833494862231513 0.010115689636186443 0.9971807522533523 -0.02493285443028586
 -0.0003384637432454815 -0.003287294275937711 0.00038310495141627226 0.005252595024986002 0.9971807522533523 -0.02493285443028586 0.002483562085739223 0.010115663971170225
0.050020842017509996 0.0026919110421067954 0.011629936573375008 0.9969062057569467 -0.028542781741547816 0.00045902140359411624 0.006006237920285025 -0.00040234443873213743 -0.0037620454712570467
 0.9969062057569467 -0.028542781741547816 0.002692142154868217 0.01162990287881068 -0.00040246136617354435 -0.0037620471438693276 0.00045798949816669497 0.006006353368404719
 0.00045902140359411624 0.006006237920285025 -0.00040246136617354435 -0.0037620471438693276 0.0026919013213974976 0.011630603040321107 0.9969062192696327 -0.028542114322986426
 -0.00040234443873213743 -0.0037620454712570467 0.00045798949816669497 0.006006353368404719 0.9969062192696327 -0.028542114322986426 0.002692178735127745 0.011630571194550935
0.055454545454549996 0.0028832235320962046 0.012959077323845164 0.9966539510490021 -0.03168989568650419 0.0005301121787468574 0.006661828151993934 -0.0004627061953002294 -0.00417539801908681
 0.9966539510490021 -0.03168989568650419 0.0028835075228238055 0.012959036960714461 -0.000462849481761045 -0.004175398564798707 0.0005288440234112945 0.006661969741145507
 0.0005301121787468574 0.006661828151993934 -0.000462849481761045 -0.004175398564798707 0.002883211404304512 0.012959815737137781 0.9966539673770384 -0.03168915596040736
 -0.0004627061953002294 -0.00417539801908681 0.0005288440234112945 0.006661969741145507 0.9966539673770384 -0.03168915596040736 0.002883552092053583 0.012959777917364263
0.056273447269699996 0.0029128786559577038 0.01316040142530279 0.996614821520648 -0.032165036622106825 0.0005412972776502386 0.006760673784395027 -0.0004721973459702167 -0.004237752374347063
 0.996614821520648 -0.032165036622106825 0.002913171087325109 0.013160359998291965 -0.0004723448317375249 -0.0042377527207691085 0.0005399914026165438 0.006760819612681676
 0.0005412972776502386 0.006760673784395027 -0.0004723448317375249 -0.0042377527207691085 0.0029128661441479037 0.013161150675239496 0.9966148382960759 -0.0321642860002624
 -0.0004721973459702167 -0.004237752374347063 0.0005399914026165438 0.006760819612681676 0.9966148382960759 -0.0321642860002624 0.0029132169273127736 0.013161111904851754
0.06252605252188 0.0031465030135688797 0.014706222783272393 0.9963063571282901 -0.035800207743098014 0.000630795283515908 0.007515737448157168 -0.0005480974032711212 -0.00471432419387172
 0.9963063571282901 -0.035800207743098014 0.003146863963434019 0.014706172709877244 -0.0005482789013251372 -0.004714322750361266 0.0006291831298192839 0.007515918364036895
 0.000630795283515908 0.007515737448157168 -0.0005482789013251372 -0.004714322750361266 0.003146487383403554 0.014707054715486093 0.9963063775151042 -0.03579937394700029
 -0.0005480974032711212 -0.00471432419387172 0.0006291831298192839 0.007515918364036895 0.9963063775151042 -0.03579937394700029 0.003146920076290921 0.014707008237672273
0.06877865777407 0.0033930264974765876 0.01626714757948777 0.9959805802304633 -0.039448267176364654 0.0007275870261871921 0.008271349089152108 -0.0006301184266669357 -0.0051916700885850315
 0.9959805802304633 -0.039448267176364654 0.003393463165039765 0.0162670879055474 -0.00063033736688013 -0.005191666354373741 0.0007256362548471294 0.008271570157961686
 0.0007275870261871921 0.008271349089152108 -0.00063033736688013 -0.005191666354373741 0.003393007427444054 0.016268062094801753 0.9959806045769155 -0.0394473502317445
 -0.0006301184266669357 -0.0051916700885850315 0.0007256362548471294 0.008271570157961686 0.9959806045769155 -0.0394473502317445 0.0033935305558887153 0.016268007087648594
0.07503126302626001 0.003652690541624917 0.017842939621714064 0.9956372581880183 -0.0431091624037082 0.000831743140992396 0.009027425366557134 -0.0007183330818499054 -0.005669698610802506
 0.9956372581880183 -0.0431091624037082 0.0036532101256971533 0.0178428693525511 -0.0007185928701801124 -0.005669692048054732 0.0008294213860598585 0.009027692014927854
 0.000831743140992396 0.009027425366557134 -0.0007185928701801124 -0.005669692048054732 0.003652667716296533 0.017843936617885785 0.9956372868427369 -0.043108162337434884
 -0.0007183330818499054 -0.005669698610802506 0.0008294213860598585 0.009027692014927854 0.9956372868427369 -0.043108162337434884 0.0036532897928028525 0.01784387221998471
0.08128386827845 0.003925735673218238 0.019433374323583982 0.995276158267115 -0.04678282153131051 0.0009433332226304451 0.009783879790386089 -0.0008128128483044716 -0.006148317338859644
 0.995276158267115 -0.04678282153131051 0.003926345372071738 0.019433292423781893 -0.0008131168668577262 -0.00614830737263207 0.0009406080946698927 0.009784197809620263
 0.0009433332226304451 0.009783879790386089 -0.0008131168668577262 -0.00614830737263207 0.00392570878243849 0.019434453701592577 0.9952761915784964 -0.04678173836503582
 -0.0008128128483044716 -0.006148317338859644 0.0009406080946698927 0.009784197809620263 0.9952761915784964 -0.04678173836503582 0.0039264383068267645 0.01943437901181025
0.08753647353064001 0.004212401520476966 0.021038235088104058 0.9948970478030462 -0.05046915685380828 0.0010624257576669497 0.010540622981230374 -0.0009136279785549073 -0.00662743262167413
 0.9948970478030462 -0.05046915685380828 0.004213108532540228 0.021038140481073005 -0.0009139795856347716 -0.0066274186398727385 0.0010592648480406842 0.010540998530592219
 0.0010624257576669497 0.010540622981230374 -0.0009139795856347716 -0.0066274186398727385 0.0042123702592931755 0.02103939674451031 0.9948970861197576 -0.05046799061149628
 -0.0009136279785549073 -0.00662743262167413 0.0010592648480406842 0.010540998530592219 0.9948970861197576 -0.05046799061149628 0.004213215719648468 0.02103931082157003
0.09378907878283 0.004512926799174062 0.022657310696615574 0.9944996943446849 -0.054168067415385386 0.001189088059912751 0.011297562853189941 -0.0010208474537808756 -0.007106949402741552
 0.9944996943446849 -0.054168067415385386 0.004513738322575092 0.022657202264383045 -0.0010212499837885353 -0.0071069307561077094 0.0011854589450846567 0.011298002463189547
 0.001189088059912751 0.011297562853189941 -0.0010212499837885353 -0.0071069307561077094 0.0045128908672868746 0.022658554527818377 0.9944997380152729 -0.05416681811892893
 -0.0010208474537808756 -0.007106949402741552 0.0011854589450846567 0.011298002463189547 0.9944997380152729 -0.05416681811892893 0.004513860740461895 0.022658456390011295
0.100041684035 0.00482754928132429 0.024290393410035385 0.9940838657847632 -0.057879440861728304 0.0013233862072610722 0.012054604752283055 -0.001134538936418928 -0.007586771091577731
 0.9940838657847632 -0.057879440861728304 0.0048284725146217605 0.02429026999278942 -0.001134995699783709 -0.007586747093653804 0.0013192564538254852 0.012055115327787977
 0.0013233862072610722 0.012054604752283055 -0.001134995699783709 -0.007586747093653804 0.004827508383114901 0.024291719312321488 0.994083915157992 -0.05787810853088335
 -0.001134538936418928 -0.007586771091577731 0.0013192564538254852 0.012055115327787977 0.994083915157992 -0.05787810853088335 0.004828611135683674 0.024291607937037173
0.1059090909091 0.00513582130338531 0.02583542438188974 0.9936766455331307 -0.06137339718580795 0.0014564132138605267 0.01276501459556 -0.001247171626554757 -0.008037222695800593
 0.9936766455331307 -0.06137339718580795 0.005136855911647902 0.025835285810422413 -0.0012476822714695978 -0.008037193018784635 0.0014517841620957988 0.012765598380828967
 0.0014564132138605267 0.01276501459556 -0.0012476822714695978 -0.008037193018784635 0.005135775479835292 0.02583682720236979 0.9936767005754257 -0.06137198695433472
 -0.001247171626554757 -0.008037222695800593 0.0014517841620957988 0.012765598380828967 0.9936767005754257 -0.06137198695433472 0.00513701061703725 0.025836702438311175
0.1062942892872 0.005156505753426176 0.0259372775341197 0.9936493304806925 -0.06160315483095758 0.0014653849796733653 0.012811651562869987 -0.0012547687208772158 -0.00806679946982174
 0.9936493304806925 -0.06160315483095758 0.0051575478953753634 0.025937137929913767 -0.0012552830038966942 -0.008066769396937451 0.0014607221495474072 0.01281224038626615
 0.0014653849796733653 0.012811651562869987 -0.0012552830038966942 -0.008066769396937451 0.005156459597661492 0.025938685401252562 0.9936493859059369 -0.061601739485637116
 -0.0012547687208772158 -0.00806679946982174 0.0014607221495474072 0.01281224038626615 0.9936493859059369 -0.061601739485637116 0.005157703686332719 0.025938559724607468
0.11254689453939999 0.005500031964654901 0.027597758320609428 0.9931958573689172 -0.06533907801178915 0.0016151477980845795 0.013568603790284324 -0.0013816016823036705 -0.008546934624253839
 0.9931958573689172 -0.06533907801178915 0.0055012002142929015 0.027597601284914754 -0.0013821767469479435 -0.00854689771552293 0.0016099194538897643 0.013569278524481195
 0.0016151477980845795 0.013568603790284324 -0.0013821767469479435 -0.00854689771552293 0.005499980264024262 0.027599248045676334 0.9931959191953906 -0.06533757967005713
 -0.0013816016823036705 -0.008546934624253839 0.0016099194538897643 0.013569278524481195 0.9931959191953906 -0.06533757967005713 0.005501374136334241 0.02759910696208194
0.11879949979160001 0.00585836256823499 0.02927163111205574 0.9927232160740757 -0.0690870709614632 0.0017727366633576707 0.014325359630725449 -0.0015151012242395076 -0.009027074895477794
 0.9927232160740757 -0.0690870709614632 0.005859664125187251 0.029271455357439063 -0.0015157403079057907 -0.009027030352803694 0.0017669103742854074 0.014326128322075835
 0.0017727366633576707 0.014325359630725449 -0.0015157403079057907 -0.009027030352803694 0.005858305038846759 0.029273202586137578 0.9927232846515612 -0.0690854896409435
 -0.0015151012242395076 -0.009027074895477794 0.0017669103742854074 0.014326128322075835 0.9927232846515612 -0.0690854896409435 0.0058598571342636544 0.029273044947764948
0.1250521050438 0.0062317310564719165 0.030958690663579046 0.9922311770142693 -0.07284698675004644 0.0019382120959751934 0.015081815027396339 -0.0016553292248104136 -0.009507116843542631
 0.9922311770142693 -0.07284698675004644 0.006233173121073584 0.030958494859200696 -0.0016560355401572513 -0.00950706383161259 0.0019317554437712622 0.015082686108511536
 0.0019382120959751934 0.015081815027396339 -0.0016560355401572513 -0.00950706383161259 0.0062316674181639555 0.03096034377672152 0.9922312526929061 -0.0728453224668212
 -0.0016553292248104136 -0.009507116843542631 0.0019317554437712622 0.015082686108511536 0.9922312526929061 -0.0728453224668212 0.006233386168102436 0.030960168393010665
0.131304710296 0.006620369692298909 0.03265873060032232 0.9917195115051339 -0.07661867147276268 0.002111633075763565 0.015837863720715686 -0.0018023459822761234 -0.009986955222548673
 0.9917195115051339 -0.07661867147276268 0.006621959465425876 0.0326585133715224 -0.00180312271688426 -0.00998689286885806 0.0021045136607488794 0.01583884601323141
 0.002111633075763565 0.015837863720715686 -0.00180312271688426 -0.00998689286885806 0.0066202996678113 0.03266046524005934 0.9917195946353321 -0.07661692424273119
 -0.0018023459822761234 -0.009986955222548673 0.0021045136607488794 0.01583884601323141 0.9917195946353321 -0.07661692424273119 0.006622193496700549 0.032660270877204654
0.1375573155481 0.006930918706220104 0.034148414210676506 0.9912816118979068 -0.08017875923443143 0.0022699072131773432 0.016570244647942864 -0.0019330690712859415 -0.010443336306977538
 0.9912816118979068 -0.08017875923443143 0.0069326628497007785 0.03414817992198951 -0.0019339206895164877 -0.01044326461296676 0.0022621059482426705 0.016571336024824235
 0.0022699072131773432 0.016570244647942864 -0.0019339206895164877 -0.01044326461296676 0.006930841132845543 0.034150230794001514 0.9912817028150612 -0.08017692910286939
 -0.0019330690712859415 -0.010443336306977538 0.0022621059482426705 0.016571336024824235 0.9912817028150612 -0.08017692910286939 0.006932919727139149 0.034150020964814023
0.1438099208003 0.007252228425257124 0.0356309614635212 0.9908286079709155 -0.0837305675448167 0.0024345861634230133 0.017300179605721222 -0.00206904452140886 -0.010897480132160109
 0.9908286079709155 -0.0837305675448167 0.007254134027477651 0.03563070918912054 -0.0020699744050188965 -0.01089739825336322 0.0024260730871175015 0.017301388093839774
 0.0024345861634230133 0.017300179605721222 -0.0020699744050188965 -0.01089739825336322 0.00725214287000653 0.03563285993663859 0.990828707022629 -0.08372865453535326
 -0.00206904452140886 -0.010897480132160109 0.0024260730871175015 0.017301388093839774 0.990828707022629 -0.08372865453535326 0.007254414857973217 0.03563263375094121
0.1500625260525 0.0075841953745091634 0.037106270216106824 0.9903606066114384 -0.08727403069656267 0.0026056196992533844 0.018027610783619984 -0.0022102235010030584 -0.011349331178062961
 0.9903606066114384 -0.08727403069656267 0.007586269515178853 0.03710599898879945 -0.0022112350232481055 -0.011349238236635039 0.0025963650232296923 0.018028944698851763
 0.0026056196992533844 0.018027610783619984 -0.0022112350232481055 -0.011349238236635039 0.007584101396766442 0.0371082505275456 0.9903607141452434 -0.08727203483177891
 -0.0022102235010030584 -0.011349331178062961 0.0025963650232296923 0.018028944698851763 0.9903607141452434 -0.08727203483177891 0.00758657541246939 0.03710800705110437
0.15631513130469998 0.007926715456175465 0.038574241527785 0.9898777151280896 -0.09080908277603336 0.0027829570716455935 0.018752481230973044 -0.0023565566410384538 -0.011798835021044054
