! Created with skrf 1.8.0 (http://scikit-rf.org).
# GHz S RI R 50.0 
!freq ReS11 ImS11 ReS12 ImS12 ReS13 ImS13
! ReS14 ImS14
! ReS21 ImS21 ReS22 ImS22 ReS23 ImS23
! ReS24 ImS24
! ReS31 ImS31 ReS32 ImS32 ReS33 ImS33
! ReS34 ImS34
! ReS41 ImS41 ReS42 ImS42 ReS43 ImS43
! ReS44 ImS44
!
0.0 0.001291479824282 0.0 0.9987085201597 0.0 4.935191967569e-05 0.0 -4.935191970964e-05 6.04386705041878e-21
 0.9987085201597 0.0 0.001291479824305 0.0 -4.935191970999e-05 6.0438670504616425e-21 4.935191967733e-05 0.0
 4.935191967569e-05 0.0 -4.935191970999e-05 6.0438670504616425e-21 0.001291479826067 0.0 0.9987085201615 0.0
 -4.935191970964e-05 6.04386705041878e-21 4.935191967733e-05 0.0 0.9987085201615 0.0 0.001291479826078 0.0
0.005 0.0013888894322729955 0.001057689549512864 0.9985853796505881 -0.002706066044854252 6.869723320552666e-05 0.0005394116965988928 -6.678252622177607e-05 -0.00033945542506827404
 0.9985853796505881 -0.002706066044854252 0.0013889056608720417 0.0010576800572574335 -6.677988225496295e-05 -0.0003394533813940815 6.860831493178415e-05 0.0005394455269413552
 6.869723320552666e-05 0.0005394116965988928 -6.677988225496295e-05 -0.0003394533813940815 0.0013888911902619533 0.001057755747258801 0.9985853799891021 -0.002705998988604629
 -6.678252622177607e-05 -0.00033945542506827404 6.860831493178415e-05 0.0005394455269413552 0.9985853799891021 -0.002705998988604629 0.001388904576889612 0.001057747970218873
0.006252605252188 0.0014142528756328414 0.00132629502901098 0.998553141804071 -0.003383272446940589 7.412840901825067e-05 0.0006745390447571452 -7.16192976830003e-05 -0.0004247676400620196
 0.998553141804071 -0.003383272446940589 0.00141427824402993 0.0013262829768908063 -7.161518349314862e-05 -0.00042476511912322275 7.398948073852982e-05 0.0006745829377907443
 7.412840901825067e-05 0.0006745390447571452 -7.161518349314862e-05 -0.00042476511912322275 0.0014142555459031206 0.0013263777656516323 0.9985531422550445 -0.0033831886330012726
 -7.16192976830003e-05 -0.0004247676400620196 7.398948073852982e-05 0.0006745829377907443 0.9985531422550445 -0.0033831886330012726 0.0014142764710909394 0.0013263678639453798
0.01250521050438 0.0015466996282766368 0.0026806180039827317 0.998383814045888 -0.006767511705439624 0.00010476914649575143 0.001349507124823244 -9.860864236043324e-05 -0.0008517045837342141
 0.998383814045888 -0.006767511705439624 0.0015468009269924028 0.0026805920084872793 -9.859242868430296e-05 -0.0008516999062905288 0.0001042150983768736 0.001349612045260146
 0.00010476914649575143 0.001349507124823244 -9.859242868430296e-05 -0.0008516999062905288 0.0015467097353009756 0.0026807831844717295 0.9983838152874476 -0.006767344311961965
 -9.860864236043324e-05 -0.0008517045837342141 0.0001042150983768736 0.001349612045260146 0.9983838152874476 -0.006767344311961965 0.001546793282741091 0.0026807615740093585
0.01875781575657 0.0016890714497185527 0.0040545024589925234 0.9982003535879691 -0.01016099191226265 0.00014133868746929096 0.0020253736789564054 -0.00013039469362626446 -0.0012802253193542979
 0.9982003535879691 -0.01016099191226265 0.0016892990768526915 0.004054460469626721 -0.00013035853554338125 -0.0012802189092699415 0.0001400939939887098 0.0020255596947007628
 0.00014133868746929096 0.0020253736789564054 -0.00013035853554338125 -0.0012802189092699415 0.001689093745691643 0.004054749888355621 0.9982003559561706 -0.010160741026658456
 -0.00013039469362626446 -0.0012802253193542979 0.0001400939939887098 0.0020255596947007628 0.9982003559561706 -0.010160741026658456 0.0016892814666678076 0.004054714668166027
0.02501042100875 0.001841614228894908 0.005446066436211226 0.9980025710050303 -0.013565396368143861 0.00018390283406841408 0.002702189055500813 -0.00016705041184208989 -0.0017101600668270624
 0.9980025710050303 -0.013565396368143861 0.0018420184823831965 0.005446006260688344 -0.00016698655682474868 -0.0017101524154717834 0.0001816917949163216 0.002702479042919787
 0.00018390283406841408 0.002702189055500813 -0.00016698655682474868 -0.0017101524154717834 0.0018416534635592027 0.005446395901740158 0.9980025748387661 -0.013565062048344925
 -0.00016705041184208989 -0.0017101600668270624 0.0001816917949163216 0.002702479042919787 0.9980025748387661 -0.013565062048344925 0.0018419868154137813 0.00544634509016378
0.03126302626094 0.002004563448480118 0.006854361023214012 0.9977902659201514 -0.016981468976141306 0.00023252814587462398 0.003379942664794434 -0.00020864708577237812 -0.0021413965588157014
 0.9977902659201514 -0.016981468976141306 0.0020051945509472957 0.006854280330490943 -0.00020854785754165518 -0.00214138822612941 0.00022907461836626158 0.003380362323002159
 0.00023252814587462398 0.003379942664794434 -0.00020854785754165518 -0.00214138822612941 0.0020046243680737455 0.006854772292402453 0.9977902715580215 -0.016981051252506842
 -0.00020864708577237812 -0.0021413965588157014 0.00022907461836626158 0.003380362323002159 0.9977902715580215 -0.016981051252506842 0.0020051447346890266 0.006854703830117198
0.037515631513130004 0.00217814968366737 0.008278782338635358 0.9975632326129553 -0.02040960220638182 0.0002872812738603775 0.00405860018036613 -0.0002552548464575038 -0.0025738428239602544
 0.9975632326129553 -0.02040960220638182 0.002179057798136128 0.008278678660148881 -0.00025511263658861233 -0.002573834438792799 0.00028230854660978044 0.004059178059578236
 0.0002872812738603775 0.00405860018036613 -0.00025511263658861233 -0.002573834438792799 0.002178237030161066 0.008279275146159141 0.997563240392194 -0.02040910109426048
 -0.0002552548464575038 -0.0025738428239602544 0.00028230854660978044 0.004059178059578236 0.997563240392194 -0.02040910109426048 0.002178985736138482 0.008279186898007707
0.043768236765320004 0.0023626007279275293 0.009718892597073151 0.9973212622579258 -0.02385001597464871 0.00034822865259036083 0.004738114848584782 -0.00030694286458077437 -0.003007415864510177
 0.9973212622579258 -0.02385001597464871 0.00236383596930773 0.009718763327415893 -0.0003067501275188315 -0.0030074081247823733 0.0003414593794994368 0.004738882382911088
 0.00034822865259036083 0.004738114848584782 -0.0003067501275188315 -0.0030074081247823733 0.0023627192424805986 0.009719466641831325 0.9973212725175172 -0.02384943147681091
 -0.00030694286458077437 -0.003007415864510177 0.0003414593794994368 0.004738882382911088 0.9973212725175172 -0.02384943147681091 0.0023637375632557596 0.009719356398203887
0.050020842017509996 0.002558142590634149 0.011174346160525286 0.9970641440367989 -0.0273028315323888 0.0004154363260819956 0.005418432154797592 -0.0003637794282322791 -0.0034420369788832695
 0.9970641440367989 -0.0273028315323888 0.002559755035179172 0.011174188557768472 -0.0003635286780021908 -0.0034420306516519967 0.00040659249194908694 0.0054194236968787435
 0.0004154363260819956 0.005418432154797592 -0.0003635286780021908 -0.0034420306516519967 0.0025582970132884135 0.011175001095418781 0.9970641571174327 -0.027302163648708383
 -0.0003637794282322791 -0.0034420369788832695 0.00040659249194908694 0.0054194236968787435 0.9970641571174327 -0.027302163648708383 0.0025596261840562452 0.011174866573350104
0.055454545454549996 0.0027372560749579188 0.012451413972388166 0.996828233838641 -0.030313551510884443 0.0004789768661260819 0.006010253874365776 -0.00041740576743667907 -0.0038205274616159774
 0.996828233838641 -0.030313551510884443 0.0027392369647264215 0.012451229414510462 -0.0004170985670312892 -0.0038205230385537805 0.0004681038621416138 0.0060114702779332655
 0.0004789768661260819 0.006010253874365776 -0.0004170985670312892 -0.0038205230385537805 0.0027374455503371017 0.01245213889488874 0.9968282496475365 -0.030312811150305548
 -0.00041740576743667907 -0.0038205274616159774 0.0004681038621416138 0.0060114702779332655 0.9968282496475365 -0.030312811150305548 0.002739078322089933 0.0124519813638266
0.056273447269699996 0.0027650000227428737 0.012644853223371399 0.996791665782582 -0.03076810772284113 0.000488969827315617 0.006099492114875686 -0.00042583197222513584 -0.003877629460168871
 0.996791665782582 -0.03076810772284113 0.002767039716465714 0.01264466440907356 -0.0004255157801759434 -0.0038776253816619043 0.0004777727328853146 0.0061007449714330295
 0.000488969827315617 0.006099492114875686 -0.0004255157801759434 -0.0038776253816619043 0.0027651950911731092 0.012645588667007261 0.9967916820251076 -0.030767356437943733
 -0.00042583197222513584 -0.003877629460168871 0.0004777727328853146 0.0061007449714330295 0.9967916820251076 -0.030767356437943733 0.0027668763150214804 0.012645427511152007
0.06252605252188 0.0029833968064886616 0.014130159874509052 0.9965036143883211 -0.034245860860612216 0.0005688940886927655 0.006781230524794467 -0.0004931670790549054 -0.004314117338151353
 0.9965036143883211 -0.034245860860612216 0.002985913772708011 0.01412993683359688 -0.0004927780722850165 -0.004314116413784376 0.0005550643479306629 0.006782784992613696
 0.0005688940886927655 0.006781230524794467 -0.0004927780722850165 -0.004314116413784376 0.0029836372570396733 0.014130975401035993 0.9965036341356571 -0.034245026153510195
 -0.0004931670790549054 -0.004314117338151353 0.0005550643479306629 0.006782784992613696 0.9965036341356571 -0.034245026153510195 0.0029857117122104606 0.014130785184354433
0.06877865777407 0.0032135559215134123 0.01563003618997097 0.996199776096881 -0.03773607658200243 0.0006552733660992918 0.0074635797117504265 -0.0005658504667771137 -0.004751424621450636
 0.996199776096881 -0.03773607658200243 0.0032166001683120314 0.015629775770320438 -0.0005653813270128865 -0.004751427825829511 0.0006385309124347417 0.007465479113872135
 0.0006552733660992918 0.0074635797117504265 -0.0005653813270128865 -0.004751427825829511 0.003213846488976924 0.015630931327064834 0.9961997996938663 -0.03773515842741051
 -0.0005658504667771137 -0.004751424621450636 0.0006385309124347417 0.007465479113872135 0.9961997996938663 -0.03773515842741051 0.0032163553362075112 0.01563070955145279
0.07503126302626001 0.003455699638499593 0.017144268684143524 0.9958799367183634 -0.04123871733803177 0.000748171174126792 0.008146469001859852 -0.0006439469659782952 -0.00518947482488342
 0.9958799367183634 -0.04123871733803177 0.0034593211652899393 0.017143967596173423 -0.0006433904287211724 -0.005189483201800493 0.0007282352730386774 0.008148759723827522
 0.000748171174126792 0.008146469001859852 -0.0006433904287211724 -0.005189483201800493 0.0034560450548535926 0.01714524292123248 0.9958799645108946 -0.04123771569767322
 -0.0006439469659782952 -0.00518947482488342 0.0007282352730386774 0.008148759723827522 0.9958799645108946 -0.04123771569767322 0.003459029444325886 0.017144987017854968
0.08128386827845 0.003710049562723613 0.018672655299230283 0.9955438818014978 -0.04475372735133224 0.0008476502253831375 0.008829825037821672 -0.0007275204920570036 -0.005628190648761963
 0.9955438818014978 -0.04475372735133224 0.003714298367334288 0.01867231011502607 -0.0007268693460735097 -0.00562820531117492 0.0008242394921711741 0.008832556563837218
 0.0008476502253831375 0.008829825037821672 -0.0007268693460735097 -0.00562820531117492 0.003710454558464341 0.018673708076778234 0.9955439141383817 -0.044752642183929985
 -0.0007275204920570036 -0.005628190648761963 0.0008242394921711741 0.008832556563837218 0.9955439141383817 -0.044752642183929985 0.003713955636571029 0.018673415406328272
0.08753647353064001 0.003976826651804252 0.020215001918619958 0.9951913967805386 -0.04828103605064748 0.0009537723748472351 0.009513571993261746 -0.0008166340122023333 -0.006067493763452303
 0.9951913967805386 -0.04828103605064748 0.00398175273691681 0.020214609071137573 -0.0008158810990948245 -0.006067515893470225 0.0009266047961681731 0.009516796942265666
 0.0009537723748472351 0.009513571993261746 -0.0008158810990948245 -0.006067515893470225 0.003977295954280098 0.02021613263295607 0.9951914340125099 -0.048279867306539395
 -0.0008166340122023333 -0.006067493763452303 0.0009266047961681731 0.009516796942265666 0.9951914340125099 -0.048279867306539395 0.003981354870586626 0.020215800485709128
0.09378907878283 0.004256251208194285 0.02177111989113759 0.9948222670993668 -0.051820560496745244 0.0010665985655761178 0.010197631729090058 -0.0009113495100186148 -0.006507304654025979
 0.9948222670993668 -0.051820560496745244 0.004261904587821407 0.02177067567312023 -0.0009104877239794275 -0.006507335502877036 0.0010353915245229143 0.010201405890587633
 0.0010665985655761178 0.010197631729090058 -0.0009104877239794275 -0.006507335502877036 0.004256789542182821 0.021772327892181368 0.9948223095800305 -0.05181930811963355
 -0.0009113495100186148 -0.006507304654025979 0.0010353915245229143 0.010201405890587633 0.9948223095800305 -0.05181930811963355 0.004261447456164705 0.021771953487838384
0.100041684035 0.004548542859329496 0.023340824206766683 0.9944362783257844 -0.055372207159200694 0.0011861887765004656 0.010881923909264603 -0.001011727947513201 -0.00694754250762459
 0.9944362783257844 -0.055372207159200694 0.004554973565513463 0.023340324769413383 -0.0010107502352063437 -0.006947583395617658 0.0011506590803377085 0.01088630627894383
 0.0011861887765004656 0.010881923909264603 -0.0010107502352063437 -0.006947583395617658 0.004549154946124121 0.02334210879714978 0.9944363264113135 -0.05537087108633343
 -0.001011727947513201 -0.00694754250762459 0.0011506590803377085 0.01088630627894383 0.9944363264113135 -0.05537087108633343 0.0045544530340953905 0.0233416892845367
0.1059090909091 0.004834725076305268 0.02482601903670564 0.9940585448285201 -0.05871598442702939 0.0013046158445525237 0.011524197532867675 -0.001111126218991064 -0.00736097416168733
 0.9940585448285201 -0.05871598442702939 0.004841930746256746 0.02482546415410025 -0.001110033353963491 -0.007361025732656044 0.0012647717478792193 0.011529207184415115
 0.0013046158445525237 0.011524197532867675 -0.001110033353963491 -0.007361025732656044 0.004835410662845515 0.024827374821630575 0.9940585985001521 -0.05871456975142948
 -0.001111126218991064 -0.00736097416168733 0.0012647717478792193 0.011529207184415115 0.9940585985001521 -0.05871456975142948 0.00484134695649374 0.02482691032297896
0.1062942892872 0.004853920526234337 0.02492393212149324 0.9940332162557516 -0.058935873246081655 0.0013126019711327073 0.011566366086878738 -0.0011178292253462734 -0.0073881251326323345
 0.9940332162557516 -0.058935873246081655 0.004861178615484073 0.02492337347304787 -0.0011167285858804386 -0.007388177449111072 0.0012724658814223968 0.011571418901936283
 0.0013126019711327073 0.011566366086878738 -0.0011167285858804386 -0.007388177449111072 0.004854611083292256 0.024925292556259845 0.9940332703053003 -0.05893445340812243
 -0.0011178292253462734 -0.0073881251326323345 0.0012724658814223968 0.011571418901936283 0.9940332703053003 -0.05893445340812243 0.004860590545129523 0.02492482501279281
0.11254689453939999 0.00517260238226515 0.02652026210914227 0.9936128670109241 -0.06251144770945379 0.0014458960471576165 0.012250873774475904 -0.0012297121414075695 -0.007828968896034362
 0.9936128670109241 -0.06251144770945379 0.005180737941909972 0.02651964011317086 -0.001228481626342785 -0.00782903409933137 0.001400869312107695 0.012256662548594647
 0.0014458960471576165 0.012250873774475904 -0.001228481626342785 -0.00782903409933137 0.0051733761230049686 0.026521697596014165 0.993612927386896 -0.06250994402951388
 -0.0012297121414075695 -0.007828968896034362 0.001400869312107695 0.012256662548594647 0.993612927386896 -0.06250994402951388 0.005180078189196022 0.026521179026991665
0.11879949979160001 0.005504805807039873 0.028129633041176404 0.9931750171320866 -0.06609881202511243 0.001586127785914268 0.01293536049822398 -0.0013474343486738081 -0.008269988679037771
 0.9931750171320866 -0.06609881202511243 0.005513868962067004 0.028128943414723828 -0.0013460670621627318 -0.00827006829640086 0.0015359256746980362 0.012941954056210991
 0.001586127785914268 0.01293536049822398 -0.0013460670621627318 -0.00827006829640086 0.005505667440347987 0.028131142738037924 0.9931750842005194 -0.06609722442082415
 -0.0013474343486738081 -0.008269988679037771 0.0015359256746980362 0.012941954056210991 0.9931750842005194 -0.06609722442082415 0.005513133378903514 0.028130570075740262
0.1250521050438 0.005850747334306927 0.02975186353211937 0.9927194536702146 -0.06969784080973035 0.0017333528027893457 0.013619737844568922 -0.0014710523115707681 -0.008711097842808537
 0.9927194536702146 -0.06969784080973035 0.00586078825375436 0.02975110184359027 -0.0014695414105008046 -0.008711193470339038 0.0016776901415688854 0.013627208356606167
 0.0017333528027893457 0.013619737844568922 -0.0014695414105008046 -0.008711193470339038 0.0058517015639765755 0.02975344654885312 0.9927195278007432 -0.06969616919080579
 -0.0014710523115707681 -0.008711097842808537 0.0016776901415688854 0.013627208356606167 0.9927195278007432 -0.06969616919080579 0.0058599726874764895 0.029752816651352997
0.131304710296 0.006210642595407831 0.031386771424906944 0.9922459642733508 -0.07330840230043717 0.001887625497438465 0.014303915498997809 -0.0016006212618043596 -0.009152208204366174
 0.9922459642733508 -0.07330840230043717 0.006221711498903773 0.03138593309178698 -0.0015989599560110174 -0.0091523215069335 0.0018262167068337832 0.014312338514420472
 0.001887625497438465 0.014303915498997809 -0.0015989599560110174 -0.0091523215069335 0.006211694119478728 0.03138842681954226 0.9922460458394851 -0.07330664657206422
 -0.0016006212618043596 -0.009152208204366174 0.0018262167068337832 0.014312338514420472 0.9922460458394851 -0.07330664657206422 0.006220811792089843 0.03138773646939545
0.1375573155481 0.006496203363799192 0.03282070000322038 0.9918428639818772 -0.07671682507818521 0.0020281291491304684 0.014965931360205438 -0.0017154004950373808 -0.009571320771354216
 0.9918428639818772 -0.07671682507818521 0.006508353370927463 0.03281979780067208 -0.0017135787681109088 -0.009571451658187955 0.00196083135563671 0.014975286653129432
 0.0020281291491304684 0.014965931360205438 -0.0017135787681109088 -0.009571451658187955 0.006497356375266985 0.03282242687221444 0.9918429533199685 -0.07671498520405119
 -0.0017154004950373808 -0.009571320771354216 0.00196083135563671 0.014975286653129432 0.9918429533199685 -0.07671498520405119 0.006507365937993988 0.0328216902422482
0.1438099208003 0.006791600212692559 0.034248045197322385 0.9914259664573559 -0.08011758800737344 0.0021743181936916397 0.0156258149835979 -0.0018347838988537707 -0.009988502810384728
 0.9914259664573559 -0.08011758800737344 0.006804882048622381 0.034247075670514424 -0.0018327944552553172 -0.009988652896135134 0.0021008710871487065 0.01563617084638141
 0.0021743181936916397 0.0156258149835979 -0.0018327944552553172 -0.009988652896135134 0.006792859311111248 0.03424984257024132 0.9914260639387568 -0.08011566389823364
 -0.0018347838988537707 -0.009988502810384728 0.0021008710871487065 0.01563617084638141 0.9914260639387568 -0.08011566389823364 0.006803802829428592 0.034249057615605545
0.1500625260525 0.0070967412821176055 0.035668716628296744 0.9909953666431732 -0.08351063599676091 0.002326149895616817 0.016283517125172568 -0.00195873042862244 -0.010403707858807152
 0.9909953666431732 -0.08351063599676091 0.00711120573757927 0.03566767614145871 -0.001956565984553098 -0.010403878822512154 0.002246294443250395 0.016294944321582946
 0.002326149895616817 0.016283517125172568 -0.001956565984553098 -0.010403878822512154 0.007098111056095826 0.03567058349775011 0.990995472642502 -0.08350862755775014
 -0.00195873042862244 -0.010403707858807152 0.002246294443250395 0.016294944321582946 0.990995472642502 -0.08350862755775014 0.007110030674333658 0.03566974804982903
0.15631513130469998 0.007411534204460607 0.03708262681113358 0.9905511598049277 -0.0868959135930191 0.002483581100886712 0.01693898924149042 -0.0020871986134757773 -0.010816890345798956
