! Created with skrf 1.8.0 (http://scikit-rf.org).
# GHz S RI R 50.0 
!freq ReS11 ImS11 ReS12 ImS12 ReS13 ImS13
! ReS14 ImS14
! ReS21 ImS21 ReS22 ImS22 ReS23 ImS23
! ReS24 ImS24
! ReS31 ImS31 ReS32 ImS32 ReS33 ImS33
! ReS34 ImS34
! ReS41 ImS41 ReS42 ImS42 ReS43 ImS43
! ReS44 ImS44
!
0.0 0.001297908923618 0.0 0.9987020910764 0.0 4.95116119663e-05 0.0 -4.95116110786e-05 6.063423602803612e-21
 0.9987020910764 0.0 0.001297908923605 0.0 -4.951161107855e-05 6.063423602797489e-21 4.95116119672e-05 0.0
 4.95116119663e-05 0.0 -4.951161107855e-05 6.063423602797489e-21 0.001297908909412 0.0 0.9987020910622 0.0
 -4.95116110786e-05 6.063423602803612e-21 4.95116119672e-05 0.0 0.9987020910622 0.0 0.001297908909405 0.0
0.005 0.0013958177169996057 0.0010648489513224947 0.9985783490776744 -0.002719343293782801 6.853075250892324e-05 0.0005300718891232459 -6.680247612986659e-05 -0.0003355062034929003
 0.9985783490776744 -0.002719343293782801 0.0013957960556159233 0.0010648615436605674 -6.679966736904248e-05 -0.0003355040365292941 6.867390439133064e-05 0.0005300174919991439
 6.853075250892324e-05 0.0005300718891232459 -6.679966736904248e-05 -0.0003355040365292941 0.0013958188705809366 0.0010647809998515984 0.9985783487355685 -0.002719410348034558
 -6.680247612986659e-05 -0.0003355062034929003 6.867390439133064e-05 0.0005300174919991439 0.9985783487355685 -0.002719410348034558 0.0013957942226055279 0.0010647953904655365
0.006252605252188 0.001421321071972684 0.0013352628882879528 0.9985459488254788 -0.003399870933114786 7.383771787848099e-05 0.0006628667451934769 -7.16003541221985e-05 -0.00041982309039862066
 0.9985459488254788 -0.003399870933114786 0.0014212872118576458 0.0013352788954481174 -7.159598346355434e-05 -0.00041982041749632376 7.406138288419518e-05 0.0006627961556661902
 7.383771787848099e-05 0.0006628667451934769 -7.159598346355434e-05 -0.00041982041749632376 0.001421322959763268 0.001335177948824673 0.998545948374793 -0.0033999547498761496
 -7.16003541221985e-05 -0.00041982309039862066 7.406138288419518e-05 0.0006627961556661902 0.998545948374793 -0.0033999547498761496 0.001421284430456121 0.001335196210035589
0.01250521050438 0.0015545559658357451 0.002698664089793766 0.9983757395664978 -0.006800696152862598 0.00010360453123694886 0.0013262163373220944 -9.837200574113775e-05 -0.0008417770691202432
 0.9983757395664978 -0.006800696152862598 0.0015544207706818375 0.002698698780414137 -9.835478097281016e-05 -0.000841772111218221 0.00010449653470348692 0.001326047475897083
 0.00010360453123694886 0.0013262163373220944 -9.835478097281016e-05 -0.000841772111218221 0.0015545640642792738 0.0026984944237376006 0.9983757383210202 -0.0068008635634932415
 -9.837200574113775e-05 -0.0008417770691202432 0.00010449653470348692 0.001326047475897083 0.9983757383210202 -0.0068008635634932415 0.0015544102157117416 0.002698533706790094
0.01875781575657 0.0016978668729335314 0.004081697394512908 0.998191278434203 -0.010210787465088007 0.00013887709113642692 0.001990500667650751 -0.00012990058770828513 -0.0012652981274940045
 0.998191278434203 -0.010210787465088007 0.001697563101212435 0.004081753603723363 -0.00012986217428641243 -0.001265291336374284 0.00014088107279707564 0.0019902011057552197
 0.00013887709113642692 0.001990500667650751 -0.00012986217428641243 -0.001265291336374284 0.001697885499793804 0.0040814430867602645 0.9981912760517774 -0.010211038372421538
 -0.00012990058770828513 -0.0012652981274940045 0.00014088107279707564 0.0019902011057552197 0.9981912760517774 -0.010211038372421538 0.0016975397954865276 0.004081506380310228
0.02501042100875 0.0018515015838142606 0.005482471491867889 0.997992374354197 -0.01363183539720438 0.0001797205237479114 0.002655769313460743 -0.00016625840525425482 -0.0016902212615850962
 0.997992374354197 -0.01363183539720438 0.0018509621431436845 0.005482552190677477 -0.0001661905667066231 -0.0016902131614569304 0.00018328043884041482 0.002655302073619619
 0.0001797205237479114 0.002655769313460743 -0.0001661905667066231 -0.0016902131614569304 0.001851535058684663 0.005482132562561793 0.9979923704942377 -0.013632169768896335
 -0.00016625840525425482 -0.0016902212615850962 0.00018328043884041482 0.002655302073619619 0.9979923704942377 -0.013632169768896335 0.0018509211183553457 0.005482223056093205
0.03126302626094 0.0020156974376893265 0.006900032385376079 0.9977788252304094 -0.017064586742774567 0.00022620032194923186 0.0033220133445120534 -0.0002075161313181163 -0.0021164365797368624
 0.9977788252304094 -0.017064586742774567 0.002014855350032792 0.006900140675635211 -0.0002074107120454183 -0.002116427768360683 0.00023176087121794923 0.0033213368759956096
 0.00022620032194923186 0.0033220133445120534 -0.0002074107120454183 -0.002116427768360683 0.002015750081474464 0.0068996088309160744 0.9977788195509055 -0.01706500457055166
 -0.0002075161313181163 -0.0021164365797368624 0.00023176087121794923 0.0033213368759956096 0.9977788195509055 -0.01706500457055166 0.002014791642439484 0.006899729909589635
0.037515631513130004 0.002190686851494235 0.008333772681426141 0.9975504235955643 -0.0205094352206675 0.00027838188253017683 0.003989201029411276 -0.0002537433006549356 -0.002543853598892812
 0.9975504235955643 -0.0205094352206675 0.0021894752310684133 0.008333911792803449 -0.00025359221711425623 -0.0025438447479569485 0.00028638871559896994 0.003988269161436908
 0.00027838188253017683 0.003989201029411276 -0.00025359221711425623 -0.0025438447479569485 0.0021907629862179677 0.008333264479950505 0.9975504157511529 -0.02050993651477571
 -0.0002537433006549356 -0.002543853598892812 0.00028638871559896994 0.003988269161436908 0.9975504157511529 -0.02050993651477571 0.0021893838790560376 0.0083334197221708
0.043768236765320004 0.0023766994483460577 0.009783251833181007 0.9973069588586134 -0.023966601173373923 0.0003363302855082764 0.004657288692550462 -0.0003050084983090333 -0.0029723903807906313
 0.9973069588586134 -0.023966601173373923 0.0023750514846497075 0.009783425120915646 -0.00030480373368482825 -0.0029723822360697666 0.00034723010774533096 0.0046560505804333525
 0.0003363302855082764 0.004657288692550462 -0.00030480373368482825 -0.0029723822360697666 0.0023768034011137176 0.009782658945505526 0.9973069485032788 -0.02396718596152784
 -0.0003050084983090333 -0.0029723903807906313 0.00034723010774533096 0.0046560505804333525 0.9973069485032788 -0.02396718596152784 0.0023749275316825415 0.009782852121394037
0.050020842017509996 0.0025739630640848723 0.011248121833066647 0.9970482184297963 -0.027436205814958942 0.0004001101646874518 0.005326225196593074 -0.00036137943377207707 -0.0034019690407334964
 0.9970482184297963 -0.027436205814958942 0.002571812007298469 0.011248332776244475 -0.00036111303452977323 -0.00340196242216368 0.00041435079302230046 0.005324625264920608
 0.0004001101646874518 0.005326225196593074 -0.00036111303452977323 -0.00340196242216368 0.002574099165850741 0.011247444207139187 0.9970482052146085 -0.027436874137593648
 -0.00036137943377207707 -0.0034019690407334964 0.00041435079302230046 0.005324625264920608 0.9970482052146085 -0.027436874137593648 0.002571650499909148 0.011247679277724461
0.055454545454549996 0.0027547043210661387 0.01253340977289499 0.9968107932937129 -0.030461545709934482 0.0004603224787845048 0.005908196950189997 -0.00041456591595870107 -0.003776072973551122
 0.9968107932937129 -0.030461545709934482 0.0027520618894534684 0.01253365636033623 -0.00041423954245749944 -0.0037760684047722917 0.00047783093332068544 0.005906233734383779
 0.0004603224787845048 0.005908196950189997 -0.00041423954245749944 -0.0037760684047722917 0.0027548718823651435 0.012532658455928143 0.9968107773079083 -0.03046228666782031
 -0.00041456591595870107 -0.003776072973551122 0.00047783093332068544 0.005906233734383779 0.9968107773079083 -0.03046228666782031 0.0027518637264402133 0.01253293329889638
0.056273447269699996 0.0027827042711085796 0.012728090754731044 0.996773988364959 -0.030918307629203962 0.0004697856159161356 0.005995954134247476 -0.0004229229665368176 -0.0038325135472411804
 0.996773988364959 -0.030918307629203962 0.0027799834190950635 0.012728342954853943 -0.00042258704002203276 -0.0038325093489638314 0.00048781600381733243 0.005993932018602814
 0.0004697856159161356 0.005995954134247476 -0.00042258704002203276 -0.0038325093489638314 0.00278287685765941 0.012727328326644713 0.996773971938394 -0.030919059538292035
 -0.0004229229665368176 -0.0038325135472411804 0.00048781600381733243 0.005993932018602814 0.996773971938394 -0.030919059538292035 0.0027797794077700786 0.012727609443229258
0.06252605252188 0.003003148670339333 0.0142229027048794 0.9964840537801636 -0.03441292235862633 0.0005454201229964689 0.006666415036734582 -0.0004897051073819163 -0.004263948505996742
 0.9964840537801636 -0.03441292235862633 0.0029997913565096295 0.014223199884770693 -0.0004892918202111145 -0.004263947696366492 0.0005676903656978888 0.006663905524656558
 0.0005454201229964689 0.006666415036734582 -0.0004892918202111145 -0.004263947696366492 0.0030033620836806226 0.014222055392061114 0.996484033788085 -0.0344137579242179
 -0.0004897051073819163 -0.004263948505996742 0.0005676903656978888 0.006663905524656558 0.996484033788085 -0.0344137579242179 0.002999539896345423 0.014222386896175838
0.06877865777407 0.003235521057989617 0.01573232586581071 0.9961781991425406 -0.037920034904128125 0.0006270764961573772 0.007337544085856135 -0.0005617910033383295 -0.004696198441541292
 0.9961781991425406 -0.037920034904128125 0.0032314606396273266 0.01573267186880915 -0.0005612925801414717 -0.004696202063140097 0.0006540378216691083 0.007334477057467608
 0.0006270764961573772 0.007337544085856135 -0.0005612925801414717 -0.004696202063140097 0.00323577964520195 0.015731393573659276 0.9961781752271835 -0.03792095420737531
 -0.0005617910033383295 -0.004696198441541292 0.0006540378216691083 0.007334477057467608 0.9961781752271835 -0.03792095420737531 0.0032311567898182 0.015731779997109452
0.07503126302626001 0.003480045517345232 0.017256144914700653 0.9958562084893203 -0.04143960684913307 0.000714816814731293 0.008009274569229868 -0.0006392449153705403 -0.005129187337430607
 0.9958562084893203 -0.04143960684913307 0.003475215364224907 0.017256543704118988 -0.0006386536379810295 -0.005129196507060531 0.0007469215643919275 0.008005574937759058
 0.000714816814731293 0.008009274569229868 -0.0006386536379810295 -0.005129196507060531 0.003480353631704505 0.01725512753460136 0.995856180288738 -0.041440609983989414
 -0.0006392449153705403 -0.005129187337430607 0.0007469215643919275 0.008005574937759058 0.995856180288738 -0.041440609983989414 0.003474854188939815 0.017255573599926376
0.08128386827845 0.003736945464979685 0.018794155980350613 0.9955178656024813 -0.044971581448287 0.000808702374286497 0.00868153718058791 -0.00072213018932785 -0.005562838333102416
 0.9955178656024813 -0.044971581448287 0.0037312789481218174 0.01879461163920115 -0.0007214383961863612 -0.00556285424176432 0.0008464039753482014 0.008677124832948505
 0.000808702374286497 0.00868153718058791 -0.0007214383961863612 -0.00556285424176432 0.0037373074661273473 0.01879305339089649 0.9955178327508106 -0.044972668519961366
 -0.00072213018932785 -0.005562838333102416 0.0008464039753482014 0.008677124832948505 0.9955178327508106 -0.044972668519961366 0.003730855516864329 0.018793564012081616
0.08753647353064001 0.004006443664947015 0.020346163151055117 0.9951629541542165 -0.048515887066847334 0.0009087936357877445 0.00935426022872264 -0.0008105092229639073 -0.005997073513972277
 0.9951629541542165 -0.048515887066847334 0.003999874145580004 0.02034667988212915 -0.0008097093087115375 -0.0059970974268522045 0.0009525465676848041 0.009349049966284356
 0.0009087936357877445 0.00935426022872264 -0.0008097093087115375 -0.0059970974268522045 0.004006863919295479 0.02034497521431426 0.9951629162810303 -0.04851705819518106
 -0.0008105092229639073 -0.005997073513972277 0.0009525465676848041 0.009349049966284356 0.9951629162810303 -0.04851705819518106 0.003999383533933262 0.02034555549783002
0.09378907878283 0.004288762223150646 0.021911975978842747 0.9947912578351787 -0.05207243962592399 0.0010151501762929265 0.010027369785636172 -0.0009044434299243716 -0.006431813764345529
 0.9947912578351787 -0.05207243962592399 0.004281223041614776 0.021912558104994446 -0.0009035278451542514 -0.00643184702078108 0.0010654099315025854 0.010021271265277548
 0.0010151501762929265 0.010027369785636172 -0.0009035278451542514 -0.00643184702078108 0.004289245103864079 0.021910702544672936 0.994791214564898 -0.05207369494071672
 -0.0009044434299243716 -0.006431813764345529 0.0010654099315025854 0.010021271265277548 0.994791214564898 -0.05207369494071672 0.004280660331557435 0.021911357790720877
0.100041684035 0.00458412256597714 0.023491407652162764 0.9944025604680068 -0.05564114438138576 0.0011278306403547339 0.010700789796489732 -0.001003993201557811 -0.006866978660588058
 0.9944025604680068 -0.05564114438138576 0.004575547030627628 0.023492059616965454 -0.00100295445271751 -0.006867022674027801 0.0011850536807529919 0.010693707472009234
 0.0011278306403547339 0.010700789796489732 -0.00100295445271751 -0.006867022674027801 0.004584672453498335 0.023490048552735447 0.9944025114198539 -0.055642484027439314
 -0.001003993201557811 -0.006866978660588058 0.0011850536807529919 0.010693707472009234 0.9944025114198539 -0.055642484027439314 0.004574907311165147 0.02349078425693991
0.1059090909091 0.0048733449008238105 0.024985758518108612 0.9940221545897981 -0.059000954989387934 0.0012393722226857241 0.011332935865413406 -0.0011025702619018559 -0.007275648113737072
 0.9940221545897981 -0.059000954989387934 0.004863736163750316 0.024986480168798286 -0.0011014091710518322 -0.007275703572978573 0.0013035455366268635 0.011324838760938242
 0.0012393722226857241 0.011332935865413406 -0.0011014091710518322 -0.007275703572978573 0.004873961657650106 0.024984318867583365 0.9940220997680411 -0.059002373911096466
 -0.0011025702619018559 -0.007275648113737072 0.0013035455366268635 0.011324838760938242 0.9940220997680411 -0.059002373911096466 0.004863019719557596 0.024985135247160235
0.1062942892872 0.004892745407861889 0.02508427360978383 0.9939966461133165 -0.05922189726406355 0.0012468926918324562 0.011374442164752285 -0.0011092178670039131 -0.007302486391297836
 0.9939966461133165 -0.05922189726406355 0.004883066783970912 0.025084999978441734 -0.0011080485163493586 -0.007302542649256085 0.0013115364013750466 0.011366275228690902
 0.0012468926918324562 0.011374442164752285 -0.0011080485163493586 -0.007302542649256085 0.004893366689946786 0.025082828664885187 0.9939965909003095 -0.059223321395548506
 -0.0011092178670039131 -0.007302486391297836 0.0013115364013750466 0.011366275228690902 0.9939965909003095 -0.059223321395548506 0.00488234515177269 0.025083650520161867
0.11254689453939999 0.005214850710656848 0.02669039049110021 0.9935732991681604 -0.06281458588591551 0.00137239296650499 0.012048246816973305 -0.0012201756515787157 -0.0077382536999834025
 0.9935732991681604 -0.06281458588591551 0.005204002208878801 0.026691195951807915 -0.00121886831722261 -0.007738323763983323 0.001444915600104137 0.012038889142995756
 0.00137239296650499 0.012048246816973305 -0.00121886831722261 -0.007738323763983323 0.005215547782890656 0.026688859502099344 0.993573237397804 -0.06281609467193505
 -0.0012201756515787157 -0.0077382536999834025 0.001444915600104137 0.012038889142995756 0.993573237397804 -0.06281609467193505 0.005203193769300779 0.026689773400965063
0.11879949979160001 0.005550657636009142 0.028309575305627444 0.9931323044613355 -0.0664190903297064 0.0015043870239965743 0.012722121757210547 -0.001336923634432392 -0.008174195840507251
 0.9931323044613355 -0.0664190903297064 0.005538572401308343 0.028310464671070273 -0.0013354709904820315 -0.008174281346015786 0.0015852476537542967 0.012711461842954432
 0.0015043870239965743 0.012722121757210547 -0.0013354709904820315 -0.008174281346015786 0.005551434901497353 0.028307958060764162 0.9931322357339601 -0.0664206839485562
 -0.001336923634432392 -0.008174195840507251 0.0015852476537542967 0.012711461842954432 0.9931322357339601 -0.0664206839485562 0.005537672268497159 0.0283089700978754
0.1250521050438 0.005900384492239882 0.02994164478493453 0.9926734473438036 -0.07003528375877766 0.0016429293006097305 0.013395983109261949 -0.0014595177047096197 -0.00861022654701785
 0.9926734473438036 -0.07003528375877766 0.005886995592532882 0.029942622994275945 -0.0014579124814709772 -0.008610329203366823 0.0017325877589517643 0.01338390401980607
 0.0016429293006097305 0.013395983109261949 -0.0014579124814709772 -0.008610329203366823 0.005901246362408181 0.02993994105260387 0.992673371253062 -0.07003696240425447
 -0.0014595177047096197 -0.00861022654701785 0.0017325877589517643 0.01338390401980607 0.992673371253062 -0.07003696240425447 0.0058859988905271745 0.02994105752773161
0.131304710296 0.006264248677864351 0.031586414854705654 0.9921965137785771 -0.07366303290967961 0.0017880730614416999 0.014069745155533017 -0.0015880125174582177 -0.00904625800958819
 0.9921965137785771 -0.07366303290967961 0.006249489092214891 0.031587486975904994 -0.0015862475016266903 -0.00904637959989317 0.0018869898816555727 0.014056124467566199
 0.0017880730614416999 0.014069745155533017 -0.0015862475016266903 -0.00904637959989317 0.0062651995720752664 0.03158462438817516 0.9921964299102791 -0.0736647967858026
 -0.0015880125174582177 -0.00904625800958819 0.0018869898816555727 0.014056124467566199 0.9921964299102791 -0.0736647967858026 0.0062483909556058865 0.031585851809459754
0.1375573155481 0.006553397745422269 0.033029459376880746 0.9917903878463716 -0.07708787507718064 0.0019194136881095806 0.014721406284894035 -0.001701891622423008 -0.009460376336291442
 0.9917903878463716 -0.07708787507718064 0.00653719435121397 0.0330306051429802 -0.0016999561822396863 -0.009460516776266557 0.002027816931171602 0.01470627624318314
 0.0019194136881095806 0.014721406284894035 -0.0016999561822396863 -0.009460516776266557 0.006554441505017319 0.03302758181906727 0.9917902958469857 -0.07708972429330804
 -0.001701891622423008 -0.009460376336291442 0.002027816931171602 0.01470627624318314 0.9917902958469857 -0.07708972429330804 0.00653599038868339 0.03302890143145619
0.1438099208003 0.006852532327243305 0.03446587517749425 0.9913703492106819 -0.08050501076321588 0.002056036219367421 0.01537103366852671 -0.0018203341277286708 -0.009872571438766863
 0.9913703492106819 -0.08050501076321588 0.006834817017617059 0.034467098009173254 -0.0018182205149402458 -0.009872732458879216 0.0021743453150170054 0.015354283576492104
 0.002056036219367421 0.01537103366852671 -0.0018182205149402458 -0.009872732458879216 0.006853673278790731 0.03446391027269452 0.9913702486679367 -0.08050694551897256
 -0.0018203341277286708 -0.009872571438766863 0.0021743453150170054 0.015354283576492104 0.9913702486679367 -0.08050694551897256 0.006833502463977999 0.03446532698959156
0.1500625260525 0.007161559797618845 0.035895570856486494 0.9909364936897773 -0.08391438423652077 0.0021978997155864145 0.0160185813959133 -0.0019432991296249637 -0.010282797094775056
 0.9909364936897773 -0.08391438423652077 0.007142264336227502 0.03589687437856125 -0.0019409996086604717 -0.0102829804945298 0.002326532052181091 0.016000096545268273
 0.0021978997155864145 0.0160185813959133 -0.0019409996086604717 -0.0102829804945298 0.007162802268878687 0.035893518339163794 0.9909363841851314 -0.08391640473867
 -0.0019432991296249637 -0.010282797094775056 0.002326532052181091 0.016000096545268273 0.9909363841851314 -0.08391640473867 0.0071408344421056555 0.035895037338641356
0.15631513130469998 0.007480387021067083 0.037318457927370846 0.9904889174276812 -0.08731593940904804 0.0023449628372292333 0.01666400423167536 -0.0020707452979978917 -0.010691007969888342
