! Created with skrf 1.8.0 (http://scikit-rf.org).
# GHz S RI R 50.0 
!freq ReS11 ImS11 ReS12 ImS12 ReS13 ImS13
! ReS14 ImS14
! ReS21 ImS21 ReS22 ImS22 ReS23 ImS23
! ReS24 ImS24
! ReS31 ImS31 ReS32 ImS32 ReS33 ImS33
! ReS34 ImS34
! ReS41 ImS41 ReS42 ImS42 ReS43 ImS43
! ReS44 ImS44
!
0.0 0.001878674532601 0.0 0.9981213254674 0.0 7.316271180372e-05 0.0 -7.316271118173e-05 8.959848006564792e-21
 0.9981213254674 0.0 0.001878674532604 0.0 -7.316271118219e-05 8.959848006621125e-21 7.316271180364e-05 0.0
 7.316271180372e-05 0.0 -7.316271118219e-05 8.959848006621125e-21 0.001878674522659 0.0 0.9981213254574 0.0
 -7.316271118173e-05 8.959848006564792e-21 7.316271180364e-05 0.0 0.9981213254574 0.0 0.001878674522636 0.0
0.005 0.002022483943911345 0.0015332302699900254 0.9979391574499076 -0.0039342073256999855 0.00010371221839642567 0.0008219262495071738 -0.00010042419061732563 -0.000512941072201101
 0.9979391574499076 -0.0039342073256999855 0.0020225214316776457 0.0015332084217737991 -0.00010042544648955286 -0.0005129420963543468 0.00010347069613754322 0.0008220183245341261
 0.00010371221839642567 0.0008219262495071738 -0.00010042544648955286 -0.0005129420963543468 0.002022482618150574 0.001533163818159889 0.9979391570652121 -0.003934274390642345
 -0.00010042419061732563 -0.000512941072201101 0.00010347069613754322 0.0008220183245341261 0.9979391570652121 -0.003934274390642345 0.0020225219982579973 0.0015331407534808052
0.006252605252188 0.002060548225400814 0.0019225320880210096 0.9978905744124885 -0.004918665458968505 0.00011266581360369843 0.0010277733049513166 -0.0001082879341918266 -0.0006418212622723772
 0.9978905744124885 -0.004918665458968505 0.002060606825390858 0.0019225043478085851 -0.00010828988793294742 -0.0006418225257892668 0.00011228846336249584 0.001027892982949299
 0.00011266581360369843 0.0010277733049513166 -0.00010828988793294742 -0.0006418225257892668 0.002060546224453094 0.0019224490495686566 0.9978905738828459 -0.0049187492756592
 -0.0001082879341918266 -0.0006418212622723772 0.00011228846336249584 0.001027892982949299 0.9978905738828459 -0.0049187492756592 0.0020606077835463466 0.001922419774543551
0.01250521050438 0.0022629490510866056 0.0038849022992078304 0.9976302459995934 -0.009837717684467949 0.00016520229929338492 0.002055660013249666 -0.00015380036720933165 -0.001286527987406279
 0.9976302459995934 -0.009837717684467949 0.002263183041147068 0.0038848424860124884 -0.00015380806046213878 -0.00128653032953148 0.00016369762488721844 0.0020559494954339543
 0.00016520229929338492 0.002055660013249666 -0.00015380806046213878 -0.00128653032953148 0.002262941607492841 0.0038847366050776076 0.9976302444345152 -0.009837885096895689
 -0.00015380036720933165 -0.001286527987406279 0.00016369762488721844 0.0020559494954339543 0.9976302444345152 -0.009837885096895689 0.002263187429690622 0.0038846735561368917
0.01875781575657 0.0024863914362176776 0.005874652342283062 0.9973399658810767 -0.014769041869862732 0.00023090212268991552 0.0030843004480142796 -0.00020985513654963285 -0.0019331127533830468
 0.9973399658810767 -0.014769041869862732 0.0024869172279340696 0.005874555807033923 -0.00020987228362130984 -0.001933115948945334 0.00022752231750718227 0.003084821212958463
 0.00023090212268991552 0.0030843004480142796 -0.00020987228362130984 -0.001933115948945334 0.002486375123458571 0.00587440431924665 0.997339962781441 -0.014769292826314276
 -0.00020985513654963285 -0.0019331127533830468 0.00022752231750718227 0.003084821212958463 0.997339962781441 -0.014769292826314276 0.002486927533805334 0.005874302612617292
0.02501042100875 0.002731369866551679 0.007888896165351468 0.9970193431958397 -0.019714932014907226 0.0003098974163317204 0.004113673610874629 -0.00027660045388986867 -0.0025812191783737126
 0.9970193431958397 -0.019714932014907226 0.0027323036546956555 0.007888757983668579 -0.00027663072129526216 -0.002581222958170714 0.00030389464671586156 0.0041144981793954085
 0.0003098974163317204 0.004113673610874629 -0.00027663072129526216 -0.002581222958170714 0.002731341260834917 0.00788856620528657 0.9970193380567884 -0.01971526651104634
 -0.00027660045388986867 -0.0025812191783737126 0.00030389464671586156 0.0041144981793954085 0.9970193380567884 -0.01971526651104634 0.002732322372724286 0.007888420615161384
0.03126302626094 0.0029983579662757162 0.0099260998778605 0.9966679701213543 -0.024676311028806113 0.00040231999256173766 0.005143660215303389 -0.00035417900029870793 -0.003230578784708324
 0.9966679701213543 -0.024676311028806113 0.002999815803842447 0.009925914858092078 -0.0003542260146238085 -0.0032305828351275596 0.00039294575516616215 0.005144872219159368
 0.00040231999256173766 0.005143660215303389 -0.0003542260146238085 -0.0032305828351275596 0.002998313652102613 0.009925688432885342 0.9966679624370147 -0.024676729113104694
 -0.00035417900029870793 -0.003230578784708324 0.00039294575516616215 0.005144872219159368 0.9966679624370147 -0.024676729113104694 0.0029998454441907186 0.00992549339890142
0.037515631513130004 0.0032878179034182614 0.011985226482511095 0.9962854317562645 -0.029653585958494013 0.0005082997935321199 0.006174101211282381 -0.0004427289437080571 -0.00388095252142941
 0.9962854317562645 -0.029653585958494013 0.0032899157558555726 0.01198498916899828 -0.0004427962956972021 -0.0038809564844044134 0.0004948046569102182 0.006175795501324178
 0.0005082997935321199 0.006174101211282381 -0.0004427962956972021 -0.0038809564844044134 0.0032877544685868676 0.011984734087466552 0.9962854210121787 -0.029654087710295162
 -0.0004427289437080571 -0.00388095252142941 0.0004948046569102182 0.006175795501324178 0.9962854210121787 -0.029654087710295162 0.00328995883866434 0.011984483717275944
0.043768236765320004 0.0036002039849381898 0.014065475636767851 0.9958713101990695 -0.03464690817414169 0.0006279641372488208 0.0072048155960615975 -0.000542384267160276 -0.004532113015378739
 0.9958713101990695 -0.03464690817414169 0.003603057776035435 0.014065180310921273 -0.0005424755140854786 -0.004532116488418589 0.0006095976485828612 0.0072070983624044314
 0.0006279641372488208 0.0072048155960615975 -0.0005424755140854786 -0.004532116488418589 0.0036001180257760825 0.014064902909056385 0.9958712958745304 -0.034647493704526924
 -0.000542384267160276 -0.004532113015378739 0.0006095976485828612 0.0072070983624044314 0.9958712958745304 -0.034647493704526924 0.003603116836386529 0.014064590978508842
0.050020842017509996 0.003935964296036571 0.01616617610873499 0.9954251866781938 -0.039656280861499936 0.0007614372438983202 0.008235607803171924 -0.0006532748525689028 -0.00518383725454354
 0.9954251866781938 -0.039656280861499936 0.003939689949555248 0.016165816788425897 -0.0006533935197692422 -0.005183839790815002 0.0007374479237349034 0.008238596699721754
 0.0007614372438983202 0.008235607803171924 -0.0006533935197692422 -0.005183839790815002 0.003935852417517716 0.01616552375644138 0.9954251682441158 -0.03965695030581194
 -0.0006532748525689028 -0.00518383725454354 0.0007374479237349034 0.008238596699721754 0.9954251682441158 -0.03965695030581194 0.00393976753677485 0.016165143707939734
0.055454545454549996 0.00424707683710786 0.018007894090139975 0.9950111773769018 -0.044022542606347685 0.0008887377125718399 0.009131300530379166 -0.0007588643104595242 -0.0057504906353140406
 0.9950111773769018 -0.044022542606347685 0.004251654339564172 0.018007474092140114 -0.0007590096456971246 -0.005750491960229367 0.0008592509269956195 0.00913500762292675
 0.0008887377125718399 0.009131300530379166 -0.0007590096456971246 -0.005750491960229367 0.004246939686231373 0.018007173180295516 0.9950111549355942 -0.044023285110412126
 -0.0007588643104595242 -0.0057504906353140406 0.0008592509269956195 0.00913500762292675 0.9950111549355942 -0.044023285110412126 0.00425175011074976 0.018006728348438358
0.056273447269699996 0.004295541498927577 0.018286733006472395 0.9949466428488243 -0.04468161174772564 0.0009088398871982959 0.009266271344213756 -0.0007755264539872599 -0.00583590302931808
 0.9949466428488243 -0.04468161174772564 0.004300254978334262 0.018286303443795667 -0.0007756760359095106 -0.005835904137710856 0.0008784752782044064 0.009270095614553343
 0.0009088398871982959 0.009266271344213756 -0.0007756760359095106 -0.005835904137710856 0.004295400318149193 0.018286001820072173 0.9949466197677811 -0.044682365274394086
 -0.0007755264539872599 -0.00583590302931808 0.0008784752782044064 0.009270095614553343 0.9949466197677811 -0.044682365274394086 0.00430035365848853 0.018285546759527427
0.06252605252188 0.004679373222798102 0.02042659878102355 0.994435261686978 -0.049722742063142075 0.0010702891084058666 0.010296590834000094 -0.0009092606152792639 -0.006488087001624879
 0.994435261686978 -0.049722742063142075 0.004685190569369501 0.020426092458653403 -0.000909444576161903 -0.006488086146829916 0.0010327958598602177 0.010301391437081047
 0.0010702891084058666 0.010296590834000094 -0.000909444576161903 -0.006488086146829916 0.004679199369617344 0.020425789640850876 0.994435233410909 -0.049723579866719554
 -0.0009092606152792639 -0.006488087001624879 0.0010327958598602177 0.010301391437081047 0.994435233410909 -0.049723579866719554 0.00468531292482897 0.020425252333104927
0.06877865777407 0.005087892226050173 0.02258525594387781 0.9938906281623539 -0.05477946380023841 0.001245897965152096 0.011326343219542146 -0.0010545945560841317 -0.007140163581915022
 0.9938906281623539 -0.05477946380023841 0.005094929596755786 0.02258466606997487 -0.001054816330453686 -0.007140160184517277 0.0012005219433867667 0.011332272954309315
 0.001245897965152096 0.011326343219542146 -0.001054816330453686 -0.007140160184517277 0.005087682344669517 0.022584369817889454 0.993890594131218 -0.05478038610405807
 -0.0010545945560841317 -0.007140163581915022 0.0012005219433867667 0.011332272954309315 0.993890594131218 -0.05478038610405807 0.005095078226508071 0.0225837426806487
0.07503126302626001 0.005521526423925284 0.024762206138165502 0.993312329782301 -0.0598515306314086 0.0014357753013672602 0.012355298588002722 -0.0012116410385297769 -0.007791904239352438
 0.993312329782301 -0.0598515306314086 0.005529900128537899 0.02476152563976887 -0.0012119040314935178 -0.007791897675901225 0.0013817617198791546 0.012362522216330838
 0.0014357753013672602 0.012355298588002722 -0.0012119040314935178 -0.007791897675901225 0.005521277175947771 0.024761244083907726 0.9933122894235145 -0.0598525376860132
 -0.0012116410385297769 -0.007791904239352438 0.0013817617198791546 0.012362522216330838 0.9933122894235145 -0.0598525376860132 0.005530077650058089 0.024760519180341483
0.08128386827845 0.005980698831774914 0.026956962869865504 0.992699957056803 -0.06493866518063607 0.0016400255310084642 0.013383220722907659 -0.0013805082213871412 -0.008443077076332711
 0.992699957056803 -0.06493866518063607 0.005990525370220435 0.026956184384752172 -0.0013808158088010984 -0.008443066679440073 0.0015766190959449373 0.013391915090341532
 0.0016400255310084642 0.013383220722907659 -0.0013808158088010984 -0.008443066679440073 0.0059804068975279736 0.026955926037215916 0.9926999097837714 -0.06493975726130222
 -0.0013805082213871412 -0.008443077076332711 0.0015766190959449373 0.013391915090341532 0.9926999097837714 -0.06493975726130222 0.005990734419801849 0.0269550950668047
0.08753647353064001 0.00646582745147291 0.029169046509678304 0.9920531039113486 -0.07004056403826144 0.001858748430559965 0.014409867521515421 -0.0015612995061162732 -0.009093446554501856
 0.9920531039113486 -0.07004056403826144 0.006477223551090182 0.02916816237671463 -0.0015616550347611067 -0.009093431612913108 0.001785193499175542 0.014420221675628756
 0.001858748430559965 0.014409867521515421 -0.0015616550347611067 -0.009093431612913108 0.006465489532805167 0.029167936137100236 0.9920530491224115 -0.07004174144883507
 -0.0015612995061162732 -0.009093446554501856 0.001785193499175542 0.014420221675628756 0.9920530491224115 -0.07004174144883507 0.0064774667845104205 0.02916699042531187
0.09378907878283 0.006977325119555484 0.03139798073086448 0.9913713680662367 -0.075156901355082 0.002092038938474971 0.015434991315384148 -0.0017541133772229433 -0.009742773330824017
 0.9913713680662367 -0.075156901355082 0.006990407772461487 0.031396982978685935 -0.0017545201647645313 -0.009742753089520202 0.002007579688331849 0.015447206621230771
 0.002092038938474971 0.015434991315384148 -0.0017545201647645313 -0.009742753089520202 0.006976937941176063 0.03139679814797881 0.9913713051428776 -0.07515816442557495
 -0.0017541133772229433 -0.009742773330824017 0.002007579688331849 0.015447206621230771 0.9913713051428776 -0.07515816442557495 0.0069906878655098285 0.03139572863397576
0.100041684035 0.007515599326167671 0.033643289915808276 0.9906543513905963 -0.08028733148262879 0.002339986959189283 0.016458339132366086 -0.0019590432389687755 -0.01039081416543877
 0.9906543513905963 -0.08028733148262879 0.007530485826230368 0.0336421702498977 -0.001959504574018741 -0.010390787825702413 0.0022438675669514303 0.01647262938494659
 0.002339986959189283 0.016458339132366086 -0.001959504574018741 -0.010390787825702413 0.007515159638725088 0.03364203654498248 0.9906542796967515 -0.0802886805675219
 -0.0019590432389687755 -0.01039081416543877 0.0022438675669514303 0.01647262938494659 0.9906542796967515 -0.0802886805675219 0.0075308054759684225 0.033640833768090114
0.1059090909091 0.008045423668819768 0.03576474255164173 0.9899490690477424 -0.08511418972545422 0.002586066225790332 0.01741679748569717 -0.0021624461404656866 -0.010997542070655501
 0.9899490690477424 -0.08511418972545422 0.008062109867657902 0.03576350063822819 -0.0021629616274686 -0.010997509242948914 0.0024783177773424914 0.017433240468349164
 0.002586066225790332 0.01741679748569717 -0.0021629616274686 -0.010997509242948914 0.008044931776400102 0.03576342412880419 0.9899489885282378 -0.08511561987126591
 -0.0021624461404656866 -0.010997542070655501 0.0024783177773424914 0.017433240468349164 0.9899489885282378 -0.08511561987126591 0.00806246910909473 0.03576208732462839
0.1062942892872 0.008081052014227397 0.03590449722834938 0.9899016602401168 -0.08543149096363199 0.0026026771712829837 0.01747965292376897 -0.002176177249745378 -0.011037321877879739
 0.9899016602401168 -0.08543149096363199 0.008097859994968091 0.035903247016490974 -0.002176696391657711 -0.011037288597421376 0.0024941419997650052 0.017496244457182366
 0.0026026771712829837 0.01747965292376897 -0.002176696391657711 -0.011037288597421376 0.008080556595891752 0.03590317458329752 0.9899015791206469 -0.0854329264433105
 -0.002176177249745378 -0.011037321877879739 0.0024941419997650052 0.017496244457182366 0.9899015791206469 -0.0854329264433105 0.008098221919865194 0.0359018286674402
0.11254689453939999 0.008674079363505489 0.038181123158697546 0.9891129057825833 -0.0905890000660031 0.0028801888388046196 0.01849866976459931 -0.0024055981548547307 -0.011682045343868751
 0.9891129057825833 -0.0905890000660031 0.008692926835251899 0.03817973341453179 -0.0024061783337785904 -0.011682004236882284 0.0027584826316709864 0.01851780155774155
 0.0028801888388046196 0.01849866976459931 -0.0024061783337785904 -0.011682004236882284 0.008673525022688915 0.03817973284244704 0.989112814562082 -0.09059052234839508
 -0.0024055981548547307 -0.011682045343868751 0.0027584826316709864 0.01851780155774155 0.989112814562082 -0.09059052234839508 0.008693333776305413 0.03817823347922761
0.11879949979160001 0.009295071562144585 0.04047268440330594 0.9882877043135057 -0.09575946399808678 0.003172595625860067 0.019515122038320207 -0.002647383118763631 -0.012324729521511603
 0.9882877043135057 -0.09575946399808678 0.009316076949709458 0.04047114576832986 -0.002648027535373187 -0.01232467965878683 0.0030369637092278363 0.01953704581686814
 0.003172595625860067 0.019515122038320207 -0.002648027535373187 -0.01232467965878683 0.009294455139666069 0.04047122811317473 0.9882876022948156 -0.09576107351343861
 -0.002647383118763631 -0.012324729521511603 0.0030369637092278363 0.01953704581686814 0.9882876022948156 -0.09576107351343861 0.009316531670976652 0.04046956454298777
0.1250521050438 0.009944412569697856 0.042778693008806205 0.9874256775652032 -0.10094247387691463 0.00347996541373768 0.020528737612315447 -0.0029016035572348793 -0.01296511550064206
 0.9874256775652032 -0.10094247387691463 0.009967694749983711 0.04277699573238874 -0.002902315382586614 -0.012965055909688652 0.003329653904280508 0.020553717946735703
 0.00347996541373768 0.020528737612315447 -0.002902315382586614 -0.012965055909688652 0.00994373094134244 0.042777172532664255 0.9874255640283955 -0.10094417108105361
 -0.0029016035572348793 -0.01296511550064206 0.003329653904280508 0.020553717946735703 0.9874255640283955 -0.10094417108105361 0.009968200039369518 0.04277533352415596
0.131304710296 0.010622479873047748 0.045098655700675214 0.9865264530095533 -0.10613760752846485 0.0038023601211138163 0.02153924000791895 -0.0031683249701298074 -0.01360294057170955
 0.9865264530095533 -0.10613760752846485 0.01064815821235813 0.04509678961830399 -0.003169107345532303 -0.013602870236803098 0.0036366161398566164 0.021567554407541167
 0.0038023601211138163 0.02153924000791895 -0.003169107345532303 -0.013602870236803098 0.010621729951627175 0.04509707291838779 0.9865263272103686 -0.10613939290082638
 -0.0031683249701298074 -0.01360294057170955 0.0036366161398566164 0.021567554407541167 0.9865263272103686 -0.10613939290082638 0.010648716882264838 0.045095046745998096
0.1375573155481 0.011185997271922538 0.04713009921064138 0.9857333886168608 -0.11104226329658302 0.004103503239840705 0.022517783752581927 -0.003411468487194537 -0.014209253448562666
 0.9857333886168608 -0.11104226329658302 0.011214201082149593 0.04712809339460713 -0.003412326282597425 -0.014209172144034997 0.003921949796265983 0.022549423051156807
 0.004103503239840705 0.022517783752581927 -0.003412326282597425 -0.014209172144034997 0.011185176801392865 0.04712845545236798 0.9857332499701117 -0.11104413712266814
 -0.003411468487194537 -0.014209253448562666 0.003921949796265983 0.022549423051156807 0.9857332499701117 -0.11104413712266814 0.011214814834737734 0.04712627043149201
0.1438099208003 0.011769639436954731 0.04914848703735809 0.9849117540014962 -0.11593209701057829 0.004416738328044923 0.023490770832307654 -0.0036642226195770676 -0.014810575910311695
 0.9849117540014962 -0.11593209701057829 0.011800490213255492 0.049146333250562335 -0.003665159244077206 -0.014810482615629473 0.004218691624576339 0.023525991944780143
 0.004416738328044923 0.023490770832307654 -0.003665159244077206 -0.014810482615629473 0.011768745532960284 0.049146784207057426 0.9849116017611796 -0.11593405975722332
 -0.0036642226195770676 -0.014810575910311695 0.004218691624576339 0.023525991944780143 0.9849116017611796 -0.11593405975722332 0.011801161695473227 0.049144430587964326
0.1500625260525 0.01237316135659627 0.05115358128414256 0.9840617993767892 -0.12080691607912776 0.004741931872823136 0.02445805044780828 -0.003926459768221003 -0.015406771364603099
 0.9840617993767892 -0.12080691607912776 0.012406781097498163 0.05115127069398463 -0.003927478622795177 -0.015406665017310956 0.004526713359762074 0.02449711968316
 0.004741931872823136 0.02445805044780828 -0.003927478622795177 -0.015406665017310956 0.012372191180176077 0.05115182135596382 0.9840616327764922 -0.1208089682304837
 -0.003926459768221003 -0.015406771364603099 0.004526713359762074 0.02449711968316 0.9840616327764922 -0.1208089682304837 0.01240751296708443 0.05114928873696616
0.15631513130469998 0.01299631580804181 0.053145151226618705 0.9831837767463252 -0.12566653028565003 0.00507894849798445 0.025419474963369326 -0.004198050518671371 -0.015997706642061762
 0.9831837767463252 -0.12566653028565003 0.013032827028099745 0.05314267438138897 -0.0041991549961980165 -0.015997586137866747 0.0048458849685124395 0.025462667908017853
