! Created with skrf 1.8.0 (http://scikit-rf.org).
# GHz S RI R 50.0 
!freq ReS11 ImS11 ReS12 ImS12 ReS13 ImS13
! ReS14 ImS14
! ReS21 ImS21 ReS22 ImS22 ReS23 ImS23
! ReS24 ImS24
! ReS31 ImS31 ReS32 ImS32 ReS33 ImS33
! ReS34 ImS34
! ReS41 ImS41 ReS42 ImS42 ReS43 ImS43
! ReS44 ImS44
!
0.0 0.001652443658451 0.0 0.9983475563259 0.0 6.402466118135e-05 0.0 -6.402466103753e-05 7.840759620610536e-21
 0.9983475563259 0.0 0.001652443658432 0.0 -6.402466103762e-05 7.840759620621559e-21 6.402466118244e-05 0.0
 6.402466118135e-05 0.0 -6.402466103762e-05 7.840759620621559e-21 0.001652443666274 0.0 0.9983475563337 0.0
 -6.402466103753e-05 7.840759620610536e-21 6.402466118244e-05 0.0 0.9983475563337 0.0 0.00165244366625 0.0
0.005 0.001778253695129591 0.0013495594429720553 0.998188330412555 -0.0034612037064006957 9.018341624242845e-05 0.0007171423549323855 -8.749958347787395e-05 -0.0004480288773721634
 0.998188330412555 -0.0034612037064006957 0.0017782584264356652 0.0013495566149539894 -8.749706970058552e-05 -0.0004480269173034493 9.01647710333202e-05 0.0007171494788828613
 9.018341624242845e-05 0.0007171423549323855 -8.749706970058552e-05 -0.0004480269173034493 0.0017782554996744373 0.001349625625775242 0.9981883307775077 -0.003461136639298841
 -8.749958347787395e-05 -0.0004480288773721634 9.01647710333202e-05 0.0007171494788828613 0.9981883307775077 -0.003461136639298841 0.0017782573481345148 0.0013496245641241359
0.006252605252188 0.001811350673060701 0.0016922531286890782 0.9981461624956153 -0.004327335761476203 9.770891505153944e-05 0.000896763570109723 -9.417544080287972e-05 -0.0005606117849895314
 0.9981461624956153 -0.004327335761476203 0.0018113580696034683 0.0016922495444533633 -9.417152940978197e-05 -0.0005606093679715313 9.767978404390945e-05 0.0008967728206466229
 9.770891505153944e-05 0.000896763570109723 -9.417152940978197e-05 -0.0005606093679715313 0.001811353427806539 0.0016923358332127706 0.9981461629995881 -0.004327251945135934
 -9.417544080287972e-05 -0.0005606117849895314 9.767978404390945e-05 0.0008967728206466229 0.9981461629995881 -0.004327251945135934 0.0018113563170367442 0.0016923344673439613
0.01250521050438 0.0019861671332874974 0.0034198756328373734 0.9979218892198184 -0.008655369848707352 0.0001411409846385352 0.0017938067836754715 -0.00013231084319350142 -0.0011238841554768867
 0.9979218892198184 -0.008655369848707352 0.0019861966763414485 0.003419867952132737 -0.00013229543173440205 -0.0011238796857283657 0.0001410248251261343 0.0017938290314818807
 0.0001411409846385352 0.0017938067836754715 -0.00013229543173440205 -0.0011238796857283657 0.0019861775627962553 0.003420040714151349 0.9979218906572541 -0.008655202457449506
 -0.00013231084319350142 -0.0011238841554768867 0.0001410248251261343 0.0017938290314818807 0.9979218906572541 -0.008655202457449506 0.0019861890954625044 0.0034200376012789263
0.01875781575657 0.0021772963100070214 0.005171962264763171 0.9976744424465749 -0.012994613025978508 0.00019442486878794207 0.0026917266805334397 -0.00017855294327539945 -0.0016889743646027744
 0.9976744424465749 -0.012994613025978508 0.002177362711293611 0.005171949895381425 -0.00017851857960317756 -0.0016889682803826864 0.00019416394945919645 0.0026917664468055023
 0.00019442486878794207 0.0026917266805334397 -0.00017851857960317756 -0.0016889682803826864 0.0021773193281356884 0.005172209487659482 0.9976744452504946 -0.01299436214574619
 -0.00017855294327539945 -0.0016889743646027744 0.00019416394945919645 0.0026917664468055023 0.9976744452504946 -0.01299436214574619 0.002177345235072006 0.005172204250423598
0.02501042100875 0.002385128265394558 0.0069460298673623645 0.9974035159486728 -0.017347140917343212 0.0002576658490684943 0.003590546254507472 -0.00023301936655017801 -0.0022556065312336797
 0.9974035159486728 -0.017347140917343212 0.0023852462171338124 0.006946012142555287 -0.00023295868931889652 -0.002255599352281651 0.00025720243194639857 0.0035906088091820425
 0.0002576658490684943 0.003590546254507472 -0.00023295868931889652 -0.002255599352281651 0.002385168782346351 0.0069463589641626244 0.9974035205535894 -0.017346806605288163
 -0.00023301936655017801 -0.0022556065312336797 0.00025720243194639857 0.0035906088091820425 0.9974035205535894 -0.017346806605288163 0.002385214778377965 0.006946351230672884
0.03126302626094 0.0026100369121252473 0.008740786523269066 0.9971087886980412 -0.021713824835733628 0.0003309694071195558 0.004490203995273321 -0.00029582408515566993 -0.0028235821212215756
 0.9971087886980412 -0.021713824835733628 0.002610221094589498 0.008740762702009028 -0.0002957298085477143 -0.0028235744496401516 0.00033024569575744114 0.004490295361028104
 0.0003309694071195558 0.004490203995273321 -0.0002957298085477143 -0.0028235744496401516 0.0026100998350120004 0.008741197200124782 0.9971087955387657 -0.021713407113544563
 -0.00029582408515566993 -0.0028235821212215756 0.00033024569575744114 0.004490295361028104 0.9971087955387657 -0.021713407113544563 0.002610171622911147 0.00874118660455447
0.037515631513130004 0.0028523878096900455 0.010555379248746647 0.9967899329578178 -0.0260950840281748 0.00041444017163304065 0.005390604756676468 -0.000367078244344288 -0.0033927290961721242
 0.9967899329578178 -0.0260950840281748 0.002852652895177927 0.010555348515547408 -0.0003669431502892723 -0.003392721616653293 0.00041339828899951045 0.005390731716085944
 0.00041444017163304065 0.005390604756676468 -0.0003669431502892723 -0.003392721616653293 0.002852478041081506 0.010555871156034664 0.9967899424680617 -0.026094582911048936
 -0.000367078244344288 -0.0033927290961721242 0.00041339828899951045 0.005390731716085944 0.9967899424680617 -0.026094582911048936 0.0028525813142677775 0.010555857339291475
0.043768236765320004 0.0031125411707264737 0.01238916503703265 0.9964466175863762 -0.030491114561399673 0.0005081814178521764 0.006291635229478686 -0.00044689044531599846 -0.003962886457422918
 0.9964466175863762 -0.030491114561399673 0.003112901826875413 0.012389126501423016 -0.0004467073788975324 -0.003962879937309432 0.0005067633971839046 0.006291805333056969
 0.0005081814178521764 0.006291635229478686 -0.0004467073788975324 -0.003962879937309432 0.003112663611372304 0.012389737777434327 0.996446630201921 -0.030490530049271367
 -0.00044689044531599846 -0.003962886457422918 0.0005067633971839046 0.006291805333056969 0.996446630201921 -0.030490530049271367 0.0031128040566189025 0.012389720387654632
0.050020842017509996 0.003390853245373841 0.01424161624646698 0.9960785097240472 -0.034901983861438696 0.0006122947580069145 0.007193170339935764 -0.0005353668388712439 -0.004533897867169944
 0.9960785097240472 -0.034901983861438696 0.003391324137834849 0.014241568942295576 -0.0005351287054291148 -0.0045338931564312245 0.0006104425403276122 0.007193391914570332
 0.0006122947580069145 0.007193170339935764 -0.0005351287054291148 -0.0045338931564312245 0.0033910127937623797 0.014242269369185592 0.996078525882601 -0.03490131594396704
 -0.0005353668388712439 -0.004533897867169944 0.0006104425403276122 0.007193391914570332 0.996078525882601 -0.03490131594396704 0.0033911960936553382 0.014242248062280815
0.055454545454549996 0.003647736193248555 0.015866253607882897 0.9957382192415375 -0.03874720384916153 0.0007112733158808512 0.007976937843594207 -0.0006193724967648075 -0.005030697449009225
 0.9957382192415375 -0.03874720384916153 0.0036483147946235854 0.01586619783961152 -0.0006190807920322212 -0.005030695065096677 0.0007089965463973841 0.007977211519978647
 0.0007112733158808512 0.007976937843594207 -0.0006190807920322212 -0.005030695065096677 0.003647931965212277 0.01586697617532221 0.9957382388360482 -0.03874646343528689
 -0.0006193724967648075 -0.005030697449009225 0.0007089965463973841 0.007977211519978647 0.9957382388360482 -0.03874646343528689 0.0036481571202990814 0.01586695119120267
0.056273447269699996 0.0036876770234462643 0.01611227416360681 0.9956852758014056 -0.039327677080672384 0.0007268799170907927 0.0080950763935598 -0.0006326111331679046 -0.005105608528962576
 0.9956852758014056 -0.039327677080672384 0.00368827281782564 0.016112217048321734 -0.0006323108963918565 -0.005105606560157041 0.0007245353528370691 0.008095358551049264
 0.0007268799170907927 0.0080950763935598 -0.0006323108963918565 -0.005105606560157041 0.0036878785751894468 0.016113007161750424 0.9956852959427579 -0.039326925739100196
 -0.0006326111331679046 -0.005105608528962576 0.0007245353528370691 0.008095358551049264 0.9956852959427579 -0.039326925739100196 0.003688110410101154 0.016112981601821397
0.06252605252188 0.004003362599744954 0.01800072347740016 0.9952665822155488 -0.04376812255841066 0.0008520345510197402 0.008997212811087247 -0.0007387245578263868 -0.005677863481348641
 0.9952665822155488 -0.04376812255841066 0.004004097963202806 0.018000655431244256 -0.0007383552383665586 -0.005677865269571932 0.000849139404595002 0.00899756545670899
 0.0008520345510197402 0.008997212811087247 -0.0007383552383665586 -0.005677865269571932 0.004003611045695872 0.01800153578911982 0.9952666067808363 -0.0437672877637308
 -0.0007387245578263868 -0.005677863481348641 0.000849139404595002 0.00899756545670899 0.9952666067808363 -0.0437672877637308 0.004003897096585906 0.018001505648741187
0.06877865777407 0.004338257351360534 0.0199065770587763 0.9948220958237016 -0.04822320698169551 0.0009878540884820585 0.009899433168409333 -0.0008538058028599012 -0.006250506593488032
 0.9948220958237016 -0.04822320698169551 0.004339146955011936 0.01990649688382443 -0.0008533604776241254 -0.006250513236288867 0.0009843500446208406 0.009899867009463957
 0.0009878540884820585 0.009899433168409333 -0.0008533604776241254 -0.006250513236288867 0.004338557580008763 0.019907468065672403 0.9948221252581876 -0.04822228869542359
 -0.0008538058028599012 -0.006250506593488032 0.0009843500446208406 0.009899867009463957 0.9948221252581876 -0.04822228869542359 0.004338903530044259 0.019907433026311833
0.07503126302626001 0.004692706012035533 0.021829466321370755 0.994351484337423 -0.05269278497129738 0.0011344315863532704 0.010801585866670488 -0.0009779509427210182 -0.006823379936872818
 0.994351484337423 -0.05269278497129738 0.004693764532116607 0.021829372740556786 -0.0009774227442179745 -0.006823392614190554 0.0011302602579937617 0.010802112420878114
 0.0011344315863532704 0.010801585866670488 -0.0009774227442179745 -0.006823392614190554 0.004693062906324385 0.021830435344796856 0.9943515190886322 -0.052691783148478534
 -0.0009779509427210182 -0.006823379936872818 0.0011302602579937617 0.010802112420878114 0.9943515190886322 -0.052691783148478534 0.004693474443721965 0.02183039509693425
0.08128386827845 0.005067050672076731 0.023769034803065373 0.9938544166473228 -0.05717668545391698 0.0012918575941360086 0.011703514586905111 -0.001111253349707536 -0.007396323379056037
 0.9938544166473228 -0.05717668545391698 0.00506829279162496 0.023768926459139944 -0.0011106354657888526 -0.0073963433531282225 0.0012869605314448293 0.011704146190787395
 0.0012918575941360086 0.011703514586905111 -0.0011106354657888526 -0.0073963433531282225 0.005067469109695641 0.023770081107186425 0.9938544571662996 -0.057175600039359314
 -0.001111253349707536 -0.007396323379056037 0.0012869605314448293 0.011704146190787395 0.9938544571662996 -0.057175600039359314 0.005067951929625092 0.023770035350515323
0.08753647353064001 0.005461630734945591 0.025724933741871514 0.9933305631085901 -0.06167471604753393 0.0014602200237165575 0.012605058614495008 -0.00125380360090189 -0.007969174314468912
 0.9933305631085901 -0.06167471604753393 0.005463071145315028 0.02572480919618135 -0.0012530892746185813 -0.007969202929730622 0.0014545387240271297 0.012605808431467141
 0.0014602200237165575 0.012605058614495008 -0.0012530892746185813 -0.007969202929730622 0.00546211558753867 0.025726056530605897 0.9933306098499619 -0.061673546978138705
 -0.00125380360090189 -0.007969174314468912 0.0014545387240271297 0.012605808431467141 0.9933306098499619 -0.061673546978138705 0.005462675394592888 0.025726004974049532
0.09378907878283 0.00587678284232316 0.027696818911690502 0.9927795957990186 -0.06618666619457658 0.0016396040230808903 0.013506053081359248 -0.0014056893799922904 -0.008541767484358243
 0.9927795957990186 -0.06618666619457658 0.00587843624444814 0.02769667664305637 -0.0014048719095485335 -0.00854180616734671 0.001633079941683071 0.013506935109822404
 0.0016396040230808903 0.013506053081359248 -0.0014048719095485335 -0.00854180616734671 0.005877338974621072 0.027698017325886337 0.9927796492218178 -0.066185413401493
 -0.0014056893799922904 -0.008541767484358243 0.001633079941683071 0.013506935109822404 0.9927796492218178 -0.066185413401493 0.005877981485363338 0.027697959687572098
0.100041684035 0.006312840775202631 0.02968434830810173 0.9922011887568704 -0.07071230945323378 0.0018300918524906627 0.014406329155799242 -0.0015669953755376796 -0.009113934856467967
 0.9922011887568704 -0.07071230945323378 0.006314721881614385 0.029684186711409096 -0.0015660681145240568 -0.009113985115695186 0.001822666414301941 0.014407358236943696
 0.0018300918524906627 0.014406329155799242 -0.0015660681145240568 -0.009113985115695186 0.0063134730442619596 0.02968562142972561 0.9922012493244051 -0.0707109728570023
 -0.0015669953755376796 -0.009113934856467967 0.001822666414301941 0.014407358236943696 0.9922012493244051 -0.0707109728570023 0.006314203989257963 0.029685557436916764
0.1059090909091 0.006741343233211317 0.031563357875582496 0.9916331705149007 -0.07497138523034945 0.0020190139238751904 0.015250335658283957 -0.0017270042476680199 -0.009650313807339167
 0.9916331705149007 -0.07497138523034945 0.006743451407626127 0.03156317660583406 -0.0017259679644319817 -0.009650376374538692 0.0020106893677311424 0.015251516988151413
 0.0020190139238751904 0.015250335658283957 -0.0017259679644319817 -0.009650376374538692 0.006742051358599039 0.031564700211646465 0.9916332382131929 -0.07496996991469307
 -0.0017270042476680199 -0.009650313807339167 0.0020106893677311424 0.015251516988151413 0.9916332382131929 -0.07496996991469307 0.006742870516314169 0.03156463001572221
0.1062942892872 0.0067701353387843 0.03168718041639916 0.9915950182058473 -0.07525140521483417 0.0020317627629451137 0.015305714196799417 -0.0017378031768547008 -0.009685505547472406
 0.9915950182058473 -0.07525140521483417 0.006772258874217164 0.0316869978013227 -0.001736759534346312 -0.009685568973311931 0.002023377374154684 0.015306906022261528
 0.0020317627629451137 0.015305714196799417 -0.001736759534346312 -0.009685568973311931 0.006770848593340076 0.03168852726481379 0.9915950863866805 -0.07524998472852835
 -0.0017378031768547008 -0.009685505547472406 0.002023377374154684 0.015306906022261528 0.9915950863866805 -0.07524998472852835 0.006771673719663272 0.031688456653705434
0.11254689453939999 0.007248994235059473 0.03370497289459639 0.9909607627721124 -0.0798037000152277 0.0022446928756108013 0.016204031884280903 -0.0019181911675444634 -0.010256305777072707
 0.9909607627721124 -0.0798037000152277 0.007251374938250621 0.03370476748406756 -0.0019170246084605211 -0.010256384041611302 0.002235288936601549 0.016205403003600363
 0.0022446928756108013 0.016204031884280903 -0.0019170246084605211 -0.010256384041611302 0.0072497933140579255 0.033706392423962804 0.9909608390396616 -0.07980219554641096
 -0.0019181911675444634 -0.010256305777072707 0.002235288936601549 0.016205403003600363 0.9909608390396616 -0.07980219554641096 0.007250718387669205 0.03370631493936947
0.11879949979160001 0.007749741923877812 0.03573738154659693 0.9902981036919499 -0.08436892856456596 0.002468955062822513 0.0171011023338936 -0.0021082344180202023 -0.010826158845137476
 0.9902981036919499 -0.08436892856456596 0.00775239454885705 0.035737151475299565 -0.002106938463416474 -0.010826253702040498 0.0024584739811245723 0.017102670161729887
 0.002468955062822513 0.0171011023338936 -0.002106938463416474 -0.010826253702040498 0.007750631655708976 0.03573887264992367 0.9902981885248076 -0.08436734001061527
 -0.0021082344180202023 -0.010826158845137476 0.0024584739811245723 0.017102670161729887 0.9902981885248076 -0.08436734001061527 0.00775166246403803 0.03573878804490168
0.1250521050438 0.008272699477393959 0.0377840595250505 0.9896067250158124 -0.08894681455674312 0.002704618829899239 0.0179967422007906 -0.0023080045767255946 -0.01139488512771489
 0.9896067250158124 -0.08894681455674312 0.008275638794695315 0.03778380283776498 -0.0023065728042232676 -0.011394998412043524 0.00269300203388458 0.017998525023896858
 0.002704618829899239 0.0179967422007906 -0.0023065728042232676 -0.011394998412043524 0.008273684679255646 0.037785621029455756 0.9896068188991725 -0.0889451418091909
 -0.0023080045767255946 -0.01139488512771489 0.00269300203388458 0.017998525023896858 0.9896068188991725 -0.0889451418091909 0.00827482703360518 0.03778552906480836
0.131304710296 0.008818184427648047 0.039844656692218074 0.9888863138090663 -0.09353707133020871 0.0029517501980249918 0.01889076477663129 -0.002517569760804304 -0.011962302087609724
 0.9888863138090663 -0.09353707133020871 0.008821425225566726 0.039844371342143636 -0.0025159958050677933 -0.011962435715664072 0.002938939150780321 0.018892781760642085
 0.0029517501980249918 0.01889076477663129 -0.0025159958050677933 -0.011962435715664072 0.00881926990414857 0.039846287361291345 0.9888864172340405 -0.09353531427169345
 -0.002517569760804304 -0.011962302087609724 0.002938939150780321 0.018892781760642085 0.9888864172340405 -0.09353531427169345 0.008820529642118808 0.039846187805027314
0.1375573155481 0.009265127100094582 0.04165009829841722 0.9882579988200025 -0.0978705388710983 0.003180351317423042 0.01975646602129598 -0.002706955188397277 -0.012501720941359276
 0.9882579988200025 -0.0978705388710983 0.009268683800068591 0.041649786439694206 -0.0027052295009074826 -0.012501875169963983 0.0031663162480639628 0.01975871508594776
 0.003180351317423042 0.01975646602129598 -0.0027052295009074826 -0.012501875169963983 0.009266316958933863 0.04165179713032463 0.9882581122218759 -0.09786869746711627
 -0.002706955188397277 -0.012501720941359276 0.0031663162480639628 0.01975871508594776 0.9882581122218759 -0.09786869746711627 0.009267701047903096 0.04165169362109138
0.1438099208003 0.009727905517327535 0.043445333567330505 0.9876073630229693 -0.10219232050260156 0.0034181703500149054 0.020618249461676428 -0.0029038943201014173 -0.013037543714135508
 0.9876073630229693 -0.10219232050260156 0.00973179284273095 0.04344499339271876 -0.0029020100445196883 -0.013037720441282144 0.0034028579628876915 0.020620748220329988
 0.0034181703500149054 0.020618249461676428 -0.0029020100445196883 -0.013037720441282144 0.009729204421461319 0.04344709930981735 0.9876074868897525 -0.10219039464671416
 -0.0029038943201014173 -0.013037543714135508 0.0034028579628876915 0.020620748220329988 0.9876074868897525 -0.10219039464671416 0.009730718914690786 0.04344699187131662
0.1500625260525 0.010206346427191114 0.04523019182522577 0.9869345842660413 -0.10650228783021543 0.0036651188618974304 0.02147601365092304 -0.0031083010998711326 -0.013569674771615463
 0.9869345842660413 -0.10650228783021543 0.010210579109353949 0.04522982144070229 -0.0031062513964108976 -0.013569875971866879 0.003648476226488123 0.021478780356817176
 0.0036651188618974304 0.02147601365092304 -0.0031062513964108976 -0.013569875971866879 0.010207759019904538 0.04523202317865827 0.9869347190908211 -0.10650027741023396
 -0.0031083010998711326 -0.013569674771615463 0.003648476226488123 0.021478780356817176 0.9869347190908211 -0.10650027741023396 0.010209410003780832 0.04523191182085659
0.15631513130469998 0.010700275221950715 0.0470045075017298 0.9862398414415338 -0.11080031336620771 0.003921107299955906 0.022329659007840546 -0.0033200883434893673 -0.014098020618837453
 0.9862398414415338 -0.11080031336620771 0.010704868000211207 0.04700410492569683 -0.0033178663890897154 -0.01409824834307349 0.0039030818571454736 0.022332712546547912
