! Created with skrf 1.8.0 (http://scikit-rf.org).
# GHz S RI R 50.0 
!freq ReS11 ImS11 ReS12 ImS12 ReS13 ImS13
! ReS14 ImS14
! ReS21 ImS21 ReS22 ImS22 ReS23 ImS23
! ReS24 ImS24
! ReS31 ImS31 ReS32 ImS32 ReS33 ImS33
! ReS34 ImS34
! ReS41 ImS41 ReS42 ImS42 ReS43 ImS43
! ReS44 ImS44
!
0.0 0.001333395989991 0.0 0.9986666039752 0.0 5.099342139669e-05 0.0 -5.099342119674e-05 6.2448930046160436e-21
 0.9986666039752 0.0 0.001333395989972 0.0 -5.099342119645e-05 6.244893004580529e-21 5.099342139623e-05 0.0
 5.099342139669e-05 0.0 -5.099342119645e-05 6.244893004580529e-21 0.001333396007394 0.0 0.9986666039926 0.0
 -5.099342119674e-05 6.2448930046160436e-21 5.099342139623e-05 0.0 0.9986666039926 0.0 0.00133339600739 0.0
0.005 0.0014340706578316424 0.0010927860112032574 0.9985393297846992 -0.0027937031008593944 7.0883277412915e-05 0.0005523095545546415 -6.896031325364437e-05 -0.0003484356772607338
 0.9985393297846992 -0.0027937031008593944 0.001434077545898358 0.001092781955500554 -6.895793605563483e-05 -0.0003484338332983864 7.08538975962525e-05 0.0005523207995918676
 7.0883277412915e-05 0.0005523095545546415 -6.895793605563483e-05 -0.0003484338332983864 0.0014340723075429015 0.0010928522692677358 0.9985393301215091 -0.002793636043731533
 -6.896031325364437e-05 -0.0003484356772607338 7.08538975962525e-05 0.0005523207995918676 0.9985393301215091 -0.002793636043731533 0.001434076567112916 0.0010928498098690695
0.006252605252188 0.001460316868947066 0.001370296045953903 0.9985059656647014 -0.003492835957662415 7.647456697412268e-05 0.0006906690103284191 -7.39591037661237e-05 -0.0004360018752220171
 0.9985059656647014 -0.003492835957662415 0.0014603276364464663 0.001370290886396701 -7.395540475236143e-05 -0.0004359996006341935 7.642866401691351e-05 0.0006906835914752747
 7.647456697412268e-05 0.0006906690103284191 -7.395540475236143e-05 -0.0004359996006341935 0.0014603193831964308 0.0013703788621843773 0.9985059661264053 -0.00349275213800474
 -7.39591037661237e-05 -0.0004360018752220171 7.642866401691351e-05 0.0006906835914752747 0.9985059661264053 -0.00349275213800474 0.0014603260410984023 0.0013703757052417925
0.01250521050438 0.001597564595829245 0.002769472153655727 0.9983304677659245 -0.0069866148737949985 0.0001080581285671056 0.0013817813963987627 -0.00010192464975525247 -0.0008742063644634954
 0.9983304677659245 -0.0069866148737949985 0.0015976075946054157 0.002769460914570939 -0.0001019100730156659 -0.0008742021447256226 0.00010787509185721272 0.0013818161790639417
 0.0001080581285671056 0.0013817813963987627 -0.0001019100730156659 -0.0008742021447256226 0.001597574060876341 0.0027696374729231556 0.9983304690309488 -0.006986447485109596
 -0.00010192464975525247 -0.0008742063644634954 0.00010787509185721272 0.0013818161790639417 0.9983304690309488 -0.006986447485109596 0.001597600639977287 0.002769630331340139
0.01875781575657 0.0017454062637984225 0.004188783121735077 0.9981399154388485 -0.010489871431233151 0.00014581238794166563 0.002073808881251943 -0.00013496885907772913 -0.001314015666610647
 0.9981399154388485 -0.010489871431233151 0.0017455028928831432 0.00418876478646593 -0.0001349363527336021 -0.001314009886440692 0.00014540124675517082 0.002073870484757786
 0.00014581238794166563 0.002073808881251943 -0.0001349363527336021 -0.001314009886440692 0.0017454271132548355 0.004189030757675664 0.9981399178554303 -0.010489620549128689
 -0.00013496885907772913 -0.001314015666610647 0.00014540124675517082 0.002073870484757786 0.9981399178554303 -0.010489620549128689 0.0017454868270337077 0.004189018770161885
0.02501042100875 0.0019041027884201293 0.005626280270337066 0.9979341070867425 -0.01400433685806097 0.00018980659594447326 0.002766798296127487 -0.00017316857697018614 -0.0017552531597837043
 0.9979341070867425 -0.01400433685806097 0.001904274408435862 0.005626253732003026 -0.00017311117272139796 -0.00175524626640936 0.00018907635748157227 0.0027668942941897453
 0.00018980659594447326 0.002766798296127487 -0.00017311117272139796 -0.00175524626640936 0.0019041394559030976 0.00562661000625945 0.9979341110071781 -0.014004002541957033
 -0.00017316857697018614 -0.0017552531597837043 0.00018907635748157227 0.0027668942941897453 0.9979341110071781 -0.014004002541957033 0.0019042454838100948 0.005626592280756554
0.03126302626094 0.00207390412190456 0.0070809778149649154 0.9977128297085114 -0.017530772524079037 0.00024011063059280305 0.0034607345828788104 -0.0002165988364982396 -0.002197800378469122
 0.9977128297085114 -0.017530772524079037 0.002074172065086277 0.007080941877217536 -0.0002165096350514134 -0.002197792882586998 0.00023897019046424472 0.003460873507656788
 0.00024011063059280305 0.0034607345828788104 -0.0002165096350514134 -0.002197792882586998 0.002073961034156915 0.0070813894168338005 0.9977128354813232 -0.017530354804116032
 -0.0002165988364982396 -0.002197800378469122 0.00023897019046424472 0.003460873507656788 0.9977128354813232 -0.017530354804116032 0.0020741265280169465 0.007081365031155497
0.037515631513130004 0.002255054996245569 0.008552245917723331 0.9974758647683705 -0.021069576836770913 0.000296794344204391 0.004155578507117255 -0.00026533339639820953 -0.002641559290147791
 0.9974758647683705 -0.021069576836770913 0.002255440572156079 0.008552199294646784 -0.0002652055599340865 -0.002641551766214103 0.00029515244461524325 0.004155769858231298
 0.000296794344204391 0.004155578507117255 -0.0002652055599340865 -0.002641551766214103 0.002255136576330307 0.008552739118713506 0.9974758727408128 -0.021069075728789608
 -0.00026533339639820953 -0.002641559290147791 0.00029515244461524325 0.004155769858231298 0.9974758727408128 -0.021069075728789608 0.002255374664623127 0.008552707121098267
0.043768236765320004 0.0024477971426025646 0.010039625978717782 0.997222990543949 -0.02462096989021279 0.0003599272651669204 0.004851278119664683 -0.000319444939041477 -0.00308644082356781
 0.997222990543949 -0.02462096989021279 0.0024483216425284 0.010039567294487899 -0.0003192716867417654 -0.003086433909926357 0.00035769247325481517 0.004851532374745357
 0.0003599272651669204 0.004851278119664683 -0.0003192716867417654 -0.003086433909926357 0.0024479078145265227 0.0100402004728116 0.9972230010664377 -0.024620385401611263
 -0.000319444939041477 -0.00308644082356781 0.00035769247325481517 0.004851532374745357 0.9972230010664377 -0.024620385401611263 0.002448231605583109 0.010040159882276462
0.050020842017509996 0.002652370337307025 0.011542754297010472 0.9969539833023432 -0.028185069742133955 0.000429578421868617 0.005547773489075066 -0.00037900515046060293 -0.003532360126728672
 0.9969539833023432 -0.028185069742133955 0.0026530550371594514 0.011542682085557273 -0.00037877975552484054 -0.0035323545256635306 0.0004266591187739373 0.00554810211499111
 0.000429578421868617 0.005547773489075066 -0.00037877975552484054 -0.0035323545256635306 0.0026525145232830583 0.011543409744233882 0.9969539967260845 -0.02818440186615056
 -0.00037900515046060293 -0.003532360126728672 0.0004266591187739373 0.00554810211499111 0.9969539967260845 -0.02818440186615056 0.002652937108075289 0.011543359550978839
0.055454545454549996 0.002839944055196858 0.01286156897831131 0.9967069311010046 -0.03129274267931581 0.0004954541380540945 0.006153644493539989 -0.00043524470967717585 -0.00392065585714281
 0.9967069311010046 -0.03129274267931581 0.002840785242545331 0.012861483750123635 -0.0004349685786754579 -0.0039206520167656 0.0004918654203608841 0.006154047839410383
 0.0004954541380540945 0.006153644493539989 -0.0004349685786754579 -0.0039206520167656 0.0028401209556798597 0.012862294463551504 0.996706947331967 -0.03129200233044219
 -0.00043524470967717585 -0.00392065585714281 0.0004918654203608841 0.006154047839410383 0.996706947331967 -0.03129200233044219 0.002840640015129541 0.012862235083000835
0.056273447269699996 0.0028690129431190553 0.013061324609474215 0.9966686179748304 -0.03176192981324516 0.0005058162220840184 0.006244999019925812 -0.00044408474601351027 -0.003979234240481431
 0.9966686179748304 -0.03176192981324516 0.002869879106333093 0.013061237313892903 -0.00044380053365862315 -0.003979230718241361 0.0005021205984403499 0.006245414484291716
 0.0005058162220840184 0.006244999019925812 -0.00044380053365862315 -0.003979230718241361 0.0028691950632488863 0.013062060624365988 0.9966686346520117 -0.03176117853988487
 -0.00044408474601351027 -0.003979234240481431 0.0005021205984403499 0.006245414484291716 0.9966686346520117 -0.03176117853988487 0.0028697295180189976 0.013061999790062995
0.06252605252188 0.0030979622117300394 0.014595067482649278 0.9963666685951618 -0.03535155943423799 0.0005887083591593948 0.006942884726951181 -0.0005147534691864429 -0.004426980817944518
 0.9963666685951618 -0.03535155943423799 0.003099031091471007 0.01459496345465435 -0.0005144038152220207 -0.004426980204747331 0.0005841444148881228 0.006943400509799764
 0.0005887083591593948 0.006942884726951181 -0.0005144038152220207 -0.004426980204747331 0.0030981866841974875 0.014595883641774 0.9963666888791141 -0.035350724742130454
 -0.0005147534691864429 -0.004426980817944518 0.0005841444148881228 0.006943400509799764 0.9963666888791141 -0.035350724742130454 0.003098846072705431 0.01459581109988318
0.06877865777407 0.00333945445313008 0.016143738036438725 0.9960479086069546 -0.038953936062434 0.0006783217338396769 0.007641356990041352 -0.0005910800742654692 -0.004875517364975411
 0.9960479086069546 -0.038953936062434 0.0033407472946187884 0.016143615535667358 -0.0005906584040840701 -0.004875520555000593 0.0006727972808121378 0.007641987595548333
 0.0006783217338396769 0.007641356990041352 -0.0005906584040840701 -0.004875520555000593 0.0033397256943472667 0.016144633871716007 0.9960479328529981 -0.038953017925017173
 -0.0005910800742654692 -0.004875517364975411 0.0006727972808121378 0.007641987595548333 0.9960479328529981 -0.038953017925017173 0.003340523070330589 0.01614454852764405
0.07503126302626001 0.003593725127997578 0.017707108146827785 0.9957121110967481 -0.042569013021231866 0.0007747223842772646 0.008340339036444903 -0.0006731322999314089 -0.005324760755487416
 0.9957121110967481 -0.042569013021231866 0.003595263170484985 0.017706965340171136 -0.0006726320878072655 -0.005324768706869325 0.0007681450512142532 0.008341100004663907
 0.0007747223842772646 0.008340339036444903 -0.0006726320878072655 -0.005324768706869325 0.003594047552060309 0.0177080831479858 0.9957121396623172 -0.04256801140370773
 -0.0006731322999314089 -0.005324760755487416 0.0007681450512142532 0.008341100004663907 0.9957121396623172 -0.04256801140370773 0.003594995961251304 0.01770798387930438
0.08128386827845 0.0038610088912391497 0.01928496127318343 0.9953590489809925 -0.04619672461716439 0.0008779754218455609 0.009039751257869173 -0.0007609768361831641 -0.005774626914085065
 0.9953590489809925 -0.04619672461716439 0.0038628133698048427 0.01928479623398764 -0.0007603916047426666 -0.005774640648890231 0.0008702526608876826 0.009040659176428687
 0.0008779754218455609 0.009039751257869173 -0.0007603916047426666 -0.005774640648890231 0.0038613869095108465 0.019286014886966758 0.995359082225565 -0.046195639476668666
 -0.0007609768361831641 -0.005774626914085065 0.0008702526608876826 0.009040659176428687 0.995359082225565 -0.046195639476668666 0.003862499391998937 0.0192859005434605
0.08753647353064001 0.0041415396032303264 0.020877088866392904 0.9949884951632217 -0.049836989678242606 0.000988144970459864 0.009739511432665783 -0.0008546792867168974 -0.006225030595899279
 0.9949884951632217 -0.049836989678242606 0.004143631750627426 0.020876899573608807 -0.0008540026065954618 -0.006225051200099853 0.0009791840651381812 0.009740583948404822
 0.000988144970459864 0.009739511432665783 -0.0008540026065954618 -0.006225051200099853 0.004141977623857369 0.02087822049310314 0.9949885334486009 -0.04983582096685047
 -0.0008546792867168974 -0.006225030595899279 0.0009791840651381812 0.009740583948404822 0.9949885334486009 -0.04983582096685047 0.004143267216285019 0.020878089896866993
0.09378907878283 0.004435550319293678 0.02248328780408555 0.9946002226713652 -0.053489714067849324 0.0011052941076799057 0.01043953488621194 -0.0009543041285749262 -0.006675885230614352
 0.9946002226713652 -0.053489714067849324 0.0044379513677932575 0.022483072141410522 -0.0009535296182196612 -0.006675913854058021 0.0010950021819504405 0.010440790716733768
 0.0011052941076799057 0.01043953488621194 -0.0009535296182196612 -0.006675913854058021 0.004436052747141916 0.02248449680018895 0.9946002663622451 -0.05348846172931566
 -0.0009543041285749262 -0.006675885230614352 0.0010950021819504405 0.010440790716733768 0.9946002663622451 -0.05348846172931566 0.004437532484889919 0.022484348745601228
0.100041684035 0.0047432732632190855 0.024103358511892662 0.9941940047819602 -0.057154792515173455 0.0012294848079518047 0.011139734607300514 -0.0010599146686721044 -0.007127102812972781
 0.9941940047819602 -0.057154792515173455 0.004746004446275567 0.024103114266736565 -0.0010590359942350177 -0.007127140669340313 0.0012177688362175877 0.011141193552438346
 0.0012294848079518047 0.011139734607300514 -0.0010590359942350177 -0.007127140669340313 0.004743844499012669 0.024104644187788418 0.9941940542457604 -0.05715345648669011
 -0.0010599146686721044 -0.007127102812972781 0.0012177688362175877 0.011141193552438346 0.9941940542457604 -0.05715345648669011 0.004745527418379721 0.024104477441419248
0.1059090909091 0.005044715828117722 0.02563606336149012 0.993796289592079 -0.06060521343899359 0.0013524830205691 0.011796878614794594 -0.0011645182130638834 -0.007550773028207304
 0.993796289592079 -0.06060521343899359 0.005047776121701403 0.025635790195773705 -0.0011635360736135724 -0.00755082070935006 0.0013393460032374875 0.011798547143178104
 0.0013524830205691 0.011796878614794594 -0.0011635360736135724 -0.00755082070935006 0.005045355631466444 0.025637420323146014 0.9937963448100855 -0.06060379881474947
 -0.0011645182130638834 -0.007550773028207304 0.0013393460032374875 0.011798547143178104 0.9937963448100855 -0.06060379881474947 0.005047241074298666 0.025637234889873687
0.1062942892872 0.0050649397885255245 0.025737103548478885 0.9937696151347599 -0.06083210998461755 0.001360777886144895 0.011840021339871913 -0.0011715729990848438 -0.007578593820471956
 0.9937696151347599 -0.06083210998461755 0.005068022342595351 0.025736828411013213 -0.0011705838744140967 -0.007578642187234804 0.0013475447040612219 0.011841704293021017
 0.001360777886144895 0.011840021339871913 -0.0011705838744140967 -0.007578642187234804 0.005065584228718879 0.02573846516617475 0.9937696707420288 -0.060830690198549385
 -0.0011715729990848438 -0.007578593820471956 0.0013475447040612219 0.011841704293021017 0.9937696707420288 -0.060830690198549385 0.00506748336906737 0.025738278466687876
0.11254689453939999 0.005400780332126787 0.02738432651760566 0.9933268278410313 -0.06452154272106035 0.0014992329420706852 0.0125403036553667 -0.0012893399504530138 -0.00803026715310489
 0.9933268278410313 -0.06452154272106035 0.005404235498213847 0.027384018079604566 -0.001288234137120088 -0.008030327371464741 0.001484389258175803 0.012542232614688469
 0.0014992329420706852 0.0125403036553667 -0.001288234137120088 -0.008030327371464741 0.005401502368005267 0.027385763293931185 0.9933268899657718 -0.06452003910126894
 -0.0012893399504530138 -0.00803026715310489 0.001484389258175803 0.012542232614688469 0.9933268899657718 -0.06452003910126894 0.005403630774133197 0.02738555535183333
0.11879949979160001 0.0057510243593393885 0.029044831226398345 0.9928654175866688 -0.06822295905197753 0.0016449083054408784 0.013240488009935917 -0.0014132750441587364 -0.008482030090879463
 0.9928654175866688 -0.06822295905197753 0.005754873384767169 0.029044486980127793 -0.0014120463515509963 -0.008482103565717622 0.0016283607133020692 0.013242686089429195
 0.0016449083054408784 0.013240488009935917 -0.0014120463515509963 -0.008482103565717622 0.00575182837666375 0.029046342329769485 0.992865486606289 -0.06822137151654882
 -0.0014132750441587364 -0.008482030090879463 0.0016283607133020692 0.013242686089429195 0.992865486606289 -0.06822137151654882 0.005754199101162538 0.029046111827129815
0.1250521050438 0.006115900304689442 0.030718421013616732 0.992385159732393 -0.07193622002258095 0.0017978609807916253 0.013940478794211253 -0.001543436443634553 -0.008933788261613724
 0.992385159732393 -0.07193622002258095 0.0061201644446754345 0.030718038350584998 -0.0015420787291535974 -0.008933876461411616 0.0017795159718386128 0.013942970234641172
 0.0017978609807916253 0.013940478794211253 -0.0015420787291535974 -0.008933876461411616 0.006116790683129623 0.030720005563470414 0.9923852360283033 -0.0719345484838826
 -0.001543436443634553 -0.008933788261613724 0.0017795159718386128 0.013942970234641172 0.9923852360283033 -0.0719345484838826 0.006119416788331577 0.030719751153589044
0.131304710296 0.006495635507275089 0.03240489820770449 0.9918858304112241 -0.07566117990452288 0.001958146592778411 0.014640178375557238 -0.001679880904667275 -0.009385445618972546
 0.9918858304112241 -0.07566117990452288 0.006500336026669601 0.03240447441735873 -0.001678388073907 -0.009385550075740004 0.0019379105696690384 0.014642988555188722
 0.001958146592778411 0.014640178375557238 -0.001678388073907 -0.009385550075740004 0.006496616619978093 0.03240655527747647 0.9918859143689023 -0.07565942426571465
 -0.001679880904667275 -0.009385445618972546 0.0019379105696690384 0.014642988555188722 0.9918859143689023 -0.07565942426571465 0.00649951118046256 0.03240627558447526
0.1375573155481 0.006798299200934873 0.03388418759328214 0.9914593910229019 -0.07917773891839912 0.002104220393925698 0.015317099632209287 -0.0018010901206932254 -0.00981451039520735
 0.9914593910229019 -0.07917773891839912 0.006803457802854151 0.033883728304832286 -0.0017994531526210613 -0.009814631066631658 0.00208204418407264 0.015320222367655035
 0.002104220393925698 0.015317099632209287 -0.0017994531526210613 -0.009814631066631658 0.006799374872344989 0.03388591634039632 0.9914594829891278 -0.07917589914716677
 -0.0018010901206932254 -0.00981451039520735 0.00208204418407264 0.015320222367655035 0.9914594829891278 -0.07917589914716677 0.00680255256797851 0.033885618257453495
0.1438099208003 0.007111440047474713 0.03535653598387493 0.9910182743840632 -0.0826862370964857 0.0022561953669495796 0.015991754885524734 -0.0019271576123679728 -0.01024150388264946
 0.9910182743840632 -0.0826862370964857 0.0071170780554210425 0.03535603905527042 -0.0019253699543989797 -0.010241642259462266 0.0022319932917693433 0.015995213204227685
 0.0022561953669495796 0.015991754885524734 -0.0019253699543989797 -0.010241642259462266 0.007112614542446502 0.03535833545836435 0.991018374741786 -0.08268431310265101
 -0.0019271576123679728 -0.01024150388264946 0.0022319932917693433 0.015995213204227685 0.991018374741786 -0.08268431310265101 0.007116088721201452 0.03535801821064261
0.1500625260525 0.007434958735872497 0.036821845545565765 0.9905625830986914 -0.0861866128074597 0.0024140254239332524 0.016664091033477813 -0.0020580387012786774 -0.010666375515556032
 0.9905625830986914 -0.0861866128074597 0.007441097481441216 0.03682130873377725 -0.002056093811707805 -0.01066653314810701 0.002387712237617216 0.016667908799587218
 0.0024140254239332524 0.016664091033477813 -0.002056093811707805 -0.01066653314810701 0.007436236306482242 0.03682371475928846 0.9905626922344443 -0.08618460449763173
 -0.0020580387012786774 -0.010666375515556032 0.002387712237617216 0.016667908799587218 0.9905626922344443 -0.08618460449763173 0.0074400203405638465 0.036823377525749657
0.15631513130469998 0.007768755380506886 0.03828002153235889 0.990092420148605 -0.08967880414967801 0.002577664005793677 0.017334055760072034 -0.0021936882276747485 -0.011089075713391327
