! Created with skrf 1.8.0 (http://scikit-rf.org).
# GHz S RI R 50.0 
!freq ReS11 ImS11 ReS12 ImS12 ReS13 ImS13
! ReS14 ImS14
! ReS21 ImS21 ReS22 ImS22 ReS23 ImS23
! ReS24 ImS24
! ReS31 ImS31 ReS32 ImS32 ReS33 ImS33
! ReS34 ImS34
! ReS41 ImS41 ReS42 ImS42 ReS43 ImS43
! ReS44 ImS44
!
0.0 0.0009317639817247 0.0 0.9990682359899 0.0 3.481903135368e-05 0.0 -3.481903083184e-05 4.264101465762586e-21
 0.9990682359899 0.0 0.0009317639817332 0.0 -3.481903083172e-05 4.264101465747891e-21 3.481903135351e-05 0.0
 3.481903135368e-05 0.0 -3.481903083172e-05 4.264101465747891e-21 0.0009317639891803 0.0 0.9990682359973 0.0
 -3.481903083184e-05 4.264101465762586e-21 3.481903135351e-05 0.0 0.9990682359973 0.0 0.0009317639891925 0.0
0.005 0.0010013537242839576 0.0007643460354683767 0.9989803478751182 -0.001953354260198818 4.7959696263791007e-05 0.00037446970619195837 -4.67181521665027e-05 -0.00023683711700259028
 0.9989803478751182 -0.001953354260198818 0.0010013625733291804 0.000764340840387341 -4.6717570434742485e-05 -0.00023683664108682976 4.790318881934852e-05 0.0003744910512414812
 4.7959696263791007e-05 0.00037446970619195837 -4.6717570434742485e-05 -0.00023683664108682976 0.0010013544773611275 0.0007644128092224552 0.9989803481787536 -0.0019532871942965695
 -4.67181521665027e-05 -0.00023683711700259028 4.790318881934852e-05 0.0003744910512414812 0.9989803481787536 -0.0019532871942965695 0.0010013624234648654 0.0007644081947117359
0.006252605252188 0.0010192856235092932 0.0009584779901770842 0.9989576087006223 -0.0024422179920318434 5.154682869389162e-05 0.0004682916514129287 -4.993534106609977e-05 -0.0002963680325061629
 0.9989576087006223 -0.0024422179920318434 0.0010192994566100724 0.0009584714177274412 -4.993443604799361e-05 -0.0002963674446623784 5.145853696546664e-05 0.0004683193359845291
 5.154682869389162e-05 0.0004682916514129287 -4.993443604799361e-05 -0.0002963674446623784 0.0010192867295468393 0.0009585614384140383 0.9989576091037357 -0.0024421341737085878
 -4.993534106609977e-05 -0.0002963680325061629 5.145853696546664e-05 0.0004683193359845291 0.9989576091037357 -0.0024421341737085878 0.0010192991506035281 0.0009585555978918463
0.01250521050438 0.0011118230916888781 0.0019374524150499142 0.9988397299665681 -0.004885419619777255 7.123509673338807e-05 0.0009370217029937963 -6.742463838403288e-05 -0.0005943533882570288
 0.9988397299665681 -0.004885419619777255 0.001111878331951699 0.0019374384834373933 -6.742107404129628e-05 -0.000594352287197143 7.08829116702984e-05 0.0009370875957340493
 7.123509673338807e-05 0.0009370217029937963 -6.742107404129628e-05 -0.000594352287197143 0.0011118269547845242 0.001937619014281718 0.998839731020141 -0.004885252216729974
 -6.742463838403288e-05 -0.0005943533882570288 7.08829116702984e-05 0.0009370875957340493 0.998839731020141 -0.004885252216729974 0.0011118765479262325 0.0019376066140885306
0.01875781575657 0.00120950996531954 0.0029308412276959892 0.9987145029317324 -0.007335611579957648 9.391791688463977e-05 0.0014065283528474604 -8.732565113858662e-05 -0.0008935743763967655
 0.9987145029317324 -0.007335611579957648 0.00120963409870265 0.002930819096590521 -8.731770524313332e-05 -0.0008935728447845111 9.312653636187598e-05 0.001406644353745088
 9.391791688463977e-05 0.0014065283528474604 -8.731770524313332e-05 -0.0008935728447845111 0.0012095182288060795 0.0029310908060043595 0.9987145048767122 -0.0073353606616083315
 -8.732565113858662e-05 -0.0008935743763967655 9.312653636187598e-05 0.001406644353745088 0.9987145048767122 -0.0073353606616083315 0.001209629655049535 0.002931071091164903
0.02501042100875 0.0013124790002243143 0.0039373178605576755 0.9985818290539819 -0.009794042682430646 0.00011962994267216998 0.001876864925964214 -0.00010967668418704293 -0.0011939329404537504
 0.9985818290539819 -0.009794042682430646 0.0013126994588809737 0.003937286647248142 -0.00010966265553593953 -0.001193931070872869 0.00011822383004672952 0.0018770442341156082
 0.00011962994267216998 0.001876864925964214 -0.00010966265553593953 -0.001193931070872869 0.001312493314874225 0.003937650227542094 0.9985818321392403 -0.009793708298259856
 -0.00010967668418704293 -0.0011939329404537504 0.00011822383004672952 0.0018770442341156082 0.9985818321392403 -0.009793708298259856 0.0013126911763089466 0.003937622417355416
0.03126302626094 0.0014208566812731708 0.00495623053911962 0.9984416026834205 -0.012261284523269819 0.0001484064561869253 0.002348043772374001 -0.00013451535803439543 -0.0014953707141981854
 0.9984416026834205 -0.012261284523269819 0.00142120085675801 0.0049561893208039534 -0.00013449356267277067 -0.0014953686094032867 0.00014620966465971025 0.002348300891727561
 0.0001484064561869253 0.002348043772374001 -0.00013449356267277067 -0.0014953686094032867 0.0014208786956255086 0.004956645504923993 0.9984416071557313 -0.012260866683590974
 -0.00013451535803439543 -0.0014953707141981854 0.00014620966465971025 0.002348300891727561 0.9984416071557313 -0.012260866683590974 0.001421187547554666 0.004956608795287927
0.037515631513130004 0.0015347667354247984 0.0059871777413657516 0.9982937146041105 -0.014737656000581691 0.00018028301424368552 0.002820061595411802 -0.00016187889657155984 -0.001797843680972633
 0.9982937146041105 -0.014737656000581691 0.0015352619862722052 0.005987125556451709 -0.00016184766580829745 -0.001797841453980154 0.00017711909918585365 0.0028204123485986764
 0.00018028301424368552 0.002820061595411802 -0.00016184766580829745 -0.001797841453980154 0.001534798098058333 0.005987675102158171 0.9982937207109025 -0.014737154690812474
 -0.00016187889657155984 -0.001797843680972633 0.00017711909918585365 0.0028204123485986764 0.9982937207109025 -0.014737154690812474 0.0015352424561371103 0.005987628666996336
0.043768236765320004 0.0016543314912286524 0.0070298789961827195 0.998138053425067 -0.017223352488335175 0.00021529529293351775 0.0032929071532099784 -0.00019180424184420998 -0.002101314461723522
 0.998138053425067 -0.017223352488335175 0.0016550051485440293 0.007029814845175976 -0.00019176192103493447 -0.002101312235834857 0.00021098726174908502 0.0032933686978674063
 0.00021529529293351775 0.0032929071532099784 -0.00019176192103493447 -0.002101312235834857 0.0016543738518760252 0.007030458516988205 0.9981380614154318 -0.01722276768582528
 -0.00019180424184420998 -0.002101314461723522 0.00021098726174908502 0.0032933686978674063 0.9981380614154318 -0.01722276768582528 0.00165497819742249 0.007030401509407447
0.050020842017509996 0.0017796725224338815 0.008084121491671963 0.9979745062553562 -0.0197184991989807 0.0002534790027855346 0.0037665644358144527 -0.00022432810699747998 -0.0024057491278866904
 0.9979745062553562 -0.0197184991989807 0.001780551894397063 0.008084044337898864 -0.0002242730547545166 -0.002405747036706449 0.00024784928431713 0.0037671552819804792
 0.0002534790027855346 0.0037665644358144527 -0.0002242730547545166 -0.002405747036706449 0.0017797275325140802 0.008084782911827447 0.997974516381477 -0.01971783086726552
 -0.00022432810699747998 -0.0024057491278866904 0.00024784928431713 0.0037671552819804792 0.997974516381477 -0.01971783086726552 0.0017805163167191205 0.008084714465054686
0.055454545454549996 0.0018933828263180607 0.009009529219775221 0.997825885895296 -0.021894595940201034 0.0002892651143409956 0.0041788313256694454 -0.00025473100714078076 -0.002671069949599115
 0.997825885895296 -0.021894595940201034 0.0018944631330946907 0.009009439895873834 -0.00025466356770868445 -0.0026710680919911347 0.00028234213655944197 0.004179550635003626
 0.0002892651143409956 0.0041788313256694454 -0.00025466356770868445 -0.0026710680919911347 0.0018934501694824687 0.009010261585891232 0.9978258980825473 -0.021893854973871935
 -0.00025473100714078076 -0.002671069949599115 0.00028234213655944197 0.004179550635003626 0.9978258980825473 -0.021893854973871935 0.0018944190732792519 0.00901018247939732
0.056273447269699996 0.0019109109913959992 0.009149733859135376 0.9978029590807731 -0.022223177369849703 0.00029486983521499245 0.004241014226225829 -0.00025948700149717714 -0.002711115630649198
 0.9978029590807731 -0.022223177369849703 0.0019120233669685169 0.009149642629342973 -0.0002594175890668483 -0.002711113818085819 0.00028774026101011254 0.0042417542542737335
 0.00029486983521499245 0.004241014226225829 -0.0002594175890668483 -0.002711113818085819 0.0019109803012997688 0.009150476896387757 0.9978029715951883 -0.02222242545421423
 -0.00025948700149717714 -0.002711115630649198 0.00028774026101011254 0.0042417542542737335 0.9978029715951883 -0.02222242545421423 0.0019119779489896647 0.009150396124632167
0.06252605252188 0.0020481678432535478 0.010226571790043779 0.9976232969916505 -0.024737438616402374 0.0003395034252522017 0.004716234946498161 -0.00029731724187218413 -0.003017382945418727
 0.9976232969916505 -0.024737438616402374 0.002049540495396834 0.010226465374953496 -0.0002972318527140518 -0.003017381565679917 0.00033069521820589876 0.004717145425390422
 0.0003395034252522017 0.004716234946498161 -0.0002972318527140518 -0.003017381565679917 0.0020482531043943867 0.010227396129685332 0.9976233121500986 -0.024736603054390332
 -0.00029731724187218413 -0.003017382945418727 0.00033069521820589876 0.004717145425390422 0.9976233121500986 -0.024736603054390332 0.0020494840173569226 0.010227302128949957
0.06877865777407 0.0021915639297856266 0.011314509431349595 0.9974354043408149 -0.027261313506945044 0.0003874153214994704 0.005192203169125413 -0.0003378549558413786 -0.003324520551303129
 0.9974354043408149 -0.027261313506945044 0.0021932241186462887 0.011314386686121142 -0.00033775198530308816 -0.003324519768891736 0.00037674908993588926 0.005193306774871417
 0.0003874153214994704 0.005192203169125413 -0.00033775198530308816 -0.003324519768891736 0.0021916667928337714 0.011315414734809714 0.9974354224007723 -0.02726039421954381
 -0.0003378549558413786 -0.003324520551303129 0.00037674908993588926 0.005193306774871417 0.9974354224007723 -0.02726039421954381 0.0021931553528386455 0.011315306583596545
0.07503126302626001 0.0023412200811859874 0.012413433952265608 0.9972391648512647 -0.029794816966237304 0.00043864096238701254 0.005668893932646242 -0.0003811360806128739 -0.003632498106670688
 0.9972391648512647 -0.029794816966237304 0.0023431950570066517 0.012413293696893785 -0.0003810139356761725 -0.0036324980963752924 0.0004259366978162968 0.00567021476689585
 0.00043864096238701254 0.005668893932646242 -0.0003810139356761725 -0.0036324980963752924 0.0023413421967518814 0.01241441984788823 0.9972391860731686 -0.029793813866663937
 -0.0003811360806128739 -0.003632498106670688 0.0004259366978162968 0.00567021476689585 0.9972391860731686 -0.029793813866663937 0.0023431127684943502 0.012414296607960736
0.08128386827845 0.0024972571560605296 0.013523241919864573 0.997034461701473 -0.03233795187017368 0.0004932156549729611 0.0061462809541060195 -0.0004271963585937825 -0.003941285228219086
 0.997034461701473 -0.03233795187017368 0.0024995741617962635 0.013523082939577812 -0.00042705345765292624 -0.003941286175108916 0.00047829273281011723 0.006147844562808956
 0.0004932156549729611 0.0061462809541060195 -0.00042705345765292624 -0.003941286175108916 0.002497400174043465 0.013524308008977828 0.9970344863489204 -0.032336864857555034
 -0.0004271963585937825 -0.003941285228219086 0.00047829273281011723 0.006147844562808956 0.9970344863489204 -0.032336864857555034 0.0024994771079824593 0.013524168725918311
0.08753647353064001 0.0026597960688251347 0.01464383679484831 0.9968211775905133 -0.03489071152073091 0.0005511745559247225 0.00662433677203538 -0.00047607133085370907 -0.004250851339869776
 0.9968211775905133 -0.03489071152073091 0.0026624823430126967 0.014643657840402313 -0.0004759061035563376 -0.004250853439279158 0.0005338517384517901 0.006626170164166934
 0.0005511745559247225 0.00662433677203538 -0.0004759061035563376 -0.004250853439279158 0.002659961637976022 0.014644982650649965 0.9968212059300924 -0.034889540480916324
 -0.00047607133085370907 -0.004250851339869776 0.0005338517384517901 0.006626170164166934 0.9968212059300924 -0.034889540480916324 0.0026623692733141156 0.014644826354497558
0.09378907878283 0.002828957806942046 0.015775127139636164 0.9965991947920119 -0.037453081408702335 0.0006125526538052715 0.007103032849917091 -0.0005277963290899073 -0.004561165561550967
 0.9965991947920119 -0.037453081408702335 0.0028320405862157037 0.015774926927640567 -0.0005276072162147132 -0.004561169019072669 0.0005926480949566106 0.007105164516232866
 0.0006125526538052715 0.007103032849917091 -0.0005276072162147132 -0.004561169019072669 0.0028291475745358765 0.015776352302280177 0.9965992270934778 -0.037451826218901245
 -0.0005277963290899073 -0.004561165561550967 0.0005926480949566106 0.007105164516232866 0.9965992270934778 -0.037451826218901245 0.002831910241612262 0.01577617800806984
0.100041684035 0.0030048634384358154 0.016917025306425592 0.9963683952004305 -0.040025040497004505 0.0006773847525671488 0.007582339647267872 -0.0005824064661488876 -0.00487219663077854
 0.9963683952004305 -0.040025040497004505 0.0030083699602740433 0.016916802519491122 -0.0005821919194826184 -0.00487220166225028 0.0006547160042251914 0.007584799579058617
 0.0006773847525671488 0.007582339647267872 -0.0005821919194826184 -0.00487220166225028 0.003005079050472737 0.01691832928783779 0.9963684317379202 -0.04002370102057337
 -0.0005824064661488876 -0.00487219663077854 0.0006547160042251914 0.007584799579058617 0.9963684317379202 -0.04002370102057337 0.003008221073933599 0.01691813599611024
0.1059090909091 0.0031761736321906466 0.017998147706017587 0.9961436899834748 -0.04244724895409023 0.0007413950029840575 0.008032646536681834 -0.0006363073670667105 -0.005164690026445335
 0.9961436899834748 -0.04244724895409023 0.0031801025665697475 0.017997902506679757 -0.0006360675551397064 -0.005164696740320561 0.0007159658918122839 0.00803544314069825
 0.0007413950029840575 0.008032646536681834 -0.0006360675551397064 -0.005164696740320561 0.0031764149913523993 0.017999525179573067 0.9961437307484815 -0.042445830248715816
 -0.0006363073670667105 -0.005164690026445335 0.0007159658918122839 0.00803544314069825 0.9961437307484815 -0.042445830248715816 0.0031799351205402913 0.017999313139168884
0.1062942892872 0.0031876341140442605 0.01806944644826547 0.9961286603724231 -0.04260656218106461 0.0007457054550639925 0.00806222667604911 -0.0006399366262275207 -0.005183912839302947
 0.9961286603724231 -0.04260656218106461 0.0031915916192112753 0.01806919973525497 -0.0006396951084780389 -0.005183919670796519 0.0007200894746440142 0.008065046383910493
 0.0007457054550639925 0.00806222667604911 -0.0006396951084780389 -0.005183919670796519 0.0031878772140087803 0.018070828730822556 0.9961287014235622 -0.042605138268664466
 -0.0006399366262275207 -0.005183912839302947 0.0007200894746440142 0.008065046383910493 0.9961287014235622 -0.042605138268664466 0.0031914229152337245 0.01807061542807793
0.11254689453939999 0.0033773910637161317 0.019232307762344955 0.995879871563035 -0.04519761501755435 0.0008175491476818734 0.008542662541445784 -0.0007004214536293612 -0.005496281985845351
 0.995879871563035 -0.04519761501755435 0.0033818267990876156 0.019232035738457 -0.0007001514383938261 -0.005496290853645925 0.0007888023067936984 0.008545875074007373
 0.0008175491476818734 0.008542662541445784 -0.0007001514383938261 -0.005496290853645925 0.0033776632929071945 0.019233767793146044 0.9958799174098418 -0.04519610651254051
 -0.0007004214536293612 -0.005496281985845351 0.0007888023067936984 0.008545875074007373 0.9958799174098418 -0.04519610651254051 0.003381636992737274 0.019233533452236416
0.11879949979160001 0.003574255590018313 0.020405527894742547 0.9956219097598004 -0.0477981632919661 0.0008929499845879306 0.00902361497186595 -0.0007638953416448068 -0.005809271340024567
 0.9956219097598004 -0.0477981632919661 0.0035791968109764936 0.020405229141611983 -0.0007635953132970566 -0.005809282490625728 0.0008608880786821919 0.009027254934513807
 0.0008929499845879306 0.00902361497186595 -0.0007635953132970566 -0.005809282490625728 0.0035745585867474174 0.020407065094455654 0.9956219606887123 -0.04779657002130809
 -0.0007638953416448068 -0.005809271340024567 0.0008608880786821919 0.009027254934513807 0.9956219606887123 -0.04779657002130809 0.0035789846084911627 0.020406808674962796
0.1250521050438 0.00377834905828819 0.021589026472658517 0.9953546557143089 -0.05040816745927005 0.0009719418724462645 0.009505050845403746 -0.0008303924205010416 -0.006122847610319265
 0.9953546557143089 -0.05040816745927005 0.003783823031440076 0.0215886995384075 -0.0008300608741799718 -0.006122861300402019 0.0009363801313622422 0.009509154418948397
 0.0009719418724462645 0.009505050845403746 -0.0008300608741799718 -0.006122861300402019 0.003778684457764227 0.021590640228167604 0.9953547120167147 -0.050406489240608456
 -0.0008303924205010416 -0.006122847610319265 0.0009363801313622422 0.009509154418948397 0.9953547120167147 -0.050406489240608456 0.0037835871297760286 0.021590360676700886
0.131304710296 0.003989792884795933 0.022782723728414087 0.995077989972677 -0.053027584493072 0.0010545584553466579 0.009986936207332209 -0.0008999465448606413 -0.0064369769214480035
 0.995077989972677 -0.053027584493072 0.0039958268906769255 0.02278236712759533 -0.0008995819864391783 -0.006436993417863073 0.0010153115546198085 0.009991541166638805
 0.0010545584553466579 0.009986936207332209 -0.0008995819864391783 -0.006436993417863073 0.003990162318572765 0.022784413395490904 0.9950780519447837 -0.053025821131836154
 -0.0008999465448606413 -0.0064369769214480035 0.0010153115546198085 0.009991541166638805 0.9950780519447837 -0.053025821131836154 0.003995565977086144 0.02278410964593132
0.1375573155481 0.004149605692122171 0.02383024360226891 0.994850904021705 -0.05550004926789976 0.0011277196938376804 0.010452863577432732 -0.0009595276846063646 -0.006735225442137827
 0.994850904021705 -0.05550004926789976 0.004156228511342821 0.02382986294509624 -0.0009591278523318014 -0.0067352446412101965 0.0010846999982692643 0.010457950217406302
 0.0011277196938376804 0.010452863577432732 -0.0009591278523318014 -0.0067352446412101965 0.004150010321545676 0.023832008725466695 0.9948509719139643 -0.05549820064688508
 -0.0009595276846063646 -0.006735225442137827 0.0010846999982692643 0.010457950217406302 0.9948509719139643 -0.05549820064688508 0.004155941822485357 0.023831686545546425
0.1438099208003 0.004314610606079066 0.024873805233949758 0.994616569950357 -0.05796782640343425 0.0012038083385840458 0.010917776025730744 -0.0010214781535465107 -0.007032560231551915
 0.994616569950357 -0.05796782640343425 0.004321849770956853 0.02487339950181658 -0.0010210414301964205 -0.007032582384128028 0.0011568474723932555 0.010923377527893375
 0.0012038083385840458 0.010917776025730744 -0.0010210414301964205 -0.007032582384128028 0.0043150519718623 0.024875645157868057 0.9946166440574348 -0.05796589232805641
 -0.0010214781535465107 -0.007032560231551915 0.0011568474723932555 0.010923377527893375 0.9946166440574348 -0.05796589232805641 0.00432153608015168 0.02487530393298989
0.1500625260525 0.004484765579658571 0.025913367788842432 0.9943750315725375 -0.060430901692049184 0.0012828068720943395 0.011381655240667886 -0.0010857812102923747 -0.007328963474771872
 0.9943750315725375 -0.060430901692049184 0.004492648646512247 0.025912935909680593 -0.0010853059796007702 -0.007328988841493804 0.0012317370804057488 0.011387805947139394
 0.0012828068720943395 0.011381655240667886 -0.0010853059796007702 -0.007328988841493804 0.004485245213285467 0.025915281830498425 0.9943751121931312 -0.06042888196076082
 -0.0010857812102923747 -0.007328963474771872 0.0012317370804057488 0.011387805947139394 0.9943751121931312 -0.06042888196076082 0.004492306724269661 0.025914920907820587
