! Created with skrf 1.8.0 (http://scikit-rf.org).
# GHz S RI R 50.0 
!freq ReS11 ImS11 ReS12 ImS12 ReS13 ImS13
! ReS14 ImS14
! ReS21 ImS21 ReS22 ImS22 ReS23 ImS23
! ReS24 ImS24
! ReS31 ImS31 ReS32 ImS32 ReS33 ImS33
! ReS34 ImS34
! ReS41 ImS41 ReS42 ImS42 ReS43 ImS43
! ReS44 ImS44
!
0.0 0.001667574517384 0.0 0.9983324254817 0.0 6.470600924644e-05 0.0 -6.470600879407e-05 7.924200655525832e-21
 0.9983324254817 0.0 0.001667574517407 0.0 -6.47060087944e-05 7.924200655566245e-21 6.470600924681e-05 0.0
 6.470600924644e-05 0.0 -6.47060087944e-05 7.924200655566245e-21 0.001667574516197 0.0 0.9983324254805 0.0
 -6.470600879407e-05 7.924200655525832e-21 6.470600924681e-05 0.0 0.9983324254805 0.0 0.001667574516198 0.0
0.005 0.0017946064544510814 0.0013605336946464494 0.9981716475334508 -0.003492921848085314 9.135789287956067e-05 0.0007328061510670662 -8.860291841841027e-05 -0.0004564199168218982
 0.9981716475334508 -0.003492921848085314 0.0017945977440585819 0.0013605388420927745 -8.860557503712986e-05 -0.00045642198549643054 9.13867678991095e-05 0.0007327948845229185
 9.135789287956067e-05 0.0007328061510670662 -8.860557503712986e-05 -0.00045642198549643054 0.0017946053208866522 0.0013606016883916173 0.9981716479048467 -0.0034928547786654877
 -8.860291841841027e-05 -0.0004564199168218982 9.13867678991095e-05 0.0007327948845229185 0.9981716479048467 -0.0034928547786654877 0.0017945996236984343 0.0013606049935036306
0.006252605252188 0.001828041557759113 0.0017060181452810553 0.9981290467582516 -0.004366989289735826 9.902896471835284e-05 0.0009163463389770263 -9.540665187451086e-05 -0.0005711123207377624
 0.9981290467582516 -0.004366989289735826 0.0018280279420916032 0.0017060247413349299 -9.541078555630509e-05 -0.0005711148715603724 9.907407583305467e-05 0.0009163317475578441
 9.902896471835284e-05 0.0009163463389770263 -9.541078555630509e-05 -0.0005711148715603724 0.001828039701766798 0.0017061031299274356 0.9981290472551829 -0.004366905468237519
 -9.540665187451086e-05 -0.0005711123207377624 9.907407583305467e-05 0.0009163317475578441 0.9981290472551829 -0.004366905468237519 0.0018280307971770657 0.0017061074128662632
0.01250521050438 0.002004740407750025 0.003447719616946218 0.9979023466481453 -0.008734665858948302 0.0001433209510469582 0.0018329434532171356 -0.00013431460583704586 -0.0011449329660647154
 0.9979023466481453 -0.008734665858948302 0.002004686040408991 0.00344773447538288 -0.00013433089332179698 -0.0011449376818200992 0.0001435007421627603 0.0018329087256324502
 0.0001433209510469582 0.0018329434532171356 -0.00013433089332179698 -0.0011449376818200992 0.0020047324411038916 0.0034478894194794507 0.9979023480814944 -0.008734498492352558
 -0.00013431460583704586 -0.0011449329660647154 0.0001435007421627603 0.0018329087256324502 0.9979023480814944 -0.008734498492352558 0.0020046968979827036 0.0034478995197805076
0.01875781575657 0.00219808158349406 0.005214093306945765 0.997652025832599 -0.013113634475605245 0.000197688794698851 0.0027504087851207793 -0.0001815554294447379 -0.0017205901788736732
 0.997652025832599 -0.013113634475605245 0.002197959416921527 0.0052141182767620085 -0.00018159174658553568 -0.00172059659466415 0.000198092438324364 0.002750347166682713
 0.000197688794698851 0.0027504087851207793 -0.00018159174658553568 -0.00172059659466415 0.002198063247678485 0.0052143480007301665 0.9976520286266147 -0.013113383686970967
 -0.0001815554294447379 -0.0017205901788736732 0.000198092438324364 0.002750347166682713 0.9976520286266147 -0.013113383686970967 0.002197983404969475 0.005214365548171115
0.02501042100875 0.0024084619798829124 0.0070026287230206645 0.9973777725288235 -0.017505985871727275 0.00026224042825532547 0.003668766283596071 -0.00023724994302270168 -0.0022977982143393967
 0.9973777725288235 -0.017505985871727275 0.002408245024447861 0.007002665831315762 -0.00023731406964608585 -0.0022978057783586883 0.00026295698896993547 0.0036686698629362045
 0.00026224042825532547 0.003668766283596071 -0.00023731406964608585 -0.0022978057783586883 0.0024084290257099157 0.007002968475409509 0.9973777771110424 -0.0175056517748411
 -0.00023724994302270168 -0.0022977982143393967 0.00026295698896993547 0.0036686698629362045 0.9973777771110424 -0.0175056517748411 0.0024082872768841222 0.007002995194334329
0.03126302626094 0.0026362620517682857 0.008812017604670654 0.9970792600109671 -0.021912595102239564 0.0003370838910785544 0.004587952525638509 -0.00030151512314474004 -0.002876351280677694
 0.9970792600109671 -0.021912595102239564 0.002635923364473384 0.008812069057291802 -0.00030161475915589273 -0.0028763593532928236 0.0003382024140574083 0.004587812231886318
 0.0003370838910785544 0.004587952525638509 -0.00030161475915589273 -0.0028763593532928236 0.002636210229081887 0.008812442669832969 0.9970792668022715 -0.021912177808860074
 -0.00030151512314474004 -0.002876351280677694 0.0003382024140574083 0.004587812231886318 0.9970792668022715 -0.021912177808860074 0.0026359890147361433 0.0088124803793693
0.037515631513130004 0.00288185370350996 0.010641394593695779 0.9967561548110188 -0.02633388081399702 0.00042232627478156485 0.005507869312549142 -0.00037446496792195675 -0.003456070966669918
 0.9967561548110188 -0.02633388081399702 0.002881366381252211 0.010641462776324011 -0.00037460774141720167 -0.00345607882016935 0.0004239358250586938 0.005507674906620003
 0.00042232627478156485 0.005507869312549142 -0.00037460774141720167 -0.00345607882016935 0.0028817787645085704 0.010641905307194291 0.9967561642297493 -0.02633338043960836
 -0.00037446496792195675 -0.003456070966669918 0.0004239358250586938 0.005507674906620003 0.9967561642297493 -0.02633338043960836 0.002881460568007855 0.010641955921472667
0.043768236765320004 0.003145603338560452 0.012490106136719444 0.9964081200801848 -0.030770036272851957 0.0005180732174018148 0.006428399668539651 -0.0004562107955416991 -0.004036790263893202
 0.9964081200801848 -0.030770036272851957 0.0031449405135464477 0.012490193616293055 -0.0004564042676009414 -0.004036797082461399 0.00052026289792959 0.006428139732567873
 0.0005180732174018148 0.006428399668539651 -0.0004564042676009414 -0.004036797082461399 0.0031455010363692043 0.012490702910722311 0.9964081325395823 -0.03076945294200562
 -0.0004562107955416991 -0.004036790263893202 0.00052026289792959 0.006428139732567873 0.9964081325395823 -0.03076945294200562 0.003145068380231008 0.012490768438999033
0.050020842017509996 0.0034278732581771677 0.014357615000016822 0.9960348173024501 -0.03522112477748929 0.0006244285905867854 0.007349414457117359 -0.0005468613418145323 -0.004618346973749273
 0.9960348173024501 -0.03522112477748929 0.003427008094889494 0.014357724526125378 -0.0005471130095900476 -0.004618351853487165 0.0006272875490471085 0.007349076383152725
 0.0006244285905867854 0.007349414457117359 -0.0005471130095900476 -0.004618351853487165 0.0034277393490750926 0.01435829831859911 0.9960348332120564 -0.035220458628926414
 -0.0005468613418145323 -0.004618346973749273 0.0006272875490471085 0.007349076383152725 0.9960348332120564 -0.035220458628926414 0.0034271747919717055 0.014358380865398621
0.055454545454549996 0.003688493931780977 0.015995437977077805 0.9956896217298792 -0.03910136916493149 0.0007255491514118396 0.008150090608196471 -0.0006329536497683295 -0.005124292714448764
 0.9956896217298792 -0.03910136916493149 0.003687431159314659 0.015995569038394615 -0.0006332619317740299 -0.0051242951068365275 0.0007290621664791793 0.008149673457736662
 0.0007255491514118396 0.008150090608196471 -0.0006332619317740299 -0.0051242951068365275 0.003688329110664517 0.015996196960252892 0.9956896409661848 -0.03910063116359725
 -0.0006329536497683295 -0.005124292714448764 0.0007290621664791793 0.008149673457736662 0.9956896409661848 -0.03910063116359725 0.003687635789543394 0.015996296080044402
0.056273447269699996 0.0037290223692278426 0.016243453390283005 0.9956359073211343 -0.03968712647008208 0.0007414942711529561 0.008270775632289553 -0.0006465227685647987 -0.005200580484218843
 0.9956359073211343 -0.03968712647008208 0.003727928061192543 0.016243587896811986 -0.0006468400671696999 -0.005200582433199263 0.0007451117001486985 0.008270345610691902
 0.0007414942711529561 0.008270775632289553 -0.0006468400671696999 -0.005200582433199263 0.0037288526117724005 0.01624422381617313 0.9956359270851098 -0.03968637765051931
 -0.0006465227685647987 -0.005200580484218843 0.0007451117001486985 0.008270345610691902 0.9956359270851098 -0.03968637765051931 0.003728138746341601 0.016244325581608196
0.06252605252188 0.004049406551539204 0.01814719720032399 0.9952110510299604 -0.0441679640269435 0.000869369954873224 0.009192338035375587 -0.0007552986263345146 -0.005783330006601752
 0.9952110510299604 -0.0441679640269435 0.004048056319318723 0.01814735980706311 -0.0007556889302915486 -0.005783327944948597 0.0008738350873928633 0.00919180104309711
 0.000869369954873224 0.009192338035375587 -0.0007556889302915486 -0.005783327944948597 0.004049196708149436 0.018148055368734275 0.9952110750470572 -0.044167132697705946
 -0.0007552986263345146 -0.005783330006601752 0.0008738350873928633 0.00919180104309711 0.9952110750470572 -0.044167132697705946 0.00404831615784733 0.01814817864881186
0.06877865777407 0.004389378836242167 0.0200684506405449 0.9947599098793203 -0.0486635179693038 0.0010081529937965312 0.010113950472533302 -0.0008732897908212336 -0.006366433537714157
 0.9947599098793203 -0.0486635179693038 0.004387745924829311 0.02006864465501249 -0.0008737604147560284 -0.006366426297696745 0.0010135550957896587 0.01011329026141582
 0.0010081529937965312 0.010113950472533302 -0.0008737604147560284 -0.006366426297696745 0.004389124673581639 0.020069397263931994 0.9947599385428239 -0.04866260430211248
 -0.0008732897908212336 -0.006366433537714157 0.0010135550957896587 0.01011329026141582 0.9947599385428239 -0.04866260430211248 0.004388060091324627 0.02006954445087109
0.07503126302626001 0.004749289474345815 0.022006836515424833 0.9942821462783712 -0.05317363633598542 0.0011579382475757616 0.011035456407633511 -0.00100059438302043 -0.006949727213392477
 0.9942821462783712 -0.05317363633598542 0.00474734715162122 0.022007065434657837 -0.0010011525822901251 -0.006949713539521095 0.0011643666079279567 0.011034655492782123
 0.0011579382475757616 0.011035456407633511 -0.0010011525822901251 -0.006949713539521095 0.004748986764072216 0.022007872379456953 0.9942821799748657 -0.05317264051741815
 -0.00100059438302043 -0.006949727213392477 0.0011643666079279567 0.011034655492782123 0.9942821799748657 -0.05317264051741815 0.004747720829491265 0.022008045962175923
0.08128386827845 0.005129485934862513 0.023961989748064745 0.9937774239297733 -0.05769814111535568 0.0013188179430964936 0.011956694434445447 -0.0011373076791818953 -0.007533044889528385
 0.9937774239297733 -0.05769814111535568 0.00512720748970678 0.023962257260580756 -0.001137960650125479 -0.007533023438675959 0.0013263618618922894 0.011955734082763526
 0.0013188179430964936 0.011956694434445447 -0.001137960650125479 -0.007533023438675959 0.005129130454843816 0.023963115713429274 0.9937774630393368 -0.05769706334542852
 -0.0011373076791818953 -0.007533044889528385 0.0013263618618922894 0.011955734082763526 0.9937774630393368 -0.05769706334542852 0.005127645872376524 0.023963318278066706
0.08753647353064001 0.005530312856935912 0.02593355290949681 0.9932454081232472 -0.06223683268027994 0.0014908815398225743 0.01287749861279664 -0.001283522013469973 -0.008116217866414723
 0.9932454081232472 -0.06223683268027994 0.005527671597468661 0.025933862897337994 -0.0012842768934867997 -0.00811618720793215 0.0014996303150739748 0.012876358831666023
 0.0014908815398225743 0.01287749861279664 -0.0012842768934867997 -0.00811618720793215 0.005529900391787673 0.02593476991529903 0.9932454530187689 -0.06223567316949969
 -0.001283522013469973 -0.008116217866414723 0.0014996303150739748 0.012876358831666023 0.9932454530187689 -0.06223567316949969 0.00552817988855476 0.0259350041458395
0.09378907878283 0.005952111969360183 0.02792117303284365 0.9926857660008201 -0.06678949294650706 0.0016742155989229253 0.013797698722461449 -0.001439326675476307 -0.008699074702675906
 0.9926857660008201 -0.06678949294650706 0.005949081221450371 0.027921529573704938 -0.0014401905430077317 -0.008699033318536104 0.0016842585120719112 0.01379635824864482
 0.0016742155989229253 0.013797698722461449 -0.0014401905430077317 -0.008699033318536104 0.005951638311776353 0.027922482093505667 0.992685817047444 -0.06678825191933872
 -0.001439326675476307 -0.008699074702675906 0.0016842585120719112 0.01379635824864482 0.992685817047444 -0.06678825191933872 0.005949664635321867 0.027922750772524325
0.100041684035 0.006395221987211761 0.02992449928259006 0.9920981668029364 -0.0713558876846048 0.0018689036551458604 0.014717120459043465 -0.001604807804055806 -0.009281441094822197
 0.9920981668029364 -0.0713558876846048 0.0063917750929154945 0.029924906652073317 -0.0016057876783732612 -0.009281387379768344 0.0018803299554858365 0.014715556747863389
 0.0018689036551458604 0.014717120459043465 -0.0016057876783732612 -0.009281387379768344 0.006394682938744824 0.02992590148758886 0.992098224357532 -0.07135456538000536
 -0.001604807804055806 -0.009281441094822197 0.0018803299554858365 0.014715556747863389 0.992098224357532 -0.07135456538000536 0.006392438855202891 0.029926207497059307
0.1059090909091 0.006830714750879892 0.03181838085349639 0.9915210480333297 -0.07565323487648827 0.002061995727444565 0.015579033610028247 -0.0017689688037557474 -0.009827326282854593
 0.9915210480333297 -0.07565323487648827 0.006826853115555337 0.031818839987204674 -0.001770063869158026 -0.009827259459021518 0.00207480131805314 0.015577238759269552
 0.002061995727444565 0.015579033610028247 -0.001770063869158026 -0.009827259459021518 0.006830110530469125 0.031819871524185105 0.99152111201201 -0.07565183653034967
 -0.0017689688037557474 -0.009827326282854593 0.00207480131805314 0.015577238759269552 0.99152111201201 -0.07565183653034967 0.006827597039295788 0.03182021527474363
0.1062942892872 0.006859978491251292 0.031943181200393786 0.9914822821003879 -0.07593576826399188 0.002075026090376331 0.01563558559716896 -0.0017800482786103872 -0.00986313979733288
 0.9914822821003879 -0.07593576826399188 0.0068560888075568874 0.031943643874331705 -0.001781151119586335 -0.009863072059043633 0.00208792497854548 0.015633774811867448
 0.002075026090376331 0.01563558559716896 -0.001781151119586335 -0.009863072059043633 0.006859369863399617 0.03194467771617381 0.9914823465112563 -0.07593436493391385
 -0.0017800482786103872 -0.00986313979733288 0.00208792497854548 0.015633774811867448 0.9914823465112563 -0.07593436493391385 0.006856838155414494 0.03194502403830238
0.11254689453939999 0.0073467137940518255 0.033976867382912945 0.990837786017182 -0.08052887297423388 0.0022926600089036293 0.016552912125375734 -0.001965127608270153 -0.010443990578827405
 0.990837786017182 -0.08052887297423388 0.007342354691327923 0.03397739003983354 -0.0019663603159675376 -0.010443907038083705 0.002307120619582946 0.016550829126815828
 0.0022926600089036293 0.016552912125375734 -0.0019663603159675376 -0.010443907038083705 0.007346031409178318 0.03397845945339458 0.9908378576231933 -0.08052738888329457
 -0.001965127608270153 -0.010443990578827405 0.002307120619582946 0.016550829126815828 0.9908378576231933 -0.08052738888329457 0.007343194873671814 0.033978849171798206
0.11879949979160001 0.007855756796712667 0.03602520444642606 0.990164355446411 -0.08513492806895781 0.0025218791139071614 0.01746891436818197 -0.0021601218195926304 -0.01102381019922091
 0.990164355446411 -0.08513492806895781 0.007850901657294898 0.03602579197009599 -0.00216149123394576 -0.011023708990114872 0.0025379904976566563 0.017466532704835537
 0.0025218791139071614 0.01746891436818197 -0.00216149123394576 -0.011023708990114872 0.00785499648928466 0.036026893394592446 0.9901644345770274 -0.08513336349315516
 -0.0021601218195926304 -0.01102381019922091 0.0025379904976566563 0.017466532704835537 0.9901644345770274 -0.08513336349315516 0.007851837935499137 0.03602732969527271
0.1250521050438 0.008387432836481652 0.03808783622708815 0.9894616702606479 -0.08975364858372385 0.002762753584878484 0.018383403094026137 -0.002365103343365952 -0.011602412409183865
 0.9894616702606479 -0.08975364858372385 0.0083820550537718 0.03808849370912637 -0.002366616243664936 -0.01160229157931076 0.002780604689434339 0.01838069499225641
 0.002762753584878484 0.018383403094026137 -0.002366616243664936 -0.01160229157931076 0.008386590454356012 0.038089623453040386 0.9894617572350666 -0.08975200381248491
 -0.002365103343365952 -0.011602412409183865 0.002780604689434339 0.01838069499225641 0.9894617572350666 -0.08975200381248491 0.008383092701761179 0.038090109625708024
0.131304710296 0.008942063529158004 0.04016440314067553 0.988729413519039 -0.09438473900408818 0.0030153499561499054 0.019296185618762264 -0.0025801409008498555 -0.012179607962291401
 0.988729413519039 -0.09438473900408818 0.008936136506141655 0.040165135883377716 -0.0025818040051334232 -0.012179465472982001 0.003035029607033521 0.0192931219734208
 0.0030153499561499054 0.019296185618762264 -0.0025818040051334232 -0.012179465472982001 0.008941134934018777 0.04016629012150708 0.9887295086453441 -0.09438301434059336
 -0.0025801409008498555 -0.012179607962291401 0.003035029607033521 0.0192931219734208 0.9887295086453441 -0.09438301434059336 0.008937280810521645 0.040166829560902714
0.1375573155481 0.009397138014898228 0.041983433033549546 0.9880901571795 -0.09875662807823839 0.003249021946796479 0.020180263495918505 -0.002774576633078725 -0.012728439702678895
 0.9880901571795 -0.09875662807823839 0.009390633956047313 0.04198423055768547 -0.0027764000185902396 -0.012728275271390277 0.00327058444252287 0.020176846973524936
 0.003249021946796479 0.020180263495918505 -0.0027764000185902396 -0.012728275271390277 0.009396119783127228 0.041985421084476865 0.9880902608096485 -0.09875482379010198
 -0.002774576633078725 -0.012728439702678895 0.00327058444252287 0.020176846973524936 0.9880902608096485 -0.09875482379010198 0.009391889423943365 0.04198600172194532
0.1438099208003 0.009868349952356683 0.0437920638889372 0.9874281670827004 -0.103116620595737 0.0034921102230440247 0.021060312599686267 -0.0029767650962263963 -0.013273558683160889
 0.9874281670827004 -0.103116620595737 0.00986124210547641 0.04379293037699324 -0.0029787559974711495 -0.013273370290491537 0.0035156379778515873 0.02105651626216147
 0.0034921102230440247 0.021060312599686267 -0.0029787559974711495 -0.013273370290491537 0.009867238095481979 0.04379415454276421 0.9874282795169328 -0.10311473699758314
 -0.0029767650962263963 -0.013273558683160889 0.0035156379778515873 0.02105651626216147 0.9874282795169328 -0.10311473699758314 0.009862613905558567 0.04379477863050495
0.1500625260525 0.0103555214493994 0.045590120464490014 0.9867436258073807 -0.10746458388353841 0.0037445233240290476 0.021936228392682926 -0.0031866169045054404 -0.013814865794501814
 0.9867436258073807 -0.10746458388353841 0.010347783066023344 0.04559106029369327 -0.0031887825376052427 -0.013814651339802935 0.003770098238311624 0.02193202430585071
 0.0037445233240290476 0.021936228392682926 -0.0031887825376052427 -0.013814651339802935 0.010354312001441343 0.04559231531736295 0.986743747335681 -0.10746262130058946
 -0.0031866169045054404 -0.013814865794501814 0.003770098238311624 0.02193202430585071 0.986743747335681 -0.10746262130058946 0.010349276371711796 0.04559298522340067
0.15631513130469998 0.010858473202173246 0.04737743274785333 0.9860367170264956 -0.11180038627239358 0.0040061686226386785 0.02280790828404593 -0.003404041490196672 -0.014352264165156618
 0.9860367170264956 -0.11180038627239358 0.010850077536904808 0.04737845049115071 -0.003406389052451304 -0.014352021466973296 0.00403387207386333 0.02280326752830797
