! Created with skrf 1.8.0 (http://scikit-rf.org).
# GHz S RI R 50.0 
!freq ReS11 ImS11 ReS12 ImS12 ReS13 ImS13
! ReS14 ImS14
! ReS21 ImS21 ReS22 ImS22 ReS23 ImS23
! ReS24 ImS24
! ReS31 ImS31 ReS32 ImS32 ReS33 ImS33
! ReS34 ImS34
! ReS41 ImS41 ReS42 ImS42 ReS43 ImS43
! ReS44 ImS44
!
0.0 0.001769975369298 0.0 0.9982300246298 0.0 6.879138880611e-05 0.0 -6.879138791834e-05 8.424515302309899e-21
 0.9982300246298 0.0 0.001769975369316 0.0 -6.879138791834e-05 8.424515302309899e-21 6.879138880681e-05 0.0
 6.879138880611e-05 0.0 -6.879138791834e-05 8.424515302309899e-21 0.001769975369296 0.0 0.9982300246298 0.0
 -6.879138791834e-05 8.424515302309899e-21 6.879138880681e-05 0.0 0.9982300246298 0.0 0.001769975369311 0.0
0.005 0.0019051335314155973 0.0014446830578129833 0.9980589060519913 -0.0037069411985770537 9.719480744975584e-05 0.0007739386720970238 -9.426816549601141e-05 -0.00048284747638036143
 0.9980589060519913 -0.0037069411985770537 0.0019051256949877712 0.0014446875966104373 -9.426833321487945e-05 -0.0004828475258539425 9.723011871919821e-05 0.0007739249561428585
 9.719480744975584e-05 0.0007739386720970238 -9.426833321487945e-05 -0.0004828475258539425 0.001905133468261207 0.0014446157607430178 0.9980589056743997 -0.0037070082633071802
 -9.426816549601141e-05 -0.00048284747638036143 9.723011871919821e-05 0.0007739249561428585 0.9980589056743997 -0.0037070082633071802 0.0019051250154335998 0.001444620777249451
0.006252605252188 0.0019408078756940276 0.001811517472202376 0.9980134220393715 -0.004634548086734363 0.00010542497733542603 0.0009677767189434474 -0.0001015680623405032 -0.0006041733752362772
 0.9980134220393715 -0.004634548086734363 0.0019407956271776897 0.0018115233035545877 -0.00010156832396322013 -0.0006041734344749876 0.00010548014429020758 0.0009677589392763967
 0.00010542497733542603 0.0009677767189434474 -0.00010156832396322013 -0.0006041734344749876 0.0019408078487692518 0.001811433353552791 0.9980134215200932 -0.004634631913689734
 -0.0001015680623405032 -0.0006041733752362772 0.00010548014429020758 0.0009677589392763967 0.9980134215200932 -0.004634631913689734 0.001940794635533914 0.001811439796931427
0.01250521050438 0.0021299228473986545 0.0036607393993205576 0.9977705615957863 -0.00926964802900438 0.00015323323514369538 0.0019357637112838646 -0.00014355981436994206 -0.0012111382968800718
 0.9977705615957863 -0.00926964802900438 0.002129873954367833 0.00366075267225761 -0.0001435608530035116 -0.001211138385364317 0.00015345312363980584 0.0019357212069894354
 0.00015323323514369538 0.0019357637112838646 -0.0001435608530035116 -0.001211138385364317 0.0021299233193896767 0.00366057141609924 0.9977705600872565 -0.00926981545176672
 -0.00014355981436994206 -0.0012111382968800718 0.00015345312363980584 0.0019357212069894354 0.9977705600872565 -0.00926981545176672 0.00212987055666313 0.0036605860725939378
0.01875781575657 0.0023377797390094516 0.005535955659435506 0.9975011084877637 -0.013916527703573699 0.00021233452039057577 0.0029045910123545703 -0.00019490594620575052 -0.0018199634298173267
 0.9975011084877637 -0.013916527703573699 0.0023376699032998673 0.005535978122469858 -0.00019490827284753697 -0.0018199635079228112 0.00021282823066890672 0.0029045152728143873
 0.00021233452039057577 0.0029045910123545703 -0.00019490827284753697 -0.0018199635079228112 0.002337781241225459 0.005535703948878766 0.9975011055075028 -0.013916778695045111
 -0.00019490594620575052 -0.0018199634298173267 0.00021282823066890672 0.0029045152728143873 0.9975011055075028 -0.013916778695045111 0.002337662675623978 0.00553572875752006
0.02501042100875 0.0025648215453337726 0.007434476143957151 0.9972047135001642 -0.01857737903599493 0.0002828482285054784 0.0038742655446341936 -0.0002557400837957174 -0.0024303317227219613
 0.9972047135001642 -0.01857737903599493 0.0025646265381934516 0.0074345096798270945 -0.00025574420658769587 -0.0024303317408863505 0.0002837247518299019 0.003874146554135285
 0.0002828482285054784 0.0038742655446341936 -0.00025574420658769587 -0.0024303317408863505 0.0025648246359497033 0.007434140882989186 0.9972047085714765 -0.01857771361681109
 -0.0002557400837957174 -0.0024303317227219613 0.0002837247518299019 0.003874146554135285 0.9972047085714765 -0.01857771361681109 0.002564614067645857 0.007434177947971784
0.03126302626094 0.0028114728091419134 0.00935488572326136 0.9968810114610676 -0.023253103021855594 0.00036489352583571615 0.004844702115765941 -0.00032619128836981444 -0.003042009502062835
 0.9968810114610676 -0.023253103021855594 0.002811168459894185 0.00935493234909227 -0.0003261977129768254 -0.003042009400688558 0.0003662618491556954 0.004844528348348326
 0.00036489352583571615 0.004844702115765941 -0.0003261977129768254 -0.003042009400688558 0.0028114780631767725 0.009354467114151745 0.9968810041001224 -0.023253521274838602
 -0.00032619128836981444 -0.003042009502062835 0.0003662618491556954 0.004844528348348326 0.9968810041001224 -0.023253521274838602 0.002811149334831513 0.009354518705316435
0.037515631513130004 0.0030781482256431463 0.011296238398239143 0.9965296302354166 -0.027944115520169264 0.00045858817954006 0.005815778588607527 -0.00040638498444613386 -0.0036547913452498527
 0.9965296302354166 -0.027944115520169264 0.003077710413930829 0.011296300265825546 -0.0004063942141786826 -0.0036547910546061574 0.0004605573307192087 0.005815536995905377
 0.00045858817954006 0.005815778588607527 -0.0004063942141786826 -0.0036547910546061574 0.003078156234407614 0.01129573669775602 0.9965296199482332 -0.02794461756113957
 -0.00040638498444613386 -0.0036547913452498527 0.0004605573307192087 0.005815536995905377 0.9965296199482332 -0.02794461756113957 0.003077683223790426 0.011295805251576797
0.043768236765320004 0.00336525594796146 0.013257812101099052 0.996150194420874 -0.03265059238652557 0.0005640479843483578 0.006787352679331701 -0.000496443272308615 -0.004268483322666318
 0.996150194420874 -0.03265059238652557 0.0033646605985180288 0.013257891497431912 -0.0004964558081023474 -0.004268482762814811 0.0005667270517362788 0.006787028676243727
 0.0005640479843483578 0.006787352679331701 -0.0004964558081023474 -0.004268482762814811 0.0033652673252040815 0.01325722761141704 0.9961501807068904 -0.03265117837335374
 -0.000496443272308615 -0.004268483322666318 0.0005667270517362788 0.006787028676243727 0.9961501807068904 -0.03265117837335374 0.0033646239405526325 0.013257315731922296
0.050020842017509996 0.003673199105790469 0.015239007350121151 0.9957423272601486 -0.03737257075199472 0.0006813864027380768 0.007759268900508668 -0.0005964850185415797 -0.0048828960984784115
 0.9957423272601486 -0.03737257075199472 0.003672422183515784 0.015239106698068425 -0.0005965013588560805 -0.00488289517921025 0.0006848845414086162 0.0077588463500181445
 0.0006813864027380768 0.007759268900508668 -0.0005965013588560805 -0.00488289517921025 0.003673214485918966 0.015238340426539253 0.9957423096075233 -0.037373240876874964
 -0.0005964850185415797 -0.0048828960984784115 0.0006848845414086162 0.0077588463500181445 0.9957423096075233 -0.037373240876874964 0.003672374661769229 0.015238450886526762
0.055454545454549996 0.003958041835754413 0.016976250864041684 0.9953644958299022 -0.041488663504265465 0.0007930901007873287 0.008604043255867794 -0.0006916220007414092 -0.005417278695489224
 0.9953644958299022 -0.041488663504265465 0.003957087629846934 0.016976369624310435 -0.0006916420501504134 -0.00541727738258419 0.0007973887346824012 0.008603520742492033
 0.0007930901007873287 0.008604043255867794 -0.0006916420501504134 -0.00541727738258419 0.003958061228396789 0.01697551262867554 0.9953644743308919 -0.0414894069343681
 -0.0006916220007414092 -0.005417278695489224 0.0007973887346824012 0.008603520742492033 0.9953644743308919 -0.0414894069343681 0.003957029541511963 0.01697564488624057
0.056273447269699996 0.00400237655542058 0.01723929751652678 0.9953056517894716 -0.04210999869457294 0.0008107142966269423 0.008731361991594909 -0.0007066258502256756 -0.005497841550306042
 0.9953056517894716 -0.04210999869457294 0.004001394061290951 0.01723941937559127 -0.0007066464909887424 -0.005497840171066928 0.0008151407261566465 0.008730823189246738
 0.0008107142966269423 0.008731361991594909 -0.0007066464909887424 -0.005497840171066928 0.004002396596677345 0.017238548562082987 0.9953056296758296 -0.04211075318928451
 -0.0007066258502256756 -0.005497841550306042 0.0008151407261566465 0.008730823189246738 0.9953056296758296 -0.04211075318928451 0.004001334290017758 0.017238684304410227
0.06252605252188 0.004353183261912995 0.019258201493988648 0.9948397916252465 -0.04686276251491745 0.0009521397079262777 0.00970345880442377 -0.0008269780965590252 -0.006113130941406566
 0.9948397916252465 -0.04686276251491745 0.00435197122909159 0.019258348561233166 -0.0008270035309632823 -0.0061131289912384704 0.0009576037049447996 0.00970278446270287
 0.0009521397079262777 0.00970345880442377 -0.0008270035309632823 -0.0061131289912384704 0.004353208646510134 0.01925737096398526 0.9948397645149717 -0.04686360164604329
 -0.0008269780965590252 -0.006113130941406566 0.0009576037049447996 0.00970278446270287 0.9948397645149717 -0.04686360164604329 0.004351897833930477 0.01925753510301957
0.06877865777407 0.004726010470384502 0.02129526740688515 0.9943443715444026 -0.05163070298148732 0.0011057676624895562 0.010675379451268037 -0.0009576507044284531 -0.0067285738385239125
 0.9943443715444026 -0.05163070298148732 0.004724544960487992 0.021295442518046943 -0.0009576814228015591 -0.006728571196013739 0.0011123785492062543 0.010674548684061756
 0.0011057676624895562 0.010675379451268037 -0.0009576814228015591 -0.006728571196013739 0.004726041906170775 0.021294355806523797 0.9943443388874824 -0.051631627052597696
 -0.0009576507044284531 -0.0067285738385239125 0.0011123785492062543 0.010674548684061756 0.9943443388874824 -0.051631627052597696 0.004724456580596253 0.021294551629669516
0.07503126302626001 0.005121245759550458 0.02335006228707539 0.9938190179527331 -0.056413625616678426 0.0012716999915916875 0.011646938043741107 -0.0010987491342002694 -0.007343977447730107
 0.9938190179527331 -0.056413625616678426 0.0051195028591875195 0.023350268417705766 -0.001098785623822652 -0.0073439739809512345 0.0012795671215232083 0.011645928350891671
 0.0012716999915916875 0.011646938043741107 -0.001098785623822652 -0.0073439739809512345 0.005121283981818244 0.023349070176626723 0.993818979183787 -0.05641463496272314
 -0.0010987491342002694 -0.007343977447730107 0.0012795671215232083 0.011645928350891671 0.993818979183787 -0.05641463496272314 0.005119398149839535 0.023349301146016736
0.08128386827845 0.005539273015398049 0.025422165224749747 0.9932633592780464 -0.061211307518655736 0.0014500351616916999 0.012617943201328167 -0.0012503752455909497 -0.007959146189710244
 0.9932633592780464 -0.061211307518655736 0.005537228832625496 0.025422405491598375 -0.0012504179904720093 -0.007959141756181832 0.0014592679030295441 0.012616730453443517
 0.0014500351616916999 0.012617943201328167 -0.0012504179904720093 -0.007959141756181832 0.0055393187873915735 0.025421093211286022 0.9932633138139476 -0.061212402513910774
 -0.0012503752455909497 -0.007959146189710244 0.0014592679030295441 0.012616730453443517 0.9932633138139476 -0.061212402513910774 0.005537106466621167 0.025421362965581
0.08753647353064001 0.005980472354926064 0.02751116262732292 0.9926770263176057 -0.06602350208588344 0.0016408681113141723 0.013588198418239947 -0.0014126271749953612 -0.008573881426290043
 0.9926770263176057 -0.06602350208588344 0.00597810301583199 0.02751144028981701 -0.001412676655707025 -0.008573875872933786 0.0016515758284698118 0.013586756841738375
 0.0016408681113141723 0.013588198418239947 -0.001412676655707025 -0.008573875872933786 0.005980526469765486 0.027510011371144963 0.9926769735567944 -0.06602468313699114
 -0.0014126271749953612 -0.008573881426290043 0.0016515758284698118 0.013586756841738375 0.9926769735567944 -0.06602468313699114 0.005977961685976732 0.027510323727544424
0.09378907878283 0.006445220013868161 0.029616644851022132 0.9920596525549742 -0.070849942379895 0.0018442900919050495 0.014557502346991425 -0.0015855992079592909 -0.009187981279856058
 0.9920596525549742 -0.070849942379895 0.0064425016592711964 0.02961696331293369 -0.0015856559014140272 -0.009187974442967348 0.001856582125534558 0.014555804509484271
 0.0018442900919050495 0.014557502346991425 -0.0015856559014140272 -0.009187974442967348 0.0064452832959625865 0.029615415064499596 0.9920595918753947 -0.07085120992638005
 -0.0015855992079592909 -0.009187981279856058 0.001856582125534558 0.014555804509484271 0.9920595918753947 -0.07085120992638005 0.006442340080668136 0.0296157740207535
0.100041684035 0.006933888209642986 0.03173820374338299 0.991410874454965 -0.07569034358853374 0.002060388512219978 0.015525649019123523 -0.0017693816475927396 -0.009801240525723717
 0.991410874454965 -0.07569034358853374 0.006930796991722083 0.03173856655464584 -0.0017694460268154407 -0.009801232230938744 0.0020743741578289235 0.015523665815100073
 0.002060388512219978 0.015525649019123523 -0.0017694460268154407 -0.009801232230938744 0.006933961515893623 0.0317368961859896 0.9914108052130898 -0.07569169810718376
 -0.0017693816475927396 -0.009801240525723717 0.0020743741578289235 0.015523665815100073 0.9914108052130898 -0.07569169810718376 0.006930613903786354 0.03173730592272175
0.1059090909091 0.007414534852831213 0.033743319411854135 0.9907731821480997 -0.08024497626888459 0.0022747773985598565 0.01643291210949865 -0.001951750750320312 -0.010375768951890869
 0.9907731821480997 -0.08024497626888459 0.007411072060217617 0.0337437272008393 -0.0019518227683864506 -0.010375759120937767 0.0022904516625027642 0.01643063314545227
 0.0022747773985598565 0.01643291210949865 -0.0019518227683864506 -0.010375759120937767 0.007414618375622834 0.03374193961070056 0.9907731042652668 -0.08024641286453231
 -0.001951750750320312 -0.010375768951890869 0.0022904516625027642 0.01643063314545227 0.9907731042652668 -0.08024641286453231 0.007410867665556099 0.033742400966696916
0.1062942892872 0.007446844984190581 0.03387543079553193 0.9907303317434495 -0.08054440489141887 0.0022892467849240515 0.01649242803497304 -0.001964060680481766 -0.010413450525483967
 0.9907303317434495 -0.08054440489141887 0.007443357063341331 0.03387584165421358 -0.0019641332144222025 -0.0104134405877617 0.0023050352704191584 0.01649012867184935
 0.0022892467849240515 0.01649242803497304 -0.0019641332144222025 -0.0104134405877617 0.007446929205884168 0.033874046277344444 0.9907302532722858 -0.08054584689196534
 -0.001964060680481766 -0.010413450525483967 0.0023050352704191584 0.01649012867184935 0.9907302532722858 -0.08054584689196534 0.007443151232436794 0.03387451116037291
0.11254689453939999 0.007984454034275274 0.03602791575238137 0.9900176676766321 -0.08541181087937548 0.0025309441754535335 0.017457624725017537 -0.0021697182406323614 -0.011024399199159877
 0.9900176676766321 -0.08541181087937548 0.007980545575553786 0.036028378506843234 -0.00216979939387499 -0.011024387422762535 0.00254864463754406 0.017454976709601406
 0.0025309441754535335 0.017457624725017537 -0.00216979939387499 -0.011024387422762535 0.007984550097912688 0.036026455133980784 0.9900175792843231 -0.08541334090369429
 -0.0021697182406323614 -0.011024399199159877 0.00254864463754406 0.017454976709601406 0.9900175792843231 -0.08541334090369429 0.007980315796678687 0.036026979716924847
0.11879949979160001 0.008547074529112278 0.038195245534026694 0.9892725293020026 -0.09029223267521252 0.0027855556523794086 0.018421020294493228 -0.0023864318724595318 -0.011633871024585678
 0.9892725293020026 -0.09029223267521252 0.008542721699225191 0.03819576418526946 -0.0023865221050226337 -0.011633857203073219 0.0028052771121148796 0.018417989419884154
 0.0027855556523794086 0.018421020294493228 -0.0023865221050226337 -0.011633857203073219 0.00854718339826807 0.03819370972556524 0.989272430270363 -0.09029385129732213
 -0.0023864318724595318 -0.011633871024585678 0.0028052771121148796 0.018417989419884154 0.989272430270363 -0.09029385129732213 0.008542466798961397 0.038194298752533294
0.1250521050438 0.009135060920782628 0.04037700340351303 0.9884945677138656 -0.09518532882075964 0.0030531517395995917 0.019382391962025115 -0.002614274592916122 -0.012241647053340212
 0.9884945677138656 -0.09518532882075964 0.009130239884819435 0.04037758210763145 -0.002614374360035564 -0.012241630969562284 0.003075003076928703 0.019378942294919148
 0.0030531517395995917 0.019382391962025115 -0.002614374360035564 -0.012241630969562284 0.009135183597388595 0.04037539336012796 0.9884944572965596 -0.09518703665038995
 -0.002614274592916122 -0.012241647053340212 0.003075003076928703 0.019378942294919148 0.9884944572965596 -0.09518703665038995 0.009129958723009944 0.040376051768585254
0.131304710296 0.009748762746392102 0.04257276830143576 0.987683438303374 -0.10009074601022927 0.0033337983701288835 0.02034151308616641 -0.0028533147533557697 -0.012847504949526196
 0.987683438303374 -0.10009074601022927 0.00974344966462001 0.04257341137235588 -0.0028534245051812838 -0.012847486375660029 0.003357888297769928 0.020337606954675007
 0.0033337983701288835 0.02034151308616641 -0.0028534245051812838 -0.012847486375660029 0.009748900272391989 0.04257108502948659 0.9876833157246124 -0.10009254368530948
 -0.0028533147533557697 -0.012847504949526196 0.003357888297769928 0.020337606954675007 0.9876833157246124 -0.10009254368530948 0.009743141137277589 0.042571817953293144
0.1375573155481 0.010255732858742886 0.044495971168612626 0.9869716624002718 -0.10472179049619317 0.0035943288310120785 0.021270380399800594 -0.0030703726551655126 -0.01342349359898556
 0.9869716624002718 -0.10472179049619317 0.010249900664394877 0.04449666711942902 -0.003070492843736445 -0.01342347248547515 0.003620721353343569 0.021266019944659115
 0.0035943288310120785 0.021270380399800594 -0.003070492843736445 -0.01342347248547515 0.010255885075187278 0.044494216012128954 0.9869715270744563 -0.10472367842507319
 -0.0030703726551655126 -0.01342349359898556 0.003620721353343569 0.021266019944659115 0.9869715270744563 -0.10472367842507319 0.01024956453669121 0.04449501176646017
0.1438099208003 0.01078076217409991 0.046407539025166845 0.9862343987120139 -0.10933957993660307 0.003865332081338713 0.02219460619652689 -0.003296052882319242 -0.013995193535211089
 0.9862343987120139 -0.10933957993660307 0.01077438649795877 0.046408291076988836 -0.0032961839513678793 -0.013995169662627592 0.0038941276087312905 0.022189756465883302
 0.003865332081338713 0.02219460619652689 -0.0032961839513678793 -0.013995169662627592 0.010780929963922478 0.046405713104258846 0.9862342498596374 -0.10934155874847303
 -0.003296052882319242 -0.013995193535211089 0.0038941276087312905 0.022189756465883302 0.9862342498596374 -0.10934155874847303 0.01077402187477695 0.046406575639341155
0.1500625260525 0.011323642443575394 0.048307267582528284 0.9854718605392814 -0.11394395432282246 0.004146699554950856 0.023114067842075026 -0.0035302491926656123 -0.014562488688609187
 0.9854718605392814 -0.11394395432282246 0.011316698885831908 0.048308079122804715 -0.0035303915812392667 -0.014562461829281148 0.00417799782604324 0.023108692591322207
 0.004146699554950856 0.023114067842075026 -0.0035303915812392667 -0.014562461829281148 0.011323826714343573 0.048305372060269296 0.9854716973553042 -0.11394602467071266
 -0.0035302491926656123 -0.014562488688609187 0.00417799782604324 0.023108692591322207 0.9854716973553042 -0.11394602467071266 0.01131630491709312 0.048306305517891404
0.15631513130469998 0.011884163654187294 0.05019495864750612 0.9846842625841562 -0.11853475523970271 0.004438321242175723 0.024028645141783992 -0.003772853885006711 -0.01512526573816014
 0.9846842625841562 -0.11853475523970271 0.011876627782873218 0.05019583323216813 -0.0037730080273331574 -0.015125235656285704 0.004472221311768053 0.02402270684798127
