! Created with skrf 1.8.0 (http://scikit-rf.org).
# GHz S RI R 50.0 
!freq ReS11 ImS11 ReS12 ImS12 ReS13 ImS13
! ReS14 ImS14
! ReS21 ImS21 ReS22 ImS22 ReS23 ImS23
! ReS24 ImS24
! ReS31 ImS31 ReS32 ImS32 ReS33 ImS33
! ReS34 ImS34
! ReS41 ImS41 ReS42 ImS42 ReS43 ImS43
! ReS44 ImS44
!
0.0 0.001561348388431 0.0 0.9984386515888 0.0 6.029232823899e-05 0.0 -6.029232806168e-05 7.383680657387856e-21
 0.9984386515888 0.0 0.001561348388457 0.0 -6.029232806254e-05 7.383680657493176e-21 6.029232824055e-05 0.0
 6.029232823899e-05 0.0 -6.029232806254e-05 7.383680657493176e-21 0.001561348399834 0.0 0.9984386516002 0.0
 -6.029232806168e-05 7.383680657387856e-21 6.029232824055e-05 0.0 0.9984386516002 0.0 0.001561348399812 0.0
0.005 0.001679948470342404 0.001276591223843806 0.9982886078873043 -0.0032705602798604625 8.45684523446687e-05 0.0006685612665071334 -8.214117680009081e-05 -0.0004188866994600459
 0.9982886078873043 -0.0032705602798604625 0.0016799428600374616 0.0012765944657508114 -8.214067589203774e-05 -0.00041888625657453537 8.459510865886218e-05 0.0006685509279557806
 8.45684523446687e-05 0.0006685612665071334 -8.214067589203774e-05 -0.00041888625657453537 0.0016799486650342186 0.001276523806638366 0.9982886075281412 -0.0032706273277218587
 -8.214117680009081e-05 -0.0004188866994600459 8.459510865886218e-05 0.0006685509279557806 0.9982886075281412 -0.0032706273277218587 0.0016799419508299503 0.0012765277899192558
0.006252605252188 0.0017110705867535239 0.001600761654320998 0.9982489864327352 -0.00408899800101301 9.150041995757704e-05 0.0008360232406969645 -8.831621745325389e-05 -0.0005241499043319103
 0.9982489864327352 -0.00408899800101301 0.0017110618177712926 0.001600765824558783 -8.831543846044182e-05 -0.0005241493570335319 9.154206569632362e-05 0.0008360098461391293
 9.150041995757704e-05 0.0008360232406969645 -8.831543846044182e-05 -0.0005241493570335319 0.0017110709694353062 0.001600677357653501 0.9982489859491471 -0.004089081831387351
 -8.831621745325389e-05 -0.0005241499043319103 9.154206569632362e-05 0.0008360098461391293 0.9982489859491471 -0.004089081831387351 0.001711060473926653 0.001600682466677491
0.01250521050438 0.0018750024090197985 0.003235055620614566 0.9980389113294926 -0.008178784891637533 0.00013123531206619954 0.0016723927667036179 -0.00012338631931803587 -0.0010508340227003614
 0.9980389113294926 -0.008178784891637533 0.0018749674057630707 0.003235065157182601 -0.00012338325496911607 -0.0010508329966216962 0.00013140131693267307 0.0016723608653537638
 0.00013123531206619954 0.0016723927667036179 -0.00012338325496911607 -0.0010508329966216962 0.0018750044922780423 0.003234887254119083 0.9980389099446327 -0.008178952282673062
 -0.00012338631931803587 -0.0010508340227003614 0.00013140131693267307 0.0016723608653537638 0.9980389099446327 -0.008178952282673062 0.001874962580196088 0.0032348988015178013
0.01875781575657 0.002053505587203737 0.004892597886040137 0.9978081623470304 -0.012279310743293538 0.0001795904341979989 0.0025096712213578103 -0.00016561147287877482 -0.001579285653620263
 0.9978081623470304 -0.012279310743293538 0.0020534269548124467 0.004892614071535943 -0.00016560464706402754 -0.0015792842286708256 0.0001799631850103763 0.002509614650778433
 0.0001795904341979989 0.0025096712213578103 -0.00016560464706402754 -0.0015792842286708256 0.002053510702694592 0.004892345476804436 0.9978081596510403 -0.012279561630413974
 -0.00016561147287877482 -0.001579285653620263 0.0001799631850103763 0.002509614650778433 0.9978081596510403 -0.012279561630413974 0.0020534165163890875 0.0048923649157026185
0.02501042100875 0.0022469309491813887 0.0065710619912668095 0.9975564650235784 -0.01639255703275645 0.00023666020712689897 0.003347892256326519 -0.0002150969137446978 -0.002109261026754473
 0.9975564650235784 -0.01639255703275645 0.002246791343190314 0.006571086192213841 -0.00021508487056183314 -0.0021092592958396822 0.00023732202594583442 0.0033478038504528513
 0.00023666020712689897 0.003347892256326519 -0.00021508487056183314 -0.0021092592958396822 0.0022469404418747107 0.0065707255613883155 0.9975564606110274 -0.01639289136230997
 -0.0002150969137446978 -0.002109261026754473 0.00023732202594583442 0.0033478038504528513 0.9975564606110274 -0.01639289136230997 0.002246773163462454 0.0065707544653600646
0.03126302626094 0.0024556148321693947 0.008269247592768583 0.9972835310421715 -0.020519368048424344 0.0003025393780423518 0.0041870118955219275 -0.00027194485869557193 -0.002640587985780451
 0.9972835310421715 -0.020519368048424344 0.0024553969510726103 0.008269281259415957 -0.0002719261590201669 -0.0026405860549605052 0.00030357260264198937 0.004186883481810007
 0.0003025393780423518 0.0041870118955219275 -0.0002719261590201669 -0.0026405860549605052 0.0024556300502757175 0.008268827139200238 0.9972835245013145 -0.02051978579790267
 -0.00027194485869557193 -0.002640587985780451 0.00030357260264198937 0.004186883481810007 0.9972835245013145 -0.02051978579790267 0.002455368893171232 0.008268867202343835
0.037515631513130004 0.0026798862507140943 0.009986369692107465 0.9969890656385234 -0.02466016159880597 0.00037732213519694866 0.005026955445401367 -0.0003362552476621753 -0.0031731190874360036
 0.9969890656385234 -0.02466016159880597 0.002679572831021175 0.009986414358653274 -0.0003362284673450779 -0.0031731170759359694 0.00037880915472934763 0.005026777836954777
 0.00037732213519694866 0.005026955445401367 -0.0003362284673450779 -0.0031731170759359694 0.002679908553182751 0.009985865202425661 0.9969890565580473 -0.024660662760985032
 -0.0003362552476621753 -0.0031731190874360036 0.00037880915472934763 0.005026777836954777 0.9969890565580473 -0.024660662760985032 0.0026795327569928197 0.009985918240031665
0.043768236765320004 0.002920069680238362 0.011721842308405542 0.9966727706244944 -0.028815145268778007 0.00046110169081305764 0.0058676317512378826 -0.00040812600368581416 -0.0037067173511399305
 0.9966727706244944 -0.028815145268778007 0.002919643493143762 0.011721899593025007 -0.00040808973253161923 -0.0037067153913005082 0.00046312496212782986 0.005867394737307916
 0.00046110169081305764 0.0058676317512378826 -0.00040808973253161923 -0.0037067153913005082 0.0029201004363859206 0.011721253760612938 0.9966727585919762 -0.028815729851859782
 -0.00040812600368581416 -0.0037067173511399305 0.00046312496212782986 0.005867394737307916 0.9966727585919762 -0.028815729851859782 0.0029195892629184056 0.01172132170993503
0.050020842017509996 0.003176486336726725 0.013475189110295159 0.9963343459102865 -0.03298440571465101 0.0005539700257292586 0.006708939092361867 -0.00048765312488580125 -0.004241250370776189
 0.9963343459102865 -0.03298440571465101 0.0031759301847989396 0.01347526071545136 -0.00048760596579575577 -0.004241248608017851 0.0005566120796647229 0.00670863142822706
 0.0005539700257292586 0.006708939092361867 -0.00048760596579575577 -0.004241248608017851 0.003176526924918151 0.013474516479030488 0.9963343305109902 -0.03298507373586039
 -0.00048765312488580125 -0.004241250370776189 0.0005566120796647229 0.00670863142822706 0.9963343305109902 -0.03298507373586039 0.0031758596559487754 0.013474601400042746
0.055454545454549996 0.0034127510602295114 0.015013096599213929 0.9960220387327353 -0.0366192227259374 0.0006421269993686652 0.007440488341722245 -0.0005630556302201475 -0.004706433368074136
 0.9960220387327353 -0.0366192227259374 0.0034120680215793107 0.015013182097606279 -0.0005629978844741 -0.004706431904791876 0.0006453738769449075 0.00744010933747811
 0.0006421269993686652 0.007440488341722245 -0.0005629978844741 -0.004706431904791876 0.0034128013200418863 0.015012350872043168 0.9960220200689225 -0.03661996327993424
 -0.0005630556302201475 -0.004706433368074136 0.0006453738769449075 0.00744010933747811 0.9960220200689225 -0.03661996327993424 0.0034119815870164573 0.01501245231099816
0.056273447269699996 0.0034494548374299876 0.01524599952595323 0.9959734904115295 -0.037167952482424924 0.0006560177063308561 0.007550768074233787 -0.0005749307000487406 -0.004776587432604822
 0.9959734904115295 -0.037167952482424924 0.00344875155277796 0.015246087238641846 -0.0005748712686575057 -0.004776586025360218 0.0006593611478709531 0.007550377470816088
 0.0006560177063308561 0.007550768074233787 -0.0005748712686575057 -0.004776586025360218 0.0034495066464164024 0.015245242781068724 0.9959734712284605 -0.03716870396932346
 -0.0005749307000487406 -0.004776587432604822 0.0006593611478709531 0.007550377470816088 0.9959734712284605 -0.03716870396932346 0.0034486625808485003 0.015245346857489123
0.06252605252188 0.003739291548383394 0.01703390463096424 0.9955899026469631 -0.041365742051560246 0.0007673337361710461 0.008393003222507469 -0.0006700508869206259 -0.005312597934923515
 0.9955899026469631 -0.041365742051560246 0.0037384239901056076 0.01703401032305102 -0.0006699778111450104 -0.005312597054584653 0.0007714612404383318 0.008392516335907164
 0.0007673337361710461 0.008393003222507469 -0.0006699778111450104 -0.005312597054584653 0.0037393559770406565 0.017033063735117607 0.9955898792605677 -0.04136657704425226
 -0.0006700508869206259 -0.005312597934923515 0.0007714612404383318 0.008392516335907164 0.9955898792605677 -0.04136657704425226 0.003738314429129626 0.0170331892752869
0.06877865777407 0.004046310766071644 0.01883856275961596 0.9951832811746035 -0.04557769215903877 0.0008880054278210741 0.009235523934529843 -0.0007731038675783662 -0.00584915045454236
 0.9951832811746035 -0.04557769215903877 0.004045261818110688 0.018838688388294354 -0.0007730157873560014 -0.005849150285395189 0.0008929997333247445 0.009234926355618012
 0.0008880054278210741 0.009235523934529843 -0.0007730157873560014 -0.005849150285395189 0.004046389224467569 0.018837637671611302 0.9951832531625872 -0.04557861070666862
 -0.0007731038675783662 -0.00584915045454236 0.0008929997333247445 0.009234926355618012 0.9951832531625872 -0.04557861070666862 0.0040451295217273425 0.018837787109632
0.07503126302626001 0.004370824799050887 0.020659650392328487 0.9947533249305659 -0.049803690852070655 0.0010181182867297941 0.010078205089520544 -0.0008841777900019712 -0.0063861121592342154
 0.9947533249305659 -0.049803690852070655 0.004369577368040764 0.020659798000579502 -0.0008840733570460127 -0.006386112898406067 0.0010240621861746142 0.010077481333538845
 0.0010181182867297941 0.010078205089520544 -0.0008840733570460127 -0.006386112898406067 0.0043709187072707885 0.02065864106877425 0.9947532918671043 -0.04980469301099359
 -0.0008841777900019712 -0.0063861121592342154 0.0010240621861746142 0.010077481333538845 0.9947532918671043 -0.04980469301099359 0.004369420188932234 0.02065881696560461
0.08128386827845 0.004713143984610408 0.022496856095414852 0.9942997335088508 -0.05404360249363375 0.0011577559012809198 0.010920917459221908 -0.00100335870108842 -0.006923348424487633
 0.9942997335088508 -0.05404360249363375 0.004711680998506388 0.022497027812552067 -0.0010032365787757942 -0.006923350281877739 0.0011647322313405194 0.01092005095560803
 0.0011577559012809198 0.010920917459221908 -0.0010032365787757942 -0.006923350281877739 0.004713254774292761 0.022495762484717866 0.9942996949647317 -0.05404468833315815
 -0.00100335870108842 -0.006923348424487633 0.0011647322313405194 0.01092005095560803 0.9942996949647317 -0.05404468833315815 0.004711496789712995 0.022495967529367843
0.08753647353064001 0.005073576668187649 0.02434987631898564 0.9938222074054086 -0.05829727191526887 0.001306999838517475 0.011763527997062873 -0.0011307304732253742 -0.007460722576926575
 0.9938222074054086 -0.05829727191526887 0.005071881073757208 0.02435007436131515 -0.0011305893364062021 -0.007460725775149062 0.0013150914673837593 0.011762501079304792
 0.001306999838517475 0.011763527997062873 -0.0011305893364062021 -0.007460725775149062 0.005073705781605386 0.024348698368255216 0.9938221629471019 -0.05829844151056423
 -0.0011307304732253742 -0.007460722576926575 0.0013150914673837593 0.011762501079304792 0.9938221629471019 -0.05829844151056423 0.005071667688614642 0.02434893537903951
0.09378907878283 0.005452429149197183 0.026218412412108337 0.9933204482337412 -0.06256452735841479 0.001465929541941617 0.012605900053088972 -0.0012663747264467103 -0.00799809571708161
 0.9933204482337412 -0.06256452735841479 0.005450483910409085 0.02621863908365325 -0.001266213261368511 -0.007998100491403199 0.0014752193565071468 0.012604693948909838
 0.001465929541941617 0.012605900053088972 -0.001266213261368511 -0.007998100491403199 0.005452578040140959 0.0262171500615179 0.9933203974234389 -0.06256578079587194
 -0.0012663747264467103 -0.00799809571708161 0.0014752193565071468 0.012604693948909838 0.9933203974234389 -0.06256578079587194 0.005450239203641469 0.026217421987471377
0.100041684035 0.005850005609232514 0.028102168425688516 0.992794158925898 -0.0668451826340942 0.0016346222318031041 0.013447893537154485 -0.0014103707474380752 -0.00853532659937734
 0.992794158925898 -0.0668451826340942 0.005847793705525751 0.028102426118964262 -0.0014101876516768557 -0.008535333197653672 0.0016451931235379987 0.01344648835882082
 0.0016346222318031041 0.013447893537154485 -0.0014101876516768557 -0.008535333197653672 0.00585017574315426 0.028100821610688644 0.9927941013212643 -0.06684652000888755
 -0.0014103707474380752 -0.00853532659937734 0.0016451931235379987 0.01344648835882082 0.9927941013212643 -0.06684652000888755 0.005847515533596197 0.028101131532966225
0.1059090909091 0.006240387229055658 0.029883453300012436 0.9922777190383651 -0.07087413348328309 0.001801868507733437 0.014237543116050409 -0.0015531600885577677 -0.00903920346801749
 0.9922777190383651 -0.07087413348328309 0.006237909620734255 0.029883742359459335 -0.001552955520173994 -0.009039212014460745 0.0018137169342911227 0.014235932038098295
 0.001801868507733437 0.014237543116050409 -0.001552955520173994 -0.009039212014460745 0.006240578640242634 0.029882027161847916 0.9922776546506434 -0.07087554971775943
 -0.0015531600885577677 -0.00903920346801749 0.0018137169342911227 0.014235932038098295 0.9922776546506434 -0.07087554971775943 0.006237598097650016 0.029882375660935035
0.1062942892872 0.006266608023675283 0.030000849465452287 0.9922430439202884 -0.0711390387389399 0.0018131528069307535 0.014289365050974799 -0.0015627954058280208 -0.009072271548806268
 0.9922430439202884 -0.0711390387389399 0.006264112448053235 0.030001140662347225 -0.0015625893882130633 -0.00907228023141559 0.001825087656812463 0.014287739785825235
 0.0018131528069307535 0.014289365050974799 -0.0015625893882130633 -0.00907228023141559 0.0062668008772742 0.0299994181177645 0.9922429790731802 -0.07114046015366025
 -0.0015627954058280208 -0.009072271548806268 0.001825087656812463 0.014287739785825235 0.9922429790731802 -0.07114046015366025 0.006263798669317006 0.029999769251156033
0.11254689453939999 0.006702536061661941 0.0319141604395665 0.9916668093408842 -0.07544588508275016 0.002001593747162212 0.015130167995889107 -0.0017237230687456846 -0.0096087844074623
 0.9916668093408842 -0.07544588508275016 0.006699739818917772 0.031914487712315094 -0.0017234928492874375 -0.009608795447250207 0.0020149754101846684 0.015128300497202443
 0.002001593747162212 0.015130167995889107 -0.0017234928492874375 -0.009608795447250207 0.006702753123977287 0.03191264448360701 0.991666736798348 -0.0754473906507615
 -0.0017237230687456846 -0.0096087844074623 0.0020149754101846684 0.015128300497202443 0.991666736798348 -0.0754473906507615 0.0066993882952823425 0.031913040178135135
0.11879949979160001 0.0071580869774296695 0.03384180507507827 0.9910651631708003 -0.07976550045438209 0.002200015017045681 0.015970152666866605 -0.0018932255137618505 -0.010144716500791948
 0.9910651631708003 -0.07976550045438209 0.007154973082164367 0.03384217108736116 -0.0018929698236558575 -0.01014473018299613 0.0022149263056271285 0.015968019644861175
 0.002200015017045681 0.015970152666866605 -0.0018929698236558575 -0.01014473018299613 0.007158329749304096 0.033840204431701014 0.9910650824737861 -0.07976709029574106
 -0.0018932255137618505 -0.010144716500791948 0.0022149263056271285 0.015968019644861175 0.9910650824737861 -0.07976709029574106 0.007154581678936601 0.03384064817432107
0.1250521050438 0.0076335554934669715 0.03578348515718233 0.9904378154214512 -0.08409765377140618 0.0024084839695550047 0.01680916633497193 -0.0020713718409208167 -0.010679916621065608
 0.9904378154214512 -0.08409765377140618 0.00763010696862298 0.03578389266520711 -0.0020710894224747083 -0.010679933243280508 0.002425007636705623 0.0168067433482283
 0.0024084839695550047 0.01680916633497193 -0.0020710894224747083 -0.010679933243280508 0.007633825487915624 0.03578179973926622 0.9904377261045295 -0.08409932801689941
 -0.0020713718409208167 -0.010679916621065608 0.002425007636705623 0.0168067433482283 0.9904377261045295 -0.08409932801689941 0.007629673555194295 0.035782295155651525
0.131304710296 0.0081292336785607 0.037738899912227036 0.9897844782980505 -0.08844210469334352 0.0026270652508242603 0.017647053323401402 -0.0022582283836761596 -0.01121423102351934
 0.9897844782980505 -0.08844210469334352 0.008125433553300539 0.03773935176601353 -0.0022579179902982 -0.011214250895586553 0.002645283972639492 0.017644314770454913
 0.0026270652508242603 0.017647053323401402 -0.0022579179902982 -0.011214250895586553 0.008129532420938647 0.03773712962819676 0.9897843798889434 -0.0884438634805988
 -0.0022582283836761596 -0.01121423102351934 0.002645283972639492 0.017644314770454913 0.9897843798889434 -0.0884438634805988 0.008124956004254646 0.03773768048458198
0.1375573155481 0.008532634808320474 0.03945280742417979 0.9892176894315501 -0.09254353787797 0.0028283462006817926 0.018458207379350316 -0.002426371742392181 -0.0117220889421416
 0.9892176894315501 -0.09254353787797 0.008528463794194785 0.03945329457547385 -0.0024260313572988666 -0.01172211208335305 0.002848308165255027 0.018455156761478814
 0.0028283462006817926 0.018458207379350316 -0.0024260313572988666 -0.01172211208335305 0.00853296290311251 0.03945095247041686 0.9892175815155895 -0.09254538126201528
 -0.002426371742392181 -0.0117220889421416 0.002848308165255027 0.018455156761478814 0.9892175815155895 -0.09254538126201528 0.008527940801353858 0.03945154991870321
0.1438099208003 0.00895026181225647 0.04115752992475231 0.9886309126730193 -0.09663441832434766 0.0030377503491583525 0.019266015749305095 -0.002601237622188832 -0.012226854267145426
 0.9886309126730193 -0.09663441832434766 0.008945702570314264 0.04115805436453796 -0.002600865876468939 -0.01222688098648954 0.0030595318882838656 0.019262629517167906
 0.0030377503491583525 0.019266015749305095 -0.002600865876468939 -0.01222688098648954 0.008950620636042196 0.04115559024495564 0.9886307947805825 -0.09663634643473236
 -0.002601237622188832 -0.012226854267145426 0.0030595318882838656 0.019262629517167906 0.9886307947805825 -0.09663634643473236 0.008945132161545659 0.04115623714132754
0.1500625260525 0.009381965689514254 0.042852920141318404 0.9880243012300123 -0.10071463965471782 0.003255204243082907 0.020070394075647657 -0.0027827541261891764 -0.012728446305371592
 0.9880243012300123 -0.10071463965471782 0.00937700086764829 0.042853483962034644 -0.0027823496523747215 -0.012728476924398763 0.003278881216160891 0.02006664781849801
 0.003255204243082907 0.020070394075647657 -0.0027823496523747215 -0.012728476924398763 0.009382356620264563 0.04285089567543945 0.9880241728864045 -0.10071665262732954
 -0.0027827541261891764 -0.012728446305371592 0.003278881216160891 0.02006664781849801 0.9880241728864045 -0.10071665262732954 0.009376381084965016 0.042851595010790125
0.15631513130469998 0.009827596356649265 0.044538835222581126 0.9873980091170724 -0.10478409596892867 0.0034806335500708356 0.02087125946740176 -0.002970848458426248 -0.013226786090930476
 0.9873980091170724 -0.10478409596892867 0.009822208588758664 0.0445394406191791 -0.0029704098906221978 -0.01322682094374106 0.003506281335863603 0.020867127922682676
