! Created with skrf 1.8.0 (http://scikit-rf.org).
# GHz S RI R 50.0 
!freq ReS11 ImS11 ReS12 ImS12 ReS13 ImS13
! ReS14 ImS14
! ReS21 ImS21 ReS22 ImS22 ReS23 ImS23
! ReS24 ImS24
! ReS31 ImS31 ReS32 ImS32 ReS33 ImS33
! ReS34 ImS34
! ReS41 ImS41 ReS42 ImS42 ReS43 ImS43
! ReS44 ImS44
!
0.0 0.001837629816085 0.0 0.9981623701839 0.0 7.13291619207e-05 0.0 -7.132916335789e-05 8.735303159209866e-21
 0.9981623701839 0.0 0.001837629816008 0.0 -7.132916335672e-05 8.735303159066583e-21 7.132916191842e-05 0.0
 7.13291619207e-05 0.0 -7.132916335672e-05 8.735303159066583e-21 0.001837629794203 0.0 0.9981623701621 0.0
 -7.132916335789e-05 8.735303159209866e-21 7.132916191842e-05 0.0 0.9981623701621 0.0 0.001837629794186 0.0
0.005 0.001978141425773678 0.0015032132484082263 0.9979844506627678 -0.0038482000711883404 0.00010033433589633914 0.0007812631059181069 -9.745390821588312e-05 -0.0004910015314680222
 0.9979844506627678 -0.0038482000711883404 0.001978130870774623 0.001503219459356785 -9.7451103623247e-05 -0.0004909995031742392 0.00010041457378788567 0.0007812326565811536
 0.00010033433589633914 0.0007812631059181069 -9.7451103623247e-05 -0.0004909995031742392 0.0019781418593045187 0.0015031457840208973 0.9979844502734555 -0.003848267138334926
 -9.745390821588312e-05 -0.0004910015314680222 0.00010041457378788567 0.0007812326565811536 0.9979844502734555 -0.003848267138334926 0.00197812967115234 0.0015031528013269425
0.006252605252188 0.0020152965397326216 0.0018848838649508386 0.9979370650704931 -0.004811142249102226 0.00010876423239330789 0.0009769413514039412 -0.00010496576852620894 -0.0006143673338599454
 0.9979370650704931 -0.004811142249102226 0.0020152800394395067 0.0018848917309277095 -0.00010496140339948249 -0.000614364836828204 0.00010888959657642953 0.0009769017568723253
 0.00010876423239330789 0.0009769413514039412 -0.00010496140339948249 -0.000614364836828204 0.002015297298748099 0.0018847995602398688 0.997937064543569 -0.004811226072308352
 -0.00010496576852620894 -0.0006143673338599454 0.00010888959657642953 0.0009769017568723253 0.997937064543569 -0.004811226072308352 0.0020152782467729646 0.001884808415526902
0.01250521050438 0.0022126530270469096 0.0038087671944493713 0.9976835178993795 -0.009622720141008555 0.00015786520330966701 0.0019541252487005416 -0.0001483156275854964 -0.0012315071638376485
 0.9976835178993795 -0.009622720141008555 0.0022125871276918703 0.0038087839436146413 -0.0001482984139729935 -0.0012315025979467735 0.00015836514521554377 0.0019540293407424767
 0.00015786520330966701 0.0019541252487005416 -0.0001482984139729935 -0.0012315025979467735 0.0022126566101448126 0.0038085989908554193 0.9976835163533542 -0.009622887564934105
 -0.0001483156275854964 -0.0012315071638376485 0.00015836514521554377 0.0019540293407424767 0.9976835163533542 -0.009622887564934105 0.002212580543412117 0.0038086175426557158
0.01875781575657 0.0024301917707276644 0.005759481534109775 0.9974013698971429 -0.014446367780967915 0.00021875613558224597 0.002932152351292618 -0.00020152417227509183 -0.0018504898291085263
 0.9974013698971429 -0.014446367780967915 0.002430043664031776 0.005759508232235417 -0.00020148577114453758 -0.0018504837244595544 0.0002198792434208303 0.002931979710581252
 0.00021875613558224597 0.002932152351292618 -0.00020148577114453758 -0.0018504837244595544 0.0024302002334633485 0.0057592297403233 0.9974013668420741 -0.014446618761116673
 -0.00020152417227509183 -0.0018504898291085263 0.0002198792434208303 0.002931979710581252 0.9974013668420741 -0.014446618761116673 0.002430029323871292 0.005759258907726352
0.02501042100875 0.0026683868521864707 0.0077342180924212175 0.9970902465908116 -0.0192843419301705 0.000291561681673484 0.003911011823463463 -0.0002647307485248726 -0.00247098753147345
 0.9970902465908116 -0.0192843419301705 0.002668123774692295 0.007734255840982555 -0.0002646629173747209 -0.002470980528017979 0.0002935566477439086 0.0039107384250979755
 0.000291561681673484 0.003911011823463463 -0.0002646629173747209 -0.002470980528017979 0.0026684022375709445 0.007733883034256432 0.9970902415286692 -0.01928467648770346
 -0.0002647307485248726 -0.00247098753147345 0.0002935566477439086 0.0039107384250979755 0.9970902415286692 -0.01928467648770346 0.002668098735615972 0.0077339237979271456
0.03126302626094 0.002927692521446026 0.009731490566963121 0.9967497568983308 -0.02413755917292948 0.0003764058820948081 0.00489060204653096 -0.000338069746901548 -0.0030927537596608075
 0.9967497568983308 -0.02413755917292948 0.0029272817322821654 0.009731540500052439 -0.0003379643241025434 -0.003092746608188505 0.0003795217235209857 0.004890200233983184
 0.0003764058820948081 0.00489060204653096 -0.0003379643241025434 -0.003092746608188505 0.0029277168702864192 0.009731072606818604 0.9967497493287802 -0.02413797737578404
 -0.000338069746901548 -0.0030927537596608075 0.0003795217235209857 0.004890200233983184 0.9967497493287802 -0.02413797737578404 0.0029272430791846414 0.009731126005409145
0.037515631513130004 0.003208552280523684 0.011750298903710875 0.9963795026581913 -0.029006432107008335 0.0004734109835556071 0.005870784735494418 -0.0004216715358679081 -0.0037155692327306613
 0.9963795026581913 -0.029006432107008335 0.0032079610447901127 0.011750362186143046 -0.0004215204330637017 -0.0037155627951946375 0.0004778971372402164 0.005870223181721866
 0.0004734109835556071 0.005870784735494418 -0.0004215204330637017 -0.0037155627951946375 0.003208587630538948 0.011749798451994609 0.9963794920731402 -0.02900693405860709
 -0.0004216715358679081 -0.0037155692327306613 0.0004778971372402164 0.005870223181721866 0.9963794920731402 -0.02900693405860709 0.0032079058867004948 0.011749865580406518
0.043768236765320004 0.003511402367786645 0.013789874856633902 0.9959790825598752 -0.033891123721949336 0.0005826968604022422 0.006851401413535221 -0.0005156627564850452 -0.004339225481433501
 0.9959790825598752 -0.033891123721949336 0.003510597942175297 0.013789952683030564 -0.0005154579542319222 -0.0043392207310990775 0.0005888032240152847 0.006850645078198952
 0.0005826968604022422 0.006851401413535221 -0.0005154579542319222 -0.0043392207310990775 0.003511450756314812 0.013789292363632565 0.9959790684430742 -0.03389170956964292
 -0.0005156627564850452 -0.004339225481433501 0.0005888032240152847 0.006850645078198952 0.9959790684430742 -0.03389170956964292 0.0035105234137703147 0.013789374372144749
0.050020842017509996 0.003836673345251688 0.015849576815858378 0.9955480941808595 -0.038791652509941175 0.0007043806395421223 0.007832280234593111 -0.0006201663994734185 -0.004963518086150797
 0.9955480941808595 -0.038791652509941175 0.003835622964534992 0.015849670410117846 -0.000619899944833594 -0.0049635161076591085 0.0007123575834738949 0.007831290319491986
 0.0007043806395421223 0.007832280234593111 -0.000619899944833594 -0.0049635161076591085 0.00383673681197661 0.015848912790001148 0.9955480760065586 -0.038792322426702615
 -0.0006201663994734185 -0.004963518086150797 0.0007123575834738949 0.007831290319491986 0.9955480760065586 -0.038792322426702615 0.0038355262266229306 0.015849010884017495
0.055454545454549996 0.004137882897267216 0.01765542366863298 0.9951484145747934 -0.04306316616727775 0.0008202848366642307 0.008684765519620859 -0.0007196133662820206 -0.0055064059174670735
 0.9951484145747934 -0.04306316616727775 0.0041365921384676945 0.017655531982151685 -0.0007192869256252244 -0.0055064073151715855 0.0008300910665942086 0.008683538155174551
 0.0008202848366642307 0.008684765519620859 -0.0007192869256252244 -0.0055064073151715855 0.004137961126655916 0.01765468923532741 0.995148392438318 -0.04306390931396978
 -0.0007196133662820206 -0.0055064059174670735 0.0008300910665942086 0.008683538155174551 0.995148392438318 -0.04306390931396978 0.004136473814551402 0.017654802330053534
0.056273447269699996 0.004184790880212162 0.01792883821131651 0.9950861352240573 -0.04370794400679076 0.0008385764171215755 0.008813239343967471 -0.0007353017826405267 -0.005588243384208742
 0.9950861352240573 -0.04370794400679076 0.004183461744734048 0.01792894882640812 -0.0007349657876942525 -0.00558824537359994 0.000848674779551202 0.008811973247818362
 0.0008385764171215755 0.008813239343967471 -0.0007349657876942525 -0.00558824537359994 0.004184871468754227 0.017928093204047858 0.9950861124551552 -0.04370869820632901
 -0.0007353017826405267 -0.005588243384208742 0.000848674779551202 0.008811973247818362 0.9950861124551552 -0.04370869820632901 0.004183339984962772 0.017928208644344003
0.06252605252188 0.004556176132132672 0.020027139152184903 0.9945928043657077 -0.04863985910560294 0.0009853950220562006 0.009794088747076808 -0.0008611844771542405 -0.0062131966779674
 0.9945928043657077 -0.04863985910560294 0.0045545353948050656 0.020027268070603656 -0.000860771118231448 -0.00621320394268329 0.0009978660917793088 0.009792500020050958
 0.0009853950220562006 0.009794088747076808 -0.000860771118231448 -0.00621320394268329 0.004556275892816991 0.020026313766784227 0.9945927764531058 -0.04864069783340845
 -0.0008611844771542405 -0.0062131966779674 0.0009978660917793088 0.009792500020050958 0.9945927764531058 -0.04864069783340845 0.004554385829307814 0.020026447870225016
0.06877865777407 0.004951245921260794 0.022143989525488482 0.9940677018909547 -0.05358721092144734 0.0011449438036611227 0.01077463144426232 -0.0009979262058613149 -0.006838171186623597
 0.9940677018909547 -0.05358721092144734 0.004949260675158684 0.022144138060010993 -0.0009974277232362406 -0.006838185145477377 0.0011600392950243462 0.010772669742575661
 0.0011449438036611227 0.01077463144426232 -0.0009974277232362406 -0.006838185145477377 0.004951366912484975 0.022143084412825975 0.9940676682715328 -0.05358813445878707
 -0.0009979262058613149 -0.006838171186623597 0.0011600392950243462 0.010772669742575661 0.9940676682715328 -0.05358813445878707 0.0049490805490628184 0.022143238553569318
0.07503126302626001 0.005370412767125744 0.024278918292771904 0.9935104302048927 -0.05854977546896018 0.0013173264371446596 0.011754664159540434 -0.00114563472166042 -0.007462957414359623
 0.9935104302048927 -0.05854977546896018 0.0053680500329203115 0.024279087787690726 -0.0011450434196118812 -0.007462979597495543 0.0013352984583555512 0.011752275200282955
 0.0013173264371446596 0.011754664159540434 -0.0011450434196118812 -0.007462979597495543 0.0053705570583642516 0.024277934158650247 0.9935103903005692 -0.058550784125197534
 -0.00114563472166042 -0.007462957414359623 0.0013352984583555512 0.011752275200282955 0.9935103903005692 -0.058550784125197534 0.005367836622138382 0.024278109769873234
0.08128386827845 0.00581408484655557 0.02643146638756475 0.9929205942680118 -0.06352729875112978 0.0015026427357217335 0.012733977863497243 -0.0013044136772033716 -0.008087342735160324
 0.9929205942680118 -0.06352729875112978 0.0058113115603037205 0.026431658220333408 -0.0013037219243591297 -0.008087374783973884 0.0015237437525106327 0.012731103379767286
 0.0015026427357217335 0.012733977863497243 -0.0013037219243591297 -0.008087374783973884 0.005814254519696994 0.02643040398525166 0.9929205474838445 -0.06352839287080651
 -0.0013044136772033716 -0.008087342735160324 0.0015237437525106327 0.012731103379767286 0.9929205474838445 -0.06352839287080651 0.005811062171783022 0.026430602561211707
0.08753647353064001 0.00628266589540965 0.028601181806808526 0.9922978019803534 -0.06851950166682311 0.001700988471718634 0.013712358135426731 -0.0014743624847805817 -0.008711111149368102
 0.9922978019803534 -0.06851950166682311 0.006279448895445838 0.02860139739022257 -0.0014735627145446655 -0.008711154816414223 0.0017254712666430023 0.01370893583198781
 0.001700988471718634 0.013712358135426731 -0.0014735627145446655 -0.008711154816414223 0.006282863047624746 0.02860004194133789 0.9922977477035851 -0.06852068162472169
 -0.0014743624847805817 -0.008711111149368102 0.0017254712666430023 0.01370893583198781 0.9922977477035851 -0.06852068162472169 0.00627916086952353 0.028600265040105283
0.09378907878283 0.006776555075245369 0.030787616125536762 0.9916416645354112 -0.07352608350789216 0.0019124552006506402 0.01468958546147909 -0.00165557617221903 -0.009334043115659595
 0.9916416645354112 -0.07352608350789216 0.006772861089755414 0.03078785691029606 -0.001654660883465841 -0.009334100264525986 0.0019405728292013185 0.01468554897094119
 0.0019124552006506402 0.01468958546147909 -0.001654660883465841 -0.009334100264525986 0.006776781820588734 0.030786399648098074 0.9916416021334938 -0.07352734971404266
 -0.00165557617221903 -0.009334043115659595 0.0019405728292013185 0.01468554897094119 0.9916416021334938 -0.07352734971404266 0.006772531800780164 0.030786648894642804
0.100041684035 0.007296146810451807 0.032990321944411746 0.9909517967479221 -0.07854672453710727 0.002137130089304792 0.01566543546721517 -0.0018481452349054077 -0.009955915460144354
 0.9909517967479221 -0.07854672453710727 0.007291942444485581 0.03299058942229966 -0.0018471069927148225 -0.009955988065304608 0.002169135832837153 0.015660714306890543
 0.002137130089304792 0.01566543546721517 -0.0018471069927148225 -0.009955988065304608 0.0072964052821546145 0.03298902975872843 0.9909517255674598 -0.07854807742970896
 -0.0018481452349054077 -0.009955915460144354 0.002169135832837153 0.015660714306890543 0.9909517255674598 -0.07854807742970896 0.007291569302339079 0.032989306848663844
0.1059090909091 0.00780745177209592 0.03507172718757455 0.9902734119572408 -0.08327055048147772 0.0023600499668439178 0.016579710574251855 -0.002039254968530593 -0.010538310954707192
 0.9902734119572408 -0.08327055048147772 0.0078027379747876565 0.03507202111058623 -0.0020380946453957033 -0.01053839995833698 0.0023959348081312565 0.01657427911746966
 0.0023600499668439178 0.016579710574251855 -0.0020380946453957033 -0.01053839995833698 0.007807741974798372 0.03507036482101433 0.9902733319247066 -0.08327198514829662
 -0.002039254968530593 -0.010538310954707192 0.0023959348081312565 0.01657427911746966 0.9902733319247066 -0.08327198514829662 0.007802321358419925 0.03507066964770314
0.1062942892872 0.007841830607106042 0.035208850999970356 0.9902278173680963 -0.08358108791744649 0.0023750957467720407 0.01663967911485106 -0.0020521554849887197 -0.010576501332727702
 0.9902278173680963 -0.08358108791744649 0.007837082329683904 0.03520914670737155 -0.002050986921562088 -0.010576591479359253 0.002411243062896687 0.01663419864420849
 0.0023750957467720407 0.01663967911485106 -0.002050986921562088 -0.010576591479359253 0.007842122959751669 0.03520748405615418 0.9902277367330304 -0.08358252796798778
 -0.0020521554849887197 -0.010576501332727702 0.002411243062896687 0.01663419864420849 0.9902277367330304 -0.08358252796798778 0.007836662781267411 0.035207790759851885
0.11254689453939999 0.008413990856241383 0.03744275272116664 0.9894693493825762 -0.08862882120910756 0.0026264300572063303 0.017612082882182165 -0.0022676878997206678 -0.011195570193542425
 0.9894693493825762 -0.08862882120910756 0.008408664987246286 0.03744307824328843 -0.002266381715356998 -0.011195680077295706 0.0026669725277377616 0.01760576426115235
 0.0026264300572063303 0.017612082882182165 -0.002266381715356998 -0.011195680077295706 0.008414319268011054 0.03744131201757532 0.9894692585930336 -0.08863034891960143
 -0.0022676878997206678 -0.011195570193542425 0.0026669725277377616 0.01760576426115235 0.9894692585930336 -0.08863034891960143 0.008408196517857939 0.03744165018501923
0.11879949979160001 0.009013006625196097 0.039691573130214305 0.9886760203071921 -0.09368955753706476 0.002891206015234253 0.01858240892275077 -0.0024948184684561864 -0.011812887830499543
 0.9886760203071921 -0.09368955753706476 0.009007069322482795 0.03969193010567527 -0.0024933674325465474 -0.01181301975730903 0.002936397291934255 0.01857516907078225
 0.002891206015234253 0.01858240892275077 -0.0024933674325465474 -0.01181301975730903 0.009013373300145927 0.039690059713101696 0.9886759186377017 -0.0936911734392681
 -0.0024948184684561864 -0.011812887830499543 0.002936397291934255 0.01857516907078225 0.9886759186377017 -0.0936911734392681 0.009006549457285552 0.039690431279111524
0.1250521050438 0.00963925144151064 0.04195485398644716 0.987847462473934 -0.0987629165304722 0.0031694915629993763 0.01955041521801005 -0.0027336180396501804 -0.012428216397007615
 0.987847462473934 -0.0987629165304722 0.009632668687323914 0.04195524411252927 -0.0027320149918299464 -0.012428372782750522 0.0032195853113668924 0.019542166774028483
 0.0031694915629993763 0.01955041521801005 -0.0027320149918299464 -0.012428372782750522 0.009639658611288161 0.04195326894617194 0.9878473491718234 -0.09876462118840512
 -0.0027336180396501804 -0.012428216397007615 0.0032195853113668924 0.019542166774028483 0.9878473491718234 -0.09876462118840512 0.009632094992606323 0.04195367593638768
0.131304710296 0.010293093067464688 0.044232132113732385 0.9869833133106666 -0.10384850509375144 0.003461349429483516 0.02051585572360799 -0.0029841521679937135 -0.013041314467939172
 0.9869833133106666 -0.10384850509375144 0.010285830655242065 0.04423255715215091 -0.002982390019238112 -0.013041497838168646 0.0035165992706204055 0.020506507006865002
 0.003461349429483516 0.02051585572360799 -0.002982390019238112 -0.013041497838168646 0.01029354299370165 0.044230476588598314 0.9869831875948928 -0.10385029909847511
 -0.0029841521679937135 -0.013041314467939172 0.0035165992706204055 0.020506507006865002 0.9869831875948928 -0.10385029909847511 0.01028520074027743 0.044230921125855555
0.1375573155481 0.010835374711760238 0.04622729760303013 0.986222811230727 -0.10865007432804939 0.003732633690153198 0.021450307667486304 -0.003212219652094743 -0.013623840404515149
 0.986222811230727 -0.10865007432804939 0.010827396539339692 0.04622775052193184 -0.003210288133371679 -0.013624051299448053 0.003793162546603628 0.02143986262941973
 0.003732633690153198 0.021450307667486304 -0.003210288133371679 -0.013624051299448053 0.01083587078738874 0.0462255717515131 0.9862226725032976 -0.10865195804289822
 -0.003212219652094743 -0.013623840404515149 0.003793162546603628 0.02143986262941973 0.9862226725032976 -0.10865195804289822 0.01082670656534916 0.04622604878374113
0.1438099208003 0.01139702964693233 0.04820999638136529 0.9854349671863843 -0.11343747393203864 0.004014784133215543 0.022379778313871893 -0.003449311356672532 -0.014201745655619566
 0.9854349671863843 -0.11343747393203864 0.011388301011027478 0.048210478593026296 -0.003447202908865497 -0.014201986580789031 0.004080822025871071 0.022368152175168438
 0.004014784133215543 0.022379778313871893 -0.003447202908865497 -0.014201986580789031 0.01139757438261566 0.0482082013011601 0.9854348146628369 -0.11343944793691753
 -0.003449311356672532 -0.014201745655619566 0.004080822025871071 0.022368152175168438 0.9854348146628369 -0.11343944793691753 0.011387548385291085 0.048208712800759924
0.1500625260525 0.0119778286887244 0.0501800044844835 0.98462001573093 -0.11821052525277684 0.004307681884953104 0.023304134868031033 -0.0036953106891905066 -0.014774904586889723
 0.98462001573093 -0.11821052525277684 0.011968314708776497 0.05018051753310228 -0.003693017783397204 -0.014775178147594985 0.004379457300355451 0.023291239706404183
 0.004307681884953104 0.023304134868031033 -0.003693017783397204 -0.014775178147594985 0.011978424638265686 0.05017814131003462 0.984619848602558 -0.11821259014726453
 -0.0036953106891905066 -0.014774904586889723 0.004379457300355451 0.023291239706404183 0.984619848602558 -0.11821259014726453 0.011967496862450005 0.0501786894133088
0.15631513130469998 0.012577540648162982 0.05213710464760299 0.9837781930315652 -0.12296905165950536 0.004611206445289131 0.0242232473057431 -0.003950099420684053 -0.015343194642491034
 0.9837781930315652 -0.12296905165950536 0.012567206261624187 0.05213765021647305 -0.003947614559049498 -0.015343503543047662 0.004688946311585285 0.024208992088600185
