! Created with skrf 1.8.0 (http://scikit-rf.org).
# GHz S RI R 50.0 
!freq ReS11 ImS11 ReS12 ImS12 ReS13 ImS13
! ReS14 ImS14
! ReS21 ImS21 ReS22 ImS22 ReS23 ImS23
! ReS24 ImS24
! ReS31 ImS31 ReS32 ImS32 ReS33 ImS33
! ReS34 ImS34
! ReS41 ImS41 ReS42 ImS42 ReS43 ImS43
! ReS44 ImS44
!
0.0 0.001347339142939 0.0 0.9986526608571 0.0 5.171207324197e-05 0.0 -5.171207315254e-05 6.332902486353188e-21
 0.9986526608571 0.0 0.001347339142938 0.0 -5.171207315299e-05 6.3329024864082985e-21 5.171207324117e-05 0.0
 5.171207324197e-05 0.0 -5.171207315299e-05 6.3329024864082985e-21 0.001347339118796 0.0 0.9986526608329 0.0
 -5.171207315254e-05 6.332902486353188e-21 5.171207324117e-05 0.0 0.9986526608329 0.0 0.001347339118783 0.0
0.005 0.0014491298859159976 0.0011013074296346923 0.998523949934859 -0.0028229702372706386 7.240342981379243e-05 0.0005778761869498903 -7.027476917687557e-05 -0.0003614074791133186
 0.998523949934859 -0.0028229702372706386 0.0014491518765874089 0.0011012946463625959 -7.027447286830515e-05 -0.00036140731335530183 7.227706929400136e-05 0.0005779244112988487
 7.240342981379243e-05 0.0005778761869498903 -7.027447286830515e-05 -0.00036140731335530183 0.0014491293831592623 0.0011012405177055935 0.9985239495904831 -0.002823037291876271
 -7.027476917687557e-05 -0.0003614074791133186 7.227706929400136e-05 0.0005779244112988487 0.9985239495904831 -0.002823037291876271 0.0014491516966196954 0.0011012274552997749
0.006252605252188 0.0014756763067326002 0.0013809934751882944 0.9984901911929989 -0.003529426903149918 7.82438101030587e-05 0.0007226300961598551 -7.544766287785139e-05 -0.0004522371450599741
 0.9984901911929989 -0.003529426903149918 0.0014757106811108236 0.0013809771937741272 -7.54472013004149e-05 -0.0004522369419062132 7.804638334365237e-05 0.0007226926529996367
 7.82438101030587e-05 0.0007226300961598551 -7.54472013004149e-05 -0.0004522369419062132 0.0014756755972104025 0.001380909839707671 0.9984901907313019 -0.0035295107255782195
 -7.544766287785139e-05 -0.0004522371450599741 7.804638334365237e-05 0.0007226926529996367 0.9984901907313019 -0.0035295107255782195 0.0014757104769558581 0.001380893198110103
0.01250521050438 0.0016145483086390145 0.0027911844063176557 0.9983125137266351 -0.007059805646694377 0.0001113609582413834 0.001445640160917012 -0.00010443274938230506 -0.0009067690284349565
 0.9983125137266351 -0.007059805646694377 0.0016146855527175094 0.0027911487968483397 -0.00010443092419595341 -0.0009067686666737541 0.0001105736790216013 0.0014457896500995287
 0.0001113609582413834 0.001445640160917012 -0.00010443092419595341 -0.0009067686666737541 0.0016145460357423207 0.0027910174813269312 0.9983125124475597 -0.007059973053768405
 -0.00010443274938230506 -0.0009067690284349565 0.0001105736790216013 0.0014457896500995287 0.9983125124475597 -0.007059973053768405 0.0016146853118935594 0.0027909810339839785
0.01875781575657 0.0017642281987607477 0.004221729220100589 0.9981194293290387 -0.010599761413255799 0.0001511343947315926 0.0021695413920385436 -0.00013875016049635954 -0.0013629495350111459
 0.9981194293290387 -0.010599761413255799 0.0017645365664528173 0.004221671033488493 -0.00013874608161563016 -0.001362949068737441 0.00014936588065044484 0.0021698065276295896
 0.0001511343947315926 0.0021695413920385436 -0.00013874608161563016 -0.001362949068737441 0.001764223507699496 0.0042214792347415875 0.9981194268784334 -0.010600012341025346
 -0.00013875016049635954 -0.0013629495350111459 0.00014936588065044484 0.0021698065276295896 0.9981194268784334 -0.010600012341025346 0.0017645364692737422 0.0042214196001113076
0.02501042100875 0.0019249825445196525 0.005670655112510002 0.9979107318962755 -0.014151041422757442 0.00019763655725921566 0.002894384834441905 -0.0001784805245832377 -0.0018205888445432107
 0.9979107318962755 -0.014151041422757442 0.001925530132570673 0.005670570917730379 -0.0001784733095962853 -0.0018205883381392895 0.000194495264149626 0.002894798485665489
 0.00019763655725921566 0.002894384834441905 -0.0001784733095962853 -0.0018205883381392895 0.0019249745727794646 0.005670322309137414 0.997910727913575 -0.014151375851331562
 -0.0001784805245832377 -0.0018205888445432107 0.000194495264149626 0.002894798485665489 0.997910727913575 -0.014151375851331562 0.0019255303657825756 0.005670235908601436
0.03126302626094 0.0020970667165922992 0.007136962628578551 0.9976862037624132 -0.017714412328547507 0.0002509407142840963 0.0036201545320797748 -0.00022370249297550942 -0.0022795601810117762
 0.9976862037624132 -0.017714412328547507 0.002097921498718778 0.00713684881638817 -0.00022369126584835297 -0.0022795597092850057 0.00024603455298928924 0.0036207537435847155
 0.0002509407142840963 0.0036201545320797748 -0.00022369126584835297 -0.0022795597092850057 0.0020970546017592237 0.007136547280545546 0.9976861978869078 -0.0177148302645928
 -0.00022370249297550942 -0.0022795601810117762 0.00024603455298928924 0.0036207537435847155 0.9976861978869078 -0.0177148302645928 0.002097922262424024 0.007136430341966824
0.037515631513130004 0.002280730725698268 0.008620012053928337 0.9974456216649729 -0.02129027377289497 0.0003111201836671177 0.004346808360044973 -0.00027449332612194 -0.002739758962848473
 0.9974456216649729 -0.02129027377289497 0.00228196057425432 0.00861986483883182 -0.0002744772164644144 -0.0027397586111190452 0.00030405633950172077 0.004347634393119284
 0.0003111201836671177 0.004346808360044973 -0.0002744772164644144 -0.0027397586111190452 0.0022807136046991082 0.008619514460174102 0.997445613534588 -0.02129077525553373
 -0.00027449332612194 -0.002739758962848473 0.00030405633950172077 0.004347634393119284 0.997445613534588 -0.02129077525553373 0.0022819620813900664 0.008619363019481468
0.043768236765320004 0.002476221485357391 0.010119336695741008 0.9971887591417533 -0.02487884504586831 0.0003782479700874659 0.005074290452959606 -0.0003309291180862936 -0.0032010903623040524
 0.9971887591417533 -0.02487884504586831 0.0024778941882968373 0.010119152117128204 -0.00033090726087107503 -0.0032010902264634367 0.00036863280877024547 0.0050753888332143796
 0.0003782479700874659 0.005074290452959606 -0.00033090726087107503 -0.0032010902264634367 0.002476198492792595 0.010118757193327797 0.9971887483892145 -0.024879430134392238
 -0.0003309291180862936 -0.0032010903623040524 0.00036863280877024547 0.0050753888332143796 0.9971887483892145 -0.024879430134392238 0.002477896661911596 0.010118567095460426
0.050020842017509996 0.0026837838647371624 0.01163456570663882 0.9969153877197334 -0.028480242198880297 0.0004523965608754017 0.005802536329634477 -0.00039308488195106896 -0.0036634641707222236
 0.9969153877197334 -0.028480242198880297 0.0026859671392121046 0.011634339629583849 -0.00039305641724165277 -0.0036634643572927283 0.00043983558007161067 0.005803956897481624
 0.0004523965608754017 0.005802536329634477 -0.00039305641724165277 -0.0036634643572927283 0.0026837541369701826 0.011633904673446464 0.9969153739759843 -0.028480910970506652
 -0.00039308488195106896 -0.0036634641707222236 0.00043983558007161067 0.005803956897481624 0.9969153739759843 -0.028480910970506652 0.002685970816765564 0.011633671572831
0.055454545454549996 0.0028741545465493156 0.012964017892132671 0.996664233984458 -0.031620422174574746 0.0005225914886449139 0.0064359696529336105 -0.00045180291000326123 -0.004066059130963414
 0.996664233984458 -0.031620422174574746 0.0028768364724657634 0.012963752258549392 -0.00045176800872215984 -0.004066059692519896 0.0005071494270690476 0.006437714078146119
 0.0005225914886449139 0.0064359696529336105 -0.00045176800872215984 -0.004066059692519896 0.0028741182638865616 0.012963286342181902 0.9966642173371694 -0.03162116374883017
 -0.00045180291000326123 -0.004066059130963414 0.0005071494270690476 0.006437714078146119 0.9966642173371694 -0.03162116374883017 0.002876841397806273 0.012963012193909842
0.056273447269699996 0.002903661243799391 0.013165386209808639 0.996625277609591 -0.03209451585714055 0.0005336377846526903 0.006531475402670287 -0.00046103458002030027 -0.004126792280856197
 0.996625277609591 -0.03209451585714055 0.0029064227490326463 0.013165114325504733 -0.0004609986529129408 -0.0041267929070392916 0.0005177355929645506 0.006533272365156599
 0.0005336377846526903 0.006531475402670287 -0.0004609986529129408 -0.0041267929070392916 0.0029036239166795805 0.013164644060699145 0.9966252604998566 -0.03209526841115356
 -0.00046103458002030027 -0.004126792280856197 0.0005177355929645506 0.006533272365156599 0.9966252604998566 -0.03209526841115356 0.0029064278792241085 0.013164363421417694
0.06252605252188 0.003136095816840413 0.014711522473620843 0.9963181981520413 -0.03572167198350952 0.0006220427035375909 0.007261032360252272 -0.0005348511238683006 -0.004590987299043719
 0.9963181981520413 -0.03572167198350952 0.003139503165776275 0.014711200299471223 -0.0005348068844575118 -0.004590988492768648 0.0006024030175085425 0.007263264343567006
 0.0006220427035375909 0.007261032360252272 -0.0005348068844575118 -0.004590988492768648 0.0031360500281903095 0.014710699668175849 0.996318177297134 -0.03572250843387035
 -0.0005348511238683006 -0.004590987299043719 0.0006024030175085425 0.007263264343567006 0.996318177297134 -0.03572250843387035 0.003139510010563732 0.014710366763845541
0.06877865777407 0.0033813287635992046 0.01627272349800609 0.995993918133703 -0.03936168423210477 0.0007176815247710315 0.007991127985188983 -0.0006146063563846419 -0.0050559617223263015
 0.995993918133703 -0.03936168423210477 0.0033854495336559085 0.01627234637754941 -0.0006145529596953403 -0.0050559636222921025 0.0006939071784414519 0.007993858087464896
 0.0007176815247710315 0.007991127985188983 -0.0006145529596953403 -0.0050559636222921025 0.0033812736538433633 0.0162718205319741 0.9959938931490241 -0.039362604716311596
 -0.0006146063563846419 -0.0050559617223263015 0.0006939071784414519 0.007993858087464896 0.9959938931490241 -0.039362604716311596 0.0033854583689489426 0.016271430445372995
0.07503126302626001 0.003639600341363466 0.017848755131405263 0.9956522060271357 -0.04301450177354871 0.0008206235220670003 0.008721679677132515 -0.0007003710242104904 -0.005521627414679187
 0.9956522060271357 -0.04301450177354871 0.0036445020856603295 0.017848318233845372 -0.000700307630296033 -0.00552163017039834 0.0007923164859754275 0.008724975521338475
 0.0008206235220670003 0.008721679677132515 -0.000700307630296033 -0.00552163017039834 0.003639535054141305 0.01784777254310165 0.9956521765221655 -0.04301550644643946
 -0.0007003710242104904 -0.005521627414679187 0.0007923164859754275 0.008724975521338475 0.9956521765221655 -0.04301550644643946 0.0036445132008690326 0.017847320165489424
0.08128386827845 0.0039111499268456125 0.019439394840267108 0.9952928301833844 -0.0466800544696572 0.0009309369642313789 0.009452601798039133 -0.0007922147429299575 -0.00598789526243899
 0.9952928301833844 -0.0466800544696572 0.003916900184734702 0.019438893159810892 -0.0007921405169025185 -0.005987899034275708 0.0008976983715352589 0.009456535584765051
 0.0009309369642313789 0.009452601798039133 -0.0007921405169025185 -0.005987899034275708 0.003911073609819622 0.01943833321226433 0.9952927957605571 -0.046681143502068846
 -0.0007922147429299575 -0.00598789526243899 0.0008976983715352589 0.009456535584765051 0.9952927957605571 -0.046681143502068846 0.003916913883347031 0.019437813242439102
0.08753647353064001 0.004196216025336036 0.021044428081347193 0.9949155589935705 -0.05035825644806308 0.0010486890481386554 0.010183805912426765 -0.0008902059572742018 -0.006454674937439935
 0.9949155589935705 -0.05035825644806308 0.004202882332673014 0.021043856436191288 -0.0008901200693507883 -0.006454679896647557 0.0010101192265470895 0.010188454472482338
 0.0010486890481386554 0.010183805912426765 -0.0008901200693507883 -0.006454679896647557 0.004196127831460131 0.021043288037651105 0.9949155192487553 -0.05035943002981806
 -0.0008902059572742018 -0.006454674937439935 0.0010101192265470895 0.010188454472482338 0.9949155192487553 -0.05035943002981806 0.0042028989331888015 0.021042694980730935
0.09378907878283 0.004495036258344607 0.022663645712179305 0.9945201610330784 -0.05404900864120604 0.0011739458341643923 0.010915200961215628 -0.0009944118982018126 -0.006921874729186092
 0.9945201610330784 -0.05404900864120604 0.004502686158212613 0.022662998743264422 -0.0009943135238469662 -0.006921881057938406 0.001129644342615814 0.0109206458079505
 0.0011739458341643923 0.010915200961215628 -0.0009943135238469662 -0.006921881057938406 0.004494935346321803 0.022662427919283395 0.9945201155538126 -0.05405026698022579
 -0.0009944118982018126 -0.006921874729186092 0.001129644342615814 0.0109206458079505 0.9945201155538126 -0.05405026698022579 0.004502705993649911 0.02266175608523817
0.100041684035 0.004807847333268098 0.024296842083531417 0.9941064051881351 -0.05775220064613669 0.0013067721839643061 0.011646693390916217 -0.001104898536984515 -0.007389401424339379
 0.9941064051881351 -0.05775220064613669 0.0048165483861891956 0.02429611425292979 -0.0011047868569503442 -0.0073894093157610315 0.001256337853317178 0.01165302077215139
 0.0013067721839643061 0.011646693390916217 -0.0011047868569503442 -0.0073894093157610315 0.004807732868907272 0.02429554725273639 0.9941063535539406 -0.0577535439663739
 -0.001104898536984515 -0.007389401424339379 0.001256337853317178 0.01165302077215139 0.9941063535539406 -0.0577535439663739 0.004816571805442953 0.024294790754548348
0.1059090909091 0.005114321885895104 0.02584195580130681 0.9937012374236328 -0.06123846035008961 0.0014383567321672058 0.012333124579355932 -0.00121434837398771 -0.007828338527531745
 0.9937012374236328 -0.06123846035008961 0.00512407080472315 0.02584114689294784 -0.0012142234677136015 -0.007828348070779008 0.001381801913939641 0.0123403628297139
 0.0014383567321672058 0.012333124579355932 -0.0012142234677136015 -0.007828348070779008 0.005114193952308529 0.025840589361019708 0.9937011796231755 -0.061239883638613775
 -0.00121434837398771 -0.007828338527531745 0.001381801913939641 0.0123403628297139 0.9937011796231755 -0.061239883638613775 0.005124097918406442 0.025839747883049373
0.1062942892872 0.005134885002891186 0.025943813619675227 0.9936740607769272 -0.0614677120996646 0.0014472316989926467 0.012378187251851865 -0.0012217305376165917 -0.007857160220044191
 0.9936740607769272 -0.0614677120996646 0.005144704797386745 0.025942999208722086 -0.0012216047380820985 -0.007857169878239572 0.0013902626762977905 0.012385488201370769
 0.0014472316989926467 0.012378187251851865 -0.0012216047380820985 -0.007857169878239572 0.0051347561598396076 0.025942442502429754 0.9936740025582446 -0.061469140645798455
 -0.0012217305376165917 -0.007857160220044191 0.0013902626762977905 0.012385488201370769 0.9936740025582446 -0.061469140645798455 0.005144732165185541 0.025941595254014838
0.11254689453939999 0.005476384014706406 0.02760435771307802 0.9932228976611095 -0.0651954137420203 0.001595386660379567 0.01310958427718445 -0.0013449712072397756 -0.008325054659143755
 0.9932228976611095 -0.0651954137420203 0.005487390177741981 0.027603450820171543 -0.0013448304799054923 -0.008325066299220826 0.0015314804561802732 0.013117954665780328
 0.001595386660379567 0.01310958427718445 -0.0013448304799054923 -0.008325066299220826 0.005476239975188198 0.027602911105471094 0.9932228324185352 -0.06519692777508264
 -0.0013449712072397756 -0.008325054659143755 0.0015314804561802732 0.013117954665780328 0.9932228324185352 -0.06519692777508264 0.005487421875058184 0.02760196681924609
0.11879949979160001 0.005832578052988471 0.029278271875243293 0.9927526863533728 -0.06893516822761689 0.001751297969003213 0.013840783946678389 -0.0014746824454934012 -0.008792986583744066
 0.9927526863533728 -0.06893516822761689 0.005844838260757213 0.029277266413235425 -0.0014745259877581832 -0.008793000431828589 0.0016800515074470882 0.013850324532595128
 0.001751297969003213 0.013840783946678389 -0.0014745259877581832 -0.008793000431828589 0.005832418009554827 0.029276750617216168 0.9927526136379139 -0.06893676802586331
 -0.0014746824454934012 -0.008792986583744066 0.0016800515074470882 0.013850324532595128 0.9927526136379139 -0.06893676802586331 0.005844874685540294 0.02927570280138794
0.1250521050438 0.00620369967635992 0.03096535306115556 0.9922631981225289 -0.07268683076562839 0.0019150250860828755 0.014571683540551137 -0.0016109246927296843 -0.009260856101554978
 0.9922631981225289 -0.07268683076562839 0.0062172816646222555 0.030964242754542435 -0.0016107517077349643 -0.009260872394819288 0.0018360347576214804 0.014582500019382601
 0.0019150250860828755 0.014571683540551137 -0.0016107517077349643 -0.009260872394819288 0.006203522831985999 0.030963758034864147 0.9922631174738805 -0.07268851662614079
 -0.0016109246927296843 -0.009260856101554978 0.0018360347576214804 0.014582500019382601 0.9922631174738805 -0.07268851662614079 0.006217323232196523 0.030962599990293254
0.131304710296 0.0065899802492105424 0.03266539712201822 0.9917542050944275 -0.07645024963563986 0.0020866259741106094 0.015302178186445801 -0.0017537568771690004 -0.00972856156224319
 0.9917542050944275 -0.07645024963563986 0.006604951824234094 0.03266417550361789 -0.0017535665740307446 -0.009728580548906874 0.001999487690380306 0.015314381240398056
 0.0020866259741106094 0.015302178186445801 -0.0017535665740307446 -0.009728580548906874 0.006589785818988277 0.03266372925505276 0.9917541160410877 -0.07645202187114643
 -0.0017537568771690004 -0.00972856156224319 0.001999487690380306 0.015314381240398056 0.9917541160410877 -0.07645202187114643 0.00660499896753773 0.03266245407190921
0.1375573155481 0.006898285968280933 0.03415582226837946 0.9913188699381257 -0.0800028265378995 0.0022435655242733 0.016009371278444946 -0.0018807460028808117 -0.010173150598828118
 0.9913188699381257 -0.0800028265378995 0.0069147213812376035 0.03415451220809527 -0.0018805373995803122 -0.010173172286790226 0.002148071596169147 0.016022934632821666
 0.0022435655242733 0.016009371278444946 -0.0018805373995803122 -0.010173172286790226 0.006898073910508761 0.03415408201755701 0.9913187720954292 -0.08000468533909125
 -0.0018807460028808117 -0.010173150598828118 0.002148071596169147 0.016022934632821666 0.9913187720954292 -0.08000468533909125 0.006914773636650624 0.03415271288190373
0.1438099208003 0.0072172682179950124 0.035639160524455156 0.9908685243245923 -0.08354717946326853 0.0024068654693031907 0.016714150366674455 -0.002012832164886198 -0.01061556704219243
 0.9908685243245923 -0.08354717946326853 0.007235236398617064 0.035637757546576644 -0.0020126044444653225 -0.010615591669614417 0.0023026466853709672 0.016729174463244467
 0.0024068654693031907 0.016714150366674455 -0.0020126044444653225 -0.010615591669614417 0.007217037899939553 0.03563734881383921 0.990868417222083 -0.08354912514019217
 -0.002012832164886198 -0.01061556704219243 0.0023026466853709672 0.016729174463244467 0.990868417222083 -0.08354912514019217 0.007235294062178894 0.03563588087819518
0.1500625260525 0.0075468245306563155 0.03711531092553797 0.990403274014816 -0.08708324386452058 0.0025764764782255614 0.0174164580722457 -0.0021499681602499656 -0.011055757323856007
 0.990403274014816 -0.08708324386452058 0.007566394525515017 0.037113810305804795 -0.0021497205091292075 -0.011055785138180525 0.0024631654553935204 0.017433047012376357
 0.0025764764782255614 0.0174164580722457 -0.0021497205091292075 -0.011055785138180525 0.0075465753398055 0.03711342871445294 0.9904031571722104 -0.0870852767397284
 -0.0021499681602499656 -0.011055757323856007 0.0024631654553935204 0.017433047012376357 0.9904031571722104 -0.0870852767397284 0.007566457899575653 0.03711185687081475
0.15631513130469998 0.007886851828610814 0.03858417567646051 0.9899232251756238 -0.0906109549716193 0.0027523487105489295 0.018116237860597195 -0.002292106271173417 -0.011493668928018345
