! Created with skrf 1.8.0 (http://scikit-rf.org).
# GHz S RI R 50.0 
!freq ReS11 ImS11 ReS12 ImS12 ReS13 ImS13
! ReS14 ImS14
! ReS21 ImS21 ReS22 ImS22 ReS23 ImS23
! ReS24 ImS24
! ReS31 ImS31 ReS32 ImS32 ReS33 ImS33
! ReS34 ImS34
! ReS41 ImS41 ReS42 ImS42 ReS43 ImS43
! ReS44 ImS44
!
0.0 0.001552377990407 0.0 0.9984476220096 0.0 6.028699665376e-05 0.0 -6.028699683096e-05 7.38302776992418e-21
 0.9984476220096 0.0 0.001552377990381 0.0 -6.028699683088e-05 7.383027769914381e-21 6.02869966528e-05 0.0
 6.028699665376e-05 0.0 -6.028699683088e-05 7.383027769914381e-21 0.001552377971927 0.0 0.9984476219911 0.0
 -6.028699683096e-05 7.38302776992418e-21 6.02869966528e-05 0.0 0.9984476219911 0.0 0.001552377971901 0.0
0.005 0.0016703409778908796 0.0012625694774562421 0.9982983479402839 -0.0032522444757860005 8.562983804547698e-05 0.0007084478651118132 -8.287038247350875e-05 -0.00043696228998098345
 0.9982983479402839 -0.0032522444757860005 0.0016703534633239487 0.0012625621388239812 -8.286684566569589e-05 -0.0004369595615404889 8.555885003960451e-05 0.0007084747936431004
 8.562983804547698e-05 0.0007084478651118132 -8.286684566569589e-05 -0.0004369595615404889 0.0016703431984196016 0.0012626354054308263 0.9982983483017285 -0.003252177422329192
 -8.287038247350875e-05 -0.00043696228998098345 8.555885003960451e-05 0.0007084747936431004 0.9982983483017285 -0.003252177422329192 0.001670351956739362 0.0012626303087994112
0.006252605252188 0.0017012882224378117 0.0015832113227284969 0.9982589326582352 -0.004066102583752056 9.288640753449879e-05 0.0008858811576147937 -8.925898188979842e-05 -0.0005467771980727124
 0.9982589326582352 -0.004066102583752056 0.0017013077403490572 0.0015832020483874073 -8.925347841027313e-05 -0.0005467738336875567 9.277549406336488e-05 0.0008859161417800089
 9.288640753449879e-05 0.0008858811576147937 -8.925347841027313e-05 -0.0005467738336875567 0.0017012916215643167 0.001583293733082279 0.9982589331510701 -0.00406601875833784
 -8.925898188979842e-05 -0.0005467771980727124 9.277549406336488e-05 0.0008859161417800089 0.9982589331510701 -0.00406601875833784 0.0017013053125957557 0.0015832872690855623
0.01250521050438 0.0018642545170421553 0.0031998438902611365 0.9980499675014968 -0.00813303589218628 0.00013458609487624192 0.0017719765507415953 -0.0001255739659282303 -0.0010962388056126586
 0.9980499675014968 -0.00813303589218628 0.0018643324639430507 0.0031998243206557276 -0.00012555227809009494 -0.0010962325832367963 0.00013414375576572716 0.001772060789326671
 0.00013458609487624192 0.0017719765507415953 -0.00012555227809009494 -0.0010962325832367963 0.0018642675165649579 0.0032000083506418847 0.9980499688946423 -0.008132868476463996
 -0.0001255739659282303 -0.0010962388056126586 0.00013414375576572716 0.001772060789326671 0.9980499688946423 -0.008132868476463996 0.0018643221856287394 0.0031999945095288205
0.01875781575657 0.0020416359396122578 0.004839662014196516 0.9978204647073453 -0.012210702359434953 0.00018548194187457132 0.0026589251215858407 -0.00016934542293514928 -0.0016475304744400393
 0.9978204647073453 -0.012210702359434953 0.002041811112398424 0.004839631028130178 -0.000169297059401679 -0.001647521998074227 0.0001844881779101756 0.0026590756659793458
 0.00018548194187457132 0.0026589251215858407 -0.000169297059401679 -0.001647521998074227 0.002041664731436655 0.004839908228764988 0.9978204674188131 -0.012210451404744785
 -0.00016934542293514928 -0.0016475304744400393 0.0001844881779101756 0.0026590756659793458 0.9978204674188131 -0.012210451404744785 0.0020417875771677006 0.004839886092837892
0.02501042100875 0.002233780735538314 0.006500350095058187 0.9975701520822483 -0.01630107335283516 0.00024567153583313203 0.0035467711227012435 -0.00022068284998649112 -0.0022003863095912913
 0.9975701520822483 -0.01630107335283516 0.0022340918699204062 0.006500306487403097 -0.00022059744506376663 -0.0022003762914717265 0.00024390620910291012 0.003547007715815672
 0.00024567153583313203 0.0035467711227012435 -0.00022059744506376663 -0.0022003762914717265 0.002233831496797542 0.006500677696832217 0.9975701565288487 -0.016300738864949708
 -0.00022068284998649112 -0.0022003863095912913 0.00024390620910291012 0.003547007715815672 0.9975701565288487 -0.016300738864949708 0.0022340496667139823 0.0065006463546200075
0.03126302626094 0.0024410226927657954 0.008180713325259525 0.997298743676327 -0.020404988447661986 0.00031525303983488066 0.004435471742173654 -0.0002796924750421346 -0.0027546212166950647
 0.997298743676327 -0.020404988447661986 0.002441508486321895 0.008180655809842598 -0.000279559767410227 -0.0027546104785894088 0.0003124956733574191 0.004435816835760293
 0.00031525303983488066 0.004435471742173654 -0.000279559767410227 -0.0027546104785894088 0.0024411015939942338 0.008181121879364761 0.9972987502807408 -0.02040457038304783
 -0.0002796924750421346 -0.0027546212166950647 0.0003124956733574191 0.004435816835760293 0.9972987502807408 -0.02040457038304783 0.0024414422014521022 0.008181080428957457
0.037515631513130004 0.002663688291961344 0.009879970292315545 0.9970059471678426 -0.024522862764926198 0.0003943241388466371 0.005324949837619171 -0.00034647807842075963 -0.0033100781703290024
 0.9970059471678426 -0.024522862764926198 0.0026643874189438 0.00987989750303399 -0.0003462879001234216 -0.0033100676439027973 0.00039035382760562126 0.005325428620467883
 0.0003943241388466371 0.005324949837619171 -0.0003462879001234216 -0.0033100676439027973 0.002663801493323985 0.009880459269615244 0.9970059563554429 -0.02452236105628503
 -0.00034647807842075963 -0.0033100781703290024 0.00039035382760562126 0.005325428620467883 0.9970059563554429 -0.02452236105628503 0.0026642916306237594 0.009880406820774588
0.043768236765320004 0.0029020994609064493 0.011597537671521564 0.9966914668556968 -0.02865490221016488 0.00048298154297735357 0.006215109980051747 -0.0004211412902116445 -0.003866612174519582
 0.9966914668556968 -0.02865490221016488 0.0029030505846520224 0.011597448162784612 -0.0004208835603162304 -0.00386660290148292 0.00047757691263069834 0.006215750409628925
 0.00048298154297735357 0.006215109980051747 -0.0004208835603162304 -0.00386660290148292 0.0029022531131476788 0.011598106459404078 0.9966914790564654 -0.028654316754857787
 -0.0004211412902116445 -0.003866612174519582 0.00047757691263069834 0.006215750409628925 0.9966914790564654 -0.028654316754857787 0.0029029198616479105 0.01159804213522295
0.050020842017509996 0.003156574853583461 0.01333294129535936 0.9963550051796742 -0.03280119233411206 0.0005813206914359531 0.007105845089465356 -0.0005037816975335904 -0.0044240836344854725
 0.9963550051796742 -0.03280119233411206 0.0031578166365587874 0.013332833542007028 -0.0005034464179628663 -0.00442407676660924 0.000574259882170316 0.007106677924892731
 0.0005813206914359531 0.007105845089465356 -0.0005034464179628663 -0.00442407676660924 0.003156775099494088 0.013333589180515791 0.9963550208311277 -0.032800523010349976
 -0.0005037816975335904 -0.0044240836344854725 0.000574259882170316 0.007106677924892731 0.9963550208311277 -0.032800523010349976 0.003157645539369026 0.013333512118768213
0.055454545454549996 0.003391013304663071 0.014855226250856338 0.9960445264019077 -0.03641602568611395 0.0006747161661624099 0.007880298316064191 -0.0005821529995951329 -0.0049091978020631396
 0.9960445264019077 -0.03641602568611395 0.0033925390848387506 0.014855101341695005 -0.0005817422696411804 -0.004909194045195327 0.0006660355322547105 0.007881325539370189
 0.0006747161661624099 0.007880298316064191 -0.0005817422696411804 -0.004909194045195327 0.003391259022257262 0.014855942226256571 0.996044545412047 -0.03641528335381641
 -0.0005821529995951329 -0.0049091978020631396 0.0006660355322547105 0.007881325539370189 0.996044545412047 -0.03641528335381641 0.0033923284746001717 0.014855853407164787
0.056273447269699996 0.003427430506280168 0.015085772445085651 0.9959962636225363 -0.03696174197248711 0.0006894355451171999 0.007997039679990424 -0.0005944968663123955 -0.004982355122470332
 0.9959962636225363 -0.03696174197248711 0.0034290016200944594 0.015085644842019186 -0.0005940741191329518 -0.004982351921574189 0.0006804962110108281 0.007998098515660246
 0.0006894355451171999 0.007997039679990424 -0.0005940741191329518 -0.004982351921574189 0.0034276834780691766 0.015086498625483155 0.9959962831684811 -0.03696098862641204
 -0.0005944968663123955 -0.004982355122470332 0.0006804962110108281 0.007998098515660246 0.9959962831684811 -0.03696098862641204 0.003428784697574852 0.015086407979709773
0.06252605252188 0.0037149801829403453 0.016855663878455582 0.9956149433048481 -0.04113650715291373 0.0008074184197517442 0.008888571661793491 -0.0006933823235492041 -0.005541289591152902
 0.9956149433048481 -0.04113650715291373 0.0037169193175090338 0.016855514739950218 -0.0006928622691684802 -0.005541291429072623 0.0007963777381690054 0.008889892961151783
 0.0008074184197517442 0.008888571661793491 -0.0006928622691684802 -0.005541291429072623 0.003715292002138495 0.016856467456162084 0.9956149671970093 -0.041135669604921016
 -0.0006933823235492041 -0.005541289591152902 0.0007963777381690054 0.008889892961151783 0.9956149671970093 -0.041135669604921016 0.00371665110628055 0.01685636239644147
0.06877865777407 0.004019535555352009 0.01864227549562265 0.9952107454186203 -0.04532540536774551 0.0009353598456919754 0.009780313404957648 -0.0008005315126788637 -0.006100749329706441
 0.9952107454186203 -0.04532540536774551 0.004021881427540086 0.01864210305435338 -0.0007999043885703376 -0.0061007576882279565 0.0009219945338862342 0.009781936534287841
 0.0009353598456919754 0.009780313404957648 -0.0007999043885703376 -0.0061007576882279565 0.004019912332101201 0.018643155473947532 0.9952107741182369 -0.045324483414412996
 -0.0008005315126788637 -0.006100749329706441 0.0009219945338862342 0.009781936534287841 0.9952107741182369 -0.045324483414412996 0.004021556451570922 0.018643035187458943
0.07503126302626001 0.004341406284161375 0.020445285283711156 0.994783371566407 -0.049528324572995185 0.0010733484411461576 0.010672132428298517 -0.0009160357346782917 -0.0066605952998364144
 0.994783371566407 -0.049528324572995185 0.004344197646486443 0.020445087689482434 -0.0009152918545956176 -0.0066606117706361784 0.0010574347781974987 0.010674099690355342
 0.0010733484411461576 0.010672132428298517 -0.0009152918545956176 -0.0066606117706361784 0.004341854115394212 0.020446240568548338 0.9947834055439922 -0.049527317984879034
 -0.0009160357346782917 -0.0066605952998364144 0.0010574347781974987 0.010674099690355342 0.9947834055439922 -0.049527317984879034 0.004343810415269707 0.02044610425978671
0.08128386827845 0.004680900035691712 0.022264383271504155 0.9943325240390558 -0.05374512918220954 0.0012214707930376888 0.01156389186313327 -0.0010399840805613905 -0.007220686702061608
 0.9943325240390558 -0.05374512918220954 0.0046841756850632835 0.022264158589687333 -0.0010391138340827663 -0.007220712986607343 0.0012027846460527618 0.011566248530535428
 0.0012214707930376888 0.01156389186313327 -0.0010391138340827663 -0.007220712986607343 0.00468142500480486 0.022265412670354992 0.9943325637763799 -0.05374403770403294
 -0.0010399840805613905 -0.007220686702061608 0.0012027846460527618 0.011566248530535428 0.9943325637763799 -0.05374403770403294 0.004683720693295871 0.022265259561197747
0.08753647353064001 0.00503832245934987 0.024099267365564263 0.9938579060585819 -0.05797566418467031 0.001379811345929788 0.012455450774789826 -0.0011724633548005551 -0.007780880689571612
 0.9938579060585819 -0.05797566418467031 0.00504212124552696 0.024099013575226643 -0.0011714572070948843 -0.007780918599028479 0.001358128199625787 0.012458245123045813
 0.001379811345929788 0.012455450774789826 -0.0011714572070948843 -0.007780918599028479 0.005038930634343133 0.02410036958559427 0.9938579520485982 -0.0579744875364069
 -0.0011724633548005551 -0.007780880689571612 0.001358128199625787 0.012458245123045813 0.9938579520485982 -0.0579744875364069 0.005041592971632823 0.024100198914956603
0.09378907878283 0.005413977135527155 0.025949640368166875 0.993359221994094 -0.06221975808740424 0.0015484522923673387 0.013346664404636274 -0.0013135579962929864 -0.008341032167129298
 0.993359221994094 -0.06221975808740424 0.005418337969397874 0.025949355359990267 -0.0013124064880521502 -0.008341083622247555 0.0015235472815333727 0.013349947744794425
 0.0015484522923673387 0.013346664404636274 -0.0013124064880521502 -0.008341083622247555 0.00541467456772672 0.02595081401721414 0.9933592747425227 -0.062218495962607014
 -0.0013135579962929864 -0.008341032167129298 0.0015235472815333727 0.013349947744794425 0.9933592747425227 -0.062218495962607014 0.005417730874873288 0.025950625040507345
0.100041684035 0.005808165502280809 0.02781520780103011 0.9928361775610915 -0.06647722505775659 0.0017274734674934847 0.014237384354109902 -0.0014633499939763627 -0.00890099365356456
 0.9928361775610915 -0.06647722505775659 0.00581312736487672 0.027814889374770828 -0.0014620437416124682 -0.008901060684542515 0.001699121412044312 0.014241211064993611
 0.0017274734674934847 0.014237384354109902 -0.0014620437416124682 -0.008901060684542515 0.00580895822546798 0.027816451381521303 0.9928362375872719 -0.06647587712893627
 -0.0014633499939763627 -0.00890099365356456 0.001699121412044312 0.014241211064993611 0.9928362375872719 -0.06647587712893627 0.005812435893329638 0.02781624336977357
0.1059090909091 0.006195192226173412 0.02957940276800664 0.9923229395496344 -0.07048439219538111 0.0019049755125236777 0.015072646300456948 -0.0016118948562699456 -0.009426151770182703
 0.9923229395496344 -0.07048439219538111 0.006200753612674976 0.029579050897995108 -0.001610434926276708 -0.009426235361278483 0.0018731837244159119 0.015077035124670504
 0.0019049755125236777 0.015072646300456948 -0.001610434926276708 -0.009426235361278483 0.006196079840341327 0.02958071052059788 0.9923230068905955 -0.0704829634267314
 -0.0016118948562699456 -0.009426151770182703 0.0018731837244159119 0.015077035124670504 0.9923230068905955 -0.0704829634267314 0.006199977892386163 0.02958048399632658
0.1062942892872 0.006221186767871258 0.029695676262883462 0.9922884800087562 -0.0707478665382759 0.0019169522447078145 0.015127458732472227 -0.0016219188009174359 -0.00946061518642665
 0.9922884800087562 -0.0707478665382759 0.006226788718325962 0.02969532212469723 -0.001620448496731758 -0.009460699932776413 0.001884927686556437 0.015131886292380058
 0.0019169522447078145 0.015127458732472227 -0.001620448496731758 -0.009460699932776413 0.006222080796588284 0.029696988176549352 0.9922885478466488 -0.07074643245160243
 -0.0016219188009174359 -0.00946061518642665 0.001884927686556437 0.015131886292380058 0.9922885478466488 -0.07074643245160243 0.006226007294858517 0.029696760415201442
0.11254689453939999 0.006653337811376672 0.03159075218419941 0.9917158382988671 -0.07503147247118669 0.0021169634328242573 0.016016732274746506 -0.0017893412457290812 -0.010019744262370683
 0.9917158382988671 -0.07503147247118669 0.0066596189956251535 0.03159035994352649 -0.0017876976582900839 -0.010019848972749847 0.0020810406750594555 0.016021821292623556
 0.0021169634328242573 0.016016732274746506 -0.0017876976582900839 -0.010019848972749847 0.006654339139440678 0.03159213073133455 0.9917159144979629 -0.0750299518466338
 -0.0017893412457290812 -0.010019744262370683 0.0020810406750594555 0.016021821292623556 0.9917159144979629 -0.0750299518466338 0.006658742025876363 0.03159188251874498
0.11879949979160001 0.00710491307331679 0.033500140857423956 0.9911179632781819 -0.07932782225408894 0.0023275791744301606 0.016905046448353334 -0.001965691442538481 -0.010578225794886039
 0.9911179632781819 -0.07932782225408894 0.007111912732995612 0.03349970802355741 -0.0019638654171647454 -0.010578352826907531 0.0022875323220997498 0.016910860694378808
 0.0023275791744301606 0.016905046448353334 -0.0019638654171647454 -0.010578352826907531 0.007106027672282982 0.03350158423160677 0.9911180484043554 -0.07932621469013566
 -0.001965691442538481 -0.010578225794886039 0.0022875323220997498 0.016910860694378808 0.9911180484043554 -0.07932621469013566 0.007110934601703728 0.03350131487727885
0.1250521050438 0.007576204440402346 0.03542354567332609 0.9904945678469631 -0.08363668549644385 0.002548868844734465 0.01779223954240877 -0.002151040699942758 -0.01113590209552861
 0.9904945678469631 -0.08363668549644385 0.007583961921271541 0.03542306965166847 -0.0021490231591800115 -0.011136053915595613 0.0025044718473662287 0.017798845977976003
 0.002548868844734465 0.01779223954240877 -0.0021490231591800115 -0.011136053915595613 0.007577438258295393 0.03542505196538091 0.9904946624835863 -0.08363499056574632
 -0.002151040699942758 -0.01113590209552861 0.0025044718473662287 0.017798845977976003 0.9904946624835863 -0.08363499056574632 0.007582876992280562 0.03542476078772876
0.131304710296 0.008067501123760675 0.037360667513229584 0.9898453671231813 -0.08795782262729594 0.0027808989514677878 0.018678146752882305 -0.0023454574289391216 -0.01169261286555891
 0.9898453671231813 -0.08795782262729594 0.008076055884150125 0.03736014560124981 -0.00234323937312876 -0.011692792048606689 0.002731925646857459 0.018685615559938487
 0.0027808989514677878 0.018678146752882305 -0.00234323937312876 -0.011692792048606689 0.008068860083258562 0.03736223470837952 0.9898454718724402 -0.08795603987917137
 -0.0023454574289391216 -0.01169261286555891 0.002731925646857459 0.018685615559938487 0.9898454718724402 -0.08795603987917137 0.008074858499201493 0.0373619210322644
0.1375573155481 0.008467179011176947 0.03905687226567114 0.98928203337372 -0.09203653661524473 0.002995000008051558 0.01953677568470363 -0.002520338817946544 -0.012222348315891515
 0.98928203337372 -0.09203653661524473 0.00847657191722501 0.03905631028631499 -0.002517906877181343 -0.012222555077787496 0.0029413413113871735 0.019545096475806514
 0.002995000008051558 0.01953677568470363 -0.002517906877181343 -0.012222555077787496 0.00846866853152865 0.03905849848161981 0.9892821487085374 -0.09203466577049073
 -0.002520338817946544 -0.012222348315891515 0.0029413413113871735 0.019545096475806514 0.9892821487085374 -0.09203466577049073 0.008475257146353667 0.0390581701474639
0.1438099208003 0.0088809214419489 0.04074392764796057 0.988698852479687 -0.09610472687633204 0.0032177635032817967 0.02039186612652551 -0.002702225529960078 -0.012748874861800197
 0.988698852479687 -0.09610472687633204 0.008891192286019905 0.040743323301421365 -0.002699570029543523 -0.012749111736016375 0.0031592142408900597 0.020401103065174304
 0.0032177635032817967 0.02039186612652551 -0.002699570029543523 -0.012749111736016375 0.008882547320475932 0.04074561079374986 0.988698979002371 -0.0961027674914749
 -0.002702225529960078 -0.012748874861800197 0.0031592142408900597 0.020401103065174304 0.988698979002371 -0.0961027674914749 0.008889754568699924 0.04074526758567833
0.1500625260525 0.009308579843329655 0.04242168716864056 0.988095977273433 -0.10016228702369803 0.0034491118648138667 0.021243327947353632 -0.0028910426664921027 -0.013272108158066415
 0.988095977273433 -0.10016228702369803 0.009319768525254733 0.04242103801219246 -0.0028881539538427167 -0.013272377779641107 0.003385468110188503 0.02125354753364872
 0.0034491118648138667 0.021243327947353632 -0.0028881539538427167 -0.013272377779641107 0.009310347847661812 0.04242342506948102 0.988096115602266 -0.10016023863825371
 -0.0028910426664921027 -0.013272108158066415 0.003385468110188503 0.02125354753364872 0.988096115602266 -0.10016023863825371 0.009318202287530974 0.042423066714574915
0.15631513130469998 0.009750004548102724 0.04409000875961906 0.9874735614108642 -0.10420911115917793 0.0036889665810020643 0.022091072555383097 -0.003086714385156484 -0.013791965674552533
 0.9874735614108642 -0.10420911115917793 0.009762151078633746 0.04408931220321022 -0.003083582830095127 -0.013792270779608602 0.0036200256738118963 0.022102343601129792
