! Created with skrf 1.8.0 (http://scikit-rf.org).
# GHz S RI R 50.0 
!freq ReS11 ImS11 ReS12 ImS12 ReS13 ImS13
! ReS14 ImS14
! ReS21 ImS21 ReS22 ImS22 ReS23 ImS23
! ReS24 ImS24
! ReS31 ImS31 ReS32 ImS32 ReS33 ImS33
! ReS34 ImS34
! ReS41 ImS41 ReS42 ImS42 ReS43 ImS43
! ReS44 ImS44
!
0.0 0.001473789447383 0.0 0.9985262105526 0.0 5.66224460833e-05 0.0 -5.66224453715e-05 6.934249648410334e-21
 0.9985262105526 0.0 0.001473789447361 0.0 -5.662244537154e-05 6.934249648415233e-21 5.662244608088e-05 0.0
 5.66224460833e-05 0.0 -5.662244537154e-05 6.934249648415233e-21 0.00147378943175 0.0 0.998526210537 0.0
 -5.66224453715e-05 6.934249648410334e-21 5.662244608088e-05 0.0 0.998526210537 0.0 0.001473789431728 0.0
0.005 0.0015854506590280758 0.0012078918658801165 0.998384980069946 -0.003087277670781374 7.893707792888957e-05 0.000611729130880721 -7.672659999245006e-05 -0.00038613477828527824
 0.998384980069946 -0.003087277670781374 0.0015854710399181092 0.0012078800278446382 -7.672465272726393e-05 -0.00038613337482745405 7.881525645967724e-05 0.0006117754942585567
 7.893707792888957e-05 0.000611729130880721 -7.672465272726393e-05 -0.00038613337482745405 0.0015854508330328655 0.0012078245519422605 0.9983849797159552 -0.003087344737247012
 -7.672659999245006e-05 -0.00038613477828527824 7.881525645967724e-05 0.0006117754942585567 0.9983849797159552 -0.003087344737247012 0.0015854701620506826 0.0012078132124216509
0.006252605252188 0.0016146751422897432 0.0015146150280851418 0.9983477917968834 -0.003859860386411461 8.528574856958019e-05 0.0007649666196250881 -8.237248191602518e-05 -0.00048316821549626544
 0.9983477917968834 -0.003859860386411461 0.0016147070006920362 0.0015146000011174371 -8.236945105398702e-05 -0.00048316648685541497 8.509541296469227e-05 0.0007650268099022492
 8.528574856958019e-05 0.0007649666196250881 -8.236945105398702e-05 -0.00048316648685541497 0.0016146754899423852 0.0015145309107760985 0.998347791319521 -0.0038599442035055845
 -8.237248191602518e-05 -0.00048316821549626544 8.509541296469227e-05 0.0007650268099022492 0.998347791319521 -0.0038599442035055845 0.0016147057050573306 0.0015145164922780617
0.01250521050438 0.001768165144741913 0.0030609689669139533 0.9981512236762737 -0.00772057200429281 0.00012155346055264774 0.001530344166694755 -0.00011424384241457374 -0.0009687036856817147
 0.9981512236762737 -0.00772057200429281 0.0017682923453442656 0.00306093659280268 -0.00011423188871087125 -0.0009687005101878656 0.0001207944245833947 0.001530488602164981
 0.00012155346055264774 0.001530344166694755 -0.00011423188871087125 -0.0009687005101878656 0.0017681670935670519 0.003060801072309868 0.9981512223379806 -0.007720739399145814
 -0.00011424384241457374 -0.0009687036856817147 0.0001207944245833947 0.001530488602164981 0.9981512223379806 -0.007720739399145814 0.0017682877500851742 0.003060769773471992
0.01875781575657 0.0019345830932383378 0.0046293746511459665 0.9979362700780053 -0.011591541228966822 0.000165507428743495 0.002296636910930906 -0.00015233179008540096 -0.0014559316475147464
 0.9979362700780053 -0.011591541228966822 0.0019348688976350244 0.004629322420288385 -0.00015230511965979034 -0.0014559273625424627 0.00016380228421676455 0.0022968941970975833
 0.000165507428743495 0.002296636910930906 -0.00015230511965979034 -0.0014559273625424627 0.0019345878764636818 0.0046291231769888695 0.9979362674878829 -0.011591792127308223
 -0.00015233179008540096 -0.0014559316475147464 0.00016380228421676455 0.0022968941970975833 0.9979362674878829 -0.011591792127308223 0.0019348590109514732 0.004629072361044319
0.02501042100875 0.0021142436850389557 0.0062176542543676905 0.9977026858837976 -0.015474655796208197 0.00021723103077577884 0.0030638793179692033 -0.0001967287988049057 -0.0019446422369577118
 0.9977026858837976 -0.015474655796208197 0.002114751214693782 0.006217579490123027 -0.00019668168246024818 -0.0019446372410707544 0.00021420218672269742 0.0030642824454360524
 0.00021723103077577884 0.0030638793179692033 -0.00019668168246024818 -0.0019446372410707544 0.002114252532851029 0.006217319395556376 0.9977026816572219 -0.01547499015074834
 -0.0001967287988049057 -0.0019446422369577118 0.00021420218672269742 0.0030642824454360524 0.9977026816572219 -0.01547499015074834 0.0021147340677590094 0.006217246270807467
0.03126302626094 0.0023074485692090568 0.007824693132572854 0.9974502130450972 -0.019370730934597496 0.00027680827213413003 0.003832037055913257 -0.0002475249225065213 -0.0024346894003915926
 0.9974502130450972 -0.019370730934597496 0.0023082408398521293 0.007824592995718313 -0.00024745168462515695 -0.0024346841541376617 0.0002720775994416203 0.0038326234253634878
 0.00027680827213413003 0.003832037055913257 -0.00024745168462515695 -0.0024346841541376617 0.0023074626998638168 0.007824275072855559 0.9974502067925969 -0.019371148733772662
 -0.0002475249225065213 -0.0024346894003915926 0.0002720775994416203 0.0038326234253634878 0.9974502067925969 -0.019371148733772662 0.002308214475337425 0.007824176696614494
0.037515631513130004 0.0025144929624807727 0.009449769130816216 0.9971785873821504 -0.023280179999635976 0.0003443229259288808 0.004601048649322735 -0.00030480842725433207 -0.0029259492299108752
 0.9971785873821504 -0.023280179999635976 0.0025156329066686996 0.009449640621649847 -0.0003047034402365838 -0.0029259442561082667 0.00033751159523902357 0.004601860115945182
 0.0003443229259288808 0.004601048649322735 -0.0003047034402365838 -0.0029259442561082667 0.0025145135887927024 0.009449268067979806 0.9971785787142076 -0.023280681242631288
 -0.00030480842725433207 -0.0029259492299108752 0.00033751159523902357 0.004601860115945182 0.9971785787142076 -0.023280681242631288 0.0025155953832720094 0.009449141348694252
0.043768236765320004 0.0027356682071357553 0.01109234846977076 0.9968875413290497 -0.027203218518872568 0.00041985813441332043 0.005370838142247232 -0.00036866601718227613 -0.003418307294268232
 0.9968875413290497 -0.027203218518872568 0.002737218691494336 0.01109218842950504 -0.0003685236981707415 -0.0034183031781784804 0.0004105865367945869 0.005371921066360548
 0.00041985813441332043 0.005370838142247232 -0.0003685236981707415 -0.0034183031781784804 0.002735696536138494 0.011091764604256501 0.9968875298548358 -0.02720380322721753
 -0.00036866601718227613 -0.003418307294268232 0.0004105865367945869 0.005371921066360548 0.9968875298548358 -0.02720380322721753 0.002737168082580097 0.011091606302779573
0.050020842017509996 0.0029712629649310163 0.012752001404631326 0.9965768053194499 -0.03113994846264335 0.0005034961718250813 0.006141320328334141 -0.00043918291765965035 -0.003911653405605352
 0.9965768053194499 -0.03113994846264335 0.0029732868053018125 0.012751806516021072 -0.0004389977265259885 -0.00391165079503788 0.0004913838828425116 0.006142725628507178
 0.0005034961718250813 0.006141320328334141 -0.0004389977265259885 -0.00391165079503788 0.0029713001975894982 0.012751334951023029 0.9965767906448718 -0.031140616668850974
 -0.00043918291765965035 -0.003911653405605352 0.0004913838828425116 0.006142725628507178 0.9965767906448718 -0.031140616668850974 0.002973221197528373 0.012751141681363048
0.055454545454549996 0.0031879349851357767 0.014207869706615984 0.996290565392584 -0.03457222964227065 0.0005828237711533136 0.006811384021691459 -0.000505937509466772 -0.004341104248446853
 0.996290565392584 -0.03457222964227065 0.0031904211710911223 0.014207641716944396 -0.000505710594086707 -0.00434110352096312 0.000567933243859276 0.006813114409518978
 0.0005828237711533136 0.006811384021691459 -0.000505710594086707 -0.00434110352096312 0.0031879809277660263 0.014207131664313375 0.9962905476153134 -0.0345729704480577
 -0.000505937509466772 -0.004341104248446853 0.000567933243859276 0.006813114409518978 0.9962905476153134 -0.0345729704480577 0.003190340986476097 0.014206905142663373
0.056273447269699996 0.003221563828945437 0.014428360817343486 0.9962461085928652 -0.03509039958192166 0.0005953182771745279 0.006912403321796306 -0.000516442895242964 -0.004405879048119876
 0.9962461085928652 -0.03509039958192166 0.0032241238039054675 0.014428127605059134 -0.0005162093332626422 -0.004405878653512487 0.0005799840480484622 0.006914186529113301
 0.0005953182771745279 0.006912403321796306 -0.0005162093332626422 -0.004405878653512487 0.0032216111620174347 0.014427612002291309 0.996246090321571 -0.035091151331676416
 -0.000516442895242964 -0.004405879048119876 0.0005799840480484622 0.006914186529113301 0.996246090321571 -0.035091151331676416 0.003224041298290322 0.014427380232023657
0.06252605252188 0.00348685565809823 0.016121099451166482 0.9958951797282377 -0.0390545521058233 0.0006954045245371234 0.007683989962742721 -0.000600528243709367 -0.004900875975434463
 0.9958951797282377 -0.0390545521058233 0.0034900145219230287 0.01612082428167893 -0.0006002408527433272 -0.004900878569922694 0.0006764662900194632 0.0076862112755933226
 0.0006954045245371234 0.007683989962742721 -0.0006002408527433272 -0.004900878569922694 0.0034869142851265554 0.0161202685154128 0.9958951574610448 -0.03905538745612402
 -0.000600528243709367 -0.004900875975434463 0.0006764662900194632 0.0076862112755933226 0.9958951574610448 -0.03905538745612402 0.0034899132340239438 0.016119994565683107
0.06877865777407 0.003767421756915319 0.017829916346330174 0.9955237470255615 -0.04303235024083132 0.0008038337116614997 0.008455978661401978 -0.000691519752243056 -0.005396535372401283
 0.9955237470255615 -0.04303235024083132 0.0037712422520147105 0.017829595427455894 -0.0006911731142108598 -0.005396541791868353 0.000780908610659644 0.008458703000371182
 0.0008038337116614997 0.008455978661401978 -0.0006911731142108598 -0.005396541791868353 0.003767492867449683 0.017829003543713015 0.9955237203590025 -0.04303326926097613
 -0.000691519752243056 -0.005396535372401283 0.000780908610659644 0.008458703000371182 0.9955237203590025 -0.04303326926097613 0.003771120310492116 0.017828683588925847
0.07503126302626001 0.004063543962480172 0.019554528227810723 0.9951315387986897 -0.047023710721129236 0.0009206832619375879 0.009228263931983689 -0.0007894966606143428 -0.005892747330733471
 0.9951315387986897 -0.047023710721129236 0.004068088831001686 0.01955415760796387 -0.0007890853972226538 -0.0058927584738559515 0.0008933876670849599 0.009231560994665407
 0.0009206832619375879 0.009228263931983689 -0.0007890853972226538 -0.0058927584738559515 0.004063628744482285 0.019553533825873704 0.9951315073258152 -0.04702471349214288
 -0.0007894966606143428 -0.005892747330733471 0.0008933876670849599 0.009231560994665407 0.9951315073258152 -0.04702471349214288 0.004067944379347071 0.019553163893088157
0.08128386827845 0.0043755026768314345 0.021294663784894734 0.9947182836165644 -0.051028528470765895 0.0010460291314776744 0.010000736754544335 -0.0008945366087113692 -0.006389400500315193
 0.9947182836165644 -0.051028528470765895 0.004380834672948986 0.02129423935185356 -0.0008940553813215112 -0.00638941732859312 0.001013978685876042 0.010004681070033376
 0.0010460291314776744 0.010000736754544335 -0.0008940553813215112 -0.00638941732859312 0.004375602316502644 0.021293588065221535 0.9947182469260395 -0.05102961508517462
 -0.0008945366087113692 -0.006389400500315193 0.001013978685876042 0.010004681070033376 0.9947182469260395 -0.05102961508517462 0.004380665868773571 0.02129316403303387
0.08753647353064001 0.004703576858992276 0.023050059704294933 0.994283710507976 -0.05504668051643633 0.0011799457228689383 0.010773284825146045 -0.001006715578677256 -0.00688638185596293
 0.994283710507976 -0.05504668051643633 0.004709758760661514 0.023049577183697597 -0.0010061590883914634 -0.006886405393736743 0.0011427553825876207 0.010777955808193731
 0.0011799457228689383 0.010773284825146045 -0.0010061590883914634 -0.006886405393736743 0.004703692542086961 0.023048902962223037 0.9942836681839587 -0.055047851078469566
 -0.001006715578677256 -0.00688638185596293 0.0011427553825876207 0.010777955808193731 0.9942836681839587 -0.055047851078469566 0.004709563775951853 0.023048420559533163
0.09378907878283 0.005048043993289445 0.02482045784930523 0.9938275491451356 -0.05907802875824132 0.0013225058004605634 0.011545792741660342 -0.0011261078347991282 -0.007383576532536487
 0.9938275491451356 -0.05907802875824132 0.0050551386138435175 0.024819912802718943 -0.0011254708224956633 -0.007383607867006605 0.0012797898819114693 0.011551274746251889
 0.0013225058004605634 0.011545792741660342 -0.0011254708224956633 -0.007383607867006605 0.005048176905168979 0.024819220395527704 0.9938275007663587 -0.05907928338220892
 -0.0011261078347991282 -0.007383576532536487 0.0012797898819114693 0.011551274746251889 0.9938275007663587 -0.05907928338220892 0.005054915635155392 0.024818675199744372
0.100041684035 0.005409180036766365 0.026605603178613737 0.9933495300099957 -0.06312242200531587 0.0014737804087268057 0.012318142140446317 -0.0012527858594525894 -0.00788086771310182
 0.9933495300099957 -0.06312242200531587 0.005417250236632271 0.026604991001280845 -0.0012520631060651299 -0.007880907994319147 0.0014251526399521653 0.01232452451289212
 0.0014737804087268057 0.012318142140446317 -0.0012520631060651299 -0.007880907994319147 0.0054093313637972075 0.02660428533850781 0.9933494751496402 -0.06312376081619389
 -0.0012527858594525894 -0.00788086771310182 0.0014251526399521653 0.01232452451289212 0.9933494751496402 -0.06312376081619389 0.00541699746542266 0.026603672773488803
0.1059090909091 0.005763472523115873 0.02829395930285152 0.9928808411124551 -0.0669293755502458 0.001623723059045246 0.013042658024846296 -0.0013783490214928221 -0.008347504666913952
 0.9928808411124551 -0.0669293755502458 0.005772515424226078 0.0282932797918363 -0.0013775410984322668 -0.008347554445640806 0.0015691958600611289 0.01304997104961427
 0.001623723059045246 0.013042658024846296 -0.0013775410984322668 -0.008347554445640806 0.005763642210996382 0.02829256633645542 0.9928807797764699 -0.06693079348597751
 -0.0013783490214928221 -0.008347504666913952 0.0015691958600611289 0.01304997104961427 0.9928807797764699 -0.06693079348597751 0.005772233073189422 0.028291886251594303
0.1062942892872 0.005787259353725008 0.028405242190981922 0.9928493845504557 -0.06717969749030175 0.0016338387914249812 0.013090211808329607 -0.001386820287372529 -0.008378136546085142
 0.9928493845504557 -0.06717969749030175 0.0057963680525695725 0.028404558109029924 -0.0013860066141543595 -0.008378186986940626 0.0015789123671647001 0.013097588939599343
 0.0016338387914249812 0.013090211808329607 -0.0013860066141543595 -0.008378186986940626 0.0057874302836072 0.02840384430367535 0.9928493227757931 -0.06718112062459679
 -0.001386820287372529 -0.008378136546085142 0.0015789123671647001 0.013097588939599343 0.9928493227757931 -0.06718112062459679 0.0057960837050028465 0.02840315963719437
0.11254689453939999 0.006182554639526912 0.030219121731111593 0.9923268453288056 -0.07124968202732467 0.001802748312102412 0.013861877770943167 -0.0015282798378702157 -0.008875262090138157
 0.9923268453288056 -0.07124968202732467 0.006192764827929002 0.030218360798503104 -0.0015273701067343513 -0.008875323966338918 0.0017411359520097527 0.013870349148358087
 0.001802748312102412 0.013861877770943167 -0.0015273701067343513 -0.008875323966338918 0.0061827463622858335 0.03021764414965547 0.9923267762008037 -0.07125118963278025
 -0.0015282798378702157 -0.008875262090138157 0.0017411359520097527 0.013870349148358087 0.9923267762008037 -0.07125118963278025 0.006192447135438933 0.030216882490569117
0.11879949979160001 0.006595336835866132 0.03204698806045574 0.9917816461647085 -0.07533219291010032 0.0019805743749884805 0.014633013367791563 -0.0016772312460136332 -0.009372121276777761
 0.9917816461647085 -0.07533219291010032 0.0066067115872070585 0.03204614515545449 -0.001676220359921562 -0.009372195926807375 0.001911888384609973 0.014642683625856058
 0.0019805743749884805 0.014633013367791563 -0.001676220359921562 -0.009372195926807375 0.006595550544438909 0.03204543115245369 0.9917815692373758 -0.07533378514494092
 -0.0016772312460136332 -0.009372121276777761 0.001911888384609973 0.014642683625856058 0.9917815692373758 -0.07533378514494092 0.006606358796478692 0.03204458744738748
0.1250521050438 0.007025875039526627 0.0338885861265949 0.9912135222737946 -0.07942703861661361 0.0021673803465658585 0.015403489318523039 -0.0018337391923259857 -0.009868588886131673
 0.9912135222737946 -0.07942703861661361 0.007038477521913041 0.03388765594775615 -0.0018326220957057405 -0.009868677711206211 0.0020912326812272536 0.015414468289002786
 0.0021673803465658585 0.015403489318523039 -0.0018326220957057405 -0.009868677711206211 0.007026111930547996 0.03388695027425787 0.9912134370938039 -0.07942871564921591
 -0.0018337391923259857 -0.009868588886131673 0.0020912326812272536 0.015414468289002786 0.9912134370938039 -0.07942871564921591 0.0070380878952593096 0.03388601930392655
0.131304710296 0.007474436405436048 0.03574365897625567 0.9906222104038939 -0.08353401937544389 0.002363227477580848 0.016173173782097084 -0.001997866231794897 -0.010364537534407492
 0.9906222104038939 -0.08353401937544389 0.0074883298939855125 0.035742636038041106 -0.001996637911061817 -0.010364641998378204 0.002279229808503961 0.016185576543066918
 0.002363227477580848 0.016173173782097084 -0.001996637911061817 -0.010364641998378204 0.007474697680136652 0.035741944574519006 0.990622116510336 -0.08353578138610111
 -0.001997866231794897 -0.010364537534407492 0.002279229808503961 0.016185576543066918 0.990622116510336 -0.08353578138610111 0.007487901709495561 0.03574092094954393
0.1375573155481 0.007836573435561558 0.03737055481804525 0.9901121968741676 -0.08741144364799763 0.0025432943517689588 0.01691783316833177 -0.0021448936885043735 -0.010835682248013774
 0.9901121968741676 -0.08741144364799763 0.007851826993274896 0.03736945506886882 -0.0021435470004509062 -0.010835802445790502 0.0024512527551978787 0.016931639296413076
 0.0025432943517689588 0.01691783316833177 -0.0021435470004509062 -0.010835802445790502 0.007836861266171535 0.03736876157146412 0.9901120938690969 -0.0874132907262375
 -0.0021448936885043735 -0.010835682248013774 0.0024512527551978787 0.016931639296413076 0.9901120938690969 -0.0874132907262375 0.007851357444727232 0.03736766257788048
0.1438099208003 0.008211398827086085 0.0389891967711302 0.9895843448766258 -0.09127934496471407 0.0027306456406198366 0.017659588035219935 -0.0022978047055829533 -0.01130419840336091
 0.9895843448766258 -0.09127934496471407 0.008228076789144494 0.03898801599685558 -0.002296334313003285 -0.011304335764512237 0.00263020653387839 0.01767490253884892
 0.0027306456406198366 0.017659588035219935 -0.002296334313003285 -0.011304335764512237 0.00821171459739868 0.03898732502024313 0.989584232301058 -0.0912812772834656
 -0.0022978047055829533 -0.01130419840336091 0.00263020653387839 0.01767490253884892 0.989584232301058 -0.0912812772834656 0.008227563979885569 0.038986146682728304
0.1500625260525 0.008598784691173691 0.04059945862746731 0.9890387860552664 -0.09513763626266471 0.002925219535066983 0.018398366386033718 -0.002456539956228052 -0.01177001908516538
 0.9890387860552664 -0.09513763626266471 0.008616951535653351 0.04059819236704014 -0.002454940536441963 -0.011770175096095637 0.00281603131835378 0.018415298105093306
 0.002925219535066983 0.018398366386033718 -0.002454940536441963 -0.011770175096095637 0.008599129801109547 0.04059750872299782 0.9890386634440425 -0.0951396540016902
 -0.002456539956228052 -0.01177001908516538 0.00281603131835378 0.018415298105093306 0.9890386634440425 -0.0951396540016902 0.008616393571240876 0.04059624683439029
0.15631513130469998 0.008998602283490052 0.04220121802948795 0.9884756526637891 -0.09898623060366914 0.0031269535229956134 0.019134097392581095 -0.0026210394102950704 -0.012233078753922964
