! Created with skrf 1.8.0 (http://scikit-rf.org).
# GHz S RI R 50.0 
!freq ReS11 ImS11 ReS12 ImS12 ReS13 ImS13
! ReS14 ImS14
! ReS21 ImS21 ReS22 ImS22 ReS23 ImS23
! ReS24 ImS24
! ReS31 ImS31 ReS32 ImS32 ReS33 ImS33
! ReS34 ImS34
! ReS41 ImS41 ReS42 ImS42 ReS43 ImS43
! ReS44 ImS44
!
0.0 0.001457331510194 0.0 0.9985426684898 0.0 5.630379698982e-05 0.0 -5.630379756656e-05 6.895226546972825e-21
 0.9985426684898 0.0 0.001457331510211 0.0 -5.630379756738e-05 6.895226547073244e-21 5.630379698947e-05 0.0
 5.630379698982e-05 0.0 -5.630379756738e-05 6.895226547073244e-21 0.001457331500273 0.0 0.9985426684798 0.0
 -5.630379756656e-05 6.895226546972825e-21 5.630379698947e-05 0.0 0.9985426684798 0.0 0.001457331500247 0.0
0.005 0.0015677714193941992 0.0011879756934753086 0.9984029576870017 -0.0030532864086563207 7.947769286690304e-05 0.0006468417726764974 -7.699033806668813e-05 -0.00040144577728896854
 0.9984029576870017 -0.0030532864086563207 0.001567799559578644 0.0011879592424193567 -7.69858364380138e-05 -0.00040144232781632867 7.931590257354742e-05 0.0006469032994432256
 7.947769286690304e-05 0.0006468417726764974 -7.69858364380138e-05 -0.00040144232781632867 0.0015677740325336946 0.0011880414039129258 0.9984029580427711 -0.0030532193519023326
 -7.699033806668813e-05 -0.00040144577728896854 7.931590257354742e-05 0.0006469032994432256 0.9984029580427711 -0.0030532193519023326 0.0015677976523267383 0.0011880276411367278
0.006252605252188 0.0015966639584553074 0.0014896731538210437 0.9983661816194579 -0.0038173675467787814 8.60782320921987e-05 0.0008088565329358572 -8.280244679970605e-05 -0.0005023364278337644
 0.9983661816194579 -0.0038173675467787814 0.0015967079470918671 0.0014896522933056503 -8.279544178096925e-05 -0.0005023321743459501 8.582544787551132e-05 0.0008089364122097803
 8.60782320921987e-05 0.0008088565329358572 -8.279544178096925e-05 -0.0005023321743459501 0.0015966679662029395 0.0014897552794329004 0.9983661820982254 -0.003817283733422496
 -8.280244679970605e-05 -0.0005023364278337644 8.582544787551132e-05 0.0008089364122097803 0.9983661820982254 -0.003817283733422496 0.00159670488790674 0.0014897377845690118
0.01250521050438 0.0017483389426920697 0.003010818461613297 0.9981718614137983 -0.007635632083370147 0.0001238230790311967 0.0016180067045543922 -0.00011562672609035653 -0.0010071781414687385
 0.9981718614137983 -0.007635632083370147 0.001748514595608508 0.003010773746413746 -0.0001155991181132891 -0.001007170271738581 0.0001228149848617532 0.0016181983931274335
 0.0001238230790311967 0.0016180067045543922 -0.0001155991181132891 -0.001007170271738581 0.0017483543716746146 0.003010982406715149 0.9981718627492412 -0.007635464682128933
 -0.00011562672609035653 -0.0010071781414687385 0.0001228149848617532 0.0016181983931274335 0.9981718627492412 -0.007635464682128933 0.0017485017976866263 0.003010944510692558
0.01875781575657 0.0019126743513304897 0.004553847895734778 0.9979594760286091 -0.011464105832514008 0.00016962194370058917 0.0024280285556286607 -0.00015487521758913232 -0.0015137710108517
 0.9979594760286091 -0.011464105832514008 0.001913069061210275 0.004553776092149776 -0.0001548136475489837 -0.0015137602791561737 0.00016735724987040055 0.002428369958968535
 0.00016962194370058917 0.0024280285556286607 -0.0001548136475489837 -0.0015137602791561737 0.0019127086039178664 0.0045540934051229 0.9979594786097471 -0.01146385492694286
 -0.00015487521758913232 -0.0015137710108517 0.00016735724987040055 0.002428369958968535 0.9979594786097471 -0.01146385492694286 0.0019130398710852628 0.004554032070184682
0.02501042100875 0.00208997939290191 0.006116606934470804 0.9977287848957118 -0.015304658411439334 0.00022356038088216455 0.003238969581313171 -0.00020064345116903263 -0.0020218864454683515
 0.9977287848957118 -0.015304658411439334 0.0020906803836712685 0.006116504601110797 -0.00020053471783459205 -0.0020218737366327643 0.00021953752162212097 0.003239504362841461
 0.00022356038088216455 0.003238969581313171 -0.00020053471783459205 -0.0020218737366327643 0.0020900398557281217 0.00611693371743973 0.9977287891092496 -0.015304324032719805
 -0.00020064345116903263 -0.0020218864454683515 0.00021953752162212097 0.003239504362841461 0.9977287891092496 -0.015304324032719805 0.0020906281496022748 0.006116845799564148
0.03126302626094 0.0022805504049786883 0.00769799355580394 0.9974795346975673 -0.01915809781871923 0.0002857247670185764 0.004050799775822121 -0.0002530243527974614 -0.0025313682405193427
 0.9974795346975673 -0.01915809781871923 0.0022816447791960395 0.007697857049583023 -0.0002528553856362983 -0.0025313545716384896 0.00027944142690959124 0.004051577390486038
 0.0002857247670185764 0.004050799775822121 -0.0002528553856362983 -0.0025313545716384896 0.0022806444536229683 0.007698401259451858 0.997479540929724 -0.01915767997206087
 -0.0002530243527974614 -0.0025313682405193427 0.00027944142690959124 0.004051577390486038 0.997479540929724 -0.01915767997206087 0.0022815628493354457 0.007698283514432397
0.037515631513130004 0.002484677378232009 0.00929729430481541 0.9972114660679471 -0.023024834309959732 0.0003562013236396645 0.004863458716889966 -0.00031210895511478415 -0.003042085478678507
 0.9972114660679471 -0.023024834309959732 0.0024862521481876136 0.009297119783681335 -0.00031186680041668166 -0.003042071999681904 0.00034715422052945333 0.0048645344704595665
 0.0003562013236396645 0.004863458716889966 -0.00031186680041668166 -0.003042071999681904 0.00248481238149061 0.009297782507837587 0.9972114747081534 -0.023024332980127443
 -0.00031210895511478415 -0.003042085478678507 0.00034715422052945333 0.0048645344704595665 0.9972114747081534 -0.023024332980127443 0.0024861338715861537 0.0092976315949116
0.043768236765320004 0.0027026464846688584 0.010913982265634127 0.9969243163029164 -0.026905082360011816 0.0004350756740316805 0.005676869865449364 -0.00037798665102428426 -0.0035539182234387316
 0.9969243163029164 -0.026905082360011816 0.002704788596579487 0.010913765689930842 -0.00037765846361914493 -0.003553906217297687 0.0004227604510191195 0.0056783049818983945
 0.0004350756740316805 0.005676869865449364 -0.00037765846361914493 -0.003553906217297687 0.002702829804006914 0.01091455047241675 0.9969243277433784 -0.026904497516297178
 -0.00037798665102428426 -0.0035539182234387316 0.0004227604510191195 0.0056783049818983945 0.9969243277433784 -0.026904497516297178 0.002704627320954482 0.010914362956982676
0.050020842017509996 0.0029347412544964767 0.012547633556589595 0.9966178207246059 -0.03079894409980859 0.0005224325772205212 0.006490946489580859 -0.00045074529490541216 -0.004066751591492843
 0.9966178207246059 -0.03079894409980859 0.0029375376096267714 0.012547370689656017 -0.0004503183328681656 -0.00406674247432839 0.0005063437530777242 0.00649280818182018
 0.0005224325772205212 0.006490946489580859 -0.0004503183328681656 -0.00406674247432839 0.002934980243298552 0.01254828120124937 0.9966178353597545 -0.030798275691084814
 -0.00045074529490541216 -0.004066751591492843 0.0005063437530777242 0.00649280818182018 0.9966178353597545 -0.030798275691084814 0.0029373266794954843 0.012548053556906854
0.055454545454549996 0.003148129076497131 0.013980820212833218 0.9963355491565626 -0.034193909101273005 0.0006053022895234559 0.007198871312031135 -0.0005196300271794078 -0.004513144387601269
 0.9963355491565626 -0.034193909101273005 0.0031515645423338284 0.01398051352377824 -0.0005191069564601217 -0.004513139034551346 0.0005855226942631508 0.0072011630023435195
 0.0006053022895234559 0.007198871312031135 -0.0005191069564601217 -0.004513139034551346 0.0031484224093009513 0.0139815363716724 0.9963355668905399 -0.03419316801949818
 -0.0005196300271794078 -0.004513144387601269 0.0005855226942631508 0.0072011630023435195 0.9963355668905399 -0.03419316801949818 0.0031513050531150953 0.013981270920042532
0.056273447269699996 0.0031812431820149446 0.014197886351762118 0.9962917134774022 -0.034706450227395554 0.0006183557489131001 0.007305594556834325 -0.0005304712277104794 -0.00458047285984656
 0.9962917134774022 -0.034706450227395554 0.0031847806552676144 0.014197572759990236 -0.00052993284875944 -0.0045804681809696645 0.0005979867030733068 0.0073079560990024495
 0.0006183557489131001 0.007305594556834325 -0.00052993284875944 -0.0045804681809696645 0.0031815451855227305 0.014198612790632741 0.9962917317045309 -0.034705698188642845
 -0.0005304712277104794 -0.00458047285984656 0.0005979867030733068 0.0073079560990024495 0.9962917317045309 -0.034705698188642845 0.003184513411627737 0.01419834140064332
0.06252605252188 0.003442432054226717 0.015864418347907878 0.9959457280512002 -0.03862758247557382 0.0007229277204871687 0.00812071433271588 -0.0006172492681746668 -0.005094969869988468
 0.9959457280512002 -0.03862758247557382 0.0034467975126816312 0.015864049400147216 -0.0006165869273370971 -0.00509497131189588 0.000697770701289632 0.008123655133178625
 0.0007229277204871687 0.00812071433271588 -0.0006165869273370971 -0.00509497131189588 0.0034428044115294263 0.015865222858137712 0.9959457502731051 -0.03862674672831039
 -0.0006172492681746668 -0.005094969869988468 0.000697770701289632 0.008123655133178625 0.9959457502731051 -0.03862674672831039 0.003446467293887697 0.01586490401654344
0.06877865777407 0.003718586131567093 0.0175469333265096 0.9955795976593488 -0.042562286987066114 0.0008362297213545301 0.008936201328686381 -0.0007111626829341675 -0.005610130085943654
 0.9955795976593488 -0.042562286987066114 0.003723866451106711 0.017546504193109484 -0.0007103639307742978 -0.005610139464315978 0.0008057758703718773 0.008939807003251856
 0.0008362297213545301 0.008936201328686381 -0.0007103639307742978 -0.005610139464315978 0.00371903617198123 0.017547815108933024 0.9955796242817357 -0.04256136743551542
 -0.0007111626829341675 -0.005610130085943654 0.0008057758703718773 0.008939807003251856 0.9955796242817357 -0.04256136743551542 0.0037234665900892604 0.017547445021016954
0.07503126302626001 0.004009982232524381 0.019245152644801033 0.9951930555249439 -0.04651048276399602 0.0009583415746186976 0.009751946909121206 -0.0008122931436617519 -0.00612583999698122
 0.9951930555249439 -0.04651048276399602 0.0040162643149032765 0.019244658296012074 -0.0008113456251934233 -0.006125859260645392 0.0009220809631475476 0.00975630935414117
 0.0009583415746186976 0.009751946909121206 -0.0008113456251934233 -0.006125859260645392 0.004010517277222884 0.01924611081494131 0.9951930869590593 -0.046509479303126315
 -0.0008122931436617519 -0.00612583999698122 0.0009220809631475476 0.00975630935414117 0.9951930869590593 -0.046509479303126315 0.004015788140604629 0.019245685597334573
0.08128386827845 0.004316895767220797 0.02095880956108783 0.9947858351184307 -0.0504720672866977 0.001089341600805585 0.010567838697804859 -0.0009207206761026285 -0.006641984724484796
 0.9947858351184307 -0.0504720672866977 0.004324266556717362 0.02095824476504522 -0.0009196121301189768 -0.0066420159553663765 0.0010467632758542574 0.010573056162980675
 0.001089341600805585 0.010567838697804859 -0.0009196121301189768 -0.0066420159553663765 0.004317523127528106 0.020959843159233004 0.9947858717803966 -0.050470979791170455
 -0.0009207206761026285 -0.006641984724484796 0.0010467632758542574 0.010573056162980675 0.9947858717803966 -0.050470979791170455 0.004323707392351164 0.02095935883951939
0.08753647353064001 0.00463960073056441 0.02268764532162754 0.9943576703585656 -0.05444692037482462 0.00122930652745309 0.01138376085952046 -0.0010365236030277143 -0.007158447757612288
 0.9943576703585656 -0.05444692037482462 0.004648147230301058 0.02268700464183717 -0.0010352418616656706 -0.007158493170671142 0.001179898565006815 0.01138993802023822
 0.00122930652745309 0.01138376085952046 -0.0010352418616656706 -0.007158493170671142 0.004640327707893368 0.022688753298881315 0.994357712670718 -0.054445748712078
 -0.0010365236030277143 -0.007158447757612288 0.001179898565006815 0.01138993802023822 0.994357712670718 -0.054445748712078 0.004647498394007906 0.022688205814647866
0.09378907878283 0.004978369671018901 0.024431406355210798 0.9939082957920793 -0.05843490694502079 0.0013783114015803518 0.012199594307963371 -0.0011597784832990123 -0.007675110766598401
 0.9939082957920793 -0.05843490694502079 0.004988178959425919 0.02443068414741453 -0.0011583114718914426 -0.007675172709748787 0.0013215609665132163 0.012206842337050317
 0.0013783114015803518 0.012199594307963371 -0.0011583114718914426 -0.007675172709748787 0.004979203555841671 0.024432587585192206 0.9939083441828583 -0.05843365096256579
 -0.0011597784832990123 -0.007675110766598401 0.0013215609665132163 0.012206842337050317 0.9939083441828583 -0.05843365096256579 0.004987433763634709 0.02443197278262921
0.100041684035 0.005333473640796703 0.026189842226892704 0.9934374467572111 -0.06243587901360861 0.0015364295051604948 0.01301521686181116 -0.0012905600475305713 -0.00819185347207236
 0.9934374467572111 -0.06243587901360861 0.0053446328881191435 0.026189032635561084 -0.0012888957846583524 -0.008191934426085817 0.0014718229162485805 0.013023653500524838
 0.0015364295051604948 0.01301521686181116 -0.0012888957846583524 -0.008191934426085817 0.005334421711675681 0.026191095494604747 0.9934375016618646 -0.062434538549332716
 -0.0012905600475305713 -0.00819185347207236 0.0014718229162485805 0.013023653500524838 0.9934375016618646 -0.062434538549332716 0.00534378463908854 0.026190409126518134
0.1059090909091 0.005681797664796068 0.027853072704840234 0.9929758391561115 -0.06620203528729962 0.0016931586133012543 0.013780288868657476 -0.0014201950175473919 -0.008676725240506784
 0.9929758391561115 -0.06620203528729962 0.005694303081926111 0.02785217559588262 -0.0014183348413740657 -0.008676826408681271 0.0016207119777025976 0.013789953888627951
 0.0016931586133012543 0.013780288868657476 -0.0014183348413740657 -0.008676826408681271 0.005682859495677265 0.027854392391708026 0.992975900575675 -0.06620061538570676
 -0.0014201950175473919 -0.008676725240506784 0.0016207119777025976 0.013789953888627951 0.992975900575675 -0.06620061538570676 0.005693352034989485 0.027853634918831173
0.1062942892872 0.005705182131561874 0.027962704090822698 0.9929448595367331 -0.06644967720496468 0.0017037322717260424 0.01383050336762821 -0.0014289411315903384 -0.008708553551657077
 0.9929448595367331 -0.06644967720496468 0.0057177786162778965 0.027961801044925187 -0.00142706772928587 -0.008708656130044378 0.00163075507163909 0.013840252995898611
 0.0017037322717260424 0.01383050336762821 -0.00142706772928587 -0.008708656130044378 0.005706251654494529 0.027964028095735862 0.9929449213978644 -0.0664482520832171
 -0.0014289411315903384 -0.008708553551657077 0.00163075507163909 0.013840252995898611 0.9929449213978644 -0.0664482520832171 0.0057168206142018075 0.02796326581905455
0.11254689453939999 0.0060937630003240675 0.029749743509355463 0.9924302715028028 -0.0704761318982002 0.0018802892044671499 0.014645325798569463 -0.001574992608105232 -0.00922508657513365
 0.9924302715028028 -0.0704761318982002 0.0061078841258671995 0.029748740717668087 -0.0015728982722161625 -0.00922521352401493 0.0017984262338006562 0.01465651950433204
 0.0018802892044671499 0.014645325798569463 -0.0015728982722161625 -0.00922521352401493 0.006094961227889999 0.029751136866616918 0.992430340770875 -0.07047462192764181
 -0.001574992608105232 -0.00922508657513365 0.0017984262338006562 0.01465651950433204 0.992430340770875 -0.07047462192764181 0.006106809664368496 0.02975029423935205
0.11879949979160001 0.006499482387323787 0.0315507115401662 0.991893421257325 -0.07451506411075537 0.0020661677951628677 0.015459553336823318 -0.0017287833165022862 -0.00974132596028665
 0.991893421257325 -0.07451506411075537 0.006515215698366554 0.03154960248604034 -0.0017264563470840168 -0.009741480158239835 0.00197490327013517 0.015472328984374239
 0.0020661677951628677 0.015459553336823318 -0.0017264563470840168 -0.009741480158239835 0.006500816557537565 0.03155217277541897 0.9918934983911133 -0.07451346908884672
 -0.0017287833165022862 -0.00974132596028665 0.00197490327013517 0.015472328984374239 0.9918934983911133 -0.07451346908884672 0.006514018064739152 0.0315512452529389
0.1250521050438 0.006922604626560158 0.03336535800785812 0.991334048767399 -0.07856628620259788 0.0022614334434765387 0.016273052445949652 -0.001890379991747623 -0.01025714294335581
 0.991334048767399 -0.07856628620259788 0.0069400378262837546 0.033364135943183 -0.0018878087837002587 -0.010257327401228457 0.0021602510374580585 0.016287554743243473
 0.0022614334434765387 0.016273052445949652 -0.0018878087837002587 -0.010257327401228457 0.0069240819620897155 0.03336688556035871 0.9913341342347254 -0.07856460591160544
 -0.001890379991747623 -0.01025714294335581 0.0021602510374580585 0.016287554743243473 0.9913341342347254 -0.07856460591160544 0.006938710300817349 0.03336586849120545
0.131304710296 0.007363392152036377 0.03519343092444002 0.9907518954987957 -0.08262960243660868 0.002466149376893069 0.017085686935105156 -0.0020598471924568357 -0.010772406562109508
 0.9907518954987957 -0.08262960243660868 0.007382613118612739 0.03519208886326254 -0.002057020236069375 -0.01077262442283814 0.002354532304865882 0.01710206749995777
 0.002466149376893069 0.017085686935105156 -0.002057020236069375 -0.01077262442283814 0.007365019858773516 0.03519502314417183 0.9907519897766334 -0.08262783664580478
 -0.0020598471924568357 -0.010772406562109508 0.002354532304865882 0.01710206749995777 0.9907519897766334 -0.08262783664580478 0.007381148974655561 0.0351939117651565
0.1375573155481 0.007718926007555175 0.03679507018403349 0.9902499179915357 -0.0864651173964453 0.002654526141942269 0.017872895110860133 -0.0022115331102029565 -0.01126248355750792
 0.9902499179915357 -0.0864651173964453 0.007740028361994049 0.03679362835277633 -0.002208433427619414 -0.011262734947248013 0.0025322179528353013 0.01789112570309143
 0.002654526141942269 0.017872895110860133 -0.002208433427619414 -0.011262734947248013 0.007720710875751562 0.03679672534555357 0.9902500214841912 -0.08646326598426858
 -0.0022115331102029565 -0.01126248355750792 0.0025322179528353013 0.01789112570309143 0.9902500214841912 -0.08646326598426858 0.007738421416008877 0.0367955424307084
0.1438099208003 0.008086885195930161 0.038388564479159684 0.9897304141600635 -0.09029122494301989 0.0028505403261145966 0.018657096541721385 -0.002369304318658412 -0.01174986722885653
 0.9897304141600635 -0.09029122494301989 0.008109957920451872 0.03838701751257004 -0.00236591955226286 -0.01175015522409767 0.0027170706582777706 0.018677315349299173
 0.0028505403261145966 0.018657096541721385 -0.00236591955226286 -0.01175015522409767 0.008088834334571925 0.038390280862156435 0.9897305273430757 -0.09028928768671274
 -0.002369304318658412 -0.01174986722885653 0.0027170706582777706 0.018677315349299173 0.9897305273430757 -0.09028928768671274 0.008108201533334561 0.038389023367972556
0.1500625260525 0.00846714404915439 0.03997378991324538 0.9891935134303202 -0.09410783961325653 0.003054128150787837 0.01943821644367125 -0.0025330999561617167 -0.012234488571728932
 0.9891935134303202 -0.09410783961325653 0.00849227632471561 0.03997213212998211 -0.0025294177738541335 -0.012234816372115348 0.002909029224078382 0.019460566695574874
 0.003054128150787837 0.01943821644367125 -0.0025294177738541335 -0.012234816372115348 0.008469264547186925 0.03997556572700212 0.9891936367869807 -0.09410581628208425
 -0.0025330999561617167 -0.012234488571728932 0.002909029224078382 0.019460566695574874 0.9891936367869807 -0.09410581628208425 0.008490363856604082 0.03997423038946917
0.15631513130469998 0.008859576053331469 0.0415506263837096 0.9886393458342432 -0.09791487605506395 0.0032652251123547263 0.0202161812203428 -0.0027028584381919253 -0.012716280002109342
 0.9886393458342432 -0.09791487605506395 0.008886857265960633 0.04154885177840091 -0.0026988665337662836 -0.01271665092992376 0.0031080317641623716 0.020240811137071355
