! Created with skrf 1.8.0 (http://scikit-rf.org).
# GHz S RI R 50.0 
!freq ReS11 ImS11 ReS12 ImS12 ReS13 ImS13
! ReS14 ImS14
! ReS21 ImS21 ReS22 ImS22 ReS23 ImS23
! ReS24 ImS24
! ReS31 ImS31 ReS32 ImS32 ReS33 ImS33
! ReS34 ImS34
! ReS41 ImS41 ReS42 ImS42 ReS43 ImS43
! ReS44 ImS44
!
0.0 0.001517476854354 0.0 0.9984825231457 0.0 5.843182573575e-05 0.0 -5.843182516914e-05 7.155834766172504e-21
 0.9984825231457 0.0 0.001517476854311 0.0 -5.843182516848e-05 7.155834766091678e-21 5.843182573428e-05 0.0
 5.843182573575e-05 0.0 -5.843182516848e-05 7.155834766091678e-21 0.001517476825909 0.0 0.9984825231172 0.0
 -5.843182516914e-05 7.155834766172504e-21 5.843182573428e-05 0.0 0.9984825231172 0.0 0.001517476825901 0.0
0.005 0.0016325882070931707 0.001242515671760464 0.998336907919365 -0.0031787722881112834 8.167830426231147e-05 0.0006373885424867155 -7.934927843150566e-05 -0.00040121750630178304
 0.998336907919365 -0.0031787722881112834 0.0016326024569717366 0.0012425074194796146 -7.93505647548997e-05 -0.00040121853698878797 8.157405404151977e-05 0.0006374280571682906
 8.167830426231147e-05 0.0006373885424867155 -7.93505647548997e-05 -0.00040121853698878797 0.0016325876771675228 0.0012425832838672344 0.9983369082745797 -0.0031787052304241043
 -7.934927843150566e-05 -0.00040121750630178304 8.157405404151977e-05 0.0006374280571682906 0.9983369082745797 -0.0031787052304241043 0.001632603690499042 0.0012425739161735312
0.006252605252188 0.0016627540711417533 0.001558030632818004 0.9982985109721653 -0.003974245835629941 8.831096381147617e-05 0.000797048508873927 -8.524143585683101e-05 -0.0005020403968617268
 0.9982985109721653 -0.003974245835629941 0.0016627763459775052 0.001558020189516061 -8.524343714713998e-05 -0.0005020416686337273 8.814808015121644e-05 0.0007970998418763686
 8.831096381147617e-05 0.000797048508873927 -8.524343714713998e-05 -0.0005020416686337273 0.0016627531642724599 0.0015581151633245899 0.9982985114495131 -0.003974162000282029
 -8.524143585683101e-05 -0.0005020403968617268 8.814808015121644e-05 0.0007970998418763686 0.9982985114495131 -0.003974162000282029 0.0016627781965756164 0.0015581033151349372
0.01250521050438 0.0018214120034043383 0.0031486933045349625 0.9980952434519159 -0.007949311424929243 0.0001263011459082004 0.0015944782979057796 -0.00011859963283068108 -0.0010065225387103072
 0.9980952434519159 -0.007949311424929243 0.0018215009406988799 0.0031486711469640052 -0.00011860751582357305 -0.0010065249010381477 0.00012565153197180594 0.001594601848765181
 0.0001263011459082004 0.0015944782979057796 -0.00011860751582357305 -0.0010065249010381477 0.0018214078349538681 0.0031488621100807506 0.99809524482011 -0.007949144018282126
 -0.00011859963283068108 -0.0010065225387103072 0.00012565153197180594 0.001594601848765181 0.99809524482011 -0.007949144018282126 0.0018215077958795532 0.0031488370197837257
0.01875781575657 0.001993793034399591 0.004762004051854095 0.997872470826215 -0.01193487447384249 0.00017248943700076818 0.0023928165205917176 -0.000158608042409942 -0.0015127316201401985
 0.997872470826215 -0.01193487447384249 0.0019939928648567908 0.0047619688462601836 -0.00015862561630446676 -0.0015127348586553224 0.0001710299798566133 0.0023930371786537934
 0.00017248943700076818 0.0023928165205917176 -0.00015862561630446676 -0.0015127348586553224 0.0019937832257689012 0.00476225706510956 0.9978724734793516 -0.011934623544689976
 -0.000158608042409942 -0.0015127316201401985 0.0001710299798566133 0.0023930371786537934 0.9978724734793516 -0.011934623544689976 0.00199400785341224 0.004762217224156266
0.02501042100875 0.002180229633342293 0.0063957115809050065 0.9976299335639518 -0.015932869877506473 0.000226964401220391 0.0031920952577998403 -0.00020536510737726083 -0.0020204424943681453
 0.9976299335639518 -0.015932869877506473 0.0021805844904149684 0.006395661948579823 -0.00020539613414814474 -0.002020446357591684 0.00022437176017617145 0.0031924417857050152
 0.000226964401220391 0.0031920952577998403 -0.00020539613414814474 -0.002020446357591684 0.0021802118065441987 0.00639604873523296 0.99762993790589 -0.01593253544542333
 -0.00020536510737726083 -0.0020204424943681453 0.00022437176017617145 0.0031924417857050152 0.99762993790589 -0.01593253544542333 0.0021806107466798845 0.0063959925407125135
0.03126302626094 0.0023810405150886532 0.008048659109121536 0.9973673587420862 -0.0199441278527471 0.0002898151492501593 0.0039922739915532425 -0.0002589665688193391 -0.0025294971342483654
 0.9973673587420862 -0.0199441278527471 0.002381594461587744 0.008048593631204595 -0.00025901477128757353 -0.0025295013331508268 0.0002857654563913979 0.003992779050483902
 0.0002898151492501593 0.0039922739915532425 -0.00025901477128757353 -0.0025295013331508268 0.0023810122832455707 0.00804908034202608 0.9973673651788273 -0.019943709904662446
 -0.0002589665688193391 -0.0025294971342483654 0.0002857654563913979 0.003992779050483902 0.9973673651788273 -0.019943709904662446 0.0023816351178525728 0.008049006100981677
0.037515631513130004 0.0025965375339482527 0.009720093744055398 0.9970844671470367 -0.02396906449878149 0.0003611304319312836 0.004793283500649633 -0.0003195061470014838 -0.0030397607305470728
 0.9970844671470367 -0.02396906449878149 0.0025973345799935282 0.00972001096437166 -0.0003195752128940138 -0.0030397649384234977 0.00035529915593625274 0.004793983691708065
 0.0003611304319312836 0.004793283500649633 -0.0003195752128940138 -0.0030397649384234977 0.0025964964990084914 0.009720598990792821 0.9970844760868269 -0.023968562995373296
 -0.0003195061470014838 -0.0030397607305470728 0.00035529915593625274 0.004793983691708065 0.9970844760868269 -0.023968562995373296 0.0025973927658981453 0.009720504922528038
0.043768236765320004 0.002827028344977165 0.01140945629616677 0.9967809761482547 -0.02800789191434263 0.0004409982166210449 0.00559503920348089 -0.000387075783517438 -0.0035511083471343567
 0.9967809761482547 -0.02800789191434263 0.002828112463384283 0.011409354723417624 -0.00038716936793169095 -0.003551112199602621 0.0004330600965820629 0.005595975114098638
 0.0004409982166210449 0.00559503920348089 -0.00038716936793169095 -0.003551112199602621 0.002826972097999219 0.0114100454897132 0.9967809880030893 -0.02800730679027657
 -0.000387075783517438 -0.0035511083471343567 0.0004330600965820629 0.005595975114098638 0.9967809880030893 -0.02800730679027657 0.0028281913066869925 0.011409929727157743
0.050020842017509996 0.003072817646567474 0.013116294410493745 0.9964566011555762 -0.03206070499431748 0.000529505431984463 0.006397446670593946 -0.00046176572938662645 -0.0040634194093697685
 0.9964566011555762 -0.03206070499431748 0.003074232786286166 0.013116172519875343 -0.0004618874564908015 -0.004063422504390829 0.0005191344480873166 0.006398662923048404
 0.000529505431984463 0.006397446670593946 -0.0004618874564908015 -0.004063422504390829 0.003072743767362844 0.013116967474634587 0.996456616342261 -0.03206003616520116
 -0.00046176572938662645 -0.0040634194093697685 0.0005191344480873166 0.006398662923048404 0.996456616342261 -0.03206003616520116 0.003074335411982012 0.013116828065324174
0.055454545454549996 0.0032990751359084276 0.014613478149075487 0.9961575272327958 -0.03559409756274583 0.0006135037581274953 0.007095213650798727 -0.00053252495407593 -0.004509323313349499
 0.9961575272327958 -0.03559409756274583 0.0033008136260776334 0.014613337338257055 -0.0005326740580121812 -0.0045093253944018625 0.0006007531790808855 0.007096712938470278
 0.0006135037581274953 0.007095213650798727 -0.0005326740580121812 -0.0045093253944018625 0.003298983958850059 0.014614224032481854 0.9961575456576952 -0.03559335590611355
 -0.00053252495407593 -0.004509323313349499 0.0006007531790808855 0.007096712938470278 0.9961575456576952 -0.03559335590611355 0.003300939455194897 0.014614062421739573
0.056273447269699996 0.003334207815206731 0.014840219936924493 0.9961110564736954 -0.036127523988271855 0.0006267377884590647 0.007200404332410872 -0.0005436645628000687 -0.004576575000543029
 0.9961110564736954 -0.036127523988271855 0.003335997914003714 0.014840076171421763 -0.0005438180268166969 -0.004576576898456578 0.0006136071551385675 0.007201949633350548
 0.0006267377884590647 0.007200404332410872 -0.0005438180268166969 -0.004576576898456578 0.0033341138709658204 0.014840976789782525 0.9961110754140259 -0.03612677134747368
 -0.0005436645628000687 -0.004576575000543029 0.0006136071551385675 0.007201949633350548 0.9961110754140259 -0.03612677134747368 0.0033361274438663234 0.014840811696225895
0.06252605252188 0.0036114992477430346 0.016580885491770544 0.9957440558666901 -0.040208317870515646 0.0007327796359457741 0.008003804966520006 -0.0006328591714885559 -0.005090456382351784
 0.9957440558666901 -0.040208317870515646 0.0036137082442192483 0.016580718263062493 -0.0006330479374832817 -0.005090456605930226 0.000716561809683034 0.008005732156866958
 0.0007327796359457741 0.008003804966520006 -0.0006330479374832817 -0.005090456605930226 0.0036113827925047834 0.016581726041560982 0.9957440789882834 -0.04020748129351501
 -0.0006328591714885559 -0.005090456382351784 0.000716561809683034 0.008005732156866958 0.9957440789882834 -0.04020748129351501 0.0036138677959458663 0.016581533141413345
0.06877865777407 0.0039049905405461817 0.018337970481042198 0.9953553129645905 -0.04430301825154875 0.000847713842499644 0.008807536586146402 -0.000729434714457628 -0.0056049441180322694
 0.9953553129645905 -0.04430301825154875 0.003907662386220628 0.018337778170053144 -0.0007296623188636227 -0.005604942152533065 0.0008280805401659317 0.008809902691149124
 0.000847713842499644 0.008807536586146402 -0.0007296623188636227 -0.005604942152533065 0.0039048491147747853 0.018338894627245337 0.9953553407019539 -0.04430209759521033
 -0.000729434714457628 -0.0056049441180322694 0.0008280805401659317 0.008809902691149124 0.9953553407019539 -0.04430209759521033 0.003907855073003932 0.018338671712938518
0.07503126302626001 0.004214978576563746 0.02011117223495779 0.994944541580686 -0.04841152818238467 0.0009716216849700738 0.009611483009925467 -0.0008334745714684548 -0.006119917518281511
 0.994944541580686 -0.04841152818238467 0.004218157247604295 0.020110953192073844 -0.0008337445224770006 -0.006119912811499129 0.0009482439098587938 0.009614349289112832
 0.0009716216849700738 0.009611483009925467 -0.0008337445224770006 -0.006119912811499129 0.004214809705445627 0.020112179871792306 0.9949445743745259 -0.0484105232815915
 -0.0008334745714684548 -0.006119917518281511 0.0009482439098587938 0.009614349289112832 0.9949445743745259 -0.0484105232815915 0.004218386176028085 0.02011192465003734
0.08128386827845 0.0045417585488505266 0.021900200124146722 0.9945114559692182 -0.05253372798135147 0.0011045827473849454 0.010415524242022281 -0.0009450602840678981 -0.00663525428108573
 0.9945114559692182 -0.05253372798135147 0.004545488057857803 0.02189995266913198 -0.0009453760618492066 -0.006635246243426887 0.0010771308213360414 0.01041895623895288
 0.0011045827473849454 0.010415524242022281 -0.0009453760618492066 -0.006635246243426887 0.0045415597430840835 0.021901291135674607 0.9945114942686601 -0.052532638654391575
 -0.0009450602840678981 -0.00663525428108573 0.0010771308213360414 0.01041895623895288 0.9945114942686601 -0.052532638654391575 0.004545756328715688 0.021901001226383478
0.08753647353064001 0.0048856239478757635 0.02370477147627414 0.9940557710503223 -0.05666947926527665 0.0012466748242323333 0.011219536740770992 -0.0010642714907605018 -0.007150830247488936
 0.9940557710503223 -0.05666947926527665 0.004889948355757461 0.02370449389770509 -0.0010646365476412024 -0.0071508182520227 0.001214818424766651 0.011223604332405601
 0.0012466748242323333 0.011219536740770992 -0.0010646365476412024 -0.0071508182520227 0.004885392702191819 0.02370594574132589 0.9940558153130887 -0.0566683053092536
 -0.0010642714907605018 -0.007150830247488936 0.001214818424766651 0.011223604332405601 0.9940558153130887 -0.0566683053092536 0.004890259062147559 0.023705618676361978
0.09378907878283 0.005246866518501757 0.025524608665694986 0.9935772026080201 -0.060818627812559235 0.001397973826966205 0.01202339361535638 -0.0011911858581939573 -0.007666519233875347
 0.9935772026080201 -0.060818627812559235 0.005251829946259798 0.025524299220195723 -0.0011916036187418488 -0.007666502616418789 0.0013613820283854472 0.012028171061058687
 0.001397973826966205 0.01202339361535638 -0.0011916036187418488 -0.007666502616418789 0.005246600310944431 0.025525866055976044 0.99357725330078 -0.06081736900574273
 -0.0011911858581939573 -0.007666519233875347 0.0013613820283854472 0.012028171061058687 0.99357725330078 -0.06081736900574273 0.005252186172660729 0.025525499277352683
0.100041684035 0.005625776198584928 0.0273594369831601 0.9930754674735901 -0.06498100565140548 0.0015585536925203976 0.01282696477870522 -0.0013258790093313455 -0.008182192912675903
 0.9930754674735901 -0.06498100565140548 0.00563142283926468 0.0273590938940773 -0.001326352870358035 -0.00818217097186009 0.0015168950105833065 0.012832530768758281
 0.0015585536925203976 0.01282696477870522 -0.001326352870358035 -0.00818217097186009 0.005625472490075044 0.02736077736248678 0.9930755250732433 -0.06497966175439568
 -0.0013258790093313455 -0.008182192912675903 0.0015168950105833065 0.012832530768758281 0.9930755250732433 -0.06497966175439568 0.00563182766085496 0.027360368220369906
0.1059090909091 0.0059976674093029985 0.029094619463640465 0.9925833212397734 -0.06889882735056807 0.0017177457580503067 0.013580652651960963 -0.0014594144696399177 -0.008665967781395416
 0.9925833212397734 -0.06889882735056807 0.006003995440896507 0.02909424315676064 -0.001459944039689297 -0.008665940174225879 0.001671030406772218 0.013587034164264619
 0.0017177457580503067 0.013580652651960963 -0.001459944039689297 -0.008665940174225879 0.0059973261851131235 0.029096037587584694 0.992583385763823 -0.06889740337332621
 -0.0014594144696399177 -0.008665967781395416 0.001671030406772218 0.013587034164264619 0.992583385763823 -0.06889740337332621 0.0060044486513321045 0.029095586197794916
0.1062942892872 0.006022641042839805 0.02920898302827046 0.9925502836969397 -0.0691564326306948 0.0017284862935519724 0.013630117064271207 -0.0014684244489576385 -0.008697720734182218
 0.9925502836969397 -0.0691564326306948 0.006029015173833332 0.029208604484109165 -0.0014689577795583826 -0.008697692731530584 0.0016814287333658483 0.01363655476773832
 0.0017284862935519724 0.013630117064271207 -0.0014689577795583826 -0.008697692731530584 0.006022297276615051 0.029210406252968155 0.9925503486908498 -0.06915500338654712
 -0.0014684244489576385 -0.008697720734182218 0.0016814287333658483 0.01363655476773832 0.9925503486908498 -0.06915500338654712 0.006029471655243785 0.02920995200314647
0.11254689453939999 0.006437747135209036 0.031072973487215116 0.9920013707093693 -0.07334471761120871 0.0019078413497149544 0.014432714324949934 -0.0016188934877007413 -0.00921296987091686
 0.9920013707093693 -0.07334471761120871 0.006444893130079456 0.031072557639627945 -0.0016194896291623197 -0.009212935030935067 0.0018550524561020763 0.014440111437094918
 0.0019078413497149544 0.014432714324949934 -0.0016194896291623197 -0.009212935030935067 0.006437360735981062 0.031074479408885847 0.9920014435963708 -0.07334320274325172
 -0.0016188934877007413 -0.00921296987091686 0.0018550524561020763 0.014440111437094918 0.9920014435963708 -0.07334320274325172 0.006445404324384758 0.031073977209919005
0.11879949979160001 0.00687137849262459 0.03295113417930557 0.9914284494815198 -0.07754565939387927 0.002096686339554289 0.015234617517726753 -0.001777355164435174 -0.00972780518155745
 0.9914284494815198 -0.07754565939387927 0.006879340833541506 0.0329506791406358 -0.0017780174301502026 -0.009727762691816983 0.0020378332501792564 0.01524306630657771
 0.002096686339554289 0.015234617517726753 -0.0017780174301502026 -0.009727762691816983 0.0068709468658915245 0.032952722644823296 0.9914285307724594 -0.07754405860626669
 -0.001777355164435174 -0.00972780518155745 0.0020378332501792564 0.01524306630657771 0.9914285307724594 -0.07754405860626669 0.006879909781146709 0.032952169554755786
0.1250521050438 0.007323816961542532 0.03484318930753713 0.9908312426761294 -0.08175904745005359 0.0022950864132137393 0.01603568477649339 -0.0019438761675382725 -0.010242089191640233
 0.9908312426761294 -0.08175904745005359 0.007332640251733688 0.03484269314794044 -0.0019446078429404931 -0.010242038202863062 0.0022298359138996342 0.01604528212883929
 0.0022950864132137393 0.01603568477649339 -0.0019446078429404931 -0.010242038202863062 0.007323337493328092 0.03484486015589316 0.9908313328948402 -0.08175736043151362
 -0.0019438761675382725 -0.010242089191640233 0.0022298359138996342 0.01604528212883929 0.9908313328948402 -0.08175736043151362 0.007333269979439401 0.03484425312853831
0.131304710296 0.007795342109602163 0.036748860856957846 0.9902094747987025 -0.08598466250986643 0.0025031043054290474 0.016835771478891447 -0.002118520755394611 -0.010755682085587267
 0.9902094747987025 -0.08598466250986643 0.007805071085808036 0.0367483216011169 -0.0021193250977766718 -0.010755621711784548 0.002431122887680294 0.016846618945409647
 0.0025031043054290474 0.016835771478891447 -0.0021193250977766718 -0.010755621711784548 0.007794812165404925 0.03675061392569393 0.9902095744827186 -0.0859828889280123
 -0.002118520755394611 -0.010755682085587267 0.002431122887680294 0.016846618945409647 0.9902095744827186 -0.0859828889280123 0.00780576460548113 0.03674994980650353
0.1375573155481 0.008177516190952295 0.038419740220056654 0.9896716264319529 -0.08997404321026199 0.002694677393054383 0.017610018546793633 -0.002275316489087693 -0.011243682716762187
 0.9896716264319529 -0.08997404321026199 0.008188200741801484 0.0384191675414148 -0.0022761984459460515 -0.011243612899611862 0.0026158042402621134 0.017622099923353608
 0.002694677393054383 0.017610018546793633 -0.0022761984459460515 -0.011243612899611862 0.008176934002238867 0.03842157519975066 0.9896717360193246 -0.08997218286889758
 -0.002275316489087693 -0.011243682716762187 0.0026158042402621134 0.017622099923353608 0.9896717360193246 -0.08997218286889758 0.00818896037432389 0.03842086297955713
0.1438099208003 0.00857312385956628 0.04008191475992494 0.9891148859314418 -0.09395339984851948 0.002893995265216729 0.018381123268136495 -0.002438382127736563 -0.011728835980307772
 0.9891148859314418 -0.09395339984851948 0.008584809726579455 0.04008130724378331 -0.0024393452200427864 -0.011728755846395092 0.00280792765658491 0.018394531318744186
 0.002893995265216729 0.018381123268136495 -0.0024393452200427864 -0.011728755846395092 0.008572486918254078 0.04008383144345564 0.9891150059588579 -0.09395145242405438
 -0.002438382127736563 -0.011728835980307772 0.00280792765658491 0.018394531318744186 0.9891150059588579 -0.09395145242405438 0.00858563833862072 0.040083068545983196
0.1500625260525 0.008982027017742242 0.04173524819673133 0.9885393953464785 -0.09792263609589903 0.0031009900897364137 0.019149006675571494 -0.0026076523993586705 -0.01221106848154129
 0.9885393953464785 -0.09792263609589903 0.008994760106494618 0.04173460430338437 -0.0026087001414490476 -0.01221097712232529 0.003007427021897794 0.019163837557622278
 0.0031009900897364137 0.019149006675571494 -0.0026087001414490476 -0.01221097712232529 0.008981332805886625 0.0417372463703195 0.9885395263622959 -0.09792060125138292
 -0.0026076523993586705 -0.01221106848154129 0.003007427021897794 0.019163837557622278 0.9885395263622959 -0.09792060125138292 0.008995660542488102 0.04173643004797638
0.15631513130469998 0.00940408660421526 0.04337960837947983 0.9879452974299441 -0.10188165591115267 0.003315593238012937 0.019913591121908086 -0.0027830612351602115 -0.012690308368020395
 0.9879452974299441 -0.10188165591115267 0.00941791298876175 0.04337892643824942 -0.002784197134508628 -0.01269020484000396 0.0032142354491750185 0.01992994435279014
