! Created with skrf 1.8.0 (http://scikit-rf.org).
# GHz S RI R 50.0 
!freq ReS11 ImS11 ReS12 ImS12 ReS13 ImS13
! ReS14 ImS14
! ReS21 ImS21 ReS22 ImS22 ReS23 ImS23
! ReS24 ImS24
! ReS31 ImS31 ReS32 ImS32 ReS33 ImS33
! ReS34 ImS34
! ReS41 ImS41 ReS42 ImS42 ReS43 ImS43
! ReS44 ImS44
!
0.0 0.001700077133402 0.0 0.9982999228666 0.0 6.591012590204e-05 0.0 -6.591012552017e-05 8.071662424967648e-21
 0.9982999228666 0.0 0.001700077133382 0.0 -6.591012551852e-05 8.07166242476558e-21 6.591012590268e-05 0.0
 6.591012590204e-05 0.0 -6.591012551852e-05 8.07166242476558e-21 0.001700077129083 0.0 0.9982999228623 0.0
 -6.591012552017e-05 8.071662424967648e-21 6.591012590268e-05 0.0 0.9982999228623 0.0 0.001700077129161 0.0
0.005 0.0018296613406293463 0.0013889604282777603 0.9981359028042455 -0.00356077806580488 9.280327498900783e-05 0.0007344262499377483 -9.007488577759609e-05 -0.00045945081329957333
 0.9981359028042455 -0.00356077806580488 0.0018296569897273893 0.001388962879940026 -9.007751393128281e-05 -0.00045945271521306223 9.28363242648908e-05 0.0007344138296541976
 9.280327498900783e-05 0.0007344262499377483 -9.007751393128281e-05 -0.00045945271521306223 0.001829660933866562 0.0013890278607950706 0.9981359031729641 -0.0035607110090783278
 -9.007488577759609e-05 -0.00045945081329957333 9.28363242648908e-05 0.0007344138296541976 0.9981359031729641 -0.0035607110090783278 0.001829658122977838 0.0013890295503359525
0.006252605252188 0.0018637974205206547 0.00174164994399339 0.9980924015441546 -0.004451820084770211 0.00010055698216854073 0.0009183758062084587 -9.69661770351794e-05 -0.0005749002816216176
 0.9980924015441546 -0.004451820084770211 0.0018637906194751703 0.0017416529946345785 -9.697026755862187e-05 -0.0005749026236068794 0.00010060862029799198 0.0009183596434764913
 0.00010055698216854073 0.0009183758062084587 -9.697026755862187e-05 -0.0005749026236068794 0.0018637967140795345 0.0017417342156313509 0.9980924020494976 -0.004451736269149941
 -9.69661770351794e-05 -0.0005749002816216176 0.00010060862029799198 0.0009183596434764913 0.9980924020494976 -0.004451736269149941 0.0018637923192797886 0.001741736330931321
0.01250521050438 0.0020443702912134707 0.0035196104207401656 0.9978606732751589 -0.008904278143336443 0.00014539536141079432 0.001837023932014712 -0.00013643483672468376 -0.0011524952593251416
 0.9978606732751589 -0.008904278143336443 0.002044343141406076 0.003519616371876982 -0.00013645096801642706 -0.001152499550406018 0.0001456013385721527 0.0018369847066115675
 0.00014539536141079432 0.001837023932014712 -0.00013645096801642706 -0.001152499550406018 0.002044366928676562 0.003519778583125328 0.9978606747458705 -0.00890411072598739
 -0.00013643483672468376 -0.0011524952593251416 0.0001456013385721527 0.0018369847066115675 0.9978606747458705 -0.00890411072598739 0.0020443493664813847 0.0035197828290250213
0.01875781575657 0.002242221195930656 0.005322652378163699 0.9976044278708388 -0.013368175275952021 0.00020053437939477698 0.0027565444343601643 -0.0001844442530467237 -0.0017319187266302467
 0.9976044278708388 -0.013368175275952021 0.0022421602040657634 0.00532266107084919 -0.0001844802409906308 -0.0017319244865096335 0.0002009972177330715 0.00275647383008496
 0.00020053437939477698 0.0027565444343601643 -0.0001844802409906308 -0.0017319244865096335 0.002242213232773117 0.005322904142229109 0.9976044307597127 -0.013367924307399299
 -0.0001844442530467237 -0.0017319187266302467 0.0002009972177330715 0.00275647383008496 0.9976044307597127 -0.013367924307399299 0.002242173743564812 0.005322910499477015
0.02501042100875 0.0024577611479849487 0.007148210209138516 0.9973233420963273 -0.01784563498601207 0.00026608415309999664 0.003676952452759443 -0.00024111766921044309 -0.0023128815994030226
 0.9973233420963273 -0.01784563498601207 0.0024576528520431997 0.007148221466951186 -0.00024118124026717194 -0.002312888252865796 0.00026690649091177187 0.0036768407705329072
 0.00026608415309999664 0.003676952452759443 -0.00024118124026717194 -0.002312888252865796 0.002457746647803662 0.007148545269281022 0.9973233468595304 -0.0178453004597946
 -0.00024111766921044309 -0.0023128815994030226 0.00026690649091177187 0.0036768407705329072 0.9973233468595304 -0.0178453004597946 0.002457676471799363 0.007148553678932721
0.03126302626094 0.0026913841157136464 0.008994943350630101 0.9970170774351055 -0.022337541557636557 0.0003421547631630048 0.0045981768547355304 -0.0003065743429073475 -0.0028951733314477486
 0.9970170774351055 -0.022337541557636557 0.002691215074880087 0.00899495697735929 -0.0003066731490415186 -0.002895180207377428 0.000343439446316485 0.004598013000809095
 0.0003421547631630048 0.0045981768547355304 -0.0003066731490415186 -0.002895180207377428 0.0026913611503986655 0.008995361375425144 0.9970170845352816 -0.022337123419035255
 -0.0003065743429073475 -0.0028951733314477486 0.000343439446316485 0.004598013000809095 0.9970170845352816 -0.022337123419035255 0.0026912515201012064 0.008995371737078182
0.037515631513130004 0.002943475147828078 0.010861962408854195 0.9966852885457597 -0.026844313870530878 0.00042885519447333323 0.005520112032457271 -0.00038093040286241755 -0.0034786101454292897
 0.9966852885457597 -0.026844313870530878 0.0029432319337663196 0.010861978187240877 -0.00038107202877429733 -0.0034786164764728685 0.00043070531742115455 0.005519883501911667
 0.00042885519447333323 0.005520112032457271 -0.00038107202877429733 -0.0034786164764728685 0.002943441791571904 0.010862463031180828 0.9966852984501923 -0.026843812026260266
 -0.00038093040286241755 -0.0034786101454292897 0.00043070531742115455 0.005519883501911667 0.9966852984501923 -0.026843812026260266 0.0029432839263530664 0.010862475201505241
0.043768236765320004 0.003214413498149185 0.012748593623520248 0.9963276267201908 -0.03136614086558573 0.000526292820656906 0.006442633685332682 -0.00046429914288157446 -0.004063019275935301
 0.9963276267201908 -0.03136614086558573 0.0032140826883191 0.01274861131433755 -0.0004644911102539771 -0.004063024198322131 0.0005288117460491506 0.0064423265440464944
 0.000526292820656906 0.006442633685332682 -0.0004644911102539771 -0.004063024198322131 0.003214367827979845 0.01274917642531741 0.9963276399045364 -0.03136555519874544
 -0.00046429914288157446 -0.004063019275935301 0.0005288117460491506 0.0064423265440464944 0.9963276399045364 -0.03136555519874544 0.003214152928515049 0.012749190217159036
0.050020842017509996 0.003504574063816584 0.01465428153854182 0.9959437416585932 -0.03590307880327214 0.000634573084323465 0.007365605324940585 -0.0005567911123814947 -0.004648232493402191
 0.9959437416585932 -0.03590307880327214 0.0035041422349959012 0.01465430087992918 -0.0005570408824100265 -0.004648235046858134 0.0006378644509876082 0.007365204190921307
 0.000634573084323465 0.007365605324940585 -0.0005570408824100265 -0.004648235046858134 0.003504514155019635 0.014654946066446729 0.9959437586046577 -0.03590240915762317
 -0.0005567911123814947 -0.004648232493402191 0.0006378644509876082 0.007365204190921307 0.9959437586046577 -0.03590240915762317 0.0035042333980536034 0.01465496124793018
0.055454545454549996 0.003772631601698652 0.01632548060298238 0.9955885649602179 -0.03985806657149332 0.00073755772848998 0.008167948307550481 -0.0006446624126947956 -0.005157323926793113
 0.9955885649602179 -0.03985806657149332 0.003772101077838535 0.016325501148244877 -0.0006449684285207593 -0.0051573235667145174 0.0007416047529305544 0.008167451860132778
 0.00073755772848998 0.008167948307550481 -0.0006449684285207593 -0.0051573235667145174 0.0037725577549500107 0.01632621575003794 0.9955885855745186 -0.039857323795933715
 -0.0006446624126947956 -0.005157323926793113 0.0007416047529305544 0.008167451860132778 0.9955885855745186 -0.039857323795933715 0.0037722125782689024 0.016326231915579865
0.056273447269699996 0.003814328105039078 0.01657854124012976 0.9955332825302404 -0.04045509895797699 0.0007537992606096569 0.008288881490033801 -0.0006585141185903487 -0.005234082923186073
 0.9955332825302404 -0.04045509895797699 0.003813781827120177 0.016578561947241843 -0.0006588290934587207 -0.00523408205086807 0.0007579669847861464 0.008288369514385474
 0.0007537992606096569 0.008288881490033801 -0.0006588290934587207 -0.00523408205086807 0.0038142520313327556 0.016579286995765812 0.9955333037297766 -0.0404543451475795
 -0.0006585141185903487 -0.005234082923186073 0.0007579669847861464 0.008288369514385474 0.9955333037297766 -0.0404543451475795 0.0038138965650667705 0.016579303289596135
0.06252605252188 0.004144043619088031 0.01852093209655508 0.9950958986936201 -0.04502211381597693 0.0008840722638229664 0.00921230951446656 -0.0007695731822346105 -0.0058204033178603535
 0.9950958986936201 -0.04502211381597693 0.004143369449046622 0.018520953861283412 -0.0007699607060675888 -0.005820397866316734 0.0008892205356827609 0.009211668362265205
 0.0008840722638229664 0.00921230951446656 -0.0007699607060675888 -0.005820397866316734 0.004143949450492781 0.018521758534749723 0.9950959246488508 -0.04502127562708452
 -0.0007695731822346105 -0.0058204033178603535 0.0008892205356827609 0.009211668362265205 0.9950959246488508 -0.04502127562708452 0.004143510389067394 0.01852177561768369
0.06877865777407 0.0044940855179013755 0.020481042109180336 0.9946312402252638 -0.04960399266890057 0.001025490477516266 0.01013573059521513 -0.0008900704670805819 -0.006407025036257757
 0.9946312402252638 -0.04960399266890057 0.0044932699939254795 0.020481064600148147 -0.0008905378263727383 -0.006407013755412573 0.0010317237544836403 0.01013494042626228
 0.001025490477516266 0.01013573059521513 -0.0008905378263727383 -0.006407013755412573 0.0044939713181496345 0.0204819486415278 0.9946312714491313 -0.049603069856454
 -0.0008900704670805819 -0.006407025036257757 0.0010317237544836403 0.01013494042626228 0.9946312714491313 -0.049603069856454 0.0044934397369708985 0.020481966144007394
0.07503126302626001 0.004864815691432906 0.022458477997569018 0.9941389583385196 -0.05420057148053432 0.0011781495982355215 0.011058980479994701 -0.0010201051935811822 -0.0069937774100769685
 0.9941389583385196 -0.05420057148053432 0.004863845326794427 0.022458500860266052 -0.0010206596173678816 -0.00699375895322644 0.0011855725957309962 0.011058019929670686
 0.0011781495982355215 0.011058980479994701 -0.0010206596173678816 -0.00699375895322644 0.004864679517079236 0.022459463990279947 0.9941389953567049 -0.05419956377041022
 -0.0010201051935811822 -0.0069937774100769685 0.0011855725957309962 0.011058019929670686 0.9941389953567049 -0.05419956377041022 0.00486404644722509 0.022459481496247533
0.08128386827845 0.005256593001044333 0.024452858598709628 0.9936187057371861 -0.05881165944745044 0.0013421424883010005 0.011981889932971704 -0.0011597735415867188 -0.0075804873400131785
 0.9936187057371861 -0.05881165944745044 0.005255454278200564 0.02445288145583935 -0.0011604222012946898 -0.007580460263852362 0.0013508601687474266 0.011980736093054459
 0.0013421424883010005 0.011981889932971704 -0.0011604222012946898 -0.007580460263852362 0.005256432899389603 0.024453923374288467 0.9936187490895886 -0.058810566535223305
 -0.0011597735415867188 -0.0075804873400131785 0.0013508601687474266 0.011980736093054459 0.9936187490895886 -0.058810566535223305 0.005255689323053148 0.02445394042103664
0.08753647353064001 0.005669773222736614 0.02646381032328427 0.9930701369240864 -0.06343704351150671 0.0015175590340177688 0.012904285076186276 -0.001309168546178004 -0.00816697902393438
 0.9930701369240864 -0.06343704351150671 0.0056684525873475725 0.02646383277521018 -0.0013099185554242441 -0.008166941788583144 0.0015276765940782544 0.012902913475798873
 0.0015175590340177688 0.012904285076186276 -0.0013099185554242441 -0.008166941788583144 0.005669587229978372 0.026464953157683744 0.9930701871649659 -0.06343586506542048
 -0.001309168546178004 -0.00816697902393438 0.0015276765940782544 0.012902913475798873 0.9930701871649659 -0.06343586506542048 0.005668724074539088 0.02646496923607407
0.09378907878283 0.006104708958844225 0.028490963901730025 0.9924929084811625 -0.06807649159116276 0.0017044860077060156 0.01382598764044481 -0.0014683799884774636 -0.00875307378364
 0.9924929084811625 -0.06807649159116276 0.00610319281374027 0.028490985527250528 -0.0014692384026030595 -0.008753024752711074 0.0017161088643092759 0.013824372227160067
 0.0017044860077060156 0.01382598764044481 -0.0014692384026030595 -0.008753024752711074 0.006104495098408809 0.028492184026919113 0.9924929661809623 -0.0680752272501363
 -0.0014683799884774636 -0.00875307378364 0.0017161088643092759 0.013824372227160067 0.9924929661809623 -0.0680752272501363 0.006103503231555565 0.028492198581529186
0.100041684035 0.006561749524440826 0.030533952012637797 0.9918866793285559 -0.07272975494002436 0.0019030069325280828 0.014746815168160607 -0.0016374942827332602 -0.009338589947866446
 0.9918866793285559 -0.07272975494002436 0.006560024223348276 0.030533972369869725 -0.0016384680982569689 -0.00933852738854169 0.0019162407077520766 0.014744928289205109
 0.0019030069325280828 0.014746815168160607 -0.0016384680982569689 -0.00933852738854169 0.006561505805077087 0.030535248615928528 0.991886745075547 -0.0727284043148339
 -0.0016374942827332602 -0.009338589947866446 0.0019162407077520766 0.014744928289205109 0.991886745075547 -0.0727284043148339 0.006560376029280216 0.030535261045580072
0.1059090909091 0.007011045889062131 0.032465153951023625 0.9912911201792166 -0.07710867923219597 0.0020999137696165243 0.015609952235506408 -0.0018052705677164787 -0.0098873440225254
 0.9912911201792166 -0.07710867923219597 0.0070091118571226204 0.03246517269873888 -0.0018063589855397265 -0.009887267106446121 0.0021147554516711816 0.015607784022994628
 0.0020999137696165243 0.015609952235506408 -0.0018063589855397265 -0.009887267106446121 0.007010772324589092 0.03246652154355264 0.9912911940287109 -0.0771072472582632
 -0.0018052705677164787 -0.0098873440225254 0.0021147554516711816 0.015607784022994628 0.9912911940287109 -0.0771072472582632 0.007009504707783699 0.03246653139214559
0.1062942892872 0.00704124081723224 0.03259240750530021 0.9912511109718217 -0.07739656992090707 0.0021132019495811766 0.015666581175839547 -0.0018165943606286493 -0.009923342784140457
 0.9912511109718217 -0.07739656992090707 0.007039292658710953 0.03259242613277047 -0.0018176905146497265 -0.009923264867270609 0.002128152454368559 0.01566439355948488
 0.0021132019495811766 0.015666581175839547 -0.0018176905146497265 -0.009923264867270609 0.007040965231221281 0.03259377973131708 0.9912511853723315 -0.07739513259270103
 -0.0018165943606286493 -0.009923342784140457 0.002128152454368559 0.01566439355948488 0.9912511853723315 -0.07739513259270103 0.007039688278088499 0.03259378938967148
0.11254689453939999 0.007543525173313762 0.0346659620508045 0.9905858677371374 -0.08207665936116236 0.002335147686115946 0.01658509529671166 -0.0020057595539787173 -0.010507144458955502
 0.9905858677371374 -0.08207665936116236 0.007541340394629985 0.034665978468743294 -0.0020069849234435667 -0.010507049259175094 0.0023519209033555878 0.016582576033853883
 0.002335147686115946 0.01658509529671166 -0.0020069849234435667 -0.010507049259175094 0.007543215694738345 0.034667408999901214 0.990585951417507 -0.08207513488384671
 -0.0020057595539787173 -0.010507144458955502 0.0023519209033555878 0.016582576033853883 0.990585951417507 -0.08207513488384671 0.007541782219530744 0.03466741519624685
0.11879949979160001 0.00806894121267992 0.036754245091888196 0.9898906169998707 -0.0867697336195757 0.002568917125642571 0.017502163406636524 -0.002205065475837793 -0.011089804023439865
 0.9898906169998707 -0.0867697336195757 0.008066505983520858 0.03675425880374256 -0.0022064268767921936 -0.011089689519330743 0.0025876191921754403 0.017499279932574566
 0.002568917125642571 0.017502163406636524 -0.0022064268767921936 -0.011089689519330743 0.008068595795701282 0.03675576582163073 0.9898907106077371 -0.08676812151906936
 -0.002205065475837793 -0.011089804023439865 0.0025876191921754403 0.017499279932574566 0.9898907106077371 -0.08676812151906936 0.008066996371833625 0.036755767821909965
0.1250521050438 0.008617823677152355 0.0388568830320169 0.9891650294089094 -0.09147549142445748 0.002814579478752382 0.018417587738182334 -0.0024145839010705893 -0.011671127419648554
 0.9891650294089094 -0.09147549142445748 0.008615124092882887 0.03885689352625198 -0.0024160880877438467 -0.011670991493916753 0.002835316666580982 0.018414305814686324
 0.002814579478752382 0.018417587738182334 -0.0024160880877438467 -0.011670991493916753 0.008617440253926719 0.03885847655657596 0.9891651336141074 -0.09147379120018667
 -0.0024145839010705893 -0.011671127419648554 0.002835316666580982 0.018414305814686324 0.9891651336141074 -0.09147379120018667 0.00861566536683956 0.03885847358456264
0.131304710296 0.009190503260027764 0.040973498585238105 0.9884087791047538 -0.09619362056171388 0.003072200055405574 0.019331166990098098 -0.002634382645932357 -0.012250917500482713
 0.9884087791047538 -0.09619362056171388 0.009187525336009961 0.04097350533719544 -0.002636036309965414 -0.012250757940125548 0.0030950787524393984 0.019327450687605947
 0.003072200055405574 0.019331166990098098 -0.002636036309965414 -0.012250757940125548 0.009190079739283964 0.04097516387798597 0.9884088946008965 -0.09619183168498896
 -0.002634382645932357 -0.012250917500482713 0.0030950787524393984 0.019327450687605947 0.9884088946008965 -0.09619183168498896 0.00918811978099714 0.04097515511666769
0.1375573155481 0.009661337860993617 0.04282798772795148 0.9877475731764407 -0.10064791947549978 0.00331073413647686 0.02021571160495907 -0.0028333926345181647 -0.012802028978600772
 0.9877475731764407 -0.10064791947549978 0.009658065253109008 0.04282799208629223 -0.002835205417891482 -0.012801845424457434 0.0033358017750605385 0.02021156418909787
 0.00331073413647686 0.02021571160495907 -0.002835205417891482 -0.012801845424457434 0.009660871083454843 0.042829724667044 0.9877477004999047 -0.1006460416195876
 -0.0028333926345181647 -0.012802028978600772 0.0033358017750605385 0.02021156418909787 0.9877477004999047 -0.1006460416195876 0.00965871649449598 0.042829709663794485
0.1438099208003 0.010148897890458168 0.04467171854817493 0.9870627979114439 -0.10508992178082674 0.0035588656493756522 0.021096076349818627 -0.0030403227031916215 -0.013349290513639731
 0.9870627979114439 -0.10508992178082674 0.010145316109562515 0.04467172030732748 -0.0030423017390567536 -0.013349080781888656 0.003586218150625611 0.021091464815236053
 0.0035588656493756522 0.021096076349818627 -0.0030423017390567536 -0.013349080781888656 0.010148385536324139 0.044673526142490996 0.987062937757682 -0.10508795442661781
 -0.0030403227031916215 -0.013349290513639731 0.003586218150625611 0.021091464815236053 0.987062937757682 -0.10508795442661781 0.010146026623707113 0.04467350421881824
0.1500625260525 0.010652996724665789 0.046504507552362406 0.9863546448124796 -0.10951948698880389 0.0038164987884237596 0.021972152005934335 -0.0032550793032522034 -0.013892599020958473
 0.9863546448124796 -0.10951948698880389 0.010649091185396505 0.04650450652916267 -0.0032572317001723443 -0.013892360840746795 0.0038462315073261597 0.021967042124860187
 0.0038164987884237596 0.021972152005934335 -0.0032572317001723443 -0.013892360840746795 0.010652436438144836 0.046506384777431825 0.9863547978971355 -0.10951742959781935
 -0.0032550793032522034 -0.013892599020958473 0.0038462315073261597 0.021967042124860187 0.9863547978971355 -0.10951742959781935 0.010649863428808573 0.046506355250520305
0.15631513130469998 0.011173446233046879 0.04832617672644463 0.9856233065608557 -0.11393647577409156 0.004083536502175925 0.022843831435584876 -0.0034775676318551407 -0.014431853781703766
 0.9856233065608557 -0.11393647577409156 0.011169202250889548 0.0483261727633434 -0.0034799004733766666 -0.01443158479577498 0.004115744220040875 0.022838187769301133
