! Created with skrf 1.8.0 (http://scikit-rf.org).
# GHz S RI R 50.0 
!freq ReS11 ImS11 ReS12 ImS12 ReS13 ImS13
! ReS14 ImS14
! ReS21 ImS21 ReS22 ImS22 ReS23 ImS23
! ReS24 ImS24
! ReS31 ImS31 ReS32 ImS32 ReS33 ImS33
! ReS34 ImS34
! ReS41 ImS41 ReS42 ImS42 ReS43 ImS43
! ReS44 ImS44
!
0.0 0.001692304494901 0.0 0.9983076954687 0.0 6.550754915967e-05 0.0 -6.550754909286e-05 8.02236103165591e-21
 0.9983076954687 0.0 0.001692304494866 0.0 -6.550754909281e-05 8.022361031649788e-21 6.550754915927e-05 0.0
 6.550754915967e-05 0.0 -6.550754909281e-05 8.022361031649788e-21 0.001692304513115 0.0 0.9983076954869 0.0
 -6.550754909286e-05 8.02236103165591e-21 6.550754915927e-05 0.0 0.9983076954869 0.0 0.001692304513074 0.0
0.005 0.0018212561733895454 0.0013843696229089869 0.9981444938415344 -0.003544362293828993 9.193030063808189e-05 0.0007199062308985701 -8.932415922782342e-05 -0.0004521007060453382
 0.9981444938415344 -0.003544362293828993 0.001821243681098457 0.001384376892147534 -8.932323924288256e-05 -0.00045209994325520064 9.201847785673251e-05 0.0007198727413389497
 9.193030063808189e-05 0.0007199062308985701 -8.932323924288256e-05 -0.00045209994325520064 0.0018212565759043089 0.0013843020591445274 0.9981444934770516 -0.0035444293687552286
 -8.932415922782342e-05 -0.0004521007060453382 9.201847785673251e-05 0.0007198727413389497 0.9981444934770516 -0.0035444293687552286 0.0018212425619303241 0.0013843103184064118
0.006252605252188 0.0018552188744151638 0.0017358864501131263 0.9981012222900744 -0.004431297047286232 9.953376828561686e-05 0.0009002247476910987 -9.611074166856406e-05 -0.0005657014361513991
 0.9981012222900744 -0.004431297047286232 0.0018551993466144052 0.0017358956560617656 -9.610931053787249e-05 -0.0005657004946076897 9.9671537336998e-05 0.0009001812249449435
 9.953376828561686e-05 0.0009002247476910987 -9.610931053787249e-05 -0.0005657004946076897 0.0018552195634235413 0.0017358020091873076 0.99810122177939 -0.004431380876643864
 -9.611074166856406e-05 -0.0005657014361513991 9.9671537336998e-05 0.0009001812249449435 0.99810122177939 -0.004431380876643864 0.001855197656103256 0.001735812465471228
0.01250521050438 0.0020348352442881787 0.00350791118477744 0.9978707896040576 -0.008863233688928291 0.00014342751522019117 0.0018007640688021984 -0.00013495081817160778 -0.0011340501362657337
 0.9978707896040576 -0.008863233688928291 0.002034757270740271 0.0035079307893363994 -0.00013494518376946577 -0.0011340483844564178 0.00014397692815060908 0.00180065901079288
 0.00014342751522019117 0.0018007640688021984 -0.00013494518376946577 -0.0011340483844564178 0.0020348385809321025 0.003507742563318084 0.9978707881373653 -0.008863401112330456
 -0.00013495081817160778 -0.0011340501362657337 0.00014397692815060908 0.00180065901079288 0.9978707881373653 -0.008863401112330456 0.0020347510905481983 0.0035077648141980497
0.01875781575657 0.0022315750401500933 0.005304901508439456 0.9976160901250475 -0.013306561607734196 0.00019729622522554884 0.0027021974492376986 -0.0001821531469876233 -0.001704208761251726
 0.9976160901250475 -0.013306561607734196 0.0022313998333395374 0.005304932774771855 -0.00018214058992420648 -0.0017042063560794042 0.00019853046604101192 0.0027020090922459626
 0.00019729622522554884 0.0027021974492376986 -0.00018214058992420648 -0.0017042063560794042 0.0022315829787801257 0.0053046488329042355 0.9976160872414879 -0.013306812595824453
 -0.0001821531469876233 -0.001704208761251726 0.00019853046604101192 0.0027020090922459626 0.9976160872414879 -0.013306812595824453 0.002231386357162321 0.005304684339112384
0.02501042100875 0.002445845473692362 0.0071243065282182525 0.9973368036314362 -0.017763396754400706 0.0002612480043250269 0.003604539596247749 -0.00023783843771297967 -0.0022758971107939194
 0.9973368036314362 -0.017763396754400706 0.0024455343224622427 0.0071243507742015785 -0.0002378162737875513 -0.0022758942376285255 0.00026344036466638247 0.0036042425363488344
 0.0002612480043250269 0.003604539596247749 -0.0002378162737875513 -0.0022758942376285255 0.0024458599907060466 0.0071239699490305425 0.9973367988759577 -0.01776373132685192
 -0.00023783843771297967 -0.0022758971107939194 0.00026344036466638247 0.0036042425363488344 0.9973367988759577 -0.01776373132685192 0.002445510758177299 0.00712402027646509
0.03126302626094 0.00267803691096132 0.00896479460007992 0.9970325947077939 -0.02223462187376956 0.0003353908506677226 0.00450772189508252 -0.0003021235670117915 -0.0028489107741588807
 0.9970325947077939 -0.02223462187376956 0.002677551156599485 0.008964853194519175 -0.00030208914133648116 -0.002848907647110259 0.0003388149673554346 0.004507287065455161
 0.0003353908506677226 0.00450772189508252 -0.00030208914133648116 -0.002848907647110259 0.0026780599926526406 0.008964374290764292 0.9970325876155797 -0.02223504010015787
 -0.0003021235670117915 -0.0028489107741588807 0.0003388149673554346 0.004507287065455161 0.9970325876155797 -0.02223504010015787 0.0026775147124635783 0.008964441107220352
0.037515631513130004 0.002928530914473928 0.010825483144649328 0.9967031211143488 -0.02672065662755058 0.0004198316767418622 0.0054116424287554326 -0.0003751223997982913 -0.0034230711408461826
 0.9967031211143488 -0.02672065662755058 0.0029278319330418878 0.010825557505248252 -0.0003750730836984 -0.003423068002810706 0.0004247616301848754 0.00541103706330578
 0.0004198316767418622 0.0054116424287554326 -0.0003750730836984 -0.003423068002810706 0.0029285645654385704 0.010824979300471698 0.9967031112167283 -0.026721158628803483
 -0.0003751223997982913 -0.0034230711408461826 0.0004247616301848754 0.00541103706330578 0.9967031112167283 -0.026721158628803483 0.00292777982613427 0.010825064374152697
0.043768236765320004 0.0031977033558250817 0.012705704245278577 0.9963480372263118 -0.031221691925005585 0.0005146758308879154 0.0063161812012056655 -0.00045694607031874395 -0.003998210202363817
 0.9963480372263118 -0.031221691925005585 0.003196752543960824 0.012705795837315308 -0.00045687925952151966 -0.0039982073250067795 0.0005213861840028886 0.006315368794058582
 0.0005146758308879154 0.0063161812012056655 -0.00045687925952151966 -0.0039982073250067795 0.003197749596526035 0.012705117111697953 0.9963480240457199 -0.03122227784485922
 -0.00045694607031874395 -0.003998210202363817 0.0005213861840028886 0.006315368794058582 0.9963480240457199 -0.03122227784485922 0.0031966819976568042 0.012705222310618446
0.050020842017509996 0.003485925840216583 0.01460490781043891 0.995966995788296 -0.03573778668827539 0.0006200267991781303 0.007221206429769824 -0.0005477030670607689 -0.004574164286808861
 0.995966995788296 -0.03573778668827539 0.0034846846025192286 0.014605018145986323 -0.0005476161805700267 -0.004574161970494837 0.000628792604599909 0.007220146693208659
 0.0006200267991781303 0.007221206429769824 -0.0005476161805700267 -0.004574161970494837 0.003485986709024841 0.014604237662142762 0.9959669788370317 -0.035738456714019456
 -0.0005477030670607689 -0.004574164286808861 0.000628792604599909 0.007220146693208659 0.9959669788370317 -0.035738456714019456 0.003484592848215424 0.014604364954189535
0.055454545454549996 0.0037521568121103707 0.01627041544470815 0.9956145083833834 -0.039674621739601325 0.0007201916099950069 0.008007986923400446 -0.0006339108711738723 -0.005075221610429316
 0.9956145083833834 -0.039674621739601325 0.003750631838205984 0.016270543332928145 -0.0006338044596201374 -0.005075220047862059 0.0007309674135967067 0.00800667656234198
 0.0007201916099950069 0.008007986923400446 -0.0006338044596201374 -0.005075220047862059 0.0037522320641456526 0.016269673409968922 0.9956144877517056 -0.039675365031658825
 -0.0006339108711738723 -0.005075221610429316 0.0007309674135967067 0.00800667656234198 0.9956144877517056 -0.039675365031658825 0.003750519413748535 0.016269821577599593
0.056273447269699996 0.0037935664251573025 0.016522614013446693 0.9955596489664701 -0.040268915343716974 0.0007359859833313291 0.008126577641355388 -0.0006474992334250797 -0.005150770994309683
 0.9955596489664701 -0.040268915343716974 0.003791996161704163 0.0165227446509555 -0.0006473897126484895 -0.005150769568049184 0.0007470827713043074 0.008125226463269835
 0.0007359859833313291 0.008126577641355388 -0.0006473897126484895 -0.005150769568049184 0.0037936439804268566 0.016521861166104775 0.9955596277470116 -0.040269669694303054
 -0.0006474992334250797 -0.005150770994309683 0.0007470827713043074 0.008125226463269835 0.9955596277470116 -0.040269669694303054 0.003791880441851366 0.016522012619408142
0.06252605252188 0.004120989990798761 0.01845838717898802 0.9951256490586247 -0.04481499387142171 0.0008626525173457461 0.009032147380824489 -0.00075643772427539 -0.00572786752602789
 0.9951256490586247 -0.04481499387142171 0.004119052085781609 0.018458539723435696 -0.0007563030324773815 -0.005727867347415724 0.0008763562707940115 0.00903045678216442
 0.0008626525173457461 0.009032147380824489 -0.0007563030324773815 -0.005727867347415724 0.004121086311674251 0.018457551984700688 0.9951256230612882 -0.04481583280173995
 -0.00075643772427539 -0.00572786752602789 0.0008763562707940115 0.00903045678216442 0.9951256230612882 -0.04481583280173995 0.004118909654903314 0.01845772976849986
0.06877865777407 0.0044685584204673555 0.020411820193205574 0.9946646490171632 -0.0493758953377499 0.0010001231057092546 0.009937762242141074 -0.0008746189372747318 -0.006305289696858437
 0.9946646490171632 -0.0493758953377499 0.0044662142304141075 0.020411996296558065 -0.0008744565591725566 -0.006305291152001304 0.0010167102260382607 0.009935680334649479
 0.0010001231057092546 0.009937762242141074 -0.0008744565591725566 -0.006305291152001304 0.004468675608178907 0.020410903039217682 0.9946646177193319 -0.04937681913952231
 -0.0008746189372747318 -0.006305289696858437 0.0010167102260382607 0.009935680334649479 0.9946646177193319 -0.04937681913952231 0.004466042357024973 0.020411109425167027
0.07503126302626001 0.004836630664603907 0.02238252463804765 0.9941763028623124 -0.053951459710573156 0.001148491875011288 0.010843263525617071 -0.0010021404279454873 -0.006882871328893341
 0.9941763028623124 -0.053951459710573156 0.004833841506897974 0.022382726000181142 -0.001001947869406363 -0.0068828748323364695 0.0011682391409020068 0.010840734470071297
 0.001148491875011288 0.010843263525617071 -0.001001947869406363 -0.0068828748323364695 0.004836770844067669 0.022381525952703398 0.9941762657268284 -0.05395246870607021
 -0.0010021404279454873 -0.006882871328893341 0.0011682391409020068 0.010840734470071297 0.9941762657268284 -0.05395246870607021 0.004833637475745494 0.022381763316586104
0.08128386827845 0.0052255627362534415 0.024370124228989237 0.9936602660300162 -0.05854150037938019 0.001307850232200759 0.011748487696191518 -0.0011390968155826572 -0.007460443851054682
 0.9936602660300162 -0.05854150037938019 0.005222289878412572 0.024370352598948784 -0.001138871603467039 -0.007460449845715923 0.0013310347532550135 0.011745451661273363
 0.001307850232200759 0.011748487696191518 -0.001138871603467039 -0.007460449845715923 0.0052257280569599175 0.024369044475484734 0.9936602225039086 -0.05854259492709745
 -0.0011390968155826572 -0.007460443851054682 0.0013310347532550135 0.011745451661273363 0.9936602225039086 -0.05854259492709745 0.00522205099172549 0.024369315299249676
0.08753647353064001 0.005635707657873462 0.026374250281038066 0.9931161956753922 -0.06314580865479262 0.001478286729112022 0.012653266701848824 -0.0012855796815998768 -0.008037836046119734
 0.9931161956753922 -0.06314580865479262 0.005631912305468462 0.026374507458908476 -0.0012853193635602425 -0.008037845003220991 0.0015051858945142826 0.012649659823769218
 0.001478286729112022 0.012653266701848824 -0.0012853193635602425 -0.008037845003220991 0.00563590029484898 0.026373089960546815 0.9931161451882501 -0.06314698914590741
 -0.0012855796815998768 -0.008037836046119734 0.0015051858945142826 0.012649659823769218 0.9931161451882501 -0.06314698914590741 0.005631635885182427 0.026373396834915047
0.09378907878283 0.006067415374617849 0.028394538474226527 0.9925437509486652 -0.06776415697804794 0.0016598869294168477 0.013557428222196124 -0.0014416774634587735 -0.008614873875256406
 0.9925437509486652 -0.06776415697804794 0.006063058660469862 0.028394826313210525 -0.0014413796079239226 -0.008614886294236486 0.0016907783531463396 0.013553182565171563
 0.0016598869294168477 0.013557428222196124 -0.0014413796079239226 -0.008614886294236486 0.006067637530386039 0.02839329812582758 0.9925436929113989 -0.067765423835635
 -0.0014416774634587735 -0.008614873875256406 0.0016907783531463396 0.013553182565171563 0.9925436929113989 -0.067765423835635 0.006062742050329338 0.02839364375323334
0.100041684035 0.006521032645117168 0.03043062649694791 0.9919425932500139 -0.0723963012609405 0.001852733278731202 0.014460795858009363 -0.0016074753447124608 -0.009191380369525418
 0.9919425932500139 -0.0723963012609405 0.006516075617715146 0.030430946906105576 -0.0016071375408234256 -0.009191396777971712 0.001887894741393296 0.01445583937565467
 0.001852733278731202 0.014460795858009363 -0.0016071375408234256 -0.009191396777971712 0.006521286550929097 0.03042930669237813 0.9919425270538222 -0.07239765494472872
 -0.0016074753447124608 -0.009191380369525418 0.001887894741393296 0.01445583937565467 0.9919425270538222 -0.07239765494472872 0.006515716185469331 0.030429693890405098
0.1059090909091 0.006966936822610489 0.03235532638244657 0.991352056944074 -0.07675539425884273 0.002043997965620778 0.015307627965933546 -0.001771954132315941 -0.009731727049547034
 0.991352056944074 -0.07675539425884273 0.006961380953807078 0.032355679143968745 -0.0017715766669260198 -0.009731747706525903 0.002083419140020587 0.015301935229282521
 0.002043997965620778 0.015307627965933546 -0.0017715766669260198 -0.009731747706525903 0.006967222578060399 0.03235393257105637 0.9913519825186132 -0.07675682986447553
 -0.001771954132315941 -0.009731727049547034 0.002083419140020587 0.015301935229282521 0.9913519825186132 -0.07675682986447553 0.006960978966432796 0.03235436144719064
0.1062942892872 0.006996902913981564 0.03248215226181462 0.9913123864718943 -0.07704198266322168 0.0020569049763605914 0.015363189290406578 -0.0017830551426154012 -0.009767175559835873
 0.9913123864718943 -0.07704198266322168 0.006991306526099353 0.03248250720915289 -0.0017826750002056598 -0.009767196513409735 0.002096614363970593 0.015357445788158945
 0.0020569049763605914 0.015363189290406578 -0.0017826750002056598 -0.009767196513409735 0.006997190830613714 0.032480753611671756 0.9913123114862297 -0.07704342366246932
 -0.0017830551426154012 -0.009767175559835873 0.002096614363970593 0.015357445788158945 0.9913123114862297 -0.07704342366246932 0.006990901665201885 0.032481185316879865
0.11254689453939999 0.007495366171025243 0.03454875257210855 0.9906527972303276 -0.08170092892872312 0.0022724778482766253 0.016264424416417088 -0.00196849519391292 -0.01034207643875118
 0.9906527972303276 -0.08170092892872312 0.007489091268073755 0.03454914408818502 -0.001968070343549703 -0.01034210252110469 0.0023170130885919768 0.016257813514949867
 0.0022724778482766253 0.016264424416417088 -0.001968070343549703 -0.01034210252110469 0.007495690390402174 0.03454727571948088 0.9906527128018844 -0.08170245776768059
 -0.00196849519391292 -0.01034207643875118 0.0023170130885919768 0.016257813514949867 0.9906527128018844 -0.08170245776768059 0.007488638400125404 0.034547754991829556
0.11879949979160001 0.008016758800398508 0.03663006207116092 0.9899634950900388 -0.08637285544852678 0.0024995242214896386 0.01716431346780383 -0.002163870239297686 -0.010915896947394569
 0.9899634950900388 -0.08637285544852678 0.008009766108876267 0.03663049225323933 -0.0021633983322715713 -0.010915928770086849 0.0025491632177366027 0.017156750567716577
 0.0024995242214896386 0.01716431346780383 -0.0021633983322715713 -0.010915928770086849 0.00801712164676325 0.036628507697021855 0.9899634005410232 -0.08637447268015346
 -0.002163870239297686 -0.010915896947394569 0.0025491632177366027 0.017156750567716577 0.9899634005410232 -0.08637447268015346 0.008009262685803202 0.036629037724640184
0.1250521050438 0.00856141342118284 0.03872571243270004 0.9892441527836086 -0.09105746609348446 0.0027381127992055897 0.01806266512200176 -0.002369251307004531 -0.01148844797882834
 0.9892441527836086 -0.09105746609348446 0.008553663537361656 0.03872618344927842 -0.0023687300154559545 -0.011488486181241528 0.0027931333618704795 0.01805406136954167
 0.0027381127992055897 0.01806266512200176 -0.0023687300154559545 -0.011488486181241528 0.008561817252534461 0.03872408124823639 0.9892440474104722 -0.09105917230596336
 -0.002369251307004531 -0.01148844797882834 0.0027931333618704795 0.01805406136954167 0.9892440474104722 -0.09105917230596336 0.008553107043276451 0.038724665352774364
0.131304710296 0.009129658721796134 0.04083533171218647 0.988494446426917 -0.09575445389587126 0.002988308537425221 0.018959284605217185 -0.0025847055957908456 -0.012059537397809957
 0.988494446426917 -0.09575445389587126 0.009121112099712616 0.040835845808172525 -0.002584132612726643 -0.012059582647077618 0.0030489883136329077 0.01894954685936503
 0.002988308537425221 0.018959284605217185 -0.002584132612726643 -0.012059582647077618 0.009130105930925687 0.04083362446371625 0.9884943294988306 -0.09575624970660644
 -0.0025847055957908456 -0.012059537397809957 0.0030489883136329077 0.01894954685936503 0.9884943294988306 -0.09575624970660644 0.009120500053550584 0.040834266106143664
0.1375573155481 0.009596597715368482 0.042684161886509586 0.9878393377101821 -0.10018895942955292 0.003219675140020274 0.01982716130236842 -0.002779732165303956 -0.012602230348919859
 0.9878393377101821 -0.10018895942955292 0.009587211122159992 0.04268471066352737 -0.0027791038955828143 -0.012602282741803842 0.0032861486744776218 0.019816298515876657
 0.003219675140020274 0.01982716130236842 -0.0027791038955828143 -0.012602282741803842 0.009597089639675602 0.04268237951325616 0.9878392086744087 -0.10019084523013637
 -0.002779732165303956 -0.012602230348919859 0.0032861486744776218 0.019816298515876657 0.9878392086744087 -0.10019084523013637 0.00958654179118529 0.04268307079048234
0.1438099208003 0.010080125361221236 0.044522341657917686 0.9871608884623776 -0.10461129090262292 0.0034603437905758806 0.020690984866063123 -0.002982519698031909 -0.013141160577179532
 0.9871608884623776 -0.10461129090262292 0.010069858495535378 0.044522926884853174 -0.002981833633185272 -0.013141220779549708 0.003532862689364087 0.020678911436687555
 0.0034603437905758806 0.020690984866063123 -0.002981833633185272 -0.013141220779549708 0.01008066425409602 0.04452048499170779 0.987160746585322 -0.10461326730340603
 -0.002982519698031909 -0.013141160577179532 0.003532862689364087 0.020678911436687555 0.987160746585322 -0.10461326730340603 0.010069129583191845 0.044521228844534105
0.1500625260525 0.010580057804938621 0.04634969002244605 0.9864592873729724 -0.10902131039875301 0.003710221870818164 0.021550649922110303 -0.0031929771095357213 -0.01367622762033872
 0.9864592873729724 -0.10902131039875301 0.010568870211121871 0.0463503136145005 -0.0031922307458208433 -0.013676296325180007 0.0037890359361641658 0.021537277146167034
 0.003710221870818164 0.021550649922110303 -0.0031922307458208433 -0.013676296325180007 0.010580645941504402 0.0463477599286265 0.9864591318972136 -0.10902337803110161
 -0.0031929771095357213 -0.01367622762033872 0.0037890359361641658 0.021537277146167034 0.9864591318972136 -0.10902337803110161 0.010568079463195806 0.04634855948911769
0.15631513130469998 0.011096209721022274 0.04816603137173815 0.9857347242770694 -0.11341888110792785 0.003969215568276924 0.022406053101065 -0.0034110121004305408 -0.014207333307949859
 0.9857347242770694 -0.11341888110792785 0.01108406078541613 0.04816669539734056 -0.0034102029388470923 -0.014207411235296383 0.004054572766802714 0.022391289211494435
