! Created with skrf 1.8.0 (http://scikit-rf.org).
# GHz S RI R 50.0 
!freq ReS11 ImS11 ReS12 ImS12 ReS13 ImS13
! ReS14 ImS14
! ReS21 ImS21 ReS22 ImS22 ReS23 ImS23
! ReS24 ImS24
! ReS31 ImS31 ReS32 ImS32 ReS33 ImS33
! ReS34 ImS34
! ReS41 ImS41 ReS42 ImS42 ReS43 ImS43
! ReS44 ImS44
!
0.0 0.001525170354671 0.0 0.9984748296452 0.0 5.907082600512e-05 0.0 -5.907082582871e-05 7.234089777412049e-21
 0.9984748296452 0.0 0.00152517035467 0.0 -5.907082582758e-05 7.234089777273665e-21 5.907082600643e-05 0.0
 5.907082600512e-05 0.0 -5.907082582758e-05 7.234089777273665e-21 0.001525170354643 0.0 0.9984748296452 0.0
 -5.907082582871e-05 7.234089777412049e-21 5.907082600643e-05 0.0 0.9984748296452 0.0 0.001525170354691 0.0
0.005 0.0016409570621667144 0.001242642492613149 0.9983283258025214 -0.003195212857105028 8.354648868687949e-05 0.0006814304557067675 -8.092148974331095e-05 -0.00042240022402720154
 0.9983283258025214 -0.003195212857105028 0.001640978699995906 0.0012426298034704853 -8.091897830257007e-05 -0.00042239826864448946 8.34337573573801e-05 0.000681473587370052
 8.354648868687949e-05 0.0006814304557067675 -8.091897830257007e-05 -0.00042239826864448946 0.0016409588242973583 0.001242708691163477 0.9983283261531619 -0.003195145793301483
 -8.092148974331095e-05 -0.00042240022402720154 8.34337573573801e-05 0.000681473587370052 0.9983283261531619 -0.003195145793301483 0.0016409776337049545 0.0012426977276856965
0.006252605252188 0.0016713077742433887 0.0015582171726733207 0.9982896779245729 -0.003994801948909292 9.054412850970054e-05 0.0008521040756750579 -8.70887786241617e-05 -0.0005285541840649781
 0.9982896779245729 -0.003994801948909292 0.0016713415979706188 0.0015582010117333562 -8.708487080501609e-05 -0.0005285517724770023 9.03679985811536e-05 0.0008521600441594457
 9.054412850970054e-05 0.0008521040756750579 -8.708487080501609e-05 -0.0005285517724770023 0.001671310463655319 0.001558299908988273 0.9982896784074075 -0.003994718124191716
 -8.70887786241617e-05 -0.0005285541840649781 9.03679985811536e-05 0.0008521600441594457 0.9982896784074075 -0.003994718124191716 0.0016713398653123142 0.0015582859140083505
0.01250521050438 0.0018309840575691553 0.0031492856086180808 0.9980849869373797 -0.007990448439219774 0.00013069970155331836 0.001704471806693921 -0.00012207057194200488 -0.001059708292048841
 0.9980849869373797 -0.007990448439219774 0.0018311191176295428 0.0031492502497022495 -0.0001220551738340808 -0.001059703826154242 0.00012999740566688666 0.001704605911568292
 0.00013069970155331836 0.001704471806693921 -0.0001220551738340808 -0.001059703826154242 0.0018309942440209934 0.003149450741075016 0.9980849883090808 -0.0079902810334014
 -0.00012207057194200488 -0.001059708292048841 0.00012999740566688666 0.001704605911568292 0.9980849883090808 -0.0079902810334014 0.0018311116348434509 0.0031494198273358293
0.01875781575657 0.002004546038725856 0.004763158081616629 0.9978605037563809 -0.011996671776271672 0.00017962892942838534 0.0025577077837524447 -0.00016412415316689562 -0.0015926569753703208
 0.9978605037563809 -0.011996671776271672 0.002004849527060806 0.00476310024167505 -0.00016408981775352377 -0.001592650879776731 0.0001780514573348886 0.002557946539523413
 0.00017962892942838534 0.0025577077837524447 -0.00016408981775352377 -0.001592650879776731 0.002004568513211495 0.0047634053594367365 0.9978605064185636 -0.011996420866186101
 -0.00016412415316689562 -0.0015926569753703208 0.0001780514573348886 0.002557946539523413 0.9978605064185636 -0.011996420866186101 0.002004832275673726 0.004763354431663737
0.02501042100875 0.0021923303757160847 0.006397566449374359 0.9976159655591952 -0.016015414788322815 0.0002374250138577976 0.003411855037930654 -0.00021335385987606006 -0.0021271506728686687
 0.9976159655591952 -0.016015414788322815 0.00219286934686865 0.006397482618842468 -0.00021329322990218966 -0.002127143447071145 0.00023462331057756244 0.0034122291420232284
 0.0002374250138577976 0.003411855037930654 -0.00021329322990218966 -0.002127143447071145 0.002192369926333588 0.0063978955924151116 0.9976159699174039 -0.016015080404403706
 -0.00021335385987606006 -0.0021271506728686687 0.00023462331057756244 0.0034122291420232284 0.9976159699174039 -0.016015080404403706 0.002192838309559524 0.006397821399725179
0.03126302626094 0.0023946597630353744 0.008051343608234592 0.997351096052304 -0.020047508849623266 0.00030418182375085463 0.004266874399424282 -0.0002698610276855895 -0.002663016180991975
 0.997351096052304 -0.020047508849623266 0.00239550116833298 0.008051230053758405 -0.0002697668203817751 -0.002663008400318294 0.0002998064557748795 0.004267418753522124
 0.00030418182375085463 0.004266874399424282 -0.0002697668203817751 -0.002663008400318294 0.002394721171160684 0.008051754293995125 0.997351102511446 -0.020047090988603845
 -0.0002698610276855895 -0.002663016180991975 0.0002998064557748795 0.004267418753522124 0.997351102511446 -0.020047090988603845 0.002395452321026481 0.008051653432764127
0.037515631513130004 0.0026118498873296207 0.009723728667760894 0.9970656126423448 -0.02409336864641387 0.00037999287199266834 0.005122694308096591 -0.0003337447619908215 -0.003200106838164573
 0.9970656126423448 -0.02409336864641387 0.002613060596499229 0.009723581433085045 -0.0003336097610815684 -0.0032000991540317952 0.0003736938756472805 0.005123448058751336
 0.00037999287199266834 0.005122694308096591 -0.0003336097610815684 -0.0032000991540317952 0.00261193793071536 0.009724220508973959 0.9970656216103388 -0.024092867293161166
 -0.0003337447619908215 -0.003200106838164573 0.0003736938756472805 0.005123448058751336 0.9970656216103388 -0.024092867293161166 0.0026129899110076083 0.00972408942443956
0.043768236765320004 0.0028442121229957165 0.011414155508865867 0.9967592293504889 -0.02815320355019246 0.00046495083826408775 0.005979225963962855 -0.00040510221650700277 -0.003738287373877093
 0.9967592293504889 -0.02815320355019246 0.0028458589415084963 0.011413970414899562 -0.0004049192676781962 -0.0037382805138877094 0.0004563776455007478 0.005980232549198001
 0.00046495083826408775 0.005979225963962855 -0.0004049192676781962 -0.0037382805138877094 0.00284433157540612 0.01141472806539268 0.9967592412379976 -0.02815261866507267
 -0.00040510221650700277 -0.003738287373877093 0.0004563776455007478 0.005980232549198001 0.9967592412379976 -0.02815261866507267 0.002845762383354876 0.011414563052722195
0.050020842017509996 0.0030920547800837262 0.013122165398730347 0.9964316582841762 -0.03222710493228814 0.0005591472870351046 0.006836369579790111 -0.00048402869382468207 -0.004277427658925955
 0.9964316582841762 -0.03222710493228814 0.003094204463546178 0.013121938043033882 -0.00048379070160319004 -0.004277422426882638 0.0005479486925877767 0.006837676778177824
 0.0005591472870351046 0.006836369579790111 -0.00048379070160319004 -0.004277422426882638 0.0030922104101230347 0.013122818169056291 0.9964316735048143 -0.032226436458999384
 -0.00048402869382468207 -0.004277427658925955 0.0005479486925877767 0.006837676778177824 0.9964316735048143 -0.032226436458999384 0.0030940779914252867 0.01312261537379416
0.055454545454549996 0.0033202471749359266 0.014620450008627823 0.9961295576478666 -0.03577888636186025 0.0006485797612764012 0.007581666863464809 -0.0005588378101631183 -0.004746636860655949
 0.9961295576478666 -0.03577888636186025 0.0033228880480652514 0.014620182176850184 -0.0005585462653940003 -0.004746633755306268 0.000634813890443073 0.007583277514728679
 0.0006485797612764012 0.007581666863464809 -0.0005585462653940003 -0.004746633755306268 0.003320438113498075 0.01462117203110378 0.9961295761044758 -0.035778145189819435
 -0.0005588378101631183 -0.004746636860655949 0.000634813890443073 0.007583277514728679 0.9961295761044758 -0.035778145189819435 0.0033227322924866986 0.014620933155366814
0.056273447269699996 0.0033556837430970734 0.014847364105289926 0.9960826105031391 -0.0363150889800511 0.000662672468589791 0.007694017459862522 -0.0005706176693913064 -0.004817399632964843
 0.9960826105031391 -0.0363150889800511 0.003358403010335965 0.014847089861286206 -0.0005703175951912469 -0.0048173969088561265 0.0006484966219825622 0.0076956774407784985
 0.000662672468589791 0.007694017459862522 -0.0005703175951912469 -0.0048173969088561265 0.003355880314875422 0.014848096524605751 0.9960826294751504 -0.03631433684681995
 -0.0005706176693913064 -0.004817399632964843 0.0006484966219825622 0.0076956774407784985 0.9960826294751504 -0.03631433684681995 0.003358242576305267 0.014847851942969982
0.06252605252188 0.0036354028171667017 0.01658939831137558 0.9957117965976239 -0.04041712021616262 0.0007756151629334851 0.008552055683594632 -0.0006649607752547224 -0.005358075631148609
 0.9957117965976239 -0.04041712021616262 0.0036387583625487677 0.016589072327038823 -0.0006645916359634658 -0.005358076371127698 0.0007581095768800691 0.008554125057916891
 0.0007756151629334851 0.008552055683594632 -0.0006645916359634658 -0.005358076371127698 0.003635645088610858 0.016590209749906677 0.9957118197428375 -0.04041628433667096
 -0.0006649607752547224 -0.005358075631148609 0.0007581095768800691 0.008554125057916891 0.9957118197428375 -0.04041628433667096 0.0036385599107438596 0.016589919228584722
0.06877865777407 0.003931513905007061 0.01834794156419594 0.9953189271002322 -0.044533125486141384 0.0008980625473434682 0.00941036512019437 -0.000767147760912885 -0.005899327383893107
 0.9953189271002322 -0.044533125486141384 0.003935572409987436 0.018347558760493772 -0.0007667026279551468 -0.005899332620231834 0.0008768741175167469 0.009412904991155236
 0.0008980625473434682 0.00941036512019437 -0.0007667026279551468 -0.005899332620231834 0.003931806627667049 0.01834883132846408 0.9953189548457271 -0.04453220575759162
 -0.000767147760912885 -0.005899327383893107 0.0008768741175167469 0.009412904991155236 0.9953189548457271 -0.04453220575759162 0.0039353318766946754 0.01834849056411901
0.07503126302626001 0.004244317091508092 0.020122685359276308 0.9949037128099972 -0.048663002815580926 0.0010301000775240316 0.010268822070931726 -0.000877266440123456 -0.006441025393457824
 0.9949037128099972 -0.048663002815580926 0.0042491452361498715 0.020122240428216864 -0.0008767384388047146 -0.006441036234503194 0.0010048751113220472 0.010271898084849173
 0.0010301000775240316 0.010268822070931726 -0.0008767384388047146 -0.006441036234503194 0.00424466500971966 0.020123652688554202 0.9949037455883671 -0.04866199912156496
 -0.000877266440123456 -0.006441025393457824 0.0010048751113220472 0.010271898084849173 0.9949037455883671 -0.04866199912156496 0.004248858549498161 0.020123257226992864
0.08128386827845 0.004574110666503612 0.021913333210272935 0.9944658650581216 -0.052806627286221756 0.0011718113778081875 0.011127298703689972 -0.0009954026283849138 -0.0069830385229238835
 0.9944658650581216 -0.052806627286221756 0.004579775140721127 0.021912820612615926 -0.0009947849374911763 -0.006983056153047676 0.0011421956295326603 0.011130981100366205
 0.0011718113778081875 0.011127298703689972 -0.0009947849374911763 -0.006983056153047676 0.004574518516184345 0.021914377279116538 0.9944659033075992 -0.05280553949359847
 -0.0009954026283849138 -0.0069830385229238835 0.0011421956295326603 0.011130981100366205 0.9944659033075992 -0.05280553949359847 0.004579438219934982 0.021913922514024863
0.08753647353064001 0.004921191106847043 0.02371959655677995 0.9940050959366362 -0.05696385507914399 0.0013232781361821786 0.011985663358297496 -0.001121640074613412 -0.007525233719089808
 0.9940050959366362 -0.05696385507914399 0.004927758621425258 0.02371901051927339 -0.0011209259261319774 -0.007525259398613993 0.0012889168477627701 0.011990027021123286
 0.0013232781361821786 0.011985663358297496 -0.0011209259261319774 -0.007525259398613993 0.004921663614905566 0.023720716470785864 0.9940051401021064 -0.056962683041530786
 -0.001121640074613412 -0.007525233719089808 0.0012889168477627701 0.011990027021123286 0.9940051401021064 -0.056962683041530786 0.004927367377252152 0.023720197642151587
0.09378907878283 0.005285853031401791 0.02554119183301924 0.9935211185028042 -0.0611345263618756 0.0014845800039545143 0.0128437807701575 -0.0012560603873347737 -0.008067475822151591
 0.9935211185028042 -0.0611345263618756 0.005293390328808199 0.02554052634545606 -0.001255243066415609 -0.008067510887289344 0.0014451179500967425 0.0128489052755931
 0.0014845800039545143 0.0128437807701575 -0.001255243066415609 -0.008067510887289344 0.005286394914914663 0.025542386628853112 0.9935211690363862 -0.061133269919182304
 -0.0012560603873347737 -0.008067475822151591 0.0014451179500967425 0.0128489052755931 0.9935211690363862 -0.061133269919182304 0.005292940662883987 0.025541798821047595
0.100041684035 0.0056683891355292235 0.027377838320626832 0.9930136469677576 -0.06531846739767884 0.001655794496994493 0.013701512241972073 -0.0013987429583496695 -0.008609627432256642
 0.9930136469677576 -0.06531846739767884 0.005676963001388651 0.0273770871322307 -0.0013978158032950877 -0.008609673295018376 0.001610876034473475 0.013707481908567562
 0.001655794496994493 0.013701512241972073 -0.0013978158032950877 -0.008609673295018376 0.005669005100617697 0.027379106969931854 0.9930137043291731 -0.06531712637149578
 -0.0013987429583496695 -0.008609627432256642 0.001610876034473475 0.013707481908567562 0.9930137043291731 -0.06531712637149578 0.005676450805979598 0.02737844510928554
0.1059090909091 0.0060438740396239485 0.029114776197518007 0.9925158177187042 -0.06925655539709513 0.0018255436545759878 0.01450592480103264 -0.0015402185578589063 -0.009118172474331119
 0.9925158177187042 -0.06925655539709513 0.006053481403524412 0.029113938685365853 -0.0015391823237898585 -0.009118229821181571 0.0017751811512811452 0.014512768515132408
 0.0018255436545759878 0.01450592480103264 -0.0015391823237898585 -0.009118229821181571 0.006044563791558957 0.029116113148730697 0.9925158819125628 -0.06925513482783748
 -0.0015402185578589063 -0.009118172474331119 0.0017751811512811452 0.014512768515132408 0.9925158819125628 -0.06925513482783748 0.006052906786320823 0.02911537703966232
0.1062942892872 0.006069090111347832 0.029229256546512435 0.9924823968721743 -0.06951549211476084 0.0018369968994235795 0.014558715778079183 -0.0015497648834333242 -0.009151548818766666
 0.9924823968721743 -0.06951549211476084 0.006078767385137521 0.029228413162153653 -0.0015487212857812878 -0.009151606966884912 0.001786266019346894 0.014565619714716893
 0.0018369968994235795 0.014558715778079183 -0.0015487212857812878 -0.009151606966884912 0.006069784851845656 0.029230597946671318 0.9924824615292779 -0.06951406631713274
 -0.0015497648834333242 -0.009151548818766666 0.001786266019346894 0.014565619714716893 0.9924824615292779 -0.06951406631713274 0.006078188542893341 0.02922985679868171
0.11254689453939999 0.006488244556206013 0.031095167043537153 0.9919270852552778 -0.0737254033190387 0.0020282601683992273 0.015415246196184703 -0.0017092008808768596 -0.009693097857396254
 0.9919270852552778 -0.0737254033190387 0.0064990921421619555 0.031094224719485017 -0.001708034285594761 -0.009693169854219775 0.0019713605517272964 0.01542317834970434
 0.0020282601683992273 0.015415246196184703 -0.001708034285594761 -0.009693169854219775 0.006489022753036565 0.031096580024841235 0.9919271576848209 -0.07372389254485219
 -0.0017092008808768596 -0.009693097857396254 0.0019713605517272964 0.01542317834970434 0.9919271576848209 -0.07372389254485219 0.006498442526156337 0.031095754190990275
0.11879949979160001 0.006926138872269049 0.03297528940205123 0.991347430816086 -0.07794799362216648 0.0022296548393941434 0.01627095522302994 -0.0018771232091003079 -0.010234129988908016
 0.991347430816086 -0.07794799362216648 0.006938223750827118 0.03297424114115649 -0.0018758271147864534 -0.010234217473302509 0.0021662299152180884 0.016280014424967123
 0.0022296548393941434 0.01627095522302994 -0.0018758271147864534 -0.010234217473302509 0.006927005191682183 0.0329767727227749 0.9913475115037995 -0.0779463976535793
 -0.0018771232091003079 -0.010234129988908016 0.0021662299152180884 0.016280014424967123 0.9913475115037995 -0.0779463976535793 0.0069374992238894935 0.03297585663683017
0.1250521050438 0.007383057159225843 0.034869341512660905 0.9907431540718372 -0.08218304618448136 0.002441248932909563 0.017125691576182874 -0.002053601582290517 -0.01077449819719475
 0.9907431540718372 -0.08218304618448136 0.007396446397821351 0.03486818005927627 -0.0020521695415300135 -0.010774602883415446 0.002370941939188402 0.01713598158877017
 0.002441248932909563 0.017125691576182874 -0.0020521695415300135 -0.010774602883415446 0.0073840162526640765 0.034870893860645985 0.9907432435139628 -0.0821813647888751
 -0.002053601582290517 -0.01077449819719475 0.002370941939188402 0.01713598158877017 0.9907432435139628 -0.0821813647888751 0.0073956428130435015 0.03486988178462927
0.131304710296 0.007859281101880077 0.036777038968625345 0.9901139775130946 -0.08643033530496105 0.002663107861374552 0.017979301039913423 -0.002238703085698795 -0.011314052998970172
 0.9901139775130946 -0.08643033530496105 0.007874041866263816 0.0367757568029683 -0.0022371287054082207 -0.011314176676524271 0.0025855619078051424 0.017990930601148907
 0.002663107861374552 0.017979301039913423 -0.0022371287054082207 -0.011314176676524271 0.00786033760385594 0.03677865895944034 0.9901140762158449 -0.0864285682364708
 -0.002238703085698795 -0.011314052998970172 0.0025855619078051424 0.017990930601148907 0.9901140762158449 -0.0864285682364708 0.007873155065920283 0.03677754497903261
0.1375573155481 0.008245694347012146 0.038448109680884635 0.9895690616033356 -0.09043954181175082 0.0028676866457418614 0.01880631476466381 -0.002404975488128976 -0.011827284177783495
 0.9895690616033356 -0.09043954181175082 0.008261898471382461 0.038446727914314235 -0.002403249228791635 -0.01182742697505218 0.002782715184427949 0.018819266992935055
 0.0028676866457418614 0.01880631476466381 -0.002403249228791635 -0.01182742697505218 0.00824685228040215 0.038449796126462085 0.9895691699929031 -0.09043768893646388
 -0.002404975488128976 -0.011827284177783495 0.002782715184427949 0.018819266992935055 0.9895691699929031 -0.09043768893646388 0.008260925052603351 0.03844860274292711
0.1438099208003 0.008645682287298477 0.04011034107840033 0.9890049931515252 -0.09443857031418011 0.0030805493634309504 0.019629989802745267 -0.002577910241335171 -0.012337496287314889
 0.9890049931515252 -0.09443857031418011 0.008663397774549626 0.04010885407968282 -0.0025760252212298704 -0.012337659964600888 0.002987826111042225 0.01964436425452958
 0.0030805493634309504 0.019629989802745267 -0.0025760252212298704 -0.012337659964600888 0.008646946153477133 0.04011209256234789 0.9890051117330358 -0.09443663139194637
 -0.002577910241335171 -0.012337496287314889 0.002987826111042225 0.01964436425452958 0.9890051117330358 -0.09443663139194637 0.008662333701362853 0.04011081577070647
0.1500625260525 0.009059103589377275 0.041763593746073004 0.9884219175621908 -0.09842732113866477 0.0033016235875651953 0.02045024178358576 -0.0027574376543333698 -0.012844610676809157
 0.9884219175621908 -0.09842732113866477 0.009078398563045573 0.04176199557848814 -0.0027553870059265234 -0.012844797065246471 0.003200824108661537 0.020466141667017778
 0.0033016235875651953 0.02045024178358576 -0.0027553870059265234 -0.012844797065246471 0.009060477866743969 0.04176540879393007 0.9884220468491671 -0.09842529592231275
 -0.0027574376543333698 -0.012844610676809157 0.003200824108661537 0.020466141667017778 0.9884220468491671 -0.09842529592231275 0.009077239798100517 0.04176404434853596
0.15631513130469998 0.009485815908851189 0.04340773248542893 0.9878199809870455 -0.10240569497485043 0.003530836033800241 0.021266987747891687 -0.0029434871753582187 -0.013348550360177286
 0.9878199809870455 -0.10240569497485043 0.009506758616953636 0.043406016901300845 -0.0029412640455401375 -0.013348761361423782 0.0034216377681695886 0.02128451988634865
