! Created with skrf 1.8.0 (http://scikit-rf.org).
# GHz S RI R 50.0 
!freq ReS11 ImS11 ReS12 ImS12 ReS13 ImS13
! ReS14 ImS14
! ReS21 ImS21 ReS22 ImS22 ReS23 ImS23
! ReS24 ImS24
! ReS31 ImS31 ReS32 ImS32 ReS33 ImS33
! ReS34 ImS34
! ReS41 ImS41 ReS42 ImS42 ReS43 ImS43
! ReS44 ImS44
!
0.0 0.001574306957246 0.0 0.9984256930427 0.0 6.075971265242e-05 0.0 -6.075971337323e-05 7.440918849963674e-21
 0.9984256930427 0.0 0.001574306957247 0.0 -6.075971337265e-05 7.440918849892645e-21 6.075971265015e-05 0.0
 6.075971265242e-05 0.0 -6.075971337265e-05 7.440918849892645e-21 0.001574306942801 0.0 0.9984256930283 0.0
 -6.075971337323e-05 7.440918849963674e-21 6.075971265015e-05 0.0 0.9984256930283 0.0 0.001574306942833 0.0
0.005 0.0016939098258161585 0.0012881749896122353 0.9982743688392737 -0.0032976038403336448 8.513857262595799e-05 0.0006676090676940062 -8.268010172144508e-05 -0.00041935494265051394
 0.9982743688392737 -0.0032976038403336448 0.00169391965631333 0.0012881692697667457 -8.268276110959612e-05 -0.0004193570081973086 8.506402968787954e-05 0.0006676373665474478
 8.513857262595799e-05 0.0006676090676940062 -8.268276110959612e-05 -0.0004193570081973086 0.001693907980502151 0.0012881088319285695 0.9982743684775262 -0.0032976709079261058
 -8.268010172144508e-05 -0.00041935494265051394 8.506402968787954e-05 0.0006676373665474478 0.9982743684775262 -0.0032976709079261058 0.001693920785833851 0.001288101299162075
0.006252605252188 0.0017253037650769073 0.0016152807418617066 0.9982343941729296 -0.004122806850077049 9.211849882893833e-05 0.0008348338091948766 -8.887871066145782e-05 -0.0005247337787414018
 0.9982343941729296 -0.004122806850077049 0.0017253191319414293 0.0016152734865615753 -8.888284870961316e-05 -0.0005247363259111313 9.200203142632761e-05 0.00083487057294507
 9.211849882893833e-05 0.0008348338091948766 -8.888284870961316e-05 -0.0005247363259111313 0.0017253009523555528 0.0016151980753365423 0.9982343936796729 -0.0041228906620646676
 -8.887871066145782e-05 -0.0005247337787414018 9.200203142632761e-05 0.00083487057294507 0.9982343936796729 -0.0041228906620646676 0.0017253209702341216 0.0016151885444651267
0.01250521050438 0.0018907180215954739 0.0032643448979928352 0.998022359953422 -0.008246384761026883 0.00013222585779786508 0.0016700180262821129 -0.00012410064359022257 -0.0010519919129501796
 0.998022359953422 -0.008246384761026883 0.0018907793799746153 0.0032643293400938787 -0.0001241169491665632 -0.001051996625540531 0.00013176137745987736 0.0016701065603929109
 0.00013222585779786508 0.0016700180262821129 -0.0001241169491665632 -0.001051996625540531 0.0018907073573550183 0.003264179898396542 0.9980223585536703 -0.008246552167935586
 -0.00012410064359022257 -0.0010519919129501796 0.00013176137745987736 0.0016701065603929109 0.9980223585536703 -0.008246552167935586 0.0018907872994298035 0.0032641596687257306
0.01875781575657 0.0020709171027272666 0.004936822542868401 0.9977893224050249 -0.012380762435555734 0.00018117558302368998 0.002506104051654387 -0.000166535231242341 -0.001581013718257235
 0.9977893224050249 -0.012380762435555734 0.0020710549743201876 0.004936797594046149 -0.00016657159031346845 -0.0015810201398950043 0.00018013209540830168 0.0025062623261092186
 0.00018117558302368998 0.002506104051654387 -0.00016657159031346845 -0.0015810201398950043 0.0020708935581635816 0.004936575494191474 0.9977893196816112 -0.012381013367514753
 -0.000166535231242341 -0.001581013718257235 0.00018013209540830168 0.0025062623261092186 0.9977893196816112 -0.012381013367514753 0.002071073211107379 0.004936543273847412
0.02501042100875 0.002266257161474216 0.006630365987685766 0.9975350027742385 -0.016527935039230248 0.00023906290862536544 0.003343120252377667 -0.00021628851743017488 -0.0021115554631033285
 0.9975350027742385 -0.016527935039230248 0.0022665020062559026 0.006630330530474529 -0.00021635272062982462 -0.0021115630547717716 0.000237209283137486 0.0033433691059085615
 0.00023906290862536544 0.003343120252377667 -0.00021635272062982462 -0.0021115630547717716 0.0022662157128077276 0.0066300372132752005 0.9975349983062086 -0.016528269482800357
 -0.00021628851743017488 -0.0021115554631033285 0.000237209283137486 0.0033433691059085615 0.9975349983062086 -0.016528269482800357 0.0022665347977672144 0.006629991602610185
0.03126302626094 0.002477079636492488 0.008343762705008397 0.9972591083128599 -0.02068875125019986 0.00030598349465457974 0.004181018165691926 -0.0002734634929625177 -0.002643444127636139
 0.9972591083128599 -0.02068875125019986 0.0024774618710420716 0.008343715596082652 -0.0002735632517443872 -0.0026434522667445415 0.00030308825148828795 0.004181381324468897
 0.00030598349465457974 0.004181018165691926 -0.0002735632517443872 -0.0026434522667445415 0.00247701526808136 0.008343352602439858 0.9972591016787957 -0.02068916921398125
 -0.0002734634929625177 -0.002643444127636139 0.00030308825148828795 0.004181381324468897 0.9972591016787957 -0.02068916921398125 0.0024775134627904763 0.008343292096862878
0.037515631513130004 0.0027037185131308025 0.010076218822216486 0.996961339782087 -0.024863629703990753 0.0003820324676643895 0.005019718866268938 -0.00033816083131197466 -0.003176531038203973
 0.996961339782087 -0.024863629703990753 0.0027042685242442506 0.0100761588942613 -0.00033830378615938583 -0.003176539018307609 0.0003778636826571088 0.005020222974127491
 0.0003820324676643895 0.005019718866268938 -0.00033830378615938583 -0.003176539018307609 0.0027036262144626484 0.010075727842091873 0.9969613305572569 -0.02486413124046165
 -0.00033816083131197466 -0.003176531038203973 0.0003778636826571088 0.005020222974127491 0.9969613305572569 -0.02486413124046165 0.00270434316885263 0.010075650833222542
0.043768236765320004 0.0029465031337758845 0.011827141017856826 0.9966413945075893 -0.029052777025404476 0.0004673039682668898 0.005859127049008974 -0.0004104791475849867 -0.0037106777887451732
 0.9966413945075893 -0.029052777025404476 0.002947251289090369 0.011827067081227344 -0.0004106728728485805 -0.0037106848194944225 0.00046162922749013195 0.005859801701376488
 0.0004673039682668898 0.005859127049008974 -0.0004106728728485805 -0.0037106848194944225 0.002946377900483797 0.01182656969460224 0.9966413822634935 -0.029053362201001437
 -0.0004104791475849867 -0.0037106777887451732 0.00046162922749013195 0.005859801701376488 0.9966413822634935 -0.029053362201001437 0.0029473532484251995 0.011826474470662648
0.050020842017509996 0.0032057594963485255 0.013596046423310157 0.9962989679265075 -0.03325627785356657 0.0005618908758058314 0.006699136862813553 -0.0004905150891273704 -0.0042457504141685375
 0.9962989679265075 -0.03325627785356657 0.0032067361543555244 0.01359595726710165 -0.0004907670961174545 -0.004245755621291536 0.0005544772568965113 0.006700014642173155
 0.0005618908758058314 0.006699136862813553 -0.0004907670961174545 -0.004245755621291536 0.0032055963283537416 0.01359539536531558 0.9962989522283234 -0.033256946759258624
 -0.0004905150891273704 -0.0042457504141685375 0.0005544772568965113 0.006700014642173155 0.9962989522283234 -0.033256946759258624 0.003206869698194804 0.013595280111223703
0.055454545454549996 0.003444689365721983 0.015147558626025294 0.9959828940011581 -0.03692091099986421 0.0006517260559317654 0.007429531423038466 -0.0005664099969283688 -0.004711393848014756
 0.9959828940011581 -0.03692091099986421 0.0034458892541181416 0.015147455244257308 -0.0005667187052073524 -0.0047113966951916175 0.0006426117406975019 0.0074306145339478125
 0.0006517260559317654 0.007429531423038466 -0.0005667187052073524 -0.0047113966951916175 0.003444489177113042 0.01514683882680802 0.9959828749450094 -0.03692165276400379
 -0.0005664099969283688 -0.004711393848014756 0.0006426117406975019 0.0074306145339478125 0.9959828749450094 -0.03692165276400379 0.0034460537227967774 0.015146704611263124
0.056273447269699996 0.0034818109179700334 0.015382518391279316 0.9959337545046865 -0.03747413900155084 0.0006658846118132242 0.0075396347685154855 -0.000578363350408262 -0.004781616543216948
 0.9959337545046865 -0.03747413900155084 0.0034830464371655516 0.015382412784182842 -0.0005786810894482082 -0.004781618968566128 0.0006564986812231524 0.007540751280537269
 0.0006658846118132242 0.0075396347685154855 -0.0005786810894482082 -0.004781618968566128 0.0034816048233131803 0.015381788280305678 0.9959337349134435 -0.037474891754320616
 -0.000578363350408262 -0.004781616543216948 0.0006564986812231524 0.007540751280537269 0.9959337349134435 -0.037474891754320616 0.003483215847229485 0.01538165107724239
0.06252605252188 0.00377497838860272 0.017186182165878812 0.995545448346959 -0.041706313717618314 0.0007793749830859884 0.008380501115680604 -0.000674116648646826 -0.005318143836669595
 0.995545448346959 -0.041706313717618314 0.0037765031366354773 0.01718605885680277 -0.0006745075104339185 -0.005318142438267771 0.0007677828043105954 0.008381895025657055
 0.0007793749830859884 0.008380501115680604 -0.0006745075104339185 -0.005318142438267771 0.003774724381540025 0.01718537377018648 0.9955454244162677 -0.04170715044803051
 -0.000674116648646826 -0.005318143836669595 0.0007677828043105954 0.008381895025657055 0.9955454244162677 -0.04170715044803051 0.0037767127048605035 0.01718521259500993
0.06877865777407 0.0040855807503952235 0.01900669040126339 0.9951337436377206 -0.0459527161019902 0.0009024500466114365 0.009221611084297577 -0.0007778656776718135 -0.005855199065247836
 0.9951337436377206 -0.0459527161019902 0.004087425112439273 0.019006548119699384 -0.0007783369941781575 -0.0058551927173599505 0.0008884171952954815 0.009223324153561665
 0.0009024500466114365 0.009221611084297577 -0.0007783369941781575 -0.0058551927173599505 0.004085273854371481 0.019005804562091298 0.9951337149151345 -0.04595363696859221
 -0.0007778656776718135 -0.005855199065247836 0.0008884171952954815 0.009223324153561665 0.9951337149151345 -0.04595363696859221 0.004087679144026044 0.019005617286428772
0.07503126302626001 0.004413934779877151 0.020843713957845608 0.9946983349889076 -0.05021323025108934 0.0010351959867112841 0.010062835289389898 -0.0008896990477973502 -0.0063926475294134545
 0.9946983349889076 -0.05021323025108934 0.004416129167836314 0.020843551413938708 -0.0008902580928442616 -0.006392635022627981 0.0010184875725549427 0.010064912411691634
 0.0010351959867112841 0.010062835289389898 -0.0008902580928442616 -0.006392635022627981 0.0044135700262146835 0.020842751602732846 0.9946983010132365 -0.05021423542776298
 -0.0008896990477973502 -0.0063926475294134545 0.0010184875725549427 0.010064912411691634 0.9946983010132365 -0.05021423542776298 0.004416431979830477 0.020842535991751784
0.08128386827845 0.0047603552034846995 0.022696935797890304 0.9942389177246597 -0.05448771630751257 0.0011776970014908674 0.010904040185632551 -0.0010097032166569296 -0.00693035268429289
 0.9942389177246597 -0.05448771630751257 0.004762930064617199 0.02269675168221408 -0.0010103572063300797 -0.006930332725603092 0.0011580776930690576 0.010906529423293706
 0.0011776970014908674 0.010904040185632551 -0.0010103572063300797 -0.006930332725603092 0.004759927634272747 0.022695897934304602 0.9942388780263756 -0.05448880599057393
 -0.0010097032166569296 -0.00693035268429289 0.0011580776930690576 0.010906529423293706 0.9942388780263756 -0.05448880599057393 0.004763285987889814 0.0226956516452525
0.08753647353064001 0.005125154672597419 0.024566046755530743 0.9937551881291901 -0.05877601464135802 0.0013300351927793455 0.011745088358965367 -0.0011379624141540682 -0.0074681758828683735
 0.9937551881291901 -0.05877601464135802 0.005128140498195689 0.02456583973860128 -0.0011387185068441866 -0.00746814709578197 0.0013072692473281057 0.011748040978709398
 0.0013300351927793455 0.011745088358965367 -0.0011387185068441866 -0.00746814709578197 0.005124659340690819 0.024564934475643032 0.9937551422298349 -0.05877718904552161
 -0.0011379624141540682 -0.0074681758828683735 0.0013072692473281057 0.011748040978709398 0.9937551422298349 -0.05877718904552161 0.005128553878138698 0.024564655056018576
0.09378907878283 0.005508643708917122 0.026450742521300717 0.9932468436698128 -0.06307794882308584 0.0014922904608775233 0.01258583873692416 -0.001274558562562082 -0.008005976205882226
 0.9932468436698128 -0.06307794882308584 0.005512071043165703 0.026450511252927893 -0.001275423859058893 -0.008005937130529325 0.0014661417560770645 0.012589309245418392
 0.0014922904608775233 0.01258583873692416 -0.001275423859058893 -0.008005937130529325 0.005508075679133738 0.026449557000078085 0.9932467910800766 -0.06307920818391254
 -0.001274558562562082 -0.008005976205882226 0.0014661417560770645 0.012589309245418392 0.9932467910800766 -0.06307920818391254 0.005512546239662335 0.026449241885676406
0.100041684035 0.005911130628167318 0.02835072143095727 0.9927135832004338 -0.06739332779837852 0.001664540400848689 0.013426146754065126 -0.0014195711935682817 -0.008543610342338715
 0.9927135832004338 -0.06739332779837852 0.005915030077158119 0.028350464539029372 -0.0014205527369730994 -0.008543559435586568 0.0016347724695689966 0.013430192932957247
 0.001664540400848689 0.013426146754065126 -0.0014205527369730994 -0.008543559435586568 0.005910484979006622 0.028349463927260846 0.9927135234205795 -0.06739467237179683
 -0.0014195711935682817 -0.008543610342338715 0.0016347724695689966 0.013430192932957247 0.9927135234205795 -0.06739467237179683 0.005915571465758772 0.028349110439784424
0.1059090909091 0.006306372908871028 0.030147282122213175 0.9921902471009606 -0.07145489955535511 0.0018353357526666703 0.014214152651072393 -0.001563373539339639 -0.009047841983599644
 0.9921902471009606 -0.07145489955535511 0.006310743286304243 0.03014699991675684 -0.0015644705220945678 -0.009047778496832862 0.0018019562224780288 0.014218794535142486
 0.0018353357526666703 0.014214152651072393 -0.0015644705220945678 -0.009047778496832862 0.006305649958564064 0.03014595829467082 0.9921901801087375 -0.07145632433876026
 -0.001563373539339639 -0.009047841983599644 0.0018019562224780288 0.014218794535142486 0.9921901801087375 -0.07145632433876026 0.006311350783163582 0.030145566258212266
0.1062942892872 0.006332921449077078 0.03026568280760759 0.9921551071548346 -0.07172194751608536 0.0018468602004509363 0.014265864482301552 -0.0015730773628886197 -0.009080932510672051
 0.9921551071548346 -0.07172194751608536 0.0063373236897175805 0.03026539889683639 -0.0015741821383132074 -0.009080868146275522 0.0018132362680381468 0.014270547422905417
 0.0018468602004509363 0.014265864482301552 -0.0015741821383132074 -0.009080868146275522 0.006332193273127859 0.03026435466806868 0.9921550396732244 -0.07172337757512327
 -0.0015730773628886197 -0.009080932510672051 0.0018132362680381468 0.014270547422905417 0.9921550396732244 -0.07172337757512327 0.00633793566222034 0.030263960012388177
0.11254689453939999 0.006774319789962502 0.032195325693546085 0.9915711177303551 -0.07606359217347469 0.002039322540021715 0.015104840741909795 -0.0017351515625926347 -0.009617794405315752
 0.9915711177303551 -0.07606359217347469 0.0067792555788984445 0.03219501334380255 -0.0017363864969376713 -0.009617714874058124 0.002001605562935761 0.015110224879280659
 0.002039322540021715 0.015104840741909795 -0.0017363864969376713 -0.009617714874058124 0.006773504195566581 0.03219392834861946 0.9915710420227623 -0.07606510801264478
 -0.0017351515625926347 -0.009617794405315752 0.002001605562935761 0.015110224879280659 0.9915710420227623 -0.07606510801264478 0.006779942543965616 0.03219348960988563
0.11879949979160001 0.007235626756224504 0.03413934787068592 0.9909613190658956 -0.08041803517962848 0.002241997492054484 0.015942921195114947 -0.001905865632503656 -0.010154045166485312
 0.9909613190658956 -0.08041803517962848 0.007241126939333506 0.03413900563495963 -0.00190723759415044 -0.010153948676331537 0.0021999501991349047 0.01594907434167103
 0.002241997492054484 0.015942921195114947 -0.00190723759415044 -0.010153948676331537 0.007234718868818829 0.03413788283687095 0.9909612345949056 -0.08041963711323201
 -0.001905865632503656 -0.010154045166485312 0.0021999501991349047 0.01594907434167103 0.9909612345949056 -0.08041963711323201 0.007241893323097931 0.0341373969772179
0.1250521050438 0.007717140820303994 0.0360974450842776 0.9903254174146296 -0.08478503992291037 0.002454952422843768 0.016779948429651057 -0.0020852886699575415 -0.01068953136626757
 0.9903254174146296 -0.08478503992291037 0.007723236341656654 0.03609707148635072 -0.002086804468277273 -0.010689416042562898 0.002408337357571155 0.01678694180811636
 0.002454952422843768 0.016779948429651057 -0.002086804468277273 -0.010689416042562898 0.007716135783342054 0.036095913966237195 0.9903253236284806 -0.0847867282832462
 -0.0020852886699575415 -0.01068953136626757 0.002408337357571155 0.01678694180811636 0.9903253236284806 -0.0847867282832462 0.0077240865881943056 0.036095377821103294
0.131304710296 0.008219157695598714 0.03806931042689848 0.9896631213142777 -0.08916436038541403 0.00267825189364876 0.017615762038119837 -0.002273486939212273 -0.011224097004959742
 0.9896631213142777 -0.08916436038541403 0.00822587960687678 0.038068903958751996 -0.0022751533241402427 -0.011223960890600237 0.0026268314583987396 0.017623670313942415
 0.00267825189364876 0.017615762038119837 -0.0022751533241402427 -0.011223960890600237 0.008218050672167155 0.03806771491591443 0.9896630176462987 -0.0891661355247423
 -0.002273486939212273 -0.011224097004959742 0.0026268314583987396 0.017623670313942415 0.9896630176462987 -0.0891661355247423 0.008226818179106237 0.03806712519006569
0.1375573155481 0.008627974494181347 0.03979784722856644 0.9890881830408995 -0.09329883483190732 0.0028842984008888967 0.018424745153287948 -0.0024429284266729422 -0.01173210292716064
 0.9890881830408995 -0.09329883483190732 0.008635356887689545 0.03979741602712263 -0.002444755479029322 -0.011731945826063345 0.002827957020245895 0.018433558157250226
 0.0028842984008888967 0.018424745153287948 -0.002444755479029322 -0.011731945826063345 0.008626761247847834 0.03979618879239218 0.9890880690314796 -0.09330069695613741
 -0.0024429284266729422 -0.01173210292716064 0.002827957020245895 0.018433558157250226 0.9890880690314796 -0.09330069695613741 0.008636387461228261 0.03979555205943089
0.1438099208003 0.00905121570276716 0.041517070715945674 0.9884929462090685 -0.09742261367489105 0.0030986685312466623 0.019230295398103694 -0.002619139471130614 -0.012236977263141918
 0.9884929462090685 -0.09742261367489105 0.009059290243872108 0.041516613785470544 -0.002621134454947231 -0.012236797244894454 0.0030371904453928523 0.019240081512598844
 0.0030986685312466623 0.019230295398103694 -0.002621134454947231 -0.012236797244894454 0.009049891531431497 0.04151535109788133 0.988492821291982 -0.09742456312661138
 -0.002619139471130614 -0.012236977263141918 0.0030371904453928523 0.019240081512598844 0.988492821291982 -0.09742456312661138 0.009060417167465376 0.041514664543700265
0.1500625260525 0.0094887292706546 0.04322683078040927 0.9878775670444538 -0.10153558789935556 0.003321286784838956 0.02003232545646105 -0.002802047027372931 -0.012738638209230718
 0.9878775670444538 -0.10153558789935556 0.009497527744502547 0.04322634703442382 -0.002804217189671536 -0.012738433265935647 0.003254457508735033 0.02004315556975985
 0.003321286784838956 0.02003232545646105 -0.002804217189671536 -0.012738433265935647 0.009487289497377907 0.04322505179099476 0.9878774306407688 -0.10153762503660432
 -0.002802047027372931 -0.012738638209230718 0.003254457508735033 0.02004315556975985 0.9878774306407688 -0.10153762503660432 0.009498755376197918 0.043224312436342005
0.15631513130469998 0.009940362031748107 0.0449269818197984 0.9872422026048191 -0.10563764901427519 0.0035520767493425125 0.02083074953272719 -0.002991577131825861 -0.013237005721815607
