! Created with skrf 1.8.0 (http://scikit-rf.org).
# GHz S RI R 50.0 
!freq ReS11 ImS11 ReS12 ImS12 ReS13 ImS13
! ReS14 ImS14
! ReS21 ImS21 ReS22 ImS22 ReS23 ImS23
! ReS24 ImS24
! ReS31 ImS31 ReS32 ImS32 ReS33 ImS33
! ReS34 ImS34
! ReS41 ImS41 ReS42 ImS42 ReS43 ImS43
! ReS44 ImS44
!
0.0 0.00132978065249 0.0 0.9986702193475 0.0 5.127352162262e-05 0.0 -5.127352182197e-05 6.279195438028753e-21
 0.9986702193475 0.0 0.001329780652498 0.0 -5.127352182233e-05 6.279195438072839e-21 5.127352162205e-05 0.0
 5.127352162262e-05 0.0 -5.127352182233e-05 6.279195438072839e-21 0.001329780642115 0.0 0.9986702193371 0.0
 -5.127352182197e-05 6.279195438028753e-21 5.127352162205e-05 0.0 0.9986702193371 0.0 0.001329780642105 0.0
0.005 0.0014302687919193961 0.0010818838578356162 0.9985431546814817 -0.002786591633660464 7.247508877443388e-05 0.0006032210584660343 -7.021016396314933e-05 -0.0003720492701103232
 0.9985431546814817 -0.002786591633660464 0.0014302700128014899 0.001081883204502642 -7.021291630659215e-05 -0.0003720514004247405 7.246007877548567e-05 0.0006032267986029537
 7.247508877443388e-05 0.0006032210584660343 -7.021291630659215e-05 -0.0003720514004247405 0.0014302676564137459 0.0010819518099022198 0.9985431550231202 -0.0027865245741336385
 -7.021016396314933e-05 -0.0003720492701103232 7.246007877548567e-05 0.0006032267986029537 0.9985431550231202 -0.0027865245741336385 0.001430271832057822 0.0010819493735099554
0.006252605252188 0.0014564672824606785 0.0013566624839413614 0.9985098411660721 -0.0034839484876791685 7.844282617290013e-05 0.0007543111212172127 -7.548658820154909e-05 -0.0004655610400838954
 0.9985098411660721 -0.0034839484876791685 0.0014564691901980298 0.0013566616289289071 -7.549087100151922e-05 -0.00046556366784131095 7.841937460750257e-05 0.0007543185638222031
 7.844282617290013e-05 0.0007543111212172127 -7.549087100151922e-05 -0.00046556366784131095 0.001456465434276983 0.0013567474128698316 0.9985098416272927 -0.0034838646783978025
 -7.548658820154909e-05 -0.0004655610400838954 7.841937460750257e-05 0.0007543185638222031 0.9985098416272927 -0.0034838646783978025 0.001456471961576193 0.0013567443226391077
0.01250521050438 0.0015934707036945191 0.0027422135298652128 0.9983345845235391 -0.006968884079085312 0.00011219375558579333 0.0015089269093638167 -0.00010504823740547118 -0.0009335204107904219
 0.9983345845235391 -0.006968884079085312 0.0015934783122928053 0.002742211444791397 -0.0001050651151240427 -0.0009335252854519317 0.0001121002439305738 0.0015089446588431703
 0.00011219375558579333 0.0015089269093638167 -0.0001050651151240427 -0.0009335252854519317 0.001593462739553251 0.002742383208047562 0.9983345857854498 -0.006968716695539181
 -0.00010504823740547118 -0.0009335204107904219 0.0001121002439305738 0.0015089446588431703 0.9983345857854498 -0.006968716695539181 0.0015934888038884234 0.002742376567362536
0.01875781575657 0.0017410578599039064 0.004147917962401115 0.9981442547063951 -0.010463328757196287 0.00015259848150648886 0.002264417185448632 -0.0001400432365854976 -0.0014031729952885823
 0.9981442547063951 -0.010463328757196287 0.0017410749401590294 0.004147914282363853 -0.0001400808748760725 -0.001403179672801344 0.00015238843400127924 0.002264448616099368
 0.00015259848150648886 0.002264417185448632 -0.0001400808748760725 -0.001403179672801344 0.0017410395288969057 0.004148172377129564 0.998144257114794 -0.010463077913248272
 -0.0001400432365854976 -0.0014031729952885823 0.00015238843400127924 0.002264448616099368 0.998144257114794 -0.010463077913248272 0.0017410980985524082 0.004148161669215093
0.02501042100875 0.0018994895320870223 0.0055718283058044755 0.9979386502947472 -0.013969009829619076 0.00019973036944693343 0.0030208457648010726 -0.0001805539400464912 -0.0018743157018994388
 0.9979386502947472 -0.013969009829619076 0.0018995198363078928 0.005571822675739576 -0.00018062040807478443 -0.001874323666610652 0.00019935729669281658 0.003020894738281031
 0.00019973036944693343 0.0030208457648010726 -0.00018062040807478443 -0.001874323666610652 0.0018994565876519584 0.005572167513458493 0.9979386541959258 -0.013968675613590957
 -0.0001805539400464912 -0.0018743157018994388 0.00019935729669281658 0.003020894738281031 0.9979386541959258 -0.013968675613590957 0.0018995606057777754 0.0055721521690092965
0.03126302626094 0.002069015521740275 0.007012958681240652 0.9977175585028941 -0.017486685999039606 0.0002536635474777462 0.003778202933830935 -0.0002266605926604907 -0.0023468149725838915
 0.9977175585028941 -0.017486685999039606 0.002069062785692383 0.007012950756346185 -0.00022676387997334107 -0.0023468236361532213 0.0002530808986167613 0.0037782738015412617
 0.0002536635474777462 0.003778202933830935 -0.00022676387997334107 -0.0023468236361532213 0.0020689637157098486 0.00701338281122775 0.9977175642387704 -0.017486268469738227
 -0.0002266605926604907 -0.0023468149725838915 0.0002530808986167613 0.0037782738015412617 0.9977175642387704 -0.017486268469738227 0.0020691261063206256 0.007013362208734161
0.037515631513130004 0.0022498803781203823 0.008470678680254279 0.9974807610377033 -0.021016753437515218 0.0003144721525366967 0.004536450391057745 -0.00027844198134480976 -0.0028205618324219925
 0.9974807610377033 -0.021016753437515218 0.0022499483230812136 0.008470668126451511 -0.00027859000660267706 -0.0028205705334520166 0.00031363329179120357 0.004536547999093253
 0.0003144721525366967 0.004536450391057745 -0.00027859000660267706 -0.0028205705334520166 0.0022498054643526584 0.008471187891592529 0.9974807689504257 -0.021016252667853157
 -0.00027844198134480976 -0.0028205618324219925 0.00031363329179120357 0.004536547999093253 0.9974807689504257 -0.021016252667853157 0.0022500391360078683 0.00847116135726239
0.043768236765320004 0.002442325621524515 0.009944528873725492 0.9972280364535534 -0.024559430218848675 0.00038222998839519825 0.005295534913706183 -0.00033597567856601866 -0.0032954582130694404
 0.9972280364535534 -0.024559430218848675 0.002442417955672624 0.009944515368235096 -0.00033617629476156725 -0.0032954662169578175 0.0003810881818381482 0.005295664608680082
 0.00038222998839519825 0.005295534913706183 -0.00033617629476156725 -0.0032954662169578175 0.0024422233518523813 0.009945123384707147 0.9972280468817857 -0.024558846266500543
 -0.00033597567856601866 -0.0032954582130694404 0.0003810881818381482 0.005295664608680082 0.9972280468817857 -0.024558846266500543 0.002442541200190511 0.009945090192183734
0.050020842017509996 0.0026465907814884077 0.011434144583118202 0.9969591613242064 -0.028114832486689768 0.00045701032641767847 0.006055393998421352 -0.0003993381432129354 -0.003771411302931453
 0.9969591613242064 -0.028114832486689768 0.002646711201266833 0.011434127814988218 -0.00039959914106958667 -0.0037714178017980225 0.00045551873426056535 0.006055561633638024
 0.00045701032641767847 0.006055393998421352 -0.00039959914106958667 -0.0037714178017980225 0.002646456909458987 0.011434824649860566 0.9969591746065719 -0.028114165415935786
 -0.0003993381432129354 -0.003771411302931453 0.00045551873426056535 0.006055561633638024 0.9969591746065719 -0.028114165415935786 0.0026468718192439095 0.011434784019927141
0.055454545454549996 0.002833887550781362 0.012741229574283024 0.996712209961887 -0.031214960699769628 0.0005277562440896681 0.006716310130757226 -0.00045919428742449036 -0.004185816958225283
 0.996712209961887 -0.031214960699769628 0.0028340353720466486 0.012741209727880539 -0.00045951403924920594 -0.004185821436144342 0.0005259225524457031 0.006716515889115655
 0.0005277562440896681 0.006716310130757226 -0.00045951403924920594 -0.004185821436144342 0.002833722766584644 0.012741984233546708 0.9967122259982091 -0.031214221449605208
 -0.00045919428742449036 -0.004185816958225283 0.0005259225524457031 0.006716515889115655 0.9967122259982091 -0.031214221449605208 0.0028342324824703765 0.012741936466073661
0.056273447269699996 0.0028629139408288986 0.012939218462184083 0.9966739109227777 -0.03168301181239143 0.000538885772182352 0.006815958618640636 -0.0004686047549284957 -0.004248330782080466
 0.9966739109227777 -0.03168301181239143 0.002863066132751555 0.012939198132819 -0.00046893386529210516 -0.004248334894729266 0.0005369974443446417 0.006816170560477883
 0.000538885772182352 0.006815958618640636 -0.00046893386529210516 -0.004248334894729266 0.0028627442194612543 0.012939984385801928 0.9966739273958072 -0.03168226168731754
 -0.0004686047549284957 -0.004248330782080466 0.0005369974443446417 0.006816170560477883 0.9966739273958072 -0.03168226168731754 0.0028632690662414805 0.01293993548592063
0.06252605252188 0.003091532034211952 0.014459479922082522 0.9963720596591158 -0.03526397571026526 0.0006279281599812642 0.007577154753016482 -0.0005438498196658049 -0.0047261272879372835
 0.9963720596591158 -0.03526397571026526 0.003091719676210627 0.014459455745757525 -0.0005442547151334223 -0.004726128059836603 0.0006255960337003583 0.007577417887438497
 0.0006279281599812642 0.007577154753016482 -0.0005442547151334223 -0.004726128059836603 0.003091322218013366 0.01446033204461729 0.9963720796588135 -0.03526314259918288
 -0.0005438498196658049 -0.0047261272879372835 0.0006255960337003583 0.007577417887438497 0.9963720796588135 -0.03526314259918288 0.0030919698696840114 0.014460273988573469
0.06877865777407 0.00333268101920286 0.01599468287047954 0.9960533813914516 -0.03885769984054557 0.0007242084675761594 0.008338904281714108 -0.0006251465537126929 -0.00520471151512857
 0.9960533813914516 -0.03885769984054557 0.003332907782077763 0.015994654574861416 -0.0006256348498250036 -0.005204707918408762 0.0007213853665597867 0.008339226020852698
 0.0007242084675761594 0.008338904281714108 -0.0006256348498250036 -0.005204707918408762 0.0033324268625588922 0.015995621578529857 0.9960534052515677 -0.0388567838128751
 -0.0006251465537126929 -0.00520471151512857 0.0007213853665597867 0.008339226020852698 0.9960534052515677 -0.0388567838128751 0.0033332101807041765 0.015995553425881253
0.07503126302626001 0.003586595964940881 0.017544597922733003 0.9957176496588828 -0.04246413574218644 0.0008277967396155158 0.009101125561444417 -0.0007125670579291234 -0.005683993638855574
 0.9957176496588828 -0.04246413574218644 0.0035868655140681815 0.017544565249299916 -0.0007131463140026537 -0.005683984572308486 0.0008244353742852791 0.00910151385021974
 0.0008277967396155158 0.009101125561444417 -0.0007131463140026537 -0.005683984572308486 0.0035862932232064767 0.017545623648994917 0.9957176777114587 -0.04246313686718283
 -0.0007125670579291234 -0.005683993638855574 0.0008244353742852791 0.00910151385021974 0.9957176777114587 -0.04246313686718283 0.0035872250646350815 0.017545544404583512
0.08128386827845 0.003853511095147906 0.019109007245866692 0.9953646378700349 -0.0460832159350476 0.0009387620180573357 0.009863733806982142 -0.0008061822837861837 -0.006163882934099122
 0.9953646378700349 -0.0460832159350476 0.003853827091732563 0.01910896995042154 -0.0008068600035227607 -0.006163867223196561 0.0009348149865378588 0.009864197129782315
 0.0009387620180573357 0.009863733806982142 -0.0008068600035227607 -0.006163867223196561 0.003853155525221716 0.019110120461338254 0.9953646704455265 -0.04608213429009155
 -0.0008061822837861837 -0.006163882934099122 0.0009348149865378588 0.009864197129782315 0.9953646704455265 -0.04608213429009155 0.0038542487428582244 0.0191100290747641
0.08753647353064001 0.004133659799069591 0.02068770095633815 0.9949941194624496 -0.04971485747072225 0.0010571722760129834 0.010626641354251301 -0.0009060619947405417 -0.006644287515797762
 0.9949941194624496 -0.04971485747072225 0.004134025902097992 0.02068765880934444 -0.0009068456266589988 -0.006644263912698528 0.0010525920659013276 0.010627188741597026
 0.0010571722760129834 0.010626641354251301 -0.0009068456266589988 -0.006644263912698528 0.004133247159569145 0.02068890217843517 0.9949941568898961 -0.04971369313356317
 -0.0009060619947405417 -0.006644287515797762 0.0010525920659013276 0.010627188741597026 0.9949941568898961 -0.04971369313356317 0.004134514603809846 0.020688797543480658
0.09378907878283 0.0044272746182687445 0.02228047457612385 0.9946058680405753 -0.05335896442768952 0.0011830943548080334 0.01138975785089343 -0.0010122747233667333 -0.007125114154048105
 0.9946058680405753 -0.05335896442768952 0.004427694485914504 0.022280427363171183 -0.0010131716610294911 -0.007125081337633125 0.0011778333454032048 0.011390398886162341
 0.0011830943548080334 0.01138975785089343 -0.0010131716610294911 -0.007125081337633125 0.004426800669925113 0.02228176436784258 0.994605910646826 -0.053357717477659924
 -0.0010122747233667333 -0.007125114154048105 0.0011778333454032048 0.011390398886162341 0.994605910646826 -0.053357717477659924 0.004428255189858397 0.022281645321863656
0.100041684035 0.004734587219745411 0.023887127150681902 0.9941996575013295 -0.057015429747200114 0.0013165939022915256 0.012152990398199373 -0.0011248877261098567 -0.007606268140668075
 0.9941996575013295 -0.057015429747200114 0.004735064510902789 0.023887074672794377 -0.0011259053082602443 -0.007606224716569167 0.0013106043672443779 0.01215373522427649
 0.0013165939022915256 0.012152990398199373 -0.0011259053082602443 -0.007606224716569167 0.004734047725749606 0.023888506115414845 0.9941997056115965 -0.057014100270808825
 -0.0011248877261098567 -0.007606268140668075 0.0013106043672443779 0.01215373522427649 0.9941997056115965 -0.057014100270808825 0.004735702170201596 0.023888371438703385
0.1059090909091 0.0050356310492507645 0.025407245787213945 0.9938019373238046 -0.060457770487614464 0.0014488180703729839 0.012869223845919427 -0.0012364428138597844 -0.008057992098281981
 0.9938019373238046 -0.060457770487614464 0.005036165556289322 0.02540718820180066 -0.0012375802337843663 -0.008057937386620674 0.0014421013933414854 0.012870075797821042
 0.0014488180703729839 0.012869223845919427 -0.0012375802337843663 -0.008057937386620674 0.005035026196833969 0.025408709021980377 0.9938019908926466 -0.06045636364849522
 -0.0012364428138597844 -0.008057992098281981 0.0014421013933414854 0.012870075797821042 0.9938019908926466 -0.06045636364849522 0.005036879935960082 0.02540855851673854
0.1062942892872 0.005055828356347004 0.02550745983208405 0.9937752621508412 -0.0606841366071058 0.0014577353123861852 0.012916243657991327 -0.001243966935706308 -0.00808765319355057
 0.9937752621508412 -0.0606841366071058 0.005056366732523822 0.025507401906024314 -0.0012451124463273612 -0.008087597694193075 0.0014509694228333134 0.012917102983995895
 0.0014577353123861852 0.012916243657991327 -0.0012451124463273612 -0.008087597694193075 0.00505521908278752 0.025508928620313082 0.9937753160878735 -0.060682724691666676
 -0.001243966935706308 -0.00808765319355057 0.0014509694228333134 0.012917102983995895 0.9937753160878735 -0.060682724691666676 0.005057086301538559 0.025508777035424358
0.11254689453939999 0.005391227818135729 0.027141274803214897 0.9933324568127372 -0.06436495945730672 0.0016065816655428855 0.013679419939161762 -0.0013695769118171205 -0.008569171384133158
 0.9933324568127372 -0.06436495945730672 0.005391830945050047 0.027141211261803366 -0.001370857580080408 -0.008569102268783392 0.0015989914935157514 0.013680405047117936
 0.0016065816655428855 0.013679419939161762 -0.001370857580080408 -0.008569102268783392 0.005390544534386854 0.02714283410978015 0.9933325168973945 -0.0643634651941307
 -0.0013695769118171205 -0.008569171384133158 0.0015989914935157514 0.013680405047117936 0.9933325168973945 -0.0643634651941307 0.0053926373792577125 0.027142664280811264
0.11879949979160001 0.005741014376915483 0.028788374432826776 0.9928710169334117 -0.06805776482781156 0.0017631946696206931 0.014442419266528771 -0.001501780790308127 -0.009050723085533246
 0.9928710169334117 -0.06805776482781156 0.005741685926273543 0.028788305125140776 -0.0015032037904801447 -0.009050638740354859 0.001754732191725817 0.0144435420180185
 0.0017631946696206931 0.014442419266528771 -0.0015032037904801447 -0.009050638740354859 0.00574025285646578 0.028790024995859365 0.9928710834844056 -0.06805618831350693
 -0.001501780790308127 -0.009050723085533246 0.001754732191725817 0.0144435420180185 0.9928710834844056 -0.06805618831350693 0.005742584182346794 0.02878983552778092
0.1250521050438 0.006105415725726808 0.030448560603837133 0.9923907186830131 -0.07176241196650124 0.001927634600905947 0.015205139438445302 -0.0016406402314965219 -0.009532206934854522
 0.9923907186830131 -0.07176241196650124 0.006106159377088944 0.03044848539543071 -0.001642212682758498 -0.009532105672976006 0.0019182517023999335 0.015206412281249629
 0.001927634600905947 0.015205139438445302 -0.001642212682758498 -0.009532105672976006 0.006104571746420886 0.03045030320950434 0.9923907920166264 -0.07176075329864406
 -0.0016406402314965219 -0.009532206934854522 0.0019182517023999335 0.015206412281249629 0.9923907920166264 -0.07176075329864406 0.006107154412578597 0.030450092647278007
0.131304710296 0.006484658413356337 0.032121634182925816 0.9918913390546351 -0.07547875333906305 0.0020999602456833726 0.015967476076263396 -0.0017862153672056494 -0.010013519806659496
 0.9918913390546351 -0.07547875333906305 0.006485477855743584 0.032121552955996696 -0.0017879443334375047 -0.010013399868251168 0.0020896087246166936 0.015968912051003252
 0.0020999602456833726 0.015967476076263396 -0.0017879443334375047 -0.010013399868251168 0.006483727757774587 0.032123469662408186 0.9918914194847358 -0.07547701261959706
 -0.0017862153672056494 -0.010013519806659496 0.0020896087246166936 0.015968912051003252 0.9918914194847358 -0.07547701261959706 0.006486574628733619 0.03212323649025617
0.1375573155481 0.006787181777568002 0.03358718194772711 0.9914644686598942 -0.07898634830313511 0.002257123998826865 0.016706250160720325 -0.001915471575846659 -0.010471485986571006
 0.9914644686598942 -0.07898634830313511 0.006788082344004181 0.033587098774712276 -0.0019173674923286402 -0.010471347440149537 0.0022457781940226624 0.016707846137980056
 0.002257123998826865 0.016706250160720325 -0.0019173674923286402 -0.010471347440149537 0.006786160784113158 0.03358911115651073 0.9914645565041391 -0.07898452563779439
 -0.001915471575846659 -0.010471485986571006 0.0022457781940226624 0.016707846137980056 0.9914645565041391 -0.07898452563779439 0.006789285255224048 0.033588858029682464
0.1438099208003 0.007100163074076907 0.035045758544698484 0.99102291241237 -0.0824858465761537 0.002420650272252905 0.0174426068236757 -0.002049925223326235 -0.010927252632420784
 0.99102291241237 -0.0824858465761537 0.007101148746130622 0.035045673625018814 -0.002051995682147489 -0.010927093768315192 0.0024082659406753472 0.01744437464966516
 0.002420650272252905 0.0174426068236757 -0.002051995682147489 -0.010927093768315192 0.007099047633811305 0.035047782349457705 0.991023007981338 -0.08248394207501855
 -0.002049925223326235 -0.010927252632420784 0.0024082659406753472 0.01744437464966516 0.991023007981338 -0.08248394207501855 0.007102462654977583 0.03504750803015273
0.1500625260525 0.007423502260785835 0.0364972652866849 0.9905667737129902 -0.08597718533306464 0.0025904897593184628 0.018176489113984316 -0.00218952846134271 -0.011380765284872123
 0.9905667737129902 -0.08597718533306464 0.00742457704511296 0.036497178819249375 -0.0021917810423447287 -0.011380584325068442 0.0025770228364157257 0.01817844107372582
 0.0025904897593184628 0.018176489113984316 -0.0021917810423447287 -0.011380584325068442 0.007422288276202519 0.03649938459137535 0.990566877314777 -0.0859751991084868
 -0.00218952846134271 -0.011380765284872123 0.0025770228364157257 0.01817844107372582 0.990566877314777 -0.0859751991084868 0.007426006805654527 0.03649908778371301
0.15631513130469998 0.007757098700899148 0.037941606595705016 0.9900961563625971 -0.08946030150790842 0.002766592645782139 0.018907840909930897 -0.0023342329188413627 -0.011831970558181987
