! Created with skrf 1.8.0 (http://scikit-rf.org).
# GHz S RI R 50.0 
!freq ReS11 ImS11 ReS12 ImS12 ReS13 ImS13
! ReS14 ImS14
! ReS21 ImS21 ReS22 ImS22 ReS23 ImS23
! ReS24 ImS24
! ReS31 ImS31 ReS32 ImS32 ReS33 ImS33
! ReS34 ImS34
! ReS41 ImS41 ReS42 ImS42 ReS43 ImS43
! ReS44 ImS44
!
0.0 0.001471992501386 0.0 0.9985280074759 0.0 5.67329520854e-05 0.0 -5.673295150773e-05 6.947782747012355e-21
 0.9985280074759 0.0 0.001471992501403 0.0 -5.67329515081e-05 6.947782747057667e-21 5.673295208508e-05 0.0
 5.67329520854e-05 0.0 -5.67329515081e-05 6.947782747057667e-21 0.001471992512758 0.0 0.9985280074872 0.0
 -5.673295150773e-05 6.947782747012355e-21 5.673295208508e-05 0.0 0.9985280074872 0.0 0.001471992512758 0.0
0.005 0.0015835697520209398 0.001203000963531152 0.9983868914949203 -0.0030837133747676584 7.951013588678502e-05 0.0006335295806760423 -7.725501109959678e-05 -0.00039620762730686773
 0.9983868914949203 -0.0030837133747676584 0.00158355589153889 0.0012030090709091116 -7.725533240614406e-05 -0.00039620793168514183 7.960237332666013e-05 0.0006334946308403091
 7.951013588678502e-05 0.0006335295806760423 -7.725533240614406e-05 -0.00039620793168514183 0.001583568956108797 0.0012029342120604583 0.9983868911510692 -0.003083780441368404
 -7.725501109959678e-05 -0.00039620762730686773 7.960237332666013e-05 0.0006334946308403091 0.9983868911510692 -0.003083780441368404 0.0015835560062564804 0.0012029416951574734
0.006252605252188 0.001612777151587798 0.0015084979617292918 0.9983497317573811 -0.0038554057321767664 8.596486922641579e-05 0.0007922200007783786 -8.302192320412035e-05 -0.0004957771367254903
 0.9983497317573811 -0.0038554057321767664 0.001612755484629823 0.0015085082194398163 -8.302242273617669e-05 -0.000495777513280475 8.610898411514491e-05 0.0007921746037576936
 8.596486922641579e-05 0.0007922200007783786 -8.302242273617669e-05 -0.000495777513280475 0.0016127759640949479 0.0015084145398166395 0.9983497312769647 -0.0038554895566733902
 -8.302192320412035e-05 -0.0004957771367254903 8.610898411514491e-05 0.0007921746037576936 0.9983497312769647 -0.0038554895566733902 0.0016127557213909812 0.001508424005637952
0.01250521050438 0.0017662051959507997 0.003048731943994019 0.9981533050690429 -0.007711681838294496 0.00012270466159468578 0.001584809525230849 -0.00011559646822658937 -0.0009940032263899394
 0.9981533050690429 -0.007711681838294496 0.0017661186725345605 0.0030487536958793905 -0.00011559843129069442 -0.0009940039372679942 0.00012327942908212 0.0015847003577417228
 0.00012270466159468578 0.001584809525230849 -0.00011559843129069442 -0.0009940039372679942 0.0017662010259699304 0.003048565454146186 0.998153303726859 -0.00771184924406543
 -0.00011559646822658937 -0.0009940032263899394 0.00012327942908212 0.0015847003577417228 0.998153303726859 -0.00771184924406543 0.0017661202041952474 0.003048585497426493
0.01875781575657 0.0019325999563510185 0.004611020565366808 0.997938491492146 -0.011578227561858879 0.00016703669357061692 0.002378318039993376 -0.0001545545730419596 -0.0014939570355580948
 0.997938491492146 -0.011578227561858879 0.0019324055225163935 0.0046110551325897016 -0.00015455894308720518 -0.0014939580327006895 0.00016832801364891756 0.0023781232876141406
 0.00016703669357061692 0.002378318039993376 -0.00015455894308720518 -0.0014939580327006895 0.0019325909943294186 0.004610771243230468 0.9979384888918569 -0.011578478487733994
 -0.0001545545730419596 -0.0014939570355580948 0.00016832801364891756 0.0023781232876141406 0.9979384888918569 -0.011578478487733994 0.0019324094008481855 0.004610803029872312
0.02501042100875 0.0021122758407621065 0.006193186747171204 0.9977050460856536 -0.015456928545432187 0.0002190459877322515 0.0031727903122611856 -0.00019999121341079728 -0.001995416847709288
 0.9977050460856536 -0.015456928545432187 0.0021119305207409223 0.006193235518387074 -0.000199998920125469 -0.001995418076113556 0.00022133997414772926 0.003172484836568277
 0.0002190459877322515 0.0031727903122611856 -0.000199998920125469 -0.001995418076113556 0.0021122602861327285 0.006192854857727147 0.9977050418395295 -0.015457262964398609
 -0.00019999121341079728 -0.001995416847709288 0.00022133997414772926 0.003172484836568277 0.9977050418395295 -0.015457262964398609 0.0021119378178476203 0.006192899591483647
0.03126302626094 0.002305534238261229 0.007794115880918098 0.9974527110132744 -0.01934859862386239 0.0002788179421494748 0.003968197327060584 -0.00025199879778284 -0.0024982296255120886
 0.9974527110132744 -0.01934859862386239 0.0023049951102123907 0.0077941803083319255 -0.0002520107594937549 -0.0024982310231460533 0.0002824011883858691 0.003967752644381647
 0.0002788179421494748 0.003968197327060584 -0.0002520107594937549 -0.0024982310231460533 0.0023055102846805658 0.007793701716448501 0.9974527047266801 -0.01934901654552689
 -0.00025199879778284 -0.0024982296255120886 0.0002824011883858691 0.003967752644381647 0.9974527047266801 -0.01934901654552689 0.00230500690403061 0.007793760634669663
0.037515631513130004 0.0025126701060229173 0.00941308556452568 0.9971812223253677 -0.023253650027578624 0.00034643758741294896 0.004764481063181836 -0.0003106678505278303 -0.0030022662409826804
 0.9971812223253677 -0.023253650027578624 0.0025118942852319515 0.00941316716178907 -0.0003106849753528203 -0.00300226773879344 0.0003515972881593415 0.004763865309146937
 0.00034643758741294896 0.004764481063181836 -0.0003106849753528203 -0.00300226773879344 0.0025126359488415032 0.009412589456478606 0.9971812136036324 -0.02325415148670255
 -0.0003106678505278303 -0.0030022662409826804 0.0003515972881593415 0.004763865309146937 0.9971812136036324 -0.02325415148670255 0.0025119116680267883 0.009412663827504454
0.043768236765320004 0.0027339745250371094 0.011049561642168497 0.9968903127072782 -0.02717229727453276 0.0004219892377185506 0.005561568102694888 -0.0003760872579284951 -0.0035074078656162533
 0.9968903127072782 -0.02717229727453276 0.0027329191507920467 0.011049661982909485 -0.0003761104446518715 -0.003507409387558786 0.0004290132485711165 0.005560745992418706
 0.0004219892377185506 0.005561568102694888 -0.0003761104446518715 -0.003507409387558786 0.002733928357563187 0.011048983968649874 0.996890301150406 -0.02717288232410929
 -0.0003760872579284951 -0.0035074078656162533 0.0004290132485711165 0.005560745992418706 0.996890301150406 -0.02717288232410929 0.002732943224599534 0.011049075089919955
0.050020842017509996 0.002969735887452977 0.012703113908556904 0.996579712861434 -0.031104641395945126 0.0005055562789630706 0.00635937525608916 -0.0004483443610950876 -0.004013540344786409
 0.996579712861434 -0.031104641395945126 0.0029683581110203647 0.01270323462550971 -0.0004483744996197877 -0.00401354180787838 0.0005147331432633222 0.006358308042478022
 0.0005055562789630706 0.00635937525608916 -0.0004483744996197877 -0.00401354180787838 0.002969675904869979 0.012702455089506742 0.9965796980667947 -0.031105310112414495
 -0.0004483443610950876 -0.004013540344786409 0.0005147331432633222 0.006358308042478022 0.9965796980667947 -0.031105310112414495 0.0029683899920699064 0.012702564286139636
0.055454545454549996 0.0031865828764994497 0.014153682255565892 0.9962935912706903 -0.0345331148873959 0.0005847520001970939 0.007053208756862789 -0.0005167577081753152 -0.00445410231366783
 0.9962935912706903 -0.0345331148873959 0.0031848901257483663 0.014153822051405422 -0.0005167946041547848 -0.00445410365286724 0.0005960346318384902 0.007051894352719282
 0.0005847520001970939 0.007053208756862789 -0.0005167946041547848 -0.00445410365286724 0.003186509423139382 0.014152953296417624 0.9962935733319422 -0.034533856389299754
 -0.0005167577081753152 -0.00445410231366783 0.0005960346318384902 0.007051894352719282 0.9962935733319422 -0.034533856389299754 0.003184929708010283 0.014153079297823909
0.056273447269699996 0.0032202405111366544 0.014373374732228519 0.99624915231919 -0.035050711243946014 0.0005972210178464968 0.007157812320921065 -0.0005275249791688167 -0.004520551440428861
 0.99624915231919 -0.035050711243946014 0.0032184974851796637 0.014373517516521326 -0.000527562950933039 -0.004520552754793251 0.0006088399741754673 0.007156457752123667
 0.0005972210178464968 0.007157812320921065 -0.000527562950933039 -0.004520552754793251 0.0032201649094292075 0.014372635236969614 0.9962491338795473 -0.03505146372014675
 -0.0005275249791688167 -0.004520551440428861 0.0006088399741754673 0.007156457752123667 0.9962491338795473 -0.03505146372014675 0.0032185383024400005 0.014372763860552818
0.06252605252188 0.0034857729709992435 0.016060016312763683 0.9958983599729108 -0.039010486167095924 0.0006970645609370207 0.007956783595507213 -0.0006137133979823462 -0.005028329321306715
 0.9958983599729108 -0.039010486167095924 0.0034836218387893397 0.016060182913733408 -0.0006137600762223613 -0.0050283303902219495 0.0007114155371283138 0.007955095872006825
 0.0006970645609370207 0.007956783595507213 -0.0006137600762223613 -0.0050283303902219495 0.0034856799476653 0.01605919665453088 0.9958983374755884 -0.03901132251819539
 -0.0006137133979823462 -0.005028329321306715 0.0007114155371283138 0.007955095872006825 0.9958983374755884 -0.03901132251819539 0.0034836727347108895 0.016059346082335484
0.06877865777407 0.0037666162768271593 0.017762737111533027 0.9955270644579826 -0.042983909515550915 0.0008051667102378973 0.008756188785301475 -0.0007069923380973367 -0.00553676166370864
 0.9955270644579826 -0.042983909515550915 0.0037640141627272145 0.01776292933656848 -0.0007070485881219657 -0.005536762383662925 0.0008225403086540042 0.0087541185168807
 0.0008051667102378973 0.008756188785301475 -0.0007070485881219657 -0.005536762383662925 0.0037665040321399803 0.017761837857276353 0.9955270374845786 -0.04298482986957756
 -0.0007069923380973367 -0.00553676166370864 0.0008225403086540042 0.0087541185168807 0.9955270374845786 -0.04298482986957756 0.003764076293913299 0.017762009491720555
0.07503126302626001 0.00406305196074315 0.019481253254760213 0.9951349944471279 -0.046970897176932085 0.0009216058685743946 0.00955592358026705 -0.0008074429107571369 -0.0060457350845666636
 0.9951349944471279 -0.046970897176932085 0.004059955959884587 0.019481472969712203 -0.0008075095900894145 -0.00604573534530659 0.0009422933441460431 0.009553417743056417
 0.0009216058685743946 0.00955592358026705 -0.0008075095900894145 -0.00604573534530659 0.004062918698569326 0.019480275017350963 0.9951349625731827 -0.046971901683058585
 -0.0008074429107571369 -0.0060457350845666636 0.0009422933441460431 0.009553417743056417 0.9951349625731827 -0.046971901683058585 0.004060030497981999 0.019480470285756373
0.08128386827845 0.00437536010818731 0.021215292819284127 0.9947218788916689 -0.05097134323351814 0.0010464589508761529 0.010355880038986295 -0.0009151445653234147 -0.0065551347714739435
 0.9947218788916689 -0.05097134323351814 0.004371727276531455 0.02121554194899545 -0.0009152225238665644 -0.006555134456054939 0.0010707521840138529 0.010352881932691767
 0.0010464589508761529 0.010355880038986295 -0.0009152225238665644 -0.006555134456054939 0.004375204036042939 0.021214236261983127 0.9947218416851036 -0.05097243205786435
 -0.0009151445653234147 -0.0065551347714739435 0.0010707521840138529 0.010352881932691767 0.9947218416851036 -0.05097243205786435 0.004371815407866644 0.0212144566166249
0.08753647353064001 0.00470381934948197 0.02296459186606449 0.9942874472272837 -0.054985123875545716 0.001179801298830572 0.01115594685952933 -0.0010301750315367285 -0.00706484422977187
 0.9942874472272837 -0.054985123875545716 0.004699606694362902 0.02296487239526079 -0.0010302651116981469 -0.007064843214609668 0.0012079927640393996 0.01115239606493396
 0.001179801298830572 0.01115594685952933 -0.0010302651116981469 -0.007064843214609668 0.004703638680188511 0.02296345770262847 0.9942874042490772 -0.05498629720147964
 -0.0010301750315367285 -0.00706484422977187 0.0012079927640393996 0.01115239606493396 0.9942874042490772 -0.05498629720147964 0.00469970962139565 0.022963704621074294
0.09378907878283 0.005048706827473367 0.024728891618611946 0.9938314295583066 -0.05901210017405114 0.0013217065985819119 0.011956009576191123 -0.0011526102571156702 -0.007574745107713373
 0.9938314295583066 -0.05901210017405114 0.005043871297333636 0.024729205593052483 -0.0011527132939420143 -0.007574743262631204 0.001354089329362667 0.01195184191299081
 0.0013217065985819119 0.011956009576191123 -0.0011527132939420143 -0.007574743262631204 0.005048499779866848 0.024727680613112004 0.9938313803606539 -0.05901335820258188
 -0.0011526102571156702 -0.007574745107713373 0.001354089329362667 0.01195184191299081 0.9938313803606539 -0.05901335820258188 0.005043990238770399 0.024727955598892938
0.100041684035 0.005410298144331125 0.02650793638762529 0.9933535568239843 -0.06305212011174886 0.001472246799422816 0.01275595070951873 -0.0012825243428104096 -0.008084717072450055
 0.9933535568239843 -0.06305212011174886 0.00540479661908636 0.02650828591566883 -0.0012826411640654005 -0.008084714260727047 0.0015091143502386614 0.012751098194623566
 0.001472246799422816 0.01275595070951873 -0.0012826411640654005 -0.008084714260727047 0.005410062944254365 0.026506649354851572 0.9933535009507751 -0.06305346306149102
 -0.0012825243428104096 -0.008084717072450055 0.0015091143502386614 0.012751098194623566 0.9933535009507751 -0.06305346306149102 0.005404932810701772 0.026506953938455837
0.1059090909091 0.005765049296636127 0.028190565225611496 0.992885008200939 -0.06685496779597445 0.0016214286561605602 0.013506392848487593 -0.0014113012024060195 -0.008563227318968712
 0.992885008200939 -0.06685496779597445 0.00575888351854746 0.02819095009178337 -0.0014114317053282152 -0.008563223470023017 0.0016627721476139602 0.013500832419289514
 0.0016214286561605602 0.013506392848487593 -0.0014114317053282152 -0.008563223470023017 0.005764786071540911 0.028189207636447354 0.992884945639676 -0.06685639064897729
 -0.0014113012024060195 -0.008563227318968712 0.0016627721476139602 0.013500832419289514 0.992884945639676 -0.06685639064897729 0.005759037036755952 0.028189541411577847
0.1062942892872 0.0057888672959101285 0.02830147201400057 0.9928535609562258 -0.06710502010059546 0.00163149203408966 0.013555649883516659 -0.0014199894746683586 -0.00859463772302392
 0.9928535609562258 -0.06710502010059546 0.005782656576890889 0.028301859268370973 -0.0014201209009190188 -0.008594633801445256 0.0016731384395151773 0.013550040689771788
 0.00163149203408966 0.013555649883516659 -0.0014201209009190188 -0.008594633801445256 0.005788602176616417 0.02830010982195983 0.9928534979413765 -0.06710644820540632
 -0.0014199894746683586 -0.00859463772302392 0.0016731384395151773 0.013550040689771788 0.9928534979413765 -0.06710644820540632 0.005782811271598443 0.028300445562108673
0.11254689453939999 0.006184686594678113 0.03010924467948207 0.9923311750282093 -0.07117062613620591 0.001799510539194231 0.014354983919305583 -0.0015650758549313455 -0.009104382531325408
 0.9923311750282093 -0.07117062613620591 0.006177723394472517 0.030109671899452975 -0.0015652226996419822 -0.009104377350230054 0.0018462302707584 0.014348542334731538
 0.001799510539194231 0.014354983919305583 -0.0015652226996419822 -0.009104377350230054 0.006184389798472247 0.03010780824513114 0.9923311043956493 -0.0711721396496795
 -0.0015650758549313455 -0.009104382531325408 0.0018462302707584 0.014348542334731538 0.9923311043956493 -0.0711721396496795 0.006177897863355116 0.030108176730459017
0.11879949979160001 0.0065980265846328975 0.03193099997877455 0.9917861333974441 -0.07524875469619645 0.001976368576728856 0.015153826916550437 -0.0017178516310594623 -0.009613824799540718
 0.9917861333974441 -0.07524875469619645 0.006590267517123564 0.03193146947266126 -0.0017180147006302497 -0.009613818202864537 0.0020284564974536747 0.015146473304187794
 0.001976368576728856 0.015153826916550437 -0.0017180147006302497 -0.009613818202864537 0.0065976963633846445 0.031929490270839314 0.9917860546603502 -0.07525035388896473
 -0.0017178516310594623 -0.009613824799540718 0.0020284564974536747 0.015146473304187794 0.9917860546603502 -0.07525035388896473 0.006590463049838968 0.03192989312183017
0.1250521050438 0.0070291559497658 0.033766482182050785 0.9912181718456166 -0.07933921345303768 0.002162130355501609 0.015952050321032304 -0.0018783828237927166 -0.01012283563616697
 0.9912181718456166 -0.07933921345303768 0.007020557519701893 0.033766996330067425 -0.0018785629176263962 -0.010122827461495402 0.0022198816725973337 0.015943701079331875
 0.002162130355501609 0.015952050321032304 -0.0018785629176263962 -0.010122827461495402 0.007028790565981693 0.0337649002245058 0.9912180845054491 -0.07934089860944833
 -0.0018783828237927166 -0.01012283563616697 0.0022198816725973337 0.015943701079331875 0.9912180845054491 -0.07934089860944833 0.0070207754249685195 0.03376533909586349
0.131304710296 0.007478341416564809 0.03561543366003376 0.9906270277150516 -0.08344180182994612 0.00235685795300002 0.016749522988760094 -0.0020467332543154734 -0.010631283939951422
 0.9906270277150516 -0.08344180182994612 0.0074688600095054606 0.03561599491752409 -0.0020469311649202503 -0.010631274018555709 0.0024205681685795562 0.016740090512692336
 0.00235685795300002 0.016749522988760094 -0.0020469311649202503 -0.010631274018555709 0.007477939144615841 0.03561378052740541 0.9906269312613781 -0.0834435732528133
 -0.0020467332543154734 -0.010631283939951422 0.0024205681685795562 0.016740090512692336 0.9906269312613781 -0.0834435732528133 0.007469101615819386 0.03561425711076573
0.1375573155481 0.007841322002004823 0.03723610962704144 0.9901170050014833 -0.08731471878440039 0.0025352393468338333 0.017521621672135054 -0.0021975184409915504 -0.011114614315784942
 0.9901170050014833 -0.08731471878440039 0.007830911024518 0.03723670955357138 -0.002197735507549322 -0.011114602651429776 0.0026050506779914375 0.017511121725142728
 0.0025352393468338333 0.017521621672135054 -0.002197735507549322 -0.011114602651429776 0.007840881872838094 0.03723438594929899 0.9901168990143544 -0.08731657665238003
 -0.0021975184409915504 -0.011114614315784942 0.0026050506779914375 0.017511121725142728 0.9901168990143544 -0.08731657665238003 0.007831176744212074 0.03723489173357053
0.1438099208003 0.008217025950603835 0.03884851744750866 0.9895891480603779 -0.09117809716430504 0.0027208174193839047 0.018290824748751697 -0.0023543439469174026 -0.011595250146874398
 0.9895891480603779 -0.09117809716430504 0.008205641179029164 0.03884915794486914 -0.0023545810501330445 -0.011595236570833537 0.0027969980767154194 0.018279177486829074
 0.0027208174193839047 0.018290824748751697 -0.0023545810501330445 -0.011595236570833537 0.00821654639166721 0.038846724303676125 0.9895890320302205 -0.09118004177324476
 -0.0023543439469174026 -0.011595250146874398 0.0027969980767154194 0.018279177486829074 0.9895890320302205 -0.09118004177324476 0.008205932203475643 0.03884726048004574
0.1500625260525 0.008605325148811602 0.04045253042104888 0.989043588952103 -0.09503184935803398 0.0029135302649438534 0.019057061271989126 -0.002517148742826191 -0.01207312248230459
 0.989043588952103 -0.09503184935803398 0.008592922230754542 0.04045321352342651 -0.0025174067633528564 -0.012073106818918908 0.002996346963613375 0.01904418394012301
 0.0029135302649438534 0.019057061271989126 -0.0025174067633528564 -0.012073106818918908 0.008604804607673332 0.04045066893062848 0.9890434623592155 -0.09503388101654467
 -0.002517148742826191 -0.01207312248230459 0.002996346963613375 0.01904418394012301 0.9890434623592155 -0.09503388101654467 0.008593239759667037 0.04045123679590883
0.15631513130469998 0.009006090621120217 0.042048025705870774 0.9884804603588498 -0.09887588789405802 0.00311331527399981 0.019820261462563066 -0.0026858710713369613 -0.012548163795057415
 0.9884804603588498 -0.09887588789405802 0.008992625071532579 0.04204875358478238 -0.00268615088961641 -0.012548145861746747 0.0032030332129589878 0.019806068423478127
