! Created with skrf 1.8.0 (http://scikit-rf.org).
# GHz S RI R 50.0 
!freq ReS11 ImS11 ReS12 ImS12 ReS13 ImS13
! ReS14 ImS14
! ReS21 ImS21 ReS22 ImS22 ReS23 ImS23
! ReS24 ImS24
! ReS31 ImS31 ReS32 ImS32 ReS33 ImS33
! ReS34 ImS34
! ReS41 ImS41 ReS42 ImS42 ReS43 ImS43
! ReS44 ImS44
!
0.0 0.001393684224846 0.0 0.9986063157751 0.0 5.337882834556e-05 0.0 -5.337882878906e-05 6.537021181875692e-21
 0.9986063157751 0.0 0.001393684224851 0.0 -5.337882878987e-05 6.5370211819748886e-21 5.337882834516e-05 0.0
 5.337882834556e-05 0.0 -5.337882878987e-05 6.5370211819748886e-21 0.001393684219178 0.0 0.9986063157694 0.0
 -5.337882878906e-05 6.537021181875692e-21 5.337882834516e-05 0.0 0.9986063157694 0.0 0.001393684219138 0.0
0.005 0.0014990682391595811 0.001142791744012592 0.9984730718533064 -0.002919771116724229 7.415396249062609e-05 0.0005738952611824075 -7.217992053775617e-05 -0.0003627746313878462
 0.9984730718533064 -0.002919771116724229 0.0014990670585793636 0.0011427923792948628 -7.218074665864345e-05 -0.00036277519558272663 7.417731483000235e-05 0.0005738866467128672
 7.415396249062609e-05 0.0005738952611824075 -7.218074665864345e-05 -0.00036277519558272663 0.0014990685264481805 0.0011428587822098213 0.9984730722021934 -0.0029197040603373397
 -7.217992053775617e-05 -0.0003627746313878462 7.417731483000235e-05 0.0005738866467128672 0.9984730722021934 -0.0029197040603373397 0.001499067462997213 0.0011428594480234334
0.006252605252188 0.0015265903697442124 0.0014329906925546673 0.9984380761707915 -0.0036504453222624828 8.001111803504341e-05 0.0007176619213832875 -7.743078620230344e-05 -0.00045394076510627305
 0.9984380761707915 -0.0036504453222624828 0.0015265885240298787 0.001432991420899122 -7.743207227509737e-05 -0.0004539414594102405 8.004760745732969e-05 0.0007176506961759383
 8.001111803504341e-05 0.0007176619213832875 -7.743207227509737e-05 -0.0004539414594102405 0.0015265907399879856 0.0014330744791673253 0.998438076637142 -0.0036503615038832745
 -7.743078620230344e-05 -0.00045394076510627305 8.004760745732969e-05 0.0007176506961759383 0.998438076637142 -0.0036503615038832745 0.0015265890766085238 0.0014330752580715565
0.01250521050438 0.0016707920502636324 0.002896086928579772 0.998253611718284 -0.007301795880793719 0.00011318836478805968 0.0014357757628768013 -0.00010691546929530016 -0.0009101422633429928
 0.998253611718284 -0.007301795880793719 0.0016707846833094709 0.0028960877064426573 -0.00010692054474157033 -0.0009101435320867466 0.00011333398300457243 0.0014357484433399192
 0.00011318836478805968 0.0014357757628768013 -0.00010692054474157033 -0.0009101435320867466 0.0016707929722032282 0.0028962541623664415 0.9982536130187865 -0.0073016284732139395
 -0.00010691546929530016 -0.0009101422633429928 0.00011333398300457243 0.0014357484433399192 0.9982536130187865 -0.0073016284732139395 0.001670786317723969 0.002896255167490923
0.01875781575657 0.0018265798594998526 0.004380140817447733 0.9980527103338236 -0.010962960883413524 0.0001529845782481275 0.002154822521247696 -0.00014191822325349774 -0.0013679826432555526
 0.9980527103338236 -0.010962960883413524 0.001826563315016445 0.004380140909897289 -0.00014192955177808235 -0.0013679843430828209 0.00015331194498957856 0.0021547734113957755
 0.0001529845782481275 0.002154822521247696 -0.00014192955177808235 -0.0013679843430828209 0.0018265815196080034 0.004380391264740614 0.9980527128359096 -0.010962709959804152
 -0.00014191822325349774 -0.0013679826432555526 0.00015331194498957856 0.0021547734113957755 0.9980527128359096 -0.010962709959804152 0.0018265665457525265 0.00438039189311644
0.02501042100875 0.0019942371288623564 0.005883106421566755 0.9978351522410639 -0.01463573970710073 0.00019947455197795 0.002874845172247511 -0.00018252211099026238 -0.0018272738583847918
 0.9978351522410639 -0.01463573970710073 0.0019942077609161023 0.0058831050308840805 -0.00018254213039206078 -0.0018272758201367098 0.000200056466273791 0.0028747677662202746
 0.00019947455197795 0.002874845172247511 -0.00018254213039206078 -0.0018272758201367098 0.001994239719424318 0.00588343985101502 0.9978351563145174 -0.014635405287371697
 -0.00018252211099026238 -0.0018272738583847918 0.000200056466273791 0.0028747677662202746 0.9978351563145174 -0.014635405287371697 0.0019942130900205335 0.005883439443733941
0.03126302626094 0.0021740353849082285 0.007403943712380185 0.9976007056005533 -0.01832091790654019 0.0002527335791375825 0.0035958227620387405 -0.00022880816580202702 -0.002287887592815307
 0.9976007056005533 -0.01832091790654019 0.0021739895527241324 0.007403939975677229 -0.0002288392924570489 -0.0022878896211714077 0.0002536430820355124 0.0035957097354698134
 0.0002527335791375825 0.0035958227620387405 -0.0002288392924570489 -0.0022878896211714077 0.0021740391020288814 0.0074043598646047135 0.9976007116167647 -0.018320499987314814
 -0.00022880816580202702 -0.002287887592815307 0.0002536430820355124 0.0035957097354698134 0.9976007116167647 -0.018320499987314814 0.0021739974690422217 0.007404357704728888
0.037515631513130004 0.0023662404534319863 0.008941984284506127 0.9973491327661163 -0.022018901442863354 0.000312836801772488 0.004317709258254908 -0.0002808559569819808 -0.0027497164056021215
 0.9973491327661163 -0.022018901442863354 0.002366174517489224 0.008941977272056477 -0.0002809005881442401 -0.0027497182789245236 0.0003141472058481063 0.004317552457247924
 0.000312836801772488 0.004317709258254908 -0.0002809005881442401 -0.0027497182789245236 0.0023662454966831303 0.008942482879748097 0.9973491410994254 -0.022018399989379267
 -0.0002808559569819808 -0.0027497164056021215 0.0003141472058481063 0.004317552457247924 0.9973491410994254 -0.022018399989379267 0.002366185496674467 0.008942478190981365
0.043768236765320004 0.0025711148244553362 0.010496738354521007 0.9970801928026756 -0.025729909620320728 0.00037985890085283147 0.0050404453636007755 -0.0003387438037053026 -0.0032126619101261215
 0.9970801928026756 -0.025729909620320728 0.0025710251426154813 0.01049672706844602 -0.00033880431874834614 -0.0032126633803690337 0.0003816438052062698 0.005040235792784334
 0.00037985890085283147 0.0050404453636007755 -0.00033880431874834614 -0.0032126633803690337 0.002571121395125913 0.010497319079955712 0.9970802038299922 -0.02572932457893717
 -0.0003387438037053026 -0.0032126619101261215 0.0003816438052062698 0.005040235792784334 0.9970802038299922 -0.02572932457893717 0.0025710396465116843 0.0104973110253717
0.050020842017509996 0.0027889187553145275 0.01206781497605024 0.9967936427447421 -0.029454054804971527 0.00045387391477324027 0.005763963396684906 -0.0004025488552467322 -0.003676629886419917
 0.9967936427447421 -0.029454054804971527 0.0027888016797246026 0.012067798349073402 -0.00040262761653724744 -0.0036766306790413593 0.0004562072124056282 0.0057636912069863435
 0.00045387391477324027 0.005763963396684906 -0.00040262761653724744 -0.0036766306790413593 0.0027889270563403587 0.012068477487683853 0.9967936568465564 -0.02945338610073797
 -0.0004025488552467322 -0.003676629886419917 0.0004562072124056282 0.0057636912069863435 0.9967936568465564 -0.02945338610073797 0.002788820156243971 0.012068465168836423
0.055454545454549996 0.0029888982316915837 0.013446125740954613 0.9965301308268208 -0.032701154507355126 0.000523931231186779 0.00639330041388846 -0.0004628619286975403 -0.004080590672485531
 0.9965301308268208 -0.032701154507355126 0.0029887543803123764 0.013446103551111336 -0.0004629584522057237 -0.004080590632651161 0.0005268013399857796 0.006392965135422188
 0.000523931231186779 0.00639330041388846 -0.0004629584522057237 -0.004080590632651161 0.0029889082020922637 0.013446859019849369 0.9965301479129396 -0.03270041302391499
 -0.0004628619286975403 -0.004080590672485531 0.0005268013399857796 0.006392965135422188 0.9965301479129396 -0.03270041302391499 0.0029887766622733094 0.013446842217086358
0.056273447269699996 0.003019910844683785 0.013654882894713415 0.9964892383276369 -0.03319138150322969 0.0005349551115368956 0.006488189679518749 -0.00047234711437343273 -0.004141527888261352
 0.9964892383276369 -0.03319138150322969 0.0030197627179632024 0.01365485978908612 -0.00047244646773810173 -0.004141527702167116 0.0005379109924754584 0.006487844155691181
 0.0005349551115368956 0.006488189679518749 -0.00047244646773810173 -0.004141527702167116 0.003019921079774989 0.013655626813397131 0.9964892558887554 -0.03319062904375016
 -0.00047234711437343273 -0.004141527888261352 0.0005379109924754584 0.006487844155691181 0.9964892558887554 -0.03319062904375016 0.0030197856010342446 0.013655609269374445
0.06252605252188 0.0032643483483700175 0.015257649017218223 0.9961667344640643 -0.03694188782789374 0.0006231748873546441 0.0072130458516519195 -0.000548213432267866 -0.004607263925526547
 0.9961667344640643 -0.03694188782789374 0.00326416550063766 0.015257618223784665 -0.0005483357073299765 -0.00460726243300954 0.0006268278384087814 0.007212615399756308
 0.0006231748873546441 0.0072130458516519195 -0.0005483357073299765 -0.00460726243300954 0.0032643607217638306 0.015258473927130884 0.996166755874471 -0.0369410515044034
 -0.000548213432267866 -0.004607263925526547 0.0006268278384087814 0.007212615399756308 0.996166755874471 -0.0369410515044034 0.0032641932102318283 0.01525845013380801
0.06877865777407 0.0035224873540584045 0.016875845571833758 0.995825885581582 -0.04070553827448696 0.0007186046808254846 0.007938449652442264 -0.000630221485714251 -0.0050737456806966945
 0.995825885581582 -0.04070553827448696 0.0035222660990641224 0.016875805809132245 -0.0006303689960713655 -0.005073742527385289 0.0007230294834588801 0.007937921787258762
 0.0007186046808254846 0.007938449652442264 -0.0006303689960713655 -0.005073742527385289 0.0035225020686204117 0.016876751022629623 0.9958259112363151 -0.04070461795954284
 -0.000630221485714251 -0.0050737456806966945 0.0007230294834588801 0.007937921787258762 0.9958259112363151 -0.04070461795954284 0.003522299039846634 0.016876719891901083
0.07503126302626001 0.0037945828722121366 0.018509221976559707 0.9954664458803182 -0.04448227179234802 0.0008213148957836726 0.008664315416693283 -0.0007184437441034848 -0.005540880014474106
 0.9954664458803182 -0.04448227179234802 0.0037943195043623145 0.01850917189001858 -0.000718618787433869 -0.00554087481928497 0.0008265866222308377 0.008663676749094695
 0.0008213148957836726 0.008664315416693283 -0.000718618787433869 -0.00554087481928497 0.003794600129603394 0.018510207483407586 0.9954664761805013 -0.04448126733950046
 -0.0007184437441034848 -0.005540880014474106 0.0008265866222308377 0.008663676749094695 0.9954664761805013 -0.04448126733950046 0.003794358066058661 0.0185101678626073
0.08128386827845 0.0040808888760986315 0.020157539416369483 0.9950881695414644 -0.04827200714932434 0.00093137482901336 0.00939055440516262 -0.0008129514299116719 -0.0060085726391592015
 0.9950881695414644 -0.04827200714932434 0.004080579666482761 0.020157477577663816 -0.0008131562879529617 -0.006008564994257971 0.0009375688373622372 0.00938979062950899
 0.00093137482901336 0.00939055440516262 -0.0008131562879529617 -0.006008564994257971 0.00408090887512223 0.020158604457110818 0.9950882048946981 -0.04827091839580452
 -0.0008129514299116719 -0.0060085726391592015 0.0009375688373622372 0.00938979062950899 0.9950882048946981 -0.04827091839580452 0.00408062422302068 0.020158555128449347
0.08753647353064001 0.004381658304935584 0.02182056709899136 0.9946908109025969 -0.05207464662083838 0.0010488526021266876 0.010117075036070925 -0.0009138144737052742 -0.0064767278938396115
 0.9946908109025969 -0.05207464662083838 0.0043812994981851155 0.02182049200534227 -0.0009140514122775157 -0.00647671736460343 0.001056044530240747 0.010116170917599688
 0.0010488526021266876 0.010117075036070925 -0.0009140514122775157 -0.00647671736460343 0.004381681241537683 0.021821711114521428 0.9946908517236708 -0.05207347338697832
 -0.0009138144737052742 -0.0064767278938396115 0.001056044530240747 0.010116170917599688 0.9946908517236708 -0.05207347338697832 0.004381350407674238 0.02182165079460754
0.09378907878283 0.004697143046675348 0.023498079577075635 0.9942741246147851 -0.055890078615675104 0.0011738150948504005 0.010843783049877015 -0.0010211014663545368 -0.006945248589165644
 0.9942741246147851 -0.055890078615675104 0.004696730857279979 0.023497989650754024 -0.0010213727352353637 -0.0069452347141434655 0.0011820808536829451 0.010842722412150688
 0.0011738150948504005 0.010843783049877015 -0.0010213727352353637 -0.0069452347141434655 0.004697169112241183 0.023499301973171616 0.994274171325984 -0.055888820702889815
 -0.0010211014663545368 -0.006945248589165644 0.0011820808536829451 0.010842722412150688 0.994274171325984 -0.055888820702889815 0.004696788461027591 0.02349922931263215
0.100041684035 0.005027593900614348 0.025189854782289915 0.9938378657824907 -0.0597181795931361 0.0013063278804041983 0.011570581636377997 -0.0011348796081637018 -0.007414035892845227
 0.9938378657824907 -0.0597181795931361 0.005027124509164915 0.025189748370224276 -0.0011351874409828528 -0.007414018183743259 0.0013157436462068678 0.011569347348773082
 0.0013063278804041983 0.011570581636377997 -0.0011351874409828528 -0.007414018183743259 0.00502762328139006 0.025191154927063215 0.9938379188142699 -0.05971683678642405
 -0.0011348796081637018 -0.007414035892845227 0.0013157436462068678 0.011569347348773082 0.9938379188142699 -0.05971683678642405 0.005027189131408694 0.02519106851021344
0.1059090909091 0.005351520905198701 0.026790182027616728 0.9934104644884456 -0.06332184935683406 0.001437601192039541 0.012252599004478821 -0.0012476105503194182 -0.007854095984914254
 0.9934104644884456 -0.06332184935683406 0.005350994328621777 0.02679005857446048 -0.0012479547114659032 -0.007854074209899824 0.0014481656281708835 0.012251185323811234
 0.001437601192039541 0.012252599004478821 -0.0012479547114659032 -0.007854074209899824 0.005351553561274726 0.026791554522262995 0.9934105238510968 -0.06332042667667308
 -0.0012476105503194182 -0.007854095984914254 0.0014481656281708835 0.012251185323811234 0.9934105238510968 -0.06332042667667308 0.005351065816613187 0.026791453849767555
0.1062942892872 0.005373260528808762 0.026895672546804073 0.9933817900948186 -0.06355881549626206 0.001446455161266118 0.012297371528632786 -0.0012552146561499262 -0.007882989251408939
 0.9933817900948186 -0.06355881549626206 0.005372730078400744 0.02689554792012409 -0.001255561270253295 -0.007882967193060217 0.001457097367570685 0.012295945493839016
 0.001446455161266118 0.012297371528632786 -0.001255561270253295 -0.007882967193060217 0.005373293405363585 0.026897049770748756 0.9933818498869061 -0.06355738756404641
 -0.0012552146561499262 -0.007882989251408939 0.001457097367570685 0.012295945493839016 0.9933818498869061 -0.06355738756404641 0.00537280202619574 0.026896948115375293
0.11254689453939999 0.005734391398090227 0.028615313472338737 0.9929056539503242 -0.06741184284112604 0.0015942597058179347 0.013024051081551993 -0.0013821708697045738 -0.008352006330447909
 0.9929056539503242 -0.06741184284112604 0.005733795990474558 0.028615168826223558 -0.0013825584659675658 -0.008351979380801906 0.001606205034680444 0.013022414223202435
 0.0015942597058179347 0.013024051081551993 -0.0013825584659675658 -0.008351979380801906 0.005734427943782673 0.02861676706779523 0.9929057209515824 -0.06741032953572859
 -0.0013821708697045738 -0.008352006330447909 0.001606205034680444 0.013022414223202435 0.9929057209515824 -0.06741032953572859 0.005733875552700074 0.028616648625022844
0.11879949979160001 0.00611123371337855 0.03034855804851583 0.9924092145753848 -0.07127710956057165 0.0017498027852725965 0.013750516335089258 -0.0015158109548996876 -0.008820982973581432
 0.9924092145753848 -0.07127710956057165 0.0061105694053276635 0.030348391501958588 -0.0015162417175563286 -0.008820950563688076 0.0017631281580269467 0.013748648585385168
 0.0017498027852725965 0.013750516335089258 -0.0015162417175563286 -0.008820950563688076 0.006111274093914955 0.03035008727155136 0.9924092892447364 -0.07127551061633969
 -0.0015158109548996876 -0.008820982973581432 0.0017631281580269467 0.013748648585385168 0.9924092892447364 -0.07127551061633969 0.00611065685245009 0.030349950425781223
0.1250521050438 0.006504033346208788 0.03209518595198872 0.9918922301395767 -0.07515445567091208 0.0019131441110448169 0.014476661068342766 -0.0016561960075964727 -0.009289813173787072
 0.9918922301395767 -0.07515445567091208 0.006503296145369216 0.032094995547767464 -0.0016566721040237311 -0.009289774707799691 0.0019279266785536034 0.014474541355842153
 0.0019131441110448169 0.014476661068342766 -0.0016566721040237311 -0.009289774707799691 0.006504077718510929 0.0320967900214224 0.9918923129470532 -0.07515277080524405
 -0.0016561960075964727 -0.009289813173787072 0.0019279266785536034 0.014474541355842153 0.9918923129470532 -0.07515277080524405 0.006503391728850248 0.03209663309036512
0.131304710296 0.006913034757288515 0.033854975491203684 0.9913544598688497 -0.07904371379724356 0.0020843417718334487 0.015202376846687972 -0.001803385455948559 -0.009758389055155971
 0.9913544598688497 -0.07904371379724356 0.006912220618498335 0.03385475919587418 -0.0018039090364187318 -0.009758343910333242 0.002100658904438918 0.015199983084136323
 0.0020843417718334487 0.015202376846687972 -0.0018039090364187318 -0.009758343910333242 0.006913083268447921 0.03385665358772154 0.9913545512955305 -0.07904194271147669
 -0.001803385455948559 -0.009758389055155971 0.002100658904438918 0.015199983084136323 0.9913545512955305 -0.07904194271147669 0.0069123245703535275 0.0338564748225265
0.1375573155481 0.007240991881139587 0.03539861416847538 0.9908931859741167 -0.08271553760109765 0.002240660495071215 0.015904406117982724 -0.0019346232658811404 -0.010203479489818203
 0.9908931859741167 -0.08271553760109765 0.0072400952656246674 0.03539837696219224 -0.0019351972932203118 -0.010203427644968857 0.0022585408624332137 0.015901743187974417
 0.002240660495071215 0.015904406117982724 -0.0019351972932203118 -0.010203427644968857 0.00724104386363173 0.035400366027982445 0.9908932864153023 -0.08271368011744071
 -0.0019346232658811404 -0.010203479489818203 0.0022585408624332137 0.015901743187974417 0.9908932864153023 -0.08271368011744071 0.007240208782000347 0.03540016977064658
0.1438099208003 0.007580372905040119 0.03693477083024829 0.9904159176864263 -0.08637869955319427 0.002403289510486 0.016603970647131795 -0.00207111821611565 -0.01064628719935754
 0.9904159176864263 -0.08637869955319427 0.00757938943336319 0.036934511340183454 -0.002071744962615023 -0.010646228050554832 0.0024228019904677907 0.016601018608688463
 0.002403289510486 0.016603970647131795 -0.002071744962615023 -0.010646228050554832 0.007580428344411698 0.03693659565016558 0.9904160276223437 -0.08637675537806191
 -0.00207111821611565 -0.01064628719935754 0.0024228019904677907 0.016601018608688463 0.9904160276223437 -0.08637675537806191 0.0075795128932999115 0.03693638071863656
0.1500625260525 0.007931067080763736 0.038463336075965894 0.9899227692846819 -0.09003312789716439 0.0025721776020954322 0.017301011802782755 -0.0022128201518471966 -0.011086755475482277
 0.9899227692846819 -0.09003312789716439 0.00792999230888631 0.03846305288596407 -0.0022135018833492497 -0.011086688394871995 0.0025933907161748227 0.01729774999340853
 0.0025721776020954322 0.017301011802782755 -0.0022135018833492497 -0.011086688394871995 0.007931125943440857 0.03846523302256651 0.9899228892049696 -0.09003109672623713
 -0.0022128201518471966 -0.011086755475482277 0.0025933907161748227 0.01729774999340853 0.9899228892049696 -0.09003109672623713 0.007930126083678685 0.03846499819585496
0.15631513130469998 0.008292962979486597 0.03998420389157276 0.9894138555120937 -0.09367875075587058 0.0027472730101964597 0.017995471866184498 -0.0023596783567357603 -0.011524828736927001
