! Created with skrf 1.8.0 (http://scikit-rf.org).
# GHz S RI R 50.0 
!freq ReS11 ImS11 ReS12 ImS12 ReS13 ImS13
! ReS14 ImS14
! ReS21 ImS21 ReS22 ImS22 ReS23 ImS23
! ReS24 ImS24
! ReS31 ImS31 ReS32 ImS32 ReS33 ImS33
! ReS34 ImS34
! ReS41 ImS41 ReS42 ImS42 ReS43 ImS43
! ReS44 ImS44
!
0.0 0.001821628628704 0.0 0.9981783713553 0.0 7.076911158703e-05 0.0 -7.076911124865e-05 8.666716556916217e-21
 0.9981783713553 0.0 0.001821628628674 0.0 -7.076911124767e-05 8.666716556796202e-21 7.076911158651e-05 0.0
 7.076911158703e-05 0.0 -7.076911124767e-05 8.666716556796202e-21 0.001821628634647 0.0 0.9981783713613 0.0
 -7.076911124865e-05 8.666716556916217e-21 7.076911158651e-05 0.0 0.9981783713613 0.0 0.001821628634671 0.0
0.005 0.001960853688507907 0.0014885712056995635 0.9980020469319715 -0.0038149012257543908 9.99429689529057e-05 0.0007844163142827224 -9.684182120808693e-05 -0.0004913931314709288
 0.9980020469319715 -0.0038149012257543908 0.001960899222612596 0.0014885445626764112 -9.683908815294787e-05 -0.0004913910012649237 9.966248726044488e-05 0.0007845231319711193
 9.99429689529057e-05 0.0007844163142827224 -9.683908815294787e-05 -0.0004913910012649237 0.0019608556482674476 0.0014886373053718902 0.9980020473245383 -0.0038148341582657903
 -9.684182120808693e-05 -0.0004913931314709288 9.966248726044488e-05 0.0007845231319711193 0.9980020473245383 -0.0038148341582657903 0.0019608980393501082 0.0014886125907441468
0.006252605252188 0.001997644756326648 0.0018665340216158521 0.9979551070935955 -0.004769514177559729 0.00010846494817198751 0.000980877550127207 -0.00010433386275459172 -0.0006148604431209951
 0.9979551070935955 -0.004769514177559729 0.0019977159354842753 0.0018665002310734187 -0.0001043296102114179 -0.0006148578169278466 0.00010802672609348414 0.0009810163809764302
 0.00010846494817198751 0.000980877550127207 -0.0001043296102114179 -0.0006148578169278466 0.001997647729976488 0.0018666166169009212 0.9979551076169676 -0.004769430362912505
 -0.00010433386275459172 -0.0006148604431209951 0.00010802672609348414 0.0009810163809764302 0.9979551076169676 -0.004769430362912505 0.0019977139948901064 0.0018665852488307655
0.01250521050438 0.002192930846536001 0.0037717728333781474 0.9977040635616197 -0.009539495718732485 0.00015832238140157267 0.0019619388811157714 -0.00014754377160954604 -0.0012325152017013433
 0.9977040635616197 -0.009539495718732485 0.002193215080973065 0.0037717003208892906 -0.00014752701658162423 -0.0012325103552315345 0.00015657492548164573 0.0019622744524177343
 0.00015832238140157267 0.0019619388811157714 -0.00014752701658162423 -0.0012325103552315345 0.0021929421674324713 0.00377193766011128 0.9977040650954105 -0.009539328316483171
 -0.00014754377160954604 -0.0012325152017013433 0.00015657492548164573 0.0019622744524177343 0.9977040650954105 -0.009539328316483171 0.002193206765861487 0.0037718701460806624
0.01875781575657 0.002407971938120538 0.005703655229152171 0.9974248876191587 -0.014321483774310327 0.0002204631083795328 0.0029437925766518333 -0.00020054355977686665 -0.001852023539347585
 0.9974248876191587 -0.014321483774310327 0.0024086106600978963 0.00570353862609829 -0.00020050620184196792 -0.0018520169685635008 0.0002165378283045935 0.002944395603346044
 0.0002204631083795328 0.0029437925766518333 -0.00020050620184196792 -0.0018520169685635008 0.002407996957804912 0.005703901977101245 0.9974248906431911 -0.014321232847403026
 -0.00020054355977686665 -0.001852023539347585 0.0002165378283045935 0.002944395603346044 0.9974248906431911 -0.014321232847403026 0.0024085915308140393 0.005703793202385401
0.02501042100875 0.0026432349727301286 0.007659400336000681 0.9971172107341261 -0.01911771985631255 0.0002950111626787616 0.003926425414063476 -0.0002634718958801895 -0.0024730572587574207
 0.9971172107341261 -0.01911771985631255 0.0026443693637236273 0.007659233888028652 -0.0002634059345205902 -0.0024730495576942334 0.0002880393357489219 0.003927379058448871
 0.0002950111626787616 0.003926425414063476 -0.0002634059345205902 -0.0024730495576942334 0.0026432790371254873 0.00765972863442559 0.9971172157328659 -0.019117385419421495
 -0.0002634718958801895 -0.0024730572587574207 0.0002880393357489219 0.003927379058448871 0.9971172157328659 -0.019117385419421495 0.0026443349797366494 0.007659573195047028
0.03126302626094 0.002899167324124774 0.009637538649753724 0.9967806479158885 -0.023929116819875824 0.00038209053989113876 0.004909731895766125 -0.000336462549736075 -0.003095371025435068
 0.9967806479158885 -0.023929116819875824 0.0029009384020857627 0.00963731622617511 -0.0003363600678530405 -0.003095362887104843 0.00037120255522671123 0.0049111318459269
 0.00038209053989113876 0.004909731895766125 -0.0003363600678530405 -0.003095362887104843 0.002899235773237576 0.009637948058290397 0.9967806553784604 -0.02392869884802328
 -0.000336462549736075 -0.003095371025435068 0.00037120255522671123 0.0049111318459269 0.9967806553784604 -0.02392869884802328 0.0029008843183624066 0.009637740270803503
0.037515631513130004 0.0031762057910671706 0.01163708293111969 0.9964148071265345 -0.028756087919219218 0.0004818237330466593 0.005893569280064081 -0.000419645330010744 -0.003718747364917728
 0.9964148071265345 -0.028756087919219218 0.0031787544718179512 0.011636798028434737 -0.0004194984857152171 -0.003718739581504043 0.00046614878044563753 0.0058955238737269065
 0.0004818237330466593 0.005893569280064081 -0.0004194984857152171 -0.003718739581504043 0.00317630395691619 0.011637572916106398 0.9964148175454876 -0.028755586370700772
 -0.000419645330010744 -0.003718747364917728 0.00046614878044563753 0.0058955238737269065 0.9964148175454876 -0.028755586370700772 0.003178676234749046 0.011637306822252008
0.043768236765320004 0.0034747800423938235 0.013657275891505498 0.9960192931525635 -0.03359879906087931 0.0005943310259009891 0.006877774338773045 -0.0005131463913981226 -0.00434297994894364
 0.9960192931525635 -0.03359879906087931 0.00347824719020149 0.013656921634277156 -0.0005129474131328884 -0.004342973411796804 0.0005729969759952723 0.0068804047010299196
 0.0005943310259009891 0.006877774338773045 -0.0005129474131328884 -0.004342973411796804 0.0034749132487935093 0.013657845844349483 0.9960193070251533 -0.033598213857955785
 -0.0005131463913981226 -0.00434297994894364 0.0005729969759952723 0.0068804047010299196 0.9960193070251533 -0.033598213857955785 0.003478140337502399 0.01365751521323329
0.050020842017509996 0.003795314191907937 0.015697485946959962 0.9955937096133398 -0.03845727298885699 0.0007197300567488062 0.007862170285955894 -0.0006170883144661875 -0.004967866720226586
 0.9955937096133398 -0.03845727298885699 0.0037998406652896594 0.015697055086706733 -0.000616829497985378 -0.004967862419820314 0.0006918634428373233 0.00786561047220717
 0.0007197300567488062 0.007862170285955894 -0.000616829497985378 -0.004967862419820314 0.0037954877528649446 0.015698135168435504 0.995593727442137 -0.038456604032607464
 -0.0006170883144661875 -0.004967866720226586 0.0006918634428373233 0.00786561047220717 0.995593727442137 -0.038456604032607464 0.00379970072462289 0.015697733496702677
0.055454545454549996 0.004092027993580009 0.01748631269199523 0.9951991366301527 -0.04269218328265369 0.0008392644205621282 0.008717650261642899 -0.0007159887564575701 -0.005511287331655386
 0.9951991366301527 -0.04269218328265369 0.00409758947489491 0.017485809083045513 -0.0007156717328042341 -0.00551128585634491 0.0008050104426629832 0.008721913230110517
 0.0008392644205621282 0.008717650261642899 -0.0007156717328042341 -0.00551128585634491 0.004092240932320673 0.017487030160369964 0.995199158311042 -0.04269144144649104
 -0.0007159887564575701 -0.005511287331655386 0.0008050104426629832 0.008721913230110517 0.995199158311042 -0.04269144144649104 0.00409741714055072 0.017486561258169896
0.056273447269699996 0.004138227574227569 0.017757156039880543 0.9951376601778337 -0.043331440407222324 0.0008581354969064516 0.008846570201814497 -0.0007315900886048377 -0.005593206531448965
 0.9951376601778337 -0.043331440407222324 0.004143954268581594 0.017756640952428834 -0.0007312637950663125 -0.005593205557286667 0.0008228615590280939 0.008850967342521233
 0.0008581354969064516 0.008846570201814497 -0.0007312637950663125 -0.005593205557286667 0.004138446794390408 0.017757883737976665 0.9951376824730507 -0.04333068757885075
 -0.0007315900886048377 -0.005593206531448965 0.0008228615590280939 0.008850967342521233 0.9951376824730507 -0.04333068757885075 0.00414377675837247 0.01775740424858171
0.06252605252188 0.00450393513210373 0.019835775521382153 0.9946507493993788 -0.04822116805041108 0.0010096587905696714 0.009830778927443985 -0.0008567670421682121 -0.006218797323095477
 0.9946507493993788 -0.04822116805041108 0.0045110030210085295 0.019835168202508344 -0.0008563656969110798 -0.006218800863608415 0.0009661015608543761 0.00983629337290643
 0.0010096587905696714 0.009830778927443985 -0.0008563656969110798 -0.006218800863608415 0.004504205304251289 0.019836580814628465 0.9946507766783197 -0.048220331207072795
 -0.0008567670421682121 -0.006218797323095477 0.0009661015608543761 0.00983629337290643 0.9946507766783197 -0.048220331207072795 0.004510783448548845 0.01983601645387521
0.06877865777407 0.004892847585498051 0.021932863399612656 0.9941325833371348 -0.05312627539684897 0.0011744079277742048 0.010814594213729408 -0.0009927307435462827 -0.006844435057209125
 0.9941325833371348 -0.05312627539684897 0.004901397760978529 0.021932155459270464 -0.00099224683529031 -0.006844444399636765 0.0011216903455758616 0.01082139967792085
 0.0011744079277742048 0.010814594213729408 -0.00099224683529031 -0.006844444399636765 0.004893173989455885 0.0219337453132889 0.9941326161260609 -0.053125354374758724
 -0.0009927307435462827 -0.006844435057209125 0.0011216903455758616 0.01082139967792085 0.9941326161260609 -0.053125354374758724 0.004901131622472349 0.021933088746420602
0.07503126302626001 0.005305371474113304 0.024047957725371605 0.9935827700580645 -0.05804654525637054 0.001352487236529603 0.011797807471280678 -0.0011395888851698204 -0.007469913060512316
 0.9935827700580645 -0.05804654525637054 0.005315545186569801 0.02404714038025374 -0.0011390149656300857 -0.007469929590780077 0.0012897312860555693 0.011806091174031917
 0.001352487236529603 0.011797807471280678 -0.0011390149656300857 -0.007469929590780077 0.005305759375490829 0.02404891519201128 0.9935828088930402 -0.058045539869473965
 -0.0011395888851698204 -0.007469913060512316 0.0012897312860555693 0.011806091174031917 0.9935828088930402 -0.058045539869473965 0.005315227966716186 0.02404815879722067
0.08128386827845 0.005741909119299737 0.026180608542112592 0.9930009200621913 -0.06298173080441409 0.0015439971890055953 0.012780204284672502 -0.0012974451548027142 -0.008095021613991626
 0.9930009200621913 -0.06298173080441409 0.00575384781695975 0.026179672606694338 -0.001296773838498625 -0.008095046816568167 0.0014703240545748688 0.012790167091746128
 0.0015439971890055953 0.012780204284672502 -0.001296773838498625 -0.008095046816568167 0.005742363767428221 0.02618164039897642 0.9930009654894615 -0.06298064084631838
 -0.0012974451548027142 -0.008095021613991626 0.0014703240545748688 0.012790167091746128 0.9930009654894615 -0.06298064084631838 0.005753474988132182 0.0261807762598454
0.08753647353064001 0.006202858530648147 0.0283303730287235 0.9923866466586938 -0.06793156043587972 0.0017490342146901908 0.013761564794705148 -0.0014663991003974906 -0.008719547685355333
 0.9923866466586938 -0.06793156043587972 0.006216703899296245 0.028329308904639815 -0.0014656230646980203 -0.008719583143098944 0.0016635644508219982 0.013773421355338628
 0.0017490342146901908 0.013761564794705148 -0.0014656230646980203 -0.008719583143098944 0.006203385157139979 0.028331478017512526 0.9923866992358676 -0.0679303856795322
 -0.0014663991003974906 -0.008719547685355333 0.0016635644508219982 0.013773421355338628 0.9923866992358676 -0.0679303856795322 0.0062162709212280004 0.02833049791372618
0.09378907878283 0.006688613277437893 0.03049681203197645 0.9917395663103313 -0.07289574124167038 0.0019676905208572564 0.014741663988755177 -0.001646545988529914 -0.009343274764729192
 0.9917395663103313 -0.07289574124167038 0.006704507279907196 0.030495609695786335 -0.0016456579738103956 -0.009343322158728237 0.001869544234629775 0.014755642870371951
 0.0019676905208572564 0.014741663988755177 -0.0016456579738103956 -0.009343322158728237 0.006689217094512026 0.03049798879913567 0.9917396266077161 -0.0728944814385699
 -0.001646545988529914 -0.009343274764729192 0.001869544234629775 0.014755642870371951 0.9917396266077161 -0.0728944814385699 0.006704009599483107 0.030496884195634715
0.100041684035 0.00719956233216111 0.03267948754923831 0.9910592989546118 -0.07787396154828093 0.002200053916636212 0.015720271937866834 -0.0018379766599063965 -0.009965982764984225
 0.9910592989546118 -0.07787396154828093 0.007217647247685194 0.03267813653840719 -0.0018369694698844555 -0.009966043874379984 0.0020883509607462648 0.015736615757607108
 0.002200053916636212 0.015720271937866834 -0.0018369694698844555 -0.009966043874379984 0.007200248530572835 0.032680734642835385 0.9910593675557064 -0.07787261643104802
 -0.0018379766599063965 -0.009965982764984225 0.0020883509607462648 0.015736615757607108 0.9910593675557064 -0.07787261643104802 0.007217080298049888 0.03267949667720617
0.1059090909091 0.007702290080432969 0.034742073137293064 0.9903904217354591 -0.08255796965257674 0.0024306429747925854 0.01663702647460592 -0.0020279534260572657 -0.010549202098830982
 0.9903904217354591 -0.08255796965257674 0.007722560653775512 0.034740572690633915 -0.002026827914487539 -0.010549277783959884 0.0023054179894432063 0.01665582282363527
 0.0024306429747925854 0.01663702647460592 -0.002026827914487539 -0.010549277783959884 0.007703058285639116 0.03474338481862856 0.9903904986722486 -0.08255654421480459
 -0.0020279534260572657 -0.010549202098830982 0.0023054179894432063 0.01665582282363527 0.9903904986722486 -0.08255654421480459 0.007721924536861907 0.034742013342253845
0.1062942892872 0.007736089894483413 0.03487796083581078 0.9903454683093051 -0.08286589284608208 0.0024462076407629537 0.016697153997314394 -0.002040777382090936 -0.01058744797021339
 0.9903454683093051 -0.08286589284608208 0.0077565083586706935 0.03487645023302433 -0.0020396438842117883 -0.010587524672012657 0.002320067816236332 0.016716119550270764
 0.0024462076407629537 0.016697153997314394 -0.0020396438842117883 -0.010587524672012657 0.007736863642120314 0.03487927670788105 0.990345545811973 -0.08286446212578816
 -0.002040777382090936 -0.01058744797021339 0.002320067816236332 0.016716119550270764 0.990345545811973 -0.08286446212578816 0.007755867559411301 0.03487789617590348
0.11254689453939999 0.008298575200809531 0.03709179098972554 0.9895977021665208 -0.08787119125409189 0.002706230192303446 0.01767207098313703 -0.0022550297006369217 -0.011207443020044436
 0.9895977021665208 -0.08787119125409189 0.008321470245154106 0.03709010940534633 -0.0022537628265250423 -0.011207537288911358 0.00256477345975395 0.017693929366899373
 0.002706230192303446 0.01767207098313703 -0.0022537628265250423 -0.011207537288911358 0.008299441640406363 0.037093173993700455 0.9895977891839961 -0.08786967462256119
 -0.0022550297006369217 -0.011207443020044436 0.00256477345975395 0.017693929366899373 0.9895977891839961 -0.08786967462256119 0.0083207510017329 0.03709164133317286
0.11879949979160001 0.008887392321952218 0.03932053384744676 0.9888156326777061 -0.09288949868788628 0.002980195163767263 0.018644779333923618 -0.0024808102892358184 -0.011825736920684796
 0.9888156326777061 -0.09288949868788628 0.008912907413736928 0.039318669400130415 -0.0024794030353324655 -0.01182585082869743 0.002822541862504021 0.018669816069291797
 0.002980195163767263 0.018644779333923618 -0.0024794030353324655 -0.01182585082869743 0.008888356569479616 0.03932198223793417 0.9888157298395716 -0.09288789581763467
 -0.0024808102892358184 -0.011825736920684796 0.002822541862504021 0.018669816069291797 0.9888157298395716 -0.09288789581763467 0.008912105117162901 0.03932028751060588
0.1250521050438 0.00950290995275499 0.04156374113806702 0.9879988966333936 -0.0979204437835844 0.0032681710764656496 0.019615031261716535 -0.0027181907997056846 -0.012442095078732646
 0.9879988966333936 -0.0979204437835844 0.0095311890347648 0.04156168143350938 -0.002716636227801587 -0.012442230795187465 0.00309344215092866 0.01964354640942101
 0.0032681710764656496 0.019615031261716535 -0.002716636227801587 -0.012442230795187465 0.00950397709506077 0.041565253073164415 0.9879990045864013 -0.09791875432536257
 -0.0027181907997056846 -0.012442095078732646 0.00309344215092866 0.01964354640942101 0.9879990045864013 -0.09791875432536257 0.009530299061099928 0.041563385944691826
0.131304710296 0.010145491193220255 0.043820959818439725 0.9871471357359297 -0.10296364265546264 0.0035702212182995587 0.02058257489864879 -0.0029672377118454096 -0.013056279351711459
 0.9871471357359297 -0.10296364265546264 0.010176678723689032 0.04381869192618512 -0.002965528949805992 -0.0130564391428225 0.003377538451165762 0.0206148831717678
 0.0035702212182995587 0.02058257489864879 -0.002965528949805992 -0.0130564391428225 0.010146666286454225 0.0438225333546211 0.9871472551453151 -0.10296186624332233
 -0.0029672377118454096 -0.013056279351711459 0.003377538451165762 0.0206148831717678 0.9871472551453151 -0.10296186624332233 0.010175696434000358 0.04382048307267738
0.1375573155481 0.010677571198088865 0.04579822000977656 0.9863979889003711 -0.10772501664941954 0.0038519882894224476 0.02151923796660363 -0.003193825144021806 -0.013639985879605318
 0.9863979889003711 -0.10772501664941954 0.010711821169959581 0.04579577457647915 -0.003191951824100942 -0.013640170207524236 0.003640915079445935 0.02155532359519101
 0.0038519882894224476 0.02151923796660363 -0.003191951824100942 -0.013640170207524236 0.0106788585916251 0.04579985355379245 0.9863981203054863 -0.1077231530811191
 -0.003193825144021806 -0.013639985879605318 0.003640915079445935 0.02155532359519101 0.9863981203054863 -0.1077231530811191 0.010710742852899061 0.04579765249855292
0.1438099208003 0.011228622856285505 0.047763212707812495 0.9856219332820548 -0.1124724317614838 0.004145090912040462 0.022450793501948754 -0.0034293882227945595 -0.01421912868353786
 0.9856219332820548 -0.1124724317614838 0.011266081782348808 0.04776057890908404 -0.0034273429391618202 -0.01421933980944816 0.003914829772993343 0.022490947321512158
 0.004145090912040462 0.022450793501948754 -0.0034273429391618202 -0.01421933980944816 0.011230027436637577 0.04776490427716659 0.9856220773480345 -0.11247048068170235
 -0.0034293882227945595 -0.01421912868353786 0.003914829772993343 0.022490947321512158 0.9856220773480345 -0.11247048068170235 0.011264902944308508 0.0477625438163292
0.1500625260525 0.011798421500396738 0.04971571896660426 0.9848191985204898 -0.11720571362015844 0.004449408481257053 0.023377103728500926 -0.003673812241142917 -0.014793583708193031
 0.9848191985204898 -0.11720571362015844 0.011839236409844814 0.04971288526306909 -0.0036715876095570208 -0.014793823984787667 0.004199167779290382 0.02342162721690568
 0.004449408481257053 0.023377103728500926 -0.0036715876095570208 -0.014793823984787667 0.01179994811658926 0.049717466499883935 0.9848193559276679 -0.11720367466307946
 -0.003673812241142917 -0.014793583708193031 0.004199167779290382 0.02342162721690568 0.9848193559276679 -0.11720367466307946 0.011837952553084393 0.04971493737322213
0.15631513130469998 0.012386740504394863 0.051655526414066746 0.9839900158204455 -0.12192468977937301 0.00476481873869274 0.024298033652177906 -0.0039269808885918425 -0.015363229914559942
 0.9839900158204455 -0.12192468977937301 0.012431058955373534 0.05165248052712046 -0.003924569546877737 -0.015363501785588594 0.004493812795303928 0.024347238802180017
