! Created with skrf 1.8.0 (http://scikit-rf.org).
# GHz S RI R 50.0 
!freq ReS11 ImS11 ReS12 ImS12 ReS13 ImS13
! ReS14 ImS14
! ReS21 ImS21 ReS22 ImS22 ReS23 ImS23
! ReS24 ImS24
! ReS31 ImS31 ReS32 ImS32 ReS33 ImS33
! ReS34 ImS34
! ReS41 ImS41 ReS42 ImS42 ReS43 ImS43
! ReS44 ImS44
!
0.0 0.001555349793181 0.0 0.9984446501955 0.0 5.950469333874e-05 0.0 -5.950469324978e-05 7.28722321225882e-21
 0.9984446501955 0.0 0.001555349793142 0.0 -5.950469324908e-05 7.287223212173094e-21 5.950469333774e-05 0.0
 5.950469333874e-05 0.0 -5.950469324908e-05 7.287223212173094e-21 0.001555349787483 0.0 0.9984446501898 0.0
 -5.950469324978e-05 7.28722321225882e-21 5.950469333774e-05 0.0 0.9984446501898 0.0 0.001555349787485 0.0
0.005 0.001673348829662505 0.0012818390926635332 0.9982954018462278 -0.003257501392941822 8.190566260389335e-05 0.0005984967307638015 -7.991149327141634e-05 -0.0003856383404177345
 0.9982954018462278 -0.003257501392941822 0.0016733600719223904 0.001281832489723778 -7.99105553425616e-05 -0.00038563757454564954 8.184771211810837e-05 0.0005985188940592264
 8.190566260389335e-05 0.0005984967307638015 -7.99105553425616e-05 -0.00038563757454564954 0.0016733499193758144 0.0012819056766129463 0.998295402201255 -0.0032574343305193315
 -7.991149327141634e-05 -0.0003856383404177345 8.184771211810837e-05 0.0005985188940592264 0.998295402201255 -0.0032574343305193315 0.0016733596868043026 0.0012819000261703607
0.006252605252188 0.001704302175638161 0.0016072962407553718 0.998256008977019 -0.004072667975772477 8.829404617207772e-05 0.0007484377439610709 -8.5662181755517e-05 -0.00048253297434672606
 0.998256008977019 -0.004072667975772477 0.0017043197494257104 0.0016072878271330227 -8.566072260706602e-05 -0.0004825320290886701 8.820350507127217e-05 0.0007484665068769784
 8.829404617207772e-05 0.0007484377439610709 -8.566072260706602e-05 -0.0004825320290886701 0.0017043038159050951 0.0016073794580587248 0.998256009468498 -0.004072584152402024
 -8.5662181755517e-05 -0.00048253297434672606 8.820350507127217e-05 0.0007484665068769784 0.998256009468498 -0.004072584152402024 0.0017043190834597891 0.0016073722465290436
0.01250521050438 0.0018672808127811987 0.003247900723935722 0.9980472519719125 -0.008146077642302844 0.00012487018704129864 0.0014974076924723163 -0.00011823203402627828 -0.0009673469685351901
 0.9980472519719125 -0.008146077642302844 0.0018673509877338743 0.0032478822594842437 -0.0001182262879617638 -0.0009673452102113952 0.00012450916320467536 0.0014974766613495248
 0.00012487018704129864 0.0014974076924723163 -0.0001182262879617638 -0.0009673452102113952 0.0018672867887110666 0.003248066813512606 0.9980472533560576 -0.008145910237764927
 -0.00011823203402627828 -0.0009673469685351901 0.00012450916320467536 0.0014974766613495248 0.9980472533560576 -0.008145910237764927 0.0018673477407923989 0.0032480508841483623
0.01875781575657 0.002044643048554916 0.004911588818714564 0.9978181183886754 -0.012230130420368721 0.00016931943471040184 0.0022473448366670565 -0.00015731321504602031 -0.0014538218144302226
 0.9978181183886754 -0.012230130420368721 0.00204480074212203 0.004911558497705842 -0.00015730040716345232 -0.0014538193998072711 0.00016850851111989832 0.0022474677346127326
 0.00016931943471040184 0.0022473448366670565 -0.00015730040716345232 -0.0014538193998072711 0.002044656058633241 0.004911837538277789 0.9978181210725557 -0.012229879512890013
 -0.00015731321504602031 -0.0014538218144302226 0.00016850851111989832 0.0022474677346127326 0.9978181210725557 -0.012229879512890013 0.0020447930001442497 0.004911811263496172
0.02501042100875 0.0022367355852123618 0.006596050852537123 0.9975683370300468 -0.016326802011290623 0.00022172909016970687 0.002998263170221205 -0.00020300182556311593 -0.0019417529151326207
 0.9975683370300468 -0.016326802011290623 0.002237015647940493 0.006596006711043362 -0.000202979216071811 -0.0019417500284497264 0.00022028882602098568 0.0029984559169943612
 0.00022172909016970687 0.002998263170221205 -0.000202979216071811 -0.0019417500284497264 0.002236758330345545 0.006596381945093757 0.9975683414246787 -0.01632646763321154
 -0.00020300182556311593 -0.0019417529151326207 0.00022028882602098568 0.0029984559169943612 0.9975683414246787 -0.01632646763321154 0.002237001492612839 0.006596343584662364
0.03126302626094 0.002443890843797993 0.008300097358356281 0.9972976228851556 -0.02043693712164296 0.0002821867371412332 0.003750114637265395 -0.0002553914563369568 -0.0024309922680543963
 0.9972976228851556 -0.02043693712164296 0.0024443280766846334 0.008300037275412812 -0.0002553563346790106 -0.0024309891213386073 0.00027993749752449584 0.0037503953607106884
 0.0002821867371412332 0.003750114637265395 -0.0002553563346790106 -0.0024309891213386073 0.002443926023598459 0.008300510531578275 0.9972976294014887 -0.020436519279624418
 -0.0002553914563369568 -0.0024309922680543963 0.00027993749752449584 0.0037503953607106884 0.9972976294014887 -0.020436519279624418 0.002444305579532087 0.008300458234197405
0.037515631513130004 0.002666434094656628 0.01002295208168976 0.9970056844838548 -0.024560956392344815 0.00035077946812218274 0.00450282641186865 -0.0003145737660707987 -0.0029214111843484567
 0.9970056844838548 -0.024560956392344815 0.002667063259806536 0.01002287377946514 -0.00031452344782764024 -0.002921408017482442 0.00034754134695642056 0.004503215469197592
 0.00035077946812218274 0.00450282641186865 -0.00031452344782764024 -0.002921408017482442 0.002666484407105283 0.010023447006945636 0.9970056935332169 -0.02456045506783778
 -0.0003145737660707987 -0.0029214111843484567 0.00034754134695642056 0.004503215469197592 0.9970056935332169 -0.02456045506783778 0.0026670304815401315 0.010023378810891612
0.043768236765320004 0.0029046862048111113 0.011764036855067356 0.9966922268712178 -0.028699071450379962 0.0004275935140045676 0.005256312232060067 -0.0003806386818036213 -0.0034128889553601354
 0.9966922268712178 -0.028699071450379962 0.0029055420332616444 0.01176393789862895 -0.0003805705068505469 -0.0034128860360693285 0.00042318629700757124 0.005256832234195319
 0.0004275935140045676 0.005256312232060067 -0.0003805705068505469 -0.0034128860360693285 0.00290475434786265 0.01176461315423783 0.9966922388681525 -0.02869848661230166
 -0.0003806386818036213 -0.0034128889553601354 0.00042318629700757124 0.005256832234195319 0.9966922388681525 -0.02869848661230166 0.0029054970254212865 0.011764526987809477
0.050020842017509996 0.0031589649158484845 0.013522882674728051 0.9963569531162711 -0.03285137375648432 0.0005127140140419774 0.006010477089404255 -0.00045367446704965757 -0.003905308165759145
 0.9963569531162711 -0.03285137375648432 0.0031600821142743576 0.01352276047153768 -0.00045358579839220413 -0.003905305789581075 0.0005069571625796422 0.006011152926635491
 0.0005127140140419774 0.006010477089404255 -0.00045358579839220413 -0.003905305789581075 0.0031590535871620926 0.013523539927665725 0.9963569684785735 -0.032850705353202184
 -0.00045367446704965757 -0.003905308165759145 0.0005069571625796422 0.006011152926635491 0.9963569684785735 -0.032850705353202184 0.0031600229185492746 0.013523433609342696
0.055454545454549996 0.003393201292896993 0.015065482603269975 0.9960476412498533 -0.036471385041444725 0.0005934973468065863 0.0066663419938000614 -0.000522873278882095 -0.004333909541073344
 0.9960476412498533 -0.036471385041444725 0.0033945738013031676 0.015065337969593261 -0.0005227646763400519 -0.004333907898454062 0.0005864207484208944 0.006667175260395945
 0.0005934973468065863 0.0066663419938000614 -0.0005227646763400519 -0.004333907898454062 0.003393309993405872 0.015066209828373556 0.9960476598789365 -0.03647064396438548
 -0.000522873278882095 -0.004333909541073344 0.0005864207484208944 0.006667175260395945 0.9960476598789365 -0.03647064396438548 0.0033945006772490346 0.015066084140518726
0.056273447269699996 0.0034295854999166543 0.015299086060026104 0.9959995652021184 -0.03701787817088886 0.0006062248524919996 0.006765219514853744 -0.0005337677254338199 -0.00439855241348185
 0.9959995652021184 -0.03701787817088886 0.0034309987565201085 0.015298937859276562 -0.0005336559483758152 -0.0043985509037171525 0.0005989375006171309 0.006766078383047524
 0.0006062248524919996 0.006765219514853744 -0.0005336559483758152 -0.0043985509037171525 0.003429697395285145 0.01529982379578362 0.9959995843511232 -0.037017126138388846
 -0.0005337677254338199 -0.00439855241348185 0.0005989375006171309 0.006766078383047524 0.9959995843511232 -0.037017126138388846 0.003430923403744115 0.015299695034280265
0.06252605252188 0.0037168611078793883 0.017092285057375256 0.995619764613671 -0.041198546877289806 0.0007082085236742244 0.007520432856547673 -0.000621003376704688 -0.00489250504120255
 0.995619764613671 -0.041198546877289806 0.003718605097465397 0.017092107949156537 -0.0006208658982627479 -0.004892504748879416 0.0006992094832548576 0.00752150428362459
 0.0007082085236742244 0.007520432856547673 -0.0006208658982627479 -0.004892504748879416 0.0037169989214711307 0.017093102757707007 0.9956197879750626 -0.04119771113528725
 -0.000621003376704688 -0.00489250504120255 0.0006992094832548576 0.00752150428362459 0.9956197879750626 -0.04119771113528725 0.0037185116080931885 0.017092949151700138
0.06877865777407 0.004021102953696362 0.018902144937429945 0.9952172527641676 -0.04539330361720171 0.0008187460176557184 0.008276006028342855 -0.00071546461147163 -0.0053870484010313125
 0.9952172527641676 -0.04539330361720171 0.004023212342785532 0.018901935851642255 -0.0007152988600171022 -0.005387049704827886 0.0008078537894426635 0.008277321900795961
 0.0008187460176557184 0.008276006028342855 -0.0007152988600171022 -0.005387049704827886 0.004021269376510262 0.018903042034346944 0.9952172807679063 -0.04539238407095484
 -0.00071546461147163 -0.0053870484010313125 0.0008078537894426635 0.008277321900795961 0.9952172807679063 -0.04539238407095484 0.004023098725424566 0.01890286107232819
0.07503126302626001 0.004342620397376835 0.02072834911880912 0.9947917313256233 -0.04960204270212821 0.0009379167136031165 0.009031823997832342 -0.0008172328372732655 -0.005882063383824653
 0.9947917313256233 -0.04960204270212821 0.0043451298491392325 0.02072810482397498 -0.0008170362621883077 -0.005882066690034525 0.0009249495031746374 0.009033418587150621
 0.0009379167136031165 0.009031823997832342 -0.0008170362621883077 -0.005882066690034525 0.004342818117253583 0.020729324994052556 0.9947917644073199 -0.049601039242544644
 -0.0008172328372732655 -0.005882063383824653 0.0009249495031746374 0.009033418587150621 0.9947917644073199 -0.049601039242544644 0.004344994101408734 0.02072911405365707
0.08128386827845 0.0046817209683137325 0.022570593144808488 0.9943429025023887 -0.05382463497706329 0.0010657982812012168 0.009787768110161951 -0.0009263876159795286 -0.006377429117057512
 0.9943429025023887 -0.05382463497706329 0.004684665147232447 0.022570310246778934 -0.0009261576875366265 -0.0063774348595178765 0.0010505740177133881 0.009789678099160593
 0.0010657982812012168 0.009787768110161951 -0.0009261576875366265 -0.0063774348595178765 0.004681952668732209 0.022571647127535673 0.9943429411030781 -0.05382354748257502
 -0.0009263876159795286 -0.006377429117057512 0.0010505740177133881 0.009789678099160593 0.9943429411030781 -0.05382354748257502 0.00468450525434197 0.02257140347505419
0.08753647353064001 0.005038710345540401 0.024428580496399285 0.9938704692664497 -0.05806093195330414 0.001202466585211037 0.01054371631972676 -0.0010430065964391103 -0.006873022759380008
 0.9938704692664497 -0.05806093195330414 0.005042123921922718 0.024428255436759395 -0.0010427408055930976 -0.006873031399417217 0.001184802943662008 0.010545980828594809
 0.001202466585211037 0.01054371631972676 -0.0010427408055930976 -0.006873031399417217 0.005038978704906169 0.024429711866450706 0.9938705138335548 -0.058059760286114204
 -0.0010430065964391103 -0.006873022759380008 0.001184802943662008 0.010545980828594809 0.9938705138335548 -0.058059760286114204 0.005041937857130371 0.024429432655903263
0.09378907878283 0.00541389231074133 0.026302019625363326 0.9933741355681378 -0.06231076872603462 0.001347995593393524 0.011299543361688046 -0.0011671654432223782 -0.007368719359999107
 0.9933741355681378 -0.06231076872603462 0.005417809965305536 0.026301648679780323 -0.0011668613015827305 -0.007368731386360988 0.0013277100186327752 0.01130220397381498
 0.001347995593393524 0.011299543361688046 -0.0011668613015827305 -0.007368731386360988 0.005414200001588004 0.026303227607826645 0.9933741865558625 -0.06230951273718915
 -0.0011671654432223782 -0.007368719359999107 0.0013277100186327752 0.01130220397381498 0.9933741865558625 -0.06230951273718915 0.005417595689168858 0.026302909880021482
0.100041684035 0.005807568679714225 0.028190621758746568 0.9928536065301716 -0.06657396612642766 0.0015024572858165354 0.01205512087953131 -0.0012989377626159918 -0.007864391766867741
 0.9928536065301716 -0.06657396612642766 0.0058120251081403215 0.028190201035057795 -0.001298592802386003 -0.007864407695659268 0.001479367018902448 0.012058221666982947
 0.0015024572858165354 0.01205512087953131 -0.001298592802386003 -0.007864407695659268 0.00580791836763016 0.028191905528805065 0.9928536644000716 -0.06657262565063769
 -0.0012989377626159918 -0.007864391766867741 0.001479367018902448 0.012058221666982947 0.9928536644000716 -0.06657262565063769 0.005811780568326786 0.028191546210122445
0.1059090909091 0.006194079711882557 0.029976408908693963 0.9923428783564114 -0.07058650533512338 0.0016555896756467168 0.012763806347350862 -0.0014295801731815199 -0.008329390484532935
 0.9923428783564114 -0.07058650533512338 0.00619907329517739 0.029975937782362686 -0.0014291946829649907 -0.00832941056904472 0.0016297011284910669 0.01276736251469874
 0.0016555896756467168 0.012763806347350862 -0.0014291946829649907 -0.00832941056904472 0.006194471227324051 0.02997776299562223 0.9923429431111261 -0.07058508541915165
 -0.0014295801731815199 -0.008329390484532935 0.0016297011284910669 0.01276736251469874 0.9923429431111261 -0.07058508541915165 0.006198798477787428 0.029977361749771936
0.1062942892872 0.006220039219077892 0.03009409926681232 0.9923085886291846 -0.07085033231615086 0.001665921565201097 0.012810317536498514 -0.0014383950268172987 -0.008359910555933292
 0.9923085886291846 -0.07085033231615086 0.006225069136689762 0.030093624702981582 -0.0014380068008162086 -0.0083599309305499 0.0016398436714870675 0.012813905085153895
 0.001665921565201097 0.012810317536498514 -0.0014380068008162086 -0.0083599309305499 0.006220433562134294 0.03009545794257646 0.9923086538505034 -0.07084890717853155
 -0.0014383950268172987 -0.008359910555933292 0.0016398436714870675 0.012813905085153895 0.9923086538505034 -0.07084890717853155 0.00622479226754769 0.030095053843631425
0.11254689453939999 0.006651601551514351 0.032012164403103414 0.9917387898694893 -0.07513966401569794 0.00183845616872065 0.013564999097470012 -0.0015856064960329487 -0.008855143995008008
 0.9917387898694893 -0.07513966401569794 0.006657239697349938 0.03201163176497199 -0.0015851725776939388 -0.008855169386060763 0.0018092075673066252 0.01356912253178348
 0.00183845616872065 0.013564999097470012 -0.0015851725776939388 -0.008855169386060763 0.006652043199205894 0.032013597052698156 0.9917388629202187 -0.07513815402440009
 -0.0015856064960329487 -0.008855143995008008 0.0018092075673066252 0.01356912253178348 0.9917388629202187 -0.07513815402440009 0.006656928419916212 0.032013144866759026
0.11879949979160001 0.007102551051293064 0.03394452833200999 0.9911439199506243 -0.07944174745153824 0.002020126579920937 0.014319028508550173 -0.001740639139522633 -0.009349958015114504
 0.9911439199506243 -0.07944174745153824 0.007108832192972989 0.033943933210849125 -0.0017401571229314688 -0.00934998902036034 0.001987524074792274 0.014323739515864265
 0.002020126579920937 0.014319028508550173 -0.0017401571229314688 -0.00934998902036034 0.00710304264357344 0.033946033968437414 0.9911440013177404 -0.07944015240271181
 -0.001740639139522633 -0.009349958015114504 0.001987524074792274 0.014323739515864265 0.9911440013177404 -0.07944015240271181 0.007108484414488893 0.033945530269690175
0.1250521050438 0.007573180733164823 0.03589090035994502 0.9905236904310977 -0.0837563591062845 0.0022109959414801004 0.015072265961847395 -0.001903557555472045 -0.009844216201876537
 0.9905236904310977 -0.0837563591062845 0.007580139671275065 0.03589023816982633 -0.0019030250554825478 -0.009844253446138623 0.0021748562538069643 0.015077618816279538
 0.0022109959414801004 0.015072265961847395 -0.0019030250554825478 -0.009844253446138623 0.007573724899221806 0.035892477943279495 0.9905237806110229 -0.08375467878154531
 -0.001903557555472045 -0.009844216201876537 0.0021748562538069643 0.015077618816279538 0.9905237806110229 -0.08375467878154531 0.007579753284339581 0.03589191918484504
0.131304710296 0.008063781134518645 0.03785098732643863 0.9898778148882249 -0.08808326631534281 0.0024111249681948096 0.015824568961373416 -0.0020744238903950612 -0.010337779791232909
 0.9898778148882249 -0.08808326631534281 0.008071452707003879 0.037850253301376244 -0.0020738385426649153 -0.010337823926311773 0.0023712647697826813 0.015830620547216748
 0.0024111249681948096 0.015824568961373416 -0.0020738385426649153 -0.010337823926311773 0.008064380492136753 0.03785263576022694 0.9898779143873258 -0.0880815004851711
 -0.0020744238903950612 -0.010337779791232909 0.0023712647697826813 0.015830620547216748 0.9898779143873258 -0.0880815004851711 0.0080710255900181 0.03785201827200982
0.1375573155481 0.008462372996331593 0.03957158342627557 0.9893183206374991 -0.09216920666020986 0.0025953453444855054 0.016551293586252912 -0.0022281191131491053 -0.010805989298346317
 0.9893183206374991 -0.09216920666020986 0.008470793500469191 0.039570787681632615 -0.0022274772765499243 -0.01080604038486813 0.0025516691756420997 0.016558036051769004
 0.0025953453444855054 0.016551293586252912 -0.0022274772765499243 -0.01080604038486813 0.008463029408800133 0.03957330200605538 0.9893184298849477 -0.09216735520365023
 -0.0022281191131491053 -0.010805989298346317 0.0025516691756420997 0.016558036051769004 0.9893184298849477 -0.09216735520365023 0.008470324423773145 0.03957263639463191
0.1438099208003 0.008875032350802095 0.0412831534817227 0.9887391004824084 -0.09624477320957608 0.002786990039179514 0.017274943398242124 -0.002387938659124146 -0.011271371079915894
 0.9887391004824084 -0.09624477320957608 0.00888423686886413 0.04128229220482326 -0.0023872377696035328 -0.011271429763772404 0.00273933038050481 0.01728242892988717
 0.002786990039179514 0.017274943398242124 -0.0023872377696035328 -0.011271429763772404 0.008875748283970699 0.041284941107022306 0.9887392199830913 -0.09624283590471396
 -0.002387938659124146 -0.011271371079915894 0.00273933038050481 0.01728242892988717 0.9887392199830913 -0.09624283590471396 0.00888372385143629 0.04128422462380576
0.1500625260525 0.009301614079338114 0.04298555407056414 0.988140303560731 -0.10030986368019566 0.002985992045307185 0.01799544123289218 -0.002553817516056602 -0.011733852599342304
 0.988140303560731 -0.10030986368019566 0.009311637732408042 0.04298462325746538 -0.002553055014261527 -0.011733919552534137 0.002934182346340347 0.018003723934874045
 0.002985992045307185 0.01799544123289218 -0.002553055014261527 -0.011733919552534137 0.009302391979232154 0.04298740959897204 0.9881404338280949 -0.10030784029596956
 -0.002553817516056602 -0.011733852599342304 0.002934182346340347 0.018003723934874045 0.9881404338280949 -0.10030784029596956 0.009311078789470474 0.04298663934554211
0.15631513130469998 0.009741972042627205 0.04467864607892017 0.987522079755676 -0.10436437616897265 0.0031922835637887303 0.018712711265143084 -0.0027256898745713007 -0.012193362853618512
