! Created with skrf 1.8.0 (http://scikit-rf.org).
# GHz S RI R 50.0 
!freq ReS11 ImS11 ReS12 ImS12 ReS13 ImS13
! ReS14 ImS14
! ReS21 ImS21 ReS22 ImS22 ReS23 ImS23
! ReS24 ImS24
! ReS31 ImS31 ReS32 ImS32 ReS33 ImS33
! ReS34 ImS34
! ReS41 ImS41 ReS42 ImS42 ReS43 ImS43
! ReS44 ImS44
!
0.0 0.001143573828616 0.0 0.9988564261714 0.0 4.370602302762e-05 0.0 -4.370602257352e-05 5.3524440648123234e-21
 0.9988564261714 0.0 0.001143573828587 0.0 -4.370602257335e-05 5.3524440647915046e-21 4.370602302966e-05 0.0
 4.370602302762e-05 0.0 -4.370602257335e-05 5.3524440647915046e-21 0.001143573819368 0.0 0.9988564261622 0.0
 -4.370602257352e-05 5.3524440648123234e-21 4.370602302966e-05 0.0 0.9988564261622 0.0 0.001143573819353 0.0
0.005 0.001229560755737229 0.0009310187350437468 0.998747750654249 -0.0023969530473699585 6.150554964275267e-05 0.0005121194261346178 -5.961373457376813e-05 -0.0003162833436352754
 0.998747750654249 -0.0023969530473699585 0.0012295732657399653 0.0009310114237324393 -5.961013376096629e-05 -0.0003162805815407653 6.144044548795814e-05 0.0005121441556324793
 6.150554964275267e-05 0.0005121194261346178 -5.961013376096629e-05 -0.0003162805815407653 0.001229562884970647 0.0009310847190986856 0.9987477509797803 -0.0023968859908288648
 -5.961373457376813e-05 -0.0003162833436352754 6.144044548795814e-05 0.0005121441556324793 0.9987477509797803 -0.0023968859908288648 0.0012295717848240743 0.0009310795509664704
0.006252605252188 0.0012518568912309128 0.0011674956212550688 0.9987194306368427 -0.002996819132493125 6.645249981756732e-05 0.0006403992916082002 -6.398893786528286e-05 -0.0003957854377611905
 0.9987194306368427 -0.002996819132493125 0.0012518764469252412 0.0011674863535997297 -6.398333455309978e-05 -0.0003957820303469385 6.635077834235537e-05 0.0006404313667019118
 6.645249981756732e-05 0.0006403992916082002 -6.398333455309978e-05 -0.0003957820303469385 0.0012518601430606343 0.001167578093443537 0.9987194310687413 -0.00299673531720564
 -6.398893786528286e-05 -0.0003957854377611905 6.635077834235537e-05 0.0006404313667019118 0.9987194310687413 -0.00299673531720564 0.0012518740547924907 0.0011675715078582156
0.01250521050438 0.0013677402294492963 0.0023600149678918523 0.998571437192927 -0.0059946766628152905 9.409097627960905e-05 0.001281142631297625 -8.818972864449731e-05 -0.0007936847982285876
 0.998571437192927 -0.0059946766628152905 0.001367818318811518 0.0023599951368277108 -8.816764358978479e-05 -0.0007936784689272189 9.368528497326982e-05 0.0012812191139120344
 9.409097627960905e-05 0.001281142631297625 -8.816764358978479e-05 -0.0007936784689272189 0.0013677526566210128 0.0023601796427922634 0.9985714383575771 -0.005994509260003885
 -8.818972864449731e-05 -0.0007936847982285876 9.368528497326982e-05 0.0012812191139120344 0.9985714383575771 -0.005994509260003885 0.0013678082025346866 0.002360165227783443
0.01875781575657 0.0014914234530696991 0.003570065989289204 0.9984123004646726 -0.009000926722032895 0.00012667536532535583 0.0019227258276354425 -0.0001163712649865907 -0.0011931156068923218
 0.9984123004646726 -0.009000926722032895 0.0014915989292043263 0.0035700341965361655 -0.00011632200836702441 -0.0011931069112667747 0.0001257639032300548 0.001922860965847665
 0.00012667536532535583 0.0019227258276354425 -0.00011632200836702441 -0.0011931069112667747 0.0014914509633276265 0.003570312669411626 0.9984123026631282 -0.009000675836903966
 -0.0001163712649865907 -0.0011931156068923218 0.0001257639032300548 0.001922860965847665 0.9984123026631282 -0.009000675836903966 0.0014915757704786262 0.003570289147901992
0.02501042100875 0.0016231029345795836 0.0047959964536871715 0.9982418709909666 -0.012017079143923835 0.00016426069649933537 0.0025652173791941187 -0.0001485950698843224 -0.0015939201920522478
 0.9982418709909666 -0.012017079143923835 0.0016234145755577875 0.004795951212951611 -0.00014850807544568312 -0.0015939097667864114 0.00016264149114737382 0.002565427244742845
 0.00016426069649933537 0.0025652173791941187 -0.00014850807544568312 -0.0015939097667864114 0.0016231514246620607 0.00479632495366434 0.9982418745221266 -0.012016744821757838
 -0.0001485950698843224 -0.0015939201920522478 0.00016264149114737382 0.002565427244742845 0.9982418745221266 -0.012016744821757838 0.001623373058268962 0.004796291024062595
0.03126302626094 0.0017629664601347974 0.006036982146278434 0.9980599899566307 -0.015043811246240076 0.00020690285604294851 0.0032086240315834756 -0.00018492129567197955 -0.001996000077701055
 0.9980599899566307 -0.015043811246240076 0.0017634529880975762 0.006036921885618794 -0.00018478609866530953 -0.0019959886420955887 0.00020437356362310597 0.0032089265284774697
 0.00020690285604294851 0.0032086240315834756 -0.00018478609866530953 -0.0019959886420955887 0.0017630418229492798 0.0060373922499113416 0.9980599951214963 -0.01504339351523348
 -0.00018492129567197955 -0.001996000077701055 0.00020437356362310597 0.0032089265284774697 0.9980599951214963 -0.01504339351523348 0.001763387800417894 0.006037346588403635
0.037515631513130004 0.0019111978843694127 0.007292505405837097 0.9978664939168939 -0.01808148925465251 0.00025465798744460204 0.0038529287621036612 -0.00022540921506176886 -0.0023992779835069625
 0.9978664939168939 -0.01808148925465251 0.0019118979771427173 0.0072924284687225 -0.00022521544079472886 -0.002399266340036781 0.0002510157955546193 0.003853343645375163
 0.00025465798744460204 0.0038529287621036612 -0.00022521544079472886 -0.002399266340036781 0.0019113060078023575 0.007292996858687965 0.9978665010165424 -0.01808098813296775
 -0.00022540921506176886 -0.0023992779835069625 0.0002510157955546193 0.003853343645375163 0.9978665010165424 -0.01808098813296775 0.0019118038076691493 0.007292938120722131
0.043768236765320004 0.002067978931299133 0.008562196451067502 0.9976612166693387 -0.02113032693197665 0.00030758222421223394 0.0044981023278897 -0.00027011741155094865 -0.002803686263150035
 0.9976612166693387 -0.02113032693197665 0.002068931230998427 0.008562101096944184 -0.00026985476850235353 -0.0028036752977283535 0.0003026237987210973 0.004498651225490425
 0.00030758222421223394 0.0044981023278897 -0.00026985476850235353 -0.0028036752977283535 0.0020681256985913797 0.008562768964678774 0.9976612260049037 -0.02112974242302663
 -0.00027011741155094865 -0.002803686263150035 0.0003026237987210973 0.004498651225490425 0.9976612260049037 -0.02112974242302663 0.002068802767316197 0.008562695786254534
0.050020842017509996 0.002233490041955549 0.009845767802418299 0.9974439901758234 -0.024190451110134563 0.0003657315394265634 0.0051441080305251715 -0.0003191038638449042 -0.003209162126944298
 0.9974439901758234 -0.024190451110134563 0.0022347331617997125 0.00984565220700639 -0.0003187621390476294 -0.0032091528090686643 0.00035925299448000026 0.0051448144665588
 0.0003657315394265634 0.0051441080305251715 -0.0003187621390476294 -0.0032091528090686643 0.0022336813338474544 0.009846421043997676 0.9974440020502814 -0.02418978321229427
 -0.0003191038638449042 -0.003209162126944298 0.00035925299448000026 0.0051448144665588 0.9974440020502814 -0.02418978321229427 0.0022345650918901188 0.009846332042816588
0.055454545454549996 0.0023845536017452905 0.0109723174473925 0.9972453780246573 -0.02685901474313354 0.00042055173844730625 0.005706149982204363 -0.0003651936425654288 -0.0035623530943784745
 0.9972453780246573 -0.02685901474313354 0.0023860807936026064 0.010972182715196569 -0.00036477495776270606 -0.0035623460606171663 0.000412586142519691 0.005707013918964316
 0.00042055173844730625 0.005706149982204363 -0.00036477495776270606 -0.0035623460606171663 0.0023847883591675946 0.010973040545800622 0.9972453923513861 -0.026858274365660073
 -0.0003651936425654288 -0.0035623530943784745 0.000412586142519691 0.005707013918964316 0.9972453923513861 -0.026858274365660073 0.0023858739888656727 0.010972936658136083
0.056273447269699996 0.0024079108254043734 0.011142982084174288 0.9972146450885973 -0.027261933841388926 0.0004291616492783314 0.00579090405170038 -0.00037242598055517564 -0.0036156452941676197
 0.9972146450885973 -0.027261933841388926 0.0024094833554363397 0.011142844339556887 -0.0003719950364262784 -0.0036156386770232387 0.0004209585309681257 0.005791793470308054
 0.0004291616492783314 0.00579090405170038 -0.0003719950364262784 -0.0036156386770232387 0.0024081525184288903 0.01114371568371131 0.99721465980507 -0.027261182540267527
 -0.00037242598055517564 -0.0036156452941676197 0.0004209585309681257 0.005791793470308054 0.99721465980507 -0.027261182540267527 0.002409270365269556 0.011143609460229928
0.06252605252188 0.0025914203100297455 0.012453634348257902 0.9969730110787125 -0.030344810027872458 0.000497927941098585 0.006438444734429933 -0.00043014061200858186 -0.004023076700666896
 0.9969730110787125 -0.030344810027872458 0.0025933608228183645 0.012453472462915631 -0.0004296103840794536 -0.004023073921202439 0.0004877952203873154 0.00643954452408779
 0.000497927941098585 0.006438444734429933 -0.0004296103840794536 -0.004023073921202439 0.0025917182773477383 0.01245444788992154 0.9969730289415021 -0.030343975304381973
 -0.00043014061200858186 -0.004023076700666896 0.0004877952203873154 0.00643954452408779 0.9969730289415021 -0.030343975304381973 0.0025930975967433903 0.012454323028217862
0.06877865777407 0.0027841970951955654 0.013777541503835552 0.9967189170662084 -0.0334390879460431 0.0005720854162120046 0.007086681341708826 -0.0004923040481150916 -0.00443139773001828
 0.9967189170662084 -0.0334390879460431 0.0027865441506743044 0.013777353402445049 -0.0004916645433719127 -0.004431400008992885 0.0005598174878285912 0.007088020859696236
 0.0005720854162120046 0.007086681341708826 -0.0004916645433719127 -0.004431400008992885 0.002784557207654415 0.013778434529914287 0.9967189383820333 -0.03343816977170351
 -0.0004923040481150916 -0.00443139773001828 0.0005598174878285912 0.007088020859696236 0.9967189383820333 -0.03343816977170351 0.002786225372051276 0.013778289598619984
0.07503126302626001 0.0029864194382527316 0.015114535643108948 0.9964521913876183 -0.0365447558753592 0.0006516886400251135 0.007735562536702702 -0.0005589720087828799 -0.004840549724163417
 0.9964521913876183 -0.0365447558753592 0.002989211588391636 0.015114319166330778 -0.0005582133043678903 -0.004840558366199141 0.0006370793263104335 0.007737173133675683
 0.0006516886400251135 0.007735562536702702 -0.0005582133043678903 -0.004840558366199141 0.0029868475623696764 0.015115507649234864 0.9964522164639893 -0.03654375421655704
 -0.0005589720087828799 -0.004840549724163417 0.0006370793263104335 0.007737173133675683 0.9964522164639893 -0.03654375421655704 0.0029888319380345003 0.015115341202208404
0.08128386827845 0.003198265303985406 0.016464459579634275 0.9961726619270048 -0.039661786515571645 0.0007367916989873437 0.008385034702878191 -0.0006301996274395423 -0.005250473655207871
 0.9961726619270048 -0.039661786515571645 0.003201541097535753 0.016464212483773638 -0.0006293118698270626 -0.005250490048815939 0.0007196342568632626 0.008386949747494337
 0.0007367916989873437 0.008385034702878191 -0.0006293118698270626 -0.005250490048815939 0.003198767303279665 0.016465510016786377 0.99617269107371 -0.039660701330897656
 -0.0006301996274395423 -0.005250473655207871 0.0007196342568632626 0.008386949747494337 0.99617269107371 -0.039660701330897656 0.003201095254268613 0.01646532059380922
0.08753647353064001 0.003419912389229388 0.01782716377677665 0.9958801562242044 -0.0427901400147346 0.0008274481594143673 0.009035042160174355 -0.0007060414319758623 -0.005661109902349588
 0.9958801562242044 -0.0427901400147346 0.0034237103761198626 0.017826883733304863 -0.0007050148362314989 -0.0056611355199587725 0.0008075352906339775 0.009037297063681022
 0.0008274481594143673 0.009035042160174355 -0.0007050148362314989 -0.0056611355199587725 0.0034204941232210675 0.017828292050397626 0.9958801897527089 -0.04278897125521534
 -0.0007060414319758623 -0.005661109902349588 0.0008075352906339775 0.009037297063681022 0.9958801897527089 -0.04278897125521534 0.0034231930164119132 0.017828078177697493
0.09378907878283 0.003651538129505853 0.019202504140260385 0.9955745015661792 -0.04592976613432331 0.0009237110294900686 0.009685527322176197 -0.0007865513223049575 -0.006072398088991137
 0.9955745015661792 -0.04592976613432331 0.0036558968651458396 0.01920218873526951 -0.0007853761716013517 -0.006072434486964501 0.0009008348927536899 0.009688159562978861
 0.0009237110294900686 0.009685527322176197 -0.0007853761716013517 -0.006072434486964501 0.0036522054537858274 0.019203709608580564 0.9955745397903822 -0.04592851374452404
 -0.0007865513223049575 -0.006072398088991137 0.0009008348927536899 0.009688159562978861 0.9955745397903822 -0.04592851374452404 0.0036553026634608696 0.019203469799291478
0.100041684035 0.0038933196942599366 0.02059034040498656 0.9952555250689527 -0.04908060582121574 0.0010256327220254575 0.01033643080905158 -0.0008717825462222778 -0.006484276965374141
 0.9952555250689527 -0.04908060582121574 0.0038982777441466917 0.020589987138508428 -0.0008704491915999424 -0.006484325784010232 0.0009995849472377314 0.01033947995717409
 0.0010256327220254575 0.01033643080905158 -0.0008704491915999424 -0.006484325784010232 0.0038940784601233743 0.020591622376587317 0.9952555683048935 -0.04907926974099923
 -0.0008717825462222778 -0.006484276965374141 0.0009995849472377314 0.01033947995717409 0.9952555683048935 -0.04907926974099923 0.0038976013720976887 0.020591355131149378
0.1059090909091 0.004129600234053465 0.02190391977172514 0.9949439293030765 -0.052047473988508196 0.0011264681916487598 0.01094756076341062 -0.0009561038484398358 -0.006871263426991858
 0.9949439293030765 -0.052047473988508196 0.0041351557643605425 0.02190352862523964 -0.0009546133208129056 -0.0068713254677137915 0.0010972542035135636 0.010951039007957594
 0.0011264681916487598 0.01094756076341062 -0.0009546133208129056 -0.0068713254677137915 0.004130450125708834 0.021905272863639757 0.9949439775319309 -0.052046059311144706
 -0.0009561038484398358 -0.006871263426991858 0.0010972542035135636 0.010951039007957594 0.9949439775319309 -0.052046059311144706 0.004134397435981044 0.021904978497316475
0.1062942892872 0.0041454339720645265 0.021990534913824723 0.9949230537507597 -0.052242592389002744 0.0011332650186535338 0.010987691533290593 -0.0009617876734516115 -0.006896684319693944
 0.9949230537507597 -0.052242592389002744 0.004151029916078981 0.021990141199054545 -0.0009602865335529809 -0.006896747283235274 0.0011038367227988904 0.010991199274760825
 0.0011332650186535338 0.010987691533290593 -0.0009602865335529809 -0.006896747283235274 0.004146290026293277 0.021991892650903667 0.9949231023172915 -0.052241172549657384
 -0.0009617876734516115 -0.006896684319693944 0.0011038367227988904 0.010991199274760825 0.9949231023172915 -0.052241172549657384 0.004150266043014502 0.02199159645724763
0.11254689453939999 0.004408057550400345 0.02340295169092157 0.9945769146010229 -0.05541565240604497 0.0012466590344695563 0.011639246765088138 -0.0010566185685620408 -0.0073095569109076965
 0.9945769146010229 -0.05541565240604497 0.0044143299870087775 0.02340251485334525 -0.0010549401295513329 -0.007309635827516046 0.0012136408387457243 0.011643256926197793
 0.0012466590344695563 0.011639246765088138 -0.0010549401295513329 -0.007309635827516046 0.0044090167347622085 0.023404384406714565 0.9945769688197195 -0.05541414873231839
 -0.0010566185685620408 -0.0073095569109076965 0.0012136408387457243 0.011643256926197793 0.9945769688197195 -0.05541414873231839 0.00441347327967466 0.02340405774044942
0.11879949979160001 0.0046813666883886145 0.024827455712095298 0.9942169346446805 -0.058599706387973044 0.0013658651828581168 0.012291032182721375 -0.0011563263627939753 -0.007722830417967603
 0.9942169346446805 -0.058599706387973044 0.004688354239278298 0.02482697298844505 -0.001154461178377063 -0.007722927179718501 0.001329047231470235 0.012295590754079221
 0.0013658651828581168 0.012291032182721375 -0.001154461178377063 -0.007722927179718501 0.004682434839272776 0.024828962567207378 0.9942169948399506 -0.05859811880112604
 -0.0011563263627939753 -0.007722830417967603 0.001329047231470235 0.012295590754079221 0.9942169948399506 -0.05859811880112604 0.004687399361682665 0.024828603891614866
0.1250521050438 0.004965537286674116 0.026263912319798497 0.9938429410039957 -0.06179466934706392 0.0014909331410252159 0.012942981915135255 -0.001260961424969183 -0.008136439398225176
 0.9938429410039957 -0.06179466934706392 0.004973278600899096 0.026263380856968107 -0.001258900116434776 -0.008136555981068898 0.0014501051207510172 0.012948137075647627
 0.0014909331410252159 0.012942981915135255 -0.001258900116434776 -0.008136555981068898 0.004966720234982972 0.026265492428687354 0.9938430075034844 -0.06179299775768769
 -0.001260961424969183 -0.008136439398225176 0.0014501051207510172 0.012948137075647627 0.9938430075034844 -0.06179299775768769 0.004972220214692112 0.02626510019462673
0.131304710296 0.005260744853423487 0.02771218676977335 0.9934547609586685 -0.06500045121128248 0.0016219118153444965 0.013595028574230358 -0.0013705733315939332 -0.0085503172576529
 0.9934547609586685 -0.06500045121128248 0.005269278612082467 0.027711603623506297 -0.0013683065879796048 -0.0085504557213801 0.0015768629764052102 0.013600830714821224
 0.0016219118153444965 0.013595028574230358 -0.0013683065879796048 -0.0085504557213801 0.005262048423942497 0.027713839193427577 0.9934548340934582 -0.06499869552616105
 -0.0013705733315939332 -0.0085503172576529 0.0015768629764052102 0.013600830714821224 0.9934548340934582 -0.06499869552616105 0.005268111376110495 0.027713411839137954
0.1375573155481 0.005491224336637551 0.02898121019805724 0.9931281783731223 -0.06802598101980571 0.0017401396726320051 0.014226760257722808 -0.0014665580071449957 -0.008944025952126648
 0.9931281783731223 -0.06802598101980571 0.005500591133814299 0.02898058426347523 -0.0014640722269152503 -0.008944185953433343 0.001690765734392962 0.0142331913151256
 0.0017401396726320051 0.014226760257722808 -0.0014640722269152503 -0.008944185953433343 0.005492654004471835 0.028982933837154685 0.9931282584416297 -0.06802414120017232
 -0.0014665580071449957 -0.008944025952126648 0.001690765734392962 0.0142331913151256 0.9931282584416297 -0.06802414120017232 0.005499310114086123 0.02898248205169806
0.1438099208003 0.005729485940107966 0.030244795394324505 0.9927906727659301 -0.07104513755581629 0.001863148705715957 0.014856782188778502 -0.0015664017685731396 -0.00933619649829187
 0.9927906727659301 -0.07104513755581629 0.00573972478756896 0.030244124521137235 -0.0015636869643029527 -0.009336380009074366 0.0018092576026391932 0.014863887258620445
 0.001863148705715957 0.014856782188778502 -0.0015636869643029527 -0.009336380009074366 0.005731047458281444 0.030246589263151477 0.9927907600974492 -0.07104321351148708
 -0.0015664017685731396 -0.00933619649829187 0.0018092576026391932 0.014863887258620445 0.9927907600974492 -0.07104321351148708 0.0057383247133385535 0.03024611235992176
0.1500625260525 0.00597546069106128 0.0315028747765821 0.9924423156898937 -0.07405788493645059 0.0019909063446018086 0.015485057591802643 -0.0016700733543932196 -0.009726793658253616
 0.9924423156898937 -0.07405788493645059 0.005986610642734046 0.03150215670393133 -0.0016671195515050054 -0.009727002728436147 0.001932306840866511 0.015492883386106611
 0.0019909063446018086 0.015485057591802643 -0.0016671195515050054 -0.009727002728436147 0.0059771598027586565 0.031504737849297255 0.9924424106160783 -0.0740558765737484
 -0.0016700733543932196 -0.009726793658253616 0.001932306840866511 0.015492883386106611 0.9924424106160783 -0.0740558765737484 0.0059850862453481556 0.03150423509060288
0.15631513130469998 0.006229079294605114 0.03275538305478768 0.9920831788754376 -0.07706418670243696 0.0021233797434277047 0.01611155014695113 -0.0017775412163200098 -0.01011578284978756
