! Created with skrf 1.8.0 (http://scikit-rf.org).
# GHz S RI R 50.0 
!freq ReS11 ImS11 ReS12 ImS12 ReS13 ImS13
! ReS14 ImS14
! ReS21 ImS21 ReS22 ImS22 ReS23 ImS23
! ReS24 ImS24
! ReS31 ImS31 ReS32 ImS32 ReS33 ImS33
! ReS34 ImS34
! ReS41 ImS41 ReS42 ImS42 ReS43 ImS43
! ReS44 ImS44
!
0.0 0.001932707279753 0.0 0.9980672927059 0.0 7.553875325579e-05 0.0 -7.553875357181e-05 9.25082927732978e-21
 0.9980672927059 0.0 0.001932707279735 0.0 -7.553875357171e-05 9.250829277317534e-21 7.553875325495e-05 0.0
 7.553875325579e-05 0.0 -7.553875357171e-05 9.250829277317534e-21 0.001932707286945 0.0 0.9980672927131 0.0
 -7.553875357181e-05 9.25082927732978e-21 7.553875325495e-05 0.0 0.9980672927131 0.0 0.001932707286936 0.0
0.005 0.0020808934577371597 0.0015734136639670442 0.9978795308852421 -0.004047384726905026 0.00010777844740889671 0.0008709141984156002 -0.00010421357300204594 -0.0005396527712923511
 0.9978795308852421 -0.004047384726905026 0.0020809259337825816 0.0015733947421459086 -0.00010421425073088335 -0.0005396533656254974 0.00010756708061134324 0.0008709947558372409
 0.00010777844740889671 0.0008709141984156002 -0.00010421425073088335 -0.0005396533656254974 0.002080892357177981 0.0015733470877859104 0.9978795304910751 -0.004047451779335398
 -0.00010421357300204594 -0.0005396527712923511 0.00010756708061134324 0.0008709947558372409 0.9978795304910751 -0.004047451779335398 0.0020809262511979967 0.0015733272170556846
0.006252605252188 0.0021201769635037946 0.0019729271372957253 0.9978293675723938 -0.005060154965507326 0.00011726194577255013 0.0010890159537321953 -0.00011251871957812453 -0.0006752456513125878
 0.9978293675723938 -0.005060154965507326 0.0021202277297383706 0.00197290313063471 -0.0001125197735936279 -0.0006752463854045276 0.0001169317103498075 0.0010891206845601003
 0.00011726194577255013 0.0010890159537321953 -0.0001125197735936279 -0.0006752463854045276 0.002120175316984694 0.001972843919843921 0.9978293670303113 -0.0050602387879678055
 -0.00011251871957812453 -0.0006752456513125878 0.0001169317103498075 0.0010891206845601003 0.9978293670303113 -0.0050602387879678055 0.0021202283006595967 0.001972818711521674
0.01250521050438 0.0023294109695026167 0.003986780118936552 0.9975600706231597 -0.010120622714929455 0.00017308529684135378 0.0021780312163615 -0.00016076280866492965 -0.001353504707538469
 0.9975600706231597 -0.010120622714929455 0.0023296136832882445 0.003986728546897891 -0.0001607669549978389 -0.0013535060781012236 0.0001717684971474551 0.0021782848725690725
 0.00017308529684135378 0.0021780312163615 -0.0001607669549978389 -0.0013535060781012236 0.0023294049637304966 0.003986614053041334 0.9975600690341622 -0.01012079011030556
 -0.00016076280866492965 -0.001353504707538469 0.0001717684971474551 0.0021782848725690725 0.9975600690341622 -0.01012079011030556 0.0023296165496786113 0.003986559903503405
0.01875781575657 0.0025609526674670517 0.006028718778747608 0.9972590067484153 -0.015193616719235173 0.000243148081451235 0.0032677382815783904 -0.00022043823069839747 -0.002033675774324468
 0.9972590067484153 -0.015193616719235173 0.002561408189433713 0.006028635846555698 -0.00022044746659887016 -0.0020336776638056626 0.00024019030150862445 0.003268195259721333
 0.000243148081451235 0.0032677382815783904 -0.00022044746659887016 -0.0020336776638056626 0.0025609395837877845 0.006028470124831357 0.9972590036009757 -0.015193867608095843
 -0.00022043823069839747 -0.002033675774324468 0.00024019030150862445 0.003268195259721333 0.9972590036009757 -0.015193867608095843 0.0025614150762422543 0.006028383007563883
0.02501042100875 0.00281532358475276 0.008095754279190221 0.9969257632512908 -0.020281478463890945 0.00032759167230285354 0.004358109683564254 -0.00029170424922123333 -0.002715365956727559
 0.9969257632512908 -0.020281478463890945 0.0028161325980986577 0.008095635992665624 -0.0002917205444964631 -0.002715368225492487 0.00032233850562107683 0.004358834314285045
 0.00032759167230285354 0.004358109683564254 -0.0002917205444964631 -0.002715368225492487 0.002815300705536399 0.008095423322879986 0.9969257580346678 -0.020281812802659796
 -0.00029170424922123333 -0.002715365956727559 0.00032233850562107683 0.004358834314285045 0.9969257580346678 -0.020281812802659796 0.002816145241180758 0.008095298955796923
0.03126302626094 0.0030930230372231424 0.010186288833012135 0.9965599100366006 -0.025385137766544844 0.0004265568392044929 0.0054490108662818134 -0.00037471381183977416 -0.003398277934603801
 0.9965599100366006 -0.025385137766544844 0.0030942861156179335 0.010186131005615986 -0.00037473911336324145 -0.003398280420769788 0.0004183533411618391 0.005450077476183728
 0.0004265568392044929 0.0054490108662818134 -0.00037473911336324145 -0.003398280420769788 0.00309298764414992 0.010185875892538639 0.996559902239073 -0.025385555540655396
 -0.00037471381183977416 -0.003398277934603801 0.0004183533411618391 0.005450077476183728 0.996559902239073 -0.025385555540655396 0.0030943062613910414 0.010185709744381578
0.037515631513130004 0.0033945379424252134 0.012299235489078335 0.9961610099633454 -0.030504992963511852 0.0005401820563437536 0.006540263900489734 -0.00046961468462592727 -0.004082146316191595
 0.9961610099633454 -0.030504992963511852 0.0033963556000121435 0.012299033744895901 -0.00046965091875390147 -0.004082148835661555 0.000528372532180604 0.006541756908213728
 0.0005401820563437536 0.006540263900489734 -0.00046965091875390147 -0.004082148835661555 0.003394487318528147 0.012298740926750658 0.9961609990729847 -0.030505494176574555
 -0.00046961468462592727 -0.004082146316191595 0.000528372532180604 0.006541756908213728 0.9961609990729847 -0.030505494176574555 0.0033963850072015 0.012298528219213522
0.043768236765320004 0.003720346569733427 0.01443375030161385 0.995728623139571 -0.035641178700319236 0.0006686026821049378 0.007631666883425735 -0.0005765498071932068 -0.004766718322839268
 0.995728623139571 -0.035641178700319236 0.0037228193038620133 0.014433500075915075 -0.000576598881258596 -0.004766720669349023 0.0006525306197028077 0.0076336809059956824
 0.0006686026821049378 0.007631666883425735 -0.000576598881258596 -0.004766720669349023 0.0037202779971105488 0.014433174529289853 0.9957286086406357 -0.03564176336920043
 -0.0005765498071932068 -0.004766718322839268 0.0006525306197028077 0.0076336809059956824 0.9957286086406357 -0.03564176336920043 0.0037228597403117973 0.014432910236921588
0.050020842017509996 0.004070920233306005 0.0165891216411941 0.9952623091677779 -0.04079367658277549 0.0008119504363360682 0.008723001994129424 -0.0006956573819044965 -0.00545174582974853
 0.9952623091677779 -0.04079367658277549 0.004074148563666179 0.016588818179427308 -0.0006957211851790841 -0.0054517477749474845 0.0007909585157115749 0.008725641956737628
 0.0008119504363360682 0.008723001994129424 -0.0006957211851790841 -0.0054517477749474845 0.004070830994808729 0.016588465117295212 0.9952622905407178 -0.0407943447411432
 -0.0006956573819044965 -0.00545174582974853 0.0007909585157115749 0.008725641956737628 0.9952622905407178 -0.0407943447411432 0.004074201807474207 0.016588143965638572
0.055454545454549996 0.004396053037357226 0.018478649243149448 0.9948291738064272 -0.045284511706100504 0.0009487459152947802 0.009671171949267162 -0.000809154741307157 -0.006047233351660334
 0.9948291738064272 -0.045284511706100504 0.004400019683224131 0.018478295507166516 -0.000809232865508686 -0.00604723474557246 0.0009229440800217623 0.009674449173978875
 0.0009487459152947802 0.009671171949267162 -0.000809232865508686 -0.00604723474557246 0.004395943635554742 0.018477922957713618 0.9948291511682205 -0.0452852524547129
 -0.000809154741307157 -0.006047233351660334 0.0009229440800217623 0.009674449173978875 0.9948291511682205 -0.0452852524547129 0.004400085510362017 0.01847754791424841
0.056273447269699996 0.0044467241119068865 0.01876471589584836 0.9947616285236172 -0.04596236944644657 0.00097035301680547 0.009814039452180685 -0.0008270708358631938 -0.006136981515606584
 0.9947616285236172 -0.04596236944644657 0.00445080861766316 0.018764354251255527 -0.000827151240203468 -0.006136982809148301 0.0009437831678389439 0.009817420698877564
 0.00097035301680547 0.009814039452180685 -0.000827151240203468 -0.006136982809148301 0.004446611493511938 0.018763979129893193 0.9947616052463422 -0.045963121140965034
 -0.0008270708358631938 -0.006136981515606584 0.0009437831678389439 0.009817420698877564 0.9947616052463422 -0.045963121140965034 0.004450876458842128 0.018763595592122817
0.06252605252188 0.004848217641410069 0.020959947634737314 0.9942261435142778 -0.051147071175572614 0.001143933778726605 0.010904539748231232 -0.0009709187267547967 -0.006822176753618431
 0.9942261435142778 -0.051147071175572614 0.004853258997438 0.020959522664296088 -0.0009710175871650628 -0.00682217712322728 0.0011111272694209636 0.01090878815202877
 0.001143933778726605 0.010904539748231232 -0.0009710175871650628 -0.00682217712322728 0.004848078932163383 0.02095913118879126 0.9942261150600922 -0.05114790646483361
 -0.0009709187267547967 -0.006822176753618431 0.0011111272694209636 0.01090878815202877 0.9942261150600922 -0.05114790646483361 0.004853343236464569 0.020958679481016502
0.06877865777407 0.005275854665671397 0.023174261839044606 0.9936554190012024 -0.05634754446819235 0.0013328114550668064 0.011994254982305934 -0.0011273246099804768 -0.00750708040850018
 0.9936554190012024 -0.05634754446819235 0.005281953678068458 0.02317376819813633 -0.0011274437649115901 -0.007507079560049496 0.001293109003570439 0.011999507053987337
 0.0013328114550668064 0.011994254982305934 -0.0011274437649115901 -0.007507079560049496 0.005275687158655849 0.023173366330551382 0.993655384838343 -0.05634846342038128
 -0.0011273246099804768 -0.00750708040850018 0.001293109003570439 0.011999507053987337 0.993655384838343 -0.05634846342038128 0.005282056126318063 0.023172840405592744
0.07503126302626001 0.005730083449182232 0.025407122660047226 0.9930490229907569 -0.06156351208922914 0.0015370998987904077 0.013082929753418838 -0.0012964068860967593 -0.00819143809645005
 0.9930490229907569 -0.06156351208922914 0.005737341091045442 0.025406554795582487 -0.001296548157802983 -0.00819143571404295 0.0014898418025238442 0.013089332748420624
 0.0015370998987904077 0.013082929753418838 -0.001296548157802983 -0.00819143571404295 0.005729884442798175 0.02540614875480115 0.9930489825818813 -0.06156451478974766
 -0.0012964068860967593 -0.00819143809645005 0.0014898418025238442 0.013089332748420624 0.9930489825818813 -0.06156451478974766 0.005737463570412351 0.025405542294468772
0.08128386827845 0.006211346599926057 0.02765800594989376 0.9924065271398504 -0.0667946643667572 0.0017569078395699165 0.014170301783614293 -0.001478278635344495 -0.008874991725373113
 0.9924065271398504 -0.0667946643667572 0.006219864046030149 0.027657358091942107 -0.0014784438299807843 -0.00887498747141679 0.0017014341178396097 0.014178013806600097
 0.0017569078395699165 0.014170301783614293 -0.0014784438299807843 -0.00887498747141679 0.006211113398803921 0.027656954371439283 0.9924064799414479 -0.06679575090910962
 -0.001478278635344495 -0.008874991725373113 0.0017014341178396097 0.014178013806600097 0.9924064799414479 -0.06679575090910962 0.006220008389668342 0.027656260777424637
0.08753647353064001 0.006720080931753628 0.029926394132405807 0.9917275072065975 -0.0720406643648647 0.0019923386521952095 0.015256102375270957 -0.0016730474411748401 -0.009557479216849855
 0.9917275072065975 -0.0720406643648647 0.006729959594489749 0.02992566028422837 -0.0016732383491540733 -0.009557472732112774 0.0019279892006548076 0.01526529248209082
 0.0019923386521952095 0.015256102375270957 -0.0016732383491540733 -0.009557472732112774 0.006719810849093219 0.029925265657419008 0.9917274526688206 -0.07204183485561955
 -0.0016730474411748401 -0.009557479216849855 0.0019279892006548076 0.01526529248209082 0.9917274526688206 -0.07204183485561955 0.006730127646355345 0.029924478040643673
0.09378907878283 0.007256717289380657 0.03221177254827933 0.9910115434667014 -0.07730115159931923 0.0022434901301267305 0.01634005677445439 -0.0018808152106746094 -0.010238634337381449
 0.9910115434667014 -0.07730115159931923 0.007268058853778582 0.03221094647486448 -0.0018810336066177446 -0.010238625241065133 0.0021696048850528707 0.016350905071179433
 0.0022434901301267305 0.01634005677445439 -0.0018810336066177446 -0.010238625241065133 0.007256407646567901 0.0322105680100213 0.9910114810319849 -0.07730240615507478
 -0.0018808152106746094 -0.010238634337381449 0.0021696048850528707 0.016350905071179433 0.9910114810319849 -0.07730240615507478 0.007268252468432723 0.03220967917833653
0.100041684035 0.007821680340652726 0.03451362680596352 0.9902582211017813 -0.08257574476545594 0.0025104542667189096 0.017421884473259475 -0.0021016779892739637 -0.010918186606147705
 0.9902582211017813 -0.08257574476545594 0.007834586799362766 0.034512702020908614 -0.0021019256322078613 -0.010918174495970717 0.002426373377019457 0.01743458221207702
 0.0025104542667189096 0.017421884473259475 -0.0021019256322078613 -0.010918174495970717 0.007821328469847866 0.03451234709301168 0.9902581502050704 -0.08257708351430677
 -0.0021016779892739637 -0.010918186606147705 0.002426373377019457 0.01743458221207702 0.9902581502050704 -0.08257708351430677 0.007834807842547288 0.03451134953744449
0.1059090909091 0.008377973732618038 0.03668819777836476 0.9895169658176193 -0.08753786407131015 0.00277542990146269 0.018434876113218073 -0.0023209242986112796 -0.011554171863934504
 0.9895169658176193 -0.08753786407131015 0.00839244174554128 0.036687174226634534 -0.0023212009727270498 -0.011554156540587472 0.0026811817013551865 0.01844949330920285
 0.00277542990146269 0.018434876113218073 -0.0023212009727270498 -0.011554156540587472 0.008377579819300119 0.03668684837979063 0.9895168864586968 -0.08753928195291617
 -0.0023209242986112796 -0.011554171863934504 0.0026811817013551865 0.01844949330920285 0.9895168864586968 -0.08753928195291617 0.008392690233932704 0.03668574167316989
0.1062942892872 0.008415388349325587 0.03683144081217787 0.9894671305707259 -0.08786404380460418 0.0027933170396374878 0.018501299463599213 -0.0023357257740178245 -0.011595861267158065
 0.9894671305707259 -0.08786404380460418 0.008429962038628705 0.036830410562841816 -0.0023360044074460253 -0.01159584571938699 0.0026983810474242114 0.0185160491352892
 0.0027933170396374878 0.018501299463599213 -0.0023360044074460253 -0.01159584571938699 0.008414991594465706 0.036830086869340535 0.989467050638555 -0.08786546688539083
 -0.0023357257740178245 -0.011595861267158065 0.0026983810474242114 0.0185160491352892 0.989467050638555 -0.08786546688539083 0.008430212387 0.03682897274852463
0.11254689453939999 0.009038252932621633 0.039164695289719734 0.9886378679683937 -0.09316563150179953 0.003092158200102608 0.01957801047266382 -0.0025830423255812007 -0.01227137929557241
 0.9886378679683937 -0.09316563150179953 0.009054596567477535 0.03916355254075579 -0.002583353677449027 -0.012271359865085174 0.002985708227343393 0.019595025895540786
 0.003092158200102608 0.01957801047266382 -0.002583353677449027 -0.012271359865085174 0.009037808649976947 0.039163268115749876 0.988637778417574 -0.09316713906662301
 -0.0025830423255812007 -0.01227137929557241 0.002985708227343393 0.019595025895540786 0.988637778417574 -0.09316713906662301 0.009054878108168454 0.03916202923876758
0.11879949979160001 0.009690678804803166 0.04151286664435362 0.9877700353712838 -0.09848007475340828 0.0034070510659033305 0.0206517211772954 -0.0028437049795995545 -0.012944457441224055
 0.9877700353712838 -0.09848007475340828 0.00970889551425852 0.041511604059468146 -0.0028440507624240934 -0.012944433661604372 0.0032884290073633363 0.02067122758237978
 0.0034070510659033305 0.0206517211772954 -0.0028440507624240934 -0.012944433661604372 0.009690184365753994 0.041511367298968566 0.9877699356099695 -0.09848166696066904
 -0.0028437049795995545 -0.012944457441224055 0.0032884290073633363 0.02067122758237978 0.9877699356099695 -0.09848166696066904 0.009709210145663037 0.041509995106600875
0.1250521050438 0.010373063513983746 0.04387542610569589 0.986863241179194 -0.10380692558022153 0.0037380623172999917 0.021722130408284187 -0.0031177844589963446 -0.013614808298385333
 0.986863241179194 -0.10380692558022153 0.010393256876465508 0.043874036027583954 -0.003118166369878529 -0.013614779681924215 0.0036066110396129414 0.021744364520488876
 0.0037380623172999917 0.021722130408284187 -0.003118166369878529 -0.013614779681924215 0.010372516305199794 0.0438738557006937 0.9868631306044612 -0.10380860260349427
 -0.0031177844589963446 -0.013614808298385333 0.0036066110396129414 0.021744364520488876 0.9868631306044612 -0.10380860260349427 0.010393606507470779 0.043872341244665415
0.131304710296 0.011085797170351776 0.04625183905170559 0.9859171004468268 -0.10914572197616765 0.004085251797155837 0.022788932352151934 -0.0034053446871350037 -0.01428214039430911
 0.9859171004468268 -0.10914572197616765 0.011108071249017932 0.04625031348027578 -0.0034057644077205417 -0.014282106432098053 0.003940315342923327 0.022814142467409922
 0.004085251797155837 0.022788932352151934 -0.0034057644077205417 -0.014282106432098053 0.01108519459585163 0.04625019875968557 0.9859169784452532 -0.1091474839955162
 -0.0034053446871350037 -0.01428214039430911 0.003940315342923327 0.022814142467409922 0.9859169784452532 -0.1091474839955162 0.011108457799277155 0.04624853268033214
0.1375573155481 0.01168012395418837 0.048331422989927514 0.9850804595522202 -0.11418563101723976 0.004410023341454679 0.02382255225336242 -0.0036679658445440103 -0.014916795956512387
 0.9850804595522202 -0.11418563101723976 0.011704591135413825 0.048329785951889914 -0.0036684260975537947 -0.014916756529215609 0.0042512751172109385 0.02385073356288938
 0.004410023341454679 0.02382255225336242 -0.0036684260975537947 -0.014916756529215609 0.011679464387659075 0.04832971339978339 0.9850803255967796 -0.11418747809955887
 -0.0036679658445440103 -0.014916795956512387 0.0042512751172109385 0.02385073356288938 0.9850803255967796 -0.11418747809955887 0.011705015396976503 0.04832791933447753
0.1438099208003 0.012295693210421206 0.05039714787570354 0.9842136069148221 -0.11920983366702313 0.004747812045091288 0.02485007396297011 -0.003940946435903554 -0.015545960926259388
 0.9842136069148221 -0.11920983366702313 0.012322459418559504 0.050395392836298174 -0.003941449067570948 -0.015545915517008579 0.00457465699860536 0.02488145656021701
 0.004747812045091288 0.02485007396297011 -0.003941449067570948 -0.015545915517008579 0.012294974253349376 0.050395370134267786 0.9842134603950677 -0.1192117659797257
 -0.003940946435903554 -0.015545960926259388 0.00457465699860536 0.02488145656021701 0.9842134603950677 -0.1192117659797257 0.012322923121834417 0.05039344026129964
0.1500625260525 0.012932238540532973 0.05244875642874475 0.9833168144430754 -0.12421811827170856 0.005098468852748974 0.025871330940914962 -0.004224143604783535 -0.016169483970028566
 0.9833168144430754 -0.12421811827170856 0.012961410184949082 0.052446876337955056 -0.0042246904586762946 -0.01616943204028331 0.004910316804077057 0.02590615329356135
 0.005098468852748974 0.025871330940914962 -0.0042246904586762946 -0.01616943204028331 0.012931457821576783 0.052446911725054134 0.9833166547399331 -0.12422013598736933
 -0.004224143604783535 -0.016169483970028566 0.004910316804077057 0.02590615329356135 0.9833166547399331 -0.12422013598736933 0.012961915057756887 0.05244483766011919
0.15631513130469998 0.013589491061182651 0.05448599919214343 0.982390356084438 -0.12921027605023117 0.005461842591377863 0.026886160269230422 -0.00451741242781311 -0.016787217666758104
 0.982390356084438 -0.12921027605023117 0.01362117504794619 0.05448398646136215 -0.004518005345044579 -0.016787158656298144 0.0052581083241053945 0.026924669108431953
