! Created with skrf 1.8.0 (http://scikit-rf.org).
# GHz S RI R 50.0 
!freq ReS11 ImS11 ReS12 ImS12 ReS13 ImS13
! ReS14 ImS14
! ReS21 ImS21 ReS22 ImS22 ReS23 ImS23
! ReS24 ImS24
! ReS31 ImS31 ReS32 ImS32 ReS33 ImS33
! ReS34 ImS34
! ReS41 ImS41 ReS42 ImS42 ReS43 ImS43
! ReS44 ImS44
!
0.0 0.001256834239442 0.0 0.9987431657503 0.0 4.789333710291e-05 0.0 -4.789333675305e-05 5.8652421555108974e-21
 0.9987431657503 0.0 0.00125683423943 0.0 -4.789333675288e-05 5.8652421554900785e-21 4.789333710237e-05 0.0
 4.789333710291e-05 0.0 -4.789333675288e-05 5.8652421554900785e-21 0.001256834243159 0.0 0.998743165754 0.0
 -4.789333675305e-05 5.8652421555108974e-21 4.789333710237e-05 0.0 0.998743165754 0.0 0.001256834243156 0.0
0.005 0.0013515275031293923 0.0010306406732821262 0.9986234703064778 -0.0026334521883972866 6.647518641771127e-05 0.0005161987301815654 -6.463591580580143e-05 -0.0003261463723935385
 0.9986234703064778 -0.0026334521883972866 0.0013515529354958767 0.0010306258898935205 -6.463774655404078e-05 -0.0003261478020512239 6.631221443856804e-05 0.000516260660102363
 6.647518641771127e-05 0.0005161987301815654 -6.463774655404078e-05 -0.0003261478020512239 0.0013515261061946692 0.0010305742676230954 0.9986234699683353 -0.002633519247247852
 -6.463591580580143e-05 -0.0003261463723935385 6.631221443856804e-05 0.000516260660102363 0.9986234699683353 -0.002633519247247852 0.001351553661671169 0.0010305581826448825
0.006252605252188 0.0013761574445822237 0.0012923745836445 0.9985921704603762 -0.003292489859306919 7.168796973465422e-05 0.0006455153375944943 -6.9268644664179e-05 -0.0004081134896745814
 0.9985921704603762 -0.003292489859306919 0.0013761971993147928 0.0012923557953142713 -6.927149332573077e-05 -0.00040811525357339976 7.143333683569229e-05 0.0006455956904751254
 7.168796973465422e-05 0.0006455153375944943 -6.927149332573077e-05 -0.00040811525357339976 0.0013761553455139547 0.0012922915904367445 0.9985921700167205 -0.0032925736749624917
 -6.9268644664179e-05 -0.0004081134896745814 7.143333683569229e-05 0.0006455956904751254 0.9985921700167205 -0.0032925736749624917 0.001376198419734088 0.0012922711678987843
0.01250521050438 0.0015046203261219002 0.0026120504466909246 0.998427978003687 -0.006585953424722968 0.00010107417259666385 0.0012914768902789458 -9.504782188488071e-05 -0.0008183195736027149
 0.998427978003687 -0.006585953424722968 0.0015047790566317905 0.0026120097671456103 -9.505904688744302e-05 -0.0008183228510656945 0.00010005865964933924 0.001291668931519143
 0.00010107417259666385 0.0012914768902789458 -9.505904688744302e-05 -0.0008183228510656945 0.0015046124886542748 0.0026118847678498714 0.9984279767794004 -0.00658612083165121
 -9.504782188488071e-05 -0.0008183195736027149 0.00010005865964933924 0.001291668931519143 0.9984279767794004 -0.00658612083165121 0.0015047844841838288 0.002611840731688256
0.01875781575657 0.0016424613030461515 0.003950794498720198 0.9982504145996047 -0.009888446463439953 0.00013611236407204318 0.0019383271317126314 -0.0001253009675169337 -0.0012300685059321353
 0.9982504145996047 -0.009888446463439953 0.0016428179555311915 0.003950728634462253 -0.00012532599860931178 -0.001230073007209852 0.00013383088972843395 0.0019386674404198744
 0.00013611236407204318 0.0019383271317126314 -0.00012532599860931178 -0.001230073007209852 0.0016424441015106613 0.0039505463623858705 0.9982504122629503 -0.009888697380669182
 -0.0001253009675169337 -0.0012300685059321353 0.00013383088972843395 0.0019386674404198744 0.9982504122629503 -0.009888697380669182 0.0016428305808543946 0.0039504752814514005
0.02501042100875 0.0017899138762136923 0.005306780599977038 0.9980593008460613 -0.013201611958480491 0.0001768644649608065 0.002586113946367691 -0.00016009659051184684 -0.0016432021267761008
 0.9980593008460613 -0.013201611958480491 0.001790547220843728 0.005306686093807468 -0.0001601407929652776 -0.0016432075170798354 0.00017281157202952342 0.002586644118787814
 0.0001768644649608065 0.002586113946367691 -0.0001601407929652776 -0.0016432075170798354 0.0017898836919811936 0.0053064502454343715 0.9980592970673828 -0.01320194635663614
 -0.00016009659051184684 -0.0016432021267761008 0.00017281157202952342 0.002586644118787814 0.9980592970673828 -0.01320194635663614 0.0017905700406477276 0.00530634847826076
0.03126302626094 0.0019472016029184712 0.006679090604477029 0.9978544467750846 -0.016526179045474886 0.00022339325101638312 0.003234827868068904 -0.00019950167444826155 -0.0020576164927159097
 0.9978544467750846 -0.016526179045474886 0.001948190273807839 0.00667896384121786 -0.00019957036041332783 -0.002057622391472378 0.0002170626121164524 0.003235594543750768
 0.00022339325101638312 0.003234827868068904 -0.00019957036041332783 -0.002057622391472378 0.0019471548160380579 0.006678678306098145 0.997854441219216 -0.016526596923043157
 -0.00019950167444826155 -0.0020576164927159097 0.0002170626121164524 0.003235594543750768 0.997854441219216 -0.016526596923043157 0.0019482262850296268 0.006678542006675209
0.037515631513130004 0.0021145433842374656 0.008067142262539177 0.9976356572358617 -0.019862535063112165 0.00027576167312336647 0.0038844371077968814 -0.00024358216184142215 -0.0024732268261900936
 0.9976356572358617 -0.019862535063112165 0.0021159659049206367 0.00806697947235674 -0.0002436805961862153 -0.0024732328067990183 0.0002666458545535482 0.003885492021355484
 0.00027576167312336647 0.0038844371077968814 -0.0002436805961862153 -0.0024732328067990183 0.002114476379007054 0.008066648333089009 0.997635649567306 -0.019863036443553694
 -0.00024358216184142215 -0.0024732268261900936 0.0002666458545535482 0.003885492021355484 0.997635649567306 -0.019863036443553694 0.002116018111704669 0.008066473453783038
0.043768236765320004 0.0022921555147571307 0.009470515093608358 0.9974027340433124 -0.023210899626607807 0.00033403254931929855 0.004534898206733496 -0.0002924031383400106 -0.0028899568471695263
 0.9974027340433124 -0.023210899626607807 0.002294090317381721 0.009470312354439629 -0.00029253654218402747 -0.0028899624369084177 0.0003216228848036202 0.00453629824763319
 0.00033403254931929855 0.004534898206733496 -0.00029253654218402747 -0.0028899624369084177 0.0022920646778332283 0.009469939896575474 0.997402723924113 -0.023211484546613387
 -0.0002924031383400106 -0.0028899568471695263 0.0003216228848036202 0.00453629824763319 0.997402723924113 -0.023211484546613387 0.0022941617297789546 0.00946972218996515
0.050020842017509996 0.002480252646056075 0.010888878447619597 0.9971554770446448 -0.02657139651066165 0.00039826838967149626 0.005186160426716752 -0.00034602890839081175 -0.003307734369891832
 0.9971554770446448 -0.02657139651066165 0.0024827780877278768 0.010888631687059445 -0.00034620246143549305 -0.0033077390498752824 0.0003820549121241989 0.005187967702460688
 0.00039826838967149626 0.005186160426716752 -0.00034620246143549305 -0.0033077390498752824 0.00248013436735549 0.010888222386587496 0.997155464134563 -0.026572065031227776
 -0.00034602890839081175 -0.003307734369891832 0.0003820549121241989 0.005187967702460688 0.997155464134563 -0.026572065031227776 0.002482871722983986 0.010887957406737944
0.055454545454549996 0.0026523957045647404 0.012133437867073934 0.9969288059407572 -0.02950167327999166 0.0004589837913850221 0.005752734358907676 -0.0003965827838169804 -0.003671591804514313
 0.9969288059407572 -0.02950167327999166 0.0026554980176881587 0.012133149427680505 -0.0003967954033329117 -0.0036715952366257174 0.00043904949372389424 0.005754950074361474
 0.0004589837913850221 0.005752734358907676 -0.0003967954033329117 -0.0036715952366257174 0.002652250647421892 0.012132711904970978 0.9969287903251262 -0.029502414507593288
 -0.0003965827838169804 -0.003671591804514313 0.00043904949372389424 0.005754950074361474 0.9969287903251262 -0.029502414507593288 0.0026556134197740474 0.012132402079029258
0.056273447269699996 0.0026790482915392136 0.012321956172210151 0.9968936847291963 -0.029944088925909714 0.00046853127831445184 0.005838167907213885 -0.00040452302397904195 -0.0037264891347366298
 0.9968936847291963 -0.029944088925909714 0.002682242668862443 0.012321661169030442 -0.00040474186611344937 -0.0037264923398975134 0.0004480026864520045 0.005840449808250293
 0.00046853127831445184 0.005838167907213885 -0.00040474186611344937 -0.0037264923398975134 0.0026788989625760816 0.012321219707823404 0.996893668683233 -0.029944841116028232
 -0.00040452302397904195 -0.0037264891347366298 0.0004480026864520045 0.005840449808250293 0.996893668683233 -0.029944841116028232 0.0026823615497008338 0.012320902811087546
0.06252605252188 0.0028887551087940708 0.013769507208430022 0.9966171546184616 -0.03332899886752441 0.0005448827860248714 0.00649086084317384 -0.0004679482876281443 -0.0041461516207797105
 0.9966171546184616 -0.03332899886752441 0.0028926966715145954 0.013769159593711968 -0.0004682175200857005 -0.004146152739856305 0.0005195264337411614 0.006493690108695029
 0.0005448827860248714 0.00649086084317384 -0.0004682175200857005 -0.004146152739856305 0.0028885711259220644 0.01376869084447644 0.9966171350891379 -0.03332983481853986
 -0.0004679482876281443 -0.0041461516207797105 0.0005195264337411614 0.006493690108695029 0.9966171350891379 -0.03332983481853986 0.0028928438293395115 0.013768317190103047
0.06877865777407 0.003109585064056357 0.015231314008221782 0.9963256835397366 -0.03672611864287678 0.0006273838980404607 0.007144176188894599 -0.0005363667425171673 -0.004566652333866568
 0.9963256835397366 -0.03672611864287678 0.0031143520275757233 0.015230909266299535 -0.0005366914286496543 -0.004566650709418227 0.0005966857995538153 0.0071476309731072635
 0.0006273838980404607 0.007144176188894599 -0.0005366914286496543 -0.004566650709418227 0.0031093628268813018 0.015230418301437924 0.996325660174798 -0.03672703845930783
 -0.0005363667425171673 -0.004566652333866568 0.0005966857995538153 0.0071476309731072635 0.996325660174798 -0.03672703845930783 0.0031145305011200243 0.015229982851658616
0.07503126302626001 0.003341749522572469 0.016707175186885234 0.9960190678292783 -0.04013541816548503 0.0007160949520019962 0.007798048100710362 -0.0006098396531418237 -0.00498792135752373
 0.9960190678292783 -0.04013541816548503 0.0033474200809867553 0.01670670865586281 -0.0006102248191056098 -0.0049879162859306275 0.0006795397989952281 0.0078022120392813085
 0.0007160949520019962 0.007798048100710362 -0.0006102248191056098 -0.0049879162859306275 0.003341485435968376 0.016706200746661556 0.996019040272557 -0.04013642196579289
 -0.0006098396531418237 -0.00498792135752373 0.0006795397989952281 0.0078022120392813085 0.996019040272557 -0.04013642196579289 0.0033476329175190266 0.016705698266642675
0.08128386827845 0.003585459297316331 0.018196900649572644 0.9956971034946464 -0.043556849776398565 0.0008110755818459532 0.008452408230569194 -0.0006884274806982191 -0.0054098880546244454
 0.9956971034946464 -0.043556849776398565 0.00359211163521089 0.018196367521654856 -0.0006888781158263023 -0.005409878786106399 0.0007681467693771668 0.008457370507100452
 0.0008110755818459532 0.008452408230569194 -0.0006888781158263023 -0.005409878786106399 0.0035851497710797896 0.018195848135694956 0.9956970713847237 -0.043557937695763965
 -0.0006884274806982191 -0.0054098880546244454 0.0007681467693771668 0.008457370507100452 0.9956970713847237 -0.043557937695763965 0.0035923618904916007 0.018195273193112087
0.08753647353064001 0.003840924666805128 0.019700308197573478 0.9953595863487666 -0.04699035158744491 0.0009123846649858198 0.009107185931808544 -0.0007721898547216518 -0.0058324808586336365
 0.9953595863487666 -0.04699035158744491 0.003848636971729296 0.01969970351902763 -0.0007727109118691363 -0.0058324665972662145 0.0008625643247530239 0.00911304134416521
 0.0009123846649858198 0.009107185931808544 -0.0007727109118691363 -0.0058324665972662145 0.003840566116645111 0.019699178325413097 0.9953595493189384 -0.04699152377306263
 -0.0007721898547216518 -0.0058324808586336365 0.0008625643247530239 0.00911304134416521 0.9953595493189384 -0.04699152377306263 0.003848927710294744 0.019698525289765446
0.09378907878283 0.004108355373769896 0.021217221122936045 0.9950063121272502 -0.05043584983790155 0.0010200802727729948 0.009762308402506206 -0.0008611855412709689 -0.006255627129059246
 0.9950063121272502 -0.05043584983790155 0.004117205848179301 0.02121653979378794 -0.0008617819370010293 -0.0062556070327975674 0.0009628493122445986 0.00976915742893614
 0.0010200802727729948 0.009762308402506206 -0.0008617819370010293 -0.0062556070327975674 0.0041079442216192105 0.021216014659340917 0.9950062698047025 -0.050437106453585165
 -0.0008611855412709689 -0.006255627129059246 0.0009628493122445986 0.00976915742893614 0.9950062698047025 -0.050437106453585165 0.004117540143593013 0.02121527770090023
0.100041684035 0.004387960608345881 0.022747466429010207 0.994637076591851 -0.05389326062712834 0.0011342196220454823 0.010417700793660124 -0.0009554724094303065 -0.006679253043967011
 0.994637076591851 -0.05389326062712834 0.0043980274819776614 0.022746703202403882 -0.0009561490241834691 -0.006679226224677535 0.0010690577685845669 0.010425649658590828
 0.0011342196220454823 0.010417700793660124 -0.0009561490241834691 -0.006679226224677535 0.004387493283747308 0.022746184193214423 0.9946370285975261 -0.0538946018528895
 -0.0009554724094303065 -0.006679253043967011 0.0010690577685845669 0.010425649658590828 0.9946370285975261 -0.0538946018528895 0.0043984084174653075 0.022745357281701097
0.1059090909091 0.004661598901868138 0.02419541298516963 0.9942758897393832 -0.05714842576377531 0.0012472379840234805 0.011032894129007936 -0.0010488136373196263 -0.007077150400957653
 0.9942758897393832 -0.05714842576377531 0.004672878420965728 0.024194568002853998 -0.001049569935665082 -0.007077116424038064 0.0011741596378528993 0.011041976861742497
 0.0012472379840234805 0.011032894129007936 -0.001049569935665082 -0.007077116424038064 0.004661075625003028 0.024194060440844867 0.9942758360721835 -0.05714984656168251
 -0.0010488136373196263 -0.007077150400957653 0.0011741596378528993 0.011041976861742497 0.9942758360721835 -0.05714984656168251 0.004673305936111494 0.024193143453356315
0.1062942892872 0.0046799489825388235 0.024290873494708667 0.994251675626751 -0.05736249120567198 0.0012548590280853048 0.011073286289695942 -0.0010551073959115412 -0.007103283522077393
 0.994251675626751 -0.05736249120567198 0.00469131052433112 0.02429002297594599 -0.001055869074033838 -0.007103249045562888 0.001181244877353789 0.011082447029129116
 0.0012548590280853048 0.011073286289695942 -0.001055869074033838 -0.007103249045562888 0.004679421922716993 0.02428951636292363 0.99425162157504 -0.05736391723347529
 -0.0010551073959115412 -0.007103283522077393 0.001181244877353789 0.011082447029129116 0.99425162157504 -0.05736391723347529 0.004691741192815728 0.024288593265872165
0.11254689453939999 0.00498452849492227 0.02584727305108461 0.9938499053286295 -0.060843440955806107 0.001382053858157685 0.011728986173466214 -0.0011601464683227243 -0.007527642162352744
 0.9938499053286295 -0.060843440955806107 0.004997263025484888 0.025846329696343626 -0.001160998018102464 -0.007527599048397655 0.0012994649264176832 0.011739476699951835
 0.001382053858157685 0.011728986173466214 -0.001160998018102464 -0.007527599048397655 0.0049839381459144206 0.025845841953900797 0.9938498448264838 -0.06084495199270075
 -0.0011601464683227243 -0.007527642162352744 0.0012994649264176832 0.011739476699951835 0.9938498448264838 -0.06084495199270075 0.0049977465299799045 0.02584481623467503
0.11879949979160001 0.005301906489772874 0.027416496386894185 0.9934315620914594 -0.06433600214577788 0.0015158584856752848 0.012384719875776938 -0.0012706445872914345 -0.007952251201070135
 0.9934315620914594 -0.06433600214577788 0.005316092393606033 0.027415454501542147 -0.001271590780919696 -0.007952198423477417 0.0014237712654086424 0.01239666404285385
 0.0015158584856752848 0.012384719875776938 -0.001271590780919696 -0.007952198423477417 0.005301249307076705 0.02741499230830445 0.9934314947382729 -0.06433759841511419
 -0.0012706445872914345 -0.007952251201070135 0.0014237712654086424 0.01239666404285385 0.9934314947382729 -0.06433759841511419 0.005316631847542005 0.027413857323720578
0.1250521050438 0.005632289611495083 0.02899837470837452 0.9929964426892347 -0.06784006053160128 0.0016563262446327933 0.013040405017514502 -0.0013866556676337461 -0.00837703147842155
 0.9929964426892347 -0.06784006053160128 0.005648005349498358 0.028997228445028785 -0.0013877012411344129 -0.008376967965064397 0.0015542162632788653 0.013053932683591408
 0.0016563262446327933 0.013040405017514502 -0.0013877012411344129 -0.008376967965064397 0.005631562060778685 0.028996798690303815 0.9929963680760532 -0.06784174226902892
 -0.0013866556676337461 -0.00837703147842155 0.0015542162632788653 0.013053932683591408 0.9929963680760532 -0.06784174226902892 0.00564860387687549 0.028995547587990177
0.131304710296 0.0059758837540749765 0.03059273863626446 0.9925443443557072 -0.0713554958244156 0.001803509384147993 0.013695957445619288 -0.0015082325387532078 -0.008801902413369323
 0.9925443443557072 -0.0713554958244156 0.005993207876179417 0.03059148199237854 -0.0015093821918973195 -0.008801827046242192 0.0016908512657564543 0.013711204537225106
 0.001803509384147993 0.013695957445619288 -0.0015093821918973195 -0.008801827046242192 0.005975082312180395 0.030591091774565607 0.9925442620649204 -0.07135726328210353
 -0.0015082325387532078 -0.008801902413369323 0.0016908512657564543 0.013711204537225106 0.9925442620649204 -0.07135726328210353 0.005993868611935518 0.030589717489928493
0.1375573155481 0.006247361617498891 0.031991474373194564 0.9921606168036846 -0.07467418996074833 0.0019375420876295605 0.014330056261646311 -0.0016156429393138084 -0.009205463390989065
 0.9921606168036846 -0.07467418996074833 0.006266379754781549 0.03199013077803599 -0.001616903641364125 -0.00920537625766036 0.0018140752171163137 0.01434698388391876
 0.0019375420876295605 0.014330056261646311 -0.001616903641364125 -0.00920537625766036 0.0062464832889197585 0.03198975761059747 0.9921605264866064 -0.07467604328416647
 -0.0016156429393138084 -0.009205463390989065 0.0018140752171163137 0.01434698388391876 0.9921605264866064 -0.07467604328416647 0.006267105187281001 0.03198828265828889
0.1438099208003 0.006528150704660368 0.033383926069098645 0.9917638200898916 -0.07798555931958089 0.002077003304969166 0.014962142317483886 -0.0017273577625820085 -0.009607232243434655
 0.9917638200898916 -0.07798555931958089 0.006548942654366408 0.03338249145948224 -0.0017287345702383069 -0.00960713226131942 0.001942248987219108 0.014980873089538653
 0.002077003304969166 0.014962142317483886 -0.0017287345702383069 -0.00960713226131942 0.006527192077741722 0.0333821405340321 0.9917637213305595 -0.07798749875655202
 -0.0017273577625820085 -0.009607232243434655 0.001942248987219108 0.014980873089538653 0.9917637213305595 -0.07798749875655202 0.00654973581698599 0.033380559772917644
0.1500625260525 0.006818165238797269 0.03477000955062829 0.9913540428988491 -0.08128955421331248 0.002221853292837997 0.01559216943899466 -0.0018433393856291923 -0.010007166547587822
 0.9913540428988491 -0.08128955421331248 0.0068408109366058225 0.03476847962810702 -0.0018448373483060498 -0.010007052590912344 0.002075335060416822 0.01561283041884597
 0.002221853292837997 0.01559216943899466 -0.0018448373483060498 -0.010007052590912344 0.006817122918592095 0.034768156417685346 0.9913539352736501 -0.08129158002055724
 -0.0018433393856291923 -0.010007166547587822 0.002075335060416822 0.01561283041884597 0.9913539352736501 -0.08129158002055724 0.006841674865533114 0.034766464428653464
0.15631513130469998 0.007117318989446739 0.036149643377266276 0.9909313741914273 -0.08458612452346838 0.002372051929453199 0.016220092087298858 -0.0019635498062259395 -0.010405224685633848
