! Created with skrf 1.8.0 (http://scikit-rf.org).
# GHz S RI R 50.0 
!freq ReS11 ImS11 ReS12 ImS12 ReS13 ImS13
! ReS14 ImS14
! ReS21 ImS21 ReS22 ImS22 ReS23 ImS23
! ReS24 ImS24
! ReS31 ImS31 ReS32 ImS32 ReS33 ImS33
! ReS34 ImS34
! ReS41 ImS41 ReS42 ImS42 ReS43 ImS43
! ReS44 ImS44
!
0.0 0.00149973378457 0.0 0.9985002662148 0.0 5.772035680183e-05 0.0 -5.772035599215e-05 7.068704921143224e-21
 0.9985002662148 0.0 0.001499733784554 0.0 -5.772035599145e-05 7.0687049210575e-21 5.77203568027e-05 0.0
 5.772035680183e-05 0.0 -5.772035599145e-05 7.0687049210575e-21 0.001499733784415 0.0 0.9985002662146 0.0
 -5.772035599215e-05 7.068704921143224e-21 5.77203568027e-05 0.0 0.9985002662146 0.0 0.001499733784436 0.0
0.005 0.0016134536991262974 0.001228055101744833 0.998356424927419 -0.0031415984520498617 8.063226328099226e-05 0.0006298627765654471 -7.836262662733502e-05 -0.0003964422498293516
 0.998356424927419 -0.0031415984520498617 0.0016134599051836793 0.0012280514991822586 -7.836588397940095e-05 -0.00039644476202429596 8.05857963236703e-05 0.000629880496628034
 8.063226328099226e-05 0.0006298627765654471 -7.836588397940095e-05 -0.00039644476202429596 0.0016134516123075932 0.0012279890824172233 0.9983564245694868 -0.003141665514223843
 -7.836262662733502e-05 -0.0003964422498293516 8.05857963236703e-05 0.000629880496628034 0.9983564245694868 -0.003141665514223843 0.001613461278495665 0.0012279833950118216
0.006252605252188 0.0016432412898938753 0.0015399000487501173 0.9983185169704049 -0.003927771785985356 8.715354385311965e-05 0.0007876389602234405 -8.417026749619693e-05 -0.0004960660903008514
 0.9983185169704049 -0.003927771785985356 0.0016432509907074956 0.001539895446193278 -8.417533614724459e-05 -0.0004960691881811777 8.708094369399671e-05 0.0007876619615260748
 8.715354385311965e-05 0.0007876389602234405 -8.417533614724459e-05 -0.0004960691881811777 0.0016432381077617678 0.0015398175420375483 0.9983185164912407 -0.003927855600682325
 -8.417026749619693e-05 -0.0004960660903008514 8.708094369399671e-05 0.0007876619615260748 0.9983185164912407 -0.003927855600682325 0.0016432532181672314 0.0015398103257364185
0.01250521050438 0.001799830218467891 0.003112073835247048 0.9981179598521402 -0.007856378968083453 0.00012442209085416367 0.0015756696761952535 -0.00011701235269724745 -0.0009945547129745326
 0.9981179598521402 -0.007856378968083453 0.0017998689490552593 0.0031120636390181574 -0.00011703232735485996 -0.000994560445158709 0.00012413258448059388 0.0015757248491189728
 0.00012442209085416367 0.0015756696761952535 -0.00011703232735485996 -0.000994560445158709 0.0017998180689604878 0.003111909125556679 0.9981179584998751 -0.007856546356950924
 -0.00011701235269724745 -0.0009945547129745326 0.00012413258448059388 0.0015757248491189728 0.9981179584998751 -0.007856546356950924 0.0017998784103784166 0.003111893594987066
0.01875781575657 0.0019698352932169794 0.004706657287808813 0.9978983506320029 -0.011795389515136305 0.00016961136833689976 0.002364616420152617 -0.00015634608104046454 -0.0014947612702228249
 0.9978983506320029 -0.011795389515136305 0.001969922313517407 0.004706640470191988 -0.00015639062490734783 -0.0014947690857468289 0.00016896104004094487 0.002364714697605449
 0.00016961136833689976 0.002364616420152617 -0.00015639062490734783 -0.0014947690857468289 0.0019698084106439277 0.0047064105897113235 0.9978983480191922 -0.011795640381936884
 -0.00015634608104046454 -0.0014947612702228249 0.00016896104004094487 0.002364714697605449 0.9978983480191922 -0.011795640381936884 0.001969944011122128 0.004706385520225176
0.02501042100875 0.002153581751756516 0.006321428744268508 0.9976594356347767 -0.0157467191928877 0.0002228079726482609 0.00315451409869047 -0.00020226784042368486 -0.0019964652669500066
 0.9976594356347767 -0.0157467191928877 0.0021537362769805013 0.006321404246464997 -0.000202346501433196 -0.0019964745177019167 0.00022165286400658302 0.003154668111081036
 0.0002228079726482609 0.00315451409869047 -0.000202346501433196 -0.0019964745177019167 0.0021535343701163203 0.006321100286492811 0.9976594313673701 -0.01574705348009134
 -0.00020226784042368486 -0.0019964652669500066 0.00022165286400658302 0.003154668111081036 0.9976594313673701 -0.01574705348009134 0.002153775203529745 0.006321064337106183
0.03126302626094 0.002351381362948002 0.007955248403835375 0.9974009479737386 -0.0197111920815123 0.0002840989887908267 0.00394532591465142 -0.000254871402407398 -0.002499512620517603
 0.9974009479737386 -0.0197111920815123 0.0023516225736851595 0.007955215137535603 -0.0002549936329010765 -0.0024995225600094543 0.00028229496622325163 0.003945549998556864
 0.0002840989887908267 0.00394532591465142 -0.0002549936329010765 -0.0024995225600094543 0.002351307724782991 0.00795483845536972 0.9974009416621428 -0.019711609744460526
 -0.000254871402407398 -0.002499512620517603 0.00028229496622325163 0.003945549998556864 0.9974009416621428 -0.019711609744460526 0.0023516837260687627 0.007954790170156625
0.037515631513130004 0.0025635392151161784 0.009607375751725536 0.9971226145407652 -0.02368922309031574 0.0003535711476578527 0.004736986766820166 -0.000314248593094472 -0.003003772257499925
 0.9971226145407652 -0.02368922309031574 0.002563886264818005 0.009607332600057453 -0.0003144237599086951 -0.003003782040490958 0.00035097384427616333 0.0047372969812187965
 0.0003535711476578527 0.004736986766820166 -0.0003144237599086951 -0.003003782040490958 0.0025634335652053035 0.009606884617209994 0.9971226057944946 -0.023689724102359342
 -0.000314248593094472 -0.003003772257499925 0.00035097384427616333 0.0047372969812187965 0.9971226057944946 -0.023689724102359342 0.0025639746399645476 0.0096068224255363
0.043768236765320004 0.0027903563343275634 0.011277261815828773 0.9968241588277302 -0.027681025631573403 0.0004313104304368664 0.005529416438931984 -0.00038048953401740335 -0.0035091229225670895
 0.9968241588277302 -0.027681025631573403 0.002790828355408248 0.011277207634182275 -0.0003807269245149832 -0.00350913160494219 0.00042777521955014453 0.005529830583708796
 0.0004313104304368664 0.005529416438931984 -0.0003807269245149832 -0.00350913160494219 0.0027902129203663814 0.011276689850018713 0.9968241472560239 -0.02768160997031865
 -0.00038048953401740335 -0.0035091229225670895 0.00042777521955014453 0.005529830583708796 0.9968241472560239 -0.02768160997031865 0.0027909489516797304 0.011276612066233316
0.050020842017509996 0.003032130902806298 0.012964463337727647 0.9965053023508192 -0.031686697378123865 0.0005174018313513617 0.006322525049949551 -0.00045368272941827156 -0.004015447728189606
 0.9965053023508192 -0.031686697378123865 0.003032747011284324 0.012964396954472731 -0.00045399155525143787 -0.004015454266906131 0.0005127838169115024 0.00632306268533208
 0.0005174018313513617 0.006322525049949551 -0.00045399155525143787 -0.004015454266906131 0.0030319439745589093 0.012963810937624285 0.9965052875622465 -0.03168736503402853
 -0.00045368272941827156 -0.004015447728189606 0.0005127838169115024 0.00632306268533208 0.9965052875622465 -0.03168736503402853 0.003032904828776903 0.012963715760639018
0.055454545454549996 0.003254617518047736 0.014444458834220951 0.9962114213449235 -0.03517903102533497 0.000599065952609075 0.007012236757810072 -0.0005230034518615258 -0.004456160970600856
 0.9962114213449235 -0.03517903102533497 0.003255374358805991 0.014444380875260579 -0.0005233817813407551 -0.004456164722501941 0.0005933890669530238 0.007012898977615734
 0.000599065952609075 0.007012236757810072 -0.0005233817813407551 -0.004456164722501941 0.0032543881063359153 0.014443736900293401 0.996211403442018 -0.03517977107838554
 -0.0005230034518615258 -0.004456160970600856 0.0005933890669530238 0.007012898977615734 0.996211403442018 -0.03517977107838554 0.0032555685845607188 0.014443625055189964
0.056273447269699996 0.0032891588855261285 0.014668600620282484 0.9961657654875525 -0.03570626234531987 0.0006119291884057189 0.007116215729130107 -0.0005339150865242818 -0.004522631482351705
 0.9961657654875525 -0.03570626234531987 0.003289938186513314 0.014668520837252962 -0.0005343044862573658 -0.004522634735443545 0.0006060832056713765 0.007116898195462551
 0.0006119291884057189 0.007116215729130107 -0.0005343044862573658 -0.004522634735443545 0.003288922695095101 0.01466786823942511 0.9961657470898532 -0.03570701330817511
 -0.0005339150865242818 -0.004522631482351705 0.0006060832056713765 0.007116898195462551 0.9961657470898532 -0.03570701330817511 0.003290138227094935 0.014667753751987665
0.06252605252188 0.003561734369967875 0.016389334368964815 0.9958052680294697 -0.03973969398142633 0.0007149750499094571 0.007910386086557109 -0.0006212718999864551 -0.005030559224050138
 0.9958052680294697 -0.03973969398142633 0.0035626959617508147 0.016389239961871336 -0.0006217509408068015 -0.005030557950638889 0.0007077556726895805 0.00791123652418213
 0.0007149750499094571 0.007910386086557109 -0.0006217509408068015 -0.005030557950638889 0.003561443171831215 0.016388522507346112 0.9958052456293026 -0.03974052825119085
 -0.0006212718999864551 -0.005030559224050138 0.0007077556726895805 0.00791123652418213 0.9958052456293026 -0.03974052825119085 0.0035629432293777332 0.016388386675182387
0.06877865777407 0.0038501497439086584 0.018126351883102295 0.9954235295769942 -0.043786928911256275 0.0008266205604846789 0.008704929089341215 -0.0007158368156772042 -0.0055391153566805166
 0.9954235295769942 -0.043786928911256275 0.0038513127228908175 0.018126241601789224 -0.0007164144946074668 -0.005539108217020831 0.0008178821134858538 0.00870597245843382
 0.0008266205604846789 0.008704929089341215 -0.0007164144946074668 -0.005539108217020831 0.003849797795776192 0.018125461094491292 0.9954235027804365 -0.043787846491526554
 -0.0007158368156772042 -0.0055391153566805166 0.0008178821134858538 0.00870597245843382 0.9954235027804365 -0.043787846491526554 0.003851612224110508 0.018125301765325046
0.07503126302626001 0.004154695783970044 0.01987935828585951 0.9950202698486361 -0.04784787564474869 0.0009469453569411027 0.009499733626547397 -0.0008176917839362077 -0.00604818309653071
 0.9950202698486361 -0.04784787564474869 0.004156079248891373 0.019879230854396666 -0.0008183770286127393 -0.006048168652052867 0.0009365419312765063 0.009500996726805211
 0.0009469453569411027 0.009499733626547397 -0.0008183770286127393 -0.006048168652052867 0.0041542773460662655 0.019878389175824338 0.9950202382601736 -0.047848876545499304
 -0.0008176917839362077 -0.00604818309653071 0.0009365419312765063 0.009500996726805211 0.9950202382601736 -0.047848876545499304 0.0041564359918265376 0.01987820407817779
0.08128386827845 0.004475661681416888 0.021648070713790962 0.9945952089309066 -0.05192242033003453 0.0010760274726663737 0.010294684878355807 -0.0009269170026814282 -0.006557644121019217
 0.9945952089309066 -0.05192242033003453 0.004477284737896583 0.021647924830476773 -0.0009277186718274868 -0.00655762083438584 0.0010638129446180393 0.010296196368471181
 0.0010760274726663737 0.010294684878355807 -0.0009277186718274868 -0.00655762083438584 0.004475171017193065 0.021647023944098228 0.9945951721534985 -0.051923504564058295
 -0.0009269170026814282 -0.006557644121019217 0.0010638129446180393 0.010296196368471181 0.9945951721534985 -0.051923504564058295 0.004477703732798224 0.02164681068594571
0.08753647353064001 0.0048133350319001815 0.02343221427889354 0.9941480674956881 -0.05601043073850352 0.00121394324541166 0.011089664587572467 -0.00104359085631842 -0.007067378318780721
 0.9941480674956881 -0.05601043073850352 0.004815216796893418 0.023432048616068367 -0.0010445177400540309 -0.0070673445539612125 0.0011997712970697064 0.01109145500444941
 0.00121394324541166 0.011089664587572467 -0.0010445177400540309 -0.0070673445539612125 0.004812766408637522 0.023431090564211773 0.9941480251303875 -0.05601159832531364
 -0.00104359085631842 -0.007067378318780721 0.0011997712970697064 0.01109145500444941 0.9941480251303875 -0.05601159832531364 0.004815703055727389 0.023430846631604003
0.09378907878283 0.005168001796779506 0.025231519188438373 0.9936785669917221 -0.06011175909652309 0.001360767228711431 0.011884551247251827 -0.0011677898495942069 -0.007577263627865791
 0.9936785669917221 -0.06011175909652309 0.005170161403135684 0.02523133239213579 -0.0011688506694795288 -0.007577217650217559 0.0013444913708261523 0.011886653024932674
 0.001360767228711431 0.011884551247251827 -0.0011688506694795288 -0.007577217650217559 0.0051673494857988654 0.0252303193025759 0.9936785186379733 -0.06011301005706357
 -0.0011677898495942069 -0.007577263627865791 0.0013444913708261523 0.011886653024932674 0.9936785186379733 -0.06011301005706357 0.005170719939647191 0.025230042057898163
0.100041684035 0.0055399462456329224 0.02704571864224455 0.9931864298221194 -0.06422624414496379 0.0015165721047542653 0.012679220251730216 -0.0012995885391283784 -0.008087175915087494
 0.9931864298221194 -0.06422624414496379 0.005542402846382955 0.027045509331753446 -0.001300791948136105 -0.008087115891451014 0.001498045700966283 0.012681667739931608
 0.0015165721047542653 0.012679220251730216 -0.001300791948136105 -0.008087115891451014 0.005539204523071478 0.027044443414327927 0.993186375077336 -0.06422757850606248
 -0.0012995885391283784 -0.008087175915087494 0.001498045700966283 0.012681667739931608 0.993186375077336 -0.06422757850606248 0.005543038675934968 0.02704413009458588
0.1059090909091 0.005904942202541785 0.028761462407379916 0.9927037771890957 -0.068099063705462 0.001671009506134548 0.013424621255711961 -0.0014302441129229958 -0.008565586586161359
 0.9927037771890957 -0.068099063705462 0.0059076949426729135 0.028761230689513462 -0.0014315891352175768 -0.008565511626946137 0.001650237731324002 0.013427426119714815
 0.001671009506134548 0.013424621255711961 -0.0014315891352175768 -0.008565511626946137 0.0059041113753263595 0.02876011728342995 0.9927037160787285 -0.06810047635833306
 -0.0014302441129229958 -0.008565586586161359 0.001650237731324002 0.013427426119714815 0.9927037160787285 -0.06810047635833306 0.005908407865992657 0.02875976748476378
0.1062942892872 0.005929450884055972 0.028874547243430547 0.9926713795085886 -0.06835371269000487 0.0016814285988613715 0.01347354401145205 -0.0014390594621647996 -0.008596988896030009
 0.9926713795085886 -0.06835371269000487 0.005932223657111933 0.028874314010572152 -0.001440414044477711 -0.008596912894834642 0.0016605048916344726 0.013476373493767959
 0.0016814285988613715 0.01347354401145205 -0.001440414044477711 -0.008596912894834642 0.005928614030928141 0.02887319755934611 0.9926713179677898 -0.0683551304837224
 -0.0014390594621647996 -0.008596988896030009 0.0016605048916344726 0.013476373493767959 0.9926713179677898 -0.0683551304837224 0.00593294179624168 0.028872845274213816
0.11254689453939999 0.006336796370906184 0.030717739784770774 0.9921331408491144 -0.07249398078381507 0.0018554053949575626 0.014267392048285945 -0.001586273063644193 -0.009106574079224928
 0.9921331408491144 -0.07249398078381507 0.006339904523467955 0.030717481193146785 -0.001587787334409039 -0.009106480070611305 0.0018319375325529675 0.014270641760001554
 0.0018554053949575626 0.014267392048285945 -0.001587787334409039 -0.009106480070611305 0.006335858674052008 0.030716316590256743 0.9921330721049005 -0.07249548204508797
 -0.001586273063644193 -0.009106574079224928 0.0018319375325529675 0.014270641760001554 0.9921330721049005 -0.07249548204508797 0.006340709989902869 0.030715922319949393
0.11879949979160001 0.006762261426596879 0.032575030309651566 0.9915714400695804 -0.07664685463617782 0.002038569051441016 0.015060631077367579 -0.0017412976219547318 -0.009615800728647306
 0.9915714400695804 -0.07664685463617782 0.00676572420006191 0.032574744893572184 -0.001742980026928456 -0.009615686584602833 0.0020124101162553526 0.015064341222776728
 0.002038569051441016 0.015060631077367579 -0.001742980026928456 -0.009615686584602833 0.006761217179171043 0.032573534608187515 0.9915713637120627 -0.0766484394055935
 -0.0017412976219547318 -0.009615800728647306 0.0020124101162553526 0.015064341222776728 0.9915713637120627 -0.0766484394055935 0.0067666220122955395 0.03257309520114883
0.1250521050438 0.007206122735066186 0.03444615136687412 0.9909860049710514 -0.08081213133768098 0.002230983917921308 0.01585312507712378 -0.0019041991733786132 -0.01012453584279147
 0.9909860049710514 -0.08081213133768098 0.007209959409078222 0.03444583763027068 -0.0019060580884686631 -0.010124399337307428 0.0022019869556997467 0.0158573378464961
 0.002230983917921308 0.01585312507712378 -0.0019060580884686631 -0.010124399337307428 0.0072049662370149365 0.03444458422318837 0.9909859205873671 -0.08081379965876902
 -0.0019041991733786132 -0.01012453584279147 0.0022019869556997467 0.0158573378464961 0.9909859205873671 -0.08081379965876902 0.0072109545863265 0.03444409639369061
0.131304710296 0.007668654839073669 0.036330833415258376 0.9903765650739018 -0.08498959943912128 0.002432712052037701 0.016644735353170143 -0.0020750414356798218 -0.010632644144893686
 0.9903765650739018 -0.08498959943912128 0.007672884736759102 0.03633048983023954 -0.002077085166521801 -0.010632482954119617 0.0024007301023499378 0.01664949493913174
 0.002432712052037701 0.016644735353170143 -0.002077085166521801 -0.010632482954119617 0.00766738039807413 0.03632919595485696 0.9903764722483659 -0.0849913513594323
 -0.0020750414356798218 -0.010632644144893686 0.0024007301023499378 0.01664949493913174 0.9903764722483659 -0.0849913513594323 0.007673982298559717 0.03632865628032428
0.1375573155481 0.00804305041866916 0.03798336186493189 0.9898499703585139 -0.08893349389650461 0.002618161653279145 0.017410782471095756 -0.002228271293800186 -0.011115435612568206
 0.9898499703585139 -0.08893349389650461 0.008047695104852252 0.037982996563708134 -0.0022305121593506685 -0.011115249582441837 0.0025831204333659416 0.01741608140644099
 0.002618161653279145 0.017410782471095756 -0.0022305121593506685 -0.011115249582441837 0.008041652911622073 0.0379816551564115 0.9898498687091153 -0.08893532941006685
 -0.002228271293800186 -0.011115435612568206 0.0025831204333659416 0.01741608140644099 0.9898498687091153 -0.08893532941006685 0.008048899437718046 0.03798106988214128
0.1438099208003 0.008430592832001567 0.039627366027919886 0.9893049105120155 -0.09286756465385101 0.0028111026424355594 0.01817379780871441 -0.002387630200229325 -0.011595459799397944
 0.9893049105120155 -0.09286756465385101 0.008435672040461188 0.039626978119672786 -0.002390077127899348 -0.011595246647157538 0.002772868319178222 0.018179676451221632
 0.0028111026424355594 0.01817379780871441 -0.002390077127899348 -0.011595246647157538 0.008429066678559702 0.039625591225013246 0.9893047996261941 -0.09286948379963542
 -0.002387630200229325 -0.011595459799397944 0.002772868319178222 0.018179676451221632 0.9893047996261941 -0.09286948379963542 0.00843698804994832 0.03962495750852238
0.1500625260525 0.008831148126866943 0.04126271364135663 0.9887415234287269 -0.09679171906747916 0.003011469818160186 0.018933705833715068 -0.0025530550455486966 -0.012072645679428316
 0.9887415234287269 -0.09679171906747916 0.00883668164744013 0.041262302169407454 -0.002555716943584312 -0.01207240303068834 0.0029699093954569065 0.018940206000226056
 0.003011469818160186 0.018933705833715068 -0.002555716943584312 -0.01207240303068834 0.008829487759669992 0.04126087194257761 0.9887414028917448 -0.09679372188750525
 -0.0025530550455486966 -0.012072645679428316 0.0029699093954569065 0.018940206000226056 0.9887414028917448 -0.09679372188750525 0.008838114232137437 0.04126018679602408
0.15631513130469998 0.009244581431054423 0.04288927645410049 0.9881599476695704 -0.1007058647212446 0.0032191972213197876 0.019690432268168107 -0.0027244819570546057 -0.01254692370965642
 0.9881599476695704 -0.1007058647212446 0.009250589111692391 0.042888840393209705 -0.0027273677144350737 -0.012546649098752173 0.003174178553852893 0.019697597218034622
