! Created with skrf 1.8.0 (http://scikit-rf.org).
# GHz S RI R 50.0 
!freq ReS11 ImS11 ReS12 ImS12 ReS13 ImS13
! ReS14 ImS14
! ReS21 ImS21 ReS22 ImS22 ReS23 ImS23
! ReS24 ImS24
! ReS31 ImS31 ReS32 ImS32 ReS33 ImS33
! ReS34 ImS34
! ReS41 ImS41 ReS42 ImS42 ReS43 ImS43
! ReS44 ImS44
!
0.0 0.001696524506811 0.0 0.9983034754932 0.0 6.598550082657e-05 0.0 -6.598550064785e-05 8.08089321585251e-21
 0.9983034754932 0.0 0.001696524506817 0.0 -6.598550064882e-05 8.0808932159713e-21 6.598550082536e-05 0.0
 6.598550082657e-05 0.0 -6.598550064882e-05 8.0808932159713e-21 0.001696524494044 0.0 0.9983034754804 0.0
 -6.598550064785e-05 8.08089321585251e-21 6.598550082536e-05 0.0 0.9983034754804 0.0 0.001696524493995 0.0
0.005 0.0018258598220061417 0.001382063390710869 0.998139733503976 -0.0035535143317739037 9.364561399852587e-05 0.0007597491667785411 -9.064069364922222e-05 -0.000471087382660102
 0.998139733503976 -0.0035535143317739037 0.0018258892049673433 0.0013820462937932266 -9.063624709354665e-05 -0.0004710841163764316 9.34809226276709e-05 0.0007598120586432401
 9.364561399852587e-05 0.0007597491667785411 -9.063624709354665e-05 -0.0004710841163764316 0.0018258610072187705 0.0013819954976255456 0.9981397331327189 -0.0035535813949306924
 -9.064069364922222e-05 -0.000471087382660102 9.34809226276709e-05 0.0007598120586432401 0.9981397331327189 -0.0035535813949306924 0.0018258872794996962 0.0013819800618260962
0.006252605252188 0.001859923820330897 0.0017330206018669211 0.9980963054073291 -0.004442740799039486 0.00010165297214947078 0.0009500281148258174 -9.767741260576891e-05 -0.0005894665218233383
 0.9980963054073291 -0.004442740799039486 0.0018599697503450478 0.0017329988780589644 -9.767049224857052e-05 -0.0005894624985887958 0.00010139566066641773 0.0009501097919761827
 0.00010165297214947078 0.0009500281148258174 -9.767049224857052e-05 -0.0005894624985887958 0.0018599257479379276 0.0017329357524741346 0.9980963049024116 -0.0044428246216854156
 -9.767741260576891e-05 -0.0005894665218233383 0.00010139566066641773 0.0009501097919761827 0.9980963049024116 -0.0044428246216854156 0.0018599668165925319 0.001732916085268459
0.01250521050438 0.002040078385033381 0.003502323783642378 0.9978649636537718 -0.00888614440805051 0.00014812614923722961 0.001900231602320429 -0.00013800853618063696 -0.0011817199988605979
 0.9978649636537718 -0.00888614440805051 0.002040261772066105 0.0035022767641995525 -0.00013798124992017515 -0.0011817126129521841 0.0001471001356821356 0.0019004282208995539
 0.00014812614923722961 0.001900231602320429 -0.00013798124992017515 -0.0011817126129521841 0.0020400866284630234 0.0035021544462205435 0.9978649621942636 -0.00888631179367509
 -0.00013800853618063696 -0.0011817199988605979 0.0001471001356821356 0.0019004282208995539 0.9978649621942636 -0.00888631179367509 0.002040250626454864 0.0035021113623482925
0.01875781575657 0.002237412933622781 0.0052966971385857405 0.9976091407504021 -0.013340994569761679 0.00020551562781978504 0.002851255720828754 -0.00018711033905062155 -0.0017758391601348058
 0.9976091407504021 -0.013340994569761679 0.0022378249895534104 0.005296620953523857 -0.00018704947141396012 -0.0017758292165765558 0.00020321100356864025 0.0028516075669049266
 0.00020551562781978504 0.002851255720828754 -0.00018704947141396012 -0.0017758292165765558 0.0022374318615607834 0.005296443479165788 0.9976091378958898 -0.013341245435961145
 -0.00018711033905062155 -0.0017758391601348058 0.00020321100356864025 0.0028516075669049266 0.9976091378958898 -0.013341245435961145 0.0022378003956605476 0.005296372993498841
0.02501042100875 0.0024523377168704594 0.007113578383151324 0.9973285142256836 -0.017809410735983532 0.00027393411541810106 0.0038031198899026127 -0.00024510917446623803 -0.0023715207240955923
 0.9973285142256836 -0.017809410735983532 0.0024530694593216905 0.007113468894458131 -0.00024500166306785383 -0.002371509185170372 0.0002698409232658164 0.0038036740460535992
 0.00027393411541810106 0.0038031198899026127 -0.00024500166306785383 -0.002371509185170372 0.002452371673726491 0.007113240533293403 0.9973285095311868 -0.017809745019755407
 -0.00024510917446623803 -0.0023715207240955923 0.0002698409232658164 0.0038036740460535992 0.9973285095311868 -0.017809745019755407 0.0024530262003826463 0.007113138449475993
0.03126302626094 0.0026852459166462196 0.008951628416499775 0.9970227463713822 -0.022292275001743512 0.0003534946567077913 0.004755751317643691 -0.0003121272571394707 -0.0029685456895456536
 0.9970227463713822 -0.022292275001743512 0.002686388221400462 0.008951481223226516 -0.00031196016723679165 -0.002968533676441457 0.000347102427228195 0.004756561701969165
 0.0003534946567077913 0.004755751317643691 -0.00031196016723679165 -0.002968533676441457 0.0026852992321041995 0.008951206470540044 0.9970227393932707 -0.02229269266261553
 -0.0003121272571394707 -0.0029685456895456536 0.000347102427228195 0.004756561701969165 0.9970227393932707 -0.02229269266261553 0.0026863211036919276 0.008951068385595992
0.037515631513130004 0.0029365217635480166 0.010809958579228356 0.9966914926842982 -0.02679000478997017 0.00044430934874654395 0.005709040458718917 -0.00038828357331858456 -0.0035667238913581058
 0.9966914926842982 -0.02679000478997017 0.0029381654002509053 0.010809769019308224 -0.0003880440851037379 -0.0035667126847043805 0.000435106900612136 0.0057101678912825785
 0.00044430934874654395 0.005709040458718917 -0.0003880440851037379 -0.0035667126847043805 0.002936598752484904 0.010809452599174079 0.9966914829782779 -0.02679050580508243
 -0.00038828357331858456 -0.0035667238913581058 0.000435106900612136 0.0057101678912825785 0.9966914829782779 -0.02679050580508243 0.0029380692494316634 0.01080927390575137
0.043768236765320004 0.003206543657777539 0.012687895510705535 0.9963344053167719 -0.0313027879262236 0.0005464887294222171 0.006662857883496883 -0.0004736941952384788 -0.004165877153032152
 0.9963344053167719 -0.0313027879262236 0.003208779318535968 0.012687658661478092 -0.0004733695965355052 -0.004165868193159632 0.0005339640823938818 0.0066643701612915775
 0.0005464887294222171 0.006662857883496883 -0.0004733695965355052 -0.004165868193159632 0.003206648622938712 0.012687305540559789 0.9963343924392327 -0.03130337227590769
 -0.0004736941952384788 -0.004165877153032152 0.0005339640823938818 0.0066643701612915775 0.9963343924392327 -0.03130337227590769 0.003208648980089631 0.012687081427970825
0.050020842017509996 0.003495685610677085 0.014584883966925482 0.9959511348550987 -0.03583067975226538 0.0006601414069928903 0.007617061258454494 -0.0005684723795819778 -0.004765832333951196
 0.9959511348550987 -0.03583067975226538 0.0034986039358874234 0.014584594644458253 -0.000568050061458819 -0.00476582722101583 0.000643781755360899 0.0076190332337036
 0.0006601414069928903 0.007617061258454494 -0.000568050061458819 -0.00476582722101583 0.0034958228424521428 0.014584210024958065 0.9959511183607287 -0.03583134742746303
 -0.0005684723795819778 -0.004765832333951196 0.000643781755360899 0.0076190332337036 0.9959511183607287 -0.03583134742746303 0.0034984342725651848 0.01458393547930431
0.055454545454549996 0.003762774266342927 0.01624851881173413 0.9955965255686543 -0.03977780372812105 0.0007683094503671959 0.008446488640382686 -0.000658530950417522 -0.005287729623104486
 0.9955965255686543 -0.03977780372812105 0.003766359436052824 0.01624817947459655 -0.0006580135492368257 -0.0052877292769810515 0.0007481999685161071 0.008448926435183208
 0.0007683094503671959 0.008446488640382686 -0.0006580135492368257 -0.0052877292769810515 0.0037629430137691706 0.016247771895504838 0.9955965055679072 -0.03977854381154406
 -0.000658530950417522 -0.005287729623104486 0.0007481999685161071 0.008448926435183208 0.9955965055679072 -0.03977854381154406 0.0037661514388623637 0.01624744929190217
0.056273447269699996 0.0038043179628444333 0.016500439132107973 0.9955413313779267 -0.040373650748686346 0.0007853737921429683 0.008571498774392386 -0.0006727285738046706 -0.005366417935071407
 0.9955413313779267 -0.040373650748686346 0.0038080095644543108 0.01650009188995627 -0.0006721960277821604 -0.005366418429124402 0.0007646655145993528 0.008574012434211797
 0.0007853737921429683 0.008571498774392386 -0.0006721960277821604 -0.005366418429124402 0.003804491740022095 0.016499681215921033 0.9955413108197864 -0.040374401745724646
 -0.0006727285738046706 -0.005366417935071407 0.0007646655145993528 0.008574012434211797 0.9955413108197864 -0.040374401745724646 0.003807795455815147 0.01649935101960932
0.06252605252188 0.004132807756382093 0.018434120400127853 0.9951046451755133 -0.044931612693644325 0.0009222898830754371 0.009526011049190002 -0.0007865703736813572 -0.0059674622368862725
 0.9951046451755133 -0.044931612693644325 0.004137363240563997 0.01843370952704583 -0.0007859151900710778 -0.005967470257903508 0.0008967185766203435 0.009529155595569147
 0.0009222898830754371 0.009526011049190002 -0.0007859151900710778 -0.005967470257903508 0.004133022347934562 0.01843327848556121 0.9951046201056742 -0.044932447014888945
 -0.0007865703736813572 -0.0059674622368862725 0.0008967185766203435 0.009529155595569147 0.9951046201056742 -0.044932447014888945 0.004137099583438934 0.018432887215969578
0.06877865777407 0.004481518912700378 0.020385515749897797 0.9946407272788729 -0.04950443423383908 0.001070991080423976 0.0104804322605498 -0.0009101024525718619 -0.00656879221457576
 0.9946407272788729 -0.04950443423383908 0.004487028901383349 0.020385035267091543 -0.0009093123195518297 -0.0065688098424638705 0.0010400416116252578 0.010484304190121817
 0.001070991080423976 0.0104804322605498 -0.0009093123195518297 -0.0065688098424638705 0.004481778578225717 0.02038458978837569 0.9946406972480595 -0.049505351890123436
 -0.0009101024525718619 -0.00656879221457576 0.0010400416116252578 0.010484304190121817 0.9946406972480595 -0.049505351890123436 0.0044867106092431955 0.02038413181596252
0.07503126302626001 0.004850812295575112 0.022354231845490527 0.9941492298796619 -0.05409195073876976 0.0012315760185662805 0.011434590886803892 -0.0010434264747930112 -0.0071702328526521775
 0.9941492298796619 -0.05409195073876976 0.004857367448050024 0.022353675502815255 -0.0010424891780248169 -0.007170262327218378 0.0011947325877669842 0.011439294069973191
 0.0012315760185662805 0.011434590886803892 -0.0010424891780248169 -0.007170262327218378 0.004851121285709872 0.022353221768602858 0.9941491944364482 -0.05409295174430982
 -0.0010434264747930112 -0.0071702328526521775 0.0011947325877669842 0.011439294069973191 0.9941491944364482 -0.05409295174430982 0.004856989450470678 0.02235269125416175
0.08128386827845 0.005241045703560843 0.02433988745319882 0.9936298066838947 -0.05869397084580729 0.0014041404087063018 0.012388310202973266 -0.0011866409970410809 -0.007771606712129915
 0.9936298066838947 -0.05869397084580729 0.005248736737569226 0.0243392487248179 -0.0011855444196595887 -0.007771650433033986 0.0013608866245451592 0.012393955962205954
 0.0014041404087063018 0.012388310202973266 -0.0011855444196595887 -0.007771650433033986 0.005241408260722313 0.02433879317017516 0.993629765374589 -0.058695055220466405
 -0.0011866409970410809 -0.007771606712129915 0.0013608866245451592 0.012393955962205954 0.993629765374589 -0.058695055220466405 0.005248293980301368 0.024338184061389954
0.08753647353064001 0.005652573812861846 0.026342108900269945 0.9930821132197407 -0.06331028097255348 0.0015887768884761274 0.013341408644525278 -0.001339841363066836 -0.008372733638090497
 0.9930821132197407 -0.06331028097255348 0.005661491526060175 0.0263413809792881 -0.001338573486078895 -0.008372794164748038 0.0015385958505009746 0.01334811583148569
 0.0015887768884761274 0.013341408644525278 -0.001338573486078895 -0.008372794164748038 0.005652994171962576 0.026340930297908318 0.9930820655884961 -0.06331144874135265
 -0.001339841363066836 -0.008372733638090497 0.0015385958505009746 0.01334811583148569 0.9930820655884961 -0.06331144874135265 0.005660978970399698 0.02634023632513948
0.09378907878283 0.0060857480880880735 0.028360526828714 0.9925058071187632 -0.06794064854302195 0.0017855748770343588 0.014293700075396275 -0.0015031195923841864 -0.008973430571175174
 0.9925058071187632 -0.06794064854302195 0.006095983378624982 0.028359702621278286 -0.0015016684951455644 -0.008973510622659895 0.001727949265505955 0.014301595146929873
 0.0017855748770343588 0.014293700075396275 -0.0015016684951455644 -0.008973510622659895 0.006086230477013463 0.02835926377034951 0.9925057527067233 -0.0679418997367538
 -0.0015031195923841864 -0.008973430571175174 0.001727949265505955 0.014301595146929873 0.9925057527067233 -0.0679418997367538 0.00609539600191319 0.028358478441660367
0.100041684035 0.006540916668762304 0.030394773831904313 0.9919005483755848 -0.07258482434042278 0.0019946204330735587 0.015244994002036804 -0.0016765642657710067 -0.009573511421602432
 0.9919005483755848 -0.07258482434042278 0.006552560556647661 0.03039384595020243 -0.0016749181268428258 -0.009573613876487811 0.0019290326046563974 0.015254211094640644
 0.0019946204330735587 0.015244994002036804 -0.0016749181268428258 -0.009573613876487811 0.006541465308976674 0.030393426158765845 0.9919004867211942 -0.07258615899384276
 -0.0016765642657710067 -0.009573511421602432 0.0019290326046563974 0.015254211094640644 0.9919004867211942 -0.07258615899384276 0.006551893351593249 0.030392542754139305
0.1059090909091 0.006988354772496846 0.03231776813175942 0.9913059445479483 -0.07695521412814785 0.002202000132671424 0.016136601874177554 -0.0018486457515147715 -0.010135894838014936
 0.9913059445479483 -0.07695521412814785 0.00700140338841894 0.032316735975025074 -0.001846805924279944 -0.01013602107607165 0.0021284696180128297 0.01614718844410358
 0.002202000132671424 0.016136601874177554 -0.001846805924279944 -0.01013602107607165 0.0069889694167521305 0.03231634089094002 0.9913058756747053 -0.07695662713586973
 -0.0018486457515147715 -0.010135894838014936 0.0021284696180128297 0.01614718844410358 0.9913058756747053 -0.07695662713586973 0.007000656733181981 0.03231535913164053
0.1062942892872 0.007018424238228431 0.0324444826780579 0.9912659995946945 -0.07724254428305576 0.0022159961157950585 0.016195095747815098 -0.0018602604075932457 -0.010172786991395778
 0.9912659995946945 -0.07724254428305576 0.0070315678866360145 0.03244344343260644 -0.0018584075055990896 -0.010172914887568503 0.002141928204824762 0.016205776750623915
 0.0022159961157950585 0.016195095747815098 -0.0018584075055990896 -0.010172914887568503 0.007019043345533551 0.03244305020751225 0.9912659302331209 -0.07724396243604051
 -0.0018602604075932457 -0.010172786991395778 0.002141928204824762 0.016205776750623915 0.9912659302331209 -0.07724396243604051 0.007030815861938838 0.03244206177218288
0.11254689453939999 0.007518611879320463 0.034509284966003737 0.9906018262259548 -0.08191353077757264 0.0024497808478065155 0.017143806602917613 -0.00205428936640699 -0.010771064929829833
 0.9906018262259548 -0.08191353077757264 0.007533346615276831 0.03450812635702126 -0.0020522180811079994 -0.01077122146432023 0.0023667148721142686 0.017156101229039527
 0.0024497808478065155 0.017143806602917613 -0.0020522180811079994 -0.01077122146432023 0.007519305663946573 0.034507767490340596 0.9906017486892147 -0.0819150324759235
 -0.00205428936640699 -0.010771064929829833 0.0023667148721142686 0.017156101229039527 0.9906017486892147 -0.0819150324759235 0.0075325047951942175 0.034506666827259114
0.11879949979160001 0.008041816919457469 0.036588810079397675 0.9899076967945968 -0.0865974937844848 0.0026960497797533308 0.018090923956932247 -0.002258728693934455 -0.011368149715320392
 0.9899076967945968 -0.0865974937844848 0.008058234255499534 0.036587523787221826 -0.00225642750743811 -0.011368338243974718 0.0026034677508119134 0.01810498981297703
 0.0026960497797533308 0.018090923956932247 -0.00225642750743811 -0.011368338243974718 0.008042589587048437 0.03658720736779746 0.989907610610763 -0.0865990790772432
 -0.002258728693934455 -0.011368149715320392 0.0026034677508119134 0.01810498981297703 0.989907610610763 -0.0865990790772432 0.008057297679993351 0.03658598702935149
0.1250521050438 0.008588372767539298 0.03868268437641668 0.9891832831237058 -0.09129413165837236 0.0029548741562117078 0.01903624141899239 -0.0024736520233789665 -0.011963842658524989
 0.9891832831237058 -0.09129413165837236 0.008606564422911595 0.03868126175105228 -0.0024711095214568083 -0.01196406669578421 0.0028522581935401755 0.019052244072789326
 0.0029548741562117078 0.01903624141899239 -0.0024711095214568083 -0.01196406669578421 0.0085892285195367 0.03868099617237117 0.9891831878172468 -0.09129580059986885
 -0.0024736520233789665 -0.011963842658524989 0.0028522581935401755 0.019052244072789326 0.9891831878172468 -0.09129580059986885 0.00860552814756052 0.03867964845105408
0.131304710296 0.009158608744859674 0.040790530547079 0.9884282605547834 -0.09600313183145058 0.003226321183171872 0.019979548931657463 -0.0026991289469918338 -0.012557941921114485
 0.9884282605547834 -0.09600313183145058 0.009178666666582718 0.04078896259679294 -0.0026963338202957107 -0.012558205139649767 0.003113153632423041 0.019997661977917924
 0.003226321183171872 0.019979548931657463 -0.0026963338202957107 -0.012558205139649767 0.009159551778543043 0.0407887565684679 0.9884281556457092 -0.09600488448067053
 -0.0026991289469918338 -0.012557941921114485 0.003113153632423041 0.019997661977917924 0.9884281556457092 -0.09600488448067053 0.009177525762883604 0.04078727348662075
0.1375573155481 0.009627232617434443 0.042636308761595174 0.9877679810982269 -0.10044837229195726 0.0034783849972212467 0.0208934872600259 -0.0029032911313357636 -0.013123024547648748
 0.9877679810982269 -0.10044837229195726 0.009649257129175545 0.04263461969180468 -0.002900226952277547 -0.013123327521936347 0.0033544011410284345 0.020913694951899094
 0.0034783849972212467 0.0208934872600259 -0.002900226952277547 -0.013123327521936347 0.009628268438945363 0.0426344477203869 0.9877678661514214 -0.10045020864465393
 -0.0029032911313357636 -0.013123024547648748 0.0033544011410284345 0.020913694951899094 0.9877678661514214 -0.10045020864465393 0.009648005273256953 0.04263285639661519
0.1438099208003 0.010112476937908597 0.0444713286498404 0.987084173058949 -0.10488131331142952 0.0037406266293254923 0.021803066272118553 -0.003115591674349778 -0.013684174000035264
 0.987084173058949 -0.10488131331142952 0.010136561597725652 0.04446951139127485 -0.003112246362559791 -0.013684520356235172 0.0036053547617405776 0.021825528486999878
 0.0037406266293254923 0.021803066272118553 -0.003112246362559791 -0.013684520356235172 0.010113609977461501 0.044469380144620464 0.9870840475986531 -0.10488323341613907
 -0.003115591674349778 -0.013684174000035264 0.0036053547617405776 0.021825528486999878 0.9870840475986531 -0.10488323341613907 0.01013519362812297 0.04446767476675557
0.1500625260525 0.010614154739819552 0.046295406714684705 0.9863770280855393 -0.1093018140216535 0.004012946516988388 0.02270817111821061 -0.003335935007358267 -0.014241284550542747
 0.9863770280855393 -0.1093018140216535 0.010640393375063756 0.046293453764147174 -0.0033322965215475315 -0.014241678059583122 0.0038659180556153854 0.02273305359178941
 0.004012946516988388 0.02270817111821061 -0.0033322965215475315 -0.014241678059583122 0.010615389439956 0.04629337032053322 0.9863768916325223 -0.10930381792985736
 -0.003335935007358267 -0.014241284550542747 0.0038659180556153854 0.02273305359178941 0.9863768916325223 -0.10930381792985736 0.01063890412794802 0.0462915447032743
0.15631513130469998 0.011132077532872833 0.04810836494918346 0.9856467390166407 -0.11370973473711034 0.004295243803885336 0.023608689098858302 -0.0035642242806179004 -0.014794252891796098
 0.9856467390166407 -0.11370973473711034 0.011160564247787715 0.048106268357499996 -0.003560280619369308 -0.014794697468519268 0.004135993341866738 0.023636163359687584
