! Created with skrf 1.8.0 (http://scikit-rf.org).
# GHz S RI R 50.0 
!freq ReS11 ImS11 ReS12 ImS12 ReS13 ImS13
! ReS14 ImS14
! ReS21 ImS21 ReS22 ImS22 ReS23 ImS23
! ReS24 ImS24
! ReS31 ImS31 ReS32 ImS32 ReS33 ImS33
! ReS34 ImS34
! ReS41 ImS41 ReS42 ImS42 ReS43 ImS43
! ReS44 ImS44
!
0.0 0.001866428044493 0.0 0.9981335719435 0.0 7.254861934551e-05 0.0 -7.254861925014e-05 8.8846434347244e-21
 0.9981335719435 0.0 0.001866428044482 0.0 -7.254861925013e-05 8.884643434723176e-21 7.254861934348e-05 0.0
 7.254861934551e-05 0.0 -7.254861925013e-05 8.884643434723176e-21 0.001866428040576 0.0 0.9981335719395 0.0
 -7.254861925014e-05 8.8846434347244e-21 7.254861934348e-05 0.0 0.9981335719395 0.0 0.00186642804057 0.0
0.005 0.002009256704731762 0.0015255165242164742 0.9979526980158268 -0.003908474452676966 0.00010228661293524207 0.0008015694800389596 -9.930315323056635e-05 -0.0005025233963758517
 0.9979526980158268 -0.003908474452676966 0.0020092413904513494 0.0015255254431315178 -9.929829204559766e-05 -0.0005025196669601605 0.0001023840702931053 0.0008015320917892832
 0.00010228661293524207 0.0008015694800389596 -9.929829204559766e-05 -0.0005025196669601605 0.0020092588226246193 0.0015254479662375668 0.9979526976311751 -0.003908541514845426
 -9.930315323056635e-05 -0.0005025233963758517 0.0001023840702931053 0.0008015320917892832 0.9979526976311751 -0.003908541514845426 0.002009238508944436 0.0015254598805171074
0.006252605252188 0.002047055502946178 0.0019128509916482906 0.9979044814207414 -0.004886494719421269 0.00011094612586964888 0.0010023285878361546 -0.0001070119667301818 -0.0006287838238496015
 0.9979044814207414 -0.004886494719421269 0.00204703156506648 0.0019128624049933119 -0.00010700440240644516 -0.0006287792276638127 0.0001110983888414875 0.0010022800319633687
 0.00011094612586964888 0.0010023285878361546 -0.00010700440240644516 -0.0006287792276638127 0.0020470588835942057 0.0019127653071319543 0.9979044808888308 -0.004886578531161761
 -0.0001070119667301818 -0.0006287838238496015 0.0001110983888414875 0.0010022800319633687 0.9979044808888308 -0.004886578531161761 0.002047027129773012 0.0019127804747268015
0.01250521050438 0.0022480096702645115 0.0038652751256220085 0.997646237218981 -0.009773385331085125 0.0001614709329032296 0.0020048605091925 -0.00015158190205444492 -0.0012603910422616803
 0.997646237218981 -0.009773385331085125 0.0022479140976388594 0.0038653006259707634 -0.00015155209329116052 -0.0012603825803967526 0.000162077992533491 0.002004743467687272
 0.0001614709329032296 0.0020048605091925 -0.00015155209329116052 -0.0012603825803967526 0.0022480237515962232 0.0038651039372708364 0.9976462356695449 -0.009773552731251885
 -0.00015158190205444492 -0.0012603910422616803 0.000162077992533491 0.002004743467687272 0.9976462356695449 -0.009773552731251885 0.0022478969584950018 0.003865137098619279
0.01875781575657 0.002469797960515949 0.005844902972290211 0.9973584698264847 -0.014672481084348602 0.00022425160912675283 0.003008215704882368 -0.00020640924597231693 -0.0018938555894642112
 0.9973584698264847 -0.014672481084348602 0.002469583223490271 0.005844945405499448 -0.00020634277560125963 -0.0018938441601184814 0.00022561498995271086 0.003008005698085038
 0.00022425160912675283 0.003008215704882368 -0.00020634277560125963 -0.0018938441601184814 0.0024698300360167765 0.005844646287362555 0.9973584667632154 -0.014672731979594938
 -0.00020640924597231693 -0.0018938555894642112 0.00022561498995271086 0.003008005698085038 0.9973584667632154 -0.014672731979594938 0.0024695451250300237 0.005844700595755565
0.02501042100875 0.002712908392514384 0.007848872481923294 0.9970407934337953 -0.019586065325642305 0.00029941727108134 0.004012380503712402 -0.00027163832563000727 -0.002528834849657053
 0.9970407934337953 -0.019586065325642305 0.0027125270689198127 0.007848934854929933 -0.0002715209525625472 -0.0025288215329250965 0.00030183839314329794 0.004012048641329962
 0.00029941727108134 0.004012380503712402 -0.0002715209525625472 -0.0025288215329250965 0.002712965756888328 0.00784853022004196 0.9970407883654901 -0.01958639967061455
 -0.00027163832563000727 -0.002528834849657053 0.00030183839314329794 0.004012048641329962 0.9970407883654901 -0.01958639967061455 0.002712459774859165 0.00784860913761763
0.03126302626094 0.0029778085058672875 0.009875664715595605 0.9966928053670024 -0.02451505976764114 0.00038709630471235346 0.005017247104881605 -0.0003474082105965335 -0.0031650703450629377
 0.9966928053670024 -0.02451505976764114 0.0029772132533725415 0.00987575019415242 -0.00034722584108749284 -0.003165056404472804 0.0003908767495454626 0.00501676006273485
 0.00038709630471235346 0.005017247104881605 -0.00034722584108749284 -0.003165056404472804 0.002977898452317703 0.009875236713250574 0.9966927978008369 -0.02451547756030029
 -0.0003474082105965335 -0.0031650703450629377 0.0003908767495454626 0.00501676006273485 0.9966927978008369 -0.02451547756030029 0.002977108537523786 0.009875344009577914
0.037515631513130004 0.003264954649544649 0.01192425437310508 0.9963140958529364 -0.02945987391487162 0.00048741514165652304 0.006022669656876135 -0.0004338536803719192 -0.0038023317278492574
 0.9963140958529364 -0.02945987391487162 0.0032640981866420117 0.011924366280838443 -0.00043359235368759067 -0.0038023186107408015 0.0004928567600491881 0.006021989636679006
 0.00048741514165652304 0.006022669656876135 -0.00043359235368759067 -0.0038023186107408015 0.0032650844724622513 0.011923740423703578 0.996314085294444 -0.02946037515596289
 -0.0004338536803719192 -0.0038023317278492574 0.0004928567600491881 0.006021989636679006 0.996314085294444 -0.02946037515596289 0.003263947832464536 0.011923880176331121
0.043768236765320004 0.003574795542020941 0.013993851353497044 0.9959042520534979 -0.034420663445417145 0.0006004976547003903 0.0070284813164153605 -0.0005311055299595433 -0.004440399786157197
 0.9959042520534979 -0.034420663445417145 0.0035736306313756817 0.013993993171460776 -0.0005307514101452705 -0.00444038912371118 0.0006079026066820914 0.007027566000326037
 0.0006004976547003903 0.0070284813164153605 -0.0005307514101452705 -0.00444038912371118 0.0035749725366978516 0.013993251186561546 0.9959042380047219 -0.03442124815841954
 -0.0005311055299595433 -0.004440399786157197 0.0006079026066820914 0.007027566000326037 0.9959042380047219 -0.03442124815841954 0.0035734264303403313 0.013993427782627568
0.050020842017509996 0.0039077738899316265 0.016083793917324438 0.9954628601634216 -0.03939743699162937 0.0007264647634866502 0.008034501328095226 -0.0006392906486343022 -0.005079059433810657
 0.9954628601634216 -0.03939743699162937 0.0039062533242326825 0.01608396928422862 -0.0006388300195162232 -0.0050790530409622415 0.0007361355218440383 0.00803330383146106
 0.0007264647634866502 0.008034501328095226 -0.0006388300195162232 -0.0050790530409622415 0.003908005355300757 0.016083107205261116 0.9954628421238874 -0.039398105215192276
 -0.0006392906486343022 -0.005079059433810657 0.0007361355218440383 0.00803330383146106 0.9954628421238874 -0.039398105215192276 0.0039059870775035224 0.01608332534383834
0.055454545454549996 0.004216272508183937 0.017916084155274983 0.9950533351641798 -0.043735319942138404 0.0008464893401257829 0.008908784148648105 -0.0007422815400326699 -0.005634387993274142
 0.9950533351641798 -0.043735319942138404 0.004214404542303968 0.017916291755208376 -0.0007417173024625891 -0.005634386927400208 0.0008583750273077778 0.008907299769592394
 0.0008464893401257829 0.008908784148648105 -0.0007417173024625891 -0.005634386927400208 0.004216557239230115 0.017915321925905205 0.9950533132463067 -0.04373606077795511
 -0.0007422815400326699 -0.005634387993274142 0.0008583750273077778 0.008907299769592394 0.9950533132463067 -0.04373606077795511 0.004214077724302708 0.01791558022668235
0.056273447269699996 0.0042643271818327885 0.018193496275580746 0.9949895066887854 -0.044390108500995104 0.000865434138473826 0.00904053850769028 -0.0007585319914677217 -0.005718096304386957
 0.9949895066887854 -0.044390108500995104 0.004262403770053123 0.018193708988407494 -0.0007579512534333752 -0.0057180961796896934 0.0008776734706262317 0.009039007331094648
 0.000865434138473826 0.00904053850769028 -0.0007579512534333752 -0.0057180961796896934 0.004264620419016889 0.018192722637580094 0.994989484153452 -0.04439086028410755
 -0.0007585319914677217 -0.005718096304386957 0.0008776734706262317 0.009039007331094648 0.994989484153452 -0.04439086028410755 0.004262067287741046 0.01819298733238015
0.06252605252188 0.004644888076743032 0.020322419785260625 0.9944837793249728 -0.04939852599943989 0.0010175199503447167 0.010046393184058556 -0.0008889485003656237 -0.006357294896190456
 0.9944837793249728 -0.04939852599943989 0.0046425146306455 0.02032267380041162 -0.000888234168578819 -0.00635730322162524 0.0010326308849134122 0.010044472165476319
 0.0010175199503447167 0.010046393184058556 -0.000888234168578819 -0.00635730322162524 0.004645250391436301 0.02032155877819864 0.9944837517850741 -0.04939936140955414
 -0.0008889485003656237 -0.006357294896190456 0.0010326308849134122 0.010044472165476319 0.9944837517850741 -0.04939936140955414 0.004642099733412289 0.020321875361154818
0.06877865777407 0.005049884568730785 0.022470055784201366 0.9939452676182344 -0.05442248872654025 0.001182832647476252 0.011051858372276702 -0.0010306549930876932 -0.0069964374965031505
 0.9939452676182344 -0.05442248872654025 0.005047013890323494 0.022470355219127228 -0.0010297936963104043 -0.0069964566372831384 0.0012011184307748083 0.011049486639637923
 0.001182832647476252 0.011051858372276702 -0.0010297936963104043 -0.0069964566372831384 0.005050323270041147 0.022469106910335494 0.9939452345596438 -0.05442340784079194
 -0.0010306549930876932 -0.0069964374965031505 0.0012011184307748083 0.011049486639637923 0.9939452345596438 -0.05442340784079194 0.005046512409564009 0.022469481035380788
0.07503126302626001 0.005479740018497476 0.024635914728673183 0.9933735634981967 -0.0594617579798457 0.0013614787484634236 0.012056720540746541 -0.0011837620349151748 -0.007635303523026716
 0.9933735634981967 -0.0594617579798457 0.0054763248867217475 0.02463626386408125 -0.0011827405150760322 -0.007635336027357883 0.0013832427926026597 0.012053832465135776
 0.0013614787484634236 0.012056720540746541 -0.0011827405150760322 -0.007635336027357883 0.005480262419649459 0.024634877432314323 0.9933735244011469 -0.05946276088743537
 -0.0011837620349151748 -0.007635303523026716 0.0013832427926026597 0.012053832465135776 0.9933735244011469 -0.05946276088743537 0.005475728665837293 0.02463531507991158
0.08128386827845 0.005934873101374666 0.026819518975276686 0.9927682617329613 -0.06451606432812164 0.0015535606450751878 0.013060760148792353 -0.0013483757978726906 -0.008273669106376532
 0.9927682617329613 -0.06451606432812164 0.0059308662596678505 0.026819922257775016 -0.0013471809100859143 -0.008273717705192809 0.0015791064700258575 0.013057285298587514
 0.0015535606450751878 0.013060760148792353 -0.0013471809100859143 -0.008273717705192809 0.005935486520150047 0.026818392638000604 0.9927682160718301 -0.06451715113389576
 -0.0013483757978726906 -0.008273669106376532 0.0015791064700258575 0.013057285298587514 0.9927682160718301 -0.06451715113389576 0.005930167154986594 0.026818900120186413
0.08753647353064001 0.0064156976991578156 0.029020397802134123 0.9921289603329397 -0.06958511259873308 0.001759176411589167 0.014063752034615212 -0.001524597912704577 -0.008911306834169947
 0.9921289603329397 -0.06958511259873308 0.006411051842690786 0.029020859847479246 -0.0015232166255449145 -0.008911374440843388 0.0017888075819544468 0.014059615130578136
 0.001759176411589167 0.014063752034615212 -0.0015232166255449145 -0.008911374440843388 0.006416409457637324 0.029019181749278616 0.9921289075751253 -0.06958628341556226
 -0.001524597912704577 -0.008911306834169947 0.0017888075819544468 0.014059615130578136 0.9921289075751253 -0.06958628341556226 0.006410241724734015 0.029019765715188075
0.09378907878283 0.006922622754471446 0.031238083873140195 0.9914552609211185 -0.07466858543616972 0.0019784196193883712 0.015065465721659258 -0.0017125253150201988 -0.009547985588985846
 0.9914552609211185 -0.07466858543616972 0.006917290517041258 0.03123860947017795 -0.0017109447111171648 -0.009548075299019501 0.0020124396766692154 0.01506058659317501
 0.0019784196193883712 0.015065465721659258 -0.0017109447111171648 -0.009548075299019501 0.006923440178680127 0.03123677736691631 0.9914552005266017 -0.07466984039073192
 -0.0017125253150201988 -0.009547985588985846 0.0020124396766692154 0.01506058659317501 0.9914552005266017 -0.07466984039073192 0.0069163612714609815 0.031237444808920503
0.100041684035 0.007456052095842411 0.03347211065769912 0.990746769078845 -0.07976614591987546 0.0022113791552853083 0.01606566566632969 -0.0019122500876707289 -0.010183470457458625
 0.990746769078845 -0.07976614591987546 0.007449986037314156 0.033472704772602765 -0.001910457364535852 -0.010183585548114908 0.0022500915464252072 0.016059959208892093
 0.0022113791552853083 0.01606566566632969 -0.001910457364535852 -0.010183585548114908 0.007456982516490527 0.03347071289714943 0.9907467004998702 -0.07976748515137529
 -0.0019122500876707289 -0.010183470457458625 0.0022500915464252072 0.016059959208892093 0.9907467004998702 -0.07976748515137529 0.007448929566747748 0.03347147115761039
0.1059090909091 0.007981079383280446 0.03558295298992812 0.9900499337151077 -0.0845621627591372 0.002442536732454181 0.017002656416908873 -0.0021104778116079396 -0.010778507149364526
 0.9900499337151077 -0.0845621627591372 0.007974281488329023 0.03558361608069519 -0.002108474496565532 -0.010778649199279343 0.002485928212998401 0.01699609176608792
 0.002442536732454181 0.017002656416908873 -0.002108474496565532 -0.010778649199279343 0.007982122510007936 0.0355814688121764 0.990049856950073 -0.08456358121232907
 -0.0021104778116079396 -0.010778507149364526 0.002485928212998401 0.01699609176608792 0.990049856950073 -0.08456358121232907 0.007973098281959459 0.035582319292094496
0.1062942892872 0.008016384243229384 0.03572201050720522 0.9900030946755664 -0.0848774395401808 0.0024581390419669805 0.017064111471256454 -0.0021238593016123424 -0.01081752268652769
 0.9900030946755664 -0.0848774395401808 0.008009536836873754 0.035722678288577614 -0.002121841772622558 -0.010817666616461375 0.0025018470445585753 0.017057487605263585
 0.0024581390419669805 0.017064111471256454 -0.002121841772622558 -0.010817666616461375 0.008017434995182583 0.035720520628156754 0.9900030173557343 -0.08487886319925515
 -0.0021238593016123424 -0.01081752268652769 0.0025018470445585753 0.017057487605263585 0.9900030173557343 -0.08487886319925515 0.008008345061761308 0.03572137740672769
0.11254689453939999 0.008604012198767356 0.0379873132038572 0.989223852186232 -0.09000209571752428 0.0027187782620605207 0.01806055807116466 -0.002347434854288663 -0.011449899679997478
 0.989223852186232 -0.09000209571752428 0.008596335818254737 0.03798805998833915 -0.0023451799498812173 -0.011450076088826066 0.0027677849064006534 0.018052921702135086
 0.0027187782620605207 0.01806055807116466 -0.0023451799498812173 -0.011450076088826066 0.008605190621073015 0.03798573027699336 0.9892237655600701 -0.09000360396678822
 -0.002347434854288663 -0.011449899679997478 0.0027677849064006534 0.018052921702135086 0.9892237655600701 -0.09000360396678822 0.008595000678596552 0.03798669363858404
0.11879949979160001 0.0092193232250903 0.04026754484501282 0.9884086610001233 -0.09513972900190602 0.002993370583831153 0.019054755906518447 -0.0025830533080663746 -0.012080355020403588
 0.9884086610001233 -0.09513972900190602 0.009210770131372956 0.04026837616357279 -0.0025805485768799485 -0.012080567728243525 0.0030479785722561056 0.019046006886828788
 0.002993370583831153 0.019054755906518447 -0.0025805485768799485 -0.012080567728243525 0.009220636660587901 0.040265867876270435 0.9884085644920487 -0.09514132201428893
 -0.0025830533080663746 -0.012080355020403588 0.0030479785722561056 0.019046006886828788 0.9884085644920487 -0.09514132201428893 0.009209283588273812 0.040266946259563945
0.1250521050438 0.009862698614106087 0.04256222698502651 0.9875571457211147 -0.10028994003081153 0.003281984389524464 0.020046451086562618 -0.0028307857279528266 -0.012708638514616578
 0.9875571457211147 -0.10028994003081153 0.009853220943042942 0.0425631485698124 -0.002828018838329361 -0.012708891521577715 0.003342496013146428 0.020036484178735218
 0.003281984389524464 0.020046451086562618 -0.002828018838329361 -0.012708891521577715 0.009864154409581077 0.04256045491253697 0.9875570387456059 -0.10029161799121082
 -0.0028307857279528266 -0.012708638514616578 0.003342496013146428 0.020036484178735218 0.9875570387456059 -0.10029161799121082 0.009851574980023991 0.04256165713922813
0.131304710296 0.010534513450225444 0.04487087596275832 0.9866689364651989 -0.10545231631803041 0.0035846825056114633 0.02103538554746752 -0.0030906975204349815 -0.013334496257723297
 0.9866689364651989 -0.10545231631803041 0.010524063199386029 0.044871893754731426 -0.003087656261822117 -0.013334793743401565 0.0036513995587561785 0.021024090389125824
 0.0035846825056114633 0.02103538554746752 -0.003087656261822117 -0.013334793743401565 0.010536118955780945 0.04486900765497941 0.9866688184252292 -0.10545407942386371
 -0.0030906975204349815 -0.013334496257723297 0.0036513995587561785 0.021024090389125824 0.9866688184252292 -0.10545407942386371 0.010522249824219825 0.0448703429395682
0.1375573155481 0.011092728691191439 0.04689307391429994 0.9858861597949338 -0.11032628366769107 0.003866290758818664 0.021992777061619267 -0.003327556747850305 -0.013929240928227806
 0.9858861597949338 -0.11032628366769107 0.011081252669539974 0.0468941682803178 -0.0033242228297765456 -0.01392958381332946 0.003939373037171414 0.021980157310181755
 0.003866290758818664 0.021992777061619267 -0.0033242228297765456 -0.01392958381332946 0.01109449051716559 0.046891108169273 0.985886030179609 -0.11032813199647369
 -0.003327556747850305 -0.013929240928227806 0.003939373037171414 0.021980157310181755 0.985886030179609 -0.11032813199647369 0.011079264475383006 0.0468925600986348
0.1438099208003 0.011670901937586523 0.04890240432560352 0.9850751976558653 -0.11518564504283513 0.004159174174920035 0.022944968776574738 -0.003573781283211533 -0.014519147757379123
 0.9850751976558653 -0.11518564504283513 0.011658351167035737 0.04890357961444953 -0.0035701415758785625 -0.014519540212548025 0.004238897199026874 0.02293092211526368
 0.004159174174920035 0.022944968776574738 -0.0035701415758785625 -0.014519540212548025 0.011672827308317766 0.04890033997743879 0.9850750558711321 -0.11518757877776449
 -0.003573781283211533 -0.014519147757379123 0.004238897199026874 0.02293092211526368 0.9850750558711321 -0.11518757877776449 0.011656180296424236 0.048901916270195044
0.1500625260525 0.012268793736884328 0.05089863353326615 0.9842362949360512 -0.12003021257366674 0.004463207711943406 0.023891821661544903 -0.003829248110898417 -0.015104084691345396
 0.9842362949360512 -0.12003021257366674 0.012255119080425465 0.05089989437076605 -0.0038252895280523813 -0.015104531055176309 0.00454984490663221 0.02387624202705422
 0.004463207711943406 0.023891821661544903 -0.0038252895280523813 -0.015104531055176309 0.01227088987221001 0.0508964693661407 0.9842361403790088 -0.12003223190356295
 -0.003829248110898417 -0.015104084691345396 0.00454984490663221 0.02387624202705422 0.9842361403790088 -0.12003223190356295 0.012252757704578197 0.05089817815738724
0.15631513130469998 0.012886162504159518 0.05288153487547874 0.9833696982489798 -0.12485980063387432 0.0047782646094031095 0.024833199635858092 -0.004093832475206892 -0.015683922954488477
 0.9833696982489798 -0.12485980063387432 0.012871314661925702 0.05288288617287965 -0.004089541975140868 -0.0156844277325947 0.004872087264987358 0.024815977264890588
