! Created with skrf 1.8.0 (http://scikit-rf.org).
# GHz S RI R 50.0 
!freq ReS11 ImS11 ReS12 ImS12 ReS13 ImS13
! ReS14 ImS14
! ReS21 ImS21 ReS22 ImS22 ReS23 ImS23
! ReS24 ImS24
! ReS31 ImS31 ReS32 ImS32 ReS33 ImS33
! ReS34 ImS34
! ReS41 ImS41 ReS42 ImS42 ReS43 ImS43
! ReS44 ImS44
!
0.0 0.00169807005849 0.0 0.9983019299301 0.0 6.563979460726e-05 0.0 -6.563979416297e-05 8.038556381837233e-21
 0.9983019299301 0.0 0.001698070058516 0.0 -6.563979416348e-05 8.03855638189969e-21 6.563979460742e-05 0.0
 6.563979460726e-05 0.0 -6.563979416348e-05 8.03855638189969e-21 0.0016980700585 0.0 0.9983019299301 0.0
 -6.563979416297e-05 8.038556381837233e-21 6.563979460742e-05 0.0 0.9983019299301 0.0 0.001698070058499 0.0
0.005 0.0018274448221664063 0.0013909384223930383 0.9981381826925888 -0.003556312478141892 9.190701384373097e-05 0.0007101289774265867 -8.930198858930668e-05 -0.0004479368011055697
 0.9981381826925888 -0.003556312478141892 0.0018274565310092276 0.0013909316462428225 -8.929893034929031e-05 -0.0004479345741112628 9.184633444737732e-05 0.000710152187932895
 9.190701384373097e-05 0.0007101289774265867 -8.929893034929031e-05 -0.0004479345741112628 0.001827445409279169 0.0013908708604089789 0.9981381823228108 -0.003556379550441902
 -8.930198858930668e-05 -0.0004479368011055697 9.184633444737732e-05 0.000710152187932895 0.9981381823228108 -0.003556379550441902 0.001827455203977445 0.0013908650610504024
0.006252605252188 0.0018615200066890803 0.0017441139950516678 0.9980947610200994 -0.004446236056363749 9.948571719897412e-05 0.0008880022815014977 -9.604448135258457e-05 -0.0005604884154389334
 0.9980947610200994 -0.004446236056363749 0.0018615383089570436 0.001744105381749813 -9.603972154051865e-05 -0.0005604856728514816 9.939091296121622e-05 0.0008880324185456935
 9.948571719897412e-05 0.0008880022815014977 -9.603972154051865e-05 -0.0005604856728514816 0.00186152099867669 0.0017440295785405239 0.9980947605169338 -0.004446319868688989
 -9.604448135258457e-05 -0.0005604884154389334 9.939091296121622e-05 0.0008880324185456935 0.9980947605169338 -0.004446319868688989 0.0018615363099126552 0.0017440221684817151
0.01250521050438 0.0020417379084828437 0.0035244631959330413 0.9978634978892803 -0.008893095518483132 0.0001433402140652403 0.001776339052270707 -0.00013463167989218137 -0.0011235863988448972
 0.9978634978892803 -0.008893095518483132 0.0020418109774205176 0.003524444506420873 -0.00013461291056499143 -0.0011235813701884762 0.00014296219981257193 0.0017764115417102059
 0.0001433402140652403 0.001776339052270707 -0.00013461291056499143 -0.0011235813701884762 0.00204174241546227 0.0035242946792334684 0.9978634964368932 -0.008893262894122953
 -0.00013463167989218137 -0.0011235863988448972 0.00014296219981257193 0.0017764115417102059 0.9978634964368932 -0.008893262894122953 0.002041803562330812 0.0035242782303334524
0.01875781575657 0.002239147689760931 0.005329839180873826 0.9976078314323396 -0.01335136351332813 0.00019730975871778476 0.002665566822555653 -0.0001815258354519595 -0.00168847968732486
 0.9976078314323396 -0.01335136351332813 0.0022393118559657825 0.005329808798094353 -0.00018148396407974737 -0.001688472930280446 0.00019646069241807725 0.0026656964714743734
 0.00019730975871778476 0.002665566822555653 -0.00018148396407974737 -0.001688472930280446 0.0022391582215045536 0.005329586712582266 0.9976078285954809 -0.013351614337416582
 -0.0001815258354519595 -0.00168847968732486 0.00019646069241807725 0.0026656964714743734 0.9976078285954809 -0.013351614337416582 0.0022392956406584058 0.005329559478708218
0.02501042100875 0.0024541589294891026 0.00715768243314252 0.9973274395356545 -0.017823162214379632 0.00026150213643798785 0.0035556947460017676 -0.00023684686326981599 -0.0022548938851734185
 0.9973274395356545 -0.017823162214379632 0.002454450438000789 0.007157638597835628 -0.0002367729018717017 -0.0022548860673551915 0.000259994170723219 0.0035558988685184907
 0.00026150213643798785 0.0035556947460017676 -0.0002367729018717017 -0.0022548860673551915 0.0024541779733125353 0.007157346096459171 0.9973274348752925 -0.017823496406146968
 -0.00023684686326981599 -0.0022548938851734185 0.000259994170723219 0.0035558988685184907 0.9973274348752925 -0.017823496406146968 0.0024544220509666636 0.007157306221834178
0.03126302626094 0.0026871642479455397 0.009006656458025751 0.997021984799516 -0.02230937670802849 0.00033602522137247395 0.004446651101191988 -0.0003007109296174679 -0.00282262797820736
 0.997021984799516 -0.02230937670802849 0.002687619278775002 0.009006597270475324 -0.0003005959774371723 -0.0028226198782886963 0.000333670329962816 0.004446949532577627
 0.00033602522137247395 0.004446651101191988 -0.0003005959774371723 -0.0028226198782886963 0.0026871942772149723 0.009006236308372152 0.997021977879397 -0.022309794183548927
 -0.0003007109296174679 -0.00282262797820736 0.000333670329962816 0.004446949532577627 0.997021977879397 -0.022309794183548927 0.0026875753652573896 0.00900618182897068
0.037515631513130004 0.0029385474144356803 0.010875875215882444 0.9966911229683276 -0.026810427499700022 0.00042098590170446475 0.005338331787505212 -0.0003732312510381568 -0.0033915058568120254
 0.9966911229683276 -0.026810427499700022 0.0029392020955486173 0.010875798636329648 -0.00037306648590534804 -0.0033914983649043474 0.00041759580286807984 0.00533874690866214
 0.00042098590170446475 0.005338331787505212 -0.00037306648590534804 -0.0033914983649043474 0.0029385908899401273 0.01087537126178968 0.9966911133560817 -0.026810928191064905
 -0.0003732312510381568 -0.0033915058568120254 0.00041759580286807984 0.00533874690866214 0.9966911133560817 -0.026810928191064905 0.00293913931667347 0.010875300105854437
0.043768236765320004 0.0032086864710541706 0.012764667972983859 0.996334506380723 -0.03132650559088769 0.0005164895673069511 0.006230615056204303 -0.0004545183593255436 -0.003961361605710659
 0.996334506380723 -0.03132650559088769 0.0032095768889229986 0.012764571821636003 -0.0004542950327465593 -0.003961355723558731 0.0005118756896053798 0.006231171821388484
 0.0005164895673069511 0.006230615056204303 -0.0004542950327465593 -0.003961355723558731 0.0032087458386700495 0.012764080197979193 0.9963344936443777 -0.03132708942440018
 -0.0004545183593255436 -0.003961361605710659 0.0005118756896053798 0.006231171821388484 0.9963344936443777 -0.03132708942440018 0.0032094919174777835 0.012763990186156668
0.050020842017509996 0.0034979551608240087 0.01467248215176504 0.9959517857277742 -0.03585766955580373 0.0006226397869719744 0.007123367623937146 -0.0005446801858699511 -0.004532033415281398
 0.9959517857277742 -0.03585766955580373 0.003499117369815752 0.014672364108283101 -0.0005443896200661707 -0.004532030256360716 0.0006166132568630228 0.007124093589815705
 0.0006226397869719744 0.007123367623937146 -0.0005443896200661707 -0.004532030256360716 0.003498032853673291 0.014671810503353665 0.9959517694379099 -0.03585833646303655
 -0.0005446801858699511 -0.004532033415281398 0.0006166132568630228 0.007124093589815705 0.9959517694379099 -0.03585833646303655 0.003499006890907166 0.014671699348508715
0.055454545454549996 0.003765161596958839 0.016345502525630808 0.9955977184471179 -0.03980762114506552 0.0007236127450823604 0.007899467811058153 -0.0006303227701177929 -0.005028502478955752
 0.9955977184471179 -0.03980762114506552 0.0037665892621931763 0.016345363463161587 -0.0006299667775224738 -0.005028502677699476 0.0007162049550797508 0.007900365240290115
 0.0007236127450823604 0.007899467811058153 -0.0006299667775224738 -0.005028502677699476 0.003765257179881574 0.016344757932475678 0.9955976987208832 -0.03980836017989872
 -0.0006303227701177929 -0.005028502478955752 0.0007162049550797508 0.007900365240290115 0.9955976987208832 -0.03980836017989872 0.0037664539318434755 0.01634462646239334
0.056273447269699996 0.0038067236557693487 0.01659883563494424 0.995542611116533 -0.040403893167108636 0.0007395380762613817 0.008016447658319721 -0.0006438220576203028 -0.005103360626027222
 0.995542611116533 -0.040403893167108636 0.003808193685924459 0.016598693237765708 -0.0006434556436914661 -0.005103361415597338 0.0007319097194376661 0.008017373013585297
 0.0007395380762613817 0.008016447658319721 -0.0006434556436914661 -0.005103361415597338 0.0038068220928127445 0.01659808004185367 0.9955425908447544 -0.040404643067541594
 -0.0006438220576203028 -0.005103360626027222 0.0007319097194376661 0.008017373013585297 0.9955425908447544 -0.040404643067541594 0.0038080543945546597 0.016597945348826512
0.06252605252188 0.004135358925440281 0.018543290553848592 0.9951066327800281 -0.044965091542465946 0.0008672837046499592 0.008909706445100477 -0.0007520466543243822 -0.005675182097493019
 0.9951066327800281 -0.044965091542465946 0.004137172790605813 0.018543121199189754 -0.0007515958512122168 -0.005675188172631371 0.0008578640560534419 0.008910864040250838
 0.0008672837046499592 0.008909706445100477 -0.0007515958512122168 -0.005675188172631371 0.004135480513699561 0.01854245091243952 0.995106608100351 -0.044965924357081834
 -0.0007520466543243822 -0.005675182097493019 0.0008578640560534419 0.008910864040250838 0.995106608100351 -0.044965924357081834 0.004137001392572068 0.018542290177422083
0.06877865777407 0.004484224918214524 0.020505437666224535 0.9946435016031665 -0.04954113670814335 0.0010059735297512642 0.009802989376450019 -0.0008694539379568035 -0.00624733526256493
 0.9946435016031665 -0.04954113670814335 0.004486418623196421 0.020505238606874036 -0.0008689102718071106 -0.006247348072185074 0.000994572850191731 0.009804414753594675
 0.0010059735297512642 0.009802989376450019 -0.0008689102718071106 -0.006247348072185074 0.004484372052022672 0.02050451384426366 0.9946434720921651 -0.049542052355623006
 -0.0008694539379568035 -0.00624733526256493 0.000994572850191731 0.009804414753594675 0.9946434720921651 -0.049542052355623006 0.004486211834032472 0.02050432445398349
0.07503126302626001 0.004853682626336059 0.022484886445320474 0.9941528695395607 -0.05413186745845699 0.00115570184378749 0.010696136601440623 -0.0009961410691277537 -0.006819655526548359
 0.9941528695395607 -0.05413186745845699 0.004856292174442063 0.022484654789077994 -0.000995496133151245 -0.006819676631378465 0.001142130141053954 0.010697868023922467
 0.00115570184378749 0.010696136601440623 -0.000995496133151245 -0.006819676631378465 0.004853857687277917 0.022483878283175086 0.9941528347757718 -0.05413286585391421
 -0.0009961410691277537 -0.006819655526548359 0.001142130141053954 0.010697868023922467 0.9941528347757718 -0.05413286585391421 0.004856046718152642 0.02248365751390482
0.08128386827845 0.0052440900812844434 0.02448125850084536 0.9936343899614142 -0.0587370958913029 0.0013165602296691164 0.01158898345778043 -0.0011322023127532368 -0.007391975892188104
 0.9936343899614142 -0.0587370958913029 0.0052471514812398755 0.024480991208807833 -0.001131447767320393 -0.007392006964741987 0.0013006272835097818 0.011591061939560821
 0.0013165602296691164 0.01158898345778043 -0.001131447767320393 -0.007392006964741987 0.005244295438531915 0.024480165815303812 0.9936343495256296 -0.05873817694241328
 -0.0011322023127532368 -0.007391975892188104 0.0013006272835097818 0.011591061939560821 0.9936343495256296 -0.05873817694241328 0.0052468640896656555 0.02447991083163017
0.08753647353064001 0.005655802297796689 0.026494183034992624 0.9930877179640036 -0.06335661191680363 0.0014886374226082933 0.012481360790192474 -0.001277728937311448 -0.007964126705555692
 0.9930877179640036 -0.06335661191680363 0.005659351570884807 0.026493876919503313 -0.0012768565101572331 -0.007964169530082936 0.0014701528127592477 0.012483830124868554
 0.0014886374226082933 0.012481360790192474 -0.0012768565101572331 -0.007964169530082936 0.0056560403082427605 0.026493005610552303 0.99308767143966 -0.06335777553247635
 -0.001277728937311448 -0.007964126705555692 0.0014701528127592477 0.012483830124868554 0.99308767143966 -0.06335777553247635 0.005659018983902387 0.026492713463837757
0.09378907878283 0.006089171188329163 0.028523293593893075 0.9925125106440559 -0.0679901864795244 0.0016720191759192228 0.0133730951862265 -0.001432809108888006 -0.008535935492150913
 0.9925125106440559 -0.0679901864795244 0.006093244375628595 0.028522945316271857 -0.0014318105956579788 -0.008535991964562006 0.0016507923127578581 0.013376001975691288
 0.0016720191759192228 0.0133730951862265 -0.0014318105956579788 -0.008535991964562006 0.006089444196686417 0.028522031192157696 0.9925124576170677 -0.0679914325603942
 -0.001432809108888006 -0.008535935492150913 0.0016507923127578581 0.013376001975691288 0.9925124576170677 -0.0679914325603942 0.006092863339897633 0.028521698818762438
0.100041684035 0.00654454545155999 0.03056822569619534 0.9919084273567307 -0.07263757391237716 0.0018667881294085864 0.01426400916603884 -0.0015975277822341128 -0.009107226846950587
 0.9919084273567307 -0.07263757391237716 0.006549178621044807 0.03056783176406504 -0.0015963950470839327 -0.009107298974706836 0.001842628286601747 0.014267402848700076
 0.0018667881294085864 0.01426400916603884 -0.0015963950470839327 -0.009107298974706836 0.006544855790377277 0.030566878049649422 0.9919083674157025 -0.07263890235703495
 -0.0015975277822341128 -0.009107226846950587 0.001842628286601747 0.014267402848700076 0.9919083674157025 -0.07263890235703495 0.006548745889312939 0.030566502269001608
0.1059090909091 0.006992187230099927 0.03250124260614517 0.991314995640017 -0.07701098488058876 0.0020599854367775536 0.015099129748648004 -0.0017609376594028183 -0.009642693715237374
 0.991314995640017 -0.07701098488058876 0.006997378716636128 0.032500802516530224 -0.0017596716333253487 -0.009642782458914773 0.0020328997489272266 0.015103027843706797
 0.0020599854367775536 0.015099129748648004 -0.0017596716333253487 -0.009642782458914773 0.006992534710251609 0.03249981469973227 0.9913149288393587 -0.0770123905182143
 -0.0017609376594028183 -0.009642693715237374 0.0020328997489272266 0.015103027843706797 0.9913149288393587 -0.0770123905182143 0.0069968945259977254 0.03249939518706043
0.1062942892872 0.007022270443927685 0.032628615059419774 0.9912751299587353 -0.07729851370237374 0.002073023679881399 0.015153921333727859 -0.0017719665890280924 -0.009677822370968947
 0.9912751299587353 -0.07729851370237374 0.0070274996970744776 0.03262817182399083 -0.001770691565222861 -0.00967791227297686 0.0020457400291949536 0.015157854212206659
 0.002073023679881399 0.015153921333727859 -0.001770691565222861 -0.00967791227297686 0.007022620433524324 0.03262718187461358 0.9912750626951655 -0.07729992440411712
 -0.0017719665890280924 -0.009677822370968947 0.0020457400291949536 0.015157854212206659 0.9912750626951655 -0.07729992440411712 0.007027012028390888 0.032626759386848773
0.11254689453939999 0.007522688037414657 0.03470409624760325 0.990612283042256 -0.08197273184486673 0.0022908018531031323 0.01604264651100643 -0.0019562037244812112 -0.010247540633641207
 0.990612283042256 -0.08197273184486673 0.007528549516641133 0.03470359990038623 -0.001954778415355525 -0.010247650540085185 0.0022602035007144045 0.01604717377931825
 0.0022908018531031323 0.01604264651100643 -0.001954778415355525 -0.010247650540085185 0.007523079986333062 0.03470257720217683 0.9906122080507183 -0.08197422469457986
 -0.0019562037244812112 -0.010247540633641207 0.0022602035007144045 0.01604717377931825 0.9906122080507183 -0.08197422469457986 0.007528003675180722 0.03470210458566721
0.11879949979160001 0.008046136467276225 0.03679430162267329 0.989919554161443 -0.08665994190379661 0.002520195177335341 0.016929995856272827 -0.0021503138324777808 -0.010816197158261544
 0.989919554161443 -0.08665994190379661 0.008052666363023602 0.03679374819203646 -0.002148730312160793 -0.01081632941043827 0.0024860912019923605 0.016935175626424458
 0.002520195177335341 0.016929995856272827 -0.002148730312160793 -0.01081632941043827 0.008046572671862883 0.03679269636809603 0.9899194710396896 -0.08666151678722327
 -0.0021503138324777808 -0.010816197158261544 0.0024860912019923605 0.016935175626424458 0.9899194710396896 -0.08666151678722327 0.008052059117925827 0.03679217007652227
0.1250521050438 0.008592950171134532 0.038898860529676275 0.9891966140533114 -0.09135984584859091 0.0027612725579028293 0.01781577696969458 -0.0023543678898228374 -0.011383604429739779
 0.9891966140533114 -0.09135984584859091 0.008600184728435076 0.038898245877118404 -0.002352618304307679 -0.011383761479847095 0.002723472050342757 0.017821670297709025
 0.0027612725579028293 0.01781577696969458 -0.002352618304307679 -0.011383761479847095 0.008593432915897235 0.038897168690460865 0.9891965224021344 -0.09136150264698172
 -0.0023543678898228374 -0.011383604429739779 0.002723472050342757 0.017821670297709025 0.9891965224021344 -0.09136150264698172 0.008599512853319868 0.03889658504981267
0.131304710296 0.009163459621753358 0.04101739865247205 0.9884431368553044 -0.096072134730888 0.0030140991528043357 0.01869979399726031 -0.0025684330901890877 -0.011949571912120913
 0.9884431368553044 -0.096072134730888 0.009171435148016665 0.04101671846844877 -0.0025665096582402898 -0.011949756323044469 0.002972411256696544 0.01870646490845642
 0.0030140991528043357 0.01869979399726031 -0.0025665096582402898 -0.011949756323044469 0.009163991179183335 0.041015619824331356 0.9884430362791637 -0.0960738733229209
 -0.0025684330901890877 -0.011949571912120913 0.002972411256696544 0.01870646490845642 0.9884430362791637 -0.0960738733229209 0.009170695420313228 0.041014975029353085
0.1375573155481 0.009632201630442466 0.04287449405054473 0.9877846478638918 -0.10052129624406966 0.003248371809939194 0.019555193100880428 -0.0027622617222683257 -0.012487238555232281
 0.9877846478638918 -0.10052129624406966 0.009640958046623575 0.04287375751061272 -0.0027601531944933676 -0.012487450744714907 0.0032026974583834137 0.01956263608129039
 0.003248371809939194 0.019555193100880428 -0.0027601531944933676 -0.012487450744714907 0.00963278550707998 0.04287262699770668 0.9877845379676624 -0.1005231164925455
 -0.0027622617222683257 -0.012487238555232281 0.0032026974583834137 0.01956263608129039 0.9877845379676624 -0.1005231164925455 0.009640145998647657 0.042871932337096554
0.1438099208003 0.01011759713851441 0.044720892048608234 0.987102684851036 -0.10495823536013098 0.003492081039887257 0.02040652036272714 -0.0029638029857369714 -0.01302117024749416
 0.987102684851036 -0.10495823536013098 0.010127171409970177 0.04472009562184604 -0.002961501060843122 -0.013021412746276505 0.0034422460127594896 0.020414794448985158
 0.003492081039887257 0.02040652036272714 -0.002961501060843122 -0.013021412746276505 0.010118235812540946 0.044718936246546895 0.9871025652453 -0.10496013713133381
 -0.0029638029857369714 -0.01302117024749416 0.0034422460127594896 0.020414794448985158 0.9871025652453 -0.10496013713133381 0.01012628359657768 0.04471818889374578
0.1500625260525 0.010619461197254185 0.04655641060334796 0.9863974373897494 -0.10938281336377566 0.003745133918784422 0.02125366952496528 -0.003172966652735475 -0.013551267411936654
 0.9863974373897494 -0.10938281336377566 0.010629890374315807 0.046555550562392405 -0.003170463057533708 -0.013551542851704231 0.0036909651014872887 0.021262835930219024
 0.003745133918784422 0.02125366952496528 -0.003170463057533708 -0.013551542851704231 0.010620157149896645 0.046554365499987135 0.986397307688771 -0.10938479652083286
 -0.003172966652735475 -0.013551267411936654 0.0036909651014872887 0.021262835930219024 0.986397307688771 -0.10938479652083286 0.010628923338549435 0.046553562468654455
0.15631513130469998 0.011137607378221488 0.04838087309298529 0.9856690961991655 -0.1137948926533656 0.004007436329096933 0.02209653633992894 -0.0033896612972624594 -0.014077432734982473
 0.9856690961991655 -0.1137948926533656 0.011148928598610261 0.04837994551014179 -0.003386947787258029 -0.01407774384769662 0.003948761730188323 0.022106658430939577
