! Created with skrf 1.8.0 (http://scikit-rf.org).
# GHz S RI R 50.0 
!freq ReS11 ImS11 ReS12 ImS12 ReS13 ImS13
! ReS14 ImS14
! ReS21 ImS21 ReS22 ImS22 ReS23 ImS23
! ReS24 ImS24
! ReS31 ImS31 ReS32 ImS32 ReS33 ImS33
! ReS34 ImS34
! ReS41 ImS41 ReS42 ImS42 ReS43 ImS43
! ReS44 ImS44
!
0.0 0.001694165866817 0.0 0.9983058341332 0.0 6.546931869816e-05 0.0 -6.546931847561e-05 8.017679131351446e-21
 0.9983058341332 0.0 0.001694165866787 0.0 -6.546931847558e-05 8.017679131347772e-21 6.546931869716e-05 0.0
 6.546931869816e-05 0.0 -6.546931847558e-05 8.017679131347772e-21 0.001694165863978 0.0 0.9983058341303 0.0
 -6.546931847561e-05 8.017679131351446e-21 6.546931869716e-05 0.0 0.9983058341303 0.0 0.001694165863949 0.0
0.005 0.0018232221057140434 0.0013880103154842015 0.9981424860377659 -0.003548134224375659 9.166703702549209e-05 0.0007067285490496159 -8.903274827318083e-05 -0.0004460772082424357
 0.9981424860377659 -0.003548134224375659 0.001823245309971777 0.0013879968010701367 -8.903407159867423e-05 -0.00044607827305785387 9.151363951728478e-05 0.0007067869277582114
 9.166703702549209e-05 0.0007067285490496159 -8.903407159867423e-05 -0.00044607827305785387 0.0018232207996677617 0.0013879438543513416 0.9981424856649936 -0.003548201281094901
 -8.903274827318083e-05 -0.0004460772082424357 9.151363951728478e-05 0.0007067869277582114 0.9981424856649936 -0.003548201281094901 0.0018232458739353532 0.0013879291504627631
0.006252605252188 0.0018572078963624552 0.0017404418230132167 0.998099175766697 -0.004436011759608859 9.923592751748156e-05 0.0008837501411004862 -9.57444213836449e-05 -0.0005581614316853329
 0.998099175766697 -0.004436011759608859 0.0018572441686120432 0.0017404246703670275 -9.574648018457293e-05 -0.0005581627453706556 9.899625899875647e-05 0.00088382598937064
 9.923592751748156e-05 0.0008837501411004862 -9.574648018457293e-05 -0.0005581627453706556 0.0018572059363250182 0.0017403587512118484 0.998099175266142 -0.004436095583128559
 -9.57444213836449e-05 -0.0005581614316853329 9.899625899875647e-05 0.00088382598937064 0.998099175266142 -0.004436095583128559 0.001857245132738511 0.0017403400992785836
0.01250521050438 0.0020369213829699033 0.00351703940934952 0.9978685377021612 -0.00887265031642014 0.00014308630998412578 0.0017678304976106306 -0.00013414106219416025 -0.0011189223865709277
 0.9978685377021612 -0.00887265031642014 0.0020370662140629502 0.003517002487766141 -0.00013414917092724568 -0.0011189248229091686 0.00014213057167431368 0.0017680133951636097
 0.00014308630998412578 0.0017678304976106306 -0.00013414917092724568 -0.0011189248229091686 0.00203691409740343 0.0035168736048238306 0.9978685362500211 -0.008872817713406178
 -0.00013414106219416025 -0.0011189223865709277 0.00014213057167431368 0.0017680133951636097 0.9978685362500211 -0.008872817713406178 0.002037070619246759 0.0035168335406791655
0.01875781575657 0.0022337283910193666 0.005318611541683065 0.9976136122476321 -0.01332067646049432 0.00019712578551252976 0.0026527902403871055 -0.00018078290727416735 -0.0016814741833282825
 0.9976136122476321 -0.01332067646049432 0.0022340538244684928 0.005318552043370251 -0.0001808009830875765 -0.0016814775126319087 0.00019497883960287318 0.0026531179261433634
 0.00019712578551252976 0.0026527902403871055 -0.0001808009830875765 -0.0016814775126319087 0.0022337124249865448 0.005318363237531008 0.9976136094005338 -0.0133209273349666
 -0.00018078290727416735 -0.0016814741833282825 0.00019497883960287318 0.0026531179261433634 0.9976136094005338 -0.0133209273349666 0.0022340641565632992 0.005318298747947351
0.02501042100875 0.0024480367158294363 0.0071426057361780974 0.9973340787681916 -0.01778220829370278 0.00026146136006545634 0.003538635199044213 -0.0002357890844614527 -0.0022455440966232176
 0.9973340787681916 -0.01778220829370278 0.0024486146493685503 0.007142520687978944 -0.0002358209952467582 -0.002245548046540069 0.00025764792366547495 0.0035391517511350456
 0.00026146136006545634 0.003538635199044213 -0.0002358209952467582 -0.002245548046540069 0.002448008718369566 0.007142275169106119 0.9973340740862646 -0.017782542593243925
 -0.0002357890844614527 -0.0022455440966232176 0.00025764792366547495 0.0035391517511350456 0.9973340740862646 -0.017782542593243925 0.002448633402591852 0.007142183016290443
0.03126302626094 0.0026802372657732275 0.008987689727733452 0.9970296014028616 -0.022258129732599965 0.0003362002273138121 0.004425290896375126 -0.00029927497387796545 -0.0028109322403350127
 0.9970296014028616 -0.022258129732599965 0.0026811394938176013 0.008987575996838325 -0.0002993245464824871 -0.0028109364953940352 0.0003302444473465483 0.004426046771295928
 0.0003362002273138121 0.004425290896375126 -0.0002993245464824871 -0.0028109364953940352 0.0026801938814554342 0.008987277160312798 0.9970295944420801 -0.022258547426484032
 -0.00029927497387796545 -0.0028109322403350127 0.0003302444473465483 0.004426046771295928 0.9970295944420801 -0.022258547426484032 0.002681169164660734 0.00898715388725708
0.037515631513130004 0.002930712133107356 0.010852980676239552 0.9966998374527894 -0.026748861242256686 0.0004214486275646641 0.005312650678992159 -0.00037135300751627834 -0.003377463447231771
 0.9966998374527894 -0.026748861242256686 0.0029320103774234216 0.010852834973012872 -0.0003714240320421853 -0.00337746764876763 0.00041287389851505594 0.005313702775372075
 0.0004214486275646641 0.005312650678992159 -0.0003714240320421853 -0.00337746764876763 0.002930650009005641 0.010852486407331515 0.9966998277710072 -0.026749362311551058
 -0.00037135300751627834 -0.003377463447231771 0.00041287389851505594 0.005313702775372075 0.9966998277710072 -0.026749362311551058 0.002932053471521236 0.010852328339972149
0.043768236765320004 0.0031998377066401323 0.012737810589070623 0.9963444408148647 -0.03125459434246041 0.000517311307737143 0.006200590348447246 -0.00045213293438946944 -0.003944972656208123
 0.9963444408148647 -0.03125459434246041 0.003201603640410511 0.012737629468819468 -0.0004522291666374637 -0.003944976402369272 0.0005056401935366671 0.006202002078491374
 0.000517311307737143 0.006200590348447246 -0.0004522291666374637 -0.003944976402369272 0.003199753487945045 0.012737234955728503 0.9963444279679516 -0.031255178778794405
 -0.00045213293438946944 -0.003944972656208123 0.0005056401935366671 0.006202002078491374 0.9963444279679516 -0.031255178778794405 0.0032016626687711557 0.012737038203816053
0.050020842017509996 0.0034879861024290242 0.014641629389154334 0.9959630637408099 -0.03577538846731068 0.0006238911859838973 0.007088974215774696 -0.0005417219024743123 -0.004513298881883834
 0.9959630637408099 -0.03577538846731068 0.003490291373029387 0.01464140925286221 -0.0005418470656412508 -0.0045133017276705375 0.0006086453976579883 0.007090815579648832
 0.0006238911859838973 0.007088974215774696 -0.0005418470656412508 -0.0045133017276705375 0.0034878764337637506 0.01464097276712841 0.9959630472823975 -0.035776056272888615
 -0.0005417219024743123 -0.004513298881883834 0.0006086453976579883 0.007090815579648832 0.9959630472823975 -0.035776056272888615 0.0034903688524461256 0.014640733224189049
0.055454545454549996 0.003754130975192676 0.016311153070615706 0.995610265676796 -0.03971630902234762 0.0007252943826411408 0.007861255643215201 -0.0006268127108876653 -0.005007730962407262
 0.995610265676796 -0.03971630902234762 0.003756963127331541 0.016310895985593644 -0.0006269660150484633 -0.005007732630870604 0.0007065530103743786 0.007863532393971421
 0.0007252943826411408 0.007861255643215201 -0.0006269660150484633 -0.005007732630870604 0.00375399646639338 0.01631042640424402 0.9956102457175294 -0.03971704928670082
 -0.0006268127108876653 -0.005007730962407262 0.0007065530103743786 0.007863532393971421 0.9956102457175294 -0.03971704928670082 0.003757058691753498 0.016310146171201897
0.056273447269699996 0.003795525883489928 0.016563957318124864 0.9955553578879824 -0.04031121849252777 0.0007412891084761451 0.007977658077191922 -0.0006402244575437678 -0.005082282269020854
 0.9955553578879824 -0.04031121849252777 0.0037984421326412903 0.016563694412553 -0.0006403822432616993 -0.005082283726334015 0.0007219895149259958 0.00798000573855921
 0.0007412891084761451 0.007977658077191922 -0.0006403822432616993 -0.005082283726334015 0.003795387411107548 0.016563220125364465 0.9955553373712449 -0.04031196967720981
 -0.0006402244575437678 -0.005082282269020854 0.0007219895149259958 0.00798000573855921 0.9955553373712449 -0.04031196967720981 0.003798540587762726 0.01656293346798861
0.06252605252188 0.004122822433541907 0.018504358811417487 0.9951209750315151 -0.04486200079593275 0.0008696036526198521 0.008866490861195031 -0.0007477424985701976 -0.005651762481890218
 0.9951209750315151 -0.04486200079593275 0.004126421317413337 0.018504049228533697 -0.0007479365676638889 -0.005651762019600071 0.0008457703139672803 0.00886942822307639
 0.0008696036526198521 0.008866490861195031 -0.0007479365676638889 -0.005651762019600071 0.004122651803703631 0.01850354150949797 0.995120950006825 -0.04486283537648777
 -0.0007477424985701976 -0.005651762481890218 0.0008457703139672803 0.00886942822307639 0.995120950006825 -0.04486283537648777 0.004126543278437604 0.018503203195813164
0.06877865777407 0.004470238135162949 0.02046242688856994 0.9946595675847909 -0.049427608809132904 0.0010089309560395358 0.009755315614553355 -0.0008643752085677731 -0.006221577761592672
 0.9946595675847909 -0.049427608809132904 0.00447459134360355 0.0204620665642669 -0.000864609191569549 -0.006221574805599394 0.000980083173199689 0.009758932894883318
 0.0010089309560395358 0.009755315614553355 -0.000864609191569549 -0.006221574805599394 0.004470031996187075 0.020461529981080567 0.9946595376007592 -0.04942852681135702
 -0.0008643752085677731 -0.006221577761592672 0.000980083173199689 0.009758932894883318 0.9946595376007592 -0.04942852681135702 0.0044747393476344925 0.020461135248693932
0.07503126302626001 0.004838132437126672 0.022437773280613565 0.9941707890148858 -0.05400788283931669 0.0011593645603232134 0.010643970146480324 -0.0009902189712172474 -0.0067915643322047576
 0.9941707890148858 -0.05400788283931669 0.004843311713159339 0.02243735799274923 -0.0009904964687265892 -0.006791558265500913 0.0011250209361306856 0.010648364453107453
 0.0011593645603232134 0.010643970146480324 -0.0009904964687265892 -0.006791558265500913 0.004837887439505558 0.022436797317101107 0.9941707536173529 -0.05400888429463605
 -0.0009902189712172474 -0.0067915643322047576 0.0011250209361306856 0.010648364453107453 0.9941707536173529 -0.05400888429463605 0.004843488303417725 0.022436341180241695
0.08128386827845 0.005226861848828604 0.024430021867657577 0.9936542941885753 -0.05860263658843072 0.001320995264887351 0.011532287458456173 -0.0011253672767768369 -0.007361556028610071
 0.9936542941885753 -0.05860263658843072 0.005232939007489732 0.02442954723344593 -0.001125691859665834 -0.007361546191362921 0.0012806737748632423 0.011537562863306003
 0.001320995264887351 0.011532287458456173 -0.001125691859665834 -0.007361546191362921 0.005226574645781609 0.024428967439954232 0.9936542529202324 -0.05860372153819414
 -0.0011253672767768369 -0.007361556028610071 0.0012806737748632423 0.011537562863306003 0.9936542529202324 -0.05860372153819414 0.005233146733183854 0.024428444685984315
0.08753647353064001 0.005636779887368777 0.026438804132998175 0.9931097396765841 -0.06321166166435399 0.0014939109866796024 0.01242009606279741 -0.0012699106217078425 -0.007931384043185346
 0.9931097396765841 -0.06321166166435399 0.005643826834907767 0.02643826560564391 -0.001270285831253061 -0.00793136973279968 0.0014471290576356644 0.012426363674969887
 0.0014939109866796024 0.01242009606279741 -0.001270285831253061 -0.00793136973279968 0.005636447135895354 0.026437671882499066 0.9931096920772017 -0.06321283015300141
 -0.0012699106217078425 -0.007931384043185346 0.0014471290576356644 0.012426363674969887 0.9931096920772017 -0.06321283015300141 0.005644068251328406 0.02643707706780133
0.09378907878283 0.006068236992266632 0.028463755931945847 0.9925367840292499 -0.06783473078590131 0.0016781966245371868 0.013307220215478154 -0.0014239364032843475 -0.008500876765872705
 0.9925367840292499 -0.06783473078590131 0.006076325745266167 0.028463148796594947 -0.001424365751213272 -0.0085008572370736 0.0016244712195779562 0.013314598253224522
 0.0016781966245371868 0.013307220215478154 -0.001424365751213272 -0.0085008572370736 0.0060678553533890294 0.028462546544324653 0.9925367296348041 -0.06783598286678481
 -0.0014239364032843475 -0.008500876765872705 0.0016244712195779562 0.013314598253224522 0.9925367296348041 -0.06783598286678481 0.006076603413184835 0.02846187398931968
0.100041684035 0.006521580414803668 0.030504515127488026 0.9919350880308416 -0.07247160013003337 0.0018739339261323758 0.014193480106704695 -0.0015875288112096602 -0.009069859674546665
 0.9919350880308416 -0.07247160013003337 0.006530783119361393 0.03050383449641706 -0.0015880157797145134 -0.00906983413945597 0.0018127816351174515 0.014202093968018435
 0.0018739339261323758 0.014193480106704695 -0.0015880157797145134 -0.00906983413945597 0.006521146555069626 0.030503229335316042 0.991935026373786 -0.0724729358632624
 -0.0015875288112096602 -0.009069859674546665 0.0018127816351174515 0.014202093968018435 0.991935026373786 -0.0724729358632624 0.006531099605406976 0.030502473118923925
0.1059090909091 0.006967206920369888 0.032433605455693904 0.9913440211241683 -0.0768351311930128 0.0020680977258392464 0.015024191369629465 -0.0017498157598072616 -0.009603168043160684
 0.9913440211241683 -0.0768351311930128 0.006977520698662958 0.03243285125245933 -0.0017503599397736018 -0.009603136117354947 0.0019995361854801 0.015034085424834687
 0.0020680977258392464 0.015024191369629465 -0.0017503599397736018 -0.009603136117354947 0.0069667210304937156 0.03243224867594675 0.9913439522227201 -0.07683654548419115
 -0.0017498157598072616 -0.009603168043160684 0.0019995361854801 0.015034085424834687 0.9913439522227201 -0.07683654548419115 0.006977875950473884 0.03243140834629199
0.1062942892872 0.006997154091666379 0.03256071981307633 0.9913043149422051 -0.07712201110137695 0.002081201357607695 0.015078692011970827 -0.0017607687160777193 -0.009638155272896664
 0.9913043149422051 -0.07712201110137695 0.007007543042687524 0.0325599606200933 -0.0017613167577476623 -0.009638122901117006 0.002012138492959986 0.015088674343785838
 0.002081201357607695 0.015078692011970827 -0.0017613167577476623 -0.009638122901117006 0.006996664683559007 0.032559358397222654 0.9913042455505019 -0.07712343055282724
 -0.0017607687160777193 -0.009638155272896664 0.002012138492959986 0.015088674343785838 0.9913042455505019 -0.07712343055282724 0.007007900918801451 0.03255851235042592
0.11254689453939999 0.007495298504157831 0.03463200697027438 0.9906441307317715 -0.08178569167634597 0.0023000739746946003 0.015962668426794016 -0.0019437335565574627 -0.010205583052879885
 0.9906441307317715 -0.08178569167634597 0.0075069461647365365 0.03463116396438899 -0.0019443460943043777 -0.010205542971588974 0.0022226166713419857 0.015974159192569164
 0.0023000739746946003 0.015962668426794016 -0.0019443460943043777 -0.010205542971588974 0.007494750226903323 0.034630570759766985 0.9906440531291107 -0.08178719491831092
 -0.0019437335565574627 -0.010205583052879885 0.0022226166713419857 0.015974159192569164 0.9906440531291107 -0.08178719491831092 0.007507348007870004 0.034629628458478084
0.11879949979160001 0.00801635052684612 0.036718011421049586 0.9899542043005808 -0.08646235746275285 0.0025306232952252644 0.016845218183576833 -0.002136497225175355 -0.010771959483476352
 0.9899542043005808 -0.08646235746275285 0.008029329547872329 0.03671707915921561 -0.0021371776520927796 -0.010771910777484042 0.0024442876148017293 0.016858364729298088
 0.0025306232952252644 0.016845218183576833 -0.0021371776520927796 -0.010771910777484042 0.008015740067568123 0.03671650129170865 0.9899541180055994 -0.08646394457555835
 -0.002136497225175355 -0.010771959483476352 0.0024442876148017293 0.016858364729298088 0.9899541180055994 -0.08646394457555835 0.008029777939928042 0.036715456048839246
0.1250521050438 0.008560643269150825 0.03881836501520973 0.9892342077014221 -0.09115171253409478 0.0027729171732249094 0.017726146560148585 -0.0023391299530088005 -0.01133709801611409
 0.9892342077014221 -0.09115171253409478 0.008575026508473197 0.03881733785442669 -0.002339881632189665 -0.0113370397280196 0.0026772192119838534 0.017741103678491795
 0.0027729171732249094 0.017726146560148585 -0.002339881632189665 -0.0113370397280196 0.008559967323339789 0.0388167818943062 0.9892341122278091 -0.09115338360199826
 -0.0023391299530088005 -0.01133709801611409 0.0026772192119838534 0.017741103678491795 0.9892341122278091 -0.09115338360199826 0.008575524036084352 0.03881562675099777
0.131304710296 0.009128505908491607 0.040932695984347046 0.9884838163539685 -0.09585345010811669 0.0030270196738107153 0.018605255383377817 -0.0025516981941427898 -0.01190080910381454
 0.9884838163539685 -0.09585345010811669 0.009144366451065686 0.04093156807274049 -0.002552524458559385 -0.01190074023405541 0.0029214756740945356 0.018622185376084153
 0.0030270196738107153 0.018605255383377817 -0.002552524458559385 -0.01190074023405541 0.009127761181741752 0.04093104084676702 0.9884837112102808 -0.09585520522334613
 -0.0025516981941427898 -0.01190080910381454 0.0029214756740945356 0.018622185376084153 0.9884837112102808 -0.09585520522334613 0.009144915705410173 0.04092976856280655
0.1375573155481 0.009594849899359015 0.042786185474132196 0.9878281784580374 -0.10029266722112781 0.0032627146651101843 0.019455817134748598 -0.0027441127368024293 -0.01243629952389041
 0.9878281784580374 -0.10029266722112781 0.009612267413938703 0.042784974748665744 -0.002745018688040245 -0.012436219919202378 0.003147084825258877 0.0194747051239205
 0.0032627146651101843 0.019455817134748598 -0.002745018688040245 -0.012436219919202378 0.009594033915852038 0.04278445891129333 0.9878280632038193 -0.1002945063988353
 -0.0027441127368024293 -0.01243629952389041 0.003147084825258877 0.0194747051239205 0.9878280632038193 -0.1002945063988353 0.009612870070797927 0.042783086665200275
0.1438099208003 0.01007775376221285 0.044629028526467246 0.9871491762697738 -0.10471971225996521 0.00350790670548538 0.020302260355530403 -0.0029441788051466815 -0.012968072877818424
 0.9871491762697738 -0.10471971225996521 0.010096802645504676 0.044627730377137576 -0.0029451680509262716 -0.012967981542797144 0.0033817514809318574 0.020323255707483244
 0.00350790670548538 0.020302260355530403 -0.0029451680509262716 -0.012967981542797144 0.010076863387476358 0.04462723150231829 0.9871490504169097 -0.10472163558113501
 -0.0029441788051466815 -0.012968072877818424 0.0033817514809318574 0.020323255707483244 0.9871490504169097 -0.10472163558113501 0.010097461136299259 0.0446257533251497
0.1500625260525 0.010577033544668128 0.04646104443434354 0.9864469983498337 -0.10913444751350024 0.0037625020033148697 0.02114447681934911 -0.0031518064836013777 -0.013496030142248138
 0.9864469983498337 -0.10913444751350024 0.01059778844450404 0.04645965393684654 -0.0031528826238656515 -0.013495926041008667 0.003625384795124883 0.021167734363458687
 0.0037625020033148697 0.02114447681934911 -0.0031528826238656515 -0.013495926041008667 0.010576065662347556 0.04645917794914389 0.9864468614059332 -0.10913645506234636
 -0.0031518064836013777 -0.013496030142248138 0.003625384795124883 0.021167734363458687 0.9864468614059332 -0.10913645506234636 0.010598505193730411 0.04645758750532323
0.15631513130469998 0.011092503824534652 0.04828205789027846 0.9857218343971174 -0.1135367363668461 0.004026405547974832 0.021982360331666607 -0.0033669046587109564 -0.014020074552532416
 0.9857218343971174 -0.1135367363668461 0.011115039646723418 0.04828056979494863 -0.0033680712855229033 -0.0140199566088006 0.0038778927521331426 0.022008040298850916
