! Created with skrf 1.8.0 (http://scikit-rf.org).
# GHz S RI R 50.0 
!freq ReS11 ImS11 ReS12 ImS12 ReS13 ImS13
! ReS14 ImS14
! ReS21 ImS21 ReS22 ImS22 ReS23 ImS23
! ReS24 ImS24
! ReS31 ImS31 ReS32 ImS32 ReS33 ImS33
! ReS34 ImS34
! ReS41 ImS41 ReS42 ImS42 ReS43 ImS43
! ReS44 ImS44
!
0.0 0.001576623952453 0.0 0.9984233760351 0.0 6.11998582534e-05 0.0 -6.119985839264e-05 7.494821068881787e-21
 0.9984233760351 0.0 0.001576623952453 0.0 -6.119985839219e-05 7.494821068826678e-21 6.119985825386e-05 0.0
 6.11998582534e-05 0.0 -6.119985839219e-05 7.494821068826678e-21 0.001576623958568 0.0 0.9984233760413 0.0
 -6.119985839264e-05 7.494821068881787e-21 6.119985825386e-05 0.0 0.9984233760413 0.0 0.0015766239586 0.0
0.005 0.0016964904085239702 0.0012835829393632433 0.9982716929562129 -0.003302818071663216 8.674204748889227e-05 0.000711445908335623 -8.401599445812274e-05 -0.00044005747061269025
 0.9982716929562129 -0.003302818071663216 0.0016964943697318825 0.0012835806623746862 -8.401351060493913e-05 -0.0004400556731811274 8.672702279401322e-05 0.0007114517113973878
 8.674204748889227e-05 0.000711445908335623 -8.401351060493913e-05 -0.0004400556731811274 0.001696490788119693 0.0012835155189535384 0.9982716925976355 -0.00330288513285798
 -8.401599445812274e-05 -0.00044005747061269025 8.672702279401322e-05 0.0007114517113973878 0.9982716925976355 -0.00330288513285798 0.0016964932822435997 0.0012835139702878362
0.006252605252188 0.0017279591612084446 0.0016095521082185563 0.9982316126048214 -0.004129328083371252 9.405835297015109e-05 0.0008896326733481746 -9.047885885811025e-05 -0.0005506472560838067
 0.9982316126048214 -0.004129328083371252 0.00172796535275015 0.0016095492112144336 -9.047499289055125e-05 -0.0005506450423131383 9.403487922540571e-05 0.0008896401969407708
 9.405835297015109e-05 0.0008896326733481746 -9.047499289055125e-05 -0.0005506450423131383 0.0017279598235951164 0.001609467848169362 0.998231612113467 -0.004129411907265943
 -9.047885885811025e-05 -0.0005506472560838067 9.403487922540571e-05 0.0008896401969407708 0.998231612113467 -0.004129411907265943 0.001727963722876224 0.0016094658452212752
0.01250521050438 0.0018938003864300188 0.003253000005454371 0.9980189556862582 -0.00825945758661705 0.0001361159496823172 0.0017794979661363206 -0.00012726106155283562 -0.0011039768712157204
 0.9980189556862582 -0.00825945758661705 0.0018938251004359064 0.003252993690246065 -0.00012724581530117055 -0.0011039728076863787 0.00013602237051414825 0.0017795159363482315
 0.0001361159496823172 0.0017794979661363206 -0.00012724581530117055 -0.0011039728076863787 0.0018938035806189968 0.0032528318689581184 0.9980189542788955 -0.008259625007178318
 -0.00012726106155283562 -0.0011039768712157204 0.00013602237051414825 0.0017795159363482315 0.9980189542788955 -0.008259625007178318 0.0018938191605548055 0.0032528271851763476
0.01875781575657 0.002074517201406553 0.004919945930182957 0.997785135775943 -0.012400438679443947 0.00018747073435187046 0.002670227614290255 -0.00017166219257291863 -0.0016591356938798786
 0.997785135775943 -0.012400438679443947 0.0020745727169927458 0.004919935616547535 -0.00017162817790597723 -0.0016591302201888686 0.000187260586485097 0.002670259550463012
 0.00018747073435187046 0.002670227614290255 -0.00017162817790597723 -0.0016591302201888686 0.002074524792441043 0.004919694191256232 0.9977851330353329 -0.012400689646332603
 -0.00017166219257291863 -0.0016591356938798786 0.000187260586485097 0.002670259550463012 0.9977851330353329 -0.012400689646332603 0.002074559821462582 0.004919686111296476
0.02501042100875 0.0022704678052573066 0.006608033871339082 0.9975298725683596 -0.016554268324627412 0.0002482222223507695 0.003561862267004837 -0.00022379387275038242 -0.002215855176091011
 0.9975298725683596 -0.016554268324627412 0.00227056636545209 0.006608018923875829 -0.0002237337850813449 -0.0022158488145629005 0.0002478490663878893 0.003561912260190956
 0.0002482222223507695 0.003561862267004837 -0.0002237337850813449 -0.0022158488145629005 0.0022704816427821907 0.006607698826561209 0.9975298680673773 -0.01655460283403452
 -0.00022379387275038242 -0.002215855176091011 0.0002478490663878893 0.003561912260190956 0.9975298680673773 -0.01655460283403452 0.0022705438832952545 0.006607686598258922
0.03126302626094 0.0024819955484990737 0.008316045728946174 0.9972528717463734 -0.020721794090964318 0.0003184703705662151 0.004454355932755729 -0.00028376435881585386 -0.002773946942051643
 0.9972528717463734 -0.020721794090964318 0.002482149366858819 0.008316025457379465 -0.00028367096299687986 -0.0027739402987093003 0.0003178877471658567 0.004454428647714243
 0.0003184703705662151 0.004454355932755729 -0.00028367096299687986 -0.0027739402987093003 0.0024820174786054352 0.008315627687807275 0.9972528650559702 -0.020722212195704363
 -0.00028376435881585386 -0.002773946942051643 0.0003178877471658567 0.004454428647714243 0.9972528650559702 -0.020722212195704363 0.0024821146900461566 0.008315610522109999
0.037515631513130004 0.002709436234915894 0.010043182967295967 0.9969538325329517 -0.02490343243984908 0.00039831455052014155 0.0053476284006443615 -0.0003516793744528537 -0.003333250375628428
 0.9969538325329517 -0.02490343243984908 0.002709657499456433 0.010043156626310073 -0.00035154549770037124 -0.0033332441405483364 0.00039747596161191314 0.005347729080496424
 0.00039831455052014155 0.0053476284006443615 -0.00035154549770037124 -0.0033332441405483364 0.0027094681010832625 0.010042682280603525 0.9969538232204684 -0.02490393422128642
 -0.0003516793744528537 -0.003333250375628428 0.00039747596161191314 0.005347729080496424 0.9969538232204684 -0.02490393422128642 0.0027096080416670696 0.010042659351374057
0.043768236765320004 0.002953120935770807 0.011788848050467222 0.9966324507582655 -0.029099387220012474 0.00048785306672596775 0.006241581182641812 -0.00042764240390908586 -0.003893616686051244
 0.9966324507582655 -0.029099387220012474 0.0029534218114613117 0.011788814839581017 -0.00042746093169536523 -0.0038936116335548682 0.00048671196712503915 0.006241715654427411
 0.00048785306672596775 0.006241581182641812 -0.00042746093169536523 -0.0038936116335548682 0.002953164578268997 0.011788265110326601 0.9966324383839518 -0.02909997278827588
 -0.00042764240390908586 -0.003893616686051244 0.00048671196712503915 0.006241715654427411 0.9966324383839518 -0.02909997278827588 0.0029533550061420295 0.011788235554282961
0.050020842017509996 0.003213377294979359 0.0135525540962006 0.9962884204207516 -0.03330973994284459 0.0005871828648129389 0.0071361041047506004 -0.0005117547965966356 -0.004454902327021277
 0.9962884204207516 -0.03330973994284459 0.003213769926968869 0.013552513159284092 -0.0005115186702083697 -0.004454899315782277 0.0005856926599876052 0.007136278785290341
 0.0005871828648129389 0.0071361041047506004 -0.0005115186702083697 -0.004454899315782277 0.0032134345543677577 0.013551889331452151 0.9962884045383544 -0.03331040944141657
 -0.0005117547965966356 -0.004454902327021277 0.0005856926599876052 0.007136278785290341 0.9962884045383544 -0.03331040944141657 0.0032136832290307338 0.013551852248000703
0.055454545454549996 0.0034532585543548657 0.015099591748648757 0.995970815881312 -0.03698036107391059 0.0006815293061112105 0.007913842692921039 -0.0005915464180345971 -0.004943313242116944
 0.995970815881312 -0.03698036107391059 0.0034537407741659057 0.015099543358840468 -0.0005912571050435352 -0.004943312767727335 0.0006796978398829215 0.007914057989866975
 0.0006815293061112105 0.007913842692921039 -0.0005912571050435352 -0.004943312767727335 0.003453329142844969 0.015098856262921146 0.9959707965817739 -0.03698110364282171
 -0.0005915464180345971 -0.004943313242116944 0.0006796978398829215 0.007914057989866975 0.9959707965817739 -0.03698110364282171 0.003453634739045991 0.01509881187739726
0.056273447269699996 0.003490530195478807 0.015333880531165913 0.9959214346125654 -0.03753449405754722 0.0006963993246629323 0.008031078533753865 -0.0006041157867426291 -0.005016965783837193
 0.9959214346125654 -0.03753449405754722 0.003491026710242402 0.01533383095612769 -0.0006038180015851723 -0.005016965756975176 0.0006945133713062899 0.008031300435610289
 0.0006963993246629323 0.008031078533753865 -0.0006038180015851723 -0.005016965756975176 0.003490602913483586 0.01533313442024759 0.9959214147679776 -0.0375352476506488
 -0.0006041157867426291 -0.005016965783837193 0.0006945133713062899 0.008031300435610289 0.9959214147679776 -0.0375352476506488 0.003490917596635578 0.01533308887128811
0.06252605252188 0.0037849021087063618 0.01713244873734142 0.9955311861334432 -0.041773599239051364 0.0008155960930012313 0.008926379168847231 -0.0007048224715566396 -0.005579665800007424
 0.9955311861334432 -0.041773599239051364 0.003785514616630032 0.017132389555625207 -0.0007044560762814127 -0.005579669785148308 0.0008132677023999432 0.008926655906325963
 0.0008155960930012313 0.008926379168847231 -0.0007044560762814127 -0.005579669785148308 0.0037849921298252417 0.017131621791490796 0.9955311618635934 -0.041774437128379464
 -0.0007048224715566396 -0.005579665800007424 0.0008132677023999432 0.008926655906325963 0.9955311618635934 -0.041774437128379464 0.003785380586184757 0.01713156680128804
0.06877865777407 0.004096813276342199 0.018947907491741293 0.9951173679401507 -0.04602696588699713 0.000944864941113545 0.009821875105607732 -0.0008139697634193188 -0.006142860336378715
 0.9951173679401507 -0.04602696588699713 0.004097553872968872 0.018947837677786697 -0.0008135278592362889 -0.006142869445698723 0.000942047383823662 0.009822214900719965
 0.000944864941113545 0.009821875105607732 -0.0008135278592362889 -0.006142869445698723 0.004096922449311576 0.01894700027049185 0.9951173387719288 -0.04602788829615184
 -0.0008139697634193188 -0.006142860336378715 0.000942047383823662 0.009822214900719965 0.9951173387719288 -0.04602788829615184 0.004097392447894882 0.01894693482534813
0.07503126302626001 0.0044265817875457315 0.020779923781770574 0.9946796734961008 -0.05029447425387259 0.001084295635359273 0.010717430517297405 -0.0009316503273100818 -0.006706405918093289
 0.9946796734961008 -0.05029447425387259 0.004427462555598065 0.020779842252375818 -0.0009311260678141113 -0.00670642134834823 0.0010809421472571011 0.010717842205643199
 0.001084295635359273 0.010717430517297405 -0.0009311260678141113 -0.00670642134834823 0.0044267119676082425 0.020778936886085626 0.994679638945984 -0.05029548143520293
 -0.0009316503273100818 -0.006706405918093289 0.0010809421472571011 0.010717842205643199 0.994679638945984 -0.05029548143520293 0.004427271282061823 0.02077885993412144
0.08128386827845 0.004774523594256515 0.022628176661248885 0.994217797062063 -0.05457598053853517 0.0012339758165242334 0.01161290511543099 -0.0010579545082695372 -0.007270157207719529
 0.994217797062063 -0.05457598053853517 0.004775556604979724 0.022628082274927387 -0.0010573410993295416 -0.0072701802402638325 0.0012300396056670793 0.01161339815202168
 0.0012339758165242334 0.01161290511543099 -0.0010573410993295416 -0.0072701802402638325 0.004774676643923743 0.022627110735445845 0.9942177566342867 -0.054577072770917785
 -0.0010579545082695372 -0.007270157207719529 0.0012300396056670793 0.01161339815202168 0.9942177566342867 -0.054577072770917785 0.004775333053673559 0.022627021186275652
0.08753647353064001 0.005140952482451617 0.024492353028733944 0.9937314339474922 -0.05887132106292727 0.0013939908838523146 0.012508154477441247 -0.0011929702525329685 -0.007833966716918741
 0.9937314339474922 -0.05887132106292727 0.0051421497974485884 0.02449224458498677 -0.0011922609524168783 -0.007833998717704212 0.0013894251382866281 0.012508738942365124
 0.0013939908838523146 0.012508154477441247 -0.0011922609524168783 -0.007833998717704212 0.0051411302734177605 0.024491208757148424 0.9937313871335399 -0.05887249865505141
 -0.0011929702525329685 -0.007833966716918741 0.0013894251382866281 0.012508738942365124 0.9937313871335399 -0.05887249865505141 0.005141891564580891 0.024491105481487287
0.09378907878283 0.005526180015289068 0.02637214459501644 0.9932202807367819 -0.06318031526628369 0.001564423883900305 0.01340303028589357 -0.0013367830228607392 -0.008397684612403334
 0.9932202807367819 -0.06318031526628369 0.00552755368772317 0.02637202083352656 -0.001335971142496652 -0.008397727031962513 0.0015591817798674995 0.01340371688988307
 0.001564423883900305 0.01340303028589357 -0.001335971142496652 -0.008397727031962513 0.005526384430077676 0.02637092270687198 0.9932202270143436 -0.0631815785513655
 -0.0013367830228607392 -0.008397684612403334 0.0015591817798674995 0.01340371688988307 0.9932202270143436 -0.0631815785513655 0.0055272583959481555 0.026370804536188754
0.100041684035 0.005930515454226747 0.028267245676647373 0.9926840354978146 -0.06750276787972535 0.0017453554009197827 0.01429738051314312 -0.0014894757109556898 -0.00896115858241621
 0.9926840354978146 -0.06750276787972535 0.0059320775306925125 0.028267105276415804 -0.0014885546143044441 -0.00896121295582905 0.0017393901119454201 0.014298180602983596
 0.0017453554009197827 0.01429738051314312 -0.0014885546143044441 -0.00896121295582905 0.005930748387643575 0.028265946943163905 0.9926839743293238 -0.06750411721800513
 -0.0014894757109556898 -0.00896115858241621 0.0017393901119454201 0.014298180602983596 0.9926839743293238 -0.06750411721800513 0.005931742829794877 0.028265812669194517
0.1059090909091 0.006327593195388391 0.030059249410448075 0.9921577378087253 -0.07157098605935283 0.0019247582536099065 0.015136016784008346 -0.0016409092954455663 -0.009489559357820039
 0.9921577378087253 -0.07157098605935283 0.006329343020365648 0.03005909214025561 -0.0016398797230817042 -0.009489626420074329 0.0019180717497836 0.015136934259299751
 0.0019247582536099065 0.015136016784008346 -0.0016398797230817042 -0.009489626420074329 0.0063278546260878915 0.03005787930276858 0.992157669149619 -0.07157241650270697
 -0.0016409092954455663 -0.009489559357820039 0.0019180717497836 0.015136934259299751 0.992157669149619 -0.07157241650270697 0.006328969225943705 0.030057728782826986
0.1062942892872 0.006354265665057432 0.03017735153293292 0.9921223979773874 -0.07183847056409956 0.001936863449285826 0.015191049571551818 -0.0016511285472914138 -0.009524233743804034
 0.9921223979773874 -0.07183847056409956 0.0063560281866328755 0.030177193111394544 -0.0016500916517436404 -0.009524301690656706 0.0019301281554040322 0.015191975135366837
 0.001936863449285826 0.015191049571551818 -0.0016500916517436404 -0.009524301690656706 0.006354529025768119 0.03017597676591178 0.9921223288092977 -0.07183990634397029
 -0.0016511285472914138 -0.009524233743804034 0.0019301281554040322 0.015191975135366837 0.9921223288092977 -0.07183990634397029 0.006355651754821078 0.030175825140147813
0.11254689453939999 0.006797735011871154 0.0321021570991073 0.9915350697892842 -0.07618720315894194 0.002139023367448697 0.016083878433246646 -0.0018218190082998082 -0.010086752585820443
 0.9915350697892842 -0.07618720315894194 0.006799710015724401 0.03210197921110937 -0.0018206597852375354 -0.0100868358101294 0.0021314712650635087 0.016084942105584824
 0.002139023367448697 0.016083878433246646 -0.0018206597852375354 -0.0100868358101294 0.006798030724035486 0.032100707152853195 0.9915349920508995 -0.07618872579435718
 -0.0018218190082998082 -0.010086752585820443 0.0021314712650635087 0.016084942105584824 0.9915349920508995 -0.07618872579435718 0.006799289560354095 0.032100536886036646
0.11879949979160001 0.007261225241198741 0.03404135600188526 0.9909217545947643 -0.08054873465611541 0.0023519077124793167 0.01697570474007868 -0.002001621722576562 -0.010648554930119075
 0.9909217545947643 -0.08054873465611541 0.007263424762209827 0.034041157138594395 -0.0020003336979797096 -0.01064865522023964 0.0023434920246612418 0.01697691980683445
 0.0023519077124793167 0.01697570474007868 -0.0020003336979797096 -0.01064865522023964 0.007261555246107232 0.0340398317739707 0.9909216676971134 -0.08055034458528151
 -0.002001621722576562 -0.010648554930119075 0.0023434920246612418 0.01697691980683445 0.9909216676971134 -0.08055034458528151 0.007262958020685185 0.034039641535491334
0.1250521050438 0.0077450353597404075 0.03599463979286102 0.9902821582790675 -0.0849228239630022 0.002575586155798588 0.01786636289453354 -0.00219060837557742 -0.011209477916250503
 0.9902821582790675 -0.0849228239630022 0.007747471431751158 0.03599441838068365 -0.0021891851306435747 -0.011209597144783928 0.002566260142790831 0.017867743297685857
 0.002575586155798588 0.01786636289453354 -0.0021891851306435747 -0.011209597144783928 0.007745401617574778 0.03599304221882684 0.990282061613985 -0.08492452165310586
 -0.00219060837557742 -0.011209477916250503 0.002566260142790831 0.017867743297685857 0.990282061613985 -0.08492452165310586 0.0077469561728390965 0.03599283063601991
0.131304710296 0.00824946150548829 0.037961697326731714 0.9896159891246723 -0.08930922052883722 0.002810125379518155 0.018755684144879655 -0.0023888476135479893 -0.01176935599966633
 0.9896159891246723 -0.08930922052883722 0.008252146162479369 0.03796145172610676 -0.0023872827853388713 -0.01176949612331586 0.0027998423496428007 0.018757244487069308
 0.002810125379518155 0.018755684144879655 -0.0023872827853388713 -0.01176949612331586 0.008249865996551569 0.03796002738438245 0.9896158820634521 -0.08931100647091468
 -0.0023888476135479893 -0.01176935599966633 0.0027998423496428007 0.018757244487069308 0.9896158820634521 -0.08931100647091468 0.008251580187255123 0.03795979304188533
0.1375573155481 0.008660612978432085 0.03968436553558683 0.9890371882654801 -0.09344969197492115 0.0030265435343974655 0.019617461793812446 -0.0025673759596424517 -0.012301998262532208
 0.9890371882654801 -0.09344969197492115 0.008663559964186345 0.039684099158335595 -0.002565660423799063 -0.012302159490831684 0.0030152774406710867 0.019619200064807774
 0.0030265435343974655 0.019617461793812446 -0.002565660423799063 -0.012302159490831684 0.008661058686758448 0.03968262336525876 0.9890370703198379 -0.09345156647829232
 -0.0025673759596424517 -0.012301998262532208 0.0030152774406710867 0.019619200064807774 0.9890370703198379 -0.09345156647829232 0.008662939824093455 0.03968237130827697
0.1438099208003 0.009086261187884012 0.04139763258411311 0.988437951821261 -0.09757936474579895 0.003251707967619258 0.020475635020943645 -0.002753049616002583 -0.01283134010117334
 0.988437951821261 -0.09757936474579895 0.009089482825431365 0.041397344116312476 -0.002751176592304797 -0.012831524353693124 0.0032394159167812033 0.020477564630139427
 0.003251707967619258 0.020475635020943645 -0.002751176592304797 -0.012831524353693124 0.009086750306241308 0.04139581913450876 0.9884378223617851 -0.09758132829583026
 -0.002753049616002583 -0.01283134010117334 0.0032394159167812033 0.020477564630139427 0.9884378223617851 -0.09758132829583026 0.009088806140860857 0.041395548436463876
0.1500625260525 0.009526251832498485 0.04310134621536104 0.9878184384478366 -0.10169812732278848 0.003485539032088992 0.0213301119234408 -0.0029457911098096133 -0.013357294498402788
 0.9878184384478366 -0.10169812732278848 0.009529760461568936 0.04310103427505914 -0.0029437538383023047 -0.013357503771107665 0.00347217841557052 0.021332246766496765
 0.003485539032088992 0.0213301119234408 -0.0029437538383023047 -0.013357503771107665 0.00952678658584103 0.04309946246904357 0.98781829682729 -0.10170018042275224
 -0.0029457911098096133 -0.013357294498402788 0.00347217841557052 0.021332246766496765 0.98781829682729 -0.10170018042275224 0.009529024868828334 0.043099172157626806
0.15631513130469998 0.009980429456660915 0.04479535874877764 0.9871788076738508 -0.10580586877224384 0.003727956108753714 0.022180802203662194 -0.003145521983148708 -0.013879776323079566
 0.9871788076738508 -0.10580586877224384 0.009984237434215264 0.0447950218851289 -0.0031433137245116447 -0.013880012687849906 0.0037134846078501317 0.022183156656570207
