! Created with skrf 1.8.0 (http://scikit-rf.org).
# GHz S RI R 50.0 
!freq ReS11 ImS11 ReS12 ImS12 ReS13 ImS13
! ReS14 ImS14
! ReS21 ImS21 ReS22 ImS22 ReS23 ImS23
! ReS24 ImS24
! ReS31 ImS31 ReS32 ImS32 ReS33 ImS33
! ReS34 ImS34
! ReS41 ImS41 ReS42 ImS42 ReS43 ImS43
! ReS44 ImS44
!
0.0 0.00172871968433 0.0 0.9982712802787 0.0 6.710246211391e-05 0.0 -6.710246220332e-05 8.21768155522021e-21
 0.9982712802787 0.0 0.00172871968436 0.0 -6.710246220303e-05 8.217681555184693e-21 6.710246211484e-05 0.0
 6.710246211391e-05 0.0 -6.710246220303e-05 8.217681555184693e-21 0.001728719697115 0.0 0.9982712802915 0.0
 -6.710246220332e-05 8.21768155522021e-21 6.710246211484e-05 0.0 0.9982712802915 0.0 0.001728719697159 0.0
0.005 0.0018605845897071485 0.0014115546247169695 0.9981043500859181 -0.0036207132764514848 9.467581157011143e-05 0.0007520423510806944 -9.183371224243387e-05 -0.0004697114663759034
 0.9981043500859181 -0.0036207132764514848 0.0018605864182425242 0.001411553646077207 -9.183301832142592e-05 -0.00046971101946296514 9.466189571068627e-05 0.0007520476276369083
 9.467581157011143e-05 0.0007520423510806944 -9.183301832142592e-05 -0.00046971101946296514 0.0018605848842380792 0.001411621792973248 0.9981043504562171 -0.0036206462069996843
 -9.183371224243387e-05 -0.0004697114663759034 9.466189571068627e-05 0.0007520476276369083 0.9981043504562171 -0.0036206462069996843 0.0018605868567565357 0.0014116206102918443
0.006252605252188 0.0018953483917476754 0.0017699807639461396 0.9980600366407224 -0.004526749164255703 0.0001026489454760155 0.0009403998187329233 -9.890094173888106e-05 -0.0005877384509251321
 0.9980600366407224 -0.004526749164255703 0.0018953512494538577 0.0017699795326422076 -9.889986127569756e-05 -0.0005877379019166901 0.00010262720306823305 0.0009404066773581246
 0.0001026489454760155 0.0009403998187329233 -9.889986127569756e-05 -0.0005877379019166901 0.0018953487875820448 0.0017700647110814682 0.9980600371556865 -0.004526665345009633
 -9.890094173888106e-05 -0.0005877384509251321 0.00010262720306823305 0.0009404066773581246 0.9980600371556865 -0.004526665345009633 0.0018953518712756018 0.0017700632095426615
0.01250521050438 0.0020793979167803745 0.003576847039980924 0.9978237520133107 -0.009054103184090589 0.000148877667291238 0.0018810376415156604 -0.00013945362767816337 -0.0011782166419793622
 0.9978237520133107 -0.009054103184090589 0.002079409316429209 0.0035768445023252986 -0.00013944936149963747 -0.0011782156516689662 0.00014879095662452213 0.0018810542160193683
 0.000148877667291238 0.0018810376415156604 -0.00013944936149963747 -0.0011782156516689662 0.0020793989103570763 0.003577014734127292 0.9978237534945745 -0.009053935771220505
 -0.00013945362767816337 -0.0011782166419793622 0.00014879095662452213 0.0018810542160193683 0.9978237534945745 -0.009053935771220505 0.002079411230204359 0.00357701149813519
0.01875781575657 0.0022813076277623905 0.005409172469581447 0.9975621062081214 -0.013593038548048076 0.00020590140583594187 0.0028225271528351473 -0.00018889330993831428 -0.0017705386074992437
 0.9975621062081214 -0.013593038548048076 0.0022813332218022003 0.005409168553465277 -0.00018888378515582327 -0.0017705373099392854 0.0002057065985898158 0.0028225569091669097
 0.00020590140583594187 0.0028225271528351473 -0.00018888378515582327 -0.0017705373099392854 0.0022813094168237973 0.005409423808923334 0.9975621091184993 -0.013592787623930526
 -0.00018889330993831428 -0.0017705386074992437 0.0002057065985898158 0.0028225569091669097 0.9975621091184993 -0.013592787623930526 0.0022813371132424285 0.005409418590973715
0.02501042100875 0.002501501590028951 0.0072643405639648915 0.9972747654241317 -0.01814570699910824 0.00027383416647311294 0.003764879280058774 -0.00024734757842474975 -0.0023644029379216993
 0.9972747654241317 -0.01814570699910824 0.0025015470082032387 0.0072643352029363424 -0.00024733074362448255 -0.0023644014953659535 0.00027348809763778757 0.0037649262769725396
 0.00027383416647311294 0.003764879280058774 -0.00024733074362448255 -0.0023644014953659535 0.0025015043515502888 0.007264675469191569 0.9972747702219367 -0.01814537257888405
 -0.00024734757842474975 -0.0023644029379216993 0.00027348809763778757 0.0037649262769725396 0.9972747702219367 -0.01814537257888405 0.002501553560730478 0.007264668009054958
0.03126302626094 0.0027403862484225733 0.009140980393715812 0.9969613803048486 -0.022712999829537322 0.0003527899176114358 0.004708015929810183 -0.000314939787612366 -0.0029595890816330643
 0.9969613803048486 -0.022712999829537322 0.002740457103047509 0.00914097352761255 -0.0003149136094864446 -0.002959587684817826 0.0003522493395977201 0.004708084824316863
 0.0003527899176114358 0.004708015929810183 -0.0003149136094864446 -0.002959587684817826 0.002740390146445526 0.009141398770610008 0.9969613874523467 -0.022712581898407302
 -0.000314939787612366 -0.0029595890816330643 0.0003522493395977201 0.004708084824316863 0.9969613874523467 -0.022712581898407302 0.0027404670037864654 0.009141388795688673
0.037515631513130004 0.002998358744503873 0.011038179572344797 0.9966215946087962 -0.027295334839607534 0.0004428814352092776 0.005651823400462514 -0.0003917899517740184 -0.0035559039624405856
 0.9966215946087962 -0.027295334839607534 0.002998460633870206 0.011038171147926575 -0.00039175241341275714 -0.00355590283071785 0.0004421029936465288 0.005651919455606775
 0.0004428814352092776 0.005651823400462514 -0.00039175241341275714 -0.00355590283071785 0.0029983639287938665 0.011038681310561457 0.9966216045721755 -0.027294833353986872
 -0.0003917899517740184 -0.0035559039624405856 0.0004421029936465288 0.005651919455606775 0.9966216045721755 -0.027294833353986872 0.0029984745716858385 0.011038668536139313
0.043768236765320004 0.003275810121741693 0.012955244768217052 0.9962550487699807 -0.031892895757303856 0.0005442197473381894 0.006596168617798725 -0.0004780150448862477 -0.004153165774113417
 0.9962550487699807 -0.031892895757303856 0.0032759486339809635 0.012955234739651442 -0.0004779641450078202 -0.0041531651555233185 0.0005431599662670926 0.006596297711384494
 0.0005442197473381894 0.006596168617798725 -0.0004779641450078202 -0.0041531651555233185 0.0032758167264024906 0.012955829725600625 0.9962550620181825 -0.03189231066036974
 -0.0004780150448862477 -0.004153165774113417 0.0005431599662670926 0.006596297711384494 0.9962550620181825 -0.03189231066036974 0.003275967296318724 0.012955813855102128
0.050020842017509996 0.0035731267895656046 0.014891602711469474 0.9958613817204497 -0.036505731162671265 0.0006569137887206582 0.007540905858431597 -0.0005737290909861618 -0.004751197291426187
 0.9958613817204497 -0.036505731162671265 0.0035733075052927104 0.01489159104062367 -0.0005736628434075621 -0.0047511974627714865 0.0006555290604304204 0.0075410744921657535
 0.0006569137887206582 0.007540905858431597 -0.0005736628434075621 -0.0047511974627714865 0.0035731349350440335 0.01489227073135247 0.9958613987288233 -0.036505062367029585
 -0.0005737290909861618 -0.004751197291426187 0.0006555290604304204 0.0075410744921657535 0.9958613987288233 -0.036505062367029585 0.003573331579719599 0.014892251456339467
0.055454545454549996 0.0038479342012180486 0.016589633556991834 0.9954969666503145 -0.04052680171842868 0.0007641534096011055 0.008362109280049735 -0.0006647000265529717 -0.005271393281272654
 0.9954969666503145 -0.04052680171842868 0.0038481561223326017 0.01658962043420461 -0.000664618839954805 -0.005271394386261097 0.0007624507699979207 0.0083623180472275
 0.0007641534096011055 0.008362109280049735 -0.000664618839954805 -0.005271394386261097 0.0038479437712579828 0.016590373610466704 0.9954969873163086 -0.04052606010299884
 -0.0006647000265529717 -0.005271393281272654 0.0007624507699979207 0.0083623180472275 0.9954969873163086 -0.04052606010299884 0.0038481854556176027 0.016590351117170766
0.056273447269699996 0.0038906912637576463 0.01684675163719929 0.9954402319953324 -0.04113380297943764 0.0007810701462966828 0.008485880052456783 -0.0006790431618602789 -0.005349822607897207
 0.9954402319953324 -0.04113380297943764 0.0038909197599463373 0.01684673829394634 -0.0006789595953490377 -0.00534982387477972 0.0007793167243911712 0.008486095361426265
 0.0007810701462966828 0.008485880052456783 -0.0006789595953490377 -0.00534982387477972 0.003890701054778964 0.016847502535187825 0.9954402532443217 -0.041133050380215364
 -0.0006790431618602789 -0.005349822607897207 0.0007793167243911712 0.008486095361426265 0.9954402532443217 -0.041133050380215364 0.0038909499305305037 0.01684747953543848
0.06252605252188 0.004228882539336032 0.018820234575474975 0.9949912384746121 -0.04577701312582436 0.0009167928500304471 0.009430928618272825 -0.0007940653283073199 -0.005948865348230317
 0.9949912384746121 -0.04577701312582436 0.004229164391767663 0.018820219537991848 -0.0007939624865145858 -0.005948868045097747 0.0009146268440288494 0.00943119838070452
 0.0009167928500304471 0.009430928618272825 -0.0007939624865145858 -0.005948868045097747 0.004228894065420849 0.018821068139335536 0.9949912644512271 -0.04577617660081708
 -0.0007940653283073199 -0.005948865348230317 0.0009146268440288494 0.00943119838070452 0.9949912644512271 -0.04577617660081708 0.004229201338645534 0.018821041082894688
0.06877865777407 0.004588076267119677 0.020811623442123794 0.9945140409342919 -0.05043521937208393 0.0010641831902399453 0.010375882559865698 -0.0009189005829199318 -0.006548147625845417
 0.9945140409342919 -0.05043521937208393 0.004588417053747191 0.020811606696938264 -0.0009187765243992064 -0.006548152116017741 0.0010615605617497429 0.010376215207040414
 0.0010641831902399453 0.010375882559865698 -0.0009187765243992064 -0.006548152116017741 0.004588089601762179 0.020812539437862786 0.9945140721327916 -0.0504342987756481
 -0.0009189005829199318 -0.006548147625845417 0.0010615605617497429 0.010376215207040414 0.9945140721327916 -0.0504342987756481 0.004588461451540289 0.020812507980940503
0.07503126302626001 0.004968644813294674 0.02282050895540242 0.9940082804853134 -0.05510824538014163 0.001223339550204835 0.011320567179035953 -0.0010536507461343571 -0.007147489393353928
 0.9940082804853134 -0.05510824538014163 0.0049690501175542485 0.022820490497550028 -0.0010535035445660178 -0.007147496069038276 0.0012202161099423821 0.011320971805408222
 0.001223339550204835 0.011320567179035953 -0.0010535035445660178 -0.007147496069038276 0.00496866001450715 0.02282150712024533 0.9940083174081072 -0.05510724055016422
 -0.0010536507461343571 -0.007147489393353928 0.0012202161099423821 0.011320971805408222 0.9940083174081072 -0.05510724055016422 0.004969102634104621 0.02282147090724727
0.08128386827845 0.005370957245026874 0.02484649393406503 0.9934735999426096 -0.05979588737075986 0.0013943572477250284 0.012264802561908887 -0.001198414362014187 -0.007746708026999605
 0.9934735999426096 -0.05979588737075986 0.0053714326587325275 0.02484647376712296 -0.0011982421063017512 -0.007746717309308111 0.0013906886534031096 0.012265288935402244
 0.0013943572477250284 0.012264802561908887 -0.0011982421063017512 -0.007746717309308111 0.005370974354198606 0.024847573981071833 0.9934736431011845 -0.059794798124180044
 -0.001198414362014187 -0.007746708026999605 0.0013906886534031096 0.012265288935402244 0.9934736431011845 -0.059794798124180044 0.005371493953783003 0.02484753264436642
0.08753647353064001 0.0057953792659665585 0.0268891886738607 0.99290964415008 -0.06449791872166288 0.0015773283827413527 0.013208403932504447 -0.001353286586803147 -0.008345618052601271
 0.99290964415008 -0.06449791872166288 0.005795930392691468 0.026889166809887777 -0.001353087381416281 -0.008345630391539198 0.0015730701373016954 0.013208982504947904
 0.0015773283827413527 0.013208403932504447 -0.001353087381416281 -0.008345630391539198 0.005795398307883647 0.026890350288453928 0.9929096940654166 -0.06449674485798515
 -0.001353286586803147 -0.008345618052601271 0.0015730701373016954 0.013208982504947904 0.9929096940654166 -0.06449674485798515 0.005796001115856203 0.026890303448330672
0.09378907878283 0.006242273117861368 0.02894820764163613 0.9923160602743258 -0.0692140932579349 0.0017723416903826798 0.014151181914333214 -0.0015183590710704528 -0.008944030972212262
 0.9923160602743258 -0.0692140932579349 0.006242905576275712 0.028948184101025974 -0.0015181310362647749 -0.008944046846673614 0.0017674491410349965 0.014151863832042057
 0.0017723416903826798 0.014151181914333214 -0.0015181310362647749 -0.008944046846673614 0.006242294100410794 0.028949450484482973 0.9923161174782711 -0.06921283455651678
 -0.0015183590710704528 -0.008944030972212262 0.0017674491410349965 0.014151863832042057 0.9923161174782711 -0.06921283455651678 0.0062429863662700645 0.028949397748822166
0.100041684035 0.006711997458316965 0.031023167077210617 0.9916924980794471 -0.0739441476446583 0.001979482395724295 0.015092942746394836 -0.001693719839731561 -0.00954175514534791
 0.9916924980794471 -0.0739441476446583 0.006712716885170118 0.03102314188849971 -0.001693461111888608 -0.009541775063088688 0.001973910733059101 0.015093739860901012
 0.001979482395724295 0.015092942746394836 -0.001693461111888608 -0.009541775063088688 0.006712020371960538 0.031024490780334833 0.9916925631151547 -0.07394280386867698
 -0.001693719839731561 -0.00954175514534791 0.001973910733059101 0.015093739860901012 0.9916925631151547 -0.07394280386867698 0.0067128083678924845 0.031024431744430626
0.1059090909091 0.007173864231439695 0.03298445222781138 0.991079776665405 -0.0783951775292633 0.0021849644255772277 0.015975584014634347 -0.0018677095256595087 -0.010101855952562204
 0.991079776665405 -0.0783951775292633 0.007174670414791431 0.03298442552554719 -0.0018674203153506042 -0.010101880151981458 0.0021787145936647055 0.015976500645692126
 0.0021849644255772277 0.015975584014634347 -0.0018674203153506042 -0.010101880151981458 0.007173888932510705 0.03298585145356717 0.9910798495549312 -0.07839375368624556
 -0.0018677095256595087 -0.010101855952562204 0.0021787145936647055 0.015976500645692126 0.9910798495549312 -0.07839375368624556 0.007174772487834035 0.03298578612597693
0.1062942892872 0.007204907219576382 0.0331136831770197 0.9910386101865117 -0.0786878032084008 0.0021988320717930047 0.01603348845323715 -0.0018794531683010796 -0.010138595725297794
 0.9910386101865117 -0.0786878032084008 0.007205719273360141 0.03311365637666544 -0.0018791619002336165 -0.010138620222904734 0.0021925363295028856 0.016034413332137405
 0.0021988320717930047 0.01603348845323715 -0.0018791619002336165 -0.010138620222904734 0.007204932036775205 0.03311508734811085 0.9910386836091263 -0.07868637410084217
 -0.0018794531683010796 -0.010138595725297794 0.0021925363295028856 0.016034413332137405 0.9910386836091263 -0.07868637410084217 0.007205822060257587 0.03311502159431023
0.11254689453939999 0.007721353453587659 0.03521937073509162 0.9903540523226454 -0.08344476731226547 0.002430468498978904 0.01697261699781263 -0.002075639457775093 -0.010734354621928222
 0.9903540523226454 -0.08344476731226547 0.007722263817849745 0.03521934236704466 -0.002075313819142979 -0.010734384264773673 0.0024234035538235102 0.016973682935788104
 0.002430468498978904 0.01697261699781263 -0.002075313819142979 -0.010734384264773673 0.0077213801287901096 0.03522085495534488 0.990354134700259 -0.08344325259819856
 -0.002075639457775093 -0.010734354621928222 0.0024234035538235102 0.016973682935788104 0.990354134700259 -0.08344325259819856 0.00772237850461762 0.035220782052735884
0.11879949979160001 0.008261683167169447 0.03733984208115164 0.9896384835626921 -0.08821473444477194 0.002674465526186326 0.017910122415909533 -0.002282355108210984 -0.01132883049242436
 0.9896384835626921 -0.08821473444477194 0.008262697553908486 0.03733981219642624 -0.0022819932858232305 -0.011328865874613441 0.0026665860981585202 0.017911343445837447
 0.002674465526186326 0.017910122415909533 -0.0022819932858232305 -0.011328865874613441 0.008261711636021385 0.03734140590580992 0.9896385754775733 -0.08821313383116278
 -0.002282355108210984 -0.01132883049242436 0.0026665860981585202 0.017911343445837447 0.9896385754775733 -0.08821313383116278 0.008262824718850694 0.037341325409711267
0.1250521050438 0.008826239147832758 0.039474706256181526 0.9888915665657964 -0.0929973870826756 0.0029308929333353414 0.01884579493827498 -0.0024996723914150706 -0.01192181875390398
 0.9888915665657964 -0.0929973870826756 0.008827363301179683 0.039474674912367426 -0.0024992725896683635 -0.011921860498200444 0.0029221535862014266 0.018847185842432314
 0.0029308929333353414 0.01884579493827498 -0.0024992725896683635 -0.011921860498200444 0.008826269327145546 0.03947634921433579 0.9888916686149538 -0.09299570025896779
 -0.0024996723914150706 -0.01192181875390398 0.0029221535862014266 0.018847185842432314 0.9888916686149538 -0.09299570025896779 0.008827503503864605 0.03947626066582989
0.131304710296 0.009415359783726244 0.04162356836114883 0.9881129678067001 -0.09779239639232111 0.003199816295417915 0.019779421110354745 -0.0027276593232016875 -0.012513111608066061
 0.9881129678067001 -0.09779239639232111 0.009416599483361038 0.04162353562168722 -0.0027272197644774743 -0.012513160365788954 0.0031901714374182348 0.0197809974318498
 0.003199816295417915 0.019779421110354745 -0.0027272197644774743 -0.012513160365788954 0.009415391570726189 0.04162528995717029 0.9881130806026176 -0.09779062302921751
 -0.0027276593232016875 -0.012513111608066061 0.0031901714374182348 0.0197809974318498 0.9881130806026176 -0.09779062302921751 0.009416753262580645 0.041625192882594045
0.1375573155481 0.009900627328879428 0.04350599760581081 0.9874311712223787 -0.10231922621921327 0.0034492430619069312 0.02068348638254233 -0.0029343423566408717 -0.013075214229990615
 0.9874311712223787 -0.10231922621921327 0.009901990356804636 0.0435059644561365 -0.002933860627390625 -0.013075270117610728 0.003438669938300745 0.02068524719235203
 0.0034492430619069312 0.02068348638254233 -0.002933860627390625 -0.013075270117610728 0.009900661773515205 0.04350779690810224 0.987431295267114 -0.10231736613775319
 -0.0029343423566408717 -0.013075214229990615 0.003438669938300745 0.02068524719235203 0.987431295267114 -0.10231736613775319 0.009902157292216412 0.0435076928545355
0.1438099208003 0.010403149647240985 0.04537731396799491 0.9867250248768604 -0.10683336910075097 0.0037087069465785226 0.021583147536977636 -0.0031492445695551936 -0.013633281019208474
 0.9867250248768604 -0.10683336910075097 0.010404642177568695 0.04537728047647533 -0.003148718803248168 -0.013633344675118612 0.0036971638658341616 0.021585107227355804
 0.0037087069465785226 0.021583147536977636 -0.003148718803248168 -0.013633344675118612 0.010403186828858811 0.04537919039434888 0.9867251607822066 -0.10683142198312333
 -0.0031492445695551936 -0.013633281019208474 0.0036971638658341616 0.021585107227355804 0.9867251607822066 -0.10683142198312333 0.010404822604800435 0.045379079004513385
0.1500625260525 0.010922731306986023 0.047237325633613624 0.9859947291221592 -0.11133467663441844 0.003978106336387638 0.022478288566747485 -0.003372267054713477 -0.014187203370307667
 0.9859947291221592 -0.11133467663441844 0.010924359567895966 0.04723729185693253 -0.0033716953943726136 -0.01418727545766772 0.003965551718234969 0.02248046209696653
 0.003978106336387638 0.022478288566747485 -0.0033716953943726136 -0.01418727545766772 0.010922771300180724 0.047239278576586136 0.985994877512921 -0.11133264215157675
 -0.003372267054713477 -0.014187203370307667 0.003965551718234969 0.02248046209696653 0.985994877512921 -0.11133264215157675 0.010924553791060075 0.047239159471000984
0.15631513130469998 0.011459175263514997 0.04908584651939975 0.985240485579443 -0.115823001754444 0.0042573382817471745 0.023368795704038898 -0.0036033095633531227 -0.014736875205498679
 0.985240485579443 -0.115823001754444 0.011460945539311467 0.04908581250123624 -0.003602690161818966 -0.014736956411975874 0.004243730656216089 0.023371198598808315
