! Created with skrf 1.8.0 (http://scikit-rf.org).
# GHz S RI R 50.0 
!freq ReS11 ImS11 ReS12 ImS12 ReS13 ImS13
! ReS14 ImS14
! ReS21 ImS21 ReS22 ImS22 ReS23 ImS23
! ReS24 ImS24
! ReS31 ImS31 ReS32 ImS32 ReS33 ImS33
! ReS34 ImS34
! ReS41 ImS41 ReS42 ImS42 ReS43 ImS43
! ReS44 ImS44
!
0.0 0.001533341988674 0.0 0.9984666579829 0.0 5.918406803827e-05 0.0 -5.918406777197e-05 7.247957915746309e-21
 0.9984666579829 0.0 0.001533341988675 0.0 -5.91840677717e-05 7.247957915713243e-21 5.918406803826e-05 0.0
 5.918406803827e-05 0.0 -5.91840677717e-05 7.247957915713243e-21 0.001533341992927 0.0 0.9984666579872 0.0
 -5.918406777197e-05 7.247957915746309e-21 5.918406803826e-05 0.0 0.9984666579872 0.0 0.001533341992942 0.0
0.005 0.0016497206848119707 0.001253405476924671 0.9983194142411723 -0.00321200738217296 8.313052992128314e-05 0.0006584342004440454 -8.063297294179137e-05 -0.0004121994700131178
 0.9983194142411723 -0.00321200738217296 0.0016497503143904349 0.0012533882325757916 -8.063372866431603e-05 -0.00041220010347905214 8.294195465195443e-05 0.0006585059570861135
 8.313052992128314e-05 0.0006584342004440454 -8.063372866431603e-05 -0.00041220010347905214 0.0016497196677687563 0.0012533388367447994 0.9983194138799804 -0.0032120744511753463
 -8.063297294179137e-05 -0.0004121994700131178 8.294195465195443e-05 0.0006585059570861135 0.9983194138799804 -0.0032120744511753463 0.001649750609652953 0.001253320733778386
0.006252605252188 0.0016802307719871858 0.0015716934733142516 0.9982805660210746 -0.004015796556378532 8.998527313440077e-05 0.0008233580307921544 -8.66842094892688e-05 -0.0005157841415180175
 0.9982805660210746 -0.004015796556378532 0.0016802770879280004 0.0015716715741818025 -8.668538503947905e-05 -0.0005157849237055281 8.96906409211593e-05 0.000823451208553725
 8.998527313440077e-05 0.0008233580307921544 -8.668538503947905e-05 -0.0005157849237055281 0.0016802292670463502 0.0015716101963358208 0.9982805655417923 -0.004015880374839912
 -8.66842094892688e-05 -0.0005157841415180175 8.96906409211593e-05 0.000823451208553725 0.9982805655417923 -0.004015880374839912 0.0016802776352416264 0.001571587212491942
0.01250521050438 0.0018407701353264129 0.003176361601879339 0.9980747844361791 -0.008032409898753163 0.00012936482061994442 0.0016470436421934503 -0.00012099343790982834 -0.0010340795360306231
 0.9980747844361791 -0.008032409898753163 0.0018409550681238675 0.0031763143475573596 -0.00012099806558537807 -0.0010340809952880307 0.00012818986881874402 0.0016472675446870576
 0.00012936482061994442 0.0016470436421934503 -0.00012099806558537807 -0.0010340809952880307 0.0018407646646742852 0.0031761953591045266 0.9980747830679605 -0.008032577284427045
 -0.00012099343790982834 -0.0010340795360306231 0.00012818986881874402 0.0016472675446870576 0.9980747830679605 -0.008032577284427045 0.001840957806456272 0.003176145807052621
0.01875781575657 0.0020153097740126793 0.004803909508826512 0.9978490582015628 -0.012059617852226704 0.00017741228670718428 0.002471611937713381 -0.00016221724108777627 -0.0015541317334181119
 0.9978490582015628 -0.012059617852226704 0.0020157253118656625 0.004803833211069705 -0.00016222755398966377 -0.0015541337461689668 0.00017477282156904114 0.002472011421800002
 0.00017741228670718428 0.002471611937713381 -0.00016222755398966377 -0.0015541337461689668 0.002015297893488931 0.00480366048400563 0.9978490555531335 -0.012059868698045689
 -0.00016221724108777627 -0.0015541317334181119 0.00017477282156904114 0.002472011421800002 0.9978490555531335 -0.012059868698045689 0.0020157319050840704 0.004803580505902308
0.02501042100875 0.002204189071393331 0.00645205797133772 0.9976031222758813 -0.01609937209254516 0.00023421923518050083 0.0032970953728836748 -0.0002104576617161748 -0.0020757033002289376
 0.9976031222758813 -0.01609937209254516 0.0022049270104055664 0.006451948742142844 -0.00021047586407362448 -0.002075705722046886 0.00022953080172846796 0.0032977223531362046
 0.00023421923518050083 0.0032970953728836748 -0.00021047586407362448 -0.002075705722046886 0.0022041683238848415 0.0064517263258984416 0.9976031179467227 -0.01609970632996543
 -0.0002104576617161748 -0.0020757033002289376 0.00022953080172846796 0.0032977223531362046 0.9976031179467227 -0.01609970632996543 0.002204939117195945 0.006451611824239501
0.03126302626094 0.0024077333367588075 0.00811963395831227 0.9973366980449915 -0.020152507589968602 0.0002998779034031396 0.004123449757315424 -0.0002658138533217521 -0.002598627686309478
 0.9973366980449915 -0.020152507589968602 0.002408885332200507 0.00811948771679681 -0.00026584212539421646 -0.0025986303516708407 0.00029255524195279553 0.004124363247565755
 0.0002998779034031396 0.004123449757315424 -0.00026584212539421646 -0.0025986303516708407 0.002407701266537268 0.008119219865378039 0.9973366916406593 -0.020152925155284322
 -0.0002658138533217521 -0.002598627686309478 0.00029255524195279553 0.004124363247565755 0.9973366916406593 -0.020152925155284322 0.002408904621790727 0.00811906650947884
0.037515631513130004 0.002626260827814769 0.009805872541545696 0.9970495005591574 -0.024219440638408352 0.00037448017256872304 0.004950600596277885 -0.00032838280636278227 -0.0031227628718523553
 0.9970495005591574 -0.024219440638408352 0.002627918429494804 0.009805685017562854 -0.00032842330705175517 -0.0031227655940835397 0.0003639369744653846 0.004951866781447732
 0.00037448017256872304 0.004950600596277885 -0.00032842330705175517 -0.0031227655940835397 0.0026262149736192347 0.009805376174226789 0.9970494916842862 -0.024219941484817008
 -0.00032838280636278227 -0.0031227628718523553 0.0003639369744653846 0.004951866781447732 0.9970494916842862 -0.024219941484817008 0.0026279465747065128 0.00980517940341598
0.043768236765320004 0.0028600854583711727 0.011510204449680721 0.9967412414603136 -0.028300381231987286 0.00045811709278148255 0.0057784571722888116 -0.00039825960317444624 -0.003647977283599785
 0.9967412414603136 -0.028300381231987286 0.0028623401381411466 0.011509971186150367 -0.00039831447156197944 -0.003647979854888275 0.0004437658838353253 0.005780149489627877
 0.00045811709278148255 0.0057784571722888116 -0.00039831447156197944 -0.003647979854888275 0.002860023354740507 0.011509626005839144 0.9967412297201567 -0.02830096530521829
 -0.00039825960317444624 -0.003647977283599785 0.0004437658838353253 0.005780149489627877 0.9967412297201567 -0.02830096530521829 0.002862378816892373 0.0115093810312281
0.050020842017509996 0.0031095180520452218 0.013232168295955938 0.9964116304611691 -0.03239542076583865 0.0005508785972912251 0.00660691837890706 -0.00047553751141196513 -0.004174143963301869
 0.9964116304611691 -0.03239542076583865 0.003112461228693094 0.013231884650293313 -0.0004756088678192408 -0.004174146154728608 0.0005321306892979065 0.006609117603129581
 0.0005508785972912251 0.00660691837890706 -0.0004756088678192408 -0.004174146154728608 0.0031094372304679312 0.013231507977914064 0.9964116154624983 -0.03239608802487383
 -0.00047553751141196513 -0.004174143963301869 0.0005321306892979065 0.006609117603129581 0.9964116154624983 -0.03239608802487383 0.0031125121246340917 0.013231209783165497
0.055454545454549996 0.003339197669397732 0.014742617151695496 0.9961076219080173 -0.03596559800315405 0.0006389702940677082 0.007327283077698313 -0.0005487760495581161 -0.004632074875103845
 0.9961076219080173 -0.03596559800315405 0.003342813389533014 0.014742285808544996 -0.0005488634424816429 -0.0046320765341491665 0.0006159224854120241 0.007329994182277126
 0.0006389702940677082 0.007327283077698313 -0.0005488634424816429 -0.0046320765341491665 0.00333909857271902 0.014741885867544345 0.9961076037578587 -0.035966337513239154
 -0.0005487760495581161 -0.004632074875103845 0.0006159224854120241 0.007329994182277126 0.9961076037578587 -0.035966337513239154 0.003342876272652737 0.01474153717244399
0.056273447269699996 0.003374866990807957 0.014971367447195467 0.9960603762224826 -0.03650457509672099 0.0006528533034489991 0.007435875564549909 -0.000560308002492918 -0.004701137730204194
 0.9960603762224826 -0.03650457509672099 0.0033785900524477635 0.014971028592008101 -0.0005603979491760019 -0.0047011392917885 0.0006291187864138445 0.00743866989467799
 0.0006528533034489991 0.007435875564549909 -0.0005603979491760019 -0.0047011392917885 0.003374764977752348 0.014970625480159327 0.9960603575716911 -0.03650532549586021
 -0.000560308002492918 -0.004701137730204194 0.0006291187864138445 0.00743866989467799 0.9960603575716911 -0.03650532549586021 0.00337865485291939 0.014970268821594593
0.06252605252188 0.0036564385565492526 0.016727446372075516 0.9956871869280749 -0.040627808127248595 0.0007641283553371415 0.00826521411538774 -0.000652660733110124 -0.0052288336085943785
 0.9956871869280749 -0.040627808127248595 0.0036610328824128982 0.01672704729521686 -0.0006527713548295979 -0.005228834269322718 0.0007348161169707851 0.008268699262270567
 0.0007641283553371415 0.00826521411538774 -0.0006527713548295979 -0.005228834269322718 0.0036563128759721846 0.016726622999807535 0.9956871642333431 -0.04062864162072914
 -0.000652660733110124 -0.0052288336085943785 0.0007348161169707851 0.008268699262270567 0.9956871642333431 -0.04062864162072914 0.00366111328003473 0.01672620240593705
0.06877865777407 0.003954537114077888 0.018500076492506626 0.9952917707050347 -0.04476504589030795 0.0008847892913593838 0.009094814389590113 -0.0007526835041499021 -0.005757105908289061
 0.9952917707050347 -0.04476504589030795 0.003960094095172819 0.018499611996504503 -0.0007528168684894843 -0.005757105376170591 0.0008493070556598151 0.009099093663522306
 0.0008847892913593838 0.009094814389590113 -0.0007528168684894843 -0.005757105376170591 0.00395438528534962 0.018499171972455947 0.9952917435745667 -0.044765962437783226
 -0.0007526835041499021 -0.005757105908289061 0.0008493070556598151 0.009099093663522306 0.9952917435745667 -0.044765962437783226 0.003960191785913693 0.01849868174269987
0.07503126302626001 0.004269465193070978 0.020288947239404373 0.9948738359475343 -0.04891618543373438 0.001014919924910518 0.009924552323699409 -0.0008604622071031191 -0.0062858276375277605
 0.9948738359475343 -0.04891618543373438 0.004276076253034615 0.020288411940230865 -0.0008606203648309765 -0.006285825599635161 0.0009726743050335765 0.009929736721738365
 0.001014919924910518 0.009924552323699409 -0.0008606203648309765 -0.006285825599635161 0.004269284732711186 0.02028796185253756 0.9948738039900246 -0.048917184990717094
 -0.0008604622071031191 -0.0062858276375277605 0.0009726743050335765 0.009929736721738365 0.9948738039900246 -0.048917184990717094 0.0042761929367383265 0.020287396055426288
0.08128386827845 0.004601523512397229 0.022093760092177603 0.9944330915849703 -0.053081100725531905 0.001154602234513765 0.010754299829636932 -0.0009760807611055597 -0.006814870129892744
 0.9944330915849703 -0.053081100725531905 0.004609280127783322 0.02209314841738626 -0.000976265746354859 -0.006814866252405222 0.0011049987968342636 0.010760508122370789
 0.001154602234513765 0.010754299829636932 -0.000976265746354859 -0.006814866252405222 0.0046013119332001225 0.022092694136375896 0.9944330544094828 -0.05308218325056151
 -0.0009760807611055597 -0.006814870129892744 0.0011049987968342636 0.010760508122370789 0.9944330544094828 -0.05308218325056151 0.004609417507068093 0.022092046607072896
0.08753647353064001 0.004951010960035493 0.023914224463129023 0.9939692473115083 -0.05725964671951242 0.0013039162588270516 0.011583925087101803 -0.001099621044604555 -0.0073441027806574076
 0.9939692473115083 -0.05725964671951242 0.004960004680707429 0.023913530649298916 -0.0010998348750409959 -0.007344096708907453 0.0012463595961269196 0.011591283904647238
 0.0013039162588270516 0.011583925087101803 -0.0010998348750409959 -0.007344096708907453 0.004950765772443785 0.02391307825982563 0.9939692045282847 -0.05726081216783177
 -0.001099621044604555 -0.0073441027806574076 0.0012463595961269196 0.011591283904647238 0.9939692045282847 -0.05726081216783177 0.004960164461603967 0.023912342597021987
0.09378907878283 0.005318224549539265 0.025750054756764663 0.9934820137943365 -0.061451662251129247 0.0014629399961830186 0.012413292749414643 -0.0012311628220414692 -0.007873392874669424
 0.9934820137943365 -0.061451662251129247 0.005328547018983975 0.0257492728463474 -0.0012314074989966132 -0.007873384233186623 0.001396833808253987 0.012421936666510116
 0.0014629399961830186 0.012413292749414643 -0.0012314074989966132 -0.007873384233186623 0.0053179432611301595 0.02574882864675607 0.9934819650136584 -0.06145291057939817
 -0.0012311628220414692 -0.007873392874669424 0.001396833808253987 0.012421936666510116 0.9934819650136584 -0.06145291057939817 0.0053287309097281264 0.025747998208870047
0.100041684035 0.00570345935193277 0.027600968210489824 0.9929711028611025 -0.06565697215769081 0.0016317493061923831 0.013242264104893472 -0.0013707836677002234 -0.008402605463803819
 0.9929711028611025 -0.06565697215769081 0.005715202328009781 0.027600092047805683 -0.001371061176265641 -0.008402593856361154 0.001556496487074426 0.013252335724889212
 0.0016317493061923831 0.013242264104893472 -0.001371061176265641 -0.008402593856361154 0.005703139467762648 0.027599662556961467 0.9929710476937452 -0.06565830332127924
 -0.0013707836677002234 -0.008402605463803819 0.001556496487074426 0.013252335724889212 0.9929710476937452 -0.06565830332127924 0.005715412038585879 0.027598730457632392
0.1059090909091 0.006081612522984675 0.029351321334610648 0.9924698772644679 -0.06961513362669208 0.001799124423263887 0.014019678958886946 -0.0015092179581787982 -0.008899022614404709
 0.9924698772644679 -0.06961513362669208 0.006094772066272366 0.029350350947166506 -0.001509528066714615 -0.008899007844907957 0.0017147447635159465 0.014031227247425903
 0.001799124423263887 0.014019678958886946 -0.001509528066714615 -0.008899007844907957 0.00608125415002727 0.029349941387732628 0.9924698157504486 -0.06961654248158791
 -0.0015092179581787982 -0.008899022614404709 0.0017147447635159465 0.014031227247425903 0.9924698157504486 -0.06961654248158791 0.006095007562951582 0.02934890740427792
0.1062942892872 0.006107008416166523 0.02946668328166039 0.9924362276790129 -0.06987538885778712 0.0018104178133138088 0.014070697206021346 -0.001518558887008477 -0.008931603281791914
 0.9924362276790129 -0.06987538885778712 0.0061202637913659146 0.02946570650835041 -0.001518871196074012 -0.008931588291452039 0.0017254205442119655 0.01408234724374749
 0.0018104178133138088 0.014070697206021346 -0.001518871196074012 -0.008931588291452039 0.006106647439509145 0.029465298469474887 0.992436165736485 -0.06987680281199672
 -0.001518558887008477 -0.008931603281791914 0.0017254205442119655 0.01408234724374749 0.992436165736485 -0.06987680281199672 0.006120501033736239 0.029464257572394775
0.11254689453939999 0.006529162676115678 0.031346918409419305 0.991877102923958 -0.07410671356205482 0.0019990168119653376 0.014898446973579676 -0.0016745614357607528 -0.00946024668951686
 0.991877102923958 -0.07410671356205482 0.006544022498395062 0.031345834459012636 -0.0016749104980875497 -0.00946022787867181 0.0019036766591441208 0.014911834336819984
 0.0019990168119653376 0.014898446973579676 -0.0016749104980875497 -0.00946022787867181 0.00652875810843343 0.031345454843465494 0.9918770338180543 -0.07410821026414803
 -0.0016745614357607528 -0.00946024668951686 0.0019036766591441208 0.014911834336819984 0.9918770338180543 -0.07410821026414803 0.006544288985517654 0.03134429775642511
0.11879949979160001 0.006970210849315698 0.03324139105090403 0.9912934449439084 -0.07835073721580539 0.00219761517220823 0.015725365287738265 -0.0018388618381771024 -0.009988393638698669
 0.9912934449439084 -0.07835073721580539 0.0069867673429500985 0.03324019314272433 -0.0018392495903765366 -0.009988370549128385 0.002091333189626829 0.01574065715737626
 0.00219761517220823 0.015725365287738265 -0.0018392495903765366 -0.009988370549128385 0.006969760190631289 0.03323984916460172 0.9912933682868226 -0.07835231661686828
 -0.0018388618381771024 -0.009988393638698669 0.002091333189626829 0.01574065715737626 0.9912933682868226 -0.07835231661686828 0.006987064788371777 0.03323856823282906
0.1250521050438 0.007430439328746173 0.03514981693308843 0.9906849719184123 -0.08260724123222805 0.0024062792464390687 0.016551301067467137 -0.0020115281036437644 -0.01051589965282095
 0.9906849719184123 -0.08260724123222805 0.007448784915094756 0.03514849806529942 -0.0020119564662304727 -0.010515871805736425 0.00228845608257723 0.016568672976116514
 0.0024062792464390687 0.016551301067467137 -0.0020119564662304727 -0.010515871805736425 0.007429940078199224 0.03514819717873678 0.9906848873231102 -0.08260890328730115
 -0.0020115281036437644 -0.01051589965282095 0.00228845608257723 0.016568672976116514 0.9906848873231102 -0.08260890328730115 0.007449115032920578 0.035146784477434946
0.131304710296 0.007910132068678416 0.037071909441499226 0.9900514040151163 -0.08687599809545737 0.0026250727767375788 0.017376100344556646 -0.002192625642540507 -0.011042617819169969
 0.9900514040151163 -0.08687599809545737 0.007930359387708811 0.03707046238336187 -0.002193096519890485 -0.01104258471524592 0.0024951087854161113 0.0173957362535429
 0.0026250727767375788 0.017376100344556646 -0.002193096519890485 -0.01104258471524592 0.007909581724673303 0.03707021229448838 0.9900513110947097 -0.08687774275969601
 -0.002192625642540507 -0.011042617819169969 0.0024951087854161113 0.0173957362535429 0.9900513110947097 -0.08687774275969601 0.007930723891587499 0.03706865962054559
0.1375573155481 0.008299397358332973 0.03875660457439098 0.9895026757029636 -0.09090589781432878 0.0028270363480084027 0.01817458480345108 -0.0023553497667423715 -0.01154328159987427
 0.9895026757029636 -0.09090589781432878 0.008321607228009323 0.038755054157393755 -0.0023558661315875376 -0.011543243205553957 0.0026846329608732136 0.018196456609446316
 0.0028270363480084027 0.01817458480345108 -0.0023558661315875376 -0.011543243205553957 0.008298794235775201 0.03875483016518973 0.9895025740843548 -0.09090772501040281
 -0.0023553497667423715 -0.01154328159987427 0.0026846329608732136 0.018196456609446316 0.9895025740843548 -0.09090772501040281 0.008322006984515502 0.03875316200998329
0.1438099208003 0.008702349511974758 0.04043241276144871 0.9889346459501698 -0.09492556730084253 0.0030371751294548982 0.018969745175719758 -0.002524582217249412 -0.012040972961269205
 0.9889346459501698 -0.09492556730084253 0.008726636135460382 0.04043075364201555 -0.0025251461430334196 -0.012040928781593959 0.002881786684437264 0.01899402114583522
 0.0030371751294548982 0.018969745175719758 -0.0025251461430334196 -0.012040928781593959 0.00870169125480676 0.040430561533907804 0.9889345352507672 -0.0949274769740769
 -0.002524582217249412 -0.012040972961269205 0.002881786684437264 0.01899402114583522 0.9889345352507672 -0.0949274769740769 0.008727072703712509 0.04042877162376313
0.1500625260525 0.009118846085448037 0.042099193663766896 0.988347461208737 -0.09893490621371587 0.0032554170191083876 0.01976149691780289 -0.0027002543482788663 -0.012535614743532103
 0.988347461208737 -0.09893490621371587 0.0091453039252171 0.042097420154172005 -0.0027008679058122937 -0.01253556426331541 0.003086501056177852 0.019788351466526577
 0.0032554170191083876 0.01976149691780289 -0.0027008679058122937 -0.01253556426331541 0.009118130346217114 0.042097266078115717 0.9883473410468174 -0.09893689830699447
 -0.0027002543482788663 -0.012535614743532103 0.003086501056177852 0.019788351466526577 0.9883473410468174 -0.09893689830699447 0.009145778853698413 0.04209534776030363
0.15631513130469998 0.00954874361871758 0.04375681119280403 0.9877412686791973 -0.1029338145770616 0.003481689052424012 0.020549756905884287 -0.002882296664189934 -0.013027131423085547
