! Created with skrf 1.8.0 (http://scikit-rf.org).
# GHz S RI R 50.0 
!freq ReS11 ImS11 ReS12 ImS12 ReS13 ImS13
! ReS14 ImS14
! ReS21 ImS21 ReS22 ImS22 ReS23 ImS23
! ReS24 ImS24
! ReS31 ImS31 ReS32 ImS32 ReS33 ImS33
! ReS34 ImS34
! ReS41 ImS41 ReS42 ImS42 ReS43 ImS43
! ReS44 ImS44
!
0.0 0.001328718796665 0.0 0.9986712812033 0.0 5.106461108598e-05 0.0 -5.10646099321e-05 6.253611110305441e-21
 0.9986712812033 0.0 0.001328718796672 0.0 -5.106460993201e-05 6.253611110294419e-21 5.106461108732e-05 0.0
 5.106461108598e-05 0.0 -5.106460993201e-05 6.253611110294419e-21 0.001328718786703 0.0 0.9986712811933 0.0
 -5.10646099321e-05 6.253611110305441e-21 5.106461108732e-05 0.0 0.9986712811933 0.0 0.001328718786721 0.0
0.005 0.0014290893057417329 0.0010841852932765258 0.9985443805596952 -0.0027841270827782694 7.169296763208286e-05 0.000582258038272147 -6.9584138034233e-05 -0.0003621439250798074
 0.9985443805596952 -0.0027841270827782694 0.0014290874239828951 0.0010841864095837066 -6.958558428391755e-05 -0.00036214507083324993 7.170912518213174e-05 0.0005822520630410766
 7.169296763208286e-05 0.000582258038272147 -6.958558428391755e-05 -0.00036214507083324993 0.001429088057636203 0.0010841187941341328 0.9985443802227978 -0.0027841941494815468
 -6.9584138034233e-05 -0.0003621439250798074 7.170912518213174e-05 0.0005822520630410766 0.9985443802227978 -0.0027841941494815468 0.0014290879989908294 0.0010841187746671315
0.006252605252188 0.001455255680899943 0.001359533823700699 0.9985111145350981 -0.003480866069799267 7.749038746771407e-05 0.0007281062268424132 -7.474054449954874e-05 -0.0004531621143180951
 0.9985111145350981 -0.003480866069799267 0.0014552527386876646 0.0013595351899239243 -7.474279473530053e-05 -0.00045316352814733253 7.75156344110133e-05 0.0007280984458017245
 7.749038746771407e-05 0.0007281062268424132 -7.474279473530053e-05 -0.00045316352814733253 0.0014552537985847629 0.0013594507200245167 0.9985111140776022 -0.003480949887000647
 -7.474054449954874e-05 -0.0004531621143180951 7.75156344110133e-05 0.0007280984458017245 0.9985111140776022 -0.003480949887000647 0.00145525370699006 0.001359450658078511
0.01250521050438 0.0015920824948419646 0.002747901810810878 0.9983361334770857 -0.00696270367682666 0.0001102305068538318 0.0014565760167661178 -0.00010360906392857327 -0.0009086432574296423
 0.9983361334770857 -0.00696270367682666 0.0015920707392792842 0.002747904246257586 -0.00010361792911456077 -0.0009086458862806301 0.0001103312539839126 0.001456557138101346
 0.0001102305068538318 0.0014565760167661178 -0.00010361792911456077 -0.0009086458862806301 0.0015920755400541807 0.002747735897385996 0.9983361322171571 -0.006962871064373837
 -0.00010360906392857327 -0.0009086432574296423 0.0001103312539839126 0.001456557138101346 0.9983361322171571 -0.006962871064373837 0.0015920751785946585 0.0027477353775064365
0.01875781575657 0.0017394652719205288 0.004156381565916574 0.9981461439504642 -0.010454024321030918 0.00014935556800005635 0.002185941503882585 -0.00013775238602364327 -0.001365781907374716
 0.9981461439504642 -0.010454024321030918 0.0017394388441004025 0.004156384763914063 -0.00013777215230715726 -0.00136578552019262 0.00014958204513898241 0.0021859076646488346
 0.00014935556800005635 0.002185941503882585 -0.00013777215230715726 -0.00136578552019262 0.0017394500551236288 0.004156133011669268 0.9981461415412153 -0.010454275177401804
 -0.00013775238602364327 -0.001365781907374716 0.00014958204513898241 0.0021859076646488346 0.9981461415412153 -0.010454275177401804 0.0017394492527525827 0.004156131583213022
0.02501042100875 0.0018976639243214436 0.005583029143417297 0.9979409451769787 -0.01395655413493146 0.00019493711338066877 0.002916261334550343 -0.00017725051387252138 -0.0018243861658840722
 0.9979409451769787 -0.01395655413493146 0.001897616967784292 0.005583032782399967 -0.00017728541555333153 -0.0018243904948859664 0.00019533966603484674 0.002916208138692779
 0.00019493711338066877 0.002916261334550343 -0.00017728541555333153 -0.0018243904948859664 0.001897637258040206 0.005582698108761755 0.9979409412744745 -0.013956888386373817
 -0.00017725051387252138 -0.0018243861658840722 0.00019533966603484674 0.002916208138692779 0.9979409412744745 -0.013956888386373817 0.0018976358484267938 0.005582695263569065
0.03126302626094 0.002066927439197788 0.00702686094233212 0.997720325025382 -0.017471051954831746 0.00024704735927850497 0.00364752530809263 -0.00022218147055612448 -0.0022843291272496426
 0.997720325025382 -0.017471051954831746 0.002066854095700207 0.007026864684505224 -0.00022223569917653198 -0.002284333867370502 0.00024767649240157514 0.0036474478211923522
 0.00024704735927850497 0.00364752530809263 -0.00022223569917653198 -0.002284333867370502 0.002066886133783023 0.007026447584420701 0.9977203192855335 -0.017471469550299296
 -0.00022218147055612448 -0.0022843291272496426 0.00024767649240157514 0.0036474478211923522 0.9977203192855335 -0.017471469550299296 0.002066883952929331 0.007026442755343119
0.037515631513130004 0.0022474995874470637 0.00848724834536417 0.9974840658505093 -0.02099791462896602 0.00030575850833666784 0.004379696428976397 -0.00027262191021494326 -0.002745506819150475
 0.9974840658505093 -0.02099791462896602 0.00224739399387308 0.008487251835924449 -0.0002726996191893221 -0.0027455116278701053 0.000306664906736221 0.00437958917124936
 0.00030575850833666784 0.004379696428976397 -0.0002726996191893221 -0.0027455116278701053 0.002247440451010034 0.008486752839103195 0.9974840579295804 -0.020998415519453636
 -0.00027262191021494326 -0.002745506819150475 0.000306664906736221 0.00437958917124936 0.9974840579295804 -0.020998415519453636 0.0022474373355024493 0.00848674539873651
0.043768236765320004 0.002439621143830094 0.009963733515377708 0.9972319468433835 -0.02453736116173932 0.00037114243833852214 0.005112723688991437 -0.00032864734393615945 -0.0032078254111769376
 0.9972319468433835 -0.02453736116173932 0.002439477429766656 0.00996373638194493 -0.0003287526514188668 -0.003207829908452418 0.00037237697694671645 0.0051125806276782135
 0.00037114243833852214 0.005112723688991437 -0.0003287526514188668 -0.003207829908452418 0.0024395409829069768 0.009963156051811407 0.997231936398749 -0.02453794530224913
 -0.00032864734393615945 -0.0032078254111769376 0.00037237697694671645 0.0051125806276782135 0.997231936398749 -0.02453794530224913 0.0024395367676621933 0.009963145311448327
0.050020842017509996 0.0026435309224985483 0.011455953262622366 0.9969637451981253 -0.028089508785325137 0.00044327052029469785 0.005846547341395992 -0.000390332232048376 -0.003671195931501438
 0.9969637451981253 -0.028089508785325137 0.002643343208114853 0.011455955114913652 -0.0003904692227771652 -0.003671199699759886 0.0004448842695656417 0.00584636188291905
 0.00044327052029469785 0.005846547341395992 -0.0003904692227771652 -0.003671199699759886 0.002643426541343931 0.0114552940432459 0.9969637318877984 -0.028090176140969834
 -0.000390332232048376 -0.003671195931501438 0.0004448842695656417 0.00584636188291905 0.9969637318877984 -0.028090176140969834 0.0026434210577699884 0.011455279251821571
0.055454545454549996 0.002830492580497591 0.012765277225695674 0.9967174347292315 -0.031186789733762335 0.0005114840429217976 0.006484858047040507 -0.00044859150206626636 -0.004074665876867031
 0.9967174347292315 -0.031186789733762335 0.002830261844442247 0.012765277865372598 -0.00044875931883118754 -0.004074668643317523 0.0005134689662912611 0.00648462994780795
 0.0005114840429217976 0.006484858047040507 -0.00044875931883118754 -0.004074668643317523 0.0028303645538484174 0.012764547140927805 0.9967174186512217 -0.031187529374588706
 -0.00044859150206626636 -0.004074665876867031 0.0005134689662912611 0.00648462994780795 0.9967174186512217 -0.031187529374588706 0.002830357826713411 0.012764528169915208
0.056273447269699996 0.002859466318502405 0.012963601670310913 0.9966792367874453 -0.03165441027283687 0.0005222134942998348 0.006581101491121881 -0.00045775001652831353 -0.004135531668612176
 0.9966792367874453 -0.03165441027283687 0.002859228712358709 0.012963602099719918 -0.00045792274312024344 -0.00413553425274592 0.000524257721786477 0.006580866473128338
 0.0005222134942998348 0.006581101491121881 -0.00045792274312024344 -0.00413553425274592 0.002859334519138038 0.01296286091960369 0.9966792202702874 -0.03165516080672711
 -0.00045775001652831353 -0.004135531668612176 0.000524257721786477 0.006580866473128338 0.9966792202702874 -0.03165516080672711 0.0028593275928430716 0.01296284126275324
0.06252605252188 0.0030876636099702722 0.014486409552659592 0.9963781966016543 -0.03523207441993337 0.0006080413730402807 0.007316315508772009 -0.0005309731231901712 -0.00460074675082392
 0.9963781966016543 -0.03523207441993337 0.0030873702071195505 0.014486408132109163 -0.000531185607042299 -0.004600747658212199 0.0006105675434183508 0.007316023192109089
 0.0006080413730402807 0.007316315508772009 -0.000531185607042299 -0.004600747658212199 0.003087501191236083 0.014485587517981673 0.9963781765358606 -0.035232908093741126
 -0.0005309731231901712 -0.00460074675082392 0.0006105675434183508 0.007316023192109089 0.9963781765358606 -0.035232908093741126 0.003087492640137876 0.014485562117099842
0.06877865777407 0.003328358124144072 0.01602413220840673 0.9960603990528119 -0.038822478232544165 0.0007008233606693277 0.008052114881605543 -0.0006100729472357915 -0.005066755290689461
 0.9960603990528119 -0.038822478232544165 0.003328003004239507 0.016024128492073013 -0.0006103291792198137 -0.005066753991204823 0.000703883133917493 0.008051756942274025
 0.0007008233606693277 0.008052114881605543 -0.0006103291792198137 -0.005066753991204823 0.0033281618831406874 0.016023229156006527 0.9960603750979444 -0.03882339501095509
 -0.0006100729472357915 -0.005066755290689461 0.000703883133917493 0.008051756942274025 0.9960603750979444 -0.03882339501095509 0.0033281515151832217 0.01602319706742142
0.07503126302626001 0.0035817843313730576 0.017576541649490286 0.9957256182105239 -0.04242557464119809 0.0008006277817104372 0.008788421743479569 -0.0006951198269665058 -0.005533470852505482
 0.9957256182105239 -0.04242557464119809 0.00358136155662133 0.017576535172726764 -0.000695423767895659 -0.005533466778541285 0.0008042730104799641 0.008787989264583199
 0.0008006277817104372 0.008788421743479569 -0.000695423767895659 -0.005533466778541285 0.003581551062806075 0.017575557865902897 0.9957255900262006 -0.042426574490842854
 -0.0006951198269665058 -0.005533470852505482 0.0008042730104799641 0.008787989264583199 0.9957255900262006 -0.042426574490842854 0.003581538673773759 0.017575518080058614
0.08128386827845 0.0038481758865298032 0.01914342143254761 0.99537362798695 -0.046041297614649486 0.0009075220151597776 0.009525155231850928 -0.0007861830111300048 -0.006000806094974433
 0.99537362798695 -0.046041297614649486 0.003847679499840597 0.019143411711787076 -0.0007865385921184153 -0.0060007986414753875 0.0009118047410679298 0.009524638695560174
 0.0009075220151597776 0.009525155231850928 -0.0007865385921184153 -0.0060007986414753875 0.003847902382725169 0.019142357227129266 0.9953735952328003 -0.046042380502113164
 -0.0007861830111300048 -0.006000806094974433 0.0009118047410679298 0.009524638695560174 0.9953735952328003 -0.046042380502113164 0.0038478877540501872 0.01914230866785033
0.08753647353064001 0.004127765640402368 0.020724563088170243 0.9950042022941932 -0.04966956567815448 0.0010215724319552271 0.01026223173765674 -0.0008833306214435442 -0.006468672523341499
 0.9950042022941932 -0.04966956567815448 0.00412718966340976 0.02072454962086461 -0.0008837417441634998 -0.006468661047820305 0.001026544881255005 0.010261621017175137
 0.0010215724319552271 0.01026223173765674 -0.0008837417441634998 -0.006468661047820305 0.004127448691789467 0.020723418793431342 0.9950041646306496 -0.04967073157006425
 -0.0008833306214435442 -0.006468672523341499 0.001026544881255005 0.010261621017175137 0.9950041646306496 -0.04967073157006425 0.004127431588208365 0.0207233603172193
0.09378907878283 0.004420785628711062 0.022319763552174122 0.994617115182604 -0.05331028443224824 0.0011428443350569423 0.010999565078830278 -0.0009866296112711632 -0.006936980320285546
 0.994617115182604 -0.05331028443224824 0.0044201240600573 0.022319745816855387 -0.0009871001481440733 -0.0069369641428641314 0.0011485589138460629 0.010998849430421195
 0.0011428443350569423 0.010999565078830278 -0.0009871001481440733 -0.0069369641428641314 0.004420422023994196 0.02231853952203355 0.9946170722700813 -0.05331153329741342
 -0.0009866296112711632 -0.006936980320285546 0.0011485589138460629 0.010998849430421195 0.9946170722700813 -0.05331153329741342 0.00442040219120996 0.022318469917396486
0.100041684035 0.004727467045556297 0.023928823302551923 0.9942121409643463 -0.056963348368343235 0.0012714019010967015 0.011737066633087875 -0.0010961457217808432 -0.007405638220113376
 0.9942121409643463 -0.056963348368343235 0.004726713858617263 0.023928800758896022 -0.0010966795160648338 -0.007405616623556613 0.0012779111897930054 0.011736234688106027
 0.0012714019010967015 0.011737066633087875 -0.0010966795160648338 -0.007405616623556613 0.004727053571522681 0.023927519917233252 0.994212092463262 -0.05696468017333051
 -0.0010961457217808432 -0.007405638220113376 0.0012779111897930054 0.011736234688106027 0.994212092463262 -0.05696468017333051 0.004727030733772944 0.02392743790412137
0.1059090909091 0.005027885119696978 0.025451184220130083 0.9938156467768339 -0.06040248669047938 0.0013987219003808676 0.012429205612540663 -0.0012046268364610132 -0.007845659716030075
 0.9938156467768339 -0.06040248669047938 0.005027040453546275 0.025451156656233126 -0.00120522346060814 -0.007845632348625604 0.001406024911631615 0.012428253632302178
 0.0013987219003808676 0.012429205612540663 -0.00120522346060814 -0.007845632348625604 0.005027421925100542 0.025449806735479065 0.9938155927231712 -0.06040389629584421
 -0.0012046268364610132 -0.007845659716030075 0.001406024911631615 0.012428253632302178 0.9938155927231712 -0.06040389629584421 0.005027395995454884 0.02544971185256619
0.1062942892872 0.005048040204080903 0.02555154494010816 0.9937890543278821 -0.060628642243676555 0.0014073081225506729 0.012474645440509137 -0.001211943436190041 -0.007874553415747242
 0.9937890543278821 -0.060628642243676555 0.005047189345201782 0.025551517029050456 -0.001212544302048723 -0.007874525645499135 0.0014146648702229175 0.012473685197499872
 0.0014073081225506729 0.012474645440509137 -0.001212544302048723 -0.007874525645499135 0.005047573646309153 0.025550162603214646 0.9937889998992825 -0.0606300569562047
 -0.001211943436190041 -0.007874553415747242 0.0014146648702229175 0.012473685197499872 0.9937889998992825 -0.0606300569562047 0.005047547504001455 0.025550066832439988
0.11254689453939999 0.005382734489829683 0.02718773211129726 0.9933476304470458 -0.06430604211678387 0.0015506247511360173 0.013212208279992558 -0.0013340859320657584 -0.008343631494498344
 0.9933476304470458 -0.06430604211678387 0.005381779876351091 0.027187698255228997 -0.001334757654598918 -0.008343596758726757 0.0015588818692298687 0.013211107096851343
 0.0015506247511360173 0.013212208279992558 -0.001334757654598918 -0.008343596758726757 0.0053822116324735375 0.027186271251902722 0.993347569751901 -0.06430753970399547
 -0.0013340859320657584 -0.008343631494498344 0.0015588818692298687 0.013211107096851343 0.993347569751901 -0.06430753970399547 0.005382181859661595 0.02718616030474212
0.11879949979160001 0.0057317783059480125 0.028837188663777647 0.9928876450836429 -0.06799541615334541 0.0017014122411277079 0.01394965973606794 -0.0014626350325782926 -0.008812776386256101
 0.9928876450836429 -0.06799541615334541 0.0057307138240581855 0.028837148266763844 -0.0014633813677819862 -0.008812733855896634 0.0017106227969824503 0.013948404322250635
 0.0017014122411277079 0.01394965973606794 -0.0014633813677819862 -0.008812733855896634 0.00573119593241995 0.028835649735165336 0.9928875777832376 -0.06799699658357033
 -0.0014626350325782926 -0.008812776386256101 0.0017106227969824503 0.013948404322250635 0.9928875777832376 -0.06799699658357033 0.005731162174269592 0.028835522122874074
0.1250521050438 0.006095399013576607 0.030499717979231088 0.9924088746881833 -0.0716966252579646 0.00185972969329189 0.014686902250720722 -0.0015976511564173958 -0.009281890329539928
 0.9924088746881833 -0.0716966252579646 0.006094218516422269 0.03049967042733735 -0.001598475831186197 -0.009281839138341479 0.0018699469031605463 0.014685478659497963
 0.00185972969329189 0.014686902250720722 -0.001598475831186197 -0.009281839138341479 0.006094753906598353 0.03049810146137123 0.9924088004440519 -0.07169828849864532
 -0.0015976511564173958 -0.009281890329539928 0.0018699469031605463 0.014685478659497963 0.9924088004440519 -0.07169828849864532 0.00609471577659477 0.030497955624862225
0.131304710296 0.006473822867018707 0.03217512243546969 0.9919110964973517 -0.07540952357983569 0.0020256347986756414 0.015423836171328425 -0.0017391932669235943 -0.009750873844249124
 0.9919110964973517 -0.07540952357983569 0.0064725201724965134 0.0321750670970883 -0.0017400999788945721 -0.009750813088837117 0.0020369120206709837 0.015422229792155276
 0.0020256347986756414 0.015423836171328425 -0.0017400999788945721 -0.009750813088837117 0.006473111808742646 0.0321734288341432 0.9919110149708955 -0.07541126959883986
 -0.0017391932669235943 -0.009750873844249124 0.0020369120206709837 0.015422229792155276 0.9919110149708955 -0.07541126959883986 0.006473068886583456 0.0321732631436756
0.1375573155481 0.006775561205813677 0.03364350483633987 0.9914858299899687 -0.0789141867801846 0.0021767521091650022 0.01613756042570725 -0.001864872516450169 -0.010196847282468141
 0.9914858299899687 -0.0789141867801846 0.0067741302834427985 0.033643444637802875 -0.0018658668066329296 -0.010196777001744609 0.002189109768647429 0.0161357749479506
 0.0021767521091650022 0.01613756042570725 -0.0018658668066329296 -0.010196777001744609 0.0067747816300331104 0.03364173447554978 0.991485740853863 -0.07891601552248284
 -0.001864872516450169 -0.010196847282468141 0.002189109768647429 0.0161357749479506 0.991485740853863 -0.07891601552248284 0.00677473231958622 0.03364155116599402
0.1438099208003 0.007087735983213622 0.035104949349900307 0.9910459345479159 -0.08241079433913594 0.0023339804217270923 0.016848966275698707 -0.001995601092805835 -0.010640686475153554
 0.9910459345479159 -0.08241079433913594 0.007086170636839049 0.03510488401117788 -0.001996686949071934 -0.010640605789862256 0.0023474661214465185 0.01684698854828212
 0.0023339804217270923 0.016848966275698707 -0.001996686949071934 -0.010640605789862256 0.007086884788814156 0.03510310272544491 0.9910458374666579 -0.08241270576468669
 -0.001995601092805835 -0.010640686475153554 0.0023474661214465185 0.01684698854828212 0.9910458374666579 -0.08241270576468669 0.007086828416743515 0.03510290052401035
0.1500625260525 0.007410247988544328 0.036559358037880046 0.9905915126929794 -0.08589928439108126 0.0024972724878608503 0.017557999692761176 -0.002131332819132572 -0.011082338954621051
 0.9905915126929794 -0.08589928439108126 0.007408541992501726 0.03655928727387363 -0.002132514223605034 -0.011082246950260633 0.0025119335822761575 0.017555816092745667
 0.0024972724878608503 0.017557999692761176 -0.002132514223605034 -0.011082246950260633 0.007409322081195311 0.0365574356614944 0.9905914073316606 -0.08590127846128026
 -0.002131332819132572 -0.011082338954621051 0.0025119335822761575 0.017555816092745667 0.9905914073316606 -0.08590127846128026 0.007409257930085235 0.03655721325156944
0.15631513130469998 0.007742997430416996 0.03800663604359793 0.9901226673317199 -0.08937959481294223 0.0026665805809072476 0.018264607443239454 -0.002272021020838452 -0.011521753277501875
