! Created with skrf 1.8.0 (http://scikit-rf.org).
# GHz S RI R 50.0 
!freq ReS11 ImS11 ReS12 ImS12 ReS13 ImS13
! ReS14 ImS14
! ReS21 ImS21 ReS22 ImS22 ReS23 ImS23
! ReS24 ImS24
! ReS31 ImS31 ReS32 ImS32 ReS33 ImS33
! ReS34 ImS34
! ReS41 ImS41 ReS42 ImS42 ReS43 ImS43
! ReS44 ImS44
!
0.0 0.001579499726292 0.0 0.998420500268 0.0 6.068390403376e-05 0.0 -6.068390403417e-05 7.431634883521145e-21
 0.998420500268 0.0 0.001579499726284 0.0 -6.068390403405e-05 7.431634883506449e-21 6.068390403443e-05 0.0
 6.068390403376e-05 0.0 -6.068390403405e-05 7.431634883506449e-21 0.001579499723452 0.0 0.9984205002652 0.0
 -6.068390403417e-05 7.431634883521145e-21 6.068390403443e-05 0.0 0.9984205002652 0.0 0.001579499723447 0.0
0.005 0.0016994453411992637 0.0012977319312624234 0.9982687569343924 -0.0033081610380057765 8.422885996411861e-05 0.0006347683534357949 -8.198469819673629e-05 -0.00040433214878025215
 0.9982687569343924 -0.0033081610380057765 0.0016994644370269896 0.0012977208463713311 -8.198518907779851e-05 -0.00040433258159652927 8.411606563181314e-05 0.0006348114339276483
 8.422885996411861e-05 0.0006347683534357949 -8.198518907779851e-05 -0.00040433258159652927 0.0016994444226813474 0.0012976652328081993 0.9982687565666363 -0.003308228104949523
 -8.198469819673629e-05 -0.00040433214878025215 8.411606563181314e-05 0.0006348114339276483 0.9982687565666363 -0.003308228104949523 0.0016994646187478697 0.0012976534077421545
0.006252605252188 0.001730930578338146 0.0016272394502002663 0.9982286710426391 -0.00413600307349274 9.09691032413427e-05 0.0007937817783414914 -8.8002667944437e-05 -0.0005059284024669788
 0.9982286710426391 -0.00413600307349274 0.001730960427557599 0.00162722532946124 -8.800343135322215e-05 -0.0005059289372921633 9.079287428842568e-05 0.0007938377014440184
 9.09691032413427e-05 0.0007937817783414914 -8.800343135322215e-05 -0.0005059289372921633 0.0017309292296937217 0.0016271560900155933 0.9982286705553161 -0.0041360868991551164
 -8.8002667944437e-05 -0.0005059284024669788 9.079287428842568e-05 0.0007938377014440184 0.9982286705553161 -0.0041360868991551164 0.0017309607997176078 0.001627141031778024
0.01250521050438 0.0018968338127874497 0.0032883127599723557 0.9980160440216364 -0.008272744715949843 0.0001296944084035718 0.0015880081419853006 -0.0001221688667632801 -0.001014258419177918
 0.9980160440216364 -0.008272744715949843 0.0018969529867549984 0.003288281834193219 -0.00012217186991741552 -0.0010142594213837423 0.0001289916963921235 0.0015881424001024213
 0.0001296944084035718 0.0015880081419853006 -0.00012217186991741552 -0.0010142594213837423 0.0018968289788366907 0.0032881463584211452 0.9980160426354833 -0.00827291209529044
 -0.0001221688667632801 -0.001014258419177918 0.0001289916963921235 0.0015881424001024213 0.9980160426354833 -0.00827291209529044 0.001896955039030443 0.0032881134219829387
0.01875781575657 0.0020775781941581844 0.004972824825804654 0.9977823501698823 -0.012420279320827296 0.00017695065770737805 0.0023831652684030234 -0.00016328797755138408 -0.0015243002897620756
 0.9977823501698823 -0.012420279320827296 0.0020778459571605067 0.004972774191077805 -0.00016329466719059907 -0.0015243016803559411 0.00017537220549474768 0.002383404773576046
 0.00017695065770737805 0.0023831652684030234 -0.00016329466719059907 -0.0015243016803559411 0.002077567740573001 0.0049725755324815215 0.9977823474803971 -0.012420530149579669
 -0.00016328797755138408 -0.0015243002897620756 0.00017537220549474768 0.002383404773576046 0.9977823474803971 -0.012420530149579669 0.002077851006898876 0.004972521640091705
0.02501042100875 0.0022735212171766444 0.006678422717996476 0.9975273096336611 -0.016580607784663123 0.00023283008418877176 0.0031792696707565807 -0.00021146213385584927 -0.002035828062804247
 0.9975273096336611 -0.016580607784663123 0.002273996697961664 0.006678349268817967 -0.00021147393698233593 -0.00203582974966537 0.0002300265728521333 0.0031796456765139777
 0.00023283008418877176 0.0031792696707565807 -0.00021147393698233593 -0.00203582974966537 0.002273503000904982 0.0066780906759467224 0.9975273052345454 -0.016580941963282116
 -0.00021146213385584927 -0.002035828062804247 0.0002300265728521333 0.0031796456765139777 0.9975273052345454 -0.016580941963282116 0.002274006064062207 0.006678012510978062
0.03126302626094 0.002485005617859625 0.008403891567845415 0.9972506284915887 -0.0207545815963475 0.00029742528064036184 0.003976268705161943 -0.0002667906316624958 -0.00254867901677208
 0.9972506284915887 -0.0207545815963475 0.0024857478408057496 0.008403792000280599 -0.00026680895889646695 -0.002548680894491272 0.0002930470034759485 0.003976816829869499
 0.00029742528064036184 0.003976268705161943 -0.00026680895889646695 -0.002548680894491272 0.0024849774923048637 0.008403476896909796 0.9972506219810745 -0.020754999046925307
 -0.0002667906316624958 -0.00254867901677208 0.0002930470034759485 0.003976816829869499 0.9972506219810745 -0.020754999046925307 0.002485762849682453 0.008403370906775351
0.037515631513130004 0.0027123666789965768 0.010148436165132899 0.9969520062993192 -0.02494262117680329 0.00037082829720397754 0.004774082149181911 -0.00032937057826780246 -0.003062712078721123
 0.9969520062993192 -0.02494262117680329 0.002713434584561025 0.010148306978323971 -0.0003293968255700949 -0.0030627140286046085 0.00036452501438241766 0.004774842418313068
 0.00037082829720397754 0.004774082149181911 -0.0003293968255700949 -0.0030627140286046085 0.0027123264907869737 0.010147938979966015 0.9969519972772223 -0.024943121825431583
 -0.00032937057826780246 -0.003062712078721123 0.00036452501438241766 0.004774842418313068 0.9969519972772223 -0.024943121825431583 0.0027134565674851504 0.01014780137702066
0.043768236765320004 0.0029559350485340585 0.011911462376384036 0.9966311391511655 -0.029144934387772794 0.0004531302055998886 0.005572614868449811 -0.0003992971239814517 -0.0035777951602242275
 0.9966311391511655 -0.029144934387772794 0.002957387509621881 0.011911299873280498 -0.0003993326737570938 -0.003577797050321507 0.0004445510765457202 0.005573631762681764
 0.0004531302055998886 0.005572614868449811 -0.0003993326737570938 -0.003577797050321507 0.0029558806367950786 0.011910882804049686 0.9966311272188466 -0.029145518147316498
 -0.0003992971239814517 -0.0035777951602242275 0.0004445510765457202 0.005573631762681764 0.9966311272188466 -0.029145518147316498 0.00295741780147427 0.011910709565826048
0.050020842017509996 0.0032160380373829874 0.013692486808112221 0.9962877212249451 -0.033361606793808944 0.0005444208373684502 0.00637176203175506 -0.00047666353626898636 -0.0040937999484600375
 0.9962877212249451 -0.033361606793808944 0.0032179338728885436 0.013692287095784501 -0.00047670975803529373 -0.004093801633610036 0.0005332143939843056 0.006373084537504821
 0.0005444208373684502 0.00637176203175506 -0.00047670975803529373 -0.004093801633610036 0.003215967234806528 0.013691824968262323 0.9962877059868082 -0.033362273584162605
 -0.00047666353626898636 -0.0040937999484600375 0.0005332143939843056 0.006373084537504821 0.9962877059868082 -0.033362273584162605 0.0032179738136741357 0.013691611837114788
0.055454545454549996 0.003455755745874534 0.015254542703668853 0.9959707283771804 -0.03703769165047385 0.0006311238002523723 0.007066657338887624 -0.000550010402469603 -0.004542873565828395
 0.9959707283771804 -0.03703769165047385 0.0034580846230143287 0.015254307341551187 -0.0005500670011648772 -0.004542874944761343 0.0006173482170059707 0.007068288751400251
 0.0006311238002523723 0.007066657338887624 -0.0005500670011648772 -0.004542874944761343 0.00345566893328001 0.015253809476902984 0.9959707099465043 -0.03703843052316494
 -0.000550010402469603 -0.004542873565828395 0.0006173482170059707 0.007068288751400251 0.9959707099465043 -0.03703843052316494 0.0034581340396560036 0.015253558036674887
0.056273447269699996 0.0034930002906768125 0.015491092433589482 0.995921445705808 -0.03759264596212841 0.0006447885934431953 0.007171411688401794 -0.0005615612084037678 -0.004610599339011436
 0.995921445705808 -0.03759264596212841 0.0034953982783417323 0.015490851422982002 -0.000561619459370151 -0.004610600660891245 0.0006306027382406526 0.00717309334933488
 0.0006447885934431953 0.007171411688401794 -0.000561619459370151 -0.004610600660891245 0.0034929109224868106 0.015490348457683366 0.9959214267681608 -0.03759339569136072
 -0.0005615612084037678 -0.004610599339011436 0.0006306027382406526 0.00717309334933488 0.9959214267681608 -0.03759339569136072 0.0034954492110634977 0.015490090940076235
0.06252605252188 0.0037871441405325215 0.01730690424874159 0.9955320053943847 -0.04183800573633219 0.0007543202933173661 0.007971446173181088 -0.0006540796309399088 -0.005128066045251329
 0.9955320053943847 -0.04183800573633219 0.0037901030285331155 0.017306617654226985 -0.00065415125630952 -0.005128066832433153 0.0007368023140361108 0.007973545142159625
 0.0007543202933173661 0.007971446173181088 -0.00065415125630952 -0.005128066832433153 0.0037870340247364775 0.017306078267683912 0.9955319823667822 -0.04183883831354376
 -0.0006540796309399088 -0.005128066045251329 0.0007368023140361108 0.007973545142159625 0.9955319823667822 -0.04183883831354376 0.0037901662997635328 0.017305771632991088
0.06877865777407 0.004098789787905587 0.01913957471060175 0.9951190931498853 -0.04609760073187452 0.0008731010438328783 0.008771742957742636 -0.0007543063441307179 -0.005646071765945621
 0.9951190931498853 -0.04609760073187452 0.004102368306434722 0.01913923804908845 -0.0007543926774117942 -0.005646071833946462 0.000851897639512144 0.008774322048740476
 0.0008731010438328783 0.008771742957742636 -0.0007543926774117942 -0.005646071833946462 0.004098656734666867 0.019138666864321866 0.995119065644124 -0.046098516058041744
 -0.0007543063441307179 -0.005646071765945621 0.000851897639512144 0.008774322048740476 0.995119065644124 -0.046098516058041744 0.004102445265053021 0.01913830614342673
0.07503126302626001 0.004428255384515418 0.02098877453881818 0.9946824022363374 -0.050371315473093814 0.0010012141196297736 0.009572175193445807 -0.0008623268782793955 -0.006164486666154465
 0.9946824022363374 -0.050371315473093814 0.0044325122568806006 0.020988383128464766 -0.0008624292415368622 -0.006164485817486152 0.0009759714356376027 0.009575301933251486
 0.0010012141196297736 0.009572175193445807 -0.0008624292415368622 -0.006164485817486152 0.004428097196520488 0.020987784973806795 0.9946823698672455 -0.05037231344392381
 -0.0008623268782793955 -0.006164486666154465 0.0009759714356376027 0.009575301933251486 0.9946823698672455 -0.05037231344392381 0.004432604253646974 0.020987364957229842
0.08128386827845 0.004775857050010831 0.022854186578358866 0.9942216266082998 -0.05465901047444548 0.0011387408529063554 0.01037261207490896 -0.0009782246844005978 -0.006683179042443881
 0.9942216266082998 -0.05465901047444548 0.00478085100354213 0.022853735536940468 -0.0009783443883633765 -0.006683177066675067 0.001109104522638732 0.010376358754408021
 0.0011387408529063554 0.01037261207490896 -0.0009783443883633765 -0.006683177066675067 0.004775671521776661 0.02285311544673195 0.9942215889936481 -0.05466009098185902
 -0.0009782246844005978 -0.006683179042443881 0.001109104522638732 0.010376358754408021 0.9942215889936481 -0.05466009098185902 0.004780959390583628 0.022852630682308844
0.08753647353064001 0.005141908846979692 0.024735501566506838 0.9937364611587464 -0.05896052642283926 0.0012857605265162327 0.011172919101624063 -0.0011020810605930622 -0.007202015095205318
 0.9937364611587464 -0.05896052642283926 0.005147698623964511 0.024734985809450473 -0.0011022194048290485 -0.007202011769005145 0.001251375718603791 0.01117736282658329
 0.0012857605265162327 0.011172919101624063 -0.0011022194048290485 -0.007202011769005145 0.0051416937655685176 0.024734349031457634 0.9937364179199164 -0.058961689349952544
 -0.0011020810605930622 -0.007202015095205318 0.001251375718603791 0.01117736282658329 0.9937364179199164 -0.058961689349952544 0.005147824754463258 0.024733793821877587
0.09378907878283 0.005526722726956462 0.026632415108355106 0.9932266019416915 -0.06327568715771861 0.0014423502711841416 0.011972958270007697 -0.0012339750735666105 -0.007720858775882943
 0.9932266019416915 -0.06327568715771861 0.005533367095578796 0.026631829346337954 -0.0012341333465806876 -0.007720853863080356 0.0014028617412437149 0.011978181011180202
 0.0014423502711841416 0.011972958270007697 -0.0012341333465806876 -0.007720853863080356 0.00552647587111057 0.02663118133919221 0.9932265527030888 -0.0632769323843244
 -0.0012339750735666105 -0.007720858775882943 0.0014028617412437149 0.011978181011180202 0.9932265527030888 -0.0632769323843244 0.0055335123225878965 0.026630549738910672
0.100041684035 0.005930608454865608 0.02854462545415619 0.9926917463760774 -0.06760430185545012 0.001608584964422269 0.012772588224559085 -0.0013739834774074598 -0.008239571680607424
 0.9926917463760774 -0.06760430185545012 0.005938166219935522 0.02854396419024138 -0.0013741629567311216 -0.008239564932236761 0.0015636371111404173 0.012778676867084355
 0.001608584964422269 0.012772588224559085 -0.0013741629567311216 -0.008239564932236761 0.005930327595723075 0.02854331063085762 0.992691690766188 -0.06760562925383373
 -0.0013739834774074598 -0.008239571680607424 0.0015636371111404173 0.012778676867084355 0.992691690766188 -0.06760562925383373 0.005938331896407461 0.028542596442795692
0.1059090909091 0.00632723194714822 0.030352676398679546 0.9921668390832447 -0.07167830244328444 0.001773415203309054 0.013522455191985397 -0.0015128127333385395 -0.00872608437261765
 0.9921668390832447 -0.07167830244328444 0.0063357003624765675 0.030351939097135957 -0.0015130132647116499 -0.008726075663985219 0.0017230206725055623 0.013529439832583198
 0.001773415203309054 0.013522455191985397 -0.0015130132647116499 -0.008726075663985219 0.00632691714493086 0.030351285688243836 0.9921667771597256 -0.07167970682857674
 -0.0015128127333385395 -0.00872608437261765 0.0017230206725055623 0.013529439832583198 0.9921667771597256 -0.07167970682857674 0.0063358864579588 0.030350488136647747
0.1062942892872 0.006353873517710481 0.03047183184074077 0.9921315934386413 -0.07194616665585925 0.0017845371315988645 0.013571664373956177 -0.001522180629930814 -0.008758012984407797
 0.9921315934386413 -0.07194616665585925 0.0063624035316875065 0.030471089367220847 -0.0015223825821917207 -0.00875800413876745 0.00173377405576435 0.013578710765970682
 0.0017845371315988645 0.013571664373956177 -0.0015223825821917207 -0.00875800413876745 0.006353556418002494 0.03047043615344159 0.9921315310892913 -0.07194757609200729
 -0.001522180629930814 -0.008758012984407797 0.00173377405576435 0.013578710765970682 0.9921315310892913 -0.07194757609200729 0.006362591009168103 0.030469632925090615
0.11254689453939999 0.006796823021637091 0.03241373321937242 0.9915458438474223 -0.0763010659094812 0.0019702768474790795 0.014370038996005825 -0.0016786384074357688 -0.009276039392401575
 0.9915458438474223 -0.0763010659094812 0.006806384195502947 0.032412903614074784 -0.0016788640883815826 -0.009276028175101925 0.0019133424146216505 0.014378139996346686
 0.0019702768474790795 0.014370038996005825 -0.0016788640883815826 -0.009276028175101925 0.006796467436569483 0.03241225686820585 0.9915457743950682 -0.07630255724362958
 -0.0016786384074357688 -0.009276039392401575 0.0019133424146216505 0.014378139996346686 0.9915457743950682 -0.07630255724362958 0.006806594824441263 0.032411357887476726
0.11879949979160001 0.007259759579892065 0.034370027269871824 0.9909342002400275 -0.08066877314515096 0.0021658716392646926 0.015167561321257074 -0.001843426117821918 -0.00979350511812996
 0.9909342002400275 -0.08066877314515096 0.007270410894134726 0.034369104392062866 -0.0018436767724446163 -0.009793491242138552 0.0021024095447898755 0.01517681884623698
 0.0021658716392646926 0.015167561321257074 -0.0018436767724446163 -0.009793491242138552 0.007259363256482574 0.034368470463840124 0.9909341233251441 -0.08067034623346028
 -0.001843426117821918 -0.00979350511812996 0.0021024095447898755 0.01517681884623698 0.9909341233251441 -0.08067034623346028 0.007270646022336359 0.034367468754408846
0.1250521050438 0.007742983192613427 0.036340409620485244 0.9902963673465014 -0.08504905183902614 0.0023713863898210453 0.01596407761453066 -0.0020166104130753706 -0.010310261869915974
 0.9902963673465014 -0.08504905183902614 0.007754783708236409 0.03633938710638084 -0.0020168872755266178 -0.010310245035621581 0.0023010402270121355 0.015974598683720583
 0.0023713863898210453 0.01596407761453066 -0.0020168872755266178 -0.010310245035621581 0.0077425438697322595 0.03633877258170996 0.9902962826140913 -0.08505070652994334
 -0.0020166104130753706 -0.010310261869915974 0.0023010402270121355 0.015974598683720583 0.9902962826140913 -0.08505070652994334 0.007755044680672774 0.03633766089784912
0.131304710296 0.008246791121045245 0.03832457323847794 0.9896320521593125 -0.08944165602034161 0.0025868832419862894 0.01675943124421154 -0.002198255200566539 -0.010826158855513668
 0.9896320521593125 -0.08944165602034161 0.008259799990584288 0.038323444496155275 -0.002198559494269127 -0.010826138750779014 0.002509296572068276 0.016771328025157864
 0.0025868832419862894 0.01675943124421154 -0.002198559494269127 -0.010826138750779014 0.008246306529825097 0.03832285619959191 0.9896319592589966 -0.08944339215767196
 -0.002198255200566539 -0.010826158855513668 0.002509296572068276 0.016771328025157864 0.9896319592589966 -0.08944339215767196 0.008260088148654037 0.03832162702071672
0.1375573155481 0.008656970099269821 0.04006522451261573 0.9890555160986086 -0.09358923496780899 0.00278574621158285 0.017528408300787855 -0.0023618351248177543 -0.011315935972456857
 0.9890555160986086 -0.09358923496780899 0.008671252090232218 0.04006400813304334 -0.0023621688277635842 -0.011315912569946312 0.0027007357712720836 0.017541666100190006
 0.00278574621158285 0.017528408300787855 -0.0023621688277635842 -0.011315912569946312 0.008656438851536007 0.04006342732839866 0.9890554146694943 -0.09359105239588089
 -0.0023618351248177543 -0.011315935972456857 0.0027007357712720836 0.017541666100190006 0.9890554146694943 -0.09359105239588089 0.008671567903628477 0.040062099046581104
0.1438099208003 0.009081634471078468 0.04179655894249325 0.988458613955359 -0.09772611243429476 0.0029926320612593225 0.018294036549571395 -0.002531936157010118 -0.01180267386371523
 0.988458613955359 -0.09772611243429476 0.009097249737228487 0.04179524990283976 -0.00253230061274935 -0.011802646851279686 0.0028998726494635692 0.018308758291683176
 0.0029926320612593225 0.018294036549571395 -0.00253230061274935 -0.011802646851279686 0.009081054443830497 0.04179468179634447 0.9884585036529778 -0.09772801098556744
 -0.002531936157010118 -0.01180267386371523 0.0028998726494635692 0.018308758291683176 0.9884585036529778 -0.09772801098556744 0.009097594383434106 0.04179324851254318
0.1500625260525 0.009520632141113343 0.04351842653412941 0.987841501988628 -0.10185217966197443 0.0032074672003982096 0.019056230596379474 -0.0027084875193606923 -0.012286293611396566
 0.987841501988628 -0.10185217966197443 0.009537640960821499 0.04351701952818108 -0.0027088840701100345 -0.012286262664072482 0.0031066355864004555 0.01907252297542115
 0.0032074672003982096 0.019056230596379474 -0.0027088840701100345 -0.012286262664072482 0.009520001213268072 0.043516469612681026 0.9878413824727484 -0.10185415916512927
 -0.0027084875193606923 -0.012286293611396566 0.0031066355864004555 0.01907252297542115 0.9878413824727484 -0.10185415916512927 0.009538015603144366 0.04351492511142023
0.15631513130469998 0.0099738099092645 0.045230681798640295 0.9872043372775622 -0.10596732840344261 0.003430177142166173 0.01981490654076475 -0.0028914175450349576 -0.012766717996707578
