! Created with skrf 1.8.0 (http://scikit-rf.org).
# GHz S RI R 50.0 
!freq ReS11 ImS11 ReS12 ImS12 ReS13 ImS13
! ReS14 ImS14
! ReS21 ImS21 ReS22 ImS22 ReS23 ImS23
! ReS24 ImS24
! ReS31 ImS31 ReS32 ImS32 ReS33 ImS33
! ReS34 ImS34
! ReS41 ImS41 ReS42 ImS42 ReS43 ImS43
! ReS44 ImS44
!
0.0 0.001476922894726 0.0 0.9985230770911 0.0 5.714649284087e-05 0.0 -5.714649226201e-05 6.998426883116954e-21
 0.9985230770911 0.0 0.001476922894718 0.0 -5.714649226245e-05 6.998426883170838e-21 5.714649283819e-05 0.0
 5.714649284087e-05 0.0 -5.714649226245e-05 6.998426883170838e-21 0.001476922899009 0.0 0.9985230770953 0.0
 -5.714649226201e-05 6.998426883116954e-21 5.714649283819e-05 0.0 0.9985230770953 0.0 0.001476922898975 0.0
0.005 0.0015889223500339953 0.0012029475786061881 0.998381391284589 -0.0030943210943534492 8.079893553543018e-05 0.0006622200063173775 -7.827160416728771e-05 -0.0004100143985302243
 0.998381391284589 -0.0030943210943534492 0.0015889339424934076 0.0012029407313754275 -7.8274115346259e-05 -0.00041001622209017137 8.073027449577331e-05 0.0006622462691808337
 8.079893553543018e-05 0.0006622200063173775 -7.8274115346259e-05 -0.00041001622209017137 0.0015889219290112478 0.0012030150277286336 0.9983813916302307 -0.003094254033842428
 -7.827160416728771e-05 -0.0004100143985302243 8.073027449577331e-05 0.0006622462691808337 0.9983813916302307 -0.003094254033842428 0.0015889350561668046 0.0012030074066609676
0.006252605252188 0.0016182420536352477 0.0015084493808485676 0.998344070969513 -0.0038686689336219554 8.753323428234117e-05 0.0008280837653033001 -8.421497995427425e-05 -0.0005130588074275452
 0.998344070969513 -0.0038686689336219554 0.0016182601750527393 0.0015084406340122333 -8.421888842731346e-05 -0.0005130610538574026 8.742595891914287e-05 0.0008281178402407919
 8.753323428234117e-05 0.0008280837653033001 -8.421888842731346e-05 -0.0005130610538574026 0.0016182413306105629 0.0015085336742125405 0.9983440714443974 -0.0038685851195612657
 -8.421497995427425e-05 -0.0005130588074275452 8.742595891914287e-05 0.0008281178402407919 0.9983440714443974 -0.0038685851195612657 0.0016182618500001275 0.0015085239757261116
0.01250521050438 0.0017722710478956037 0.0030487778496976004 0.9981467351415347 -0.007738224882833443 0.00012603030190747188 0.0016564460904401003 -0.00011782418674811623 -0.0010286711671380186
 0.9981467351415347 -0.007738224882833443 0.001772343414249883 0.0030487584646016253 -0.00011783960042392679 -0.0010286752978805143 0.00012560254835484517 0.0016565276641521017
 0.00012603030190747188 0.0016564460904401003 -0.00011783960042392679 -0.0010286752978805143 0.0017722676124784893 0.0030489461318859252 0.9981467364794169 -0.007738057507229128
 -0.00011782418674811623 -0.0010286711671380186 0.00012560254835484517 0.0016565276641521017 0.9981467364794169 -0.007738057507229128 0.001772349535821208 0.003048924992523831
0.01875781575657 0.0019393360949144852 0.004611263344160904 0.9979308316800539 -0.011618102539114942 0.00017272431101285116 0.002485684533059227 -0.00015807624227837113 -0.001546057153008815
 0.9979308316800539 -0.011618102539114942 0.0019394987207999083 0.004611231316498053 -0.00015811063065910487 -0.001546062735235868 0.00017176349089968236 0.0024858295972000717
 0.00017272431101285116 0.002485684533059227 -0.00015811063065910487 -0.001546062735235868 0.0019393279686095275 0.004611515483812898 0.997930834258844 -0.011617851714814727
 -0.00015807624227837113 -0.001546057153008815 0.00017176349089968236 0.0024858295972000717 0.997930834258844 -0.011617851714814727 0.0019395120320911615 0.004611481025512342
0.02501042100875 0.0021197543053288873 0.006193718122803331 0.9976961135703002 -0.015510192807725 0.00022770344878825645 0.0033158486743327564 -0.0002050699758584679 -0.0020649795210544806
 0.9976961135703002 -0.015510192807725 0.002120043138579605 0.006193671344671125 -0.00020513072445582588 -0.002064986043925978 0.00022599693499684133 0.0033160756881588814
 0.00022770344878825645 0.0033158486743327564 -0.00020513072445582588 -0.002064986043925978 0.0021197395306370896 0.006194054038172872 0.997696117771758 -0.015509858629745217
 -0.0002050699758584679 -0.0020649795210544806 0.00022599693499684133 0.0033160756881588814 0.997696117771758 -0.015509858629745217 0.0021200663737451788 0.006194004259695412
0.03126302626094 0.002313829620017495 0.0077950210755792825 0.9974423208443229 -0.019415310469342365 0.0002910565897365499 0.004146908041061411 -0.0002589014501632038 -0.0025852757410568085
 0.9974423208443229 -0.019415310469342365 0.0023142805599180557 0.007794957336934881 -0.0002589958750180629 -0.002585282614711245 0.0002883915121499781 0.004147237943726827
 0.0002910565897365499 0.004146908041061411 -0.0002589958750180629 -0.002585282614711245 0.0023138062520893865 0.007795440724871328 0.9974423270467824 -0.019414893024137434
 -0.0002589014501632038 -0.0025852757410568085 0.0002883915121499781 0.004147237943726827 0.9974423270467824 -0.019414893024137434 0.0023143164383606397 0.007795373503842023
0.037515631513130004 0.002521859450573431 0.00941444480955396 0.9971691874137086 -0.023333867035523932 0.0003628723552908647 0.004978800724560563 -0.00031966471098485014 -0.0031068093717692056
 0.9971691874137086 -0.023333867035523932 0.0025225083594270165 0.009414361799049685 -0.0003198000659096026 -0.003106815926940895 0.00035903550724823653 0.004979256959026208
 0.0003628723552908647 0.004978800724560563 -0.0003198000659096026 -0.003106815926940895 0.0025218255570523857 0.009414948195918713 0.9971691959924451 -0.023333366395937125
 -0.00031966471098485014 -0.0031068093717692056 0.00035903550724823653 0.004979256959026208 0.9971691959924451 -0.023333366395937125 0.002522559587833693 0.009414861289658018
0.043768236765320004 0.002744137251096545 0.011051450885837139 0.996876443836962 -0.02726607544482186 0.0004432386793695307 0.005811448167292842 -0.0003874520592499518 -0.0036294552707837563
 0.996876443836962 -0.02726607544482186 0.002745019963608955 0.011051346191188778 -0.00038763554014088617 -0.0036294607586000904 0.000438016471396784 0.0058120567078895746
 0.0004432386793695307 0.005811448167292842 -0.00038763554014088617 -0.0036294607586000904 0.0027440909142532797 0.01105203803044589 0.9968764551664433 -0.027265491696937608
 -0.0003874520592499518 -0.0036294552707837563 0.000438016471396784 0.0058120567078895746 0.9968764551664433 -0.027265491696937608 0.0027450892391318294 0.011051929076259695
0.050020842017509996 0.002980953716076362 0.012705605163390121 0.9965638187152986 -0.03121203464997401 0.0005322425508985146 0.0066447612689650385 -0.0004623541549172497 -0.0041530934872245654
 0.9965638187152986 -0.03121203464997401 0.0029821060471647053 0.012705476271524498 -0.0004625929024090359 -0.004153097079067674 0.0005254209892578788 0.006645550650444439
 0.0005322425508985146 0.0066447612689650385 -0.0004625929024090359 -0.004153097079067674 0.002980893030128565 0.012706276114478549 0.9965638331663002 -0.031211367884100415
 -0.0004623541549172497 -0.0041530934872245654 0.0005254209892578788 0.006645550650444439 0.9965638331663002 -0.031211367884100415 0.002982196055795125 0.012706142629619143
0.055454545454549996 0.003198785724102061 0.014156752246220925 0.9962757801168468 -0.034652381981186864 0.0006166710746457437 0.007369401301684301 -0.0005332935893281186 -0.004608865366542174
 0.9962757801168468 -0.034652381981186864 0.00320020143828699 0.014156600207007682 -0.0005335861226834674 -0.00460886657575972 0.0006082855185921608 0.007370373024030019
 0.0006166710746457437 0.007369401301684301 -0.0005335861226834674 -0.00460886657575972 0.003198711031660177 0.014157496091906167 0.996275797580517 -0.03465164314266344
 -0.0005332935893281186 -0.004608865366542174 0.0006082855185921608 0.007370373024030019 0.996275797580517 -0.03465164314266344 0.0032003116392936935 0.014157339179575396
0.056273447269699996 0.003232597395688613 0.014376536266046493 0.996231039509914 -0.03517177108271229 0.0006299698347038925 0.007478643390750008 -0.0005444600449660436 -0.004677606259094378
 0.996231039509914 -0.03517177108271229 0.003234055147836772 0.014376380563082878 -0.0005447611462094494 -0.004677607046481309 0.0006213345154713363 0.007479644738059619
 0.0006299698347038925 0.007478643390750008 -0.0005447611462094494 -0.004677607046481309 0.003232520468711512 0.014377291104426915 0.9962310574513781 -0.03517102138777345
 -0.0005444600449660436 -0.004677606259094378 0.0006213345154713363 0.007479644738059619 0.9962310574513781 -0.03517102138777345 0.0032341685668033243 0.014377130486019242
0.06252605252188 0.0034993550300235496 0.01606391275136666 0.9958778330815969 -0.039145261419039686 0.0007365051311661295 0.008312991990418643 -0.0006338571536876209 -0.005202876382951336
 0.9958778330815969 -0.039145261419039686 0.0035011540004042134 0.016063727522305612 -0.0006342276435094726 -0.005202873377458658 0.0007258412438885879 0.008314239048741874
 0.0007365051311661295 0.008312991990418643 -0.0006342276435094726 -0.005202873377458658 0.0034992599835581882 0.01606475158069562 0.9958778548799878 -0.03914442889236619
 -0.0006338571536876209 -0.005202876382951336 0.0007258412438885879 0.008314239048741874 0.9958778548799878 -0.03914442889236619 0.0035012934981952883 0.01606456110517238
0.06877865777407 0.003781511727616848 0.01776742948905997 0.9955039260781228 -0.04313244613769017 0.0008519316575715932 0.009147699612924127 -0.0007306312507640551 -0.005728786231609816
 0.9955039260781228 -0.04313244613769017 0.003783687713917496 0.0177672119174959 -0.0007310781122785049 -0.005728778364799851 0.0008390239960549447 0.009149228777846794
 0.0008519316575715932 0.009147699612924127 -0.0007310781122785049 -0.005728778364799851 0.0037813966956450526 0.01776835243822946 0.9955039520965028 -0.04313153088264897
 -0.0007306312507640551 -0.005728786231609816 0.0008390239960549447 0.009149228777846794 0.9955039520965028 -0.04313153088264897 0.0037838559506139665 0.01776812926073458
0.07503126302626001 0.00407935104943382 0.019486799034179745 0.9951090452307678 -0.04713323808770954 0.0009763311416628835 0.009982654514888207 -0.0008348664061569149 -0.006255217141741125
 0.9951090452307678 -0.04713323808770954 0.0040819398572839805 0.01948654620156206 -0.0008353965713108883 -0.006255203265099931 0.000960964120121868 0.009984504862483016
 0.0009763311416628835 0.009982654514888207 -0.0008353965713108883 -0.006255203265099931 0.004079214180076431 0.01948780625580471 0.9951090758295359 -0.04713224021517165
 -0.0008348664061569149 -0.006255217141741125 0.000960964120121868 0.009984504862483016 0.9951090758295359 -0.04713224021517165 0.004082139485709066 0.019487547409340857
0.08128386827845 0.004393155040400499 0.021221745874281873 0.9946929176009595 -0.051147528185597785 0.0011097837232407982 0.010817741086215344 -0.0009466449363721679 -0.0067820490082275585
 0.9946929176009595 -0.051147528185597785 0.004396192489177538 0.021221454759172274 -0.0009472652860981897 -0.006782027893108519 0.0010917413961935238 0.010819954403008765
 0.0011097837232407982 0.010817741086215344 -0.0009472652860981897 -0.006782027893108519 0.004392994495169135 0.02122283755060907 0.994692953137334 -0.05114644780797597
 -0.0009466449363721679 -0.0067820490082275585 0.0010917413961935238 0.010819954403008765 0.994692953137334 -0.05114644780797597 0.004396426154914546 0.021222539945012334
0.08753647353064001 0.004723204218674393 0.02297200247034232 0.9942552707891832 -0.05517518932318876 0.001252367861198653 0.01165284014076572 -0.0010660473437803012 -0.00730916001363701
 0.9942552707891832 -0.05517518932318876 0.004726726148182535 0.02297166994736742 -0.0010667647080282614 -0.0073091303512365065 0.0012314339469945963 0.011655460953436234
 0.001252367861198653 0.01165284014076572 -0.0010667647080282614 -0.0073091303512365065 0.004723018172909471 0.022973178805482244 0.9942553116169369 -0.0551740265622651
 -0.0010660473437803012 -0.00730916001363701 0.0012314339469945963 0.011655460953436234 0.9942553116169369 -0.0551740265622651 0.004726996490322156 0.02297283922606971
0.09378907878283 0.005069777541145864 0.024737306411347873 0.9937958331220729 -0.059216079166119935 0.0014041602432268657 0.012487829133358786 -0.0011931522525724038 -0.00783642643546822
 0.9937958331220729 -0.059216079166119935 0.005073819817517923 0.024736929250020436 -0.0011939734101719791 -0.00783638683679815 0.0013801181499345063 0.01249090473820038
 0.0014041602432268657 0.012487829133358786 -0.0011939734101719791 -0.00783638683679815 0.005069564184002376 0.024738567633808724 0.993795879591426 -0.05921483415045043
 -0.0011931522525724038 -0.00783642643546822 0.0013801181499345063 0.01249090473820038 0.993795879591426 -0.05921483415045043 0.005074129469158332 0.024738182739987
0.100041684035 0.005433152347696329 0.02651739833612743 0.9933143338220993 -0.06327004219002226 0.0015652356980519414 0.013322582323176551 -0.0013280363408234906 -0.008363722511534439
 0.9933143338220993 -0.06327004219002226 0.00543775087035713 0.026516973199361155 -0.0013289680193067648 -0.008363671507406656 0.001537868551905954 0.013326162815245771
 0.0015652356980519414 0.013322582323176551 -0.0013289680193067648 -0.008363671507406656 0.005432909882671151 0.026518744698885165 0.9933143862798044 -0.06326871505480623
 -0.0013280363408234906 -0.008363722511534439 0.001537868551905954 0.013326162815245771 0.9933143862798044 -0.06326871505480623 0.005438102459147479 0.026518311022380114
0.1059090909091 0.00578966740281994 0.028201045587702537 0.9928421927081671 -0.0670859976438008 0.0017248957303732818 0.014105580491137687 -0.0014617523644149942 -0.008858447025015252
 0.9928421927081671 -0.0670859976438008 0.005794820588435788 0.028200572299678744 -0.0014627938276349861 -0.008858383910430182 0.0016942109061868537 0.014109682845561196
 0.0017248957303732818 0.014105580491137687 -0.0014627938276349861 -0.008858383910430182 0.0057893960014854026 0.028202472098324806 0.9928422510964313 -0.06708459357612893
 -0.0014617523644149942 -0.008858447025015252 0.0016942109061868537 0.014109682845561196 0.9928422510964313 -0.06708459357612893 0.005795213915756077 0.028201989374647976
0.1062942892872 0.005813604294022063 0.028312020370893056 0.992810503168965 -0.0673369112056145 0.0017356671093199136 0.01415697089842515 -0.0014707742701153136 -0.008890920348420598
 0.992810503168965 -0.0673369112056145 0.005818795001525972 0.02831154381338569 -0.0014718231453841161 -0.008890856389455424 0.001704757785166697 0.014161109200251135
 0.0017356671093199136 0.01415697089842515 -0.0014718231453841161 -0.008890856389455424 0.005813330938465136 0.028313452151910733 0.9928105619570153 -0.06733550209215895
 -0.0014707742701153136 -0.008890920348420598 0.001704757785166697 0.014161109200251135 0.9928105619570153 -0.06733550209215895 0.005819191149631154 0.028312966094830156
0.11254689453939999 0.006211407271287627 0.03012091493470258 0.9922840726498277 -0.07141650852114835 0.0019155253303028569 0.014990863083183197 -0.0016214386134703548 -0.009417889852432167
 0.9922840726498277 -0.07141650852114835 0.00621722614820626 0.030120383400993697 -0.001622611309412265 -0.009417811309069348 0.0018808564837434188 0.014995614973154804
 0.0019155253303028569 0.014990863083183197 -0.001622611309412265 -0.009417811309069348 0.006211101257227593 0.03012243243707598 0.9922841381066554 -0.07141501757665897
 -0.0016214386134703548 -0.009417889852432167 0.0018808564837434188 0.014995614973154804 0.9922841381066554 -0.07141501757665897 0.006217669473349071 0.030121890269722736
0.11879949979160001 0.006626833319206559 0.031943823814462265 0.9917347751066291 -0.07550864684040484 0.0021048790998476337 0.015824124221543907 -0.0017800997812025081 -0.009944498687932733
 0.9917347751066291 -0.07550864684040484 0.006633316402350495 0.03194323363686559 -0.0017814028692586979 -0.009944403850463962 0.0020662332010601076 0.015829548361794493
 0.0021048790998476337 0.015824124221543907 -0.0017814028692586979 -0.009944403850463962 0.006626492893372989 0.03194542736441058 0.9917348475660375 -0.07550707421990985
 -0.0017800997812025081 -0.009944498687932733 0.0020662332010601076 0.015829548361794493 0.9917348475660375 -0.07550707421990985 0.006633809517920347 0.03194482522289381
0.1250521050438 0.0070601525315646734 0.03378048742360449 0.9911623448781284 -0.07961312998266007 0.002303794958180138 0.016656616854642987 -0.001946825946237818 -0.010470612247542012
 0.9911623448781284 -0.07961312998266007 0.007067335916634001 0.03377983481976525 -0.0019482659449310072 -0.010470499326164562 0.002260954327317625 0.0166627748184919
 0.002303794958180138 0.016656616854642987 -0.0019482659449310072 -0.010470499326164562 0.007059775955663544 0.03378217737303207 0.99116242466915 -0.07961147584633817
 -0.001946825946237818 -0.010470612247542012 0.002260954327317625 0.0166627748184919 0.99116242466915 -0.07961147584633817 0.007067881432095403 0.03378151125652572
0.131304710296 0.00751163295666159 0.03563064422475976 0.9905665179391444 -0.08372975344386528 0.002512337163664019 0.017488200789478596 -0.002121682968125979 -0.010996093635502897
 0.9905665179391444 -0.08372975344386528 0.007519552804701867 0.03562992529507149 -0.0021232663424273373 -0.010995960760361603 0.0024650840075426095 0.017495157088329542
 0.002512337163664019 0.017488200789478596 -0.0021232663424273373 -0.010995960760361603 0.007511218507181485 0.03563242094772558 0.9905666053860306 -0.08372801796057944
 -0.002121682968125979 -0.010996093635502897 0.0024650840075426095 0.017495157088329542 0.9905666053860306 -0.08372801796057944 0.007520153326090372 0.035631686715573256
0.1375573155481 0.007876583835924607 0.03725133234686002 0.9900520262594977 -0.08761551184882381 0.002704107683094963 0.01829393176174628 -0.0022783290332025734 -0.011495978439453306
 0.9900520262594977 -0.08761551184882381 0.007885278298232032 0.037250561263113637 -0.0022800650341528107 -0.011495825497586142 0.002652328440432296 0.01830167499581456
 0.002704107683094963 0.01829393176174628 -0.0022800650341528107 -0.011495825497586142 0.00787612870272077 0.03725319691472134 0.9900521217019591 -0.08761369517719139
 -0.0022783290332025734 -0.011495978439453306 0.002652328440432296 0.01830167499581456 0.9900521217019591 -0.08761369517719139 0.00788593749921341 0.03725240712545328
0.1438099208003 0.008254313877204137 0.038863669574884484 0.9895195352784968 -0.09149163621000936 0.0029036440021467888 0.0190965820601912 -0.0024412587397854672 -0.011993065589522027
 0.9895195352784968 -0.09149163621000936 0.008263819480313954 0.03886284368869566 -0.0024431542578361907 -0.011992890754729908 0.0028471395673129703 0.019105171156608078
 0.0029036440021467888 0.0190965820601912 -0.0024431542578361907 -0.011992890754729908 0.008253816162958203 0.038865622466800955 0.9895196390358311 -0.09148973852637417
 -0.0024412587397854672 -0.011993065589522027 0.0028471395673129703 0.019105171156608078 0.9895196390358311 -0.09148973852637417 0.008264540156951371 0.038864774074898564
0.1500625260525 0.008644692902139003 0.040467527350187785 0.9889691790764961 -0.09535803686902664 0.00311088022624453 0.019896075123568082 -0.002610408423356504 -0.012487283004262186
 0.9889691790764961 -0.09535803686902664 0.008655046241740382 0.04046664386409644 -0.0026124703313545063 -0.01248708437752283 0.0030494525932406287 0.01990557116515659
 0.00311088022624453 0.019896075123568082 -0.0026124703313545063 -0.01248708437752283 0.008644150711411632 0.04046956906579224 0.988969291463342 -0.0953560583581877
 -0.002610408423356504 -0.012487283004262186 0.0030494525932406287 0.01990557116515659 0.988969291463342 -0.0953560583581877 0.008655831200077934 0.04046865885592482
0.15631513130469998 0.00904758983901941 0.042062781026374 0.9884010923819532 -0.09921462435391905 0.0033257497054468934 0.020692335631129665 -0.002785713654650586 -0.012978560100071146
