! Created with skrf 1.8.0 (http://scikit-rf.org).
# GHz S RI R 50.0 
!freq ReS11 ImS11 ReS12 ImS12 ReS13 ImS13
! ReS14 ImS14
! ReS21 ImS21 ReS22 ImS22 ReS23 ImS23
! ReS24 ImS24
! ReS31 ImS31 ReS32 ImS32 ReS33 ImS33
! ReS34 ImS34
! ReS41 ImS41 ReS42 ImS42 ReS43 ImS43
! ReS44 ImS44
!
0.0 0.00103900760942 0.0 0.9989609923906 0.0 3.926068659373e-05 0.0 -3.926068699331e-05 4.808047465868321e-21
 0.9989609923906 0.0 0.001039007609386 0.0 -3.926068699277e-05 4.80804746580219e-21 3.926068659302e-05 0.0
 3.926068659373e-05 0.0 -3.926068699277e-05 4.80804746580219e-21 0.001039007603092 0.0 0.9989609923843 0.0
 -3.926068699331e-05 4.808047465868321e-21 3.926068659302e-05 0.0 0.9989609923843 0.0 0.001039007603088 0.0
0.005 0.0011168744743301736 0.0008498496832133562 0.9988626289438781 -0.002177907865829006 5.4519315496996845e-05 0.00043697273809960513 -5.303646576916832e-05 -0.00027368775053827405
 0.9988626289438781 -0.002177907865829006 0.0011168703988446555 0.0008498520947488757 -5.303654769482979e-05 -0.00027368785556798993 5.453439715898032e-05 0.0004369668776661606
 5.4519315496996845e-05 0.00043697273809960513 -5.303654769482979e-05 -0.00027368785556798993 0.001116874527689441 0.0008499169252678267 0.9988626292570915 -0.002177840806641499
 -5.303646576916832e-05 -0.00027368775053827405 5.453439715898032e-05 0.0004369668776661606 0.9988626292570915 -0.002177840806641499 0.0011168709692562057 0.0008499189687111913
0.006252605252188 0.0011370050178620744 0.0010657002939998966 0.9988370873599729 -0.0027229625708767107 5.871119721147688e-05 0.0005464441485897795 -5.6792637683357956e-05 -0.00034248131427308846
 0.9988370873599729 -0.0027229625708767107 0.0011369986471012868 0.0010657033937030702 -5.679276483017074e-05 -0.00034248144468922837 5.873475993324765e-05 0.0005464365713939745
 5.871119721147688e-05 0.0005464441485897795 -5.679276483017074e-05 -0.00034248144468922837 0.0011370050290110002 0.001065784345004365 0.9988370877777734 -0.0027228787512927895
 -5.6792637683357956e-05 -0.00034248131427308846 5.873475993324765e-05 0.0005464365713939745 0.9988370877777734 -0.0027228787512927895 0.0011369994671646946 0.0010657869765924029
0.01250521050438 0.0012412784296910587 0.0021541867389662183 0.9987041424714039 -0.005446941692620463 8.186646175644765e-05 0.0010933103409477582 -7.738923688157622e-05 -0.0006868085929074143
 0.9987041424714039 -0.005446941692620463 0.00124125298740368 0.0021541938011044215 -7.738973389979436e-05 -0.0006868088448069559 8.196038834512938e-05 0.001093292517245025
 8.186646175644765e-05 0.0010933103409477582 -7.738973389979436e-05 -0.0006868088448069559 0.0012412779103696562 0.002154354625531596 0.998704143582 -0.005446774291515613
 -7.738923688157622e-05 -0.0006868085929074143 8.196038834512938e-05 0.001093292517245025 0.998704143582 -0.005446774291515613 0.0012412557087168098 0.002154360667379543
0.01875781575657 0.0013519930707101746 0.00325866673557688 0.9985620375270466 -0.008178626410048247 0.00010876997486942632 0.0016410053328592532 -0.00010110019421775076 -0.001032514582096927
 0.9985620375270466 -0.008178626410048247 0.001351935891168459 0.0032586786782379073 -0.00010110129694170397 -0.0010325149465018836 0.00010898088782989381 0.0016409741844696673
 0.00010876997486942632 0.0016410053328592532 -0.00010110129694170397 -0.0010325149465018836 0.0013519914659520923 0.003258918380358263 0.998562039597951 -0.008178375514549894
 -0.00010110019421775076 -0.001032514582096927 0.00010898088782989381 0.0016409741844696673 0.998562039597951 -0.008178375514549894 0.001351941589510784 0.003258928653105021
0.02501042100875 0.0014693122914210574 0.0043776508864976195 0.9984106495011202 -0.010919399230310906 0.0001394656719127864 0.0021895901885356393 -0.00012797441197415335 -0.00137947588693694
 0.9984106495011202 -0.010919399230310906 0.0014692107302500279 0.004377668681305849 -0.00012797635158639107 -0.0013794763544635095 0.00013984016980543324 0.0021895422572476985
 0.0001394656719127864 0.0021895901885356393 -0.00012797635158639107 -0.0013794763544635095 0.001469309046432746 0.0043779862361589 0.9984106528066456 -0.010919064890413797
 -0.00012797441197415335 -0.00137947588693694 0.00013984016980543324 0.0021895422572476985 0.9984106528066456 -0.010919064890413797 0.0014692204907900937 0.004378001600952428
0.03126302626094 0.001593392081295325 0.005510402022247232 0.9982498471444785 -0.013669887073728487 0.00017399810944214181 0.0027390761354994103 -0.00015805982322029724 -0.001727617125948469
 0.9982498471444785 -0.013669887073728487 0.001593233510652191 0.005510426694483427 -0.000158062827027053 -0.0017276176867689944 0.00017458281753119528 0.0027390075832214745
 0.00017399810944214181 0.0027390761354994103 -0.000158062827027053 -0.0017276176867689944 0.0015933866326680616 0.00551082103901855 0.9982498519574927 -0.01366946931061714
 -0.00015805982322029724 -0.001727617125948469 0.00017458281753119528 0.0027390075832214745 0.9982498519574927 -0.01366946931061714 0.0015932484195306535 0.005510842397596708
0.037515631513130004 0.0017243851279806015 0.006656461731655195 0.9980794950943253 -0.01643043471056149 0.00021241206853171287 0.0032894552957752404 -0.00019140376805667423 -0.002076880191599781
 0.9980794950943253 -0.01643043471056149 0.0017241569338140102 0.006656494360602775 -0.00019140805991978903 -0.002076880835459582 0.00021325366365599672 0.003289361901755483
 0.00021241206853171287 0.0032894552957752404 -0.00019140805991978903 -0.002076880835459582 0.0017243769063052382 0.006656964373165221 0.9980795016894232 -0.016429933536772936
 -0.00019140376805667423 -0.002076880191599781 0.00021325366365599672 0.003289361901755483 0.9980795016894232 -0.016429933536772936 0.001724178080801997 0.006656992667938365
0.043768236765320004 0.001862442398025684 0.007815506247555079 0.9978994555049029 -0.019201248838994264 0.0002547523749155338 0.003840710039505454 -0.0002280531449691831 -0.002427214886150258
 0.9978994555049029 -0.019201248838994264 0.0018621319783191884 0.007815547966831767 -0.00022805894556461148 -0.0024272156023840983 0.0002558975997084221 0.003840587196659416
 0.0002547523749155338 0.003840710039505454 -0.00022805894556461148 -0.0024272156023840983 0.0018624308251730653 0.007816092477320022 0.9978994641556588 -0.019200664247858747
 -0.0002280531449691831 -0.002427214886150258 0.0002558975997084221 0.003840587196659416 0.9978994641556588 -0.019200664247858747 0.001862160454197195 0.00781612869153024
0.050020842017509996 0.002007713877656985 0.008987286923672668 0.997709588839029 -0.02198245757047201 0.0003010638036653852 0.004392816830132435 -0.0002680544747086416 -0.002778575065431545
 0.997709588839029 -0.02198245757047201 0.0020073086414202183 0.008987338921537576 -0.00026806200177179957 -0.002778575842989358 0.0003025594747012108 0.004392659540981387
 0.0003010638036653852 0.004392816830132435 -0.00026806200177179957 -0.002778575842989358 0.002007698369439118 0.008987956695921428 0.9977095998211144 -0.021981789551249197
 -0.0002680544747086416 -0.002778575065431545 0.0003025594747012108 0.004392659540981387 0.9977095998211144 -0.021981789551249197 0.002007345540122571 0.008988001853708858
0.055454545454549996 0.0021399340594512473 0.010015784846481832 0.9975364988532518 -0.02440791598453895 0.0003445695631737949 0.004873285013131806 -0.00030557490843026816 -0.0030847163228178848
 0.9975364988532518 -0.02440791598453895 0.0021394362070286223 0.01001584678449041 -0.0003055841104614237 -0.0030847171444094114 0.00034640786465630296 0.004873093424141826
 0.0003445695631737949 0.004873285013131806 -0.0003055841104614237 -0.0030847171444094114 0.0021399146512083504 0.010016527180815048 0.9975365120861455 -0.02440717544638726
 -0.00030557490843026816 -0.0030847163228178848 0.00034640786465630296 0.004873093424141826 0.9975365120861455 -0.02440717544638726 0.002139481315609246 0.010016580974456558
0.056273447269699996 0.002160348968852011 0.010171600986718578 0.9975097543150331 -0.02477413963919549 0.0003513910134511369 0.004945748121108559 -0.0003114539325573014 -0.0031309167311155475
 0.9975097543150331 -0.02477413963919549 0.002159836334909056 0.01017166450646233 -0.00031146340097251956 -0.003130917558582992 0.0003532840262987222 0.004945550993531711
 0.0003513910134511369 0.004945748121108559 -0.00031146340097251956 -0.003130917558582992 0.0021603289339279554 0.010172354255534304 0.9975097679055168 -0.024773388167941893
 -0.0003114539325573014 -0.0031309167311155475 0.0003532840262987222 0.004945550993531711 0.9975097679055168 -0.024773388167941893 0.0021598827528204146 0.010172409422104017
0.06252605252188 0.002320496715811668 0.011368275486689635 0.9972998101863161 -0.027576340413391215 0.00040577850098678193 0.005499473385502222 -0.0003582973593641954 -0.003484196990376475
 0.9972998101863161 -0.027576340413391215 0.0023198641122897014 0.011368351826953761 -0.0003583089813369472 -0.0034841978560019404 0.0004081158327757421 0.005499230628388704
 0.00040577850098678193 0.005499473385502222 -0.0003583089813369472 -0.0034841978560019404 0.0023204715551479894 0.01136911219829751 0.9972998266630234 -0.027575505460596998
 -0.0003582973593641954 -0.003484196990376475 0.0004081158327757421 0.005499230628388704 0.9972998266630234 -0.027575505460596998 0.002319921147112157 0.011369178480042584
0.06877865777407 0.0024883059396093076 0.012577157704768147 0.9970796139285115 -0.03038908144909671 0.00046427056325346137 0.006053959733830142 -0.0004086302637172038 -0.003838373427767454
 0.9970796139285115 -0.03038908144909671 0.0024875408031105745 0.012577248219966563 -0.00040864424883440084 -0.003838374319490558 0.0004670992738911449 0.006053665152658786
 0.00046427056325346137 0.006053959733830142 -0.00040864424883440084 -0.003838374319490558 0.0024882750472198715 0.012578077805559279 0.9970796335715496 -0.030388162971678997
 -0.0004086302637172038 -0.003838373427767454 0.0004670992738911449 0.006053665152658786 0.9970796335715496 -0.030388162971678997 0.002487609554798648 0.012578156350176867
0.07503126302626001 0.00266392532123425 0.013798109094933135 0.9968490223779956 -0.033212366510573896 0.0005269112657199836 0.006609172301165387 -0.0004624978173072613 -0.004193403708323454
 0.9968490223779956 -0.033212366510573896 0.0026630150965079283 0.013798215195559594 -0.0004625143726557793 -0.004193404613790061 0.0005302784979649134 0.006608819293558078
 0.0005269112657199836 0.006609172301165387 -0.0004625143726557793 -0.004193404613790061 0.0026638880834084226 0.013799112521963393 0.9968490454688075 -0.03321136446131576
 -0.0004624978173072613 -0.004193403708323454 0.0005302784979649134 0.006608819293558078 0.9968490454688075 -0.03321136446131576 0.002663096665993838 0.013799204518643585
0.08128386827845 0.002847503451019143 0.015031001230518998 0.9966078918361453 -0.03604618558612328 0.0005937444144738682 0.007165074499722669 -0.0005199448457724465 -0.00454924531575201
 0.9966078918361453 -0.03604618558612328 0.0028464355902902204 0.015031124383574582 -0.0005199641759980031 -0.004549246222353347 0.0005976973929653119 0.007164656050992769
 0.0005937444144738682 0.007165074499722669 -0.0005199641759980031 -0.004549246222353347 0.002847459246957633 0.015032087917726445 0.9966079186588958 -0.03604509990748815
 -0.0005199448457724465 -0.00454924531575201 0.0005976973929653119 0.007164656050992769 0.9966079186588958 -0.03604509990748815 0.002846531080124545 0.015032194597257527
0.08753647353064001 0.0030391888566213927 0.016275713015384583 0.9963560781545379 -0.038890517639970326 0.0006648135291225226 0.007721628198435598 -0.0005810158177984193 -0.0049058553642897865
 0.9963560781545379 -0.038890517639970326 0.00303795081939948 0.016275854744745497 -0.0005810381251998966 -0.004905856259169638 0.0006693995590171827 0.007721136877125525
 0.0006648135291225226 0.007721628198435598 -0.0005810381251998966 -0.004905856259169638 0.003039137057882321 0.016276882888679973 0.9963561089953541 -0.038889348268965084
 -0.0005810158177984193 -0.0049058553642897865 0.0006693995590171827 0.007721136877125525 0.9963561089953541 -0.038889348268965084 0.003038061332762429 0.016277005523684683
0.09378907878283 0.0032391300168306313 0.017532128684211775 0.9960934368064265 -0.04174533257545249 0.0007401618188217815 0.008278793845214748 -0.0006457548307036436 -0.005263190468504
 0.9960934368064265 -0.04174533257545249 0.0032377092692711506 0.01753229057104311 -0.0006457803152536751 -0.005263191338596885 0.0007454282837121499 0.008278221798637329
 0.0007401618188217815 0.008278793845214748 -0.0006457803152536751 -0.005263191338596885 0.003239069986914169 0.017533381668007452 0.9960934719535456 -0.04174407943709179
 -0.0006457548307036436 -0.005263190468504 0.0007454282837121499 0.008278221798637329 0.9960934719535456 -0.04174407943709179 0.003237835909713211 0.01753352157305787
0.100041684035 0.0034474753637097474 0.01880013633306629 0.9958198229475391 -0.04461059266862869 0.0008198321578938282 0.008836530556416776 -0.0007142055956143928 -0.005621206646613063
 0.9958198229475391 -0.04461059266862869 0.0034458593785358363 0.01880032001623394 -0.0007142344550741926 -0.005621207478660786 0.0008258265173104232 0.008835869506225058
 0.0008198321578938282 0.008836530556416776 -0.0007142344550741926 -0.005621207478660786 0.0034474064587578434 0.018801472343049734 0.9958198626922337 -0.04460925568321216
 -0.0007142055956143928 -0.005621206646613063 0.0008258265173104232 0.008835869506225058 0.9958198626922337 -0.04460925568321216 0.0034460032499673407 0.01880163087485934
0.1059090909091 0.00365076106667563 0.020000472545427566 0.9955529567287363 -0.04730879575628812 0.0008985630548943318 0.009360389154673554 -0.0007818537598957984 -0.005957746519433741
 0.9955529567287363 -0.04730879575628812 0.003648950483718519 0.020000678224440783 -0.0007818859642563882 -0.005957747303569826 0.0009052836951413226 0.009359636671903622
 0.0008985630548943318 0.009360389154673554 -0.0007818859642563882 -0.005957747303569826 0.003650683240759908 0.020001886386482415 0.995553001055173 -0.04730738000835093
 -0.0007818537598957984 -0.005957746519433741 0.0009052836951413226 0.009359636671903622 0.995553001055173 -0.04730738000835093 0.0036491115284904793 0.020002063669202413
0.1062942892872 0.003664373278473501 0.020079626819546757 0.9955350914722045 -0.04748625363307169 0.0009038670626294574 0.009394796185543588 -0.0007864114209423361 -0.005979859245289481
 0.9955350914722045 -0.04748625363307169 0.003662549534454721 0.020079833996040856 -0.0007864438508752587 -0.005979860025864349 0.0009106368491637035 0.009394037423305995
 0.0009038670626294574 0.009394796185543588 -0.0007864438508752587 -0.005979860025864349 0.003664294846589418 0.0200810457671068 0.9955351361084587 -0.047484832711745806
 -0.0007864114209423361 -0.005979859245289481 0.0009106368491637035 0.009394037423305995 0.9955351361084587 -0.047484832711745806 0.003662711740640191 0.020081224324781686
0.11254689453939999 0.003889972080856577 0.021370492911940164 0.9952390970638545 -0.050372265436401706 0.0009923086683618133 0.009953547373048701 -0.0008624151949148893 -0.006339102884132309
 0.9952390970638545 -0.050372265436401706 0.0038879280625296045 0.021370725337276342 -0.0008624513887603293 -0.006339103599660819 0.0009999014844879071 0.009952681755849232
 0.0009923086683618133 0.009953547373048701 -0.0008624513887603293 -0.006339103599660819 0.003889883462312498 0.021371994701301574 0.9952391468888411 -0.05037076048396724
 -0.0008624151949148893 -0.006339102884132309 0.0009999014844879071 0.009952681755849232 0.9952391468888411 -0.05037076048396724 0.0038881097068260975 0.02137219472652623
0.11879949979160001 0.004124420014343314 0.022672628631183953 0.9949316942424263 -0.05326857292460457 0.0010851987066571715 0.010512739585647574 -0.0009422593674662513 -0.00669889141141205
 0.9949316942424263 -0.05326857292460457 0.004122143211866129 0.022672888119879837 -0.0009422995165984289 -0.0066988920481939485 0.0010936622212293359 0.010511757531723545
 0.0010851987066571715 0.010512739585647574 -0.0009422995165984289 -0.0066988920481939485 0.00412432054128864 0.02267421316227025 0.9949317495564388 -0.05326698383676373
 -0.0009422593674662513 -0.00669889141141205 0.0010936622212293359 0.010511757531723545 0.9949317495564388 -0.05326698383676373 0.004122345396656297 0.02267443613951276
0.1250521050438 0.004367865227824264 0.023985928721876996 0.9946127374090799 -0.056175116318397354 0.0011825784828246402 0.011072327147030547 -0.001025985931230271 -0.007059177869213333
 0.9946127374090799 -0.056175116318397354 0.004365343136434534 0.023986217147903565 -0.0010260302249904454 -0.0070591784134461915 0.0011919604273230306 0.01107121863145817
 0.0011825784828246402 0.011072327147030547 -0.0010260302249904454 -0.0070591784134461915 0.0043677542241726 0.023987595888713183 0.9946127985158612 -0.05617344298334076
 -0.001025985931230271 -0.007059177869213333 0.0011919604273230306 0.01107121863145817 0.9946127985158612 -0.05617344298334076 0.004365566962927748 0.023987843345545056
0.131304710296 0.004620455754227616 0.0253102882343435 0.99428208088967 -0.059091831599237865 0.0012844888532299687 0.011632263262402525 -0.0011136364021738904 -0.007419914465640408
 0.99428208088967 -0.059091831599237865 0.004617675874235368 0.025310607531603392 -0.0011136850279442117 -0.007419914903437173 0.0012948370177642001 0.011631017812766825
 0.0012844888532299687 0.011632263262402525 -0.0011136850279442117 -0.007419914903437173 0.004620332535807289 0.0253120379242196 0.9942821480966612 -0.0590900738985174
 -0.0011136364021738904 -0.007419914465640408 0.0012948370177642001 0.011631017812766825 0.9942821480966612 -0.0590900738985174 0.004617922442132831 0.025312311431482624
0.1375573155481 0.004814856814036067 0.026471806894986617 0.9940070744649739 -0.061844815156305036 0.0013753532041532106 0.012174130690747815 -0.0011896261941172263 -0.007762696202983105
 0.9940070744649739 -0.061844815156305036 0.0048118066559631415 0.026472150574025115 -0.0011896795534369837 -0.007762696550633335 0.0013866962012668664 0.01217275286350507
 0.0013753532041532106 0.012174130690747815 -0.0011896795534369837 -0.007762696550633335 0.004814721342923162 0.026473638806912513 0.9940071480447227 -0.061842973026492845
 -0.0011896261941172263 -0.007762696202983105 0.0013866962012668664 0.01217275286350507 0.9940071480447227 -0.061842973026492845 0.004812076480475775 0.02647393198121533
0.1438099208003 0.005015719786926069 0.02762865968792664 0.993723058696166 -0.06459230541227542 0.0014698656737054691 0.012714709874439957 -0.001268657177652174 -0.008104292488607966
 0.993723058696166 -0.06459230541227542 0.0050123868811343475 0.02762902901491114 -0.001268715493718478 -0.008104292731847589 0.0014822478925762257 0.012713190324999117
 0.0014698656737054691 0.012714709874439957 -0.001268715493718478 -0.008104292731847589 0.00501557148463083 0.027630573678148848 0.9937231389544648 -0.06459037873714475
 -0.001268657177652174 -0.008104292488607966 0.0014822478925762257 0.012713190324999117 0.9937231389544648 -0.06459037873714475 0.0050126809535150025 0.027630887462501186
0.1500625260525 0.005222990259540623 0.02878079346488603 0.9934300901517689 -0.06733427864088712 0.0015680028164681025 0.013253975722011008 -0.0013507064290819925 -0.008444678121990817
 0.9934300901517689 -0.06733427864088712 0.00521936214436085 0.028781189761967172 -0.0013507699257424156 -0.00844467824593594 0.0015814684773821335 0.01325230476994616
 0.0015680028164681025 0.013253975722011008 -0.0013507699257424156 -0.00844467824593594 0.005222828547249532 0.028782789384774837 0.9934301773975006 -0.06733226729744494
 -0.0013507064290819925 -0.008444678121990817 0.0015814684773821335 0.01325230476994616 0.9934301773975006 -0.06733226729744494 0.00521968144748141 0.02878312476678381
0.15631513130469998 0.0054366136098388035 0.029928156995171488 0.9931282254901257 -0.07007071042296248 0.001669741020218463 0.013791903426868006 -0.0014357508431631927 -0.008783828360518884
