! Created with skrf 1.8.0 (http://scikit-rf.org).
# GHz S RI R 50.0 
!freq ReS11 ImS11 ReS12 ImS12 ReS13 ImS13
! ReS14 ImS14
! ReS21 ImS21 ReS22 ImS22 ReS23 ImS23
! ReS24 ImS24
! ReS31 ImS31 ReS32 ImS32 ReS33 ImS33
! ReS34 ImS34
! ReS41 ImS41 ReS42 ImS42 ReS43 ImS43
! ReS44 ImS44
!
0.0 0.001259587737055 0.0 0.9987404122137 0.0 4.787078910054e-05 0.0 -4.787078881694e-05 5.862480829732448e-21
 0.9987404122137 0.0 0.001259587737095 0.0 -4.787078881809e-05 5.862480829873282e-21 4.787078910072e-05 0.0
 4.787078910054e-05 0.0 -4.787078881809e-05 5.862480829873282e-21 0.001259587761682 0.0 0.9987404122383 0.0
 -4.787078881694e-05 5.862480829732448e-21 4.787078910072e-05 0.0 0.9987404122383 0.0 0.00125958776166 0.0
0.005 0.0013544761352548417 0.0010353760249028807 0.9986204903076238 -0.0026390711984010137 6.60116348759843e-05 0.0005009821812660729 -6.433702854808015e-05 -0.00031919521939260855
 0.9986204903076238 -0.0026390711984010137 0.00135448315939815 0.001035371903608542 -6.433510422299167e-05 -0.0003191937204864705 6.596457643472155e-05 0.000500999900439729
 6.60116348759843e-05 0.0005009821812660729 -6.433510422299167e-05 -0.0003191937204864705 0.0013544769117113094 0.0010353082882197935 0.9986204899810923 -0.0026391382615075483
 -6.433702854808015e-05 -0.00031919521939260855 6.596457643472155e-05 0.000500999900439729 0.9986204899810923 -0.0026391382615075483 0.0013544817315651202 0.0010353055149392879
0.006252605252188 0.001379160944520348 0.0012983005459518424 0.9985891306655424 -0.0032995137112493116 7.108240195556964e-05 0.0006264951314949695 -6.889169711921317e-05 -0.000399411796710593
 0.9985891306655424 -0.0032995137112493116 0.0013791719250144077 0.0012982953656370667 -6.888870281287462e-05 -0.0003994099474573345 7.10088743187152e-05 0.000626518148939208
 7.108240195556964e-05 0.0006264951314949695 -6.888870281287462e-05 -0.0003994099474573345 0.001379162220397492 0.001298215888549983 0.9985891302169071 -0.0032995975236310635
 -6.889169711921317e-05 -0.000399411796710593 7.10088743187152e-05 0.000626518148939208 0.9985891302169071 -0.0032995975236310635 0.0013791697546095547 0.0012982124003703879
0.01250521050438 0.0015079336386666403 0.0026239314998714666 0.998424621102785 -0.006599986630927189 9.957086049631939e-05 0.0012534910613724247 -9.422762071131423e-05 -0.0008008564350720098
 0.998424621102785 -0.006599986630927189 0.0015079774890262119 0.0026239208496130844 -9.421582143807276e-05 -0.0008008530000394677 9.927756194528695e-05 0.0012535463342884681
 9.957086049631939e-05 0.0012534910613724247 -9.421582143807276e-05 -0.0008008530000394677 0.0015079393086264209 0.0026237623803581603 0.998424619881328 -0.006600154024764083
 -9.422762071131423e-05 -0.0008008564350720098 9.927756194528695e-05 0.0012535463342884681 0.998424619881328 -0.006600154024764083 0.0015079693877037943 0.002623755202756697
0.01875781575657 0.0016461447875750377 0.003968645681937739 0.9982467093040828 -0.009909488583152416 0.00013339612057391902 0.0018814023815808818 -0.00012394704498425865 -0.0012038169659887446
 0.9982467093040828 -0.009909488583152416 0.001646243327072396 0.003968629230554565 -0.00012392073281914572 -0.001203812250418425 0.00013273704902706687 0.001881500664772558
 0.00013339612057391902 0.0018814023815808818 -0.00012392073281914572 -0.001203812250418425 0.001646157961400584 0.0039683921487624505 0.9982467069810599 -0.00990973945717276
 -0.00012394704498425865 -0.0012038169659887446 0.00013273704902706687 0.001881500664772558 0.9982467069810599 -0.00990973945717276 0.0016462255364337044 0.0039683810908211475
0.02501042100875 0.001794028430299023 0.005330613816613983 0.9980552153502622 -0.01322966565162899 0.00017261901260321399 0.0025102738709134207 -0.00015811701518324907 -0.0016081432325052317
 0.9980552153502622 -0.01322966565162899 0.0017942034376073443 0.005330591201975428 -0.00015807054986144772 -0.0016081375893115713 0.00017144797421005619 0.0025104273795863523
 0.00017261901260321399 0.0025102738709134207 -0.00015807054986144772 -0.0016081375893115713 0.0017940522201547239 0.0053302758592667955 0.9980552115988198 -0.013229999947927123
 -0.00015811701518324907 -0.0016081432325052317 0.00017144797421005619 0.0025104273795863523 0.9980552115988198 -0.013229999947927123 0.0017941722027765875 0.00533026074801599
0.03126302626094 0.0019518086637437175 0.00670891620301815 0.9978499487292871 -0.016561248482522432 0.00021730100897587962 0.0031400965173605244 -0.0001968031420651315 -0.0020137358156455273
 0.9978499487292871 -0.016561248482522432 0.0019520818885002083 0.006708887034618367 -0.0001967309390566311 -0.0020137296461884106 0.0002154714788641676 0.0031403189371467578
 0.00021730100897587962 0.0031400965173605244 -0.0001967309390566311 -0.0020137296461884106 0.001951846182609193 0.006708493784350506 0.9978499432212242 -0.016561666154372535
 -0.0001968031420651315 -0.0020137358156455273 0.0002154714788641676 0.0031403189371467578 0.9978499432212242 -0.016561666154372535 0.0019520334540156228 0.006708474467323084
0.037515631513130004 0.002119704931402386 0.008102969619859499 0.997630713725328 -0.019904625331541508 0.0002675036611600688 0.0037708403602677992 -0.000240070058282208 -0.002420513179807881
 0.997630713725328 -0.019904625331541508 0.0021200981024101315 0.008102933480137759 -0.00023996658272151968 -0.002420506934145019 0.0002648687167659863 0.003771146863949718
 0.0002675036611600688 0.0037708403602677992 -0.00023996658272151968 -0.002420506934145019 0.0021197592983605495 0.008102462659684855 0.9976307061353189 -0.019905126359689773
 -0.000240070058282208 -0.002420513179807881 0.0002648687167659863 0.003771146863949718 0.9976307061353189 -0.019905126359689773 0.002120028715621336 0.008102439006690812
0.043768236765320004 0.0022979340828677983 0.009512352888944047 0.9973973115795118 -0.02326001644609343 0.00032328835074648673 0.004402464461498824 -0.00028798158275197713 -0.0028284016895522147
 0.9973973115795118 -0.02326001644609343 0.0022984689139636328 0.009512309334136927 -0.00028784134573165733 -0.0028283958665357768 0.00031970063581864347 0.0044028717277864605
 0.00032328835074648673 0.004402464461498824 -0.00028784134573165733 -0.0028283958665357768 0.0022980084188970015 0.009511761298924443 0.997397301580092 -0.023260600803646062
 -0.00028798158275197713 -0.0028284016895522147 0.00031970063581864347 0.0044028717277864605 0.997397301580092 -0.023260600803646062 0.002298374820034114 0.00951173320357507
0.050020842017509996 0.002486711331473855 0.010936734815187836 0.9971495415507385 -0.026627546068715095 0.0003847161405875347 0.005034921023070694 -0.00034060079161851205 -0.003237331480394527
 0.9971495415507385 -0.026627546068715095 0.0024874095265236228 0.010936683376119223 -0.00034041834776920996 -0.003237326627722495 0.00038002784552439097 0.005035447256340425
 0.0003847161405875347 0.005034921023070694 -0.00034041834776920996 -0.003237326627722495 0.0024868087620666833 0.010936058477032195 0.9971495288148854 -0.02662821374281898
 -0.00034060079161851205 -0.003237331480394527 0.00038002784552439097 0.005035447256340425 0.9971495288148854 -0.02662821374281898 0.0024872869706129845 0.010936025858079203
0.055454545454549996 0.0026594971179283674 0.012186530815145483 0.9969223964683845 -0.02956393980398096 0.0004427287499794749 0.005585180217212027 -0.00039020014195169275 -0.003593496577376666
 0.9969223964683845 -0.02956393980398096 0.0026603549032578493 0.01218647212402259 -0.0003899766293166925 -0.003593493050707955 0.00043696361832609444 0.005585825820665788
 0.0004427287499794749 0.005585180217212027 -0.0003899766293166925 -0.003593493050707955 0.00265961715968208 0.012185780715351697 0.9969223810882918 -0.02956467987650674
 -0.00039020014195169275 -0.003593496577376666 0.00043696361832609444 0.005585825820665788 0.9969223810882918 -0.02956467987650674 0.002660204563078961 0.012185744119718567
0.056273447269699996 0.0026862507620473495 0.012375838801159127 0.9968872015293263 -0.030007277765680993 0.00045184767502139215 0.005668157408516573 -0.00039799004260478854 -0.0036472344268121447
 0.9968872015293263 -0.030007277765680993 0.0026871340198029283 0.01237577898373933 -0.00039775998841355405 -0.003647231141042804 0.0004459105269794842 0.005668822358997328
 0.00045184767502139215 0.005668157408516573 -0.00039775998841355405 -0.003647231141042804 0.002686374416579621 0.012375077574233602 0.9968871857291761 -0.030008028749574266
 -0.00039799004260478854 -0.0036472344268121447 0.0004459105269794842 0.005668822358997328 0.9968871857291761 -0.030008028749574266 0.00268697924627428 0.012375040376794719
0.06252605252188 0.0028967656153866725 0.01382942339547169 0.9966100884290312 -0.03339923382212863 0.0005247431027882445 0.006302117243872174 -0.00046021097740232044 -0.0040580430317567985
 0.9966100884290312 -0.03339923382212863 0.002897855633600893 0.013829354681075512 -0.000459927950057599 -0.0040580419583061585 0.0005174083621292319 0.006302942228084814
 0.0005247431027882445 0.006302117243872174 -0.000459927950057599 -0.0040580419583061585 0.0028969186276139153 0.013828577118324777 0.9966100692362299 -0.033400068113446535
 -0.00046021097740232044 -0.0040580430317567985 0.0005174083621292319 0.006302942228084814 0.9966100692362299 -0.033400068113446535 0.0028976648861143497 0.013828535315081289
0.06877865777407 0.0031184684500468055 0.01529727069764582 0.9963179984587168 -0.0368034067815863 0.0006034620142273579 0.006936741076204092 -0.0005273245097297812 -0.0044696897599404845
 0.9963179984587168 -0.0368034067815863 0.0031197869298649956 0.015297192543445892 -0.0005269831862427504 -0.004469691593081503 0.0005945804754866367 0.006937748997542726
 0.0006034620142273579 0.006936741076204092 -0.0005269831862427504 -0.004469691593081503 0.003118653958069541 0.015296339187893804 0.9963179755440476 -0.03680432438216236
 -0.0005273245097297812 -0.0044696897599404845 0.0005945804754866367 0.006937748997542726 0.9963179755440476 -0.03680432438216236 0.0031195564515471507 0.01529629278003952
0.07503126302626001 0.0033515712353361987 0.01677917900137444 0.9960107273269162 -0.040219766748305324 0.0006880633846353943 0.007571966792161018 -0.000599390806829939 -0.00488210661253651
 0.9960107273269162 -0.040219766748305324 0.0033531398851551378 0.016779090840562387 -0.0005989859034418687 -0.0048821120953858104 0.0006774853807159834 0.007573182161565958
 0.0006880633846353943 0.007571966792161018 -0.0005989859034418687 -0.0048821120953858104 0.003351792381479195 0.016778162054998335 0.9960107003601055 -0.04022076766468776
 -0.000599390806829939 -0.00488210661253651 0.0006774853807159834 0.007573182161565958 0.9960107003601055 -0.04022076766468776 0.0033528659183274406 0.01677811107322301
0.08128386827845 0.0035962853982816315 0.01827495790402856 0.9956880704034804 -0.043648266225035995 0.0007786055235260972 0.008207729888364748 -0.0006764692643540254 -0.00529522485161846
 0.9956880704034804 -0.043648266225035995 0.0035981259381278425 0.018274859145820208 -0.0006759955360968958 -0.00529523477611109 0.0007661809325456266 0.00820917884499966
 0.0007786055235260972 0.008207729888364748 -0.0006759955360968958 -0.00529523477611109 0.0035965453296723814 0.01827385529500978 0.9956880390533234 -0.04364935046842315
 -0.0006764692643540254 -0.00529522485161846 0.0007661809325456266 0.00820917884499966 0.9956880390533234 -0.04364935046842315 0.0035978047249716045 0.018273799800374187
0.08753647353064001 0.003852821843049234 0.01978442491086052 0.995349822854386 -0.04708884345719788 0.0008751460260252769 0.008843963664823753 -0.0007586184785809266 -0.005708974803168696
 0.995349822854386 -0.04708884345719788 0.003854956008109421 0.019784314940627018 -0.0007580707189395731 -0.005708990010043321 0.0008607242799646657 0.00884567399675961
 0.0008751460260252769 0.008843963664823753 -0.0007580707189395731 -0.005708990010043321 0.0038531237111372398 0.019783236391982442 0.9953497867886136 -0.04709001104254578
 -0.0007586184785809266 -0.005708974803168696 0.0008607242799646657 0.00884567399675961 0.9953497867886136 -0.04709001104254578 0.0038545837905605406 0.019783176476669453
0.09378907878283 0.004121390948827808 0.021307403024210584 0.9949957797585445 -0.05054142479446127 0.0009777417267568312 0.009480599359112815 -0.0008458962150614785 -0.006123285721066954
 0.9949957797585445 -0.05054142479446127 0.004123840493785626 0.021307281203259865 -0.0008452692558012898 -0.006123307099827999 0.0009611718220282357 0.009482600523962548
 0.0009777417267568312 0.009480599359112815 -0.0008452692558012898 -0.006123307099827999 0.004121737909535448 0.021306128326643598 0.9949957386432629 -0.050542675740438255
 -0.0008458962150614785 -0.006123285721066954 0.0009611718220282357 0.009482600523962548 0.9949957386432629 -0.050542675740438255 0.0041234135136145956 0.02130606411459466
0.100041684035 0.004402202554141697 0.02284371896126904 0.9946257362116921 -0.05400592642508614 0.001086448654570234 0.01011756624803644 -0.0009383593758738859 -0.006538085685331679
 0.9946257362116921 -0.05400592642508614 0.004404989257069733 0.02284358462673883 -0.0009376480869309275 -0.006538114174214486 0.0010675791638255665 0.010119889393538382
 0.001086448654570234 0.01011756624803644 -0.0009376480869309275 -0.006538114174214486 0.004402597768198068 0.022842357793638846 0.9946256897118837 -0.054007260754824246
 -0.0009383593758738859 -0.006538085685331679 0.0010675791638255665 0.010119889393538382 0.9946256897118837 -0.054007260754824246 0.004404503756361298 0.02284228944119151
0.1059090909091 0.004677035305572384 0.024297366855590287 0.9942637549301158 -0.05726775268029545 0.0011940658343284807 0.0107155286770589 -0.0010298922311248874 -0.006927711080733761
 0.9942637549301158 -0.05726775268029545 0.004680158226667746 0.024297220153707638 -0.0010290971758839332 -0.006927747138406023 0.0011729003384993231 0.01071818381930026
 0.0011940658343284807 0.0107155286770589 -0.0010290971758839332 -0.006927747138406023 0.004677478678653868 0.024295924259738554 0.9942637030710044 -0.05726916528170604
 -0.0010298922311248874 -0.006927711080733761 0.0011729003384993231 0.01071818381930026 0.9942637030710044 -0.05726916528170604 0.004679614393283258 0.024295852193344413
0.1062942892872 0.004695465930369891 0.02439320181339126 0.9942394874228233 -0.057482255671054354 0.0012013219886454665 0.010754791721503652 -0.001036063964638567 -0.00695330153001951
 0.9942394874228233 -0.057482255671054354 0.004698611596609493 0.0243930542779289 -0.0010352632540012521 -0.0069533381159563295 0.0011800010738104787 0.01075746970600031
 0.0012013219886454665 0.010754791721503652 -0.0010352632540012521 -0.0069533381159563295 0.004695912562715224 0.024391753861364978 0.9942394352014703 -0.057483673412220895
 -0.001036063964638567 -0.00695330153001951 0.0011800010738104787 0.01075746970600031 0.9942394352014703 -0.057483673412220895 0.0046980638179878855 0.024391681557637955
0.11254689453939999 0.005001389747287904 0.025955682024956624 0.9938368288034313 -0.0609703119656297 0.0013224160142068762 0.01139220134275866 -0.0011390650509816966 -0.007368858786621106
 0.9938368288034313 -0.0609703119656297 0.005004916213773471 0.025955520576251643 -0.001138169864776255 -0.007368904505186384 0.0012984914406842152 0.011395268755604034
 0.0013224160142068762 0.01139220134275866 -0.001138169864776255 -0.007368904505186384 0.005001890967615732 0.025954146953574956 0.99383677052221 -0.06097181314775964
 -0.0011390650509816966 -0.007368858786621106 0.0012984914406842152 0.011395268755604034 0.99383677052221 -0.06097181314775964 0.005004302400510021 0.02595407092089154
0.11879949979160001 0.005320182031949027 0.027530990591118458 0.993417556053021 -0.0644699876141051 0.001449784079507596 0.012029718896472311 -0.0012474167331678646 -0.0077846816415563964
 0.993417556053021 -0.0644699876141051 0.005324111171117488 0.027530814491479923 -0.0012464220556536454 -0.007784737576919222 0.001423103231280922 0.012033212078350295
 0.001449784079507596 0.012029718896472311 -0.0012464220556536454 -0.007784737576919222 0.005320741014222708 0.027529368040068003 0.9934174913714783 -0.06447157227307286
 -0.0012474167331678646 -0.0077846816415563964 0.001423103231280922 0.012033212078350295 0.9934174913714783 -0.06447157227307286 0.00532342756747382 0.027529288534213124
0.1250521050438 0.0056520501234192085 0.029118958419865885 0.9929814652418417 -0.0679811683927097 0.0015834785524267221 0.012667266424613417 -0.0013611721002930472 -0.008200692907926953
 0.9929814652418417 -0.0679811683927097 0.005656403847246127 0.02911876690554998 -0.001360072953979828 -0.008200760192792478 0.0015538884479727106 0.012671223487636116
 0.0015834785524267221 0.012667266424613417 -0.001360072953979828 -0.008200760192792478 0.005652670046102191 0.02911724800773282 0.9929813938174123 -0.0679828365661384
 -0.0013611721002930472 -0.008200692907926953 0.0015538884479727106 0.012671223487636116 0.9929813938174123 -0.0679828365661384 0.005655646698789121 0.029117165318093195
0.131304710296 0.0059972006221332965 0.030719415826363703 0.9925283528901759 -0.07150373401741525 0.001723550777207848 0.013304764263168114 -0.001480383193562104 -0.008616813998426088
 0.9925283528901759 -0.07150373401741525 0.006002000886534313 0.030719208106841676 -0.0014791746393171276 -0.008616893813966247 0.0016908980864050974 0.013309225110913378
 0.001723550777207848 0.013304764263168114 -0.0014791746393171276 -0.008616893813966247 0.005997884668122037 0.030717617147871308 0.9925282743785793 -0.07150548574709553
 -0.001480383193562104 -0.008616813998426088 0.0016908980864050974 0.013309225110913378 0.9925282743785793 -0.07150548574709553 0.00600116644060797 0.030717531597466912
0.1375573155481 0.006270053997446208 0.032124117051814234 0.992143824006589 -0.07482942073134663 0.001850652373212317 0.01392102293715722 -0.0015857472628894836 -0.009011839331299792
 0.992143824006589 -0.07482942073134663 0.006275324262506762 0.03212389430407502 -0.0015844219854284558 -0.009011931589829247 0.0018148669776635888 0.01392597617754123
 0.001850652373212317 0.01392102293715722 -0.0015844219854284558 -0.009011931589829247 0.006270804746425471 0.03212222972633307 0.9921437380886236 -0.07483125601894106
 -0.0015857472628894836 -0.009011839331299792 0.0018148669776635888 0.01392597617754123 0.9921437380886236 -0.07483125601894106 0.0062744093218484315 0.03212214348079007
0.1438099208003 0.00655228080061235 0.03352252625364674 0.9917461930042093 -0.07814777808181834 0.001982885103810584 0.014535364221843339 -0.0016953301285207462 -0.009405108354468932
 0.9917461930042093 -0.07814777808181834 0.006558043319685021 0.03352228768533603 -0.0016938828156256363 -0.009405214199985315 0.0019438282475442087 0.014540845790268294
 0.001982885103810584 0.014535364221843339 -0.0016938828156256363 -0.009405214199985315 0.006553101332276013 0.0335205498661094 0.9917460993375726 -0.07814969696393984
 -0.0016953301285207462 -0.009405108354468932 0.0019438282475442087 0.014540845790268294 0.9917460993375726 -0.07814969696393984 0.006557044233747776 0.03352046326864298
0.1500625260525 0.00684379523409155 0.034914559058663745 0.9913355486007543 -0.08145875648623885 0.0021202110516888952 0.015147744983215375 -0.0018090950734298199 -0.009796579749281335
 0.9913355486007543 -0.08145875648623885 0.006850072312784319 0.03491430382600927 -0.0018075204209846679 -0.009796700371341612 0.002077744616843067 0.015153792114830483
 0.0021202110516888952 0.015147744983215375 -0.0018075204209846679 -0.009796700371341612 0.006844688625364552 0.03491249317605943 0.9913354468418806 -0.08146075900201769
 -0.0018090950734298199 -0.009796579749281335 0.002077744616843067 0.015153792114830483 0.9913354468418806 -0.08146075900201769 0.006848985438865746 0.034912406564178045
0.15631513130469998 0.007144511052102824 0.03630013382395156 0.9909119797858931 -0.0847623059267354 0.0022625919456486687 0.01575812269362211 -0.0019270050147240292 -0.010186212975964492
