! Created with skrf 1.8.0 (http://scikit-rf.org).
# GHz S RI R 50.0 
!freq ReS11 ImS11 ReS12 ImS12 ReS13 ImS13
! ReS14 ImS14
! ReS21 ImS21 ReS22 ImS22 ReS23 ImS23
! ReS24 ImS24
! ReS31 ImS31 ReS32 ImS32 ReS33 ImS33
! ReS34 ImS34
! ReS41 ImS41 ReS42 ImS42 ReS43 ImS43
! ReS44 ImS44
!
0.0 0.001522537239007 0.0 0.998477462761 0.0 5.882316980904e-05 0.0 -5.882316918728e-05 7.203760586090566e-21
 0.998477462761 0.0 0.001522537239005 0.0 -5.882316918732e-05 7.203760586095465e-21 5.882316980895e-05 0.0
 5.882316980904e-05 0.0 -5.882316918732e-05 7.203760586095465e-21 0.001522537224788 0.0 0.9984774627468 0.0
 -5.882316918728e-05 7.203760586090566e-21 5.882316980895e-05 0.0 0.9984774627468 0.0 0.001522537224781 0.0
0.005 0.0016381040832824652 0.0012431968157258523 0.9983312741586545 -0.0031894882417454226 8.267518012012479e-05 0.000662825250594854 -8.028357357919983e-05 -0.0004134763283583443
 0.9983312741586545 -0.0031894882417454226 0.0016380880219037752 0.0012432061528210095 -8.028162624770785e-05 -0.00041347479861975967 8.277957566072065e-05 0.0006627854855421771
 8.267518012012479e-05 0.000662825250594854 -8.028162624770785e-05 -0.00041347479861975967 0.0016381048969692387 0.0012431290326467182 0.9983312737986911 -0.0031895553066995093
 -8.028357357919983e-05 -0.0004134763283583443 8.277957566072065e-05 0.0006627854855421771 0.9983312737986911 -0.0031895553066995093 0.001638086497089453 0.0012431398147919493
0.006252605252188 0.0016683995285112245 0.001558899901051884 0.9982927158500183 -0.003987644119624753 8.945943301026729e-05 0.0008288482662024744 -8.633604516072091e-05 -0.000517384293999352
 0.9982927158500183 -0.003987644119624753 0.0016683744221107544 0.0015589117780254816 -8.6333015206463e-05 -0.0005173824070814725 8.96225414156378e-05 0.0008287966388590512
 8.945943301026729e-05 0.0008288482662024744 -8.6333015206463e-05 -0.0005173824070814725 0.0016684008838231989 0.0015588151791157336 0.9982927153700831 -0.00398772794328517
 -8.633604516072091e-05 -0.000517384293999352 8.96225414156378e-05 0.0008287966388590512 0.9982927153700831 -0.00398772794328517 0.0016683721211206402 0.0015588288720651215
0.01250521050438 0.001827798123310194 0.0031505680095210986 0.998088535993556 -0.007976121796467204 0.00012820752403719008 0.0016580315620023454 -0.00012064150780164082 -0.001037301127944286
 0.998088535993556 -0.007976121796467204 0.0018276978797394851 0.00315059382557827 -0.00012062957010336976 -0.001037297630386472 0.0001288579638318781 0.0016579075971328483
 0.00012820752403719008 0.0016580315620023454 -0.00012062957010336976 -0.001037297630386472 0.001827804086395573 0.003150398805348579 0.9980885346181319 -0.00797628921512114
 -0.00012064150780164082 -0.001037301127944286 0.0001288579638318781 0.0016579075971328483 0.9980885346181319 -0.00797628921512114 0.001827689230413418 0.0031504283714933775
0.01875781575657 0.002001078027233958 0.004764979725177589 0.9978646714141495 -0.0119751458366277 0.0001751578860032315 0.0024881252264842986 -0.00016184481232842023 -0.0015589836018053526
 0.9978646714141495 -0.0119751458366277 0.002000852786979271 0.004765021661057056 -0.00016181819494046981 -0.0015589788215346183 0.00017661903107975908 0.002487904195664744
 0.0001751578860032315 0.0024881252264842986 -0.00016181819494046981 -0.0015589788215346183 0.002001091867843017 0.004764726148624531 0.9978646687431134 -0.011975396789585563
 -0.00016184481232842023 -0.0015589836018053526 0.00017661903107975908 0.002487904195664744 0.9978646687431134 -0.011975396789585563 0.0020008337686699532 0.004764773951032876
0.02501042100875 0.0021885742512129675 0.00639987290240766 0.9976208604959231 -0.015986656312088985 0.00023040163219031708 0.003319171262051149 -0.00021004779718761647 -0.0020821923760048025
 0.9976208604959231 -0.015986656312088985 0.00218817426181492 0.006399933240745345 -0.00021000079839573498 -0.0020821866985020155 0.00023299698156597907 0.0033188245609265684
 0.00023040163219031708 0.003319171262051149 -0.00021000079839573498 -0.0020821866985020155 0.002188599239925253 0.006399535046403628 0.997620856121073 -0.015986990795313454
 -0.00021004779718761647 -0.0020821923760048025 0.00023299698156597907 0.0033188245609265684 0.997620856121073 -0.015986990795313454 0.0021881408543290826 0.006399603611426847
0.03126302626094 0.0023906079438905325 0.008054084100417823 0.9973568281747923 -0.02001148427257365 0.00029403017880374034 0.004151133582079047 -0.00026534942149615835 -0.002606760524880182
 0.9973568281747923 -0.02001148427257365 0.0023899835320931612 0.008054165222175414 -0.00026527639782457835 -0.0026067543938938444 0.0002980836579689219 0.004150628708420749
 0.00029403017880374034 0.004151133582079047 -0.00026527639782457835 -0.0026067543938938444 0.002390647358130659 0.008053662044158277 0.9973568216834506 -0.02001190233572743
 -0.00026534942149615835 -0.002606760524880182 0.0002980836579689219 0.004150628708420749 0.9973568216834506 -0.02001190233572743 0.00238993171890348 0.00805375405799578
0.037515631513130004 0.002607493322511608 0.00972685525100479 0.9970722930921138 -0.024050045016209127 0.0003661344363874219 0.0049839453206265575 -0.0003278465012003706 -0.003132546238952691
 0.9970722930921138 -0.024050045016209127 0.0026065948755431504 0.00972695963343551 -0.00032774186126921593 -0.0031325401566916723 0.0003719705325840329 0.004983245835546727
 0.0003661344363874219 0.0049839453206265575 -0.00032774186126921593 -0.0031325401566916723 0.002607550450298548 0.00972634910326741 0.9970722840680727 -0.02405054671922965
 -0.0003278465012003706 -0.003132546238952691 0.0003719705325840329 0.004983245835546727 0.9970722840680727 -0.02405054671922965 0.002606520646279285 0.009726467410612625
0.043768236765320004 0.002839540350521573 0.011417622682785367 0.996766970492253 -0.028102548995409368 0.00044680443036518384 0.005817523208766507 -0.0003976339688866576 -0.0036594184530849808
 0.996766970492253 -0.028102548995409368 0.0028383183009550394 0.011417752897967134 -0.0003974921697807682 -0.0036594129802669266 0.0004547482566830281 0.0058165886926292935
 0.00044680443036518384 0.005817523208766507 -0.0003974921697807682 -0.0036594129802669266 0.00283961849077098 0.011417032555689814 0.996766958513981 -0.028103134434650286
 -0.0003976339688866576 -0.0036594184530849808 0.0004547482566830281 0.0058165886926292935 0.996766958513981 -0.028103134434650286 0.002838217650907062 0.011417180159209827
0.050020842017509996 0.003087055979699432 0.013125929924955593 0.9964405736872272 -0.032169088941628 0.0005361290672015397 0.006651773523984636 -0.00047480496991947064 -0.00418725090148635
 0.9964405736872272 -0.032169088941628 0.003085460792218743 0.013126088638910372 -0.00047462051481097974 -0.004187246657329352 0.0005465063891961757 0.006650559530197208
 0.0005361290672015397 0.006651773523984636 -0.00047462051481097974 -0.004187246657329352 0.003087158443632915 0.013125255940428189 0.9964405583278247 -0.03216975824314604
 -0.00047480496991947064 -0.00418725090148635 0.0005465063891961757 0.006650559530197208 0.9964405583278247 -0.03216975824314604 0.0030853297236397015 0.013125436000726362
0.055454545454549996 0.0033149535631934895 0.014624439499969532 0.9961395866725637 -0.035714449492329964 0.0006208515964335829 0.007377229931182992 -0.0005479362541430479 -0.0046466365105995965
 0.9961395866725637 -0.035714449492329964 0.003312993894579741 0.014624625217928913 -0.0005477103001978775 -0.004646633882494962 0.0006336087711000679 0.007375733803795836
 0.0006208515964335829 0.007377229931182992 -0.0005477103001978775 -0.004646633882494962 0.0033150798638877806 0.014623692750281907 0.9961395680225253 -0.03571519179511809
 -0.0005479362541430479 -0.0046466365105995965 0.0006336087711000679 0.007375733803795836 0.9961395680225253 -0.03571519179511809 0.0033128331500482115 0.014623903706265397
0.056273447269699996 0.0033503447899605756 0.014851384893979103 0.9960928149218187 -0.0362496826082533 0.0006341959672057847 0.007486595003894112 -0.0005594508829891671 -0.004715919210585214
 0.9960928149218187 -0.0362496826082533 0.003348326949129321 0.014851574866162641 -0.0005592183195798291 -0.004715916872795196 0.0006473332065670643 0.0074850530117829975
 0.0006341959672057847 0.007486595003894112 -0.0005592183195798291 -0.004715916872795196 0.0033504749014319287 0.01485062718710431 0.9960927957473058 -0.03625043592423803
 -0.0005594508829891671 -0.004715919210585214 0.0006473332065670643 0.0074850530117829975 0.9960927957473058 -0.03625043592423803 0.0033481614713949514 0.014850843023125263
0.06252605252188 0.0036297093295538873 0.01659363637620594 0.9957234059429173 -0.04034429622045576 0.0007410913298062017 0.008321880450860838 -0.0006516613024728356 -0.005245299304248028
 0.9957234059429173 -0.04034429622045576 0.0036272193282134288 0.016593860459180584 -0.0006513752218756476 -0.005245299608963811 0.0007573155531928317 0.008319957818144971
 0.0007410913298062017 0.008321880450860838 -0.0006513752218756476 -0.005245299608963811 0.0036298704257621043 0.016592795098781015 0.9957233825110079 -0.0403451337253697
 -0.0006516613024728356 -0.005245299304248028 0.0007573155531928317 0.008319957818144971 0.9957233825110079 -0.0403451337253697 0.0036270154588048257 0.016593050188528687
0.06877865777407 0.0039254502960115725 0.0183523599916297 0.9953320584128024 -0.04445285844711811 0.0008568998158088497 0.009157517691086728 -0.0007515240000524453 -0.005775266458214959
 0.9953320584128024 -0.04445285844711811 0.003922438623921076 0.018352621131286617 -0.0007511790360830824 -0.005775270199967647 0.0008765387128448871 0.009155157606355836
 0.0008568998158088497 0.009157517691086728 -0.0007511790360830824 -0.005775270199967647 0.003925645728994235 0.018351435307990535 0.9953320302729168 -0.04445378034158143
 -0.0007515240000524453 -0.005775266458214959 0.0008765387128448871 0.009155157606355836 0.9953320302729168 -0.04445378034158143 0.003922192389799907 0.01835173328966533
0.07503126302626001 0.004237866618632092 0.02012724930840477 0.9949184842278477 -0.0485752692263907 0.0009817044410806441 0.009993390186110894 -0.0008591248718570921 -0.006305694706234287
 0.9949184842278477 -0.0485752692263907 0.004234283751346126 0.020127550544387775 -0.000858715700487836 -0.006305702737888782 0.001005086294502752 0.009990531621484064
 0.0009817044410806441 0.009993390186110894 -0.000858715700487836 -0.006305702737888782 0.004238099755780595 0.02012624139502982 0.9949184509196328 -0.04857627573714793
 -0.0008591248718570921 -0.006305694706234287 0.001005086294502752 0.009990531621484064 0.9949184509196328 -0.04857627573714793 0.004233991190102679 0.02012658606848753
0.08128386827845 0.0045672554828460514 0.021918009919696117 0.9944823957823211 -0.052711405633240456 0.0011155864758778406 0.01082937744583532 -0.000974547877491336 -0.006836456449039192
 0.9944823957823211 -0.052711405633240456 0.00456305187062609 0.02191835438624707 -0.0009740692165374764 -0.00683646968173149 0.0011430401255662771 0.010825955109904582
 0.0011155864758778406 0.01082937744583532 -0.0009740692165374764 -0.00683646968173149 0.004567529708515664 0.021916918965875925 0.9944823568359249 -0.052712497012095544
 -0.000974547877491336 -0.006836456449039192 0.0011430401255662771 0.010825955109904582 0.9944823568359249 -0.052712497012095544 0.004562709032284389 0.021917314294419253
0.08753647353064001 0.004913912314418201 0.023724355357161376 0.994023506196291 -0.056861125915347185 0.001258625348649218 0.011665355314708407 -0.0010978749727543501 -0.007367422194660667
 0.994023506196291 -0.056861125915347185 0.0049090383712024855 0.023724746284257768 -0.0010973215816620164 -0.007367441597732607 0.0012904801504150366 0.011661299606010686
 0.001258625348649218 0.011665355314708407 -0.0010973215816620164 -0.007367441597732607 0.004914231029290837 0.023723181563498993 0.994023461129535 -0.05686230244015707
 -0.0010978749727543501 -0.007367422194660667 0.0012904801504150366 0.011661299606010686 0.994023461129535 -0.05686230244015707 0.004908641318190545 0.023723631676045544
0.09378907878283 0.005278130734727144 0.02554600416472148 0.9935415295166258 -0.06102427237378328 0.0014108985522881007 0.012501196186353576 -0.0012291860379420728 -0.00789846037505981
 0.9935415295166258 -0.06102427237378328 0.0052725368272252575 0.025546444879668596 -0.0012285527177378166 -0.007898486975975842 0.0014474843326654787 0.012496433147301998
 0.0014108985522881007 0.012501196186353576 -0.0012285527177378166 -0.007898486975975842 0.005278497357928779 0.02554474774651031 0.9935414778356556 -0.0610255343445776
 -0.0012291860379420728 -0.00789846037505981 0.0014474843326654787 0.012496433147301998 0.9935414778356556 -0.0610255343445776 0.005272081636715861 0.025545256940144194
0.100041684035 0.005660202497095598 0.02738267776126632 0.9930361809040772 -0.0652006734601664 0.0015724815523401573 0.013336769165164354 -0.0013685588029368422 -0.008429437220670707
 0.9930361809040772 -0.0652006734601664 0.005653838933387363 0.027383171690617925 -0.0013678403962018258 -0.008429472104939835 0.0016141285596262508 0.013331220436621823
 0.0015724815523401573 0.013336769165164354 -0.0013678403962018258 -0.008429472104939835 0.005660620466435228 0.027381338945071797 0.9930361221016438 -0.06520202120201997
 -0.0013685588029368422 -0.008429437220670707 0.0016141285596262508 0.013331220436621823 0.9930361221016438 -0.06520202120201997 0.005653321698192474 0.02738191168799846
0.1059090909091 0.006035231924860128 0.029119618965814272 0.9925404557127588 -0.06913167426526824 0.0017326425823575619 0.014120502760575462 -0.0015067446743768707 -0.008927525722371769
 0.9925404557127588 -0.06913167426526824 0.006028100864400091 0.029120166038065026 -0.001505941769396347 -0.008927569418582037 0.0017793397014737936 0.014114141518828064
 0.0017326425823575619 0.014120502760575462 -0.001505941769396347 -0.008927569418582037 0.006035701220801048 0.029118203043657878 0.9925403897535547 -0.06913310281182798
 -0.0015067446743768707 -0.008927525722371769 0.0017793397014737936 0.014114141518828064 0.9925403897535547 -0.06913310281182798 0.0060275218684171265 0.029118839639882765
0.1062942892872 0.006060417408422198 0.029234098830014037 0.9925071768072743 -0.06939014535288868 0.0017434476961298204 0.014171940193189531 -0.001516068769937684 -0.008960216674590347
 0.9925071768072743 -0.06939014535288868 0.006053234427097797 0.029234649501852634 -0.0015152601608551628 -0.00896026098568362 0.0017904865483894517 0.014165522969712959
 0.0017434476961298204 0.014171940193189531 -0.0015152601608551628 -0.00896026098568362 0.006060890180966522 0.029232677853786616 0.9925071103620043 -0.06939157921515582
 -0.001516068769937684 -0.008960216674590347 0.0017904865483894517 0.014165522969712959 0.9925071103620043 -0.06939157921515582 0.006052651257080507 0.02923331878854286
0.11254689453939999 0.006479063238739586 0.031099990092328788 0.9919542351287209 -0.0735924931544281 0.001923868122958391 0.015006572157240557 -0.0016717891341412698 -0.009490660331731992
 0.9919542351287209 -0.0735924931544281 0.0064710109974449965 0.031100601139044094 -0.0016708852486635856 -0.00949071527097498 0.001976629753114079 0.014999199143097178
 0.001923868122958391 0.015006572157240557 -0.0016708852486635856 -0.00949071527097498 0.006479594292271952 0.031098487203235676 0.9919541605041305 -0.07359401351224205
 -0.0016717891341412698 -0.009490660331731992 0.001976629753114079 0.014999199143097178 0.9919541605041305 -0.07359401351224205 0.006470358021229375 0.031099201150498308
0.11879949979160001 0.0069164256232161 0.03298007335028725 0.9913770753855897 -0.07780751182622035 0.0021138116748623172 0.01584052497648092 -0.0018357907029621047 -0.010020627402698707
 0.9913770753855897 -0.07780751182622035 0.0069074541875944395 0.032980748511634635 -0.0018347865089801646 -0.010020694229176506 0.0021726272732565384 0.015832104342445034
 0.0021138116748623172 0.01584052497648092 -0.0018347865089801646 -0.010020694229176506 0.0069170184567297205 0.03297848880796754 0.9913769920295881 -0.07780911907652827
 -0.0018357907029621047 -0.010020627402698707 0.0021726272732565384 0.015832104342445034 0.9913769920295881 -0.07780911907652827 0.006906727553862243 0.03297928077058483
0.1250521050438 0.0073727879564125754 0.03487406873665812 0.9907754188659601 -0.08203498692201802 0.00231334480786097 0.016673655681965587 -0.0020081418140366234 -0.01054997469110507
 0.9907754188659601 -0.08203498692201802 0.0073628472884689055 0.03487481186339308 -0.0020070323215453678 -0.010550054721525839 0.002378545762490263 0.01666409102296921
 0.00231334480786097 0.016673655681965587 -0.0020070323215453678 -0.010550054721525839 0.007373446090764924 0.03487240280915822 0.9907753262091313 -0.08203668148685148
 -0.0020081418140366234 -0.01054997469110507 0.002378545762490263 0.01666409102296921 0.9907753262091313 -0.08203668148685148 0.007362043167515428 0.03487327797677104
0.131304710296 0.007848431280734406 0.03678169411217191 0.9901489887815971 -0.0862746951806023 0.0025225315034344007 0.017505818487177187 -0.002188908252569906 -0.011078556585236992
 0.9901489887815971 -0.0862746951806023 0.00783747122751128 0.036782509170052866 -0.002187688513965425 -0.011078651193849369 0.0025944493379091694 0.01749500878086161
 0.0025225315034344007 0.017505818487177187 -0.002187688513965425 -0.011078651193849369 0.0078491582594949 0.03677994707536811 0.990148886236416 -0.08627647750679063
 -0.002188908252569906 -0.011078556585236992 0.0025944493379091694 0.01749500878086161 0.990148886236416 -0.08627647750679063 0.007836585812586058 0.0367809108293126
0.1375573155481 0.008234474392690648 0.03845339619466625 0.9896067147019497 -0.09027701336050321 0.0027146181819838293 0.01831168052369666 -0.002351260307598844 -0.01158111801398952
 0.9896067147019497 -0.09027701336050321 0.008222440113447025 0.03845426767705879 -0.002349922899078451 -0.011581227297854556 0.002793419347640595 0.01829964169400613
 0.0027146181819838293 0.01831168052369666 -0.002349922899078451 -0.011581227297854556 0.008235272923045205 0.03845156837310701 0.9896066018069122 -0.09027888372311124
 -0.002351260307598844 -0.01158111801398952 0.002793419347640595 0.01829964169400613 0.9896066018069122 -0.09027888372311124 0.008221470215931028 0.03845260627735414
0.1438099208003 0.008634097059021377 0.040116306090855085 0.9890453855227493 -0.0942692114037347 0.002914452637326034 0.01911437494014101 -0.0025201116618525574 -0.012080729178794363
 0.9890453855227493 -0.0942692114037347 0.008620937516698226 0.04011723675752501 -0.002518651250955669 -0.01208085449061413 0.0030004390195622886 0.019101014618518472
 0.002914452637326034 0.01911437494014101 -0.002518651250955669 -0.01208085449061413 0.008634970566950369 0.040114397806252346 0.9890452616902453 -0.09427117024213817
 -0.0025201116618525574 -0.012080729178794363 0.0030004390195622886 0.019101014618518472 0.9890452616902453 -0.09427117024213817 0.008619879474066417 0.04011551403997581
0.1500625260525 0.009047159291622137 0.04177028536195528 0.9884651454005636 -0.0982511909128286 0.003121966023725527 0.019913822869393076 -0.0026953943777952107 -0.01257731353280899
 0.9884651454005636 -0.0982511909128286 0.009032823309756218 0.04177127815421056 -0.0026938056429963225 -0.012577456279658577 0.003215437726562641 0.019899045318348237
 0.003121966023725527 0.019913822869393076 -0.0026938056429963225 -0.012577456279658577 0.009048111215732669 0.04176829694769715 0.9884650100276559 -0.09825323868371477
 -0.0026953943777952107 -0.01257731353280899 0.003215437726562641 0.019899045318348237 0.9884650100276559 -0.09825323868371477 0.009031673488881928 0.04176949592837857
0.15631513130469998 0.009473520113272613 0.043415199746572215 0.9878661392226481 -0.10222285382582445 0.0033370886865684477 0.02070994678599824 -0.002877039681522749 -0.013070796146358301
 0.9878661392226481 -0.10222285382582445 0.009457956371864173 0.04341625779310579 -0.0028753173122966135 -0.013070957789484383 0.00343834400560786 0.020693652934280837
