! Created with skrf 1.8.0 (http://scikit-rf.org).
# GHz S RI R 50.0 
!freq ReS11 ImS11 ReS12 ImS12 ReS13 ImS13
! ReS14 ImS14
! ReS21 ImS21 ReS22 ImS22 ReS23 ImS23
! ReS24 ImS24
! ReS31 ImS31 ReS32 ImS32 ReS33 ImS33
! ReS34 ImS34
! ReS41 ImS41 ReS42 ImS42 ReS43 ImS43
! ReS44 ImS44
!
0.0 0.001142447577813 0.0 0.9988575524108 0.0 4.345226534299e-05 0.0 -4.34522655212e-05 5.321367788623848e-21
 0.9988575524108 0.0 0.001142447577794 0.0 -4.345226552063e-05 5.321367788554043e-21 4.345226534356e-05 0.0
 4.345226534299e-05 0.0 -4.345226552063e-05 5.321367788554043e-21 0.001142447583475 0.0 0.9988575524165 0.0
 -4.34522655212e-05 5.321367788623848e-21 4.345226534356e-05 0.0 0.9988575524165 0.0 0.001142447583485 0.0
0.005 0.0012282969730028261 0.0009339910138126857 0.9987490581539087 -0.0023943758588825517 6.060795674336797e-05 0.0004858976735777241 -5.884739118730738e-05 -0.0003039125274681639
 0.9987490581539087 -0.0023943758588825517 0.001228320535277981 0.000933977247109293 -5.884454326923878e-05 -0.0003039103344923562 6.0463170111359325e-05 0.0004859525081128248
 6.060795674336797e-05 0.0004858976735777241 -5.884454326923878e-05 -0.0003039103344923562 0.0012282987735442407 0.0009340571906065662 0.998749058478583 -0.0023943087954567854
 -5.884739118730738e-05 -0.0003039125274681639 6.0463170111359325e-05 0.0004859525081128248 0.998749058478583 -0.0023943087954567854 0.0012283193794712214 0.0009340451932185568
0.006252605252188 0.0012505538512475928 0.0011712047569389112 0.9987207898869735 -0.0029935954198369434 6.538262064298972e-05 0.0006076192610371769 -6.307722415246595e-05 -0.000380300052449101
 0.9987207898869735 -0.0029935954198369434 0.0012505906839205625 0.00117118732756861 -6.307279250156891e-05 -0.0003802973469602403 6.515639797229947e-05 0.0006076904102915549
 6.538262064298972e-05 0.0006076192610371769 -6.307279250156891e-05 -0.0003802973469602403 0.00125055659093562 0.0011712874657472366 0.9987207903194193 -0.0029935115985577363
 -6.307722415246595e-05 -0.000380300052449101 6.515639797229947e-05 0.0006076904102915549 0.9987207903194193 -0.0029935115985577363 0.0012505888016946136 0.0011712722524866723
0.01250521050438 0.001366212239745526 0.002367369009649936 0.9985730931514063 -0.005988207960312418 9.20942044633672e-05 0.001215640469977463 -8.644966252662098e-05 -0.0007626114402363005
 0.9985730931514063 -0.005988207960312418 0.001366359316686126 0.0023673319350127468 -8.643219632096696e-05 -0.0007626064131491606 9.119191096228984e-05 0.001215810380351501
 9.20942044633672e-05 0.001215640469977463 -8.643219632096696e-05 -0.0007626064131491606 0.001366222618237543 0.002367534132404715 0.9985730943147216 -0.005988040548962997
 -8.644966252662098e-05 -0.0007626114402363005 9.119191096228984e-05 0.001215810380351501 0.9985730943147216 -0.005988040548962997 0.0013663512317419048 0.002367501552382141
0.01875781575657 0.001489621484091287 0.0035810148852769004 0.9984143174999087 -0.008991179605656352 0.0001236388119126004 0.0018245089805734422 -0.00011362968846526424 -0.0011464053258595636
 0.9984143174999087 -0.008991179605656352 0.0014899519745729859 0.00358095579429661 -0.00011359073451992767 -0.001146398416491048 0.00012161149856967163 0.001824809521951782
 0.0001236388119126004 0.0018245089805734422 -0.00011359073451992767 -0.001146398416491048 0.0014896443943602413 0.003581262208444852 0.9984143196997698 -0.008990928691754413
 -0.00011362968846526424 -0.0011464053258595636 0.00012161149856967163 0.001824809521951782 0.9984143196997698 -0.008990928691754413 0.0014899333816816682 0.0035812100124697154
0.02501042100875 0.001620977105546216 0.00481049392854406 0.9982443141631483 -0.01200401848750979 0.00016006961065251495 0.00243428357543031 -0.0001446762207607068 -0.0015315371083074083
 0.9982443141631483 -0.01200401848750979 0.001621564029924509 0.004810410323975833 -0.00014460742401941416 -0.0015315288201938186 0.00015646786334827731 0.0024347506797663316
 0.00016006961065251495 0.00243428357543031 -0.00014460742401941416 -0.0015315288201938186 0.0016210174281783736 0.004810823230092114 0.9982443177007277 -0.012003684106913068
 -0.0001446762207607068 -0.0015315371083074083 0.00015646786334827731 0.0024347506797663316 0.9982443177007277 -0.012003684106913068 0.0016215306198321211 0.004810749097534655
0.03126302626094 0.0017604660670282417 0.006054984228424637 0.9980629250322329 -0.015027401743187162 0.00020144067035099384 0.0030449671170623173 -0.00017964693172436514 -0.0019179156628267575
 0.9980629250322329 -0.015027401743187162 0.001761382333473076 0.006054873492757067 -0.00017954001775846248 -0.0019179065649009772 0.00019581416774492076 0.003045640799862615
 0.00020144067035099384 0.0030449671170623173 -0.00017954001775846248 -0.0019179065649009772 0.0017605286773729487 0.006055395256301186 0.9980629302096821 -0.015026983901415896
 -0.00017964693172436514 -0.0019179156628267575 0.00019581416774492076 0.003045640799862615 0.9980629302096821 -0.015026983901415896 0.0017613297959824935 0.006055296801004785
0.037515631513130004 0.0019082714196496655 0.00731396992118075 0.9978699873701316 -0.018061695973886974 0.00024780635247059513 0.003656540891579897 -0.0002185986902663752 -0.0023054689762491806
 0.9978699873701316 -0.018061695973886974 0.001909589847343016 0.007313829319951935 -0.0002184454562572422 -0.0023054597032841446 0.00023970365142870852 0.003657465295169233
 0.00024780635247059513 0.003656540891579897 -0.0002184454562572422 -0.0023054597032841446 0.0019083611915350547 0.007314462382142371 0.9978699944932488 -0.018061194656908395
 -0.0002185986902663752 -0.0023054689762491806 0.00023970365142870852 0.003657465295169233 0.9978699944932488 -0.018061194656908395 0.0019095138724885413 0.0073143371560238785
0.043768236765320004 0.002064574105394474 0.008587082775777426 0.9976653356822929 -0.021107115615066875 0.0002992210392927178 0.004268975056410171 -0.00026158773328104344 -0.0026941336841537987
 0.9976653356822929 -0.021107115615066875 0.0020663674412066623 0.00858690945974597 -0.00026138004246087924 -0.0026941249369476917 0.0002881894565590414 0.004270198499964481
 0.0002992210392927178 0.004268975056410171 -0.00026138004246087924 -0.0026941249369476917 0.0020646959062283468 0.008587656327041601 0.9976653450565569 -0.021106530797116194
 -0.00026158773328104344 -0.0026941336841537987 0.0002881894565590414 0.004270198499964481 0.9976653450565569 -0.021106530797116194 0.0020662637137803335 0.008587501822956563
0.050020842017509996 0.0022295537979399585 0.009874036732303868 0.9974488026300999 -0.024163788351889873 0.0003557389822920983 0.004882232946739675 -0.0003086697400979781 -0.0030838507510334576
 0.9974488026300999 -0.024163788351889873 0.0022318947311539615 0.009873827739183863 -0.0003083995182111449 -0.0030838432965227 0.00034132452741054417 0.004883807979222349
 0.0003557389822920983 0.004882232946739675 -0.0003083995182111449 -0.0030838432965227 0.0022297124926867447 0.009874690985230727 0.9974488145639616 -0.02416311999117724
 -0.0003086697400979781 -0.0030838507510334576 0.00034132452741054417 0.004883807979222349 0.9974488145639616 -0.02416311999117724 0.002231758933058597 0.009874504639432003
0.055454545454549996 0.002380111865595837 0.01100349518341744 0.9972508487632394 -0.02682932619301889 0.0004090412190458897 0.00541580956359437 -0.0003529522651128611 -0.003423337165187843
 0.9972508487632394 -0.02682932619301889 0.0023829876741043744 0.0110032526933367 -0.00035262119110991664 -0.0034233315083359505 0.0003913172066611662 0.005417736139684244
 0.0004090412190458897 0.00541580956359437 -0.00035262119110991664 -0.0034233315083359505 0.0023803065703448248 0.011004219218633916 0.9972508631741727 -0.02682858518295472
 -0.0003529522651128611 -0.003423337165187843 0.0003913172066611662 0.005417736139684244 0.9972508631741727 -0.02682858518295472 0.002382820496021719 0.011004003076974739
0.056273447269699996 0.002403389353876129 0.011174595774562883 0.9972202195540493 -0.02723178719974783 0.00041741420435201 0.005496273187981089 -0.0003598998634065604 -0.00347456334551699
 0.9972202195540493 -0.02723178719974783 0.0024063505278590865 0.011174348030407281 -0.0003595590960913609 -0.003474558016847172 0.0003991615426310803 0.005498256642566325
 0.00041741420435201 0.005496273187981089 -0.0003595590960913609 -0.003474558016847172 0.0024035898038790374 0.011175330296174662 0.9972202343588189 -0.027231035236353018
 -0.0003598998634065604 -0.00347456334551699 0.0003991615426310803 0.005498256642566325 0.9972202343588189 -0.027231035236353018 0.002406178337369554 0.011175109490428721
0.06252605252188 0.002586259066095193 0.012488556272223589 0.9969794168032554 -0.030311148115537766 0.0004843004266727266 0.0061110508514356995 -0.0004153327395234514 -0.0038662156733529954
 0.9969794168032554 -0.030311148115537766 0.002589913090464563 0.012488266592466055 -0.0004149134705816477 -0.0038662133699304438 0.00046175286244609377 0.006113503900753037
 0.0004843004266727266 0.0061110508514356995 -0.0004149134705816477 -0.0038662133699304438 0.0025865061279862654 0.0124893705773924 0.996979434792233 -0.03031031247867071
 -0.0004153327395234514 -0.0038662156733529954 0.00046175286244609377 0.006113503900753037 0.996979434792233 -0.03031031247867071 0.0025897001801726857 0.012489112640800704
0.06877865777407 0.0027783408125378645 0.013815736440054911 0.9967262239609254 -0.033401880492084556 0.0005564510118728176 0.006726518142923492 -0.00047502248524133303 -0.004258752278428826
 0.9967262239609254 -0.033401880492084556 0.002782760273617551 0.013815401530326739 -0.0004745168152962031 -0.004258753965948034 0.0005291504853004353 0.006729506354780627
 0.0005564510118728176 0.006726518142923492 -0.0004745168152962031 -0.004258753965948034 0.0027786393400116706 0.013816629988761488 0.996726245451591 -0.03340096110215485
 -0.00047502248524133303 -0.004258752278428826 0.0005291504853004353 0.006729506354780627 0.996726245451591 -0.03340096110215485 0.002782502312222437 0.013816332199472365
0.07503126302626001 0.002979812146422261 0.015155969661728136 0.9964604700124782 -0.036503973788720445 0.000633918915134415 0.007342624835459273 -0.0005390226874592133 -0.004652117600762973
 0.9964604700124782 -0.036503973788720445 0.0029850696175992564 0.015155586118484441 -0.0005384227729612846 -0.004652124311236581 0.0006014060092603769 0.0073462182287871115
 0.000633918915134415 0.007342624835459273 -0.0005384227729612846 -0.004652124311236581 0.0029801669875998958 0.01515694186924804 0.9964604953248154 -0.03650297054658528
 -0.0005390226874592133 -0.004652117600762973 0.0006014060092603769 0.0073462182287871115 0.9964604953248154 -0.03650297054658528 0.0029847622673267503 0.015156601455813632
0.08128386827845 0.0031908503438186154 0.016509100052079187 0.9961819834739202 -0.0396174019242607 0.0007167566408720861 0.007959318555865203 -0.0006073863877939611 -0.0050462556816097725
 0.9961819834739202 -0.0396174019242607 0.003197018395844002 0.016508664362959134 -0.0006066844403115379 -0.005046268513381231 0.0006785705963534968 0.007963591656802363
 0.0007167566408720861 0.007959318555865203 -0.0006066844403115379 -0.005046268513381231 0.00319126634271446 0.01651015027968676 0.9961820129323351 -0.03961631471993849
 -0.0006073863877939611 -0.0050462556816097725 0.0006785705963534968 0.007963591656802363 0.9961820129323351 -0.03961631471993849 0.0031966573138262964 0.016509764422333918
0.08753647353064001 0.0034116324304124548 0.017874979375634308 0.9958905924997373 -0.042742126314693416 0.0008050162027393823 0.008576544983353753 -0.0006801660637974561 -0.005441109957721305
 0.9958905924997373 -0.042742126314693416 0.0034187836411451824 0.01787448791960323 -0.0006793543494667414 -0.005441130075476295 0.0007606949388312119 0.008581576881332566
 0.0008050162027393823 0.008576544983353753 -0.0006793543494667414 -0.005441130075476295 0.003412114425311987 0.017876106929818242 0.9958906264324061 -0.042740955027531585
 -0.0006801660637974561 -0.005441109957721305 0.0007606949388312119 0.008581576881332566 0.9958906264324061 -0.042740955027531585 0.003418364478118587 0.017875672761415468
0.09378907878283 0.0036423351880552996 0.019253464855446517 0.9955861249731373 -0.045878098021501064 0.0008987490860692802 0.009194247989403864 -0.0007574136075602629 -0.005836623115467706
 0.9955861249731373 -0.045878098021501064 0.0036505421527092087 0.0192529139027607 -0.0007564844467627166 -0.0058366517502333945 0.0008478292265893626 0.009200122393149913
 0.0008987490860692802 0.009194247989403864 -0.0007564844467627166 -0.0058366517502333945 0.0036428880119131805 0.019254668990175933 0.9955861637127897 -0.04587684251738666
 -0.0007574136075602629 -0.005836623115467706 0.0008478292265893626 0.009200122393149913 0.9955861637127897 -0.04587684251738666 0.0036500605530936626 0.01925418359703583
0.100041684035 0.0038831351508075104 0.02064441755029695 0.9952684085865098 -0.049025259332964095 0.0009980062119347556 0.009812369739580506 -0.0008391803024309409 -0.006232736984213917
 0.9952684085865098 -0.049025259332964095 0.003892470491492975 0.020643803262147792 -0.0008381260694669226 -0.006232775433360535 0.0009400231154029552 0.009819175032980644
 0.0009980062119347556 0.009812369739580506 -0.0008381260694669226 -0.006232775433360535 0.003883763630265649 0.02064569746718319 0.9952684524707578 -0.04902391946350927
 -0.0008391803024309409 -0.006232736984213917 0.0009400231154029552 0.009819175032980644 0.9952684524707578 -0.04902391946350927 0.0038919220932352124 0.020645157889569037
0.1059090909091 0.004118440698341497 0.02196089646584919 0.9949580621698713 -0.0519886551576047 0.0010962175683504967 0.010392739338303023 -0.0009200649181634514 -0.0066049415364609326
 0.9949580621698713 -0.0519886551576047 0.0041289009821567375 0.02196021915514521 -0.0009188864306978314 -0.0066049904343869585 0.0010311826893744872 0.010400502770584852
 0.0010962175683504967 0.010392739338303023 -0.0009188864306978314 -0.0066049904343869585 0.004119144556534776 0.021962246718810634 0.9949581111936081 -0.05198723597681712
 -0.0009200649181634514 -0.0066049415364609326 0.0010311826893744872 0.010400502770584852 0.9949581111936081 -0.05198723597681712 0.004128285927060324 0.021961653562263487
0.1062942892872 0.0041342085910764355 0.022047701149365037 0.9949372709137757 -0.052183544928942185 0.0011028379019303693 0.010430850771191776 -0.0009255167983913953 -0.006629392455084752
 0.9949372709137757 -0.052183544928942185 0.004144744966965 0.02204701957738846 -0.0009243299213879592 -0.006629442082303898 0.001037325695393768 0.010438680068984902
 0.0011028379019303693 0.010430850771191776 -0.0009243299213879592 -0.006629442082303898 0.004134917546164169 0.022049055993111015 0.9949373202855027 -0.052182120535553045
 -0.0009255167983913953 -0.006629392455084752 0.001037325695393768 0.010438680068984902 0.9949373202855027 -0.052182120535553045 0.004144125400970195 0.022048459225604007
0.11254689453939999 0.004395731499434537 0.023463181035123837 0.9945925394784042 -0.055352882778915966 0.0012132938439842684 0.011049630050885929 -0.0010164730860562855 -0.007026529421084423
 0.9945925394784042 -0.055352882778915966 0.004407541616584303 0.02346242812061915 -0.0010151460468624863 -0.007026591656378414 0.0011397854599681425 0.011058581254081027
 0.0012132938439842684 0.011049630050885929 -0.0010151460468624863 -0.007026591656378414 0.004396525743154845 0.023464609897067282 0.9945925946860398 -0.05535137368874633
 -0.0010164730860562855 -0.007026529421084423 0.0011397854599681425 0.011058581254081027 0.9945925946860398 -0.05535137368874633 0.004406846506831609 0.02346395288864033
0.11879949979160001 0.004667879559045089 0.02489072355829923 0.9942340418165737 -0.05853319482934398 0.0013294230583690634 0.01166864502246877 -0.0011120984698511716 -0.007424086728282007
 0.9942340418165737 -0.05853319482934398 0.004681036180633257 0.02488989513116259 -0.001110623804083663 -0.00742416306793305 0.0012474502746468367 0.011678820873528731
 0.0013294230583690634 0.01166864502246877 -0.001110623804083663 -0.00742416306793305 0.004668763896487291 0.024892225471451625 0.9942341032143448 -0.05853160085959233
 -0.0011120984698511716 -0.007424086728282007 0.0012474502746468367 0.011678820873528731 0.9942341032143448 -0.05853160085959233 0.00468026114327489 0.02489150512531096
0.1250521050438 0.004950828115857777 0.026330195458650018 0.9938616055386037 -0.06172439754638982 0.0014512738640624022 0.012287831642589344 -0.0012124415403535576 -0.00782200214051474
 0.9938616055386037 -0.06172439754638982 0.004965404071834306 0.026329287236161233 -0.0012108118373718737 -0.007822094147053113 0.0013603673460385827 0.012299339780240946
 0.0014512738640624022 0.012287831642589344 -0.0012108118373718737 -0.007822094147053113 0.0049518073439330105 0.026331769403105883 0.9938616734870432 -0.061722718498533904
 -0.0012124415403535576 -0.00782200214051474 0.0013603673460385827 0.012299339780240946 0.9938616734870432 -0.061722718498533904 0.00496454471579563 0.026330982576261534
0.131304710296 0.005244752145249858 0.027781463403854303 0.9934750583873037 -0.0649264023422152 0.0015788938454835027 0.012907124411243587 -0.0013175501456684853 -0.008220212310636799
 0.9934750583873037 -0.0649264023422152 0.005260820342867779 0.027780470989083244 -0.0013157580487513738 -0.008220321612798022 0.001478583190805459 0.012920077424964507
 0.0015788938454835027 0.012907124411243587 -0.0013157580487513738 -0.008220321612798022 0.005245831051835685 0.02778310829996916 0.9934751332536683 -0.06492463800826333
 -0.0013175501456684853 -0.008220212310636799 0.001478583190805459 0.012920077424964507 0.9934751332536683 -0.06492463800826333 0.005259872268944353 0.027782251802552314
0.1375573155481 0.005473942496653639 0.029054079895963224 0.9931501267050387 -0.06794876432314179 0.0016943212040456583 0.013506556838242843 -0.0014095880306998082 -0.00859868180776681
 0.9931501267050387 -0.06794876432314179 0.005491580892339775 0.029053019095585803 -0.0014076227652545085 -0.008598808139949137 0.0015843795253773624 0.01352091438428526
 0.0016943212040456583 0.013506556838242843 -0.0014076227652545085 -0.008598808139949137 0.005475125479498285 0.029055794629614374 0.993150208800846 -0.06794691458183183
 -0.0014095880306998082 -0.00859868180776681 0.0015843795253773624 0.01352091438428526 0.993150208800846 -0.06794691458183183 0.005490540187102324 0.029054885690213333
0.1438099208003 0.005710869924907212 0.030321291879338956 0.9928143306959303 -0.07096479226178364 0.0018144212387650668 0.014104326995754783 -0.0015053184579873356 -0.008975673801764587
 0.9928143306959303 -0.07096479226178364 0.005730152324996042 0.030320159567630612 -0.0015031721283923398 -0.0089758187244753 0.001694420766435477 0.014120189785509956
 0.0018144212387650668 0.014104326995754783 -0.0015031721283923398 -0.0089758187244753 0.005712161688448976 0.03032307532296882 0.99281442038691 -0.07096285690741518
 -0.0015053184579873356 -0.008975673801764587 0.001694420766435477 0.014120189785509956 0.99281442038691 -0.07096285690741518 0.005729014666251584 0.03032211208108096
0.1500625260525 0.00595546609135064 0.031583032529703556 0.9924677411962542 -0.07397445112160964 0.0019391624096710479 0.01470039900410366 -0.001604711603390065 -0.009351154851140972
 0.9924677411962542 -0.07397445112160964 0.005976466412659769 0.03158182540367799 -0.0016023763242713053 -0.009351319986646903 0.0018086772058853082 0.014717871359121556
 0.0019391624096710479 0.01470039900410366 -0.0016023763242713053 -0.009351319986646903 0.005956871327161747 0.0315848835107966 0.9924678388535012 -0.07397242993922049
 -0.001604711603390065 -0.009351154851140972 0.0018086772058853082 0.014717871359121556 0.9924678388535012 -0.07397242993922049 0.0059752274761083685 0.0315838639799331
0.15631513130469998 0.006207662344763651 0.032839237303955306 0.9921104292088669 -0.07697770526988652 0.0020685129132947404 0.01529473742883522 -0.001707737373411747 -0.009725092131168083
