! Created with skrf 1.8.0 (http://scikit-rf.org).
# GHz S RI R 50.0 
!freq ReS11 ImS11 ReS12 ImS12 ReS13 ImS13
! ReS14 ImS14
! ReS21 ImS21 ReS22 ImS22 ReS23 ImS23
! ReS24 ImS24
! ReS31 ImS31 ReS32 ImS32 ReS33 ImS33
! ReS34 ImS34
! ReS41 ImS41 ReS42 ImS42 ReS43 ImS43
! ReS44 ImS44
!
0.0 0.001342312787357 0.0 0.9986576871927 0.0 5.125884922062e-05 0.0 -5.125884975334e-05 6.277398627840293e-21
 0.9986576871927 0.0 0.001342312787367 0.0 -5.125884975388e-05 6.277398627906424e-21 5.125884922078e-05 0.0
 5.125884922062e-05 0.0 -5.125884975388e-05 6.277398627906424e-21 0.001342312797324 0.0 0.9986576872027 0.0
 -5.125884975334e-05 6.277398627840293e-21 5.125884922078e-05 0.0 0.9986576872027 0.0 0.001342312797299 0.0
0.005 0.0014436648097409237 0.0011018819197851164 0.9985295617364404 -0.002812189622029906 7.10035023046536e-05 0.0005447173858876388 -6.913561691902848e-05 -0.00034550032379957623
 0.9985295617364404 -0.002812189622029906 0.0014436703530478821 0.001101878710240877 -6.913711830633483e-05 -0.0003455015081342217 7.096535737131583e-05 0.0005447319124669983
 7.10035023046536e-05 0.0005447173858876388 -6.913711830633483e-05 -0.0003455015081342217 0.0014436635314949387 0.001101815444589991 0.9985295613936778 -0.0028122566807966543
 -6.913561691902848e-05 -0.00034550032379957623 7.096535737131583e-05 0.0005447319124669983 0.9985295613936778 -0.0028122566807966543 0.0014436709486688858 0.0011018110696819454
0.006252605252188 0.0014700940620876318 0.0013816925748031026 0.9984959665697074 -0.0035159470515867095 7.655630380281585e-05 0.000681179614264502 -7.41096115035887e-05 -0.0004323260948313788
 0.9984959665697074 -0.0035159470515867095 0.0014701027269200149 0.0013816884843199204 -7.411194756741304e-05 -0.00043232755613105894 7.649670540964344e-05 0.0006811984632438878
 7.655630380281585e-05 0.000681179614264502 -7.411194756741304e-05 -0.00043232755613105894 0.001470092141007391 0.0013816094866052433 0.998495966111342 -0.0035160308745185486
 -7.41096115035887e-05 -0.0004323260948313788 7.649670540964344e-05 0.0006811984632438878 0.998495966111342 -0.0035160308745185486 0.0014701037358314751 0.0013816039308151248
0.01250521050438 0.0016083366740651593 0.002792429431093827 0.9983192078092344 -0.007032823475177401 0.00010793502228850057 0.001362831731238645 -0.00010193807133914339 -0.0008668229374688654
 0.9983192078092344 -0.007032823475177401 0.0016083712674364555 0.002792420463611696 -0.00010194727514827007 -0.0008668256527381113 0.00010769734902531026 0.0013628768201046954
 0.00010793502228850057 0.001362831731238645 -0.00010194727514827007 -0.0008668256527381113 0.0016083295602529188 0.00279226357192987 0.9983192065408725 -0.0070329908707801765
 -0.00010193807133914339 -0.0008668229374688654 0.00010769734902531026 0.0013628768201046954 0.9983192065408725 -0.0070329908707801765 0.0016083758643913309 0.0027922515723239096
0.01875781575657 0.0017573108764610383 0.0042234088890055295 0.9981272137407458 -0.01055921724326271 0.00014546327603554747 0.002045409278224252 -0.00013482281042636655 -0.0013029118943158374
 0.9981272137407458 -0.01055921724326271 0.0017573885981241385 0.004223394218087911 -0.00013484333229632581 -0.0013029156217381642 0.00014492934747692968 0.002045489302610876
 0.00014546327603554747 0.002045409278224252 -0.00013484333229632581 -0.0013029156217381642 0.0017572953054194448 0.004223160454279463 0.9981272113132574 -0.010559468123515239
 -0.00013482281042636655 -0.0013029118943158374 0.00014492934747692968 0.002045489302610876 0.9981272113132574 -0.010559468123515239 0.0017573993643036465 0.004223141034971817
0.02501042100875 0.001917280606817698 0.005672668845963704 0.997919780298232 -0.01409686970225478 0.00018921028810984185 0.0027289552821520625 -0.00017284048178215007 -0.0017404205297236932
 0.997919780298232 -0.01409686970225478 0.0019174186145099375 0.005672647610776537 -0.00017287671834700073 -0.001740424988390612 0.00018826186028417742 0.002729080188653966
 0.00018921028810984185 0.0027289552821520625 -0.00017287671834700073 -0.001740424988390612 0.0019172533139732734 0.005672338030177728 0.9979197763615054 -0.014097204019375432
 -0.00017284048178215007 -0.0017404205297236932 0.00018826186028417742 0.002729080188653966 0.9979197763615054 -0.014097204019375432 0.001917438132848576 0.005672310135388754
0.03126302626094 0.0020884987337734307 0.007139216189317215 0.9976966919141009 -0.017646546129164623 0.00023924589554372201 0.0034134530158893353 -0.0002160659448292737 -0.0021792324294575846
 0.9976966919141009 -0.017646546129164623 0.0020887141518618046 0.007139187495955043 -0.0002161222483405611 -0.002179237298785666 0.00023776454762175598 0.0034136340083472396
 0.00023924589554372201 0.0034134530158893353 -0.0002161222483405611 -0.002179237298785666 0.002088456454128068 0.007138803211966442 0.9976966861172148 -0.017646963849988803
 -0.0002160659448292737 -0.0021792324294575846 0.00023776454762175598 0.0034136340083472396 0.9976966861172148 -0.017646963849988803 0.002088745009289698 0.0071387657071434385
0.037515631513130004 0.0022712128459145414 0.008622415968052822 0.9974577274376698 -0.021208646506230364 0.00029563990089437184 0.004098862361541676 -0.0002645727978783047 -0.002619250826486931
 0.9974577274376698 -0.021208646506230364 0.00227152277111706 0.008622378890319263 -0.00026465348102600305 -0.002619255746035351 0.0002935069824806967 0.004099111913457197
 0.00029563990089437184 0.004098862361541676 -0.00026465348102600305 -0.002619255746035351 0.0022711523141623266 0.008621921075485586 0.9974577194293076 -0.021209147610666345
 -0.0002645727978783047 -0.002619250826486931 0.0002935069824806967 0.004099111913457197 0.9974577194293076 -0.021209147610666345 0.002271567559766702 0.008621872747693925
0.043768236765320004 0.002465667499768476 0.010121805527775314 0.9972026625137465 -0.024783391325184853 0.00035846177859260155 0.0047851308732335 -0.00031843357083134006 -0.0030603875278028985
 0.9972026625137465 -0.024783391325184853 0.002466089005549606 0.010121759107839842 -0.00031854290962941823 -0.0030603920972240013 0.00035555838311300477 0.004785462742066822
 0.00035846177859260155 0.0047851308732335 -0.00031854290962941823 -0.0030603920972240013 0.002465585450940853 0.01012122898850823 0.9972026519429101 -0.024783975811430256
 -0.00031843357083134006 -0.0030603875278028985 0.00035555838311300477 0.004785462742066822 0.9972026519429101 -0.024783975811430256 0.002466150324072496 0.010121168546467097
0.050020842017509996 0.0026721052649389208 0.011637017672517314 0.9969312707616337 -0.028370898362650294 0.00042778050152986 0.005472198337712815 -0.0003777198021239421 -0.003502558344330525
 0.9969312707616337 -0.028370898362650294 0.0026726554055117916 0.011636960921414991 -0.0003778620378074533 -0.0035025621233488007 0.0004239874533047062 0.00547262757996304
 0.00042778050152986 0.005472198337712815 -0.0003778620378074533 -0.0035025621233488007 0.0026719984326432264 0.011636359793591558 0.9969312572753856 -0.028371566231279635
 -0.0003777198021239421 -0.003502558344330525 0.0004239874533047062 0.00547262757996304 0.9969312572753856 -0.028371566231279635 0.002672735857539549 0.011636285867535458
0.055454545454549996 0.002861424996911618 0.012966391459523822 0.9966819868905922 -0.03149895730670466 0.0004933499072992923 0.006069878686627201 -0.0004337023028591316 -0.0038875939699521272
 0.9966819868905922 -0.03149895730670466 0.002862100762726209 0.01296632490336253 -0.0004338765453552692 -0.0038875966735297724 0.0004886867259509207 0.006070405797570202
 0.0004933499072992923 0.006069878686627201 -0.0004338765453552692 -0.0038875966735297724 0.0028612939740553776 0.012965663165803738 0.9966819705831652 -0.031499697647299485
 -0.0004337023028591316 -0.0038875939699521272 0.0004886867259509207 0.006070405797570202 0.9966819705831652 -0.031499697647299485 0.002862199961193402 0.01296557634819109
0.056273447269699996 0.0028907672745312144 0.013167742968251985 0.9966433244608374 -0.031971220313613866 0.0005036644211310534 0.006159999013705529 -0.0004425020634184782 -0.0039456808434288684
 0.9966433244608374 -0.031971220313613866 0.00289146308821885 0.013167674866381669 -0.0004426814037935064 -0.003945683351854449 0.0004988622705572353 0.0061605420003682295
 0.0005036644211310534 0.006159999013705529 -0.0004426814037935064 -0.003945683351854449 0.0028906323919773787 0.01316700408528527 0.9966433077048953 -0.03197197157801241
 -0.0004425020634184782 -0.0039456808434288684 0.0004988622705572353 0.0061605420003682295 0.9966433077048953 -0.03197197157801241 0.002891565283070699 0.01316691522675739
0.06252605252188 0.0031218935283328256 0.014713709009453874 0.9963385949923296 -0.03558436546283039 0.0005861811745500455 0.006848462855389375 -0.0005128499571175073 -0.004389673118982138
 0.9963385949923296 -0.03558436546283039 0.0031227520405984204 0.014713628506917547 -0.0005130705773965459 -0.004389673836725143 0.0005802501988430987 0.0068491372875830086
 0.0005861811745500455 0.006848462855389375 -0.0005130705773965459 -0.004389673836725143 0.003121727328539612 0.0147128894945684 0.9963385746114175 -0.03558520014181516
 -0.0005128499571175073 -0.004389673118982138 0.0005802501988430987 0.0068491372875830086 0.9963385746114175 -0.03558520014181516 0.0031228785942488493 0.014712784176068246
0.06877865777407 0.0033657230634430153 0.0162746680581926 0.9960168531508663 -0.03921030998514542 0.0006753976051738703 0.007537516248977923 -0.0005888320999845477 -0.004834453050289236
 0.9960168531508663 -0.03921030998514542 0.003366761290203864 0.016274574075068316 -0.0005890981434970892 -0.00483445141737841 0.0006682178128481941 0.007538341173615716
 0.0006753976051738703 0.007537516248977923 -0.0005890981434970892 -0.00483445141737841 0.0033655222792867254 0.016273768316121342 0.9960168287877423 -0.03921122810726122
 -0.0005888320999845477 -0.004834453050289236 0.0006682178128481941 0.007538341173615716 0.9960168287877423 -0.03921122810726122 0.003366914824695571 0.01627364493072702
0.07503126302626001 0.0036224940470174567 0.01785038920599369 0.9956778693802274 -0.04284900572489624 0.0007713796949603041 0.008227082464616486 -0.0006705160941539457 -0.005279937847705296
 0.9956778693802274 -0.04284900572489624 0.00362372899750538 0.017850280632560455 -0.0006708316728040802 -0.005279933264322205 0.0007628308331957101 0.008228078290076534
 0.0007713796949603041 0.008227082464616486 -0.0006708316728040802 -0.005279933264322205 0.003622255411204704 0.01784940968001063 0.9956778406755546 -0.04285000732303246
 -0.0006705160941539457 -0.005279937847705296 0.0007628308331957101 0.008228078290076534 0.9956778406755546 -0.04285000732303246 0.0036239121410294828 0.01784926654081066
0.08128386827845 0.003892443818646544 0.019440653156108326 0.9953214139627836 -0.046500385357067686 0.0008741924983379459 0.00891708197760998 -0.0007579684956658066 -0.005726043731145476
 0.9953214139627836 -0.046500385357067686 0.003893892498559676 0.01944052885294968 -0.0007583376902837972 -0.005726035557653234 0.0008641540624661132 0.008918270489338551
 0.0008741924983379459 0.00891708197760998 -0.0007583376902837972 -0.005726035557653234 0.003892164064915748 0.019439594324193836 0.9953213805553494 -0.046501470472718326
 -0.0007579684956658066 -0.005726043731145476 0.0008641540624661132 0.008918270489338551 0.9953213805553494 -0.046501470472718326 0.0038941078861344717 0.01943942966375547
0.08753647353064001 0.004175808902198464 0.02104524861538648 0.9949472571787511 -0.05016436594110214 0.0009839000828165319 0.009607432670508642 -0.0008512547752938316 -0.006172685730049801
 0.9949472571787511 -0.05016436594110214 0.004177488316572887 0.021045107413434176 -0.0008516816358595386 -0.006172673287032867 0.000972251327586469 0.009608837046538563
 0.0009839000828165319 0.009607432670508642 -0.0008516816358595386 -0.006172673287032867 0.004175484764716479 0.02104411099345503 0.9949472187047607 -0.0501655346216891
 -0.0008512547752938316 -0.006172685730049801 0.000972251327586469 0.009608837046538563 0.9949472187047607 -0.0501655346216891 0.004177738589388243 0.02104392296310287
0.09378907878283 0.004472824993511053 0.022663969714466985 0.9945551694458051 -0.05384085144911478 0.001100565469352242 0.010298049994309515 -0.0009504392786265401 -0.00661977752662303
 0.9945551694458051 -0.05384085144911478 0.00447475214955078 0.02266381041498625 -0.0009509278243939815 -0.006619760094928776 0.0010871854216760724 0.010299694820643737
 0.001100565469352242 0.010298049994309515 -0.0009509278243939815 -0.006619760094928776 0.004472453207710542 0.02266275385457108 0.9945551255388594 -0.053842103750193236
 -0.0009504392786265401 -0.00661977752662303 0.0010871854216760724 0.010299694820643737 0.9945551255388594 -0.053842103750193236 0.004475039955676365 0.022662540523636136
0.100041684035 0.004783726933458386 0.02429661411314378 0.9941449214453564 -0.05752973461143794 0.0012242505755468323 0.01098884707941791 -0.0010555851823430748 -0.007067231351790068
 0.9941449214453564 -0.05752973461143794 0.004785918843749315 0.024296435487560837 -0.0010561394019683234 -0.0070672081725690035 0.0012090180484128897 0.010990758365306498
 0.0012242505755468323 0.01098884707941791 -0.0010561394019683234 -0.0070672081725690035 0.004783304236283592 0.024295320606913855 0.9941448717361903 -0.057531070593717336
 -0.0010555851823430748 -0.007067231351790068 0.0012090180484128897 0.010990758365306498 0.9941448717361903 -0.057531070593717336 0.004786246837572659 0.024295079961907013
0.1059090909091 0.005088312864677409 0.02584116241614098 0.9937432267046181 -0.06100253151768121 0.0013467544249056 0.011637171024657923 -0.0011597305006080466 -0.0074873690437298164
 0.9937432267046181 -0.06100253151768121 0.005090768698832234 0.025840964510950602 -0.0011603499485741823 -0.007487339745585656 0.001329673146755617 0.011639357290721273
 0.0013467544249056 0.011637171024657923 -0.0011603499485741823 -0.007487339745585656 0.005087839426773012 0.025839796618734007 0.9937431712120363 -0.06100394608772815
 -0.0011597305006080466 -0.0074873690437298164 0.001329673146755617 0.011639357290721273 0.9937431712120363 -0.06100394608772815 0.005091136824833768 0.025839528436495292
0.1062942892872 0.005108748667891987 0.02594298157731892 0.9937162842385051 -0.061230898293501715 0.0013550161595182219 0.011679734823143002 -0.0011667544488496897 -0.007514957907237541
 0.9937162842385051 -0.061230898293501715 0.0051112223532470535 0.02594278236705478 -0.001167378300393456 -0.007514928182000438 0.0013378097671066648 0.011681940016102737
 0.0013550161595182219 0.011679734823143002 -0.001167378300393456 -0.007514928182000438 0.005108271798393639 0.025941611054540802 0.9937162283547822 -0.061232318024705766
 -0.0011667544488496897 -0.007514957907237541 0.0013378097671066648 0.011681940016102737 0.9937162283547822 -0.061232318024705766 0.0051115931961016525 0.025941340998180462
0.11254689453939999 0.005448123199968601 0.02760287288644924 0.9932690293766118 -0.06494421654513301 0.0014929217638580744 0.01237062196095492 -0.001284007780019064 -0.007962866306217928
 0.9932690293766118 -0.06494421654513301 0.005450895692374281 0.027602651802552527 -0.0012847051909379628 -0.007962829196880806 0.0014736199374573984 0.01237314996173509
 0.0014929217638580744 0.01237062196095492 -0.0012847051909379628 -0.007962829196880806 0.00544758889948214 0.02760142601459603 0.9932689669425468 -0.06494572010092238
 -0.001284007780019064 -0.007962866306217928 0.0014736199374573984 0.01237314996173509 0.9932689669425468 -0.06494572010092238 0.005451312052176316 0.027601124364797447
0.11879949979160001 0.005802082533918357 0.0292760889819082 0.9928029290058021 -0.0686695554120203 0.0016380256605873639 0.013061415121465181 -0.001407404568935271 -0.008410864033507466
 0.9928029290058021 -0.0686695554120203 0.005805170879724644 0.029275844704658476 -0.001408179436039157 -0.008410818662458268 0.0016165066655282037 0.013064296298673566
 0.0016380256605873639 0.013061415121465181 -0.001408179436039157 -0.008410818662458268 0.005801487546837079 0.02927456647032767 0.9928028596420888 -0.06867114287221189
 -0.001407404568935271 -0.008410864033507466 0.0016165066655282037 0.013064296298673566 0.9928028596420888 -0.06867114287221189 0.0058056354312972435 0.029274230959053224
0.1250521050438 0.0061708576147524756 0.030962430291927037 0.9923177559692008 -0.07240677357379133 0.0017903847959720206 0.013752018875461196 -0.0015370028511652752 -0.00885885691389946
 0.9923177559692008 -0.07240677357379133 0.006174278877537772 0.03096216147036059 -0.0015378590405030336 -0.008858802364060836 0.0017665267492064764 0.013755285080095197
 0.0017903847959720206 0.013752018875461196 -0.0015378590405030336 -0.008858802364060836 0.006170198688623658 0.03096083288943805 0.9923176792929311 -0.07240844502517393
 -0.0015370028511652752 -0.00885885691389946 0.0017665267492064764 0.013755285080095197 0.9923176792929311 -0.07240844502517393 0.006174794302499745 0.030960461161474967
0.131304710296 0.006554678261857387 0.03266169619485398 0.99181328390632 -0.07615572284704833 0.0019500547356932037 0.014442335776509604 -0.0016728592547659224 -0.009306749092120531
 0.99181328390632 -0.07615572284704833 0.006558449525650836 0.03266140144609943 -0.001673800601577365 -0.009306684407013063 0.0019237356241870057 0.014446020356165813
 0.0019500547356932037 0.014442335776509604 -0.001673800601577365 -0.009306684407013063 0.006553952148240956 0.032660024689066536 0.9918131995302818 -0.07615747838446135
 -0.0016728592547659224 -0.009306749092120531 0.0019237356241870057 0.014446020356165813 0.9918131995302818 -0.07615747838446135 0.006559018512410688 0.0326596143007281
0.1375573155481 0.006860821030501253 0.034152627203671015 0.9913822668757166 -0.07969511786732045 0.002095627568600034 0.015109919230694971 -0.0017935985339928328 -0.009732083813905619
 0.9913822668757166 -0.07969511786732045 0.006864961338354361 0.03415231277152812 -0.001794630777468138 -0.009732009017392738 0.002066786095632883 0.015114014149071885
 0.002095627568600034 0.015109919230694971 -0.001794630777468138 -0.009732009017392738 0.006860025108500161 0.034150882179736414 0.9913821744512811 -0.07969695752363903
 -0.0017935985339928328 -0.009732083813905619 0.002066786095632883 0.015114014149071885 0.9913821744512811 -0.07969695752363903 0.006865585877973188 0.03415043861482806
0.1438099208003 0.007177574620474565 0.03563654975089122 0.9909363976631951 -0.08322638003121738 0.002247080943123808 0.015775245222415697 -0.0019191736545579228 -0.010155350906819873
 0.9909363976631951 -0.08322638003121738 0.0071821013990625735 0.03563621476206976 -0.0019203009286022324 -0.010155265066485338 0.002215605902600577 0.015779780710977378
 0.002247080943123808 0.015775245222415697 -0.0019203009286022324 -0.010155265066485338 0.00717670575995469 0.03563473200478899 0.9909362968056322 -0.08322830389283262
 -0.0019191736545579228 -0.010155350906819873 0.002215605902600577 0.015779780710977378 0.9909362968056322 -0.08322830389283262 0.007182784063242226 0.035634253329002434
0.1500625260525 0.007504838361869444 0.037113364575876405 0.9904757802114122 -0.08674944663845106 0.0024043688335956197 0.016438260871708316 -0.002049540001672492 -0.010576499982399784
 0.9904757802114122 -0.08674944663845106 0.0075097690723606005 0.03711300810271101 -0.002050766433518628 -0.01057640212854595 0.0023701496028144297 0.01644326825601044
 0.0024043688335956197 0.016438260871708316 -0.002050766433518628 -0.01057640212854595 0.007503893443258823 0.03711147493203989 0.9904756705325599 -0.08675145479822528
 -0.002049540001672492 -0.010576499982399784 0.0023701496028144297 0.01644326825601044 0.9904756705325599 -0.08675145479822528 0.00751051243127754 0.03711095911445716
0.15631513130469998 0.007842511000437275 0.038582975537039876 0.990000518846355 -0.09026425473356647 0.0025674447450202086 0.01709891408855698 -0.002184652480428249 -0.010995481633663482
