! Created with skrf 1.8.0 (http://scikit-rf.org).
# GHz S RI R 50.0 
!freq ReS11 ImS11 ReS12 ImS12 ReS13 ImS13
! ReS14 ImS14
! ReS21 ImS21 ReS22 ImS22 ReS23 ImS23
! ReS24 ImS24
! ReS31 ImS31 ReS32 ImS32 ReS33 ImS33
! ReS34 ImS34
! ReS41 ImS41 ReS42 ImS42 ReS43 ImS43
! ReS44 ImS44
!
0.0 0.001822969334222 0.0 0.9981770306658 0.0 7.101356075729e-05 0.0 -7.101356064016e-05 8.69665297340284e-21
 0.9981770306658 0.0 0.001822969334238 0.0 -7.101356064089e-05 8.69665297349224e-21 7.101356075683e-05 0.0
 7.101356075729e-05 0.0 -7.101356064089e-05 8.69665297349224e-21 0.00182296932304 0.0 0.9981770306546 0.0
 -7.101356064016e-05 8.69665297340284e-21 7.101356075683e-05 0.0 0.9981770306546 0.0 0.001822969323015 0.0
0.005 0.001962355978269298 0.0014861635035953384 0.9980004983408115 -0.003817840027840619 0.0001007886608929105 0.0008085441661867176 -9.758821765560765e-05 -0.0005027760141964676
 0.9980004983408115 -0.003817840027840619 0.0019623803088468037 0.001486149342309065 -9.758618104756558e-05 -0.0005027745644944262 0.00010064859640116781 0.0008085977123545143
 0.0001007886608929105 0.0008085441661867176 -9.758618104756558e-05 -0.0005027745644944262 0.0019623560887347354 0.0014860962284721957 0.9980004979584459 -0.0038179070944092544
 -9.758821765560765e-05 -0.0005027760141964676 0.00010064859640116781 0.0008085977123545143 0.9980004979584459 -0.0038179070944092544 0.0019623794453155993 0.001486082496440761
0.006252605252188 0.0019991960205396225 0.0018635306551850733 0.9979534962396199 -0.004773189471005842 0.00010947392025407992 0.0010110395392248662 -0.00010523079583934293 -0.0006291081128417563
 0.9979534962396199 -0.004773189471005842 0.001999234052821014 0.0018635126461972833 -0.00010522762583070546 -0.0006291063285858517 0.00010925508718995469 0.0010111091002329375
 0.00010947392025407992 0.0010110395392248662 -0.00010522762583070546 -0.0006291063285858517 0.001999196263543373 0.0018634465856821707 0.9979534957125894 -0.004773273294419282
 -0.00010523079583934293 -0.0006291081128417563 0.00010925508718995469 0.0010111091002329375 0.9979534957125894 -0.004773273294419282 0.0019992327745037442 0.0018634290955939173
0.01250521050438 0.0021947780041453482 0.0037658266443273054 0.9977020805846755 -0.009546861475355597 0.00016022372237691664 0.0020222050855402437 -0.00014934231470830806 -0.0012610935174240015
 0.9977020805846755 -0.009546861475355597 0.002194929856903441 0.0037657875098967425 -0.00014932981167867178 -0.0012610902602505178 0.00015935117750653347 0.002022372905376356
 0.00016022372237691664 0.0020222050855402437 -0.00014932981167867178 -0.0012610902602505178 0.0021947795335390814 0.003765658915097417 0.997702079044049 -0.009547028895180732
 -0.00014934231470830806 -0.0012610935174240015 0.00015935117750653347 0.002022372905376356 0.997702079044049 -0.009547028895180732 0.0021949253318297225 0.003765620644858734
0.01875781575657 0.0024102016090888465 0.005694810470325501 0.9974224296380222 -0.01433256663919534 0.00022338778685369146 0.0030341512538909427 -0.00020349669120875292 -0.001894963784713507
 0.9974224296380222 -0.01433256663919534 0.0024105428105299503 0.005694746833208744 -0.0002034687955063949 -0.0018949594402111348 0.00022142797776741606 0.0030344524249773194
 0.00022338778685369146 0.0030341512538909427 -0.0002034687955063949 -0.0018949594402111348 0.0024102054597644083 0.005694559394360337 0.9974224265964057 -0.014332817616382347
 -0.00020349669120875292 -0.001894963784713507 0.00022142797776741606 0.0030344524249773194 0.9974224265964057 -0.014332817616382347 0.002410533097135178 0.005694496802805502
0.02501042100875 0.002645934988841302 0.007647695918805943 0.9971141739165519 -0.019132546898114385 0.00029909279510779275 0.00404687333485703 -0.0002678361206941581 -0.0025303762104580733
 0.9971141739165519 -0.019132546898114385 0.0026465409085435422 0.007647604164992129 -0.0002677868417677654 -0.002530371244175597 0.00029561220346716694 0.004047349153935532
 0.00029909279510779275 0.00404687333485703 -0.0002677868417677654 -0.002530371244175597 0.0026459421890007427 0.007647361840052657 0.9971141688809959 -0.01913288145519368
 -0.0002678361206941581 -0.0025303762104580733 0.00029561220346716694 0.004047349153935532 0.9971141688809959 -0.01913288145519368 0.002646524086421384 0.007647271156549682
0.03126302626094 0.002902426656295394 0.009623009651650728 0.9967769274924125 -0.023947713912180917 0.00038746525230874554 0.0050602689448727345 -0.0003424976790093191 -0.0031670761278496566
 0.9967769274924125 -0.023947713912180917 0.0029033725502672224 0.009622885934317938 -0.0003424210841974624 -0.003167071086024851 0.00038203001035310287 0.005060966948999263
 0.00038746525230874554 0.0050602689448727345 -0.0003424210841974624 -0.003167071086024851 0.0029024382299964904 0.009622592964540657 0.9967769199629871 -0.023948132114133706
 -0.0003424976790093191 -0.0031670761278496566 0.00038203001035310287 0.005060966948999263 0.9967769199629871 -0.023948132114133706 0.002903346719908782 0.009622470192594186
0.037515631513130004 0.0031801144782005464 0.011619761122080897 0.9964102974172127 -0.02877847910359759 0.0004886300601786743 0.006074196403003753 -0.00042761432571825704 -0.0038048385723830915
 0.9964102974172127 -0.02877847910359759 0.0031814755205098934 0.011619601362904946 -0.00042750453484998797 -0.0038048340822119456 0.0004808057916892053 0.006075170429100618
 0.0004886300601786743 0.006074196403003753 -0.00042750453484998797 -0.0038048340822119456 0.0031801314524473436 0.011619262271650449 0.9964102868902133 -0.028778981058065187
 -0.00042761432571825704 -0.0038048385723830915 0.0004808057916892053 0.006075170429100618 0.9964102868902133 -0.028778981058065187 0.003181438807898283 0.011619103190081045
0.043768236765320004 0.003479429131302634 0.013637189968901018 0.9960138876125607 -0.033625006203296254 0.0006027098313564572 0.007088492492118679 -0.0005233152294721915 -0.004443450570452489
 0.9960138876125607 -0.033625006203296254 0.003481280440245647 0.013636989858031506 -0.000523166411813925 -0.004443447340207793 0.0005920615896271282 0.00708980274377745
 0.0006027098313564572 0.007088492492118679 -0.000523166411813925 -0.004443447340207793 0.003479452534988375 0.013636609457994608 0.9960138735755015 -0.033625592053539106
 -0.0005233152294721915 -0.004443450570452489 0.0005920615896271282 0.00708980274377745 0.9960138735755015 -0.033625592053539106 0.00348123099425907 0.013636409620988806
0.050020842017509996 0.0038007956780777333 0.015674661623729953 0.9955873008860698 -0.03848731558482681 0.0007298244564527155 0.00810297982390158 -0.0006297258618104941 -0.005082703831914117
 0.9955873008860698 -0.03848731558482681 0.003803212339370794 0.015674416618891428 -0.000629532234300124 -0.005082702651017656 0.0007159167133538621 0.008104692940914385
 0.0007298244564527155 0.00810297982390158 -0.000629532234300124 -0.005082702651017656 0.0038008265430078962 0.01567400001567233 0.9955872828156929 -0.03848798550722167
 -0.0006297258618104941 -0.005082703831914117 0.0007159167133538621 0.008104692940914385 0.9955872828156929 -0.03848798550722167 0.003803148331496616 0.015673754751915524
0.055454545454549996 0.0040983082597454 0.017461127223706747 0.9951917683276984 -0.04272557287357078 0.000850967647799593 0.008984609629266395 -0.0007309921931887129 -0.0056385941887814985
 0.9951917683276984 -0.04272557287357078 0.004101277199098137 0.01746083933399151 -0.000730754964312873 -0.005638595492995744 0.0008338731606326989 0.008986732019900445
 0.000850967647799593 0.008984609629266395 -0.000730754964312873 -0.005638595492995744 0.004098346452606738 0.017460395641206827 0.9951917463193759 -0.042726316029100625
 -0.0007309921931887129 -0.0056385941887814985 0.0008338731606326989 0.008986732019900445 0.9951917463193759 -0.042726316029100625 0.004101199071439812 0.017460106930286476
0.056273447269699996 0.004144634339464434 0.01773161610115926 0.9951301401510417 -0.043365335421193786 0.000870090788807601 0.009117470460352103 -0.000746967980995245 -0.00572239119488163
 0.9951301401510417 -0.043365335421193786 0.004147691427892676 0.01773132142596643 -0.0007467238072916455 -0.00572239293394754 0.0008524874552461013 0.009119659589251115
 0.000870090788807601 0.009117470460352103 -0.0007467238072916455 -0.00572239293394754 0.004144673705172256 0.017730874016171842 0.9951301175139374 -0.043366089628718595
 -0.000746967980995245 -0.00572239119488163 0.0008524874552461013 0.009119659589251115 0.9951301175139374 -0.043366089628718595 0.004147611055354481 0.017730578427313765
0.06252605252188 0.004511360882742123 0.019807539829169055 0.9946420092670777 -0.04825892980962375 0.0010236223852275585 0.010131767928637821 -0.0008751595631296791 -0.006362304686766542
 0.9946420092670777 -0.04825892980962375 0.004515133483341588 0.01980719047050202 -0.0008748591530793081 -0.006362310297614382 0.001001886852610322 0.010134512793233602
 0.0010236223852275585 0.010131767928637821 -0.0008748591530793081 -0.006362310297614382 0.004511409797621203 0.019806717949001223 0.9946419815176122 -0.04825976854726215
 -0.0008751595631296791 -0.006362304686766542 0.001001886852610322 0.010134512793233602 0.9946419815176122 -0.04825976854726215 0.0045150349692761734 0.019806366907263062
0.06877865777407 0.004901386789175374 0.021901948890258708 0.9941225136663503 -0.05316791549549209 0.001190529278478037 0.01114566843695926 -0.0010144147028023859 -0.007002234394353725
 0.9941225136663503 -0.05316791549549209 0.004905950017455153 0.021901539595090273 -0.0010140524122936507 -0.007002244910003904 0.0011642244749442295 0.011149055408469366
 0.001190529278478037 0.01114566843695926 -0.0010140524122936507 -0.007002244910003904 0.004901446312409378 0.02190104795686717 0.9941224802447995 -0.0531688390413284
 -0.0010144147028023859 -0.007002234394353725 0.0011642244749442295 0.011149055408469366 0.9941224802447995 -0.0531688390413284 0.004905831611534556 0.021900636102106782
0.07503126302626001 0.005315119293644484 0.0240143783923153 0.9935712608566939 -0.05809207247758925 0.0013709177696995813 0.012158961663857755 -0.0011648434939872912 -0.0076419677709968605
 0.9935712608566939 -0.05809207247758925 0.005320548315542507 0.024013903663610326 -0.0011644137250026575 -0.007641984305659681 0.00133960622788594 0.012163083830198774
 0.0013709177696995813 0.012158961663857755 -0.0011644137250026575 -0.007641984305659681 0.005315190497984305 0.024013399206933968 0.9935712211886728 -0.058093081143485
 -0.0011648434939872912 -0.0076419677709968605 0.00133960622788594 0.012163083830198774 0.9935712211886728 -0.058093081143485 0.0053204082958077225 0.024012920942704418
0.08128386827845 0.005752961344686187 0.026144375414117727 0.9929878608516567 -0.06303115105035316 0.0015648902319116281 0.01317143131129088 -0.001326551900079698 -0.008281289190970684
 0.9929878608516567 -0.06303115105035316 0.005759331396917897 0.026143829505980744 -0.0013260491010258547 -0.008281312939999754 0.0015281341653599284 0.013176388545371674
 0.0015648902319116281 0.01317143131129088 -0.0013260491010258547 -0.008281312939999754 0.005753045318458093 0.0261433188388747 0.9929878143460924 -0.06303224517994607
 -0.001326551900079698 -0.008281289190970684 0.0015281341653599284 0.013176388545371674 0.9929878143460924 -0.06303224517994607 0.005759168070159893 0.026142768327956832
0.08753647353064001 0.006215311510173486 0.02829149413922415 0.992371926549845 -0.06798487667020725 0.0017725449227603471 0.014182855500693373 -0.0014996416145523046 -0.008919979672018378
 0.992371926549845 -0.06798487667020725 0.006222697919941322 0.028290871051236056 -0.0014990602805941152 -0.008920011911855291 0.0017299063099063977 0.014188754527396218
 0.0017725449227603471 0.014182855500693373 -0.0014990602805941152 -0.008920011911855291 0.0062154093595853535 0.028290361095694976 0.9923718725977902 -0.06798605663987943
 -0.0014996416145523046 -0.008919979672018378 0.0017299063099063977 0.014188754527396218 0.9923718725977902 -0.06798605663987943 0.006222509623474255 0.028289732254666005
0.09378907878283 0.0067025638454793245 0.03045529239128148 0.9917230740810632 -0.07295295343329553 0.0019939758023036613 0.015193007081400573 -0.0016842099167846641 -0.00955781669703794
 0.9917230740810632 -0.07295295343329553 0.006711042050287488 0.030454585861927296 -0.0016835445904156397 -0.00955785878512716 0.0019450164765317118 0.015199961543187887
 0.0019939758023036613 0.015193007081400573 -0.0016835445904156397 -0.00955785878512716 0.0067026766966311315 0.030454083861817135 0.9917230120540873 -0.0729542196502656
 -0.0016842099167846641 -0.00955781669703794 0.0019450164765317118 0.015199961543187887 0.9917230120540873 -0.0729542196502656 0.0067108271524848806 0.030453370354960995
0.100041684035 0.00721510773502395 0.03263532910898055 0.9910409231310565 -0.0779350666268246 0.0022292723551655454 0.01620165387929482 -0.0018803495239308903 -0.010194574107183755
 0.9910409231310565 -0.0779350666268246 0.007224753302899496 0.032634532608299884 -0.0018795947955524723 -0.010194627481877314 0.0021735541003435293 0.016209784400249866
 0.0022292723551655454 0.01620165387929482 -0.0018795947955524723 -0.010194627481877314 0.007215236736542044 0.03263404613500185 0.9910408523798445 -0.07793641953017748
 -0.0018803495239308903 -0.010194574107183755 0.0021735541003435293 0.016209784400249866 0.9910408523798445 -0.07793641953017748 0.0072245102050105675 0.03263324136723158
0.1059090909091 0.007719420811566296 0.034695437492326266 0.9903701768228854 -0.08262272224782626 0.0024627595232860166 0.017146582292373657 -0.0020750081733346415 -0.01079091679508238
 0.9903701768228854 -0.08262272224782626 0.0077302306874325565 0.03469455037781244 -0.002074164673961153 -0.010790982141180806 0.0024003002215017884 0.017155932400339337
 0.0024627595232860166 0.017146582292373657 -0.002074164673961153 -0.010790982141180806 0.0077195660349374026 0.03469408565891409 0.9903700972745854 -0.0826241569250521
 -0.0020750081733346415 -0.01079091679508238 0.0024003002215017884 0.017155932400339337 0.9903700972745854 -0.0826241569250521 0.00772995970281984 0.034693189016379467
0.1062942892872 0.007753327714558543 0.03483116246407506 0.9903250972490604 -0.08293088465118185 0.0024785194163168076 0.017208558908280023 -0.002088148439985022 -0.010830022044110972
 0.9903250972490604 -0.08293088465118185 0.0077642163635562 0.03483026918541282 -0.0020872989486023126 -0.010830088224544215 0.0024156040668958587 0.01721799315643228
 0.0024785194163168076 0.017208558908280023 -0.0020872989486023126 -0.010830088224544215 0.007753474039616066 0.03482980614503764 0.9903250171019471 -0.08293232471202573
 -0.002088148439985022 -0.010830022044110972 0.0024156040668958587 0.01721799315643228 0.9903250171019471 -0.08293232471202573 0.0077639435005418846 0.03482890325405349
0.11254689453939999 0.008317603278010503 0.037042348434639154 0.9895752241446593 -0.08794006050079888 0.0027417969990442383 0.01821348055245321 -0.0023076898035307323 -0.011463926933509679
 0.9895752241446593 -0.08794006050079888 0.008329810896325932 0.03704135128544477 -0.0023067402374675316 -0.011464007519437885 0.002671246544679412 0.018224353300331595
 0.0027417969990442383 0.01821348055245321 -0.0023067402374675316 -0.011464007519437885 0.008317768126992187 0.03704091993014506 0.9895751339063318 -0.08794158821925269
 -0.0023076898035307323 -0.011463926933509679 0.002671246544679412 0.018224353300331595 0.9895751339063318 -0.08794158821925269 0.008329506738665969 0.03703991177776498
0.11879949979160001 0.008908308673960435 0.03926843970895855 0.9887909359754261 -0.09296223292878134 0.003019180126033972 0.01921617273604109 -0.0025390517340823367 -0.012096051493109168
 0.9887909359754261 -0.09296223292878134 0.008921911339917364 0.03926733130064998 -0.002537996831873631 -0.012096148164750907 0.002940556819868921 0.019228625919342587
 0.003019180126033972 0.01921617273604109 -0.002537996831873631 -0.012096148164750907 0.008908493276269722 0.0392669402353215 0.9887908349250806 -0.09296384883636308
 -0.0025390517340823367 -0.012096051493109168 0.002940556819868921 0.019228625919342587 0.9887908349250806 -0.09296384883636308 0.008921574394109821 0.03926581939777236
0.1250521050438 0.00952581269164244 0.04150898484099544 0.9879718696279473 -0.09799702737456817 0.0033107386623894364 0.02021638507898197 -0.0027823071782472303 -0.012726154767452926
 0.9879718696279473 -0.09799702737456817 0.009540886693431568 0.04150775747796856 -0.002781141729343671 -0.012726269285288153 0.0032236051332393922 0.020230567853156405
 0.0033107386623894364 0.02021638507898197 -0.002781141729343671 -0.012726269285288153 0.009526018308477243 0.04150741567057654 0.9879717570179624 -0.09799873203366614
 -0.0027823071782472303 -0.012726154767452926 0.0032236051332393922 0.020230567853156405 0.9879717570179624 -0.09799873203366614 0.009540515504260548 0.04150617442796544
0.131304710296 0.010170478442143872 0.04376352758041947 0.9871176669943453 -0.10304405673213715 0.0036165371507245756 0.021213863050098963 -0.0030375237563813784 -0.013353992177417296
 0.9871176669943453 -0.10304405673213715 0.010187100297916286 0.04376217324795578 -0.003036242602108652 -0.013354126381981647 0.0035204565183335535 0.021229931844870504
 0.0036165371507245756 0.021213863050098963 -0.003036242602108652 -0.013354126381981647 0.010170706368440953 0.043761890044370005 0.9871175420488221 -0.10304585073196958
 -0.0030375237563813784 -0.013353992177417296 0.0035204565183335535 0.021229931844870504 0.9871175420488221 -0.10304585073196958 0.01018669344890847 0.04376052036920364
0.1375573155481 0.01070461583551114 0.04573752322198066 0.986366093813987 -0.1078086587260607 0.0039014971429771213 0.022180082600983548 -0.0032697402213220164 -0.013950994037372494
 0.986366093813987 -0.1078086587260607 0.01072286920969396 0.04573606281046448 -0.003268335956002493 -0.013951148307870717 0.0037962447069663403 0.02219802982648634
 0.0039014971429771213 0.022180082600983548 -0.003268335956002493 -0.013951148307870717 0.010704868423168977 0.04573581776929156 0.9863659559399446 -0.1078105424369586
 -0.0032697402213220164 -0.013950994037372494 0.0037962447069663403 0.02219802982648634 0.9863659559399446 -0.1078105424369586 0.010722423907611509 0.045734341981350214
0.1438099208003 0.01125779695217743 0.04769918743505056 0.985587526993517 -0.11255923192979884 0.004197914502677262 0.023141141708482107 -0.0035111624963429806 -0.014543320161209895
 0.985587526993517 -0.11255923192979884 0.011277759771297625 0.047697614545756856 -0.0035096296310153144 -0.014543496319551147 0.004083092300097294 0.02316111206366201
 0.004197914502677262 0.023141141708482107 -0.0035096296310153144 -0.014543496319551147 0.011258075737748003 0.0476974153750586 0.9855873754117802 -0.11256120593229021
 -0.0035111624963429806 -0.014543320161209895 0.004083092300097294 0.02316111206366201 0.9855873754117802 -0.11256120593229021 0.011277274405816759 0.047695827229082666
0.1500625260525 0.011829795494092962 0.04964829956049864 0.9847821979979856 -0.11729560022179294 0.004505666954176089 0.024096901725713774 -0.003761672791830597 -0.015130843043283567
 0.9847821979979856 -0.11729560022179294 0.011851545943406884 0.04964660738930405 -0.00376000586032948 -0.015131042983571315 0.0043808799171853 0.02411904521350659
 0.004505666954176089 0.024096901725713774 -0.00376000586032948 -0.015131042983571315 0.011830102060356448 0.04964646224853897 0.9847820319051591 -0.11729766511580857
 -0.003761672791830597 -0.015130843043283567 0.0043808799171853 0.02411904521350659 0.9847820319051591 -0.11729766511580857 0.011851018925291232 0.04964475510891145
0.15631513130469998 0.012420383176200327 0.05158464556464961 0.9839503398899216 -0.12201758945779395 0.004824630549586411 0.025047226828531007 -0.004021151667456006 -0.015713438285516863
 0.9839503398899216 -0.12201758945779395 0.012443999706508295 0.05158282688971784 -0.004019345226738526 -0.01571366397355662 0.004689486556860322 0.02507169869261051
