! Created with skrf 1.8.0 (http://scikit-rf.org).
# GHz S RI R 50.0 
!freq ReS11 ImS11 ReS12 ImS12 ReS13 ImS13
! ReS14 ImS14
! ReS21 ImS21 ReS22 ImS22 ReS23 ImS23
! ReS24 ImS24
! ReS31 ImS31 ReS32 ImS32 ReS33 ImS33
! ReS34 ImS34
! ReS41 ImS41 ReS42 ImS42 ReS43 ImS43
! ReS44 ImS44
!
0.0 0.001882361319309 0.0 0.9981176386612 0.0 7.334196532616e-05 0.0 -7.334196558217e-05 8.981800339337983e-21
 0.9981176386612 0.0 0.001882361319269 0.0 -7.33419655814e-05 8.981800339243684e-21 7.334196532674e-05 0.0
 7.334196532616e-05 0.0 -7.33419655814e-05 8.981800339243684e-21 0.001882361329061 0.0 0.9981176386709 0.0
 -7.334196558217e-05 8.981800339337983e-21 7.334196532674e-05 0.0 0.9981176386709 0.0 0.001882361329063 0.0
0.005 0.002026500649368692 0.0015355690784131892 0.9979350825924734 -0.0039420152017341364 0.00010389126310439055 0.0008274477812965071 -0.00010074226091279905 -0.00051575291240861
 0.9979350825924734 -0.0039420152017341364 0.00202648167130818 0.0015355802306767968 -0.00010074481389232818 -0.0005157549108471176 0.00010399885020463951 0.0008274067344360384
 0.00010389126310439055 0.0008274477812965071 -0.00010074481389232818 -0.0005157549108471176 0.0020264995304379125 0.001535637060091196 0.9979350829831445 -0.003941948148360704
 -0.00010074226091279905 -0.00051575291240861 0.00010399885020463951 0.0008274067344360384 0.9979350829831445 -0.003941948148360704 0.0020264835665448466 0.0015356463529259835
0.006252605252188 0.0020646647852411784 0.0019254668239491424 0.9978863896853946 -0.004928426645433079 0.00011280085736102799 0.0010346790886210924 -0.00010864860900392798 -0.0006453401197556437
 0.9978863896853946 -0.004928426645433079 0.0020646351184265776 0.0019254809776317818 -0.00010865258130327781 -0.0006453425835083928 0.00011296894917123082 0.00103462574064034
 0.00011280085736102799 0.0010346790886210924 -0.00010865258130327781 -0.0006453425835083928 0.002064662952483767 0.0019255518039809128 0.9978863902129429 -0.004928342830548846
 -0.00010864860900392798 -0.0006453401197556437 0.00011296894917123082 0.00103462574064034 0.9978863902129429 -0.004928342830548846 0.0020646379983009157 0.0019255636206480615
0.01250521050438 0.002267667746351454 0.0038908464173413827 0.9976254364141833 -0.009857236426575334 0.00016485615893004033 0.002069493167844877 -0.00015442108922553315 -0.0012935818466376663
 0.9976254364141833 -0.009857236426575334 0.0022675492750032795 0.0038908768997413497 -0.00015443673898117043 -0.001293586392557573 0.000165526406892385 0.0020693641662117815
 0.00016485615893004033 0.002069493167844877 -0.00015443673898117043 -0.001293586392557573 0.0022676598728174654 0.003891016195496415 0.997625437974432 -0.009857069032814133
 -0.00015442108922553315 -0.0012935818466376663 0.000165526406892385 0.0020693641662117815 0.997625437974432 -0.009857069032814133 0.002267560233745105 0.0038910418421797682
0.01875781575657 0.0024918863790019635 0.005883653446024833 0.9973344030769916 -0.014798337412120666 0.00022964021476542753 0.003105097873498145 -0.0002108156923376306 -0.0019437067296733223
 0.9973344030769916 -0.014798337412120666 0.0024916201440175647 0.005883702651698445 -0.00021085058427940966 -0.0019437128897022973 0.00023114569119093357 0.003104865850231908
 0.00022964021476542753 0.003105097873498145 -0.00021085058427940966 -0.0019437128897022973 0.002491868245638252 0.00588390800868054 0.997334406160255 -0.014798086529725694
 -0.0002108156923376306 -0.0019437067296733223 0.00023114569119093357 0.003104865850231908 0.997334406160255 -0.014798086529725694 0.0024916443547866487 0.005883949618872067
0.02501042100875 0.002737816900221344 0.007900994414565139 0.9970128973097517 -0.019754026788452082 0.0003072859708597186 0.004141479967006457 -0.0002779816833716652 -0.002595354584792173
 0.9970128973097517 -0.019754026788452082 0.002737344041635959 0.007901064937250174 -0.0002780432882373617 -0.0025953617968807545 0.0003099597287342824 0.0041411126327863534
 0.0003072859708597186 0.004141479967006457 -0.0002780432882373617 -0.0025953617968807545 0.0027377842894189164 0.007901333810472063 0.9970129024101022 -0.01975369246578302
 -0.0002779816833716652 -0.002595354584792173 0.0003099597287342824 0.0041411126327863534 0.9970129024101022 -0.01975369246578302 0.0027373866755848898 0.007901393621060016
0.03126302626094 0.003005934621622729 0.009941330690701912 0.9966605097593878 -0.024725227836407612 0.0003979255776991599 0.005178526892479837 -0.00035606271394258445 -0.003248254109171846
 0.9966605097593878 -0.024725227836407612 0.0030051963428066072 0.009941425320248868 -0.0003561584238358471 -0.0032482617164796787 0.000402100930413916 0.005177987007732606
 0.0003979255776991599 0.005178526892479837 -0.0003561584238358471 -0.0032482617164796787 0.003005883314262463 0.009941755015985626 0.9966605173744149 -0.024724810094989797
 -0.00035606271394258445 -0.003248254109171846 0.000402100930413916 0.005177987007732606 0.9966605173744149 -0.024724810094989797 0.003005262569675208 0.00994183536362525
0.037515631513130004 0.0032967033643738716 0.012003621530123031 0.996276823995746 -0.029712346863991254 0.0005016890965865258 0.006216085968919105 -0.0004451978588215529 -0.0039021637661131405
 0.996276823995746 -0.029712346863991254 0.0032956409079849635 0.01200374325204991 -0.0004453349950307802 -0.0039021710168612883 0.0005076997262675513 0.006215331297511823
 0.0005016890965865258 0.006216085968919105 -0.0004453349950307802 -0.0039021710168612883 0.0032966291344159637 0.012004130919901561 0.9962768346223907 -0.029711845707243927
 -0.0004451978588215529 -0.0039021637661131405 0.0005076997262675513 0.006215331297511823 0.9962768346223907 -0.029711845707243927 0.0032957358912977307 0.012004234239409382
0.043768236765320004 0.0036105790672686386 0.014087063286496289 0.9958614206144628 -0.03471553394309962 0.0006187038578745199 0.007253982419021144 -0.0005455219480073372 -0.0045568538284666985
 0.9958614206144628 -0.03471553394309962 0.0036091336952385417 0.014087215282365792 -0.0005457077654880962 -0.004556859875921884 0.0006268838498630676 0.007252965676724449
 0.0006187038578745199 0.007253982419021144 -0.0005457077654880962 -0.004556859875921884 0.0036104776839019615 0.014087657908227294 0.9958614347518404 -0.03471494936328559
 -0.0005455219480073372 -0.0045568538284666985 0.0006268838498630676 0.007252965676724449 0.9958614347518404 -0.03471494936328559 0.003609262594761043 0.01408778673185001
0.050020842017509996 0.003948011420898686 0.016190981643343625 0.995413879369621 -0.03973479062564107 0.0007490940456523941 0.008292026832029552 -0.0006571656519172975 -0.0052120989931623615
 0.995413879369621 -0.03973479062564107 0.00394612439655782 0.016191167292340755 -0.0006574073421230859 -0.005212102895723147 0.0007597778836450853 0.00829069563321891
 0.0007490940456523941 0.008292026832029552 -0.0006574073421230859 -0.005212102895723147 0.003947878648246516 0.016191661701015207 0.995413897519563 -0.03973412260025486
 -0.0006571656519172975 -0.0052120989931623615 0.0007597778836450853 0.00829069563321891 0.995413897519563 -0.03973412260025486 0.0039462923673557904 0.01619181865854419
0.055454545454549996 0.004260726394776814 0.018035514290581995 0.9949985265382091 -0.04410965595359986 0.0008733634042988609 0.00919408367817072 -0.0007634786655636875 -0.005781803374943073
 0.9949985265382091 -0.04410965595359986 0.0042584078483102385 0.018035732084488963 -0.0007637747032142852 -0.005781804575221748 0.0008864950894394574 0.009192432661223172
 0.0008733634042988609 0.00919408367817072 -0.0007637747032142852 -0.005781804575221748 0.004260562899447135 0.01803626878334967 0.9949985485850706 -0.04410891538745804
 -0.0007634786655636875 -0.005781803374943073 0.0008864950894394574 0.009192432661223172 0.9949985485850706 -0.04410891538745804 0.004258613955439173 0.01803645240206384
0.056273447269699996 0.004309444668556999 0.018314778743090187 0.9949337804781103 -0.044770022769931084 0.0008929803846115771 0.009330018861322332 -0.0007802554545139563 -0.005867674769655598
 0.9949337804781103 -0.044770022769931084 0.004307057239891259 0.018315001624067104 -0.0007805601471653274 -0.005867675490949298 0.0009065029210762283 0.009328315665339948
 0.0008929803846115771 0.009330018861322332 -0.0007805601471653274 -0.005867675490949298 0.0043092762653220065 0.018315544470869624 0.9949338031455102 -0.04476927126854765
 -0.0007802554545139563 -0.005867674769655598 0.0009065029210762283 0.009328315665339948 0.9949338031455102 -0.04476927126854765 0.004307269431605612 0.018315732290306443
0.06252605252188 0.004695317993209862 0.020457904122664624 0.9944207055172257 -0.049821069570500365 0.0010504798764698752 0.01036774925642977 -0.0009149135698674597 -0.00652335554433685
 0.9944207055172257 -0.049821069570500365 0.00469237137757282 0.02045816801684611 -0.0009152883341318357 -0.00652335195331248 0.0010671762878723485 0.010365611314163508
 0.0010504798764698752 0.01036774925642977 -0.0009152883341318357 -0.00652335195331248 0.004695109713059549 0.020458755793000705 0.9944207332105285 -0.04982023454712424
 -0.0009149135698674597 -0.00652335554433685 0.0010671762878723485 0.010365611314163508 0.9944207332105285 -0.04982023454712424 0.004692632933553696 0.02045897730204149
0.06877865777407 0.005106065680385412 0.02261983740499529 0.993874238102207 -0.05488772084352076 0.0012217055645311007 0.011405001119959837 -0.0010612578274806674 -0.007178913431196533
 0.993874238102207 -0.05488772084352076 0.005102501048815591 0.02262014629952388 -0.0010617096726820564 -0.0071789043022622515 0.0012419112941579292 0.011402360421186147
 0.0012217055645311007 0.011405001119959837 -0.0010617096726820564 -0.0071789043022622515 0.005105813271801921 0.02262077532057121 0.9938742713339823 -0.054886802245341246
 -0.0010612578274806674 -0.007178913431196533 0.0012419112941579292 0.011402360421186147 0.9938742713339823 -0.054886802245341246 0.005102817104811656 0.022621033448568268
0.07503126302626001 0.005542117143864012 0.024800077338463945 0.993293964433593 -0.059969727977365175 0.0014067663159311277 0.012441550712882892 -0.0012194015366412002 -0.007834117586090759
 0.993293964433593 -0.059969727977365175 0.005537875605785511 0.024800435430427824 -0.0012199374125862815 -0.007834101599235177 0.0014308170081985046 0.012438333934559943
 0.0014067663159311277 0.012441550712882892 -0.0012199374125862815 -0.007834101599235177 0.005541816350244957 0.024801101837481833 0.993294003720503 -0.05996872573988036
 -0.0012194015366412002 -0.007834117586090759 0.0014308170081985046 0.012438333934559943 0.993294003720503 -0.05996872573988036 0.005538251289341645 0.02480139961824347
0.08128386827845 0.0060038968671105005 0.026998134521662418 0.9926794737643433 -0.06506681121133427 0.001605766613503014 0.013477168024207552 -0.0013894533395551454 -0.008488733768986293
 0.9926794737643433 -0.06506681121133427 0.005998919455388208 0.0269985462229687 -0.001390080136698825 -0.008488709509923227 0.001633998041108199 0.013473296479991416
 0.001605766613503014 0.013477168024207552 -0.001390080136698825 -0.008488709509923227 0.0060035434270029435 0.02699924597770401 0.9926795196283563 -0.06506572525927852
 -0.0013894533395551454 -0.008488733768986293 0.001633998041108199 0.013473296479991416 0.9926795196283563 -0.06506572525927852 0.0059993598844963894 0.026999586552881354
0.08753647353064001 0.006491824287993879 0.02921352638623816 0.992030358816104 -0.07017866467102651 0.0018188063556009897 0.014511617185734111 -0.0015715170553212091 -0.009142524073879449
 0.992030358816104 -0.07017866467102651 0.006486051944636836 0.029213996329008486 -0.0015722416048132859 -0.009142490034180042 0.0018515543410331293 0.01450700677685236
 0.0018188063556009897 0.014511617185734111 -0.0015722416048132859 -0.009142490034180042 0.006491413935644112 0.029214725207858082 0.9920304117845858 -0.0701774949192304
 -0.0015715170553212091 -0.009142524073879449 0.0018515543410331293 0.01450700677685236 0.9920304117845858 -0.0701774949192304 0.006486562226261132 0.02921511183119575
0.09378907878283 0.007006313645000003 0.03144577363422291 0.9913462161604825 -0.0753049599638039 0.0020459806610647275 0.015544656798104845 -0.001765691518695426 -0.009795246760440711
 0.9913462161604825 -0.0753049599638039 0.006999687205698017 0.03144630667704406 -0.0017665205920771561 -0.009795201337711841 0.0020835809929986245 0.01553921796569325
 0.0020459806610647275 0.015544656798104845 -0.0017665205920771561 -0.009795201337711841 0.0070058421100744886 0.03144706026310334 0.9913462767668353 -0.07530370631981932
 -0.001765691518695426 -0.009795246760440711 0.0020835809929986245 0.01553921796569325 0.9913462767668353 -0.07530370631981932 0.007000272434983483 0.031447496305162845
0.100041684035 0.007547773794986202 0.033694397637137795 0.99062664657624 -0.0804453488282813 0.002287379678022731 0.016576040193251415 -0.001972070414982247 -0.010446656162611595
 0.99062664657624 -0.0804453488282813 0.007540233974666913 0.03369499887196903 -0.001973010723913432 -0.01044659766066933 0.002330168023441812 0.01656967787234697
 0.002287379678022731 0.016576040193251415 -0.001973010723913432 -0.01044659766066933 0.007547236803072656 0.033695772554852906 0.9906267153603819 -0.08044401118623835
 -0.001972070414982247 -0.010446656162611595 0.002330168023441812 0.01656967787234697 0.9906267153603819 -0.08044401118623835 0.007540899233411542 0.03369626150872853
0.1059090909091 0.008080765664479269 0.03581895978642784 0.9899188348068785 -0.08528155059807896 0.0025269200472832704 0.017542153651760505 -0.0021769137068839038 -0.011056518056936276
 0.9899188348068785 -0.08528155059807896 0.008072314693488467 0.035819629857907216 -0.002177964449145076 -0.011056445655462554 0.0025748818898085135 0.017534833330596918
 0.0025269200472832704 0.017542153651760505 -0.002177964449145076 -0.011056445655462554 0.008080163357190417 0.035820418020225224 0.9899189117618018 -0.0852801340322674
 -0.0021769137068839038 -0.011056518056936276 0.0025748818898085135 0.017534833330596918 0.9899189117618018 -0.0852801340322674 0.008073059659748262 0.0358209599179249
0.1062942892872 0.008116608010073282 0.0359589185033036 0.9898712553893395 -0.08559946513124446 0.0025430883959168546 0.01760551566241973 -0.0021907421124207297 -0.011096502645185264
 0.9898712553893395 -0.08559946513124446 0.008108095388247487 0.03595959326315435 -0.0021918003083621603 -0.011096429274218021 0.002591400208642058 0.017598129237671106
 0.0025430883959168546 0.01760551566241973 -0.0021918003083621603 -0.011096429274218021 0.008116001282960052 0.03596038222574505 0.9898713328977756 -0.08559804337812581
 -0.0021907421124207297 -0.011096502645185264 0.002591400208642058 0.017598129237671106 0.9898713328977756 -0.08559804337812581 0.008108845743172942 0.035960927713463736
0.11254689453939999 0.008713213759432606 0.03823885362289179 0.9890796528000392 -0.09076692640325056 0.002813186460543721 0.01863282665734123 -0.002421789493453158 -0.011744532600846075
 0.9890796528000392 -0.09076692640325056 0.008703668765647507 0.03823960749020054 -0.0024229721671648135 -0.011744442477610079 0.0028673568858847455 0.018624309920541943
 0.002813186460543721 0.01863282665734123 -0.0024229721671648135 -0.011744442477610079 0.008712533015605262 0.03824040670283553 0.9890797395871217 -0.09076542041697527
 -0.002421789493453158 -0.011744532600846075 0.0028673568858847455 0.018624309920541943 0.9890797395871217 -0.09076542041697527 0.008704509267630323 0.038241012482544336
0.11879949979160001 0.009337982479664879 0.040533716544247755 0.9882514542013596 -0.09594733505943266 0.0030977479915454322 0.019657711973803445 -0.0026652897848991747 -0.012390488478817682
 0.9882514542013596 -0.09594733505943266 0.009327345378674204 0.04053455536015862 -0.0026666034658865655 -0.01239037962688309 0.0031581117682242706 0.019647953083350152
 0.0030977479915454322 0.019657711973803445 -0.0026666034658865655 -0.01239037962688309 0.009337223434536312 0.04053535957222389 0.9882515508294203 -0.0959457447087937
 -0.0026652897848991747 -0.012390488478817682 0.0031581117682242706 0.019647953083350152 0.9882515508294203 -0.0959457447087937 0.009328281060900551 0.040536029546130274
0.1250521050438 0.009991299335415779 0.04284301611239571 0.9873862804900668 -0.10114027937506412 0.003396841402285049 0.02067990592796481 -0.0029213143887254684 -0.013034108834668635
 0.9873862804900668 -0.10114027937506412 0.009979510212811972 0.04284394598674542 -0.0029227655445780193 -0.01303397918463705 0.003463732761339526 0.02066878737036296
 0.003396841402285049 0.02067990592796481 -0.0029227655445780193 -0.01303397918463705 0.009990457701553811 0.04284474972015236 0.9873863875299241 -0.10113860451700725
 -0.0029213143887254684 -0.013034108834668635 0.003463732761339526 0.02066878737036296 0.9873863875299241 -0.10113860451700725 0.009980546089662106 0.04284548794335148
0.131304710296 0.010673542973559958 0.045166255805809234 0.9864837583720031 -0.10634533428013997 0.003710529222804696 0.02169913852695557 -0.0031899287127681196 -0.01367512840001112
 0.9864837583720031 -0.10634533428013997 0.010660541721702652 0.045167283127884095 -0.0031915237486428286 -0.013674975789715665 0.003784281783456679 0.02168653708037754
 0.003710529222804696 0.02169913852695557 -0.0031915237486428286 -0.013674975789715665 0.010672614461168248 0.04516808066067932 0.986483876403567 -0.10634357476617205
 -0.0031899287127681196 -0.01367512840001112 0.003784281783456679 0.02168653708037754 0.986483876403567 -0.10634357476617205 0.010661682786491225 0.04516889135086797
0.1375573155481 0.01124107249640039 0.047200394577336595 0.9856876173993732 -0.11125929985754947 0.004002575997117149 0.02268628707528578 -0.0034348230490512995 -0.01428452542176876
 0.9856876173993732 -0.11125929985754947 0.01122679604647536 0.04720150663169082 -0.0034365716685944227 -0.014284349367081582 0.004083357320583474 0.022672206924484458
 0.004002575997117149 0.02268628707528578 -0.0034365716685944227 -0.014284349367081582 0.011240053749239753 0.047202311167929126 0.9856877469271442 -0.111257455642624
 -0.0034348230490512995 -0.01428452542176876 0.004083357320583474 0.022672206924484458 0.9856877469271442 -0.111257455642624 0.011228046496255322 0.04720317998263717
0.1438099208003 0.011828893264129848 0.049221414014660216 0.9848627911958097 -0.11615837868261625 0.004306312961117385 0.023668010934636923 -0.0036893955861906588 -0.014888887682950713
 0.9848627911958097 -0.11615837868261625 0.01181328085984457 0.04922261623291426 -0.0036913046977991933 -0.01488868602090559 0.004394425913972914 0.02365233804488308
 0.004306312961117385 0.023668010934636923 -0.0036913046977991933 -0.01488868602090559 0.011827780157656932 0.049223423002135135 0.9848629327961658 -0.11615644963052667
 -0.0036893955861906588 -0.014888887682950713 0.004394425913972914 0.02365233804488308 0.9848629327961658 -0.11615644963052667 0.011814645517937606 0.049224353201426645
0.1500625260525 0.01243675905581667 0.05122907441182976 0.9840095315873956 -0.1210423767521999 0.004621609006717588 0.024644164472062188 -0.003953517364202895 -0.0154880772813711
 0.9840095315873956 -0.1210423767521999 0.012419749757363562 0.05123037256200984 -0.003955593855653891 -0.015487847761198301 0.004717353975146435 0.02462678067607939
 0.004621609006717588 0.024644164472062188 -0.003955593855653891 -0.015487847761198301 0.012435547474297034 0.051231176484680216 0.9840096858438269 -0.12104036272197996
 -0.003953517364202895 -0.0154880772813711 0.004717353975146435 0.02462678067607939 0.9840096858438269 -0.12104036272197996 0.012421233418987637 0.05123217157982138
0.15631513130469998 0.01306442142719247 0.05322314326843856 0.9831280922107686 -0.12591110247442655 0.004948331208636105 0.02561460517306781 -0.004227057584955013 -0.016081959781750036
 0.9831280922107686 -0.12591110247442655 0.013045954107705208 0.053224543464841324 -0.0042293083230661695 -0.016081700065255333 0.005052006051501242 0.02559538822689901
