! Created with skrf 1.8.0 (http://scikit-rf.org).
# GHz S RI R 50.0 
!freq ReS11 ImS11 ReS12 ImS12 ReS13 ImS13
! ReS14 ImS14
! ReS21 ImS21 ReS22 ImS22 ReS23 ImS23
! ReS24 ImS24
! ReS31 ImS31 ReS32 ImS32 ReS33 ImS33
! ReS34 ImS34
! ReS41 ImS41 ReS42 ImS42 ReS43 ImS43
! ReS44 ImS44
!
0.0 0.001405182513532 0.0 0.9985948174552 0.0 5.412294345752e-05 0.0 -5.412294239032e-05 6.628148815874198e-21
 0.9985948174552 0.0 0.001405182513551 0.0 -5.412294239166e-05 6.628148816038302e-21 5.412294345611e-05 0.0
 5.412294345752e-05 0.0 -5.412294239166e-05 6.628148816038302e-21 0.001405182520676 0.0 0.9985948174623 0.0
 -5.412294239032e-05 6.628148815874198e-21 5.412294345611e-05 0.0 0.9985948174623 0.0 0.001405182520625 0.0
0.005 0.001511530074719625 0.0011469933929156846 0.9984603315855325 -0.00294405404486345 7.601605186019367e-05 0.0006136882034509395 -7.378887837287581e-05 -0.00038223551479593833
 0.9984603315855325 -0.00294405404486345 0.0015115265166705024 0.001146995454572603 -7.378693126508443e-05 -0.0003822339894282814 7.604311819627398e-05 0.0006136778785071048
 7.601605186019367e-05 0.0006136882034509395 -7.378693126508443e-05 -0.0003822339894282814 0.0015115308668339782 0.0011469256356636515 0.9984603312307094 -0.002944121100594365
 -7.378887837287581e-05 -0.00038223551479593833 7.604311819627398e-05 0.0006136778785071048 0.9984603312307094 -0.002944121100594365 0.0015115250200979876 0.0011469291050658563
0.006252605252188 0.0015393150496801975 0.0014382820412265547 0.9984249912328745 -0.0036808058295223238 8.220131532716012e-05 0.0007674070501731097 -7.929285081524386e-05 -0.0004782989706911265
 0.9984249912328745 -0.0036808058295223238 0.0015393094881022541 0.0014382846765319266 -7.928982116597653e-05 -0.0004782970889648629 8.224360395703856e-05 0.0007673936523289602
 8.220131532716012e-05 0.0007674070501731097 -7.928982116597653e-05 -0.0004782970889648629 0.0015393163807958957 0.0014381973405269415 0.9984249907705512 -0.0036808896514071883
 -7.929285081524386e-05 -0.0004782989706911265 8.224360395703856e-05 0.0007673936523289602 0.9984249907705512 -0.0036808896514071883 0.0015393072407601154 0.0014382017439572559
0.01250521050438 0.001684959640913329 0.002906957900699588 0.9982386038720965 -0.007362537529874199 0.0001173058431298405 0.0015351685949999746 -0.00011026156517231755 -0.0009590032356649647
 0.9982386038720965 -0.007362537529874199 0.0016849374378211269 0.002906963749538123 -0.00011024962789747713 -0.0009589997439109617 0.00011747447920630043 0.0015351365237309404
 0.0001173058431298405 0.0015351685949999746 -0.00011024962789747713 -0.0009589997439109617 0.001684965503578554 0.002906788723399387 0.9982386025656697 -0.007362704936277659
 -0.00011026156517231755 -0.0009590032356649647 0.00011747447920630043 0.0015351365237309404 0.9982386025656697 -0.007362704936277659 0.0016849290001272692 0.0029067982120109174
0.01875781575657 0.0018424123754501472 0.004396793117808001 0.9980354393264906 -0.01105418198983101 0.00015951464051344036 0.002303833636067288 -0.00014712001701247616 -0.0014414113399994048
 0.9980354393264906 -0.01105418198983101 0.0018423624927892414 0.004396802773666893 -0.000147093399250237 -0.00144140655708502 0.0001598934602309824 0.002303776650596201
 0.00015951464051344036 0.002303833636067288 -0.000147093399250237 -0.00144140655708502 0.0018424259842957928 0.0043965395406372065 0.9980354368093035 -0.011054432900489153
 -0.00014712001701247616 -0.0014414113399994048 0.0001598934602309824 0.002303776650596201 0.9980354368093035 -0.011054432900489153 0.0018423439455091688 0.004396554869315691
0.02501042100875 0.0020119617901743934 0.00590571985167675 0.9978152736646421 -0.014757551334183928 0.00020890677983437264 0.0030734546654433716 -0.00018995650660328064 -0.0019253137841040199
 0.9978152736646421 -0.014757551334183928 0.00201187321821988 0.005905733920175789 -0.00018990950491204993 -0.0019253080820161163 0.00020957965157384435 0.003073365598407958
 0.00020890677983437264 0.0030734546654433716 -0.00018990950491204993 -0.0019253080820161163 0.0020119863590082566 0.005905381912310117 0.9978152695650676 -0.01475788571936072
 -0.00018995650660328064 -0.0019253137841040199 0.00020957965157384435 0.003073365598407958 0.9978152695650676 -0.01475788571936072 0.002011840642007616 0.005905403902816793
0.03126302626094 0.002193884389481642 0.007432685207070085 0.9975778707648238 -0.01847343456393581 0.0002655619133048749 0.0038440117861188693 -0.00023885704422430942 -0.002410568933851434
 0.9975778707648238 -0.01847343456393581 0.0021937461410051428 0.007432704304933455 -0.0002387840126203761 -0.0024105627384314633 0.00026661281665594757 0.0038438825389614387
 0.0002655619133048749 0.0038440117861188693 -0.0002387840126203761 -0.0024105627384314633 0.0021939231377448827 0.007432262923649098 0.9975778647098534 -0.018473852424991877
 -0.00023885704422430942 -0.002410568933851434 0.00026661281665594757 0.0038438825389614387 0.9975778647098534 -0.018473852424991877 0.0021936956194508364 0.0074322924638440015
0.037515631513130004 0.0023884508337793098 0.008977011206859032 0.9973229886647532 -0.02220223752697169 0.0003295595288352375 0.004615456783953857 -0.00029390600094070756 -0.002897058946350077
 0.9973229886647532 -0.02220223752697169 0.002388251940190669 0.008977035961294833 -0.0002938013447292274 -0.0028970527375255027 0.00033107259045521545 0.004615278318003454
 0.0003295595288352375 0.004615456783953857 -0.0002938013447292274 -0.0028970527375255027 0.002388506986389633 0.008976504595397089 0.9973229802787024 -0.02220273887886992
 -0.00029390600094070756 -0.002897058946350077 0.00033107259045521545 0.004615278318003454 0.9973229802787024 -0.02220273887886992 0.0023881795581990077 0.008976542639191197
0.043768236765320004 0.0025959283347481766 0.01053820001939029 0.9970503821177741 -0.02594417762657039 0.00040097860453498687 0.0053877265238174935 -0.00035518634895376515 -0.0033846763681096626
 0.9970503821177741 -0.02594417762657039 0.0025956578422868413 0.010538231067562983 -0.0003550445209674819 -0.0033846706799705952 0.00040303811539824135 0.0053874888499944595
 0.00040097860453498687 0.0053877265238174935 -0.0003550445209674819 -0.0033846706799705952 0.0025960051234075352 0.010537609083910517 0.9970503710221481 -0.025944762507663727
 -0.00035518634895376515 -0.0033846763681096626 0.00040303811539824135 0.0053874888499944595 0.9970503710221481 -0.025944762507663727 0.002595559687073769 0.010537656651409497
0.050020842017509996 0.0028165817731175724 0.012115853454776906 0.9967598038741112 -0.029699364259065893 0.00047989740549778305 0.006160748478076548 -0.0004227797540527096 -0.003873318601108107
 0.9967598038741112 -0.029699364259065893 0.002816228740652167 0.012115891443209693 -0.00042259525231866347 -0.003873314021914462 0.00048258782875381913 0.006160440646042896
 0.00047989740549778305 0.006160748478076548 -0.00042259525231866347 -0.003873314021914462 0.002816682438582716 0.012115178196569272 0.9967597896886822 -0.029700032721560864
 -0.0004227797540527096 -0.003873318601108107 0.00048258782875381913 0.006160440646042896 0.9967597896886822 -0.029700032721560864 0.0028161009031195962 0.012115236374402967
0.055454545454549996 0.003019241168412497 0.013499989760512277 0.996492494379598 -0.03297352602731419 0.0005546310718520126 0.006833077497624732 -0.00048670991189200715 -0.004298717728400517
 0.996492494379598 -0.03297352602731419 0.003018807528115647 0.013500034312312963 -0.0004864838909070961 -0.0042987146327320355 0.0005579385063221053 0.006832699048072851
 0.0005546310718520126 0.006833077497624732 -0.0004864838909070961 -0.0042987146327320355 0.003019365221178025 0.013499241219604332 0.996492477197095 -0.032974267180199704
 -0.00048670991189200715 -0.004298717728400517 0.0005579385063221053 0.006832699048072851 0.996492477197095 -0.032974267180199704 0.0030186507229256728 0.013499309552604507
0.056273447269699996 0.0030506742792598286 0.013709633458321139 0.9964510054269374 -0.03346783825455662 0.0005663933407137123 0.006934443447804274 -0.0004967666052947872 -0.004362885177636924
 0.9964510054269374 -0.03346783825455662 0.003050227775214566 0.013709679042566297 -0.0004965339713239743 -0.0043628823498283245 0.0005697993130747923 0.00693405353488634
 0.0005663933407137123 0.006934443447804274 -0.0004965339713239743 -0.0043628823498283245 0.003050802069735008 0.013708873872695398 0.9964509877674894 -0.033468590367556075
 -0.0004967666052947872 -0.004362885177636924 0.0005697993130747923 0.00693405353488634 0.9964509877674894 -0.033468590367556075 0.0030500663486764503 0.013708943814439389
0.06252605252188 0.003298467550900877 0.01531924039021566 0.9961237374992704 -0.037249593532961554 0.000660542852314889 0.007708727044207128 -0.0005772260093454463 -0.00485327627712751
 0.9961237374992704 -0.037249593532961554 0.0032979166509051637 0.015319294234417776 -0.0005769398270438072 -0.004853275897295037 0.0006647491818974974 0.007708242144227468
 0.000660542852314889 0.007708727044207128 -0.0005769398270438072 -0.004853275897295037 0.003298625723207638 0.015318396465368214 0.9961237159772736 -0.03725042938336108
 -0.0005772260093454463 -0.00485327627712751 0.0006647491818974974 0.007708242144227468 0.9961237159772736 -0.03725042938336108 0.0032977177317384185 0.015318479392032397
0.06877865777407 0.00356022202745133 0.01694440006148587 0.9957777503893492 -0.04104459000585729 0.0007624213202616509 0.008483510580188945 -0.0006642357676888712 -0.005344391835333193
 0.9957777503893492 -0.04104459000585729 0.0035595558117053816 0.01694446283815975 -0.0006638906625190477 -0.005344394654197735 0.0007675129815806207 0.008482916792280706
 0.0007624213202616509 0.008483510580188945 -0.0006638906625190477 -0.005344394654197735 0.0035604138478928554 0.016943471787311086 0.9957777246123319 -0.04104550968923791
 -0.0006642357676888712 -0.005344391835333193 0.0007675129815806207 0.008482916792280706 0.9957777246123319 -0.04104550968923791 0.0035593155005816703 0.016943568987937828
0.07503126302626001 0.0038361969797978987 0.018584855542883284 0.99541279423542 -0.04485276170805184 0.0008721029775666665 0.009258701635221994 -0.000757872341397849 -0.00583613098297345
 0.99541279423542 -0.04485276170805184 0.003835404530781617 0.01858492793259895 -0.0007574629797927568 -0.005836137805347198 0.0008781651045599009 0.009257984052701673
 0.0008721029775666665 0.009258701635221994 -0.0007574629797927568 -0.005836137805347198 0.003836425723904145 0.018583842898443274 0.9954127638057569 -0.044853765340889466
 -0.000757872341397849 -0.00583613098297345 0.0008781651045599009 0.009257984052701673 0.9954127638057569 -0.044853765340889466 0.003835118932656359 0.018583955730748017
0.08128386827845 0.004126650547579802 0.020240361678731743 0.995028619230498 -0.048674022226968275 0.0009896608317533993 0.010034204428231287 -0.0008582108081594932 -0.006328391679310305
 0.995028619230498 -0.048674022226968275 0.004125720947704265 0.020240444370032796 -0.0008577318971748372 -0.00632840336405732 0.0009967787090709758 0.01003334712753653
 0.0009896608317533993 0.010034204428231287 -0.0008577318971748372 -0.00632840336405732 0.004126919501341472 0.020239264642008037 0.9950285837455505 -0.0486751099366202
 -0.0008582108081594932 -0.006328391679310305 0.0009967787090709758 0.01003334712753653 0.9950285837455505 -0.0486751099366202 0.00412538617294511 0.020239394533148602
0.08753647353064001 0.004431839741805746 0.021910681320849102 0.9946249758048445 -0.052508268415388554 0.001115166589753998 0.010809920083261149 -0.0009653248143413535 -0.006821070456007697
 0.9946249758048445 -0.052508268415388554 0.004430762070558644 0.021910775010126025 -0.0009647711013275965 -0.00682108791600427 0.001123425642895327 0.010808906113010594
 0.001115166589753998 0.010809920083261149 -0.0009647711013275965 -0.00682108791600427 0.00443215220103884 0.021909499863544905 0.9946249348559134 -0.05250944034485401
 -0.0009653248143413535 -0.006821070456007697 0.001123425642895327 0.010808906113010594 0.9946249348559134 -0.05250944034485401 0.004430374235171391 0.02190964831087083
0.09378907878283 0.004752020421460477 0.023595582621261303 0.994201614786333 -0.05635538304848472 0.0012486905855527133 0.0115857468173854 -0.0010792865229204108 -0.007314062241986859
 0.994201614786333 -0.05635538304848472 0.0047507837535047 0.023595688012755616 -0.0010786527954552867 -0.007314086444056287 0.001258176369889665 0.011584558187572185
 0.0012486905855527133 0.0115857468173854 -0.0010786527954552867 -0.007314086444056287 0.0047523796931350296 0.02359431671047241 0.9942015679583986 -0.05635663935445373
 -0.0010792865229204108 -0.007314062241986859 0.001258176369889665 0.011584558187572185 0.9942015679583986 -0.05635663935445373 0.004750338980096402 0.023594485282496434
0.100041684035 0.00508744725523051 0.025294837051050047 0.9937582875473372 -0.06021523675857425 0.0013903017096298434 0.012361580082779667 -0.0012001665585688868 -0.007807260237448676
 0.9937582875473372 -0.06021523675857425 0.005086040657499528 0.025294954856903085 -0.0011994476443152769 -0.007807292202316916 0.0014010998983760203 0.01236019775405023
 0.0013903017096298434 0.012361580082779667 -0.0011994476443152769 -0.007807292202316916 0.005087856657015739 0.025293486647570827 0.993758234418547 -0.06021657761260795
 -0.0012001665585688868 -0.007807260237448676 0.0014010998983760203 0.01236019775405023 0.993758234418547 -0.06021657761260795 0.005085535075895925 0.02529367698488968
0.1059090909091 0.005416301737415627 0.026902259157127243 0.9933238920186562 -0.06384876149619224 0.0015306039225762836 0.013089527796661633 -0.0013199533054747469 -0.00827016505744702
 0.9933238920186562 -0.06384876149619224 0.00541472572639626 0.026902389267417497 -0.001319149784043017 -0.008270205283170125 0.0015427116765139878 0.013087945442034603
 0.0015306039225762836 0.013089527796661633 -0.001319149784043017 -0.008270205283170125 0.005416761209000603 0.026900829427569765 0.9933238325871413 -0.06385018185598322
 -0.0013199533054747469 -0.00827016505744702 0.0015427116765139878 0.013087945442034603 0.9933238325871413 -0.06385018185598322 0.005414159570210686 0.026901041746535972
0.1062942892872 0.005438373667870566 0.027008217911067587 0.9932947461405026 -0.06408768948151419 0.0015400673389097813 0.013137312678601742 -0.001328033950688295 -0.008300555821427004
 0.9932947461405026 -0.06408768948151419 0.005436786197460223 0.027008348851487837 -0.0013272247174593624 -0.008300596623648394 0.0015522637106450312 0.01313571655180696
 0.0015400673389097813 0.013137312678601742 -0.0013272247174593624 -0.008300596623648394 0.005438836529413739 0.027006782971684632 0.9932946862817786 -0.06408911506741162
 -0.001328033950688295 -0.008300555821427004 0.0015522637106450312 0.01313571655180696 0.9932946862817786 -0.06408911506741162 0.0054362159458071204 0.027006996788012733
0.11254689453939999 0.005805051779121051 0.028735499194460095 0.9928107434278088 -0.06797259155529463 0.0016980532681145674 0.01391283483763045 -0.0014629560744792943 -0.008793838488236103
 0.9928107434278088 -0.06797259155529463 0.005803272480545002 0.028735643997936173 -0.0014620514302699423 -0.008793889256129199 0.0017117336932487687 0.01391100374345969
 0.0016980532681145674 0.01391283483763045 -0.0014620514302699423 -0.008793889256129199 0.005805571441418896 0.028733979668277055 0.9928106764022061 -0.0679741020722847
 -0.0014629560744792943 -0.008793838488236103 0.0017117336932487687 0.01391100374345969 0.9928106764022061 -0.0679741020722847 0.005802633705521919 0.028734218751618253
0.11879949979160001 0.00618773233314664 0.030476454692199995 0.9923060332047069 -0.07186978457961642 0.0018643236411904768 0.01468803429922562 -0.0016049985906631072 -0.00928699580107683
 0.9923060332047069 -0.07186978457961642 0.0061857502358528904 0.0304766140958304 -0.0016039934837269781 -0.009287057716649663 0.0018795740679602615 0.014685945988095582
 0.0018643236411904768 0.01468803429922562 -0.0016039934837269781 -0.009287057716649663 0.0061883121494181684 0.030474850522017028 0.9923059585668691 -0.0718713802405492
 -0.0016049985906631072 -0.00928699580107683 0.0018795740679602615 0.014685945988095582 0.9923059585668691 -0.0718713802405492 0.006185039094158365 0.03047511673582469
0.1250521050438 0.006586664622777609 0.03223085729531825 0.9917803703196659 -0.0757791020829827 0.0020389408832389585 0.015462796372434657 -0.0017542253840288028 -0.009779913359241528
 0.9917803703196659 -0.0757791020829827 0.0065844687385954665 0.03223103204521057 -0.0017531148030874688 -0.009779987658094949 0.0020558473228996987 0.015460427504545661
 0.0020389408832389585 0.015462796372434657 -0.0017531148030874688 -0.009779987658094949 0.006587307958712713 0.03222916841671095 0.9917802876154509 -0.07578078311464741
 -0.0017542253840288028 -0.009779913359241528 0.0020558473228996987 0.015460427504545661 0.9917802876154509 -0.07578078311464741 0.006583681397311628 0.0322294637012348
0.131304710296 0.007002096408204582 0.033998478429539535 0.9912335107921753 -0.0797003700615432 0.002221965632438297 0.01623700398937113 -0.001910698501056933 -0.010272474778817674
 0.9912335107921753 -0.0797003700615432 0.006999675728934798 0.03399866928129609 -0.001909477475451848 -0.010272562750069896 0.0022406141442753748 0.016234330125004838
 0.002221965632438297 0.01623700398937113 -0.001909477475451848 -0.010272562750069896 0.007002806642371263 0.03399670477010038 0.9912334195577706 -0.07970213670499074
 -0.001910698501056933 -0.010272474778817674 0.0022406141442753748 0.016234330125004838 0.9912334195577706 -0.07970213670499074 0.00699880836667105 0.033997031143771304
0.1375573155481 0.007335790884947026 0.035547647537472145 0.9907637285039077 -0.08340187503917806 0.0023893186412779245 0.01698678103474086 -0.002050323008321283 -0.010740834164963714
 0.9907637285039077 -0.08340187503917806 0.007333132858872929 0.035547849473131866 -0.0020489841204984374 -0.010740935817455277 0.0024097528588039206 0.016983807381826328
 0.0023893186412779245 0.01698678103474086 -0.0020489841204984374 -0.010740935817455277 0.007336570667536003 0.035545789067088406 0.9907636283494665 -0.08340372742747441
 -0.002050323008321283 -0.010740834164963714 0.0024097528588039206 0.016983807381826328 0.9907636283494665 -0.08340372742747441 0.007332182253570359 0.03554614252972332
0.1438099208003 0.0076811120774765065 0.03708918359956308 0.9902776362861853 -0.08709454765595162 0.0025634365897745375 0.017733916304014257 -0.00219555116592021 -0.011206758422959795
 0.9902776362861853 -0.08709454765595162 0.007678205419910446 0.037089396979220916 -0.0021940890628442352 -0.011206875016639842 0.002585734964908069 0.017730620643431408
 0.0025634365897745375 0.017733916304014257 -0.0021940890628442352 -0.011206875016639842 0.007681964673792849 0.03708724026271079 0.990277526749347 -0.08709648602557532
 -0.00219555116592021 -0.011206758422959795 0.002585734964908069 0.017730620643431408 0.990277526749347 -0.08709648602557532 0.007677167874165976 0.03708762244730617
0.1500625260525 0.008037945844965567 0.03862297381956353 0.9897753519111728 -0.0907783127892622 0.0027442642582020398 0.01847834626305522 -0.00234632894889264 -0.011670186223148712
 0.9897753519111728 -0.0907783127892622 0.008034779240125326 0.03862319903341338 -0.0023447382870191388 -0.011670319068434458 0.002768504795184577 0.018474705572841046
 0.0027442642582020398 0.01847834626305522 -0.0023447382870191388 -0.011670319068434458 0.008038874524571873 0.03862094556091203 0.9897752325220943 -0.09078033738316958
 -0.00234632894889264 -0.011670186223148712 0.002768504795184577 0.018474705572841046 0.9897752325220943 -0.09078033738316958 0.00803365107448028 0.03862135818157724
0.15631513130469998 0.00840617732260749 0.040148908884386596 0.9892569936559781 -0.0944530952539076 0.0029317458295174464 0.01922000836696582 -0.0025026017148469313 -0.012131057468960796
