! Created with skrf 1.8.0 (http://scikit-rf.org).
# GHz S RI R 50.0 
!freq ReS11 ImS11 ReS12 ImS12 ReS13 ImS13
! ReS14 ImS14
! ReS21 ImS21 ReS22 ImS22 ReS23 ImS23
! ReS24 ImS24
! ReS31 ImS31 ReS32 ImS32 ReS33 ImS33
! ReS34 ImS34
! ReS41 ImS41 ReS42 ImS42 ReS43 ImS43
! ReS44 ImS44
!
0.0 0.001437915858747 0.0 0.9985620841356 0.0 5.559781358246e-05 0.0 -5.559781340439e-05 6.808768422527802e-21
 0.9985620841356 0.0 0.001437915858715 0.0 -5.559781340418e-05 6.808768422502085e-21 5.559781358141e-05 0.0
 5.559781358246e-05 0.0 -5.559781340418e-05 6.808768422502085e-21 0.001437915857308 0.0 0.9985620841342 0.0
 -5.559781340439e-05 6.808768422527802e-21 5.559781358141e-05 0.0 0.9985620841342 0.0 0.00143791585729 0.0
0.005 0.0015468654472041898 0.0011707090680119167 0.9984242822787652 -0.003012756092976435 7.858225005913971e-05 0.0006475916143355979 -7.615987331998827e-05 -0.00040041950438376967
 0.9984242822787652 -0.003012756092976435 0.0015468598102917005 0.0011707124220095512 -7.61603877578608e-05 -0.00040041995486703923 7.86085190867735e-05 0.0006475815339429272
 7.858225005913971e-05 0.0006475916143355979 -7.61603877578608e-05 -0.00040041995486703923 0.0015468652602807764 0.001170776477634653 0.9984242826259042 -0.0030126890375143088
 -7.615987331998827e-05 -0.00040041950438376967 7.86085190867735e-05 0.0006475815339429272 0.9984242826259042 -0.0030126890375143088 0.0015468606882711455 0.0011707791212428556
0.006252605252188 0.001575358072527442 0.0014680303614028204 0.9983880294163379 -0.003766697613344187 8.509587229369374e-05 0.0008097928577459285 -8.193066875344815e-05 -0.0005010551722684796
 0.9983880294163379 -0.003766697613344187 0.001575349260625556 0.0014680346417104016 -8.193146882691843e-05 -0.0005010557289482798 8.513691446759543e-05 0.0008097797855331081
 8.509587229369374e-05 0.0008097928577459285 -8.193146882691843e-05 -0.0005010557289482798 0.0015753577142198136 0.0014681146262002912 0.9983880298932614 -0.003766613795575839
 -8.193066875344815e-05 -0.0005010551722684796 8.513691446759543e-05 0.0008097797855331081 0.9983880298932614 -0.003766613795575839 0.0015753505677708248 0.001468118007617965
0.01250521050438 0.0017248746149555907 0.0029671512206878204 0.9981965927884656 -0.007534313801131202 0.00012217072571224087 0.0016198779677336819 -0.00011448759640190843 -0.0010046279228834753
 0.9981965927884656 -0.007534313801131202 0.0017248394219496425 0.0029671606740545578 -0.00011449074416026228 -0.0010046289667809104 0.00012233436769618417 0.0016198467478300024
 0.00012217072571224087 0.0016198779677336819 -0.00011449074416026228 -0.0010046289667809104 0.0017248725929347674 0.0029673195532320847 0.9981965941097577 -0.007534146403556643
 -0.00011448759640190843 -0.0010046279228834753 0.00012233436769618417 0.0016198467478300024 0.9981965941097577 -0.007534146403556643 0.0017248440638988098 0.0029673270894848736
0.01875781575657 0.001886775406904475 0.004487902532469381 0.9979875481137338 -0.011312042176966217 0.00016690550915307746 0.0024308493169396175 -0.0001533660752026002 -0.0015099564555204705
 0.9979875481137338 -0.011312042176966217 0.0018866963129776538 0.004487918126738506 -0.00015337308763327046 -0.0015099579065223916 0.00016727305496595717 0.0024307939172052893
 0.00016690550915307746 0.0024308493169396175 -0.00015337308763327046 -0.0015099579065223916 0.0018867704277418464 0.004488154878452628 0.997987550663627 -0.011311791292063379
 -0.0001533660752026002 -0.0015099564555204705 0.00016727305496595717 0.0024307939172052893 0.997987550663627 -0.011311791292063379 0.0018867063349336218 0.004488167385527573
0.02501042100875 0.00206136214435017 0.006028160817647743 0.9977606608499577 -0.015101731034030999 0.00021938446091176547 0.0032427624222122536 -0.00019866054097257506 -0.002016812452306635
 0.9977606608499577 -0.015101731034030999 0.0020612216581836723 0.006028183591273176 -0.00019867291471387818 -0.0020168142179613547 0.00022003721139584416 0.0032426758945129134
 0.00021938446091176547 0.0032427624222122536 -0.00019867291471387818 -0.0020168142179613547 0.0020613529016243128 0.006028497157233238 0.9977606650068043 -0.015101396716408482
 -0.00019866054097257506 -0.002016812452306635 0.00022003721139584416 0.0032426758945129134 0.9977606650068043 -0.015101396716408482 0.002061239101377031 0.006028515490198821
0.03126302626094 0.002248923961496662 0.0075868414501952895 0.9975156839104178 -0.018904181024004284 0.0002796924196910628 0.004055594275125256 -0.00025046285149437383 -0.002525041159745254
 0.9975156839104178 -0.018904181024004284 0.002248704612501139 0.00758687251172329 -0.000250482066349734 -0.002525043135080773 0.0002807117496560223 0.004055468751722361
 0.0002796924196910628 0.004055594275125256 -0.000250482066349734 -0.002525043135080773 0.002248909139478392 0.007587261790128238 0.9975156900511423 -0.018903763298216084
 -0.00025046285149437383 -0.002525041159745254 0.0002807117496560223 0.004055468751722361 0.9975156900511423 -0.018903763298216084 0.00224873151875849 0.007587286842409689
0.037515631513130004 0.0024497438309372408 0.009163243408849237 0.9972523642425768 -0.022719800347444977 0.00034791399772011127 0.004869291125243349 -0.00030886300965320997 -0.003034513605098351
 0.9972523642425768 -0.022719800347444977 0.002449428164319261 0.009163283937081813 -0.0003088905304633712 -0.0030345156726026947 0.00034938139026004125 0.004869117810724323
 0.00034791399772011127 0.004869291125243349 -0.0003088905304633712 -0.0030345156726026947 0.0024497221072224437 0.009163747764618733 0.9972523727456465 -0.02271929922585981
 -0.00030886300965320997 -0.003034513605098351 0.00034938139026004125 0.004869117810724323 0.9972523727456465 -0.02271929922585981 0.002449466578651204 0.009163780467729095
0.043768236765320004 0.0026641010400255405 0.010756849883065621 0.9969704454822856 -0.026548804082497823 0.0004241331990643114 0.005683783014328408 -0.0003739494273842066 -0.0035451120586429703
 0.9969704454822856 -0.026548804082497823 0.002663671613395706 0.010756901127231286 -0.00037398670516650064 -0.003545114088277543 0.0004261302615883902 0.005683552176107555
 0.0004241331990643114 0.005683783014328408 -0.00037398670516650064 -0.003545114088277543 0.0026640710847042103 0.010757438273617312 0.9969704567275297 -0.02654821957064591
 -0.0003739494273842066 -0.0035451120586429703 0.0004261302615883902 0.005683552176107555 0.9969704567275297 -0.02654821957064591 0.00266372358310932 0.010757479596903275
0.050020842017509996 0.0028922723444159706 0.012367245856637395 0.9966696692880008 -0.03039129653404044 0.0005084331932777682 0.006498989778723336 -0.00044580902809274636 -0.004056724028232916
 0.9966696692880008 -0.03039129653404044 0.002891711725066999 0.012367309136801683 -0.000445857500826303 -0.004056725877466507 0.000511041663951166 0.006498690737030328
 0.0005084331932777682 0.006498989778723336 -0.000445857500826303 -0.004056725877466507 0.002892232819682042 0.012367918313076376 0.9966696836563299 -0.030390628622020844
 -0.00044580902809274636 -0.004056724028232916 0.000511041663951166 0.006498690737030328 0.9966696836563299 -0.030390628622020844 0.002891779299003049 0.012367969263562326
0.055454545454549996 0.0031019923393382034 0.01378008811568317 0.9963927695678243 -0.03374152104665956 0.0005883188844268008 0.007207941974627121 -0.0005138242647608392 -0.004502067821014182
 0.9963927695678243 -0.03374152104665956 0.0031013035575838256 0.013780162982877691 -0.0005138836243415602 -0.004502069388042912 0.0005915251705449299 0.007207574245439534
 0.0005883188844268008 0.007207941974627121 -0.0005138836243415602 -0.004502069388042912 0.003101943405772674 0.013780833655465808 0.9963927869607865 -0.033740780644541425
 -0.0005138242647608392 -0.004502067821014182 0.0005915251705449299 0.007207574245439534 0.9963927869607865 -0.033740780644541425 0.0031013863568814044 0.013780893819357253
0.056273447269699996 0.003134532565139158 0.013994077663422727 0.9963497761202812 -0.03424731161123525 0.0006008961574858491 0.007314823991633452 -0.0005245272771683928 -0.004569239315899475
 0.9963497761202812 -0.03424731161123525 0.0031338233274097486 0.013994154370900236 -0.0005245883703244914 -0.004569240829739329 0.000604197905557431 0.007314445109276452
 0.0006008961574858491 0.007314823991633452 -0.0005245883703244914 -0.004569240829739329 0.003134482125046594 0.013994834220329865 0.9963497939941646 -0.03424656028242882
 -0.0005245272771683928 -0.004569239315899475 0.000604197905557431 0.007314445109276452 0.9963497939941646 -0.03424656028242882 0.0031339085555398922 0.01399489584271635
0.06252605252188 0.0033911549128778076 0.01563703075103911 0.9960105057529149 -0.03811683499909295 0.0007016031512470337 0.008131192581445365 -0.000610188176749855 -0.0050825484009582094
 0.9960105057529149 -0.03811683499909295 0.003390279635915554 0.015637122348927477 -0.0006102633037107515 -0.005082549411993359 0.0007056801737031276 0.008130721253496436
 0.0007016031512470337 0.008131192581445365 -0.0006102633037107515 -0.005082549411993359 0.0033910922040485724 0.015637871448325773 0.9960105275167814 -0.03811600022844907
 -0.000610188176749855 -0.0050825484009582094 0.0007056801737031276 0.008130721253496436 0.9960105275167814 -0.03811600022844907 0.0033903845696598395 0.015637944824938233
0.06877865777407 0.0036624111642178255 0.017295816418182723 0.9956515976379681 -0.04199981735884456 0.000810634011583979 0.008947997795446631 -0.000702874238234242 -0.0055965414806684825
 0.9956515976379681 -0.04199981735884456 0.003661352430192555 0.01729592444189867 -0.0007029648006358076 -0.005596541809101467 0.0008155684270152948 0.008947420438954655
 0.000810634011583979 0.008947997795446631 -0.0007029648006358076 -0.005596541809101467 0.003662334825214926 0.017296741301743433 0.9956516236782865 -0.04199889911229331
 -0.000702874238234242 -0.0055965414806684825 0.0008155684270152948 0.008947420438954655 0.9956516236782865 -0.04199889911229331 0.0036614791210510603 0.01729682755267611
0.07503126302626001 0.00394857174965781 0.018970163411415896 0.9952727911861893 -0.04589618267189356 0.0009280672579387137 0.009765137814557814 -0.0008026664429344846 -0.006111107863100473
 0.9952727911861893 -0.04589618267189356 0.003947312141613867 0.018970289469369298 -0.0008027738308707565 -0.006111107316791054 0.0009339412984137761 0.009764439858316288
 0.0009280672579387137 0.009765137814557814 -0.0008027738308707565 -0.006111107316791054 0.003948480411145837 0.018971172532936613 0.9952728218918173 -0.04589518090667604
 -0.0008026664429344846 -0.006111107863100473 0.0009339412984137761 0.009764439858316288 0.9952728218918173 -0.04589518090667604 0.0039474626412915725 0.018971272816172335
0.08128386827845 0.004249905786379641 0.02065981233438919 0.9948738259953972 -0.049805833774778804 0.0010539800045516578 0.010582507162543846 -0.0009096441935842614 -0.006626135568908668
 0.9948738259953972 -0.049805833774778804 0.004248427886828236 0.020659958108680123 -0.0009097697858935843 -0.006626133943407191 0.0010608760057797767 0.010581673037004758
 0.0010539800045516578 0.010582507162543846 -0.0009097697858935843 -0.006626133943407191 0.004249798071518025 0.020660905748544203 0.994873861757989 -0.04980474844238
 -0.0009096441935842614 -0.006626135568908668 0.0010608760057797767 0.010581673037004758 0.994873861757989 -0.04980474844238 0.004248604246365884 0.020661021260209248
0.08753647353064001 0.004566681075933883 0.022364511772020878 0.9944544420463616 -0.053728656182818677 0.0011884478767091374 0.011399996991985817 -0.0010238852604557685 -0.0071415110599669564
 0.9944544420463616 -0.053728656182818677 0.004564967464304972 0.0223646790192924 -0.0010240304247878633 -0.007141508138552889 0.0011964482670316268 0.011399010119269783
 0.0011884478767091374 0.011399996991985817 -0.0010240304247878633 -0.007141508138552889 0.004566555599782952 0.022365689539689395 0.9944544832604463 -0.05372748722583171
 -0.0010238852604557685 -0.0071415110599669564 0.0011964482670316268 0.011399010119269783 0.9944544832604463 -0.05372748722583171 0.00456517173377821 0.02236582151438078
0.09378907878283 0.004899164074854919 0.02408401553378688 0.9940143798751021 -0.057664520798545706 0.0013315449296981779 0.012217495294177762 -0.001145465723280674 -0.007657119047727847
 0.9940143798751021 -0.057664520798545706 0.004897197326283966 0.02408420608601198 -0.0011456318162863625 -0.007657114601445904 0.0013407322179154087 0.01221633807827426
 0.0013315449296981779 0.012217495294177762 -0.0011456318162863625 -0.007657114601445904 0.00489901944469085 0.02408527772041634 0.9940144269384353 -0.05766326815249661
 -0.001145465723280674 -0.007657119047727847 0.0013407322179154087 0.01221633807827426 0.9940144269384353 -0.05766326815249661 0.004897431554065818 0.024085427431565373
0.100041684035 0.005247619848432372 0.025818080622086747 0.993553380730776 -0.06161328589911799 0.0014833435702135914 0.013034887054032393 -0.0012744599094204874 -0.008172842360456602
 0.993553380730776 -0.06161328589911799 0.00524538253208825 0.025818296387565495 -0.0012746482768757942 -0.008172836148153357 0.0014938003326312138 0.013033540871166413
 0.0014833435702135914 0.013034887054032393 -0.0012746482768757942 -0.008172836148153357 0.005247454664113 0.025819427297714286 0.9935534340448602 -0.061611949492601195
 -0.0012744599094204874 -0.008172842360456602 0.0014938003326312138 0.013033540871166413 0.9935534340448602 -0.061611949492601195 0.00524564876451679 0.02581959605804439
0.1059090909091 0.005589370541766242 0.027458345166166413 0.9931015102453052 -0.06533037994510509 0.001633767475981051 0.013801720640945547 -0.001402314588258387 -0.00865679276501528
 0.9931015102453052 -0.06533037994510509 0.005586863466004105 0.027458586396036693 -0.0014025250722655687 -0.008656784665322841 0.0016454906554343957 0.013800179270740386
 0.001633767475981051 0.013801720640945547 -0.0014025250722655687 -0.008656784665322841 0.005589184788809431 0.027459771194063502 0.993101569793047 -0.06532896486665256
 -0.001402314588258387 -0.00865679276501528 0.0016454906554343957 0.013800179270740386 0.993101569793047 -0.06532896486665256 0.005587161589598717 0.027459959059523708
0.1062942892872 0.005612312011037837 0.027566465711228352 0.9930711867234132 -0.06557479861759999 0.0016439144783148775 0.013852054372288598 -0.0014109403304576212 -0.008688561847073627
 0.9930711867234132 -0.06557479861759999 0.005609786688080206 0.0275667086755633 -0.0014111523073332738 -0.008688553615427204 0.0016557233448228157 0.013850499561532184
 0.0016439144783148775 0.013852054372288598 -0.0014111523073332738 -0.008688553615427204 0.005612124864170306 0.02756789695113083 0.9930712466929634 -0.06557337837165769
 -0.0014109403304576212 -0.008688561847073627 0.0016557233448228157 0.013850499561532184 0.9930712466929634 -0.06557337837165769 0.005610086968188721 0.02756808611332992
0.11254689453939999 0.0059935026552252 0.0293289299827091 0.99256754096223 -0.06954889607198009 0.0018133265308097801 0.014668876565072663 -0.0015549776161615722 -0.009204156307695043
 0.99256754096223 -0.06954889607198009 0.005990671877172254 0.02932920220996857 -0.0015552145266811218 -0.009204145791258037 0.0018265701703188237 0.014667092419118937
 0.0018133265308097801 0.014668876565072663 -0.0015552145266811218 -0.009204145791258037 0.005993292129946669 0.029330445867796793 0.9925676079966158 -0.06954739190006125
 -0.0015549776161615722 -0.009204156307695043 0.0018265701703188237 0.014667092419118937 0.9925676079966158 -0.06954739190006125 0.005991008245050606 0.029330656825042704
0.11879949979160001 0.006391452274303292 0.031105232214057525 0.9920421876918294 -0.07353540624575933 0.0019916467247163712 0.015485230243498972 -0.0017066404474309746 -0.009719502448333892
 0.9920421876918294 -0.07353540624575933 0.006388298581710532 0.0311055358478955 -0.0017069036052088685 -0.009719489369556838 0.0020064078300073723 0.015483194999656997
 0.0019916467247163712 0.015485230243498972 -0.0017069036052088685 -0.009719489369556838 0.006391216947215999 0.031106832832401173 0.9920422622045226 -0.07353381805221862
 -0.0017066404474309746 -0.009719502448333892 0.0020064078300073723 0.015483194999656997 0.9920422622045226 -0.07353381805221862 0.006388673073095421 0.031107067019202406
0.1250521050438 0.006806419677611714 0.032895130068219446 0.9914948724210977 -0.07753414867226341 0.00217894010162542 0.016300989385606743 -0.0018659954877137176 -0.01023447484736807
 0.9914948724210977 -0.07753414867226341 0.006802925597967404 0.03289546733317102 -0.0018662861957462601 -0.010234458916628405 0.0021953013734734134 0.016298680217129935
 0.00217894010162542 0.016300989385606743 -0.0018662861957462601 -0.010234458916628405 0.006806158117489859 0.03289681551017464 0.9914949548304361 -0.07753247635749741
 -0.0018659954877137176 -0.01023447484736807 0.0021953013734734134 0.016298680217129935 0.9914949548304361 -0.07753247635749741 0.006803340243975136 0.03289707440315646
0.131304710296 0.00723866190056256 0.03469837951618654 0.9909253420518207 -0.08154493499095505 0.002375269671974192 0.017116025397089167 -0.0020331073136204665 -0.01074894593769213
 0.9909253420518207 -0.08154493499095505 0.007234809946873273 0.03469875271899904 -0.002033426864351576 -0.010748926853365799 0.0023933138028466214 0.017113418404621848
 0.002375269671974192 0.017116025397089167 -0.002033426864351576 -0.010748926853365799 0.007238372668592666 0.03470014987944598 0.9909254327808904 -0.08154317844650531
 -0.0020331073136204665 -0.01074894593769213 0.0023933138028466214 0.017113418404621848 0.9909254327808904 -0.08154317844650531 0.00723526677305322 0.034700434998317105
0.1375573155481 0.00758702438061543 0.03627795331787981 0.9904347902262639 -0.08533068791820035 0.0025551706320887653 0.017905788815451823 -0.002182496299264376 -0.01123839724195904
 0.9904347902262639 -0.08533068791820035 0.007582796836088019 0.03627835645917444 -0.002182846759273142 -0.01123837500694452 0.002574941694142382 0.017902888735811733
 0.0025551706320887653 0.017905788815451823 -0.002182846759273142 -0.01123837500694452 0.007586706881840572 0.03627980844837624 0.9904348896528778 -0.08532884710675506
 -0.002182496299264376 -0.01123839724195904 0.002574941694142382 0.017902888735811733 0.9904348896528778 -0.08532884710675506 0.007583297106225482 0.03628011362638144
0.1438099208003 0.00794755362004418 0.03784955570419806 0.9899271460179546 -0.08910723024301467 0.002742348439043743 0.018692687519929797 -0.002337883098795536 -0.011725215077229716
 0.9899271460179546 -0.08910723024301467 0.007942932969141102 0.03784999050540104 -0.002338265884734841 -0.011725189393266357 0.0027639221269166385 0.018689472568771154
 0.002742348439043743 0.018692687519929797 -0.002338265884734841 -0.011725189393266357 0.007947206558187467 0.03785149566950188 0.9899272545627887 -0.08910530506281672
 -0.002337883098795536 -0.011725215077229716 0.0027639221269166385 0.018689472568771154 0.9899272545627887 -0.08910530506281672 0.00794347856370996 0.03785182188771899
0.1500625260525 0.008320127977219668 0.03941306642221101 0.9894025348666062 -0.09287447991819545 0.0029367424924549293 0.019476651592699887 -0.002499208477416961 -0.012209332201428778
 0.9894025348666062 -0.09287447991819545 0.008315096694099224 0.039413534689614095 -0.0024996250051305107 -0.012209302757999588 0.0029601940438645892 0.01947309919963623
 0.0029367424924549293 0.019476651592699887 -0.0024996250051305107 -0.012209302757999588 0.008319750058801608 0.039415091291581085 0.9894026529542147 -0.0928724702638258
 -0.002499208477416961 -0.012209332201428778 0.0029601940438645892 0.01947309919963623 0.9894026529542147 -0.0928724702638258 0.008315689479552399 0.03941543958871054
0.15631513130469998 0.008704625005123938 0.04096836890520053 0.9888610827875042 -0.09663235495078747 0.0031382915170873626 0.02025761222617809 -0.002666412504596308 -0.012690682748121782
