! Created with skrf 1.8.0 (http://scikit-rf.org).
# GHz S RI R 50.0 
!freq ReS11 ImS11 ReS12 ImS12 ReS13 ImS13
! ReS14 ImS14
! ReS21 ImS21 ReS22 ImS22 ReS23 ImS23
! ReS24 ImS24
! ReS31 ImS31 ReS32 ImS32 ReS33 ImS33
! ReS34 ImS34
! ReS41 ImS41 ReS42 ImS42 ReS43 ImS43
! ReS44 ImS44
!
0.0 0.00165785809058 0.0 0.9983421419082 0.0 6.391106588886e-05 0.0 -6.391106591893e-05 7.826848230771312e-21
 0.9983421419082 0.0 0.001657858090594 0.0 -6.391106591963e-05 7.826848230857037e-21 6.39110658887e-05 0.0
 6.391106588886e-05 0.0 -6.391106591963e-05 7.826848230857037e-21 0.001657858084119 0.0 0.9983421419017 0.0
 -6.391106591893e-05 7.826848230771312e-21 6.39110658887e-05 0.0 0.9983421419017 0.0 0.001657858084102 0.0
0.005 0.0017840215945559895 0.0013601659950237 0.998182491223607 -0.003472173750734127 8.906906849875549e-05 0.0006786440563286136 -8.664828864706416e-05 -0.00043036945153114114
 0.998182491223607 -0.003472173750734127 0.001784029521205745 0.0013601613113358702 -8.664747999855837e-05 -0.00043036877587372067 8.903068479503537e-05 0.0006786587705652164
 8.906906849875549e-05 0.0006786440563286136 -8.664747999855837e-05 -0.00043036877587372067 0.0017840226631516093 0.0013602326007654813 0.998182491592213 -0.003472106679374136
 -8.664828864706416e-05 -0.00043036945153114114 8.903068479503537e-05 0.0006786587705652164 0.998182491592213 -0.003472106679374136 0.0017840291808547725 0.0013602288398303557
0.006252605252188 0.001817213670096157 0.001705523866001349 0.998140211257972 -0.0043410477627248535 9.630144197953112e-05 0.000848639743357155 -9.310713539908341e-05 -0.000538506230927742
 0.998140211257972 -0.0043410477627248535 0.0018172260612128203 0.0017055178933932246 -9.310587751802261e-05 -0.0005385053968010797 9.624147241767482e-05 0.000848658840452981
 9.630144197953112e-05 0.000848639743357155 -9.310587751802261e-05 -0.0005385053968010797 0.0018172152598936598 0.001705607095863723 0.9981402117532244 -0.004340963940404465
 -9.310713539908341e-05 -0.000538506230927742 9.624147241767482e-05 0.000848658840452981 0.9981402117532244 -0.004340963940404465 0.0018172254475446667 0.0017056022893514374
0.01250521050438 0.0019925445699627915 0.0034464623538671265 0.9979153444583807 -0.008682756589295298 0.0001380148102266276 0.0016976744224371408 -0.00012996430153644205 -0.0010795319903354696
 0.9979153444583807 -0.008682756589295298 0.00199259405339724 0.003446449198775922 -0.0001299593496761246 -0.0010795304366509647 0.00013777570494521974 0.001697720262802019
 0.0001380148102266276 0.0016976744224371408 -0.0001299593496761246 -0.0010795304366509647 0.001992550388633028 0.0034466284352689175 0.9979153459027481 -0.008682589183311593
 -0.00012996430153644205 -0.0010795319903354696 0.00013777570494521974 0.001697720262802019 0.9979153459027481 -0.008682589183311593 0.0019925910582680737 0.003446617754979566
0.01875781575657 0.002184255435487203 0.00521188509942856 0.9976672463861171 -0.013035663580270392 0.00018915183581511027 0.0025476270092522025 -0.00017459960873302398 -0.0016223183593704596
 0.9976672463861171 -0.013035663580270392 0.0021843666394912903 0.0052118634241576645 -0.00017458857343118976 -0.0016223162225402767 0.00018861480765038717 0.002547708839648275
 0.00018915183581511027 0.0025476270092522025 -0.00017458857343118976 -0.0016223162225402767 0.0021842680954817944 0.00521213375226821 0.9976672492117907 -0.013035412638301346
 -0.00017459960873302398 -0.0016223183593704596 0.00018861480765038717 0.002547708839648275 0.9976672492117907 -0.013035412638301346 0.0021843594645633265 0.00521211605156602
0.02501042100875 0.002392737652252228 0.0069993039195001576 0.9973956096353894 -0.017401850593635734 0.0002498142980228043 0.003398508768555871 -0.00022712605713903425 -0.0021666112400107623
 0.9973956096353894 -0.017401850593635734 0.0023929351625563517 0.006999272265472658 -0.00022710658003907575 -0.0021666086808197946 0.0002488605803328418 0.0033986373796569386
 0.0002498142980228043 0.003398508768555871 -0.00022710658003907575 -0.0021666086808197946 0.002392759772010924 0.006999634815135728 0.9973956142849167 -0.017401516119693962
 -0.00022712605713903425 -0.0021666112400107623 0.0002488605803328418 0.0033986373796569386 0.9973956142849167 -0.017401516119693962 0.002392922006910351 0.006999608873430306
0.03126302626094 0.00261836645387819 0.008807424733392223 0.9971001119323758 -0.0217821923006536 0.0003201040931228425 0.004250255434991415 -0.00028765326623342107 -0.002712225179719508
 0.9971001119323758 -0.0217821923006536 0.0026186748253879074 0.008807381521611327 -0.0002876230148507538 -0.0027122223835686953 0.00031861483260315786 0.004250443168492057
 0.0003201040931228425 0.004250255434991415 -0.0002876230148507538 -0.0027122223835686953 0.002618400648824211 0.008807837486926564 0.9971001188509351 -0.021781774262273613
 -0.00028765326623342107 -0.002712225179719508 0.00031861483260315786 0.004250443168492057 0.9971001188509351 -0.021781774262273613 0.0026186538752393917 0.008807802010622832
0.037515631513130004 0.002861508734217968 0.0106353934440744 0.996780424241392 -0.026177110241733127 0.00040012226785555137 0.005102772522720081 -0.00035628820868439313 -0.003258998075364684
 0.996780424241392 -0.026177110241733127 0.0028619524988778232 0.010635336974972973 -0.0003562448737117039 -0.0032589952523065127 0.00039797848017880704 0.005103033285049043
 0.00040012226785555137 0.005102772522720081 -0.0003562448737117039 -0.0032589952523065127 0.0028615576185699655 0.010635887605649782 0.9967804338799656 -0.026176608578184875
 -0.00035628820868439313 -0.003258998075364684 0.00039797848017880704 0.005103033285049043 0.9967804338799656 -0.026176608578184875 0.002861921928983701 0.01063584122854556
0.043768236765320004 0.0031225260655690203 0.012482566448222905 0.9964362140784717 -0.03058680224297814 0.0004899685527186475 0.005955949112511996 -0.0004331354618866819 -0.003806777400651062
 0.9964362140784717 -0.03058680224297814 0.003123129737538702 0.012482494901206276 -0.0004330767556046121 -0.0038067747853618946 0.0004870511042596408 0.005956298390527975
 0.0004899685527186475 0.005955949112511996 -0.0004330767556046121 -0.0038067747853618946 0.0031225922491011737 0.012483141510530371 0.9964362268923951 -0.030586216857032646
 -0.0004331354618866819 -0.003806777400651062 0.0004870511042596408 0.005956298390527975 0.9964362268923951 -0.030586216857032646 0.003123087707613179 0.012483082794109616
0.050020842017509996 0.003401776085482908 0.014348415786572699 0.996067147198125 -0.03501133719081472 0.0005897410740247535 0.006809663548800938 -0.0005182972846553009 -0.004355414526847581
 0.996067147198125 -0.03501133719081472 0.003402564165690363 0.014348327219279049 -0.0005182209398157998 -0.0043554123785757405 0.0005859306782859747 0.006810118426158932
 0.0005897410740247535 0.006809663548800938 -0.0005182209398157998 -0.0043554123785757405 0.003401862173582548 0.014349071167243186 0.9960671636493087 -0.03501066796585829
 -0.0005182972846553009 -0.004355414526847581 0.0005859306782859747 0.006810118426158932 0.9960671636493087 -0.03501066796585829 0.0034025088211606614 0.014348998600610565
0.055454545454549996 0.003659535313558116 0.015984705277050915 0.9957259700325274 -0.03886843741937047 0.0006845825841088419 0.007551903579959127 -0.0005991356151678822 -0.004832778892509697
 0.9957259700325274 -0.03886843741937047 0.003660503540663422 0.015984600246024876 -0.0005990421159705711 -0.004832777379676683 0.0006798991996990661 0.0075524653530755735
 0.0006845825841088419 0.007551903579959127 -0.0005990421159705711 -0.004832777379676683 0.0036596408104144084 0.015985429932260813 0.9957259900249184 -0.038867695218866155
 -0.0005991356151678822 -0.004832778892509697 0.0006798991996990661 0.0075524653530755735 0.9957259900249184 -0.038867695218866155 0.0036604351067808685 0.01598534404607526
0.056273447269699996 0.0036996132019313115 0.016232482604160384 0.9956728886034936 -0.03945070149926822 0.0006995361421575306 0.007663786239337216 -0.0006118736187573396 -0.00490476194533658
 0.9956728886034936 -0.03945070149926822 0.003700610182133232 0.016232374951663076 -0.0006117773878718431 -0.004904760547849523 0.0006947133646255324 0.007664365413170245
 0.0006995361421575306 0.007663786239337216 -0.0006117773878718431 -0.004904760547849523 0.0036997217938861387 0.016233217653671948 0.9956729091606672 -0.039449948290800486
 -0.0006118736187573396 -0.00490476194533658 0.0006947133646255324 0.007664365413170245 0.9956729091606672 -0.039449948290800486 0.0037005396526011377 0.01623312965346744
0.06252605252188 0.00401638895957423 0.018134351546226467 0.9952531032221146 -0.04390482464584172 0.0008194480791178743 0.008518181204518211 -0.0007139620505842964 -0.0054546717457493385
 0.9952531032221146 -0.04390482464584172 0.00401761932612458 0.018134222619993763 -0.000713843705455204 -0.005454671407257764 0.0008134933477342583 0.008518905002112866
 0.0008194480791178743 0.008518181204518211 -0.000713843705455204 -0.005454671407257764 0.004016522647896569 0.01813516554548116 0.9952531283622982 -0.043903987283388166
 -0.0007139620505842964 -0.0054546717457493385 0.0008134933477342583 0.008518905002112866 0.9952531283622982 -0.043903987283388166 0.0040175317246942295 0.01813506045570108
0.06877865777407 0.004352452221134357 0.02005363552377332 0.9948074564010032 -0.048373594343264555 0.0009495690682565367 0.009372707001935765 -0.0008246577495279347 -0.006004994724572197
 0.9948074564010032 -0.048373594343264555 0.004353940457981162 0.02005348301057683 -0.0008245150808210294 -0.006004995777686069 0.0009423626881092013 0.009373597397243897
 0.0009495690682565367 0.009372707001935765 -0.0008245150808210294 -0.006004995777686069 0.00435261359045957 0.020054527678954156 0.994807486610601 -0.04837267263501493
 -0.0008246577495279347 -0.006004994724572197 0.0009423626881092013 0.009373597397243897 0.994807486610601 -0.04837267263501493 0.004353833881143376 0.020054403770449158
0.07503126302626001 0.0047081492397585195 0.021989966025374993 0.9943356142985726 -0.05285686617122991 0.0010899890160028642 0.010227217325515556 -0.0009440533929408689 -0.006555579825242431
 0.9943356142985726 -0.05285686617122991 0.004709919832246798 0.021989787485951744 -0.0009438842100056787 -0.006555582626883923 0.0010814111873193224 0.010228297955470263
 0.0010899890160028642 0.010227217325515556 -0.0009438842100056787 -0.006555582626883923 0.004708340865019847 0.021990935472799643 0.9943356500736893 -0.0528558598987887
 -0.0009440533929408689 -0.006555579825242431 0.0010814111873193224 0.010228297955470263 0.9943356500736893 -0.0528558598987887 0.004709792357816762 0.021990790942838224
0.08128386827845 0.005083823661740365 0.023942986695702936 0.9938372442100764 -0.05735446994830042 0.0012407954221827218 0.011081561411311515 -0.0010722390818099835 -0.007106273777848848
 0.9938372442100764 -0.05735446994830042 0.0050859010992030705 0.02394277956339564 -0.0010720412123809413 -0.007106278709204304 0.001230726260216446 0.01108285759185029
 0.0012407954221827218 0.011081561411311515 -0.0010720412123809413 -0.007106278709204304 0.005084048106901832 0.02394403250006498 0.9938372860578721 -0.05735337886808053
 -0.0010722390818099835 -0.007106273777848848 0.001230726260216446 0.01108285759185029 0.9938372860578721 -0.05735337886808053 0.005085750786625189 0.023943865471558176
0.08753647353064001 0.005479816484188557 0.02591234889704192 0.9933120148532263 -0.06186621412823212 0.0014020732549788787 0.011935584327950695 -0.0012093022498868126 -0.007656920860831175
 0.9933120148532263 -0.06186621412823212 0.005482225263311954 0.025912110476161255 -0.0012090735400413406 -0.00765692832726748 0.0013903928124353723 0.011937123069715658
 0.0014020732549788787 0.011935584327950695 -0.0012090735400413406 -0.00765692832726748 0.005480076300674619 0.02591347004841491 0.9933120632924692 -0.061865037974044794
 -0.0012093022498868126 -0.007656920860831175 0.0013903928124353723 0.011937123069715658 0.9933120632924692 -0.061865037974044794 0.005482050151857336 0.025913278569129977
0.09378907878283 0.005896465979215194 0.027897708533084677 0.9927595966242843 -0.06639188894139035 0.001573904829705695 0.0127891271937944 -0.0013553275685509382 -0.008207362742655095
 0.9927595966242843 -0.06639188894139035 0.00589923060725463 0.027897435997206465 -0.001355065882603928 -0.0082073731736572 0.001560493120482201 0.01279093721742662
 0.001573904829705695 0.0127891271937944 -0.001355065882603928 -0.0082073731736572 0.0058967637050817675 0.027898903947025423 0.99275965218694 -0.06639062742417352
 -0.0013553275685509382 -0.008207362742655095 0.001560493120482201 0.01279093721742662 0.99275965218694 -0.06639062742417352 0.0058990287160839965 0.027898685988562166
0.100041684035 0.006334107597402049 0.029898723726959477 0.9921796618366737 -0.07093126869033733 0.0017563696897901708 0.013642027348602478 -0.001510396848352905 -0.008757438375918636
 0.9921796618366737 -0.07093126869033733 0.006337252594454227 0.02989841411708177 -0.0015101000687640957 -0.008757452225020203 0.001741106714252313 0.013644139099624836
 0.0017563696897901708 0.013642027348602478 -0.0015101000687640957 -0.008757452225020203 0.0063344457552225305 0.029899992247314586 0.9921797250686065 -0.07092992149508719
 -0.001510396848352905 -0.008757438375918636 0.001741106714252313 0.013644139099624836 0.9921797250686065 -0.07092992149508719 0.006337021921510282 0.029899745703993025
0.1059090909091 0.0067641761842297385 0.03179039870394224 0.991610138520684 -0.07520324608059152 0.0019373327855515634 0.014441651053400555 -0.0016642085809895277 -0.009273147014788315
 0.991610138520684 -0.07520324608059152 0.00676770043268949 0.03179005149294611 -0.0016638769600643066 -0.009273164505253307 0.0019202234659613864 0.014444075182676519
 0.0019373327855515634 0.014441651053400555 -0.0016638769600643066 -0.009273164505253307 0.006764554562492405 0.031791734707351846 0.991610209458998 -0.0752018181801123
 -0.0016642085809895277 -0.009273147014788315 0.0019202234659613864 0.014444075182676519 0.991610209458998 -0.0752018181801123 0.006767440910379553 0.03179145935502605
0.1062942892872 0.006793073852524245 0.03191505309074486 0.9915718849460572 -0.0754841134618852 0.0019495444895729055 0.014494118492763762 -0.0016745889379500578 -0.009306983931041042
 0.9915718849460572 -0.0754841134618852 0.006796623755208993 0.0319147033132185 -0.0016742549653671174 -0.009307001675749643 0.0019323102612348922 0.014496564156050917
 0.0019495444895729055 0.014494118492763762 -0.0016742549653671174 -0.009307001675749643 0.006793454948098844 0.03191639348401271 0.9915719564078499 -0.07548268025322602
 -0.0016745889379500578 -0.009306983931041042 0.0019323102612348922 0.014496564156050917 0.9915719564078499 -0.07548268025322602 0.006796362276083177 0.031916116171496825
0.11254689453939999 0.007273694193874082 0.033946354390983466 0.9909359427649296 -0.08005017045202602 0.0021535028785000807 0.01534523080591873 -0.0018479796215367763 -0.009855832757709215
 0.9909359427649296 -0.08005017045202602 0.007277673557699806 0.03394596121527477 -0.0018476063747582068 -0.009855854899428956 0.0021341774515239854 0.015348044319623938
 0.0021535028785000807 0.01534523080591873 -0.0018476063747582068 -0.009855854899428956 0.0072741207146964255 0.03394776535261811 0.9909360230331541 -0.0800486508677368
 -0.0018479796215367763 -0.009855832757709215 0.0021341774515239854 0.015348044319623938 0.9909360230331541 -0.0800486508677368 0.007277379225180906 0.03394745500646792
0.11879949979160001 0.007776294869095073 0.03599228352813377 0.9902715146724773 -0.08462917498546377 0.0023683153861084228 0.01619519105239251 -0.002030641514681227 -0.010403815366922703
 0.9902715146724773 -0.08462917498546377 0.007780728271778326 0.03599184358451889 -0.002030226930720137 -0.010403842430874888 0.0023467788843474593 0.01619840812146771
 0.0023683153861084228 0.01619519105239251 -0.002030226930720137 -0.010403842430874888 0.007776769282898602 0.03599376367546383 0.9902716043406595 -0.08462756864363527
 -0.002030641514681227 -0.010403815366922703 0.0023467788843474593 0.01619840812146771 0.9902716043406595 -0.08462756864363527 0.007780399014827304 0.03599341794943409
0.1250521050438 0.008301198778157184 0.03805249373002424 0.9895782828169694 -0.0892208513303774 0.002594049308495041 0.017043822676597084 -0.0022226439592791577 -0.010950759430626863
 0.9895782828169694 -0.0892208513303774 0.00830611082188164 0.03805200350705797 -0.0022221859933428847 -0.010950791965792439 0.0025701819549628917 0.017047480785656332
 0.002594049308495041 0.017043822676597084 -0.0022221859933428847 -0.010950791965792439 0.008301723530962481 0.03805404160624515 0.9895783824964915 -0.0892191578254791
 -0.0022226439592791577 -0.010950759430626863 0.0025701819549628917 0.017047480785656332 0.9895783824964915 -0.0892191578254791 0.008305744545072304 0.03805365807044923
0.131304710296 0.008848725321055271 0.040126634909162184 0.9888559323166328 -0.09382491335860486 0.0028307685949438637 0.01789094589261192 -0.0024240529180618196 -0.011496489794600648
 0.9888559323166328 -0.09382491335860486 0.008854140635755564 0.04012609075091673 -0.0024235495436668447 -0.011496528373614489 0.0028044507425876507 0.01789508431831565
 0.0028307685949438637 0.01789094589261192 -0.0024235495436668447 -0.011496528373614489 0.00884930283595279 0.04012824898443113 0.9888560426379597 -0.09382313226047338
 -0.0024240529180618196 -0.011496489794600648 0.0028044507425876507 0.01789508431831565 0.9888560426379597 -0.09382313226047338 0.008853735218021193 0.040127825123358725
0.1375573155481 0.00929726491874265 0.04194550544754827 0.9882261316863622 -0.09817207784884688 0.0030496633808881203 0.018710294704506473 -0.0026060936586530903 -0.012014741529856413
 0.9882261316863622 -0.09817207784884688 0.00930320865081327 0.041944914622415924 -0.00260554170363687 -0.01201478622833173 0.003020832010966986 0.018714909382864468
 0.0030496633808881203 0.018710294704506473 -0.00260554170363687 -0.01201478622833173 0.009297896840444514 0.041947184676052865 0.9882262531498114 -0.09817020890203457
 -0.0026060936586530903 -0.012014741529856413 0.003020832010966986 0.018714909382864468 0.9882262531498114 -0.09817020890203457 0.00930276297621322 0.04194672818113453
0.1438099208003 0.009761715763367396 0.04375417075268218 0.9875739437063208 -0.10250756179261111 0.0032773735190857215 0.01952587070850689 -0.0027953812299659976 -0.012529527248584747
 0.9875739437063208 -0.10250756179261111 0.009768212622869185 0.043753530307067114 -0.0027947784882632622 -0.012529578637815137 0.0032459193898978205 0.019530997784094974
 0.0032773735190857215 0.01952587070850689 -0.0027947784882632622 -0.012529578637815137 0.009762404341831558 0.043755913582896315 0.9875740769427981 -0.1025056045766459
 -0.0027953812299659976 -0.012529527248584747 0.0032459193898978205 0.019530997784094974 0.9875740769427981 -0.1025056045766459 0.009767724714936244 0.0437554225961569
0.1500625260525 0.010241904863196762 0.0455524603022753 0.9868995458765177 -0.10683123737009641 0.0035138138971044426 0.02033757640075632 -0.0029918329502854023 -0.013040755395597986
 0.9868995458765177 -0.10683123737009641 0.010248979581684876 0.045551767133909696 -0.0029911772196771825 -0.013040814070122187 0.003479628544381437 0.020343253327311604
 0.0035138138971044426 0.02033757640075632 -0.0029911772196771825 -0.013040814070122187 0.010242652316976214 0.045554265122431006 0.9868996915331744 -0.10682919144939973
 -0.0029918329502854023 -0.013040755395597986 0.003479628544381437 0.020343253327311604 0.9868996915331744 -0.10682919144939973 0.010248447451250716 0.045553737679312
0.15631513130469998 0.010737657888091183 0.04734020865932783 0.9862031167199686 -0.11114297764507498 0.003758898327373738 0.02114531608223711 -0.003195365059666603 -0.013548336457804658
 0.9862031167199686 -0.11114297764507498 0.010745335219580243 0.04733945951534418 -0.0031946541419176633 -0.013548403035391997 0.0037218740786245674 0.021151581606297404
