! Created with skrf 1.8.0 (http://scikit-rf.org).
# GHz S RI R 50.0 
!freq ReS11 ImS11 ReS12 ImS12 ReS13 ImS13
! ReS14 ImS14
! ReS21 ImS21 ReS22 ImS22 ReS23 ImS23
! ReS24 ImS24
! ReS31 ImS31 ReS32 ImS32 ReS33 ImS33
! ReS34 ImS34
! ReS41 ImS41 ReS42 ImS42 ReS43 ImS43
! ReS44 ImS44
!
0.0 0.001375248534416 0.0 0.9986247514513 0.0 5.283940514904e-05 0.0 -5.283940506034e-05 6.4709608275995836e-21
 0.9986247514513 0.0 0.00137524853445 0.0 -5.283940506085e-05 6.470960827662041e-21 5.283940514978e-05 0.0
 5.283940514904e-05 0.0 -5.283940506085e-05 6.470960827662041e-21 0.001375248541548 0.0 0.9986247514585 0.0
 -5.283940506034e-05 6.4709608275995836e-21 5.283940514978e-05 0.0 0.9986247514585 0.0 0.001375248541551 0.0
0.005 0.0014792353210147287 0.0011240201540313086 0.998493268985572 -0.002881355876926367 7.395157057798525e-05 0.0005907369236190721 -7.1846439530381e-05 -0.0003693788812595371
 0.998493268985572 -0.002881355876926367 0.001479231474361394 0.0011240224324945446 -7.184489687487142e-05 -0.00036937777904893793 7.398040923956185e-05 0.0005907259917748431
 7.395157057798525e-05 0.0005907369236190721 -7.184489687487142e-05 -0.00036937777904893793 0.001479235360398357 0.001123952925896939 0.9984932686497324 -0.002881422944332511
 -7.1846439530381e-05 -0.0003693788812595371 7.398040923956185e-05 0.0005907259917748431 0.9984932686497324 -0.002881422944332511 0.0014792307704616042 0.001123955532885009
0.006252605252188 0.001506380001354109 0.0014094712879067755 0.9984587524369521 -0.003602420420024571 7.990077754573703e-05 0.0007387122975569695 -7.715343979770463e-05 -0.00046221071552846987
 0.9984587524369521 -0.003602420420024571 0.001506373987988376 0.0014094741826747605 -7.715103860295482e-05 -0.000462209357934887 7.994583609099493e-05 0.0007386981037826523
 7.990077754573703e-05 0.0007387122975569695 -7.715103860295482e-05 -0.000462209357934887 0.0015063801296653825 0.0014093872708499258 0.9984587519792041 -0.0036025042462612946
 -7.715343979770463e-05 -0.00046221071552846987 7.994583609099493e-05 0.0007386981037826523 0.9984587519792041 -0.0036025042462612946 0.0015063729553419882 0.0014093905628456479
0.01250521050438 0.0016485306595633395 0.0028487101808147355 0.9982769084967789 -0.007205777489134414 0.00011358329628918312 0.0014778127515006605 -0.00010694585263310083 -0.0009267532001365185
 0.9982769084967789 -0.007205777489134414 0.0016485066424739246 0.0028487164340802755 -0.00010693638115482354 -0.0009267507051475892 0.00011376300112859532 0.0014777787009927022
 0.00011358329628918312 0.0014778127515006605 -0.00010693638115482354 -0.0009267507051475892 0.0016485317017453293 0.002848542506004071 0.9982769072036254 -0.007205944904072677
 -0.00010694585263310083 -0.0009267532001365185 0.00011376300112859532 0.0014777787009927022 0.9982769072036254 -0.007205944904072677 0.0016485030649423396 0.0028485494225479915
0.01875781575657 0.001801984382729951 0.004308685801624894 0.9980790124905243 -0.01081887024610036 0.00015396126681804757 0.0022178241025496877 -0.00014230280152748427 -0.0013929640582288447
 0.9980790124905243 -0.01081887024610036 0.001801930404756214 0.004308695894833377 -0.00014228166738170837 -0.001392960687060417 0.00015436500715918384 0.002217763522431572
 0.00015396126681804757 0.0022178241025496877 -0.00014228166738170837 -0.001392960687060417 0.001801987133863998 0.004308434713879436 0.9980790100026651 -0.010819121179526402
 -0.00014230280152748427 -0.0013929640582288447 0.00015436500715918384 0.002217763522431572 0.9980790100026651 -0.010819121179526402 0.0018019228074916433 0.004308445612126507
0.02501042100875 0.0019670180931804365 0.00578737998768841 0.9978648498637781 -0.014443477388373262 0.00020110985932636185 0.002958798301022728 -0.00018330808260286221 -0.001860646467873386
 0.9978648498637781 -0.014443477388373262 0.001966922216148174 0.005787394415957336 -0.00018327074379374258 -0.0018606425272021635 0.0002018270954122104 0.002958703546190707
 0.00020110985932636185 0.002958798301022728 -0.00018327074379374258 -0.0018606425272021635 0.0019670233364425856 0.005787045722344076 0.9978648458148188 -0.014443811833468358
 -0.00018330808260286221 -0.001860646467873386 0.0002018270954122104 0.002958703546190707 0.9978648458148188 -0.014443811833468358 0.001966909135252568 0.005787060978233443
0.03126302626094 0.002143897142135566 0.007283767889175668 0.9976341942014049 -0.01808037663935272 0.00025510482345688637 0.0037007187071114674 -0.00023004339562020593 -0.0023296680087104065
 0.9976341942014049 -0.01808037663935272 0.002143747440693922 0.007283787160271739 -0.0002299853517929353 -0.0023296638513168803 0.0002562251724041988 0.003700581154279259
 0.00025510482345688637 0.0037007187071114674 -0.0002299853517929353 -0.0023296638513168803 0.002143905655219888 0.007283350705231091 0.9976341882221108 -0.018080794619976078
 -0.00023004339562020593 -0.0023296680087104065 0.0002562251724041988 0.003700581154279259 0.9976341882221108 -0.018080794619976078 0.0021437274273838403 0.007283370712127758
0.037515631513130004 0.0023328813018716186 0.008797191683212644 0.9973868133670246 -0.021729970978698047 0.0003160217970327146 0.0044435418762647045 -0.00028258895434385406 -0.0027999188728810814
 0.9973868133670246 -0.021729970978698047 0.002332665859304488 0.008797216316889699 -0.00028250574227642257 -0.002799914897908681 0.0003176350733937313 0.004443351913495537
 0.0003160217970327146 0.0044435418762647045 -0.00028250574227642257 -0.002799914897908681 0.0023328938576900058 0.008796691874008628 0.9973868050846779 -0.0217304725390854
 -0.00028258895434385406 -0.0027999188728810814 0.0003176350733937313 0.004443351913495537 0.9973868050846779 -0.0217304725390854 0.0023326374798501113 0.008796717041769278
0.043768236765320004 0.0025342270934216866 0.01032717000145863 0.9971224719789853 -0.025392479152244213 0.00038393598736528325 0.005187210264436015 -0.0003410237114548589 -0.003271299152556972
 0.9971224719789853 -0.025392479152244213 0.0025339339982989742 0.010327200528939874 -0.0003409109025054706 -0.0032712958056669403 0.0003861322242879232 0.005186957279284421
 0.00038393598736528325 0.005187210264436015 -0.0003409109025054706 -0.0032712958056669403 0.002534244462344968 0.010326587890354432 0.9971224610171908 -0.02539306436161724
 -0.0003410237114548589 -0.003271299152556972 0.0003861322242879232 0.005186957279284421 0.9971224610171908 -0.02539306436161724 0.002533895834890133 0.010326618644787898
0.050020842017509996 0.0027481888694109737 0.011873319148621176 0.9968409326415882 -0.029068014388753425 0.0004589219832132872 0.005931657469459339 -0.0004054254473979133 -0.0037437135913902546
 0.9968409326415882 -0.029068014388753425 0.0027478062120834664 0.011873356112178532 -0.0004052786457820685 -0.003743711364858516 0.0004617914433493911 0.005931329836514837
 0.0004589219832132872 0.005931657469459339 -0.0004052786457820685 -0.003743711364858516 0.0027482118198271445 0.01187265508698585 0.996840918619881 -0.029068683343633737
 -0.0004054254473979133 -0.0037437135913902546 0.0004617914433493911 0.005931329836514837 0.996840918619881 -0.029068683343633737 0.0027477568633431783 0.011872691869338287
0.055454545454549996 0.00294457019180445 0.013229849083649086 0.9965821142328916 -0.03227278266357782 0.0005298876238681296 0.006579180822959038 -0.0004662979727735179 -0.00415502351922585
 0.9965821142328916 -0.03227278266357782 0.0029441000298246665 0.013229892089001228 -0.0004661180853506477 -0.004155022702375638 0.0005334156216452923 0.006578778081236194
 0.0005298876238681296 0.006579180822959038 -0.0004661180853506477 -0.004155022702375638 0.0029445986156795404 0.013229114118973987 0.996582097238745 -0.03227352448822754
 -0.0004662979727735179 -0.00415502351922585 0.0005334156216452923 0.006578778081236194 0.996582097238745 -0.03227352448822754 0.0029440398348564083 0.013229156509849368
0.056273447269699996 0.0029750193803630936 0.013435314445780205 0.9965419566641097 -0.032756622992307846 0.0005410536232430721 0.00667681080830263 -0.0004758707992178214 -0.004217069001358352
 0.9965419566641097 -0.032756622992307846 0.002974535250616935 0.013435358398326038 -0.0004756856409907025 -0.004217068434162166 0.0005446868036144874 0.006676395876415037
 0.0005410536232430721 0.00667681080830263 -0.0004756856409907025 -0.004217068434162166 0.002975048679077964 0.013434568822559867 0.9965419391962117 -0.03275737580714478
 -0.0004758707992178214 -0.004217069001358352 0.0005446868036144874 0.006676395876415037 0.9965419391962117 -0.03275737580714478 0.0029744733308673253 0.013434612089167465
0.06252605252188 0.003214970085200942 0.015012868974498002 0.9962253045253133 -0.036458305534815154 0.00063040389411552 0.007422592722612766 -0.0005524352575374918 -0.004691272853164419
 0.9962253045253133 -0.036458305534815154 0.003214372569367012 0.015012920479378362 -0.0005522074098901702 -0.004691274531059372 0.000634891526875237 0.007422076801962625
 0.00063040389411552 0.007422592722612766 -0.0005522074098901702 -0.004691274531059372 0.003215006499530134 0.015012042211861032 0.9962252832200597 -0.03645914234657782
 -0.0005524352575374918 -0.004691272853164419 0.000634891526875237 0.007422076801962625 0.9962252832200597 -0.03645914234657782 0.0032142967101490734 0.015012092433851385
0.06877865777407 0.0034682913243931873 0.01660572090519664 0.9958907362041366 -0.04017302946629974 0.0007270448432749209 0.008168921625068258 -0.0006351931467655029 -0.005166232428009782
 0.9958907362041366 -0.04017302946629974 0.0034675685025426875 0.016605780535912457 -0.0006349183075239019 -0.005166236983587141 0.0007324778937365257 0.008168289974173694
 0.0007270448432749209 0.008168921625068258 -0.0006349183075239019 -0.005166236983587141 0.003468335622374815 0.016604813459381168 0.9958907106638293 -0.04017395043379491
 -0.0006351931467655029 -0.005166232428009782 0.0007324778937365257 0.008168289974173694 0.9958907106638293 -0.04017395043379491 0.0034674773527117913 0.016604871122470912
0.07503126302626001 0.0037352324108361474 0.018213625455123693 0.9955380114303513 -0.04390073709765637 0.0008310475018361572 0.008915712427451308 -0.000724217593545287 -0.005641854290073754
 0.9955380114303513 -0.04390073709765637 0.003734372354300132 0.018213693795238278 -0.0007238914909142416 -0.005641862402821384 0.0008375171642967919 0.008914949240136288
 0.0008310475018361572 0.008915712427451308 -0.0007238914909142416 -0.005641862402821384 0.003735285362026042 0.018212637818982524 0.9955379812503001 -0.043901742399163717
 -0.000724217593545287 -0.005641854290073754 0.0008375171642967919 0.008914949240136288 0.9955379812503001 -0.043901742399163717 0.0037342645801828967 0.01821270342335885
0.08128386827845 0.004016041669716754 0.019836349547602744 0.9951668898878433 -0.04764135088492025 0.0009424818126348879 0.009662876900107333 -0.000819580488436261 -0.006118043930185228
 0.9951668898878433 -0.04764135088492025 0.004015032438378868 0.019836427190606045 -0.0008191988808822727 -0.006118056326527562 0.0009500795046256423 0.009661965292475042
 0.0009424818126348879 0.009662876900107333 -0.0008191988808822727 -0.006118056326527562 0.004016104046849888 0.019835282249699077 0.9951668546556909 -0.04764244071917071
 -0.000819580488436261 -0.006118043930185228 0.0009500795046256423 0.009661965292475042 0.9951668546556909 -0.04764244071917071 0.0040149067248908335 0.019835356309944336
0.08753647353064001 0.004310966444798625 0.021473668105401085 0.9947771313852019 -0.0513947770819663 0.0010614165616624946 0.010410323915439548 -0.0009213524428527317 -0.006594705528162633
 0.9947771313852019 -0.0513947770819663 0.004309796084449825 0.021473755654704146 -0.0009209111190361016 -0.006594722981505051 0.0010702339168969695 0.010409245912887105
 0.0010614165616624946 0.010410323915439548 -0.0009209111190361016 -0.006594722981505051 0.004311039024050231 0.021472521710889342 0.9947770906803183 -0.05139595166737151
 -0.0009213524428527317 -0.006594705528162633 0.0010702339168969695 0.010409245912887105 0.9947770906803183 -0.05139595166737151 0.004309651135097653 0.021472604756046846
0.09378907878283 0.004620253081216618 0.02312536141182533 0.9943684960078242 -0.05516090832857216 0.0011879193122692653 0.011157959630033524 -0.0010296027418210264 -0.007071741779356417
 0.9943684960078242 -0.05516090832857216 0.004618909620927393 0.023125459480856973 -0.0010290975206584177 -0.007071765110121726 0.0011980481725962313 0.011156696154330488
 0.0011879193122692653 0.011157959630033524 -0.0010290975206584177 -0.007071765110121726 0.004620336643361762 0.023124136521075367 0.9943684494002907 -0.0551621679046669
 -0.0010296027418210264 -0.007071741779356417 0.0011980481725962313 0.011156696154330488 0.9943684494002907 -0.0551621679046669 0.004618744158550672 0.023124229094699637
0.100041684035 0.004944146891662964 0.02479121316951853 0.9939407442538862 -0.058939625544019346 0.0013220563406411247 0.011905687615278568 -0.0011443992944125169 -0.007549053775649371
 0.9939407442538862 -0.058939625544019346 0.004942618340987694 0.024791322381843256 -0.0011438260251958555 -0.00754908385129733 0.001333588746883164 0.011904218471685303
 0.0013220563406411247 0.011905687615278568 -0.0011438260251958555 -0.00754908385129733 0.004944242223282769 0.024789910417719215 0.9939406913044148 -0.05894097037180985
 -0.0011443992944125169 -0.007549053775649371 0.001333588746883164 0.011904218471685303 0.9939406913044148 -0.05894097037180985 0.004942431108396892 0.024790013078148702
0.1059090909091 0.005261589519532105 0.026367124360675606 0.993521745595738 -0.06249688254580836 0.001454930858977032 0.012607346865551783 -0.0012581366688941174 -0.007997121656191701
 0.993521745595738 -0.06249688254580836 0.005259876356370758 0.026367244606138904 -0.0012574957959832036 -0.007997158892059231 0.001467864223040973 0.012605665351776279
 0.001454930858977032 0.012607346865551783 -0.0012574957959832036 -0.007997158892059231 0.005261696616953456 0.026365749155973534 0.9935216862860825 -0.06249830762707403
 -0.0012581366688941174 -0.007997121656191701 0.001467864223040973 0.012605665351776279 0.9935216862860825 -0.06249830762707403 0.005259667569722922 0.026365861802991757
0.1062942892872 0.005282892109605611 0.026471009036964088 0.9934936371614229 -0.06273079934608276 0.0014638925722043775 0.012653408959580045 -0.001265808581903601 -0.008026540917857844
 0.9934936371614229 -0.06273079934608276 0.005281166456022475 0.026471130026494434 -0.0012651631444645399 -0.00802657865290627 0.0014769207544663007 0.012651712824091948
 0.0014638925722043775 0.012653408959580045 -0.0012651631444645399 -0.00802657865290627 0.005283000004092512 0.026469629098130016 0.9934935774203378 -0.06273222970405297
 -0.001265808581903601 -0.008026540917857844 0.0014769207544663007 0.012651712824091948 0.9934935774203378 -0.06273222970405297 0.005280956216782179 0.026469742418719768
0.11254689453939999 0.005636731834178554 0.028164535517444054 0.9930269364287839 -0.06653429112119966 0.0016134915187784908 0.013401022351945506 -0.0013938956043558278 -0.008504100849910755
 0.9930269364287839 -0.06653429112119966 0.005634797040234459 0.028164668928715286 -0.0013931739092758798 -0.00850414720593709 0.0016281078858595395 0.013399076758566483
 0.0016134915187784908 0.013401022351945506 -0.0013931739092758798 -0.00850414720593709 0.005636853092585729 0.028163079100486505 0.9930268694351521 -0.06653580730916028
 -0.0013938956043558278 -0.008504100849910755 0.0016281078858595395 0.013399076758566483 0.9930268694351521 -0.06653580730916028 0.0056345625790910755 0.028163203669968512
0.11879949979160001 0.006005907967088033 0.029871579083740246 0.9925404045294031 -0.07034995386240783 0.0017709152161393845 0.014148424147483069 -0.0015287238257228348 -0.008981629414249697
 0.9925404045294031 -0.07034995386240783 0.006003751967664718 0.02987172557229388 -0.0015279218145802568 -0.008981685399903053 0.0017872123443686834 0.014146205475704618
 0.0017709152161393845 0.014148424147483069 -0.0015279218145802568 -0.008981685399903053 0.006006043398983068 0.02987004693357094 0.992540329810643 -0.07035155620031541
 -0.0015287238257228348 -0.008981629414249697 0.0017872123443686834 0.014146205475704618 0.992540329810643 -0.07035155620031541 0.00600349209107912 0.029870183356516908
0.1250521050438 0.006390661142799333 0.031591925489941185 0.9920338048231115 -0.07417763282385785 0.0019362241617027023 0.014895508424968631 -0.0016703551179651794 -0.009459020618481667
 0.9920338048231115 -0.07417763282385785 0.006388271842299242 0.03159208572281503 -0.0016694687636274448 -0.009459087289464848 0.0019542947832355477 0.01489299188730887
 0.0019362241617027023 0.014895508424968631 -0.0016694687636274448 -0.009459087289464848 0.006390811567755866 0.03159031838831133 0.9920337218941109 -0.07417932165074675
 -0.0016703551179651794 -0.009459020618481667 0.0019542947832355477 0.01489299188730887 0.9920337218941109 -0.07417932165074675 0.0063879853794880795 0.03159046728565967
0.131304710296 0.006791230655713811 0.03332535921987036 0.9915069016656679 -0.0780171660425088 0.0021094772526189447 0.015642167034728337 -0.0018188497040854293 -0.009936166615054755
 0.9915069016656679 -0.0780171660425088 0.006788595925092148 0.03332553387611801 -0.0018178750110450549 -0.009936245074107201 0.0021294142430896856 0.015639326664393445
 0.0021094772526189447 0.015642167034728337 -0.0018178750110450549 -0.009936245074107201 0.006791396903966822 0.03332367798319906 0.9915068100279718 -0.07801894171856409
 -0.0018188497040854293 -0.009936166615054755 0.0021294142430896856 0.015639326664393445 0.9915068100279718 -0.07801894171856409 0.006788281728270218 0.033323839992990545
0.1375573155481 0.007112028669874236 0.03484498974102893 0.9910553172789384 -0.08164162560753935 0.0022675988761307465 0.016365042122261187 -0.001951113076725616 -0.01038973963283657
 0.9910553172789384 -0.08164162560753935 0.007109135727188999 0.034845175180847586 -0.001950044401280998 -0.010389829894345686 0.0022894474520088956 0.01636188373081221
 0.0022675988761307465 0.016365042122261187 -0.001950044401280998 -0.010389829894345686 0.007112212427097207 0.034843234540882055 0.9910552165325698 -0.08164348835317449
 -0.001951113076725616 -0.01038973963283657 0.0022894474520088956 0.01636188373081221 0.9910552165325698 -0.08164348835317449 0.007108791622230924 0.034843407070846356
0.1438099208003 0.007443976638288564 0.036357277258667824 0.9905881089730668 -0.08525757779619718 0.0024321099491524194 0.017085446043246497 -0.0020886841698365627 -0.010841029415352931
 0.9905881089730668 -0.08525757779619718 0.007440813219384797 0.03635747388882769 -0.002087517264698621 -0.01084113254963659 0.002455954565859709 0.01708194606205541
 0.0024321099491524194 0.017085446043246497 -0.002087517264698621 -0.01084113254963659 0.007444178905611714 0.036355448890967736 0.9905879986203873 -0.0852595279663113
 -0.0020886841698365627 -0.010841029415352931 0.002455954565859709 0.01708194606205541 0.9905879986203873 -0.0852595279663113 0.007440437905784171 0.036355632425234534
0.1500625260525 0.00778696674720297 0.03786211525472023 0.9901053880459773 -0.0888649532355553 0.002602959337174462 0.01780332021543868 -0.0022315129185153113 -0.011289979142176183
 0.9901053880459773 -0.0888649532355553 0.007783520554210792 0.03786232351226304 -0.0022302435466912017 -0.011290096262019716 0.0026288840332575718 0.017799454215333518
 0.002602959337174462 0.01780332021543868 -0.0022302435466912017 -0.011290096262019716 0.007787188546573121 0.037860214544493107 0.9901052675780381 -0.08886699119978342
 -0.0022315129185153113 -0.011289979142176183 0.0026288840332575718 0.017799454215333518 0.9901052675780381 -0.08886699119978342 0.007783112741765069 0.037860409604514866
0.15631513130469998 0.008140890523591085 0.039359400524264045 0.9896072662446954 -0.09246368239881624 0.002780095367651327 0.018518606951234057 -0.002379548700098027 -0.011736533119813108
