! Created with skrf 1.8.0 (http://scikit-rf.org).
# GHz S RI R 50.0 
!freq ReS11 ImS11 ReS12 ImS12 ReS13 ImS13
! ReS14 ImS14
! ReS21 ImS21 ReS22 ImS22 ReS23 ImS23
! ReS24 ImS24
! ReS31 ImS31 ReS32 ImS32 ReS33 ImS33
! ReS34 ImS34
! ReS41 ImS41 ReS42 ImS42 ReS43 ImS43
! ReS44 ImS44
!
0.0 0.001327916638712 0.0 0.9986720833329 0.0 5.11173730387e-05 0.0 -5.111737285921e-05 6.260072705285331e-21
 0.9986720833329 0.0 0.001327916638718 0.0 -5.111737286091e-05 6.260072705493521e-21 5.111737303666e-05 0.0
 5.11173730387e-05 0.0 -5.111737286091e-05 6.260072705493521e-21 0.001327916648695 0.0 0.9986720833428 0.0
 -5.111737285921e-05 6.260072705285331e-21 5.111737303666e-05 0.0 0.9986720833428 0.0 0.001327916648619 0.0
0.005 0.0014282316891328826 0.0010818814348863232 0.9985452319990897 -0.0027826063579159993 7.20837730878033e-05 0.0005923668710718795 -6.983150824991693e-05 -0.0003668420599400602
 0.9985452319990897 -0.0027826063579159993 0.0014282522065279049 0.0010818695507306695 -6.9829634744922e-05 -0.000366840708208548 7.194793636467363e-05 0.0005924183135809832
 7.20837730878033e-05 0.0005923668710718795 -6.9829634744922e-05 -0.000366840708208548 0.0014282325483614062 0.0010819482459981534 0.9985452323367804 -0.0027825392911490668
 -6.983150824991693e-05 -0.0003668420599400602 7.194793636467363e-05 0.0005924183135809832 0.9985452323367804 -0.0027825392911490668 0.0014282520172327108 0.00108193686787746
0.006252605252188 0.0014543801589493458 0.0013566526687473078 0.9985119780399253 -0.0034789654881102793 7.799948060781331e-05 0.0007407413733574582 -7.504416607870956e-05 -0.0004590431567815435
 0.9985119780399253 -0.0034789654881102793 0.0014544122310886783 0.001356637640083993 -7.504125001385565e-05 -0.00045904149141839316 7.778724325154859e-05 0.0007408081638415164
 7.799948060781331e-05 0.0007407413733574582 -7.504125001385565e-05 -0.00045904149141839316 0.0014543814263712652 0.0013567361760609552 0.9985119784925733 -0.0034788816654607703
 -7.504416607870956e-05 -0.0004590431567815435 7.778724325154859e-05 0.0007408081638415164 0.9985119784925733 -0.0034788816654607703 0.0014544118603355308 0.001356721766387107
0.01250521050438 0.0015910936863187432 0.002742140589397957 0.9983370555665751 -0.006958911109087459 0.00011153113561991145 0.0014818033459589772 -0.00010423882531696897 -0.0009204440460891431
 0.9983370555665751 -0.006958911109087459 0.001591221742612274 0.002742108806967242 -0.00010422732402642835 -0.0009204409798729845 0.00011068464861665168 0.0014819634930104105
 0.00011153113561991145 0.0014818033459589772 -0.00010422732402642835 -0.0009204409798729845 0.001591098200012932 0.002742307390901902 0.998337056837387 -0.0069587437002871025
 -0.00010423882531696897 -0.0009204440460891431 0.00011068464861665168 0.0014819634930104105 0.998337056837387 -0.0069587437002871025 0.0015912197312361836 0.0027422767149541966
0.01875781575657 0.0017383233486289915 0.004147743825527349 0.9981471218973844 -0.010448345493781288 0.00015178323106179874 0.002223734949209793 -0.00013878462896243926 -0.001383519666923959
 0.9981471218973844 -0.010448345493781288 0.0017386110771365564 0.004147693470212505 -0.0001387589669852516 -0.001383515511532502 0.00014988137074932226 0.00222401961499829
 0.00015178323106179874 0.002223734949209793 -0.0001387589669852516 -0.001383515511532502 0.0017383330416767479 0.004147993822920232 0.9981471243256281 -0.010448094571820997
 -0.00013878462896243926 -0.001383519666923959 0.00014988137074932226 0.00222401961499829 0.9981471243256281 -0.010448094571820997 0.0017386061410090948 0.004147944942461553
0.02501042100875 0.0018963290785997781 0.005571518841974748 0.9979419763096358 -0.013948993930613291 0.00019882836230037973 0.00296659563553881 -0.00017876258800868426 -0.0018480727701085339
 0.9979419763096358 -0.013948993930613291 0.0018968400283973356 0.005571448026825702 -0.00017871725140957675 -0.0018480678898358212 0.00019544962890551885 0.0029670404019056865
 0.00019882836230037973 0.00296659563553881 -0.00017871725140957675 -0.0018480678898358212 0.001896345883257413 0.005571851932848059 0.997941980251252 -0.013948659524839485
 -0.00017876258800868426 -0.0018480727701085339 0.00019544962890551885 0.0029670404019056865 0.997941980251252 -0.013948659524839485 0.0018968309072248946 0.005571782851976177
0.03126302626094 0.002065359861118101 0.007012482124962351 0.9977214067360528 -0.017461614723557315 0.0002527400478203283 0.00371037367488693 -0.00022425169016754618 -0.002313973364794865
 0.9977214067360528 -0.017461614723557315 0.0020661574776569807 0.007012388901466876 -0.0002241812156475601 -0.0023139681773642292 0.000247462163822543 0.003711018570135686
 0.0002527400478203283 0.00371037367488693 -0.0002241812156475601 -0.0023139681773642292 0.0020653856928651224 0.007012898192122363 0.9977214125472875 -0.01746119683051703
 -0.00022425169016754618 -0.002313973364794865 0.000247462163822543 0.003711018570135686 0.9977214125472875 -0.01746119683051703 0.0020661429174838298 0.007012806862816704
0.037515631513130004 0.002245659449090954 0.008470005044966918 0.9974851956042606 -0.02098660427835237 0.00031359190536889184 0.004455029636447279 -0.0002753295231695838 -0.0027811152189842997
 0.9974851956042606 -0.02098660427835237 0.0022468070976260084 0.008469887406610444 -0.0002752284925886603 -0.0027811101958306102 0.00030599162634615347 0.004455919182786147
 0.00031359190536889184 0.004455029636447279 -0.0002752284925886603 -0.0027811101958306102 0.002245696204460518 0.008470503945662778 0.9974852036399199 -0.02098610287222681
 -0.0002753295231695838 -0.0027811152189842997 0.00030599162634615347 0.004455919182786147 0.9974852036399199 -0.02098610287222681 0.002246785847159235 0.008470388271468699
0.043768236765320004 0.002437468579497324 0.009943629690357758 0.9972331221805927 -0.024524181210334794 0.0003814572813182981 0.00520050960233619 -0.0003320725062700938 -0.0032494026331705726
 0.9972331221805927 -0.024524181210334794 0.002439029563852723 0.009943485575369232 -0.0003319355434012368 -0.003249398299656755 0.0003711102976009956 0.005201692869714817
 0.0003814572813182981 0.00520050960233619 -0.0003319355434012368 -0.003249398299656755 0.0024375181421170816 0.009944211251698932 0.9972331328002211 -0.02452359624747642
 -0.0003320725062700938 -0.0032494026331705726 0.0003711102976009956 0.005201692869714817 0.9972331328002211 -0.02452359624747642 0.002439000379509171 0.009944069090184223
0.050020842017509996 0.002641026015387573 0.011432992755992367 0.996964963742979 -0.02807446239536669 0.0004564090355929134 0.005946750625308811 -0.0003945559867522633 -0.003718744972087983
 0.996964963742979 -0.02807446239536669 0.0026430635941210316 0.011432820049276435 -0.0003943777551927681 -0.003718741907607256 0.00044288992205308874 0.005948281288030332
 0.0004564090355929134 0.005946750625308811 -0.0003943777551927681 -0.003718741907607256 0.002641090253487375 0.01143365677698595 0.996964977309431 -0.028073793811970997
 -0.0003945559867522633 -0.003718744972087983 0.00044288992205308874 0.005948281288030332 0.996964977309431 -0.028073793811970997 0.002643025236983423 0.011433485941872204
0.055454545454549996 0.002827649007854369 0.012739837200031754 0.9967186889625442 -0.031170123645341934 0.000527355502237923 0.006595821065694643 -0.00045357574813038426 -0.004127405840122371
 0.9967186889625442 -0.031170123645341934 0.0028301521108475363 0.012739637888402723 -0.000453357348871437 -0.004127404391055656 0.0005107333316054813 0.00659770083512854
 0.000527355502237923 0.006595821065694643 -0.000453357348871437 -0.004127404391055656 0.0028277275043629532 0.012740572692957712 0.9967187053870756 -0.031169382328467055
 -0.00045357574813038426 -0.004127405840122371 0.0005107333316054813 0.00659770083512854 0.9967187053870756 -0.031169382328467055 0.0028301047792942038 0.012740375131296874
0.056273447269699996 0.002856569085091579 0.012937788198698298 0.9966804962536342 -0.03163750025364725 0.0005385193984352468 0.006693683405720591 -0.00046285427326340535 -0.0041890539790657546
 0.9966804962536342 -0.03163750025364725 0.002859146485874008 0.012937584733557795 -0.00046262947501523656 -0.004189052817153898 0.0005214015928427249 0.006695619800368422
 0.0005385193984352468 0.006693683405720591 -0.00046262947501523656 -0.004189052817153898 0.0028566498509484174 0.012938534445310916 0.9966805131329542 -0.03163674797045385
 -0.00046285427326340535 -0.0041890539790657546 0.0005214015928427249 0.006695619800368422 0.9966805131329542 -0.03163674797045385 0.0028590977209457854 0.012938332708138352
0.06252605252188 0.0030843339852146567 0.014457746679397379 0.9963794947985765 -0.03521330324782304 0.0006278598614393306 0.007441233754583672 -0.0005370406383755892 -0.004660242306274956
 0.9963794947985765 -0.03521330324782304 0.0030875144191497813 0.014457510238702268 -0.0005367640129689406 -0.0046602437346915755 0.0006067156617544754 0.007443638938634012
 0.0006278598614393306 0.007441233754583672 -0.0005367640129689406 -0.0046602437346915755 0.003084433115157331 0.014458574885442707 0.9963795153608924 -0.035212467169083744
 -0.0005370406383755892 -0.004660242306274956 0.0006067156617544754 0.007443638938634012 0.9963795153608924 -0.035212467169083744 0.0030874540144376116 0.014458339976806962
0.06877865777407 0.003324555947716409 0.01599262333622479 0.9960617338938798 -0.03880184805159214 0.0007245010873655659 0.008189323471156144 -0.000617187303961525 -0.005132222632532908
 0.9960617338938798 -0.03880184805159214 0.0033284026223736416 0.015992351653401977 -0.0006168536277493012 -0.005132227393354099 0.0006989016625009406 0.008192265281873572
 0.0007245010873655659 0.008189323471156144 -0.0006168536277493012 -0.005132227393354099 0.003324675261817287 0.01599353320530471 0.9960617585137584 -0.038800928062814447
 -0.000617187303961525 -0.005132222632532908 0.0006989016625009406 0.008192265281873572 0.9960617585137584 -0.038800928062814447 0.0033283293489034687 0.015993262815864107
0.07503126302626001 0.0035774693317313136 0.017542190010181254 0.9957269877186532 -0.042403087267598005 0.0008285128321372578 0.008937870894080505 -0.0007033654149893513 -0.005604907109814595
 0.9957269877186532 -0.042403087267598005 0.003582045464459461 0.017541880769695442 -0.0007029695007889512 -0.0056049159994893075 0.0007980282421689525 0.00894142200750519
 0.0008285128321372578 0.008937870894080505 -0.0007029695007889512 -0.0056049159994893075 0.0035776106335232293 0.01754318120793313 0.9957270167760742 -0.042402083243226814
 -0.0007033654149893513 -0.005604907109814595 0.0007980282421689525 0.00894142200750519 0.9957270167760742 -0.042402083243226814 0.003581958095295332 0.01754287298901968
0.08128386827845 0.003843307666508467 0.01910623007800425 0.9953750303028801 -0.04601695454038139 0.0009399638732971739 0.009686791272226178 -0.0007956450063925792 -0.006078206992360397
 0.9953750303028801 -0.04601695454038139 0.003848676497857443 0.019105880915643355 -0.0007951817032458258 -0.006078220861781767 0.0009041630977730644 0.0096910292620683
 0.0009399638732971739 0.009686791272226178 -0.0007951817032458258 -0.006078220861781767 0.003843472742649647 0.019107302242334107 0.9953750641833096 -0.046015866333295914
 -0.0007956450063925792 -0.006078206992360397 0.0009041630977730644 0.0096910292620683 0.9953750641833096 -0.046015866333295914 0.0038485738074952713 0.019106953806247034
0.08753647353064001 0.004122303662520925 0.020684534883193367 0.9950056356845004 -0.04964336807336729 0.001058921943283508 0.010435997017894445 -0.0008940949651309956 -0.0065520323858946836
 0.9950056356845004 -0.04964336807336729 0.0041285284687344066 0.02068414338592978 -0.0008935591581741551 -0.006552052140450507 0.0010173729151611627 0.010441004414231183
 0.001058921943283508 0.010435997017894445 -0.0008935591581741551 -0.006552052140450507 0.004122494282231574 0.0206856876143149 0.9950056747795406 -0.04964219552475999
 -0.0008940949651309956 -0.0065520323858946836 0.0010173729151611627 0.010441004414231183 0.9950056747795406 -0.04964219552475999 0.004128409232449032 0.020685296534306636
0.09378907878283 0.0044146891995991595 0.02227690117452505 0.9946185780470278 -0.0532822331410529 0.0011854536656089034 0.011185397891177968 -0.000998782988415299 -0.007026292068191473
 0.9946185780470278 -0.0532822331410529 0.004421833305799441 0.022276464880078818 -0.0009981695988396473 -0.007026318667819156 0.0011377233104090901 0.01119126223884789
 0.0011854536656089034 0.011185397891177968 -0.0009981695988396473 -0.007026318667819156 0.004414907114156185 0.022278134039277985 0.9946186227548572 -0.053280976075926946
 -0.000998782988415299 -0.007026292068191473 0.0011377233104090901 0.01119126223884789 0.9946186227548572 -0.053280976075926946 0.004421696299082824 0.022277697849157528
0.100041684035 0.004720695300319826 0.023883129234148676 0.9942136318442648 -0.05693344391417708 0.0013196244930876436 0.011934901137717198 -0.0011097755392204117 -0.0075008933588645455
 0.9942136318442648 -0.05693344391417708 0.004728822093671996 0.023882645630153212 -0.0011090795243744274 -0.007500927818081194 0.0012652787722947274 0.011941715054362334
 0.0013196244930876436 0.011934901137717198 -0.0011090795243744274 -0.007500927818081194 0.0047209422425054165 0.023884441765120522 0.9942136825701583 -0.056932102142165666
 -0.0011097755392204117 -0.0075008933588645455 0.0012652787722947274 0.011941715054362334 0.9942136825701583 -0.056932102142165666 0.004728666091171114 0.023883957958555566
0.1059090909091 0.0050204423292198085 0.02540283499233545 0.9938171627536546 -0.06037084342811363 0.0014525344898598592 0.012638238805473517 -0.0012197222552852835 -0.007946483103222447
 0.9938171627536546 -0.06037084342811363 0.005029548987091984 0.025402304662722013 -0.0012189441514726391 -0.007946525909177743 0.0013915853796925436 0.012646032596014383
 0.0014525344898598592 0.012638238805473517 -0.0012189441514726391 -0.007946525909177743 0.0050207180699997425 0.025404221827148736 0.9938172195020023 -0.06036942197951412
 -0.0012197222552852835 -0.007946483103222447 0.0013915853796925436 0.012646032596014383 0.9938172195020023 -0.06036942197951412 0.00502937404355494 0.025403691021353578
0.1062942892872 0.005040552090725213 0.0255030214659961 0.993790571915148 -0.06059688482753938 0.0014614986470625575 0.012684411590640085 -0.0012271378000052282 -0.007975742027636524
 0.993790571915148 -0.06059688482753938 0.005049725033666701 0.025502487988820592 -0.001226354153506753 -0.00797578541557929 0.0014001026054000767 0.01269227282429815
 0.0014614986470625575 0.012684411590640085 -0.001226354153506753 -0.00797578541557929 0.0050408297744584385 0.02550441316312771 0.9937906290717426 -0.06059545814110694
 -0.0012271378000052282 -0.007975742027636524 0.0014001026054000767 0.01269227282429815 0.9937906290717426 -0.06059545814110694 0.005049548808833315 0.025503879192491048
0.11254689453939999 0.005374488752860764 0.027136381317775113 0.9933491735918869 -0.06427243161697654 0.001611139058192872 0.013433831755765619 -0.0013509336242921851 -0.008450742222165283
 0.9933491735918869 -0.06427243161697654 0.005384771396212047 0.027135795350938657 -0.0013500573762242965 -0.008450795662616506 0.0015422568739098261 0.01344284324196736
 0.001611139058192872 0.013433831755765619 -0.0013500573762242965 -0.008450795662616506 0.005374798872947354 0.02713785164468902 0.9933492376004291 -0.06427091979513633
 -0.0013509336242921851 -0.008450742222165283 0.0015422568739098261 0.01344284324196736 0.9933492376004291 -0.06427091979513633 0.005384573720781229 0.027137264919626293
0.11879949979160001 0.005722733470535998 0.028783012436296395 0.992889212804433 -0.06795995212629133 0.001768607307294306 0.01418306187601649 -0.0014812254872478487 -0.008925796419415467
 0.992889212804433 -0.06795995212629133 0.005734189466772704 0.028782371308548847 -0.0014802517043721747 -0.008925861090814285 0.0016918023455364157 0.014193331794324502
 0.001768607307294306 0.01418306187601649 -0.0014802517043721747 -0.008925861090814285 0.005723077701458501 0.028784560822613117 0.9928892840943762 -0.06795835493217436
 -0.0014812254872478487 -0.008925796419415467 0.0016918023455364157 0.014193331794324502 0.9928892840943762 -0.06795835493217436 0.005733969109580044 0.028783918708187962
0.1250521050438 0.00608551336811666 0.03044271800013874 0.9924104661797788 -0.07165930693983254 0.0019339635666875538 0.014931999988578594 -0.0016180744350409223 -0.009400805387226468
 0.9924104661797788 -0.07165930693983254 0.006098206485332635 0.03044201898307298 -0.001616998221089945 -0.009400882522672842 0.0018487984356535584 0.014943641818542427
 0.0019339635666875538 0.014931999988578594 -0.001616998221089945 -0.009400882522672842 0.0060858933643718185 0.03044434384143789 0.9924105451902547 -0.07165762412073359
 -0.0016180744350409223 -0.009400805387226468 0.0018487984356535584 0.014943641818542427 0.9924105451902547 -0.07165762412073359 0.006097962212268984 0.030443643655846814
0.131304710296 0.006463054447010571 0.032115300187275805 0.9919127111407001 -0.0753703498834976 0.0021072665419632074 0.01568054197353136 -0.0017615400332357156 -0.009875668157403095
 0.9919127111407001 -0.0753703498834976 0.006477048581998989 0.03211454049257462 -0.001760356529182262 -0.00987575904465924 0.0020133031515047507 0.015693674549970005
 0.0021072665419632074 0.01568054197353136 -0.001760356529182262 -0.00987575904465924 0.006463471841699629 0.032117002843774084 0.9919127983203907 -0.0753685811722021
 -0.0017615400332357156 -0.009875668157403095 0.0020133031515047507 0.015693674549970005 0.9919127983203907 -0.0753685811722021 0.006476779154893766 0.03211624185568188
0.1375573155481 0.006763945694796588 0.03358080024542808 0.9914873863404412 -0.07887310101568248 0.0022657103911981735 0.0164057347118712 -0.0018889352538606558 -0.010327371058098347
 0.9914873863404412 -0.07887310101568248 0.006779311129964554 0.0335799929191009 -0.001887637570422377 -0.010327475673823392 0.002162738184504411 0.01642032835177231
 0.0022657103911981735 0.0164057347118712 -0.001887637570422377 -0.010327475673823392 0.006764403131970695 0.03358257858767356 0.9914874820617008 -0.07887124625417652
 -0.0018889352538606558 -0.010327371058098347 0.002162738184504411 0.01642032835177231 0.9914874820617008 -0.07887124625417652 0.006779014433533729 0.03358177104600232
0.1438099208003 0.007075231050591453 0.035039358735115225 0.991047431762953 -0.0823677902961552 0.002430582887137069 0.01712851626514074 -0.00202145240934223 -0.010776912481281535
 0.991047431762953 -0.0823677902961552 0.007092032888090055 0.03503850185766465 -0.0020200353748991446 -0.010777032072133588 0.002318203968537085 0.017144678478124786
 0.002430582887137069 0.01712851626514074 -0.0020200353748991446 -0.010777032072133588 0.007075730316363933 0.0350412120325962 0.991047536473259 -0.08236584922244249
 -0.00202145240934223 -0.010776912481281535 0.002318203968537085 0.017144678478124786 0.991047536473259 -0.08236584922244249 0.007091707519669399 0.03504035619943633
0.1500625260525 0.007396811079031567 0.036490877663852964 0.9905929500695041 -0.08585435564586237 0.002601834979621108 0.017848829565872425 -0.002159044669333358 -0.011224239115517811
 0.9905929500695041 -0.08585435564586237 0.007415114593264108 0.036489969169645586 -0.002157503123221045 -0.011224374977779637 0.002479653436555931 0.01786667175810773
 0.002601834979621108 0.017848829565872425 -0.002157503123221045 -0.011224374977779637 0.007397353951116053 0.03649280515735731 0.9905930642241928 -0.08585232798527781
 -0.002159044669333358 -0.011224239115517811 0.002479653436555931 0.01786667175810773 0.9905930642241928 -0.08585232798527781 0.007414759136013357 0.03649189915926702
0.15631513130469998 0.007728585757727754 0.03793526213684489 0.9901240443100883 -0.08933273472495312 0.0027794171185833464 0.018566618369881837 -0.0023016646968990052 -0.011669298693466423
