! Created with skrf 1.8.0 (http://scikit-rf.org).
# GHz S RI R 50.0 
!freq ReS11 ImS11 ReS12 ImS12 ReS13 ImS13
! ReS14 ImS14
! ReS21 ImS21 ReS22 ImS22 ReS23 ImS23
! ReS24 ImS24
! ReS31 ImS31 ReS32 ImS32 ReS33 ImS33
! ReS34 ImS34
! ReS41 ImS41 ReS42 ImS42 ReS43 ImS43
! ReS44 ImS44
!
0.0 0.001357317468752 0.0 0.9986426825312 0.0 5.185284715975e-05 0.0 -5.185284818079e-05 6.350142455127813e-21
 0.9986426825312 0.0 0.001357317468733 0.0 -5.185284818044e-05 6.35014245508495e-21 5.185284715872e-05 0.0
 5.185284715975e-05 0.0 -5.185284818044e-05 6.35014245508495e-21 0.001357317458263 0.0 0.9986426825207 0.0
 -5.185284818079e-05 6.350142455127813e-21 5.185284715872e-05 0.0 0.9986426825207 0.0 0.001357317458261 0.0
0.005 0.0014598378300400279 0.0011143247269281592 0.9985130723216489 -0.0028435664775328735 7.18351775963511e-05 0.0005501198302788187 -6.993780139886793e-05 -0.0003490868752024201
 0.9985130723216489 -0.0028435664775328735 0.0014598474966683555 0.001114319121187747 -6.993917575568329e-05 -0.0003490879644447447 7.177583109398764e-05 0.0005501424868539769
 7.18351775963511e-05 0.0005501198302788187 -6.993917575568329e-05 -0.0003490879644447447 0.0014598366091751794 0.001114258213490385 0.9985130719831452 -0.0028436335471119694
 -6.993780139886793e-05 -0.0003490868752024201 7.177583109398764e-05 0.0005501424868539769 0.9985130719831452 -0.0028436335471119694 0.001459848046052042 0.0011142515005042178
0.006252605252188 0.0014865825076729343 0.0013972928056976146 0.9984790716941864 -0.0035551742364497547 7.74636295000542e-05 0.0006879350707603239 -7.497465721513185e-05 -0.0004368131043217341
 0.9984790716941864 -0.0035551742364497547 0.0014865976176703377 0.001397285653692242 -7.497679557836346e-05 -0.00043681444836562647 7.737090607767528e-05 0.000687964460754368
 7.74636295000542e-05 0.0006879350707603239 -7.497679557836346e-05 -0.00043681444836562647 0.001486580665997962 0.0013972096904993534 0.9984790712321427 -0.0035552580537520956
 -7.497465721513185e-05 -0.0004368131043217341 7.737090607767528e-05 0.000687964460754368 0.9984790712321427 -0.0035552580537520956 0.0014865985440747967 0.0013972011455023212
0.01250521050438 0.0016265380114530888 0.0028239357130632613 0.998300086444266 -0.007111268888251902 0.00010931701684296754 0.001376341525627072 -0.00010318161225752341 -0.0008758117256332218
 0.998300086444266 -0.007111268888251902 0.0016265983371986999 0.0028239199502865893 -0.0001031900366310868 -0.0008758142237729019 0.00010894726583230198 0.001376411761506495
 0.00010931701684296754 0.001376341525627072 -0.0001031900366310868 -0.0008758142237729019 0.0016265312201752472 0.002823769806686769 0.9983000851652697 -0.007111436291992275
 -0.00010318161225752341 -0.0008758117256332218 0.00010894726583230198 0.001376411761506495 0.9983000851652697 -0.007111436291992275 0.001626602610486912 0.0028237511536124585
0.01875781575657 0.0017774600634466963 0.004271026886308009 0.9981055253679948 -0.010676965232090144 0.0001474825402917006 0.00206567407058476 -0.00013655388404918743 -0.0013164111761962158
 0.9981055253679948 -0.010676965232090144 0.0017775956015443572 0.004271000962321922 -0.00013657266724585287 -0.0013164146067008568 0.0001466519518363295 0.0020657986611734226
 0.0001474825402917006 0.00206567407058476 -0.00013657266724585287 -0.0013164146067008568 0.0017774452154828352 0.004270778420054441 0.998105522912366 -0.01067721614845606
 -0.00013655388404918743 -0.0013164111761962158 0.0001466519518363295 0.0020657986611734226 0.998105522912366 -0.01067721614845606 0.0017776056392645903 0.004270747957808403
0.02501042100875 0.0019396181486892024 0.005736580113857357 0.9978951799131092 -0.014254021638229804 0.00019203081383277357 0.0027559741946318558 -0.0001751696283071469 -0.0017584361820906528
 0.9978951799131092 -0.014254021638229804 0.0019398588233177888 0.005736542395131046 -0.00017520279369092668 -0.0017584402872125563 0.00019055550660718537 0.0027561686153015803
 0.00019203081383277357 0.0027559741946318558 -0.00017520279369092668 -0.0017584402872125563 0.0019395921421856486 0.005736249338155635 0.9978951759228427 -0.014254356037655269
 -0.0001751696283071469 -0.0017584361820906528 0.00019055550660718537 0.0027561686153015803 0.9978951759228427 -0.014254356037655269 0.0019398770513376052 0.005736205238483402
0.03126302626094 0.0021132704728443964 0.00721958888101302 0.9976688298633253 -0.017843209468289184 0.00024303307816080517 0.0034472231155286046 -0.0002191051641506138 -0.0022017678903792338
 0.9976688298633253 -0.017843209468289184 0.002113646150932715 0.00721953765256623 -0.00021915669423543975 -0.002201772375823577 0.00024072891986265111 0.0034475048177105205
 0.00024303307816080517 0.0034472231155286046 -0.00021915669423543975 -0.002201772375823577 0.0021132302076383976 0.007219176078103405 0.9976688239793639 -0.01784362735306194
 -0.0002191051641506138 -0.0022017678903792338 0.00024072891986265111 0.0034475048177105205 0.9976688239793639 -0.01784362735306194 0.002113675001824886 0.007219116387125629
0.037515631513130004 0.0022986698452766665 0.008719408738437948 0.9974262493557314 -0.02144493065219794 0.00030056053325135665 0.004139378434463892 -0.00026843550455464673 -0.0026463072022033427
 0.9974262493557314 -0.02144493065219794 0.0022992103455874136 0.00871934220485683 -0.00026850934539762527 -0.0026463117369810206 0.00029724305608929666 0.004139766864991071
 0.00030056053325135665 0.004139378434463892 -0.00026850934539762527 -0.0026463117369810206 0.002298612219978359 0.008718914237375827 0.9974262412140014 -0.02144543204195095
 -0.00026843550455464673 -0.0026463072022033427 0.00029724305608929666 0.004139766864991071 0.9974262412140014 -0.02144543204195095 0.0022992522569678566 0.008718836876053272
0.043768236765320004 0.002496065954920092 0.010235569365445474 0.9971672092923144 -0.025059405563220852 0.00036468403152967394 0.004832385276345347 -0.00032323455103028633 -0.0030919636219806073
 0.9971672092923144 -0.025059405563220852 0.0024968010554573925 0.010235485651514295 -0.00032333461489229685 -0.0030919678383566182 0.0003601683885974591 0.004832901899868648
 0.00036468403152967394 0.004832385276345347 -0.00032333461489229685 -0.0030919678383566182 0.0024959878721278273 0.01023499353567963 0.9971671985289299 -0.025059990501826376
 -0.00032323455103028633 -0.0030919636219806073 0.0003601683885974591 0.004832901899868648 0.9971671985289299 -0.025059990501826376 0.0024968584756676813 0.010234896299925736
0.050020842017509996 0.0027057064365759676 0.011767696891846192 0.9968914785457416 -0.0286867506320355 0.0004354738951096775 0.005526180892113681 -0.00038357517224439907 -0.003538650645825599
 0.9968914785457416 -0.0286867506320355 0.0027066658807082204 0.011767594043088853 -0.00038370533933665245 -0.0035386541393161155 0.0004295748382248064 0.005526849214830865
 0.0004354738951096775 0.005526180892113681 -0.00038370533933665245 -0.0035386541393161155 0.002705604799574154 0.01176704015250573 0.9968914647924461 -0.02868741917894447
 -0.00038357517224439907 -0.003538650645825599 0.0004295748382248064 0.005526849214830865 0.9968914647924461 -0.02868741917894447 0.0027067412657410107 0.011766920713076213
0.055454545454549996 0.002898025489712448 0.013111883099407464 0.9966381247812796 -0.03184951604555636 0.0005024604603356793 0.006129697901981267 -0.00044056927165247013 -0.003927606324627558
 0.9966381247812796 -0.03184951604555636 0.00289920402762609 0.013111761973324936 -0.0004407287265816845 -0.003927608832884653 0.000495208411754488 0.00613051874967276
 0.0005024604603356793 0.006129697901981267 -0.0004407287265816845 -0.003927608832884653 0.0028979008701476793 0.013111156424985662 0.9966381081279616 -0.03185025731250763
 -0.00044056927165247013 -0.003927606324627558 0.000495208411754488 0.00613051874967276 0.9966381081279616 -0.03185025731250763 0.002899297026259453 0.013111015700789576
0.056273447269699996 0.002927837427264048 0.013315475768296912 0.9965988246563543 -0.03232701641255001 0.000512999791041573 0.006220696911509938 -0.0004495292274583473 -0.003986283501099392
 0.9965988246563543 -0.03232701641255001 0.0029290509291168224 0.013315351751317041 -0.0004496933471348231 -0.003986285830483263 0.0005055316612977954 0.006221542505504384
 0.000512999791041573 0.006220696911509938 -0.0004496933471348231 -0.003986285830483263 0.0029277091414713417 0.013314738585444111 0.9965988075413472 -0.03232776864598705
 -0.0004495292274583473 -0.003986283501099392 0.0005055316612977954 0.006221542505504384 0.9965988075413472 -0.03232776864598705 0.002929146744062872 0.013314594487583117
0.06252605252188 0.0031627038725933108 0.014878627808819753 0.99628901428324 -0.035980208476217045 0.0005973306334632265 0.006915860586122238 -0.0005211675636767421 -0.004434777897517108
 0.99628901428324 -0.035980208476217045 0.0031642011220606157 0.01487848051153369 -0.0005213694552761409 -0.004434778584852285 0.0005881073603647759 0.006916911114024107
 0.0005973306334632265 0.006915860586122238 -0.0005213694552761409 -0.004434778584852285 0.0031625458467749524 0.014877810701520583 0.9962889934311638 -0.03598104448772481
 -0.0005211675636767421 -0.004434777897517108 0.0005881073603647759 0.006916911114024107 0.9962889934311638 -0.03598104448772481 0.003164319842347743 0.014877639364564196
0.06877865777407 0.0034105497002466854 0.016456899689133598 0.9959618135245638 -0.03964629985234491 0.0006885345022397195 0.007611595519082625 -0.0005985599962382342 -0.0048840492936270226
 0.9959618135245638 -0.03964629985234491 0.003412360367819181 0.016456726920942376 -0.0005988034496635269 -0.004884047824289723 0.0006773696087710685 0.007612880758875435
 0.0006885345022397195 0.007611595519082625 -0.0005988034496635269 -0.004884047824289723 0.003410358845752013 0.016456003226760992 0.9959617885548504 -0.03964721974991888
 -0.0005985599962382342 -0.0048840492936270226 0.0006773696087710685 0.007612880758875435 0.9959617885548504 -0.03964721974991888 0.0034125044785274254 0.01645580194355639
0.07503126302626001 0.003671617910407038 0.0180500550240412 0.9956169881572251 -0.04332523889121273 0.0007866785705157559 0.008307822134044195 -0.0006817752798844297 -0.005334012426260867
 0.9956169881572251 -0.04332523889121273 0.00367377165200294 0.01804985451573973 -0.0006820640560952348 -0.005334008248963241 0.0007733851826179054 0.008309374003875176
 0.0007866785705157559 0.008307822134044195 -0.0006820640560952348 -0.005334008248963241 0.003671391142934958 0.01804907982478307 0.995616958684834 -0.0433262428013609
 -0.0006817752798844297 -0.005334012426260867 0.0007733851826179054 0.008309374003875176 0.995616958684834 -0.0433262428013609 0.003673943648952233 0.018048845761023034
0.08128386827845 0.003946150619600907 0.019657869086290337 0.9952543038333662 -0.04701695448802065 0.0008918290369146571 0.009004457987727218 -0.0007708810745314593 -0.005784580998686654
 0.9952543038333662 -0.04701695448802065 0.003948677080952617 0.019657638490036825 -0.0007712189057897303 -0.005784573525523852 0.0008762198963068892 0.009006310570696284
 0.0008918290369146571 0.009004457987727218 -0.0007712189057897303 -0.005784573525523852 0.003945884859048392 0.01965681582274355 0.995254269467223 -0.047018042550643964
 -0.0007708810745314593 -0.005784580998686654 0.0008762198963068892 0.009006310570696284 0.995254269467223 -0.047018042550643964 0.0039488794708835 0.01965654601611762
0.08753647353064001 0.004234389068970093 0.0212801251654756 0.9948735262433464 -0.05072135966937738 0.0010040510626928344 0.009701417983910257 -0.000865943905022556 -0.00623566746980791
 0.9948735262433464 -0.05072135966937738 0.004237317890423024 0.021279862054489996 -0.0008663344951568184 -0.006235656076292305 0.000985938542494493 0.009703607552727212
 0.0010040510626928344 0.009701417983910257 -0.0008663344951568184 -0.006235656076292305 0.004234081240746872 0.021278994564719964 0.994873486586595 -0.05072253203814682
 -0.000865943905022556 -0.00623566746980791 0.000985938542494493 0.009703607552727212 0.994873486586595 -0.05072253203814682 0.004237553191512627 0.02127868592398679
0.09378907878283 0.0045365736112086994 0.022916611956275732 0.9944744212600306 -0.05443835415300929 0.0011234087103344753 0.010398614529439612 -0.0009670291187014191 -0.006687182903844948
 0.9944744212600306 -0.05443835415300929 0.004539934432008264 0.022916313824519443 -0.0009674761431913695 -0.006687166928956416 0.00110260483286763 0.010401179570951224
 0.0011234087103344753 0.010398614529439612 -0.0009674761431913695 -0.006687166928956416 0.004536220646550375 0.022915404797893967 0.994474375909366 -0.054439610997822234
 -0.0009670291187014191 -0.006687182903844948 0.00110260483286763 0.010401179570951224 0.994474375909366 -0.054439610997822234 0.004540205174396602 0.02291505410178285
0.100041684035 0.004852943680649707 0.024567121643663523 0.9940567550688894 -0.05816782621344287 0.0012499648836076889 0.011095957651346678 -0.0010742008404966896 -0.0071390368615446296
 0.9940567550688894 -0.05816782621344287 0.004856766143578461 0.024566785905267542 -0.0010747079465804417 -0.007139015607774144 0.001226281340038273 0.011098938890890055
 0.0012499648836076889 0.011095957651346678 -0.0010747079465804417 -0.007139015607774144 0.00485254251740421 0.024565838759658527 0.9940567036137549 -0.05816916772089278
 -0.0010742008404966896 -0.0071390368615446296 0.001226281340038273 0.011098938890890055 0.9940567036137549 -0.05816916772089278 0.004857074869518064 0.02456544265569024
0.1059090909091 0.005162937460144973 0.02612852027971599 0.9936477305342574 -0.06167878005509093 0.0013753263752145017 0.011750391358449725 -0.001180361753831028 -0.007563279812249876
 0.9936477305342574 -0.06167878005509093 0.005167220092318998 0.026128146828039114 -0.001180928532113392 -0.007563252937970107 0.0013487690295700238 0.011753802210131585
 0.0013753263752145017 0.011750391358449725 -0.001180928532113392 -0.007563252937970107 0.005162488289339381 0.026127167142704216 0.9936476729705724 -0.06168020119033067
 -0.001180361753831028 -0.007563279812249876 0.0013487690295700238 0.011753802210131585 0.9936476729705724 -0.06168020119033067 0.005167566785106248 0.026126725261168833
0.1062942892872 0.005183737751193595 0.026231448460435167 0.9936202942887904 -0.061909654078282035 0.0013837812695550818 0.011793355082469077 -0.00118752192506225 -0.007591137325621956
 0.9936202942887904 -0.061909654078282035 0.0051880515072534085 0.026231072449117813 -0.00118809273176448 -0.007591110059020063 0.0013570294414373678 0.0117967955079544
 0.0013837812695550818 0.011793355082469077 -0.00118809273176448 -0.007591110059020063 0.0051832853345816585 0.026230090739468054 0.993620236310933 -0.06191108044785361
 -0.00118752192506225 -0.007591137325621956 0.0013570294414373678 0.0117967955079544 0.993620236310933 -0.06191108044785361 0.005188400771454152 0.026229645742602916
0.11254689453939999 0.005529193285114054 0.02790938759065872 0.9931648060850137 -0.06566370698179758 0.0015249182797969479 0.012490712336919061 -0.0013070539089417082 -0.008043390639026964
 0.9931648060850137 -0.06566370698179758 0.005534027998019766 0.027908968558888626 -0.0013076920070598322 -0.008043356589267098 0.001494909261868226 0.012494657222778625
 0.0015249182797969479 0.012490712336919061 -0.0013076920070598322 -0.008043356589267098 0.005528686568876352 0.02790795597535147 0.9931647411585548 -0.06566521842894767
 -0.0013070539089417082 -0.008043390639026964 0.001494909261868226 0.012494657222778625 0.9931647411585548 -0.06566521842894767 0.00553442036846545 0.02790745846647616
0.11879949979160001 0.005889546675089131 0.02960073430153158 0.9926900582792 -0.06942984599329356 0.0016734349934053967 0.013187932764159888 -0.0014328569602134224 -0.008495701467648097
 0.9926900582792 -0.06942984599329356 0.005894932025844275 0.02960026941961579 -0.0014335659122616566 -0.008495659828081302 0.0016399796177430594 0.013192429694914324
 0.0016734349934053967 0.013187932764159888 -0.0014335659122616566 -0.008495659828081302 0.005888982621700947 0.029599229789204384 0.9926899859690905 -0.0694314427489569
 -0.0014328569602134224 -0.008495701467648097 0.0016399796177430594 0.013192429694914324 0.9926899859690905 -0.0694314427489569 0.005895370083673678 0.029598676013535028
0.1250521050438 0.006265033179779648 0.03130528326714954 0.9921958194543391 -0.07320792465687273 0.0018293890992836421 0.013884917601185747 -0.0015649898278382863 -0.008947972767633967
 0.9921958194543391 -0.07320792465687273 0.006270998871483833 0.03130476962211099 -0.0015657731679974494 -0.008947922695351492 0.0017922979606978826 0.013890016494783226
 0.0018293890992836421 0.013884917601185747 -0.0015657731679974494 -0.008947922695351492 0.006264408761881778 0.03130370691211966 0.9921957393166304 -0.07320960696555824
 -0.0015649898278382863 -0.008947972767633967 0.0017922979606978826 0.013890016494783226 0.9921957393166304 -0.07320960696555824 0.006271485211681703 0.03130309297741615
0.131304710296 0.006655886855099018 0.03302282801984674 0.9916818590575279 -0.07699778950714213 0.0019928368392112586 0.014581566012013894 -0.0017035097897279401 -0.009400105768512823
 0.9916818590575279 -0.07699778950714213 0.006662462617297574 0.033022262614272366 -0.0017043710236997536 -0.009400046384424772 0.0019519203216829966 0.014587319142847355
 0.0019928368392112586 0.014581566012013894 -0.0017043710236997536 -0.009400046384424772 0.0066551990558616665 0.03302118093213272 0.9916817706384988 -0.07699955762855011
 -0.0017035097897279401 -0.009400105768512823 0.0019519203216829966 0.014587319142847355 0.9916817706384988 -0.07699955762855011 0.006662999849138838 0.03302050280674397
0.1375573155481 0.0069680661320243335 0.03452980230700938 0.9912422497901565 -0.08057584958591733 0.0021420486374020874 0.015255256076717369 -0.0018267358585301093 -0.00982945751697591
 0.9912422497901565 -0.08057584958591733 0.006975284783211194 0.03452919626732809 -0.0018276802505278419 -0.009829388835769625 0.002097209118039891 0.01526165137951521
 0.0021420486374020874 0.015255256076717369 -0.0018276802505278419 -0.009829388835769625 0.0069673125505992275 0.03452808533855624 0.991242152711394 -0.08057770367052916
 -0.0018267358585301093 -0.00982945751697591 0.002097209118039891 0.01526165137951521 0.991242152711394 -0.08057770367052916 0.006975874768496484 0.034527353459524394
0.1438099208003 0.007291080150865183 0.03602963569340472 0.9907874636916923 -0.08414562875576868 0.0022972909845582084 0.015926625027090566 -0.001954896779339818 -0.010256689362386162
 0.9907874636916923 -0.08414562875576868 0.007298971950146735 0.0360289869880873 -0.001955928110958532 -0.010256610525944995 0.002248355202126636 0.015933709979576514
 0.0022972909845582084 0.015926625027090566 -0.001955928110958532 -0.010256610525944995 0.007290257897143048 0.03602784997613593 0.9907873575009392 -0.08414756905904261
 -0.001954896779339818 -0.010256689362386162 0.002248355202126636 0.015933709979576514 0.9907873575009392 -0.08414756905904261 0.0072996171834343 0.03602706128315066
0.1500625260525 0.0076248254258831005 0.03752222612225897 0.9903176075649511 -0.08770706184567335 0.0024585163494099064 0.016595618078708744 -0.002087946593026609 -0.010681749394130953
 0.9903176075649511 -0.08770706184567335 0.007633420681635048 0.03752153260680904 -0.002089068639711814 -0.010681659510007203 0.002405311911892096 0.016603441889091127
 0.0024585163494099064 0.016595618078708744 -0.002089068639711814 -0.010681659510007203 0.007623931627016387 0.037520372833168406 0.9903174918015208 -0.08770908863304015
 -0.002087946593026609 -0.010681749394130953 0.002405311911892096 0.016603441889091127 0.9903174918015208 -0.08770908863304015 0.007634123662336749 0.03751952411217858
0.15631513130469998 0.007969197860525037 0.03900747473170286 0.9898327886170121 -0.09126008346295156 0.0026256767103561207 0.017262181271760733 -0.0022258388405827258 -0.011104586718627981
