! Created with skrf 1.8.0 (http://scikit-rf.org).
# GHz S RI R 50.0 
!freq ReS11 ImS11 ReS12 ImS12 ReS13 ImS13
! ReS14 ImS14
! ReS21 ImS21 ReS22 ImS22 ReS23 ImS23
! ReS24 ImS24
! ReS31 ImS31 ReS32 ImS32 ReS33 ImS33
! ReS34 ImS34
! ReS41 ImS41 ReS42 ImS42 ReS43 ImS43
! ReS44 ImS44
!
0.0 0.001419923096109 0.0 0.9985800769039 0.0 5.456675309605e-05 0.0 -5.456675331779e-05 6.682499979049474e-21
 0.9985800769039 0.0 0.001419923096065 0.0 -5.456675331712e-05 6.682499978967423e-21 5.456675309482e-05 0.0
 5.456675309605e-05 0.0 -5.456675331712e-05 6.682499978967423e-21 0.001419923071573 0.0 0.9985800768794 0.0
 -5.456675331779e-05 6.682499979049474e-21 5.456675309482e-05 0.0 0.9985800768794 0.0 0.001419923071568 0.0
0.005 0.0015273840606153328 0.0011618246877845345 0.998444176835642 -0.0029747283301358716 7.628822631011981e-05 0.0006017469191044502 -7.40984766898733e-05 -0.0003776795698015358
 0.998444176835642 -0.0029747283301358716 0.0015273984542218675 0.001161816333734264 -7.40988520799998e-05 -0.0003776799119428919 7.619722916951449e-05 0.0006017815370269376
 7.628822631011981e-05 0.0006017469191044502 -7.40988520799998e-05 -0.0003776799119428919 0.001527383242964967 0.001161757952895952 0.9984441764810548 -0.0029747953861378696
 -7.40984766898733e-05 -0.0003776795698015358 7.619722916951449e-05 0.0006017815370269376 0.9984441764810548 -0.0029747953861378696 0.0015273985711056004 0.001161748964738845
0.006252605252188 0.0015554679485369324 0.0014568652397430346 0.9984084511192988 -0.0037191533853413324 8.244380964893589e-05 0.0007524807800473874 -7.95663725861822e-05 -0.0004725935846336048
 0.9984084511192988 -0.0037191533853413324 0.001555490447962629 0.0014568546262932127 -7.95669563131524e-05 -0.0004725940076866396 8.2301633900964e-05 0.0007525257157093333
 8.244380964893589e-05 0.0007524807800473874 -7.95669563131524e-05 -0.0004725940076866396 0.0015554667530199246 0.0014567818300955584 0.9984084506478564 -0.003719237205719088
 -7.95663725861822e-05 -0.0004725935846336048 8.2301633900964e-05 0.0007525257157093333 0.9984084506478564 -0.003719237205719088 0.0015554907139905334 0.0014567704131088126
0.01250521050438 0.001702726511117632 0.0029443967684498413 0.9982199522682348 -0.007439208126389731 0.00011747941221047633 0.001505350625023578 -0.00011034017268876252 -0.000947541083471087
 0.9982199522682348 -0.007439208126389731 0.0017028163441119275 0.00294437382418377 -0.00011034246796405041 -0.0009475418797252113 0.00011691242167319709 0.0015054583474939846
 0.00011747941221047633 0.001505350625023578 -0.00011034246796405041 -0.0009475418797252113 0.0017027222969826698 0.002944230302870146 0.9982199509491909 -0.007439375537625693
 -0.00011034017268876252 -0.000947541083471087 0.00011691242167319709 0.0015054583474939846 0.9982199509491909 -0.007439375537625693 0.0017028179799137761 0.002944205632550687
0.01875781575657 0.0018620004408261184 0.004453266202944027 0.998014360270779 -0.01116923912562254 0.00015975108160760573 0.002259125094072888 -0.0001469785693309868 -0.001424170660706729
 0.998014360270779 -0.01116923912562254 0.001862202285309869 0.004453229098344437 -0.00014698368082347355 -0.0014241717731183388 0.0001584773342780144 0.002259316735347928
 0.00015975108160760573 0.002259125094072888 -0.00014698368082347355 -0.0014241717731183388 0.0018619913878196945 0.004453016943098147 0.9980143577278313 -0.01116949006986585
 -0.0001469785693309868 -0.001424170660706729 0.0001584773342780144 0.002259316735347928 0.9980143577278313 -0.01116949006986585 0.0018622064044015048 0.004452977041369911
0.02501042100875 0.002033583577510688 0.005981383287188497 0.9977914469424171 -0.014911074792882404 0.0002093377360842747 0.003013847086668664 -0.0001895693920513734 -0.001902278634633593
 0.9977914469424171 -0.014911074792882404 0.0020339420128032714 0.005981330096297592 -0.00018957840896193027 -0.001902279997698369 0.00020707513376042524 0.0030141469354487424
 0.0002093377360842747 0.003013847086668664 -0.00018957840896193027 -0.001902279997698369 0.0020335678608099 0.005981051518881258 0.997791442792539 -0.014911409267590686
 -0.0001895693920513734 -0.001902278634633593 0.00020707513376042524 0.0030141469354487424 0.997791442792539 -0.014911409267590686 0.0020339497344078862 0.00598099428239613
0.03126302626094 0.0022177575097017364 0.007527682808284739 0.9975509717442413 -0.018665510102316086 0.0002663189652886537 0.0037694904739600374 -0.0002381982045959423 -0.0023817257802933155
 0.9975509717442413 -0.018665510102316086 0.0022183170406854633 0.0075276115119356874 -0.00023821220333034097 -0.002381727319915634 0.00026278498550460355 0.0037699259933863197
 0.0002663189652886537 0.0037694904739600374 -0.00023821220333034097 -0.002381727319915634 0.0022177333095911604 0.007527268866008324 0.9975509656059793 -0.01866592813605322
 -0.0002381982045959423 -0.0023817257802933155 0.00026278498550460355 0.0037699259933863197 0.9975509656059793 -0.01866592813605322 0.0022183294998750352 0.007527192069263496
0.037515631513130004 0.002414797869456124 0.009091478147713656 0.9972926882390283 -0.02243295298421916 0.0003307742180400302 0.004526002018529788 -0.00029294893119012914 -0.002862395397882936
 0.9972926882390283 -0.02243295298421916 0.0024156029428780796 0.009091386635362598 -0.0002929689768003834 -0.0028623970313823173 0.00032568579042845347 0.004526603878361044
 0.0003307742180400302 0.004526002018529788 -0.0002929689768003834 -0.0028623970313823173 0.002414763365170739 0.009090982414936954 0.9972926797247023 -0.022433454636880658
 -0.00029294893119012914 -0.002862395397882936 0.00032568579042845347 0.004526603878361044 0.9972926797247023 -0.022433454636880658 0.0024156212842278545 0.009090883711649612
0.043768236765320004 0.0026249767554855055 0.010672264563528438 0.9970163466777955 -0.0262136209778864 0.0004027824274149343 0.0052833141373306546 -0.0003539040854461784 -0.003344180541607984
 0.9970163466777955 -0.0262136209778864 0.002626071771829636 0.010672150634551772 -0.00035393123242410127 -0.0033441821777427296 0.0003958558715099327 0.005284116250702229
 0.0004027824274149343 0.0052833141373306546 -0.00035393123242410127 -0.0033441821777427296 0.0026249301292860417 0.010671687475924006 0.9970163353964151 -0.02621420633801707
 -0.0003539040854461784 -0.003344180541607984 0.0003958558715099327 0.005284116250702229 0.9970163353964151 -0.02621420633801707 0.002626097154041887 0.010671564399798357
0.050020842017509996 0.0028485638687638947 0.01226963788751403 0.9967216953031517 -0.030007622467531928 0.0004824217908035626 0.006041350153991687 -0.0004211448568469962 -0.003826978761446111
 0.9967216953031517 -0.030007622467531928 0.002849993193441473 0.012269499252000559 -0.00042118014975593704 -0.003826980300445363 0.0004733727866410605 0.00604238971608711
 0.0004824217908035626 0.006041350153991687 -0.00042118014975593704 -0.003826980300445363 0.0028485033055136947 0.012268979937536147 0.9967216808583418 -0.030008291648205333
 -0.0004211448568469962 -0.003826978761446111 0.0004733727866410605 0.00604238971608711 0.9967216808583418 -0.030008291648205333 0.00285002678833267 0.012268829902707936
0.055454545454549996 0.003053965062758148 0.013671006446815643 0.9964505680463657 -0.03331558479298519 0.0005578883060353589 0.00670062984947582 -0.00048474589471512135 -0.0042472896751361
 0.9964505680463657 -0.03331558479298519 0.0030557209214553288 0.01367084441201291 -0.0004847891075985951 -0.004247291042100445 0.0005467634231828589 0.006701908547478729
 0.0005578883060353589 0.00670062984947582 -0.0004847891075985951 -0.004247291042100445 0.00305389091657377 0.013670278667210822 0.9964505505257846 -0.033316326929317304
 -0.00048474589471512135 -0.0042472896751361 0.0005467634231828589 0.006701908547478729 0.9964505505257846 -0.033316326929317304 0.0030557626160738274 0.013670103011645098
0.056273447269699996 0.0030858270997195496 0.013883254619854757 0.9964084811072339 -0.033814996520882705 0.0005697696156047778 0.0068000268896795425 -0.0004947511366452963 -0.004310689508755262
 0.9964084811072339 -0.033814996520882705 0.00308763507253485 0.013883088899225595 -0.0004947956105387577 -0.0043106908423589775 0.000558313193875848 0.006801344417252393
 0.0005697696156047778 0.0068000268896795425 -0.0004947956105387577 -0.0043106908423589775 0.003085750787970556 0.013882516354533879 0.9964084630964172 -0.033815749662421894
 -0.0004947511366452963 -0.004310689508755262 0.000558313193875848 0.006801344417252393 0.9964084630964172 -0.033815749662421894 0.0030876780659607255 0.013882336655687132
0.06252605252188 0.003337032850796545 0.015512809983792113 0.9960764503271873 -0.0376357347694287 0.0006649022005473578 0.00755925607378975 -0.0005748015098128866 -0.00479521272465095
 0.9960764503271873 -0.0376357347694287 0.0033392637953270883 0.01551261471107902 -0.0005748561905354544 -0.004795213736150974 0.0006507527457268482 0.007560895445130556
 0.0006649022005473578 0.00755925607378975 -0.0005748561905354544 -0.004795213736150974 0.003336938983438124 0.015511992014172795 0.996076428340864 -0.037636572030347475
 -0.0005748015098128866 -0.00479521272465095 0.0006507527457268482 0.007560895445130556 0.996076428340864 -0.037636572030347475 0.003339317387606802 0.015511779826352386
0.06877865777407 0.0036024462104220526 0.017158024856360865 0.9957253487968133 -0.04146979441472577 0.0007678947348587649 0.008318945195411705 -0.0006613732294935985 -0.005280447990477148
 0.9957253487968133 -0.04146979441472577 0.0036051444429861064 0.017157797476346884 -0.0006614391339680756 -0.005280448554765449 0.000750765997446769 0.008320953690406889
 0.0007678947348587649 0.008318945195411705 -0.0006614391339680756 -0.005280448554765449 0.003602332986265073 0.017157127847993232 0.9957253224180206 -0.04147071598176574
 -0.0006613732294935985 -0.005280447990477148 0.000750765997446769 0.008320953690406889 0.9957253224180206 -0.04147071598176574 0.0036052098498486336 0.01715688022622133
0.07503126302626001 0.0038823310447495397 0.018818637462331537 0.9953549222177035 -0.04531710647433487 0.0008788212086504869 0.009078998036005806 -0.0007545421800802803 -0.005766294000006201
 0.9953549222177035 -0.04531710647433487 0.003885540882903541 0.01881837533130294 -0.0007546203164705609 -0.00576629398360948 0.0008584263240342242 0.00908142637621765
 0.0008788212086504869 0.009078998036005806 -0.0007546203164705609 -0.00576629398360948 0.0038821966699242047 0.01881766213890018 0.9953548910217915 -0.04531811255911914
 -0.0007545421800802803 -0.005766294000006201 0.0008584263240342242 0.00908142637621765 0.9953548910217915 -0.04531811255911914 0.0038856193367509946 0.018817376017587373
0.08128386827845 0.004176950033594651 0.02049439785967546 0.9949649163784223 -0.04917758123918359 0.000997754330143455 0.009839315031246977 -0.0008543828325255817 -0.006252648205661339
 0.9949649163784223 -0.04917758123918359 0.004180715804760905 0.020494098245042617 -0.0008544742004030165 -0.006252647466787775 0.0009738058429933608 0.00984221741980022
 0.000997754330143455 0.009839315031246977 -0.0008544742004030165 -0.006252647466787775 0.0041767927213829685 0.020493345009067916 0.9949648799307028 -0.04917867207258779
 -0.0008543828325255817 -0.006252648205661339 0.0009738058429933608 0.00984221741980022 0.9949648799307028 -0.04917867207258779 0.0041808085540868505 0.020493017201046203
0.08753647353064001 0.004486564670649307 0.022185064122911907 0.9945550773404145 -0.053051112036393316 0.001124765447232549 0.010599793520578259 -0.0009609681948057883 -0.006739406580242725
 0.9945550773404145 -0.053051112036393316 0.004490930720784674 0.02218472420253582 -0.0009610737852894936 -0.006739404968823294 0.0010969753398379978 0.010603227681844634
 0.001124765447232549 0.010599793520578259 -0.0009610737852894936 -0.006739404968823294 0.004486382643569944 0.02218393459119854 0.9945550351968846 -0.05305228787482223
 -0.0009609681948057883 -0.006739406580242725 0.0010969753398379978 0.010603227681844634 0.9945550351968846 -0.05305228787482223 0.004491039031750949 0.02218356178661815
0.09378907878283 0.004811435239615987 0.02389039961436662 0.9941251516031859 -0.0569375779076754 0.001259924471869452 0.011360327929963965 -0.001074369758449368 -0.007226463448880117
 0.9941251516031859 -0.0569375779076754 0.004816445941534899 0.02389001647564399 -0.0010744905543085322 -0.007226460806608424 0.0012280041961495744 0.01136435514891066
 0.001259924471869452 0.011360327929963965 -0.0010744905543085322 -0.007226460806608424 0.004811226730616017 0.02388919430912776 0.9941251033094558 -0.05693883903007806
 -0.001074369758449368 -0.007226463448880117 0.0012280041961495744 0.01136435514891066 0.9941251033094558 -0.05693883903007806 0.004816571098757255 0.023888773074126412
0.100041684035 0.005151820773036297 0.025610170980912998 0.9936748862547421 -0.060836845566176974 0.0014032998064964187 0.012120809908162462 -0.001194657442151657 -0.0077137113708565614
 0.9936748862547421 -0.060836845566176974 0.005157520535286841 0.025609741619540796 -0.0011947944179304128 -0.007713707531228426 0.0013669603190208145 0.012125495069347321
 0.0014032998064964187 0.012120809908162462 -0.0011947944179304128 -0.007713707531228426 0.005151584026179597 0.02560889087100773 0.9936748313445105 -0.060838192274392064
 -0.001194657442151657 -0.0077137113708565614 0.0013669603190208145 0.012125495069347321 0.9936748313445105 -0.060838192274392064 0.005157663841842302 0.025608417646021283
0.1059090909091 0.005485576781595579 0.02723691697396161 0.9932336366768538 -0.06450740950492426 0.001545374538556169 0.012834295037545396 -0.0013138583773284573 -0.008171018297164444
 0.9932336366768538 -0.06450740950492426 0.005491963582022143 0.02723644142222434 -0.0013140114152951426 -0.008171013175246097 0.0015046247994760552 0.01283965985990269
 0.001545374538556169 0.012834295037545396 -0.0013140114152951426 -0.008171013175246097 0.005485311950659055 0.02723556760464516 0.9932335751227431 -0.06450883682044041
 -0.0013138583773284573 -0.008171018297164444 0.0015046247994760552 0.01283965985990269 0.9932335751227431 -0.06450883682044041 0.005492125122433208 0.02723504224150939
0.1062942892872 0.005507978997215629 0.02734414665155828 0.9932040291110874 -0.06474877085602344 0.0015549582716659221 0.012881128432723125 -0.0013218995334321499 -0.008201041055373563
 0.9932040291110874 -0.06474877085602344 0.005514412272360424 0.027343667970115414 -0.001322053655494136 -0.00820103584373107 0.0015139100712148012 0.012886540058872948
 0.0015549582716659221 0.012881128432723125 -0.001322053655494136 -0.00820103584373107 0.005507712269127608 0.027342792767749823 0.9932039671058545 -0.06475020347444536
 -0.0013218995334321499 -0.008201041055373563 0.0015139100712148012 0.012886540058872948 0.9932039671058545 -0.06475020347444536 0.005514575051009526 0.02734226386558912
0.11254689453939999 0.005880166267344542 0.029092095688019376 0.9927123288480092 -0.06867319986324431 0.001714965034436918 0.013641169897912008 -0.001456162628571632 -0.008688341299001121
 0.9927123288480092 -0.06867319986324431 0.005887377560905167 0.02909156449413349 -0.00145633485520493 -0.00868833453256367 0.0016689182018243785 0.01364738018801967
 0.001714965034436918 0.013641169897912008 -0.00145633485520493 -0.00868833453256367 0.005879867828619964 0.029090669121624904 0.9927122592563665 -0.06867471874024902
 -0.001456162628571632 -0.008688341299001121 0.0016689182018243785 0.01364738018801967 0.9927122592563665 -0.06867471874024902 0.005887561154722407 0.02909008072528312
0.11879949979160001 0.006268637495651712 0.030853786881137824 0.9921995351296129 -0.07260996978484578 0.0018833835376122258 0.014400818183767934 -0.0015975115708742177 -0.009175498945709204
 0.9921995351296129 -0.07260996978484578 0.0062766713746007785 0.030853199885566868 -0.0015977028523279108 -0.009175490433623852 0.0018320477778455235 0.014407903050695493
 0.0018833835376122258 0.014400818183767934 -0.0015977028523279108 -0.009175490433623852 0.0062683056317636805 0.030852288786148107 0.9921994574460543 -0.07261157529077392
 -0.0015975115708742177 -0.009175498945709204 0.0018320477778455235 0.014407903050695493 0.9921994574460543 -0.07261157529077392 0.006276877147534439 0.03085163694636962
0.1250521050438 0.006673646072136911 0.03262898804946244 0.9916653987305264 -0.07655890960020258 0.00206027542924963 0.015159954718706976 -0.0017460093881301799 -0.009662398857255616
 0.9916653987305264 -0.07655890960020258 0.006682547173743108 0.032628341863651524 -0.0017462206666700852 -0.009662388400631314 0.002003360115375558 0.015167993826255926
 0.00206027542924963 0.015159954718706976 -0.0017462206666700852 -0.009662388400631314 0.006673279084972681 0.032627419641415537 0.9916653124348499 -0.0765606021284645
 -0.0017460093881301799 -0.009662398857255616 0.002003360115375558 0.015167993826255926 0.9916653124348499 -0.0765606021284645 0.0066827765115568755 0.03262670027390653
0.131304710296 0.007095443780982818 0.034417465467074686 0.9911096716575757 -0.08051984061749082 0.00224570049244572 0.015918458533016985 -0.0019017172290469236 -0.01014892389652963
 0.9911096716575757 -0.08051984061749082 0.007105256821651062 0.03441675660054892 -0.0019019494390529656 -0.010148911288462513 0.0021829147112997016 0.01592753533235241
 0.00224570049244572 0.015918458533016985 -0.0019019494390529656 -0.010148911288462513 0.007095039989995424 0.03441582802351708 0.9911095762138769 -0.08052162058423482
 -0.0019017172290469236 -0.01014892389652963 0.0021829147112997016 0.01592753533235241 0.9911095762138769 -0.08052162058423482 0.007105511132474366 0.034415036905836804
0.1375573155481 0.007434456672862489 0.03598558580720634 0.990631962883048 -0.08425909576735573 0.002415713346866387 0.016652583611051045 -0.0020407655906542954 -0.01061129070726248
 0.990631962883048 -0.08425909576735573 0.007445230512350542 0.03598482687729792 -0.002041020268743873 -0.010611275953272256 0.0023469121752496013 0.016662681220830367
 0.002415713346866387 0.016652583611051045 -0.002041020268743873 -0.010611275953272256 0.007434015102593594 0.03598388016773341 0.9906318578680814 -0.08426096343096141
 -0.0020407655906542954 -0.01061129070726248 0.0023469121752496013 0.016662681220830367 0.9906318578680814 -0.08426096343096141 0.007445510304464894 0.03598302982643945
0.1438099208003 0.007785293637483759 0.03754595849918631 0.990137642181898 -0.0879893879291772 0.0025926039227974164 0.017383999703842513 -0.002185384947127413 -0.011071210432918742
 0.990137642181898 -0.0879893879291772 0.007797073753099843 0.03754514701560454 -0.00218566312462269 -0.011071193327635252 0.0025175224499778444 0.017395194070100855
 0.0025926039227974164 0.017383999703842513 -0.00218566312462269 -0.011071193327635252 0.0077848127606089815 0.03754418596157028 0.9901375270601164 -0.0879913436991167
 -0.002185384947127413 -0.011071210432918742 0.0025175224499778444 0.017395194070100855 0.9901375270601164 -0.0879913436991167 0.00779738030417853 0.037543273223564114
0.1500625260525 0.008147837911015594 0.03909846842208355 0.9896268299452659 -0.09171063986927962 0.002776315502065935 0.018112640618387136 -0.0023355208097005403 -0.011528621439334023
 0.9896268299452659 -0.09171063986927962 0.008160669884772409 0.039097601741461374 -0.0023358235174816256 -0.011528601768958757 0.0026946902397347165 0.018125010453243075
 0.002776315502065935 0.018112640618387136 -0.0023358235174816256 -0.011528601768958757 0.008147316225568064 0.03909663033246062 0.9896267041676048 -0.09171268417320792
 -0.0023355208097005403 -0.011528621439334023 0.0026946902397347165 0.018125010453243075 0.9896267041676048 -0.09171268417320792 0.008161004483613671 0.03909565184628947
0.15631513130469998 0.008521971982409466 0.04064300400768421 0.9890996470858991 -0.09542277432379831 0.0029667907387690654 0.018838441195011407 -0.0024911180599158306 -0.011983463340253029
 0.9890996470858991 -0.09542277432379831 0.008535901504148487 0.04064207932947039 -0.0024914463285166067 -0.011983440882559588 0.0028783596404631496 0.018852067949879824
