! Created with skrf 1.8.0 (http://scikit-rf.org).
# GHz S RI R 50.0 
!freq ReS11 ImS11 ReS12 ImS12 ReS13 ImS13
! ReS14 ImS14
! ReS21 ImS21 ReS22 ImS22 ReS23 ImS23
! ReS24 ImS24
! ReS31 ImS31 ReS32 ImS32 ReS33 ImS33
! ReS34 ImS34
! ReS41 ImS41 ReS42 ImS42 ReS43 ImS43
! ReS44 ImS44
!
0.0 0.001294636156991 0.0 0.9987053638345 0.0 4.917756792857e-05 0.0 -4.917756810681e-05 6.022515137185583e-21
 0.9987053638345 0.0 0.001294636156983 0.0 -4.917756810607e-05 6.022515137094959e-21 4.917756792903e-05 0.0
 4.917756792857e-05 0.0 -4.917756810607e-05 6.022515137094959e-21 0.001294636158408 0.0 0.9987053638359 0.0
 -4.917756810681e-05 6.022515137185583e-21 4.917756792903e-05 0.0 0.9987053638359 0.0 0.001294636158436 0.0
0.005 0.001392227829047614 0.001065962894362794 0.9985820143989882 -0.0027122821798249413 6.760937167804814e-05 0.0005036215351378856 -6.592827195330899e-05 -0.0003228947227176214
 0.9985820143989882 -0.0027122821798249413 0.0013922441749749537 0.0010659534016532572 -6.593000232902124e-05 -0.0003228960759537048 6.750562105399671e-05 0.0005036610181187054
 6.760937167804814e-05 0.0005036215351378856 -6.593000232902124e-05 -0.0003228960759537048 0.0013922264728715406 0.0010658964642930712 0.998582014065532 -0.002712349243301013
 -6.592827195330899e-05 -0.0003228947227176214 6.750562105399671e-05 0.0005036610181187054 0.998582014065532 -0.002712349243301013 0.0013922448692986911 0.0010658857089602526
0.006252605252188 0.0014176395168308807 0.0013366426994461881 0.9985497237068454 -0.0033910415106448563 7.277995940082762e-05 0.0006297993751221855 -7.05698990089189e-05 -0.00040403706241548337
 0.9985497237068454 -0.0033910415106448563 0.0014176650678054427 0.0013366306180321117 -7.057259147314932e-05 -0.0004040387319780508 7.261785680011911e-05 0.000629850601026327
 7.277995940082762e-05 0.0006297993751221855 -7.057259147314932e-05 -0.0004040387319780508 0.00141763747049423 0.0013365596658989358 0.9985497232595526 -0.003391125341942748
 -7.05698990089189e-05 -0.00040403706241548337 7.261785680011911e-05 0.000629850601026327 0.9985497232595526 -0.003391125341942748 0.0014176662274251572 0.0013365459983793648
0.01250521050438 0.0015503430162434112 0.002701318936880949 0.9983801290633183 -0.00678301812161641 0.00010192867233843704 0.0012601243120672527 -9.643493494525768e-05 -0.0008101052923034233
 0.9983801290633183 -0.00678301812161641 0.0015504450312329387 0.0027012926025505642 -9.64455441755626e-05 -0.000810108393385297 0.00010128220784721588 0.0012602467548566147
 0.00010192867233843704 0.0012601243120672527 -9.64455441755626e-05 -0.000810108393385297 0.0015503353847447032 0.0027011532057115537 0.9983801278201234 -0.006783185530286301
 -9.643493494525768e-05 -0.0008101052923034233 0.00010128220784721588 0.0012602467548566147 0.9983801278201234 -0.006783185530286301 0.001550450211930206 0.0027011236044915538
0.01875781575657 0.0016929983295414983 0.004085551132522157 0.9981963963552548 -0.0101842163215512 0.0001366855904104819 0.0018913744300121504 -0.0001268435689835108 -0.0012176946710646163
 0.9981963963552548 -0.0101842163215512 0.0016932275411257092 0.004085508227041769 -0.00012686722643803764 -0.00121769892687669 0.0001352332853493924 0.0018915915155918652
 0.0001366855904104819 0.0018913744300121504 -0.00012686722643803764 -0.00121769892687669 0.0016929815950764504 0.0040853029199932065 0.9981963939809743 -0.010184467233502163
 -0.0001268435689835108 -0.0012176946710646163 0.0001352332853493924 0.0018915915155918652 0.9981963939809743 -0.010184467233502163 0.0016932396169013297 0.004085254921513122
0.02501042100875 0.0018458516510279441 0.005487455371506896 0.9979983358756512 -0.013596322625927002 0.00017711371077398373 0.0025235874967616473 -0.00016186514595018894 -0.0016266538583832623
 0.9979983358756512 -0.013596322625927002 0.001846258674321667 0.005487393446305725 -0.00016190692187502962 -0.0016266589480704652 0.00017453388274926208 0.002523925939938605
 0.00017711371077398373 0.0025235874967616473 -0.00016190692187502962 -0.0016266589480704652 0.0018458222921371459 0.005487124916581355 0.9979983320277391 -0.013596657003333502
 -0.00016186514595018894 -0.0016266538583832623 0.00017453388274926208 0.002523925939938605 0.9979983320277391 -0.013596657003333502 0.0018462805155776622 0.005487055879097956
0.03126302626094 0.0020091387694645977 0.006906082105471734 0.9977857469373854 -0.017020082850147514 0.00022327669978906636 0.003156748536212978 -0.000201567507490704 -0.0020368809999228733
 0.9977857469373854 -0.017020082850147514 0.002009774127200747 0.006905998584888376 -0.00020163242160821265 -0.002036886557872465 0.00021924714789393166 0.0031572383575840237
 0.00022327669978906636 0.003156748536212978 -0.00020163242160821265 -0.002036886557872465 0.0020090932704768354 0.006905669664505783 0.9977857412756413 -0.017020500696961954
 -0.000201567507490704 -0.0020368809999228733 0.00021924714789393166 0.0031572383575840237 0.9977857412756413 -0.017020500696961954 0.002009808612875793 0.006905576771327515
0.037515631513130004 0.002183090579581171 0.008340827303505197 0.9975584234927498 -0.020455890908147912 0.0002752382844724861 0.003790821940617682 -0.0002460174470195773 -0.0024482915974139295
 0.9975584234927498 -0.020455890908147912 0.002184004718173753 0.008340719486774208 -0.0002461104740536853 -0.0024482972130477777 0.0002694361391104516 0.0037914965001145154
 0.0002752382844724861 0.003790821940617682 -0.0002461104740536853 -0.0024482972130477777 0.002183025424390272 0.008340333187193861 0.997558415673082 -0.020456392233619485
 -0.0002460174470195773 -0.0024482915974139295 0.0002694361391104516 0.0037914965001145154 0.997558415673082 -0.020456392233619485 0.002184054730601429 0.008340213448202821
0.043768236765320004 0.002367935207196356 0.009791253281108808 0.9973161563702085 -0.0239039679263591 0.00033306197775547706 0.004425761218093467 -0.00029528087547218973 -0.0028608087479007655
 0.9973161563702085 -0.0239039679263591 0.0023691785089697236 0.009791118343664485 -0.0002954069484795841 -0.0028608139655872515 0.0003251636211863475 0.004426657253681843
 0.00033306197775547706 0.004425761218093467 -0.0002954069484795841 -0.0028608139655872515 0.002367846882557431 0.009790677836316994 0.9973161460475434 -0.023904552763726005
 -0.00029528087547218973 -0.0028608087479007655 0.0003251636211863475 0.004426657253681843 0.9973161460475434 -0.023904552763726005 0.002369246937867667 0.009790528088710997
0.050020842017509996 0.0025638990116859414 0.011257014637490613 0.997058734389837 -0.02736443624702973 0.0003968109163127238 0.0050615130281843 -0.00034942288985313205 -0.003274359096579425
 0.997058734389837 -0.02736443624702973 0.0025655218047643475 0.01125684963208596 -0.00034958690238647407 -0.003274363415608921 0.00038649193993419497 0.005062670696836374
 0.0003968109163127238 0.0050615130281843 -0.00034958690238647407 -0.003274363415608921 0.0025637840056666745 0.011256358261924296 0.9970587212158248 -0.02736510463936478
 -0.00034942288985313205 -0.003274359096579425 0.00038649193993419497 0.005062670696836374 0.9970587212158248 -0.02736510463936478 0.0025656115459406965 0.01125617517067173
0.055454545454549996 0.002743402489210195 0.012543034057655347 0.996822554241521 -0.030381798974013063 0.00045707137040487656 0.005614615372896829 -0.0004004859116158546 -0.0036345301965505167
 0.996822554241521 -0.030381798974013063 0.002745395909116204 0.012542840434020772 -0.00040068683934549266 -0.003634533292959569 0.0004443847130031144 0.0056160357079826344
 0.00045707137040487656 0.005614615372896829 -0.00040068683934549266 -0.003634533292959569 0.0027432614461817455 0.01254230770503765 0.9968225383049689 -0.030382540029411622
 -0.0004004859116158546 -0.0036345301965505167 0.0004443847130031144 0.0056160357079826344 0.9968225383049689 -0.030382540029411622 0.0027455065291700697 0.012542092794986416
0.056273447269699996 0.0027712071085686353 0.012737821904633916 0.9967859450031575 -0.030837355719584524 0.00046654775063093067 0.005698019147862969 -0.0004085077952515997 -0.003688870860720296
 0.9967859450031575 -0.030837355719584524 0.0027732596760076853 0.012737623762079027 -0.00040871460283668407 -0.0036888737352896513 0.0004534829347926262 0.005699482067611091
 0.00046654775063093067 0.005698019147862969 -0.00040871460283668407 -0.0036888737352896513 0.0027710619117882053 0.012737085038007832 0.9967859286271058 -0.030838107729199288
 -0.0004085077952515997 -0.003688870860720296 0.0004534829347926262 0.005699482067611091 0.9967859286271058 -0.030838107729199288 0.0027733736330607574 0.01273686509592054
0.06252605252188 0.0029900836629575176 0.014233421568005963 0.9964975747047004 -0.03432274362072421 0.0005423345609880512 0.006335217556981123 -0.0004725991036546513 -0.004104272735617158
 0.9964975747047004 -0.03432274362072421 0.0029926162511858343 0.01423318709779387 -0.00047285352488690897 -0.0041042735748389935 0.000526197869271421 0.0063370328495689545
 0.0005423345609880512 0.006335217556981123 -0.00047285352488690897 -0.0041042735748389935 0.002989904768335715 0.014232604696873213 0.996497554772124 -0.03432357932479616
 -0.0004725991036546513 -0.004104272735617158 0.000526197869271421 0.0063370328495689545 0.996497554772124 -0.03432357932479616 0.0029927573348147436 0.01423234422458054
0.06877865777407 0.003220752055379048 0.015743584143729245 0.9961934093194837 -0.03782058651920731 0.0006242327865733657 0.0069730430802313345 -0.0005417595206289196 -0.004520493245679815
 0.9961934093194837 -0.03782058651920731 0.0032238148819978335 0.015743310034519554 -0.0005420663378971186 -0.004520491413594345 0.0006046973702194157 0.006975261414048681
 0.0006242327865733657 0.0069730430802313345 -0.0005420663378971186 -0.004520491413594345 0.0032205359592248723 0.015742687805242236 0.9961933854725831 -0.0378215060067287
 -0.0005417595206289196 -0.004520493245679815 0.0006046973702194157 0.006975261414048681 0.9961933854725831 -0.0378215060067287 0.003223986011325139 0.015742382950912927
0.07503126302626001 0.003463434975474972 0.017268096623567625 0.9958732342199476 -0.0413308477744708 0.0007123031644563465 0.007611427793993121 -0.000616050922139331 -0.00493746033235101
 0.9958732342199476 -0.0413308477744708 0.003467078237028544 0.01726777944334121 -0.0006164148821925052 -0.004937455147943115 0.000689041374499619 0.007614103427121121
 0.0007123031644563465 0.007611427793993121 -0.0006164148821925052 -0.004937455147943115 0.0034631781772262787 0.017267121404921697 0.9958732060962785 -0.04133185114715463
 -0.000616050922139331 -0.00493746033235101 0.000689041374499619 0.007614103427121121 0.9958732060962785 -0.04133185114715463 0.003467282339026832 0.017266768143743155
0.08128386827845 0.0037183544676878282 0.018806757452995697 0.995536834497455 -0.04485347250349728 0.0008066056727240742 0.008250301296837622 -0.000695534327154413 -0.00535510108016374
 0.995536834497455 -0.04485347250349728 0.003722628347208811 0.01880639364915289 -0.0006959601414773117 -0.005355091817392103 0.0007792890777734908 0.008253492120112112
 0.0008066056727240742 0.008250301296837622 -0.0006959601414773117 -0.005355091817392103 0.0037180534713568297 0.018805703987899925 0.9955368017307394 -0.044854559879908246
 -0.000695534327154413 -0.00535510108016374 0.0007792890777734908 0.008253492120112112 0.9955368017307394 -0.044854559879908246 0.0037228683580609397 0.018805298121442226
0.08753647353064001 0.003985731948147833 0.020359373039877043 0.9951839951078093 -0.04838839101927559 0.000907199477489684 0.008889590895748159 -0.0007802698657863082 -0.005773341528995695
 0.9951839951078093 -0.04838839101927559 0.003990686622606445 0.02035895893907901 -0.0007807622108679162 -0.005773327416813329 0.0008754988861379494 0.008893358475707809
 0.000907199477489684 0.008889590895748159 -0.0007807622108679162 -0.005773327416813329 0.0039853832616965085 0.020358242016817903 0.9951839573260493 -0.048389562527023165
 -0.0007802698657863082 -0.005773341528995695 0.0008754988861379494 0.008893358475707809 0.9951839573260493 -0.048389562527023165 0.0039909654867409956 0.02035777917219917
0.09378907878283 0.004265788198406108 0.02192575527761897 0.9948145009947612 -0.05193552125658841 0.0010141428815489525 0.00952922174035061 -0.0008703167450672024 -0.006192106540243058
 0.9948145009947612 -0.05193552125658841 0.004271473846195236 0.021925287085470587 -0.0008708802625906201 -0.006192086762637014 0.000977728368762677 0.009533631362030502
 0.0010141428815489525 0.00952922174035061 -0.0008708802625906201 -0.006192086762637014 0.004265388335804924 0.021924547432631173 0.9948144578213849 -0.05193677704005418
 -0.0008703167450672024 -0.006192106540243058 0.000977728368762677 0.009533631362030502 0.9948144578213849 -0.05193677704005418 0.004271794518029836 0.021924023061414926
0.100041684035 0.004558743346758711 0.023505719711559694 0.9944281372043189 -0.05549477055683533 0.0011274932749786274 0.010169116922749183 -0.0009657332123310232 -0.006611319699446149
 0.9944281372043189 -0.05549477055683533 0.004565210155224901 0.02350519351201931 -0.000966372509249761 -0.006611293395473516 0.001086034211449908 0.010174237632250262
 0.0011274932749786274 0.010169116922749183 -0.000966372509249761 -0.006611293395473516 0.004558288827342997 0.02350443583553823 0.9944280882563963 -0.05549611077032475
 -0.0009657332123310232 -0.006611319699446149 0.001086034211449908 0.010174237632250262 0.9944280882563963 -0.05549611077032475 0.004565575598291567 0.023503845212504114
0.1059090909091 0.004845577574723797 0.025000539313079315 0.9940500416812218 -0.05884567999357254 0.001239737961607604 0.010769760845337605 -0.0010602060384158117 -0.007005045122244972
 0.9940500416812218 -0.05884567999357254 0.0048528230788869205 0.024999955009203524 -0.0010609206053599869 -0.007005011870961322 0.0011932438196711039 0.010775615019497413
 0.001239737961607604 0.010769760845337605 -0.0010609206053599869 -0.007005011870961322 0.0048450686061861595 0.024999184852820155 0.9940499869611731 -0.058847099590608756
 -0.0010602060384158117 -0.007005045122244972 0.0011932438196711039 0.010775615019497413 0.9940499869611731 -0.058847099590608756 0.004853233239159271 0.024998527603187073
0.1062942892872 0.004864816835941481 0.025099084170206835 0.9940246889873172 -0.059066036990297194 0.001247307086242787 0.010809197551878235 -0.0010665765170547105 -0.007030903246440136
 0.9940246889873172 -0.059066036990297194 0.004872115008770983 0.02509849592491592 -0.0010672961656737604 -0.007030869510266744 0.0012004721707650047 0.01081510219868186
 0.001247307086242787 0.010809197551878235 -0.0010672961656737604 -0.007030869510266744 0.004864304185873204 0.025097725103287463 0.9940246338760333 -0.059067461804108164
 -0.0010665765170547105 -0.007030903246440136 0.0012004721707650047 0.01081510219868186 0.9940246338760333 -0.059067461804108164 0.004872528196417959 0.02509706332497293
0.11254689453939999 0.005184227384221408 0.02670566770604398 0.9936039418971567 -0.06264921037122038 0.001373639734086679 0.011449382813798478 -0.0011729028714565519 -0.007450778021812806
 0.9936039418971567 -0.06264921037122038 0.005192407148857199 0.02670501325332307 -0.0011737074093664018 -0.00745073590276752 0.0013210970282430433 0.011456148092745021
 0.001373639734086679 0.011449382813798478 -0.0011737074093664018 -0.00745073590276752 0.00518365313677771 0.0267042343420556 0.9936038802270117 -0.0626507199675604
 -0.0011729028714565519 -0.007450778021812806 0.0013210970282430433 0.011456148092745021 0.9936038802270117 -0.0626507199675604 0.005192871064694265 0.026703496325079915
0.11879949979160001 0.005517192938789174 0.028325289777418022 0.9931656818826688 -0.06624417303426242 0.001506545579852843 0.012089590018754565 -0.0012847674097214979 -0.00787086342866666
 0.9931656818826688 -0.06624417303426242 0.005526304554226963 0.028324564831092414 -0.0012856613397707341 -0.00787081193129434 0.0014479625450312867 0.012097296511696342
 0.001506545579852843 0.012089590018754565 -0.0012856613397707341 -0.00787081193129434 0.005516553635136461 0.02832378306416524 0.9931656132510625 -0.06624576760747772
 -0.0012847674097214979 -0.00787086342866666 0.0014479625450312867 0.012097296511696342 0.9931656132510625 -0.06624576760747772 0.0055268221921321095 0.028322963543277672
0.1250521050438 0.005863930624310004 0.02995776959560036 0.9927096953775565 -0.06985080044841914 0.0016460778799370051 0.012729734642062424 -0.0014022241465740013 -0.00829107740295104
 0.9927096953775565 -0.06985080044841914 0.005874024388586381 0.029956969743614552 -0.0014032119367804554 -0.00829101548706668 0.0015811214162015327 0.012738466859111893
 0.0016460778799370051 0.012729734642062424 -0.0014032119367804554 -0.00829101548706668 0.005863222814313063 0.029956190533905355 0.9927096193742998 -0.06985248020618687
 -0.0014022241465740013 -0.00829107740295104 0.0015811214162015327 0.012738466859111893 0.9927096193742998 -0.06985248020618687 0.005874598753083109 0.029955284059942695
0.131304710296 0.006224656687261882 0.03160292560045664 0.9922357693881544 -0.0734689617050202 0.0017922887383177702 0.013369730357800964 -0.001525325934973041 -0.008711336393224823
 0.9922357693881544 -0.0734689617050202 0.006235782945176253 0.03160204630320841 -0.0015264120183972752 -0.008711262973982167 0.0017206252252621836 0.013379576778167477
 0.0017922887383177702 0.013369730357800964 -0.0015264120183972752 -0.008711262973982167 0.006223876930280469 0.031601275243902445 0.9922356855951917 -0.07347072686906043
 -0.001525325934973041 -0.008711336393224823 0.0017206252252621836 0.013379576778167477 0.9922356855951917 -0.07347072686906043 0.0062364170518297265 0.03160027618140278
0.1375573155481 0.00651076695603558 0.03304725096491352 0.9918325339004256 -0.07688513737543036 0.0019253985447709137 0.01398810829009171 -0.0016343774593558338 -0.009110123524803145
 0.9918325339004256 -0.07688513737543036 0.00652298084945374 0.03304630835328182 -0.0016355684262902871 -0.00911003865462156 0.001846860468859755 0.013999045624228676
 0.0019253985447709137 0.01398810829009171 -0.0016355684262902871 -0.00911003865462156 0.006509912370100583 0.033045530188744295 0.9918324419634003 -0.07688698806980823
 -0.0016343774593558338 -0.009110123524803145 0.001846860468859755 0.013999045624228676 0.9918324419634003 -0.07688698806980823 0.0065236770444076185 0.033044453774436815
0.1438099208003 0.006806744566059078 0.03448500520445012 0.9914154907832182 -0.08029366844805796 0.0020638855655075333 0.014604446920966296 -0.0017477894994586472 -0.009507065398161456
 0.9914154907832182 -0.08029366844805796 0.006820097268128665 0.03448399610949544 -0.0017490901214518007 -0.009506968022925782 0.0019781686522468934 0.014616555214982658
 0.0020638855655075333 0.014604446920966296 -0.0017490901214518007 -0.009506968022925782 0.006805811824863602 0.034483215090585315 0.9914153902856777 -0.08029560488824829
 -0.0017477894994586472 -0.009507065398161456 0.0019781686522468934 0.014616555214982658 0.9914153902856777 -0.08029560488824829 0.00682085846126974 0.03448205704642076
0.1500625260525 0.007112497945135281 0.03591609830411047 0.9909847346518609 -0.08369450042340316 0.0022077090625515013 0.01521869921925795 -0.0018655230265263768 -0.009902118153224362
 0.9909847346518609 -0.08369450042340316 0.007127040710046335 0.035915019381437034 -0.0018669380676234306 -0.00990200717672345 0.0021145104769697866 0.015232061428814649
 0.0022077090625515013 0.01521869921925795 -0.0018669380676234306 -0.00990200717672345 0.0071114837377033915 0.035914239976258006 0.9909846251704697 -0.08369652283492461
 -0.0018655230265263768 -0.009902118153224362 0.0021145104769697866 0.015232061428814649 0.9909846251704697 -0.08369652283492461 0.007127869813898844 0.03591299580448028
0.15631513130469998 0.007427935023252551 0.037340443130324585 0.9905403604322092 -0.08708757842858686 0.0023568278999613556 0.01583081882969481 -0.0019875386099829206 -0.010295238767892217
