! Created with skrf 1.8.0 (http://scikit-rf.org).
# GHz S RI R 50.0 
!freq ReS11 ImS11 ReS12 ImS12 ReS13 ImS13
! ReS14 ImS14
! ReS21 ImS21 ReS22 ImS22 ReS23 ImS23
! ReS24 ImS24
! ReS31 ImS31 ReS32 ImS32 ReS33 ImS33
! ReS34 ImS34
! ReS41 ImS41 ReS42 ImS42 ReS43 ImS43
! ReS44 ImS44
!
0.0 0.00131262705632 0.0 0.9986873729323 0.0 5.007118375797e-05 0.0 -5.007118322456e-05 6.1319514265478045e-21
 0.9986873729323 0.0 0.001312627056295 0.0 -5.007118322451e-05 6.131951426541682e-21 5.007118375686e-05 0.0
 5.007118375797e-05 0.0 -5.007118322451e-05 6.131951426541682e-21 0.001312627047787 0.0 0.9986873729238 0.0
 -5.007118322456e-05 6.1319514265478045e-21 5.007118375686e-05 0.0 0.9986873729238 0.0 0.001312627047764 0.0
0.005 0.0014116526654390196 0.0010774347983257709 0.9985621854771184 -0.0027501649933474454 6.938837824897227e-05 0.0005324641560869471 -6.750919051800677e-05 -0.00033768661651724575
 0.9985621854771184 -0.0027501649933474454 0.0014116784538666812 0.0010774197190786157 -6.75067184389132e-05 -0.00033768470274332375 6.922854039939565e-05 0.0005325247609691534
 6.938837824897227e-05 0.0005324641560869471 -6.75067184389132e-05 -0.00033768470274332375 0.0014116543473427076 0.0010775010480666186 0.998562185811136 -0.002750097923350128
 -6.750919051800677e-05 -0.00033768661651724575 6.922854039939565e-05 0.0005325247609691534 0.998562185811136 -0.002750097923350128 0.0014116774345593994 0.001077487605034995
0.006252605252188 0.0014374503466544571 0.0013510411077003897 0.9985293917708609 -0.0034384039502711183 7.48265687805263e-05 0.0006658567031756689 -7.235197207073535e-05 -0.0004225500393886003
 0.9985293917708609 -0.0034384039502711183 0.0014374906591936235 0.0013510220091014875 -7.234812537343298e-05 -0.00042254767870651905 7.457683156156879e-05 0.000665935375150352
 7.48265687805263e-05 0.0006658567031756689 -7.234812537343298e-05 -0.00042254767870651905 0.0014374529134950254 0.0013511238971119597 0.9985293922302908 -0.0034383201299579436
 -7.235197207073535e-05 -0.0004225500393886003 7.457683156156879e-05 0.000665935375150352 0.9985293922302908 -0.0034383201299579436 0.0014374890028755539 0.0013511068506617326
0.01250521050438 0.001572243883522768 0.0027305196586198165 0.9983570291409475 -0.006877752127982704 0.00010558661040332146 0.0013321755141577226 -9.939638923952487e-05 -0.0008472349029982361
 0.9983570291409475 -0.006877752127982704 0.0015724048565472746 0.0027304789434371224 -9.938123008981724e-05 -0.0008472305235057498 0.00010459058008266199 0.0013323639896920796
 0.00010558661040332146 0.0013321755141577226 -9.938123008981724e-05 -0.0008472305235057498 0.0015722535562757373 0.0027306849231485187 0.9983570303959128 -0.006877584721217998
 -9.939638923952487e-05 -0.0008472349029982361 0.00010459058008266199 0.0013323639896920796 0.9983570303959128 -0.006877584721217998 0.0015723976564056346 0.0027306484017068844
0.01875781575657 0.0017172666537465802 0.004129832292243935 0.9981700961706367 -0.01032644757630498 0.000142416337927569 0.0019993998018824352 -0.00013127963044031292 -0.0012734907966361268
 0.9981700961706367 -0.01032644757630498 0.0017176283715537746 0.004129767232058994 -0.00013124582462723216 -0.0012734847969790692 0.0001401785378651981 0.001999734567038645
 0.000142416337927569 0.0019993998018824352 -0.00013124582462723216 -0.0012734847969790692 0.0017172879729114138 0.004130079797766749 0.9981700985702283 -0.010326196668758877
 -0.00013127963044031292 -0.0012734907966361268 0.0001401785378651981 0.001999734567038645 0.9981700985702283 -0.010326196668758877 0.0017176117578338607 0.004130021226555783
0.02501042100875 0.0018727718240000644 0.005547064619399904 0.9979683975705286 -0.013786197753174977 0.00018538228926926536 0.0026675720453163128 -0.00016807511643880638 -0.0017011514143379456
 0.9979683975705286 -0.013786197753174977 0.001873414210589118 0.0055469723065353195 -0.00016801541642748718 -0.0017011442574711524 0.00018140682868976875 0.0026680947286192316
 0.00018538228926926536 0.0026675720453163128 -0.00016801541642748718 -0.0017011442574711524 0.0018728093227726803 0.005547394122521407 0.9979684014629121 -0.013785863373485776
 -0.00016807511643880638 -0.0017011514143379456 0.00018140682868976875 0.0026680947286192316 0.9979684014629121 -0.013785863373485776 0.0018733843112043874 0.005547310807890591
0.03126302626094 0.002039001876047468 0.006981250041840684 0.9977517268682788 -0.017257755691858997 0.00023455179289922007 0.003336676333925655 -0.00020985460475412166 -0.002130105320000774
 0.9977517268682788 -0.017257755691858997 0.002040004736493773 0.006981127395851948 -0.00020976183452773678 -0.0021300975341594173 0.0002283418924684034 0.003337433735894521
 0.00023455179289922007 0.003336676333925655 -0.00020976183452773678 -0.0021300975341594173 0.0020390600804148446 0.00698166126108475 0.9977517326002986 -0.017257337840215277
 -0.00020985460475412166 -0.002130105320000774 0.0002283418924684034 0.003337433735894521 0.9977517326002986 -0.017257337840215277 0.0020399576735566274 0.006981550397022574
0.037515631513130004 0.002216194233196758 0.008431772387256753 0.997519872148736 -0.020741517315550385 0.0002899922686459874 0.004006673915973585 -0.00025668867855303454 -0.0025602603784253873
 0.997519872148736 -0.020741517315550385 0.002217637280350917 0.008431616158219739 -0.0002565557258206796 -0.002560252557461814 0.00028105003728336945 0.004007718063196973
 0.0002899922686459874 0.004006673915973585 -0.0002565557258206796 -0.002560252557461814 0.002216277666284524 0.008432264986348149 0.9975198800694842 -0.02074101597992691
 -0.00025668867855303454 -0.0025602603784253873 0.00028105003728336945 0.004007718063196973 0.9975198800694842 -0.02074101597992691 0.0022175691728064245 0.008432123658212935
0.043768236765320004 0.0024045834364004866 0.00989818411614832 0.9972726183470186 -0.024237703172499306 0.00035177090056332904 0.004677514030091581 -0.0003086469367432452 -0.002991532909815021
 0.9972726183470186 -0.024237703172499306 0.0024065463109900777 0.009897990886866307 -0.00030846674826071 -0.0029915257133219845 0.0003395972193349142 0.00467890223699447
 0.00035177090056332904 0.004677514030091581 -0.00030846674826071 -0.0029915257133219845 0.0024046966174278463 0.009898757712416868 0.9972726288074956 -0.024237118319685554
 -0.0003086469367432452 -0.002991532909815021 0.0003395972193349142 0.00467890223699447 0.9972726288074956 -0.024237118319685554 0.0024064532725185097 0.009898582899928855
0.050020842017509996 0.0026044021610664783 0.011380131209509611 0.9970097483866227 -0.027746433488189573 0.00041995445146122225 0.005349138358579979 -0.0003657980671696172 -0.0034238432250485703
 0.9970097483866227 -0.027746433488189573 0.002606964448790584 0.011379897396984251 -0.0003655636456524642 -0.003423837378430281 0.0004040489141461032 0.005350933292343998
 0.00041995445146122225 0.005349138358579979 -0.0003655636456524642 -0.003423837378430281 0.002604549607109386 0.011380785363984446 0.9970097617420275 -0.027745765073082525
 -0.0003657980671696172 -0.0034238432250485703 0.0004040489141461032 0.005350933292343998 0.9970097617420275 -0.027745765073082525 0.0026068425894173785 0.011380573943407427
0.055454545454549996 0.002787512562631194 0.012680372770766769 0.996768454581681 -0.03080585933553532 0.00048446104153690775 0.005933387778068013 -0.0004197340590976391 -0.0038003162771904583
 0.996768454581681 -0.03080585933553532 0.00279066036055006 0.012680100652418128 -0.0004194468666814619 -0.003800312243894963 0.000464904997806875 0.005935591270489371
 0.00048446104153690775 0.005933387778068013 -0.0004194468666814619 -0.003800312243894963 0.002787693449824096 0.012681096540023423 0.9967684707418286 -0.030805118248376184
 -0.0004197340590976391 -0.0038003162771904583 0.000464904997806875 0.005935591270489371 0.9967684707418286 -0.030805118248376184 0.0027905102895367127 0.012680850690222789
0.056273447269699996 0.0028158817565650963 0.012877316273812852 0.9967310438427792 -0.031267764999788325 0.0004946091360092918 0.006021483215985333 -0.0004282098716768685 -0.0038571134274855423
 0.9967310438427792 -0.031267764999788325 0.002819123003341292 0.012877038130360091 -0.0004279142737345169 -0.0038571097219704787 0.0004744700235491038 0.006023752963105509
 0.0004946091360092918 0.006021483215985333 -0.0004279142737345169 -0.0038571097219704787 0.0028160679790021955 0.01287805050025772 0.9967310604493215 -0.031267012955635956
 -0.0004282098716768685 -0.0038571134274855423 0.0004744700235491038 0.006023752963105509 0.9967310604493215 -0.031267012955635956 0.0028189684252898166 0.012877799246406816
0.06252605252188 0.003039252538059754 0.014389478291332913 0.9964362853607049 -0.0348017111460145 0.0005758005244088474 0.006694480752488926 -0.0004959492653252057 -0.004291266201846321
 0.9964362853607049 -0.0348017111460145 0.0030432522641026835 0.014389151905099476 -0.0004955855999894866 -0.0042912654945071954 0.0005509248017203437 0.0066972988860479294
 0.0005758005244088474 0.006694480752488926 -0.0004955855999894866 -0.0042912654945071954 0.0030394820444642366 0.014390292045468565 0.9964363055785875 -0.034800875394675405
 -0.0004959492653252057 -0.004291266201846321 0.0005509248017203437 0.0066972988860479294 0.9964363055785875 -0.034800875394675405 0.003043061063747736 0.014389997633106813
0.06877865777407 0.0032747439568009623 0.01591638051283355 0.9961252529550749 -0.03834825411585228 0.0006635934635900244 0.007368059661635819 -0.0005690822602517594 -0.004726224100573788
 0.9961252529550749 -0.03834825411585228 0.0032795816699926783 0.015916001808224108 -0.0005686436879066501 -0.00472622731432011 0.0006334767921581341 0.007371505309012851
 0.0006635934635900244 0.007368059661635819 -0.0005686436879066501 -0.00472622731432011 0.003275021250746912 0.015917273194195593 0.9961252771492842 -0.038347334565221956
 -0.0005690822602517594 -0.004726224100573788 0.0006334767921581341 0.007371505309012851 0.9961252771492842 -0.038347334565221956 0.0032793499378906154 0.015916932199264378
0.07503126302626001 0.003522584693906044 0.017457802802647866 0.9957977262358318 -0.04190735244656716 0.0007580520067332855 0.008042145641702574 -0.0006476739422617844 -0.005161909078606694
 0.9957977262358318 -0.04190735244656716 0.0035283399031541774 0.017457367540124984 -0.0006471536739009477 -0.005161917202180459 0.000722188768536601 0.008046303552274332
 0.0007580520067332855 0.008042145641702574 -0.0006471536739009477 -0.005161917202180459 0.0035229142732489953 0.017458773753670238 0.9957977547750463 -0.041906348990985776
 -0.0006476739422617844 -0.005161909078606694 0.000722188768536601 0.008046303552274332 0.9957977547750463 -0.041906348990985776 0.0035280637224451216 0.017458382654006066
0.08128386827845 0.003783002703025627 0.019013536530952394 0.9954534845846923 -0.045478946076337616 0.0008592393509739485 0.008716661682014692 -0.000731788439204458 -0.005598242205213027
 0.9954534845846923 -0.045478946076337616 0.003789754931055212 0.019013040306687556 -0.0007311797359402868 -0.005598256293162059 0.000817122681583987 0.008721622294813913
 0.0008592393509739485 0.008716661682014692 -0.0007311797359402868 -0.005598256293162059 0.00378338905982482 0.01901458503933944 0.9954535178420427 -0.045477858593492716
 -0.000731788439204458 -0.005598242205213027 0.000817122681583987 0.008721622294813913 0.9954535178420427 -0.045477858593492716 0.003789430377359224 0.019014140215267122
0.08753647353064001 0.0040562252263232484 0.020583381048526715 0.9950923073071724 -0.04906295981652112 0.0009672177772221688 0.009391528285263955 -0.0008214888872904686 -0.006035143441974054
 0.9950923073071724 -0.04906295981652112 0.004064054022125196 0.020582819293621674 -0.0008207850599538296 -0.006035164614635826 0.0009183396058725464 0.009397387796360287
 0.0009672177772221688 0.009391528285263955 -0.0008207850599538296 -0.006035164614635826 0.004056672846328421 0.02058450634049403 0.9950923456614992 -0.049061788173719395
 -0.0008214888872904686 -0.006035143441974054 0.0009183396058725464 0.009397387796360287 0.9950923456614992 -0.049061788173719395 0.004063677163802464 0.020584004074834707
0.09378907878283 0.00434247878544367 0.022167141161888466 0.9947139737634269 -0.05265930582577553 0.0010820485937102537 0.010066663608298047 -0.0009168373929514537 -0.0064725315045242
 0.9947139737634269 -0.05265930582577553 0.004351463737274708 0.02216650914125214 -0.000916031801877187 -0.006472560947985633 0.0010258996895348572 0.010073524037835886
 0.0010820485937102537 0.010066663608298047 -0.000916031801877187 -0.006472560947985633 0.004342992147012078 0.022168342406036257 0.9947140175986924 -0.05265804987543123
 -0.0009168373929514537 -0.0064725315045242 0.0010258996895348572 0.010073524037835886 0.9947140175986924 -0.05265804987543123 0.004351030634668713 0.022167778884002953
0.100041684035 0.0046419891585731754 0.023764625281820165 0.9943182634858966 -0.056267885413176594 0.001203792080872856 0.010741983576445327 -0.0010178949930443502 -0.00691032375298232
 0.9943182634858966 -0.056267885413176594 0.004652209906346703 0.023763918092717145 -0.0010169810480129835 -0.006910362719047406 0.0011398621039626282 0.010749952835256862
 0.001203792080872856 0.010741983576445327 -0.0010169810480129835 -0.006910362719047406 0.0046425727326130225 0.02376590158692165 0.9943183131921295 -0.05626654499453839
 -0.0010178949930443502 -0.00691032375298232 0.0011398621039626282 0.010749952835256862 0.9943183131921295 -0.05626654499453839 0.004651716611727009 0.023765272895467333
0.1059090909091 0.004935305242549422 0.025276007804795834 0.9939309312696999 -0.05966518466818415 0.0013243751763467716 0.011375790894950024 -0.0011179725870015728 -0.007321438076257378
 0.9939309312696999 -0.05966518466818415 0.004946758142666418 0.02527522546808384 -0.0011169510135251842 -0.007321487175274001 0.0012526784003142014 0.011384904121541877
 0.0013243751763467716 0.011375790894950024 -0.0011169510135251842 -0.007321487175274001 0.004935958762147884 0.025277353682433574 0.9939309868459695 -0.05966376482691663
 -0.0011179725870015728 -0.007321438076257378 0.0012526784003142014 0.011384904121541877 0.9939309868459695 -0.05966376482691663 0.004946204766394616 0.025276660189156166
0.1062942892872 0.004954981346265285 0.02537564402758284 0.9939049562884767 -0.05988859038824875 0.0013325074371094362 0.011417401967395444 -0.0011247216134738405 -0.007348436115292409
 0.9939049562884767 -0.05988859038824875 0.004966517594485911 0.025374856597731827 -0.0011236927736403245 -0.007348485921431139 0.0012602849939713256 0.011426593923062988
 0.0013325074371094362 0.011417401967395444 -0.0011236927736403245 -0.007348485921431139 0.004955639595105252 0.025376994442311004 0.9939050122625093 -0.059887165327076185
 -0.0011247216134738405 -0.007348436115292409 0.0012602849939713256 0.011426593923062988 0.9939050122625093 -0.059887165327076185 0.004965960151767463 0.025376296569172698
0.11254689453939999 0.005281679527829824 0.027000009165216433 0.9934738323692451 -0.06352130407934466 0.0014682527260604294 0.012092830477852897 -0.001237376025532684 -0.0077867830300597345
 0.9934738323692451 -0.06352130407934466 0.005294611058243247 0.02699913625061284 -0.0012362257994995144 -0.007786845059355718 0.001387225429004266 0.012103365020200176
 0.0014682527260604294 0.012092830477852897 -0.0012362257994995144 -0.007786845059355718 0.005282416904557813 0.02700143267670548 0.993473895014475 -0.06351979418889282
 -0.001237376025532684 -0.0077867830300597345 0.001387225429004266 0.012103365020200176 0.993473895014475 -0.06351979418889282 0.005293985502680818 0.027000661509128884
0.11879949979160001 0.005622307011546929 0.028637532765048504 0.9930246724080094 -0.06716590213586589 0.0016110848234798124 0.012768178779560156 -0.0013559158020963317 -0.008225277402592565
 0.9930246724080094 -0.06716590213586589 0.005636713695928327 0.028636568947257565 -0.0013546377479970357 -0.00822535310368004 0.0015207393534270074 0.012780181885493755
 0.0016110848234798124 0.012768178779560156 -0.0013546377479970357 -0.00822535310368004 0.005623127959174037 0.028639028300475405 0.9930247421353512 -0.06716430721481184
 -0.0013559158020963317 -0.008225277402592565 0.0015207393534270074 0.012780181885493755 0.9930247421353512 -0.06716430721481184 0.005636016053988148 0.028638179623359954
0.1250521050438 0.005977086178911693 0.030288026549627416 0.9925572576608471 -0.07082225314259868 0.0017610593651753792 0.013443354562044856 -0.00148039727197704 -0.008663830576750887
 0.9925572576608471 -0.07082225314259868 0.005993047992135179 0.03028696623280113 -0.0014789849976721858 -0.008663921463741118 0.0016608815377377303 0.013456958359677947
 0.0017610593651753792 0.013443354562044856 -0.0014789849976721858 -0.008663921463741118 0.00597799512964211 0.030289592974320986 0.9925573348891795 -0.07082057297643055
 -0.00148039727197704 -0.008663830576750887 0.0016608815377377303 0.013456958359677947 0.9925573348891795 -0.07082057297643055 0.005992274281118679 0.03028866246821448
0.131304710296 0.006346238424912836 0.03195130135978539 0.9920713700525399 -0.07449021911900067 0.0019182306948239706 0.014118263573724225 -0.0016108754739306442 -0.009102352310975103
 0.9920713700525399 -0.07449021911900067 0.0063638354578187 0.0319501387672199 -0.0016093226372010405 -0.009102459963382499 0.0018077055291660163 0.014133606405720318
 0.0019182306948239706 0.014118263573724225 -0.0016093226372010405 -0.009102459963382499 0.006347239799414626 0.03195293747701986 0.9920714552087445 -0.07448845347983432
 -0.0016108754739306442 -0.009102352310975103 0.0018077055291660163 0.014133606405720318 0.9920714552087445 -0.07448845347983432 0.006362981685826151 0.031951920715438405
0.1375573155481 0.006639626576992613 0.03341068557991841 0.9916571734548746 -0.07795311398352368 0.002061737406779526 0.014770923365972948 -0.0017266256065750416 -0.00951878340803118
 0.9916571734548746 -0.07795311398352368 0.006658944411445936 0.03340943746721691 -0.0017249228353274438 -0.009518907766183022 0.0019406151332930885 0.014787969760436913
 0.002061737406779526 0.014770923365972948 -0.0017249228353274438 -0.009518907766183022 0.006640724290150184 0.033412390286727475 0.9916572669002954 -0.07795126274471717
 -0.0017266256065750416 -0.00951878340803118 0.0019406151332930885 0.014787969760436913 0.9916572669002954 -0.07795126274471717 0.00665800720582044 0.03341130534862157
0.1438099208003 0.006943143476137236 0.0348633235994287 0.9912287594989967 -0.08140816542362317 0.0022110541888435285 0.015421382757609825 -0.001847012010801813 -0.009933247803899214
 0.9912287594989967 -0.08140816542362317 0.0069642632068669715 0.034861985498697796 -0.0018451524885114972 -0.009933390402787385 0.002078866713028103 0.015440257832862807
 0.0022110541888435285 0.015421382757609825 -0.0018451524885114972 -0.009933390402787385 0.006944341840683464 0.034865095657993846 0.9912288616591024 -0.08140622836334921
 -0.001847012010801813 -0.009933247803899214 0.002078866713028103 0.015440257832862807 0.9912288616591024 -0.08140622836334921 0.006963238674595116 0.034863939464598176
0.1500625260525 0.007256693822424373 0.03630912175787396 0.9907862266039292 -0.08485531551492205 0.00236613673335396 0.016069590072396205 -0.001971992652437987 -0.010345698016226383
 0.9907862266039292 -0.08485531551492205 0.007279696689748695 0.03630768894643964 -0.0019699695738402932 -0.010345860452140332 0.002222418291664403 0.016090423476915593
 0.00236613673335396 0.016069590072396205 -0.0019699695738402932 -0.010345860452140332 0.007257997134013189 0.036310959882029585 0.9907863379111795 -0.08485329240117093
 -0.001971992652437987 -0.010345698016226383 0.002222418291664403 0.016090423476915593 0.9907863379111795 -0.08485329240117093 0.007278580936063437 0.0363097291557311
0.15631513130469998 0.0075801817796047844 0.03774798937697726 0.9903296735320244 -0.08829450600886582 0.0025269402870898455 0.01671549437922109 -0.0021015250535235245 -0.010756087478966274
