! Created with skrf 1.8.0 (http://scikit-rf.org).
# GHz S RI R 50.0 
!freq ReS11 ImS11 ReS12 ImS12 ReS13 ImS13
! ReS14 ImS14
! ReS21 ImS21 ReS22 ImS22 ReS23 ImS23
! ReS24 ImS24
! ReS31 ImS31 ReS32 ImS32 ReS33 ImS33
! ReS34 ImS34
! ReS41 ImS41 ReS42 ImS42 ReS43 ImS43
! ReS44 ImS44
!
0.0 0.001504534726613 0.0 0.9984954652421 0.0 5.785014315779e-05 0.0 -5.785014355741e-05 7.084599313779704e-21
 0.9984954652421 0.0 0.001504534726601 0.0 -5.785014355713e-05 7.084599313745413e-21 5.785014315742e-05 0.0
 5.785014315779e-05 0.0 -5.785014355713e-05 7.084599313745413e-21 0.001504534742233 0.0 0.9984954652578 0.0
 -5.785014355741e-05 7.084599313779704e-21 5.785014315742e-05 0.0 0.9984954652578 0.0 0.001504534742237 0.0
0.005 0.0016186318612234274 0.0012330819591046956 0.9983511661843615 -0.0031516393558131636 8.055379155374672e-05 0.0006241954503573658 -7.841279581258339e-05 -0.0003941072193581922
 0.9983511661843615 -0.0031516393558131636 0.0016186105986661903 0.0012330944031415693 -7.841566184649161e-05 -0.0003941094368285746 8.067524750561714e-05 0.0006241492291437733
 8.055379155374672e-05 0.0006241954503573658 -7.841566184649161e-05 -0.0003941094368285746 0.001618630646845406 0.0012331499591012522 0.9983511665342445 -0.003151572300033626
 -7.841279581258339e-05 -0.0003941072193581922 8.067524750561714e-05 0.0006241492291437733 0.9983511665342445 -0.003151572300033626 0.001618612507617467 0.0012331605107142093
0.006252605252188 0.0016485259961269356 0.0015461975174814967 0.9983131330781586 -0.003940324255843072 8.699277781269936e-05 0.000780556717881212 -8.419826174924084e-05 -0.0004931424147327242
 0.9983131330781586 -0.003940324255843072 0.0016484927585819346 0.0015462133089002741 -8.420272142821866e-05 -0.0004931451493092454 8.718254215395567e-05 0.0007804967053693666
 8.699277781269936e-05 0.000780556717881212 -8.420272142821866e-05 -0.0004931451493092454 0.0016485240325926293 0.0015462825220068528 0.9983131335604006 -0.003940240433747937
 -8.419826174924084e-05 -0.0004931424147327242 8.718254215395567e-05 0.0007804967053693666 0.9983131335604006 -0.003940240433747937 0.0016484956781464566 0.001546295939506652
0.01250521050438 0.001805719550593788 0.0031247521452781855 0.9981118880085332 -0.007881473424569827 0.00012367063175249167 0.0015615419184023675 -0.00011691612096172804 -0.0009886838557284327
 0.9981118880085332 -0.007881473424569827 0.001805586828532183 0.0031247861287104378 -0.00011693369506441408 -0.000988688916986567 0.00012442738641363726 0.001561397809274324
 0.00012367063175249167 0.0015615419184023675 -0.00011693369506441408 -0.000988688916986567 0.0018057111355031152 0.0031249219363936507 0.9981118893667132 -0.007881306019686365
 -0.00011691612096172804 -0.0009886838557284327 0.00012442738641363726 0.001561397809274324 0.9981118893667132 -0.007881306019686365 0.0018055979225206566 0.0031249510612866645
0.01875781575657 0.001976451819932595 0.004725769297456367 0.9978914844876722 -0.011833043851331156 0.00016796952207553465 0.0023434693569200373 -0.00015610272713382456 -0.001485933139280804
 0.9978914844876722 -0.011833043851331156 0.001976153579757581 0.004725824097007795 -0.0001561419167186623 -0.0014859400423389373 0.00016966953215098902 0.0023432124417113133
 0.00016796952207553465 0.0023434693569200373 -0.0001561419167186623 -0.0014859400423389373 0.001976432473685897 0.0047260238165786755 0.9978914871177048 -0.011832792950959351
 -0.00015610272713382456 -0.001485933139280804 0.00016966953215098902 0.0023432124417113133 0.9978914871177048 -0.011832792950959351 0.0019761780920177253 0.0047260710790885604
0.02501042100875 0.0021610496987839274 0.006347019897541445 0.9976516674079347 -0.015796956519503115 0.00021997565796424393 0.003126373905004417 -0.00020185404431809974 -0.0019846725857683794
 0.9976516674079347 -0.015796956519503115 0.0021605200348722583 0.006347098337289356 -0.00020192324867213135 -0.00198468076013252 0.00022299535874665914 0.0031259710129364084
 0.00021997565796424393 0.003126373905004417 -0.00020192324867213135 -0.00198468076013252 0.0021610149416684287 0.006347359149353054 0.9976516717064667 -0.015796622152575577
 -0.00020185404431809974 -0.0019846725857683794 0.00022299535874665914 0.0031259710129364084 0.9976516717064667 -0.015796622152575577 0.0021605632023164166 0.006347427101013337
0.03126302626094 0.002359826579523226 0.007987360005479449 0.9973921684089705 -0.01977403738134084 0.0002797754593966299 0.003910220254610754 -0.0002542634419787906 -0.002484749418751917
 0.9973921684089705 -0.01977403738134084 0.0023589996793321557 0.0079874651053866 -0.00025437097601350875 -0.0024847582072551663 0.0002844918065510632 0.003909633728131646
 0.0002797754593966299 0.003910220254610754 -0.00025437097601350875 -0.0024847582072551663 0.002359771928401905 0.007987784018300737 0.9973921747730635 -0.019773619557950855
 -0.0002542634419787906 -0.002484749418751917 0.0002844918065510632 0.003909633728131646 0.9973921747730635 -0.019773619557950855 0.002359066732867321 0.007987875327586807
0.037515631513130004 0.002573089149678235 0.00964604613653636 0.9971127128862655 -0.023764701976607377 0.00034745486098727597 0.004694945379462356 -0.00031342235158747744 -0.0029860333136340735
 0.9971127128862655 -0.023764701976607377 0.0025718992709576815 0.009646181110695833 -0.0003135764547492423 -0.0029860419721124743 0.00035424548801563603 0.004694133029361506
 0.00034745486098727597 0.004694945379462356 -0.0003135764547492423 -0.0029860419721124743 0.002573010119093795 0.009646554964494203 0.9971127217162725 -0.02376420068599076
 -0.00031342235158747744 -0.0029860333136340735 0.00035424548801563603 0.004694133029361506 0.9971127217162725 -0.02376420068599076 0.0025719954382161588 0.00964667241439108
0.043768236765320004 0.0028011400193178083 0.011322526920293985 0.9968130228267017 -0.027769163703188552 0.00042309897919026496 0.005480471445260694 -0.0003794205008837141 -0.0034884034897578855
 0.9968130228267017 -0.027769163703188552 0.002799521472658011 0.011322695176203743 -0.0003796293424241276 -0.0034884111869361058 0.0004323422725103174 0.005479386499722394
 0.00042309897919026496 0.005480471445260694 -0.0003796293424241276 -0.0034884111869361058 0.0028010321176712033 0.011323120638408204 0.9968130345234395 -0.027768578918836672
 -0.0003794205008837141 -0.0034884034897578855 0.0004323422725103174 0.005479386499722394 0.9968130345234395 -0.027768578918836672 0.0027996519752249973 0.011323267124715434
0.050020842017509996 0.003044278943301445 0.013016356988238222 0.9964928182408063 -0.03178751985743089 0.0005067919076646316 0.0062667111412802925 -0.00045234599806286385 -0.003991743380825011
 0.9964928182408063 -0.03178751985743089 0.003042166077174966 0.013016562126600932 -0.00045261768044390065 -0.003991749198286672 0.0005188670378320988 0.006265302192484096
 0.0005067919076646316 0.0062667111412802925 -0.00045261768044390065 -0.003991749198286672 0.0030441376752581716 0.013017035693599709 0.9964928332091962 -0.03178685153624601
 -0.00045234599806286385 -0.003991743380825011 0.0005188670378320988 0.006265302192484096 0.9964928332091962 -0.03178685153624601 0.003042336133243504 0.013017214223690494
0.055454545454549996 0.003268058507889891 0.014502138856467317 0.9961976721324076 -0.03529089664241777 0.0005861246490597219 0.006950483822341735 -0.0005214135443812986 -0.0044298592258187105
 0.9961976721324076 -0.03529089664241777 0.003265462765349869 0.01450237912136833 -0.0005217463673943247 -0.004429862596207936 0.0006009692771836937 0.006948747913920199
 0.0005861246490597219 0.006950483822341735 -0.0005217463673943247 -0.004429862596207936 0.0032678845875350566 0.01450289151197942 0.9961976902743862 -0.03529015567997554
 -0.0005214135443812986 -0.0044298592258187105 0.0006009692771836937 0.006948747913920199 0.9961976902743862 -0.03529015567997554 0.003265671427585558 0.014503100417515695
0.056273447269699996 0.0033028034515608443 0.014727154706828118 0.9961518180050459 -0.03581979382985721 0.0005986165678029342 0.007053570298140924 -0.0005322853498135646 -0.004495938021036613
 0.9961518180050459 -0.03581979382985721 0.003300130638720096 0.014727400521953933 -0.0005326279109690759 -0.0044959409532315435 0.0006139034945683999 0.0070517812477756455
 0.0005986165678029342 0.007053570298140924 -0.0005326279109690759 -0.0044959409532315435 0.0033026243150447118 0.014727918516749875 0.9961518366518439 -0.03581904191442596
 -0.0005322853498135646 -0.004495938021036613 0.0006139034945683999 0.0070517812477756455 0.9961518366518439 -0.03581904191442596 0.003300345460230694 0.014728132208794088
0.06252605252188 0.0035770091850134697 0.016454578947856218 0.9957897404138384 -0.039865958266081636 0.0006986545875794337 0.0078409493260166 -0.0006193234447490589 -0.00500087261365567
 0.9957897404138384 -0.039865958266081636 0.003573710810121128 0.016454869428283527 -0.0006197448596458843 -0.00500087156791591 0.0007175340473573566 0.00783871933037097
 0.0006986545875794337 0.0078409493260166 -0.0006197448596458843 -0.00500087156791591 0.0035767876730175507 0.01645542799775577 0.9957897631506105 -0.039865122687074823
 -0.0006193234447490589 -0.00500087261365567 0.0007175340473573566 0.00783871933037097 0.9957897631506105 -0.039865122687074823 0.0035739756043034546 0.016455680080300145
0.06877865777407 0.0038671900776494784 0.018198315224339307 0.9954063035811321 -0.04392594886516805 0.0008069861963737293 0.00862874407399524 -0.0007135435164605715 -0.005506431681758595
 0.9954063035811321 -0.04392594886516805 0.0038632005249095297 0.01819865455400938 -0.000714051698133239 -0.005506425478336409 0.0008298396774006601 0.008626007489012098
 0.0008069861963737293 0.00862874407399524 -0.000714051698133239 -0.005506425478336409 0.0038669216765371177 0.018199249674125614 0.99540633082314 -0.043925029535489477
 -0.0007135435164605715 -0.005506431681758595 0.0008298396774006601 0.008626007489012098 0.99540633082314 -0.043925029535489477 0.0038635204925744444 0.01819954348602772
0.07503126302626001 0.0041736384415871275 0.019958066919258728 0.9950012257478377 -0.047999673089098645 0.0009236901277669931 0.009416846380013664 -0.0008150270952640453 -0.006012498532107974
 0.9950012257478377 -0.047999673089098645 0.004168892083179249 0.019958459478943105 -0.0008156298955583405 -0.006012485904225867 0.0009508998361300798 0.009413532706539992
 0.0009236901277669931 0.009416846380013664 -0.0008156298955583405 -0.006012485904225867 0.004173318631446369 0.01995908694334902 0.9950012579146622 -0.04799866991417803
 -0.0008150270952640453 -0.006012498532107974 0.0009508998361300798 0.009413532706539992 0.9950012579146622 -0.04799866991417803 0.004169272418191147 0.019959425934157404
0.08128386827845 0.00449664499443089 0.021733549428189437 0.994574225535223 -0.05208701596223836 0.0010488435285795 0.010205144436093792 -0.000923853951310447 -0.006518954907657203
 0.994574225535223 -0.05208701596223836 0.004491076178940928 0.021733999797418985 -0.0009245591612874753 -0.0065189345015616755 0.0010807923469779144 0.010201178265494371
 0.0010488435285795 0.010205144436093792 -0.0009245591612874753 -0.0065189345015616755 0.004496269248597817 0.021734655224648985 0.994574263051967 -0.05208592883144405
 -0.000923853951310447 -0.006518954907657203 0.0010807923469779144 0.010201178265494371 0.994574263051967 -0.05208592883144405 0.004491522067685209 0.021735042955236355
0.08753647353064001 0.004836498847305202 0.02352448612864181 0.994125022162879 -0.05618784404869463 0.0011825218707403379 0.010993523048828006 -0.0010401020325912867 -0.007025680748872872
 0.994125022162879 -0.05618784404869463 0.004830041888229067 0.02352499908788744 -0.0010409173828169636 -0.007025651123894263 0.0012195933114198846 0.01098882400911945
 0.0011825218707403379 0.010993523048828006 -0.0010409173828169636 -0.007025651123894263 0.004836062632541889 0.023525677916176307 0.994125065460065 -0.05618667283877679
 -0.0010401020325912867 -0.007025680748872872 0.0012195933114198846 0.01098882400911945 0.994125065460065 -0.05618667283877679 0.004830558508725376 0.023526118059900077
0.09378907878283 0.0051934874662979535 0.025330605486347902 0.9936533356428531 -0.06030200829738127 0.0013247988658733104 0.01178186382839388 -0.001163847398510174 -0.007532554030915636
 0.9936533356428531 -0.06030200829738127 0.005186076630604097 0.025331186019748608 -0.0011647805590918527 -0.007532513659551576 0.0013673770187923912 0.011776346530941888
 0.0013247988658733104 0.01178186382839388 -0.0011647805590918527 -0.007532513659551576 0.005192986242250443 0.02533188350380059 0.9936533851570005 -0.06030075287346367
 -0.001163847398510174 -0.007532554030915636 0.0013673770187923912 0.011776346530941888 0.9936533851570005 -0.06030075287346367 0.00518666915170491 0.025332379847974533
0.100041684035 0.0055678966136931424 0.027151638938689604 0.9931588869565353 -0.06442934611482103 0.0014757463808610495 0.012570045332239738 -0.0012951641508799825 -0.008039450650370782
 0.9931588869565353 -0.06442934611482103 0.005559466110438895 0.027152292237072825 -0.0012962227314604563 -0.008039397918368163 0.00152421585763029 0.012563619319199098
 0.0014757463808610495 0.012570045332239738 -0.0012962227314604563 -0.008039397918368163 0.005567325832685467 0.027153003449231536 0.9931589431306141 -0.06442800632683514
 -0.0012951641508799825 -0.008039450650370782 0.00152421585763029 0.012563619319199098 0.9931589431306141 -0.06442800632683514 0.005560139690698446 0.027153559897025156
0.1059090909091 0.005935336662827548 0.028873811886241947 0.9926739498181976 -0.06831424074088209 0.0016253426827335456 0.013309414459249982 -0.0014253413164935582 -0.008515028145475811
 0.9926739498181976 -0.06831424074088209 0.0059258894121499706 0.028874538375057737 -0.001426524457330842 -0.008514962268989129 0.001679690754264894 0.0133020488814375
 0.0016253426827335456 0.013309414459249982 -0.001426524457330842 -0.008514962268989129 0.005934696467614952 0.028875257815743145 0.9926740126509485 -0.06831282164320084
 -0.0014253413164935582 -0.008515028145475811 0.001679690754264894 0.0133020488814375 0.9926740126509485 -0.06831282164320084 0.005926643739696712 0.028875874319562202
0.1062942892872 0.005960010275154157 0.028987319311888447 0.9926413982220623 -0.0685696829095549 0.001635434354894318 0.013357943180465163 -0.0014341243621895621 -0.008546244345005298
 0.9926413982220623 -0.0685696829095549 0.005950494244227554 0.028988050776288313 -0.0014353159117999927 -0.008546177551458695 0.0016901802290239015 0.013350512872937103
 0.001635434354894318 0.013357943180465163 -0.0014353159117999927 -0.008546177551458695 0.005959365382354613 0.02898877059698491 0.9926414615059285 -0.06856825859872473
 -0.0014341243621895621 -0.008546244345005298 0.0016901802290239015 0.013350512872937103 0.9926414615059285 -0.06856825859872473 0.005951254031140421 0.02898939116976716
0.11254689453939999 0.0063701105761753436 0.030837379596132933 0.9921005928518446 -0.07272283328369787 0.00180393071661703 0.014145430147579349 -0.0015807980025821721 -0.009052806641699235
 0.9921005928518446 -0.07272283328369787 0.006359443076819457 0.030838194841690692 -0.0015821300094018608 -0.00905272399915945 0.0018653384605459556 0.014136894794627293
 0.00180393071661703 0.014145430147579349 -0.0015821300094018608 -0.00905272399915945 0.006369387009352766 0.03083891796184101 0.9921006637029339 -0.07272132427684996
 -0.0015807980025821721 -0.009052806641699235 0.0018653384605459556 0.014136894794627293 0.9921006637029339 -0.07272132427684996 0.006360294205964788 0.03083960680193602
0.11879949979160001 0.006798477689497033 0.03270155200214469 0.9915361957057757 -0.07688860194874285 0.001981301302242748 0.014932376243770976 -0.001735252864894279 -0.009559006819608825
 0.9915361957057757 -0.07688860194874285 0.006786592688737425 0.03270245686242771 -0.0017367327559804542 -0.00955890645419723 0.0020497567214379994 0.014922629872389842
 0.001981301302242748 0.014932376243770976 -0.0017367327559804542 -0.00955890645419723 0.006797670878958952 0.032703177778459845 0.99153627458978 -0.07688700805959085
 -0.001735252864894279 -0.009559006819608825 0.0020497567214379994 0.014922629872389842 0.99153627458978 -0.07688700805959085 0.006787540282661054 0.032703939152389915
0.1250521050438 0.007245389736042225 0.03457956722063674 0.990947933240104 -0.0810667844441559 0.002167609773671183 0.015718648782408078 -0.0018975544890140368 -0.010064711892020706
 0.990947933240104 -0.0810667844441559 0.007232221097352587 0.03458056775251965 -0.0018991896298798197 -0.010064591843567793 0.002243498937966182 0.015707580148366575
 0.002167609773671183 0.015718648782408078 -0.0018991896298798197 -0.010064591843567793 0.00724449510436131 0.03458128076061278 0.9909480206308064 -0.08106510547475657
 -0.0018975544890140368 -0.010064711892020706 0.002243498937966182 0.015707580148366575 0.9909480206308064 -0.08106510547475657 0.007233270264480931 0.034582119062731856
0.131304710296 0.007711122679614597 0.036471153819915815 0.9903355336523836 -0.08525716772359455 0.0023629175370116144 0.016504112444639483 -0.002067766085161117 -0.0105697865959525
 0.9903355336523836 -0.08525716772359455 0.0076966041513024394 0.03647225630881846 -0.0020695637794086396 -0.010569644818169415 0.002446626709374345 0.016491604984451506
 0.0023629175370116144 0.016504112444639483 -0.0020695637794086396 -0.010569644818169415 0.0077101356417531765 0.036472955499379886 0.9903356300328101 -0.08525540346533844
 -0.002067766085161117 -0.0105697865959525 0.002446626709374345 0.016491604984451506 0.9903356300328101 -0.08525540346533844 0.007697759984940858 0.03647387525608568
0.1375573155481 0.008088426477536064 0.03813001514235568 0.989806293110928 -0.08921338845344028 0.002541899755986696 0.01726403929033544 -0.00222046793868887 -0.011049585199830311
 0.989806293110928 -0.08921338845344028 0.008072487793966293 0.0381312043069683 -0.0022224390418816953 -0.011049421550027626 0.0026336214155959553 0.01725011220427164
 0.002541899755986696 0.01726403929033544 -0.0022224390418816953 -0.011049421550027626 0.008087343145869013 0.038131905372912785 0.9898063988935768 -0.0892115387978483
 -0.00222046793868887 -0.011049585199830311 0.0026336214155959553 0.01725011220427164 0.9898063988935768 -0.0892115387978483 0.008073754814067781 0.038132889647702006
0.1438099208003 0.008478997095362217 0.03978031123007717 0.9892584859127913 -0.09315974264823036 0.0027280887474094833 0.018021006251697714 -0.002379273532858472 -0.011526617182342522
 0.9892584859127913 -0.09315974264823036 0.008461571256518917 0.039781592093138765 -0.0023814258993290946 -0.011526429648969752 0.0028281744057546726 0.018005553049747578
 0.0027280887474094833 0.018021006251697714 -0.0023814258993290946 -0.011526429648969752 0.00847781300000351 0.03978229039199422 0.9892586015788588 -0.09315780739346127
 -0.002379273532858472 -0.011526617182342522 0.0028281744057546726 0.018005553049747578 0.9892586015788588 -0.09315780739346127 0.008462954432170626 0.03978334240629
0.1500625260525 0.008882699807671873 0.04142190884323134 0.9886922508385357 -0.09709613695689473 0.0029214206595523985 0.0187749402750349 -0.0025441197025800402 -0.012000811561955302
 0.9886922508385357 -0.09709613695689473 0.008863719684520929 0.041423286707850164 -0.0025464611699964113 -0.01200059805259448 0.0030302197672160175 0.0187578505874755
 0.0029214206595523985 0.0187749402750349 -0.0025464611699964113 -0.01200059805259448 0.008881410479246074 0.04142397733307481 0.9886923768766953 -0.09709411589323384
 -0.0025441197025800402 -0.012000811561955302 0.0030302197672160175 0.0187578505874755 0.9886923768766953 -0.09709411589323384 0.00886522396390629 0.04142510051597422
0.15631513130469998 0.009299398964945403 0.04305467877388246 0.9881077273413249 -0.10102247826615758 0.0031218308995435685 0.019525769542328257 -0.0027149425163375232 -0.01247209884155938
 0.9881077273413249 -0.10102247826615758 0.009278797295725444 0.04305615922931512 -0.002717480905584449 -0.012471857183276333 0.003239690815068493 0.01950692915998691
