! Created with skrf 1.8.0 (http://scikit-rf.org).
# GHz S RI R 50.0 
!freq ReS11 ImS11 ReS12 ImS12 ReS13 ImS13
! ReS14 ImS14
! ReS21 ImS21 ReS22 ImS22 ReS23 ImS23
! ReS24 ImS24
! ReS31 ImS31 ReS32 ImS32 ReS33 ImS33
! ReS34 ImS34
! ReS41 ImS41 ReS42 ImS42 ReS43 ImS43
! ReS44 ImS44
!
0.0 0.001555830622892 0.0 0.9984441693771 0.0 6.003430642583e-05 0.0 -6.0034306692e-05 7.352082152938833e-21
 0.9984441693771 0.0 0.001555830622905 0.0 -6.003430669178e-05 7.352082152911891e-21 6.003430642493e-05 0.0
 6.003430642583e-05 0.0 -6.003430669178e-05 7.352082152911891e-21 0.001555830615786 0.0 0.99844416937 0.0
 -6.0034306692e-05 7.352082152938833e-21 6.003430642493e-05 0.0 0.99844416937 0.0 0.001555830615816 0.0
0.005 0.001673988415482484 0.0012726947595789549 0.9982946915713892 -0.0032590493187469385 8.408261461023025e-05 0.0006616827276031726 -8.17077054472676e-05 -0.0004152758997852067
 0.9982946915713892 -0.0032590493187469385 0.0016739802499025197 0.0012726995988207482 -8.170502367749939e-05 -0.00041527394930701914 8.412942523101391e-05 0.0006616647650352945
 8.408261461023025e-05 0.0006616827276031726 -8.170502367749939e-05 -0.00041527394930701914 0.0016739895973560742 0.0012727614058921448 0.9982946919280214 -0.0032589822560967516
 -8.17077054472676e-05 -0.0004152758997852067 8.412942523101391e-05 0.0006616647650352945 0.9982946919280214 -0.0032589822560967516 0.0016739797817455473 0.001272767080172944
0.006252605252188 0.0017049897805368253 0.0015958735877577403 0.9982552271548982 -0.004074606973704225 9.094294712558789e-05 0.0008274241784132659 -8.783030898241343e-05 -0.000519631106080239
 0.9982552271548982 -0.004074606973704225 0.001704977016129029 0.0015958797895131481 -8.782613505161484e-05 -0.000519628703564617 9.101608276607792e-05 0.0008274008762160982
 9.094294712558789e-05 0.0008274241784132659 -8.782613505161484e-05 -0.000519628703564617 0.0017049915584460692 0.0015959568941823843 0.9982552276433173 -0.004074523155925371
 -8.783030898241343e-05 -0.000519631106080239 9.101608276607792e-05 0.0008274008762160982 0.9982552276433173 -0.004074523155925371 0.0017049762157004507 0.0015959641233687836
0.01250521050438 0.0018682581993559855 0.003225161747169151 0.9980460281633015 -0.008150004460486901 0.00013023269796197514 0.0016552114241341934 -0.00012258724819661334 -0.001041773945019104
 0.9980460281633015 -0.008150004460486901 0.0018682072244411336 0.0032251756959550725 -0.0001225707883264897 -0.00104176953177115 0.00013052429714969832 0.001655155638151017
 0.00013023269796197514 0.0016552114241341934 -0.0001225707883264897 -0.00104176953177115 0.001868264714426826 0.003225328198726005 0.9980460295386289 -0.008149837077707795
 -0.00012258724819661334 -0.001041773945019104 0.00013052429714969832 0.001655155638151017 0.9980460295386289 -0.008149837077707795 0.0018682034633004632 0.0032253440484181694
0.01875781575657 0.002045995038585437 0.0048776189438404375 0.9978163103081924 -0.012236107944164187 0.000177996060052501 0.002483915309917769 -0.00016441259804021762 -0.0015656746714337688
 0.9978163103081924 -0.012236107944164187 0.0020458804810387075 0.004877642289869791 -0.00016437587690227076 -0.0015656687196450682 0.0001786509922054695 0.002483816018998979
 0.000177996060052501 0.002483915309917769 -0.00016437587690227076 -0.0015656687196450682 0.002046009240986822 0.004877868514257266 0.9978163129796291 -0.01223585711425823
 -0.00016441259804021762 -0.0015656746714337688 0.0001786509922054695 0.002483816018998979 0.9978163129796291 -0.01223585711425823 0.0020458716310629128 0.004877894508725321
0.02501042100875 0.0022385487245231085 0.006550928458735023 0.997565801083572 -0.016334893178115744 0.00023432641061372646 0.003313569318501443 -0.00021341033000106785 -0.0020910935503320282
 0.997565801083572 -0.016334893178115744 0.002238345256920603 0.00655096295184875 -0.00021334546271797696 -0.002091086620353881 0.00023548953344549982 0.0033134137325976885
 0.00023432641061372646 0.003313569318501443 -0.00021334546271797696 -0.002091086620353881 0.002238573538241304 0.006551261167293033 0.9975658054487588 -0.016334558975134767
 -0.00021341033000106785 -0.0020910935503320282 0.00023548953344549982 0.0033134137325976885 0.9975658054487588 -0.016334558975134767 0.0022383291953819093 0.006551298954913822
0.03126302626094 0.002446253284769183 0.008243895673729972 0.9972942141711105 -0.02044720286680692 0.00029931741991275513 0.004144130619840702 -0.0002696814709977986 -0.002617861243204763
 0.9972942141711105 -0.02044720286680692 0.0024459356124062804 0.008243943162645683 -0.00026958064778746175 -0.002617853984572671 0.00030113371810709465 0.004143904171731853
 0.00029931741991275513 0.004144130619840702 -0.00026958064778746175 -0.002617853984572671 0.002446291624428455 0.0082443115346435 0.9972942206311516 -0.02044678537161857
 -0.0002696814709977986 -0.002617861243204763 0.00030113371810709465 0.004143904171731853 0.9972942206311516 -0.02044678537161857 0.0024459102353778794 0.008244362886863659
0.037515631513130004 0.002669435501381137 0.009955739842382247 0.997001256830625 -0.024573454832486432 0.000373062204379386 0.004975526178113293 -0.00033332482292362537 -0.0031458327114683294
 0.997001256830625 -0.024573454832486432 0.002668978354827169 0.00995580227462103 -0.00033318030144021115 -0.00314582586331037 0.0003756768518799664 0.004975212506932802
 0.000373062204379386 0.004975526178113293 -0.00033318030144021115 -0.00314582586331037 0.002669490265830313 0.0099562388889601 0.9970012657817944 -0.02457295410861711
 -0.00033332482292362537 -0.0031458327114683294 0.0003756768518799664 0.004975212506932802 0.9970012657817944 -0.02457295410861711 0.002668941568145526 0.009956305700024032
0.043768236765320004 0.0029084176618604063 0.011685878583463729 0.9966866328867233 -0.02871385745034684 0.0004556529239569784 0.0058076667803805175 -0.00040443721682088276 -0.0036748731934705013
 0.9966866328867233 -0.02871385745034684 0.002907795790894939 0.01168595800530255 -0.0004042413176593669 -0.003674867584680259 0.0004592113137915978 0.005807247712616763
 0.0004556529239569784 0.0058076667803805175 -0.0004042413176593669 -0.003674867584680259 0.002908491740213726 0.011686460841466427 0.9966866447258683 -0.02871327357033315
 -0.00040443721682088276 -0.0036748731934705013 0.0004592113137915978 0.005807247712616763 0.9966866447258683 -0.02871327357033315 0.002907745515005642 0.011686545128634299
0.050020842017509996 0.0031635188455232796 0.013433838788563118 0.9963500442545089 -0.03286849866755511 0.000547180534565633 0.006640452826615395 -0.00048311360338123226 -0.004204852420903242
 0.9963500442545089 -0.03286849866755511 0.003162707013902233 0.013433937345184766 -0.00048285870729285814 -0.004204848970267704 0.0005518282910292546 0.0066399083560363375
 0.000547180534565633 0.006640452826615395 -0.00048285870729285814 -0.004204848970267704 0.0031636151148747346 0.0134345042925741 0.9963500593754927 -0.03286783169642657
 -0.00048311360338123226 -0.004204852420903242 0.0005518282910292546 0.0066399083560363375 0.9963500593754927 -0.03286783169642657 0.003162641180526195 0.013434608196413492
0.055454545454549996 0.0033985460072677035 0.014967024711028185 0.9960394682384947 -0.036490581355133604 0.0006340482551770688 0.007364610257673201 -0.0005577009960218202 -0.004666082911386166
 0.9960394682384947 -0.036490581355133604 0.0033975486069335115 0.014967141715576022 -0.0005573886874899671 -0.004666082152310379 0.0006397611505669331 0.007363939121914165
 0.0006340482551770688 0.007364610257673201 -0.0005573886874899671 -0.004666082152310379 0.0033986638901933723 0.014967762579970428 0.9960394865302844 -0.03648984223535156
 -0.0005577009960218202 -0.004666082911386166 0.0006397611505669331 0.007363939121914165 0.9960394865302844 -0.03648984223535156 0.0033974675832549373 0.01496788536591518
0.056273447269699996 0.0034350555742460693 0.015199212929122323 0.9959911918328813 -0.03703738962448269 0.0006477346108083817 0.007473777170918324 -0.0005694470675839497 -0.004735641786738483
 0.9959911918328813 -0.03703738962448269 0.003434028555513892 0.015199332864972775 -0.0005691256137605948 -0.004735641503035852 0.000653617591962236 0.0074730854380441955
 0.0006477346108083817 0.007473777170918324 -0.0005691256137605948 -0.004735641503035852 0.0034351769019757093 0.01519996170584488 0.995991210628332 -0.03703663963613404
 -0.0005694470675839497 -0.004735641786738483 0.000653617591962236 0.0074730854380441955 0.995991210628332 -0.03703663963613404 0.003433945108577781 0.015200087490837247
0.06252605252188 0.00372334216197752 0.016981635004856385 0.9956097761002881 -0.04122048863735658 0.0007574032022165584 0.008307526690971043 -0.0006635288070685621 -0.005267112788535538
 0.9956097761002881 -0.04122048863735658 0.0037220747351741955 0.016981778663946994 -0.0006631332920371394 -0.00526711677058226 0.0007646674948228708 0.008306663962357862
 0.0007574032022165584 0.008307526690971043 -0.0006631332920371394 -0.00526711677058226 0.003723491405984205 0.016982467082269175 0.9956097989609575 -0.04121965570521206
 -0.0006635288070685621 -0.005267112788535538 0.0007646674948228708 0.008306663962357862 0.9956097989609575 -0.04121965570521206 0.003721971630243646 0.01698261713747649
0.06877865777407 0.004028690895875745 0.018780766225823125 0.9952054975460113 -0.045417715451270546 0.000876272708327683 0.009141583223063543 -0.0007654480884590052 -0.005799136110256598
 0.9952054975460113 -0.045417715451270546 0.004027157841220338 0.01878093605240284 -0.00076497106535934 -0.005799145546971914 0.0008850646182138138 0.009140523870577382
 0.000876272708327683 0.009141583223063543 -0.00076497106535934 -0.005799145546971914 0.004028870905033597 0.018781681626568972 0.995205524860713 -0.04541679965450686
 -0.0007654480884590052 -0.005799136110256598 0.0008850646182138138 0.009140523870577382 0.995205524860713 -0.04541679965450686 0.004027033045635541 0.01878185846649257
0.07503126302626001 0.004351412117316852 0.02059628591782365 0.9947780570059666 -0.04962896027428961 0.0010044277653787005 0.009975824161291098 -0.000875292189852424 -0.006331581044441232
 0.9947780570059666 -0.04962896027428961 0.004349588212670089 0.02059648445691577 -0.0008747262681543883 -0.006331597214862116 0.0010148938042155342 0.009974540641419085
 0.0010044277653787005 0.009975824161291098 -0.0008747262681543883 -0.006331597214862116 0.004351625732322755 0.0205972846656889 0.9947780891613219 -0.0496279616910794
 -0.000875292189852424 -0.006331581044441232 0.0010148938042155342 0.009974540641419085 0.9947780891613219 -0.0496279616910794 0.004349439705294378 0.02059749093127677
0.08128386827845 0.0046918142423825445 0.022427885490267366 0.9943271559399538 -0.05385408975413888 0.0011419511396332327 0.010810122860093934 -0.0009931463349869682 -0.006864315115688069
 0.9943271559399538 -0.05385408975413888 0.004689674258805577 0.022428115388606548 -0.0009924841803649923 -0.006864339388999403 0.0011542380085695354 0.01080858569347329
 0.0011419511396332327 0.010810122860093934 -0.0009924841803649923 -0.006864339388999403 0.004692064296243932 0.02242896760371748 0.9943271933208797 -0.053853008467809445
 -0.0009931463349869682 -0.006864315115688069 0.0011542380085695354 0.01080858569347329 0.9943271933208797 -0.053853008467809445 0.00468950003000944 0.02242920606355715
0.08753647353064001 0.005050203739569952 0.024275264251354064 0.9938524966723938 -0.05809295111303675 0.0012889236246478547 0.011644348918590288 -0.0011190936213480687 -0.007397203827322761
 0.9938524966723938 -0.05809295111303675 0.005047722438023615 0.024275528258223773 -0.0011183279557914832 -0.007397237662845703 0.0013031781960383627 0.011642526669659394
 0.0012889236246478547 0.011644348918590288 -0.0011183279557914832 -0.007397237662845703 0.005050493058178007 0.024276429742503974 0.9938525396614792 -0.05809178721263859
 -0.0011190936213480687 -0.007397203827322761 0.0013031781960383627 0.011642526669659394 0.9938525396614792 -0.05809178721263859 0.005047520489482284 0.024276703294156352
0.09378907878283 0.005426885078946762 0.02613812642838365 0.9933537826057869 -0.06234537508283444 0.0014454239421935336 0.012478368390205661 -0.0012532149434437594 -0.007930110487881243
 0.9933537826057869 -0.06234537508283444 0.005424037206074346 0.02613842739676809 -0.0012523385454183008 -0.007930155435074372 0.001461793239315094 0.01247622764715168
 0.0014454239421935336 0.012478368390205661 -0.0012523385454183008 -0.007930155435074372 0.00542721648117859 0.026139375306405914 0.993353831583118 -0.06234412865949534
 -0.0012532149434437594 -0.007930110487881243 0.001461793239315094 0.01247622764715168 0.993353831583118 -0.06234412865949534 0.005423805550863975 0.02613968697779655
0.100041684035 0.005822160661613247 0.028016178977942084 0.9928307184195093 -0.0666111780564025 0.0016115286445281488 0.013312043945038463 -0.001395588913372689 -0.008462896090084916
 0.9928307184195093 -0.0666111780564025 0.005818920946300881 0.02801651986573182 -0.0013945946182842396 -0.008462953788493623 0.0016301598193796188 0.013309549300032118
 0.0016115286445281488 0.013312043945038463 -0.0013945946182842396 -0.008462953788493623 0.005822536960530935 0.028017511246720847 0.9928307737630998 -0.0666098492052355
 -0.001395588913372689 -0.008462896090084916 0.0016301598193796188 0.013309549300032118 0.9928307737630998 -0.0666098492052355 0.005818657608568635 0.028017864197879067
0.1059090909091 0.006210263617007283 0.02979208750526806 0.9923174702065289 -0.07062617502062343 0.0017762015759841474 0.014093922051859201 -0.0015367654283323432 -0.00896262283922669
 0.9923174702065289 -0.07062617502062343 0.006206633195615684 0.029792468638073635 -0.0015356540342306149 -0.008962694074671724 0.0017970892104881221 0.014091061309202792
 0.0017762015759841474 0.014093922051859201 -0.0015356540342306149 -0.008962694074671724 0.006210684599617588 0.02979349802585301 0.9923175318655737 -0.07062476890976803
 -0.0015367654283323432 -0.00896262283922669 0.0017970892104881221 0.014091061309202792 0.9923175318655737 -0.07062476890976803 0.006206338340328165 0.02979389270695198
0.1062942892872 0.006236330732844061 0.02990912994899457 0.9922830102543875 -0.07089016369216959 0.001787312018097345 0.014145234996116904 -0.0015462917787660352 -0.008995419231353203
 0.9922830102543875 -0.07089016369216959 0.006232673881665716 0.029909513820444576 -0.001545172479260301 -0.00899549141058133 0.001808352328086992 0.014142349025821642
 0.001787312018097345 0.014145234996116904 -0.001545172479260301 -0.00899549141058133 0.006236754735359527 0.02991054560760273 0.9922830723395619 -0.07088875251136555
 -0.0015462917787660352 -0.008995419231353203 0.001808352328086992 0.014142349025821642 0.9922830723395619 -0.07088875251136555 0.006232376897067535 0.02991094313245309
0.11254689453939999 0.006669693284036915 0.03181668722892014 0.9917103658909632 -0.0751821241422609 0.001972845988142361 0.014977797807569661 -0.001705397338782294 -0.009527536057931838
 0.9917103658909632 -0.0751821241422609 0.0066655939784402716 0.03181711725610048 -0.0017041459853989421 -0.00952762453755433 0.001996442771512977 0.014974481054011543
 0.001972845988142361 0.014977797807569661 -0.0017041459853989421 -0.00952762453755433 0.006670167791840507 0.031818186268508304 0.9917104350902853 -0.07518063073579441
 -0.001705397338782294 -0.009527536057931838 0.001996442771512977 0.014974481054011543 0.9917104350902853 -0.07518063073579441 0.006665261393247079 0.0318186317968567
0.11879949979160001 0.007122543945478363 0.03373855756553181 0.9911124949198651 -0.07948684101093842 0.0021682000245496972 0.015809585584502347 -0.001872976858577736 -0.010059100232957953
 0.9911124949198651 -0.07948684101093842 0.007117976836828782 0.033739037030152054 -0.0018715864602914252 -0.010059206922446112 0.002194500674165238 0.015805796536351297
 0.0021682000245496972 0.015809585584502347 -0.0018715864602914252 -0.010059206922446112 0.007123071755467792 0.033740139972701574 0.9911125716033252 -0.07948526548478287
 -0.001872976858577736 -0.010059100232957953 0.002194500674165238 0.015805796536351297 0.9911125716033252 -0.07948526548478287 0.007117606708986106 0.03374063707242908
0.1250521050438 0.007595175871911143 0.035674445807969614 0.9904891089087762 -0.08380408610121089 0.002373441047289606 0.016640448553863322 -0.002049098982914503 -0.010589962919296316
 0.9904891089087762 -0.08380408610121089 0.007590115578357872 0.03567497810320557 -0.0020475626077246173 -0.010590089817907567 0.002402592984146604 0.01663614362801378
 0.002373441047289606 0.016640448553863322 -0.0020475626077246173 -0.010590089817907567 0.007595759776314511 0.035676111562479136 0.9904891934433822 -0.08380242856516396
 -0.002049098982914503 -0.010589962919296316 0.002402592984146604 0.01663614362801378 0.9904891934433822 -0.08380242856516396 0.007589705976660288 0.03567666394184796
0.131304710296 0.008087879621988332 0.03762405429119697 0.9898399215663368 -0.08813362202483041 0.0025886333333121833 0.017470234038047365 -0.002233829648590099 -0.011119972775501065
 0.9898399215663368 -0.08813362202483041 0.008082300724470986 0.03762464292373872 -0.0022321404243196997 -0.011120121972163744 0.002620783978358558 0.01746536756170718
 0.0025886333333121833 0.017470234038047365 -0.0022321404243196997 -0.011120121972163744 0.00808852240914429 0.03762580336420937 0.9898400143160201 -0.08813188259371504
 -0.002233829648590099 -0.011119972775501065 0.002620783978358558 0.01746536756170718 0.9898400143160201 -0.08813188259371504 0.008081849728707863 0.0376264148744847
0.1375573155481 0.008488678030523316 0.03933305132274589 0.989276959695611 -0.0922210435162982 0.002786659663166201 0.01827344399156444 -0.002400024878867897 -0.0116236791381821
 0.989276959695611 -0.0922210435162982 0.008482554209206586 0.03933368512556344 -0.00239817293232607 -0.011623850844924646 0.0028218878698226335 0.018268022364021055
 0.002786659663166201 0.01827344399156444 -0.00239817293232607 -0.011623850844924646 0.008489383624538063 0.03933488298187014 0.9892770610257811 -0.09221922231463073
 -0.002400024878867897 -0.0116236791381821 0.0028218878698226335 0.018268022364021055 0.9892770610257811 -0.09221922231463073 0.008482058768547643 0.03933554425494794
0.1438099208003 0.008903608127043161 0.041032928464896236 0.9886941540371985 -0.09629798508209088 0.0029926748977751744 0.019073366011648437 -0.0025728647703452813 -0.012124334944886128
 0.9886941540371985 -0.09629798508209088 0.008896913811371384 0.04103360991283502 -0.002570842774489407 -0.012124531210957665 0.003031115695439702 0.019067347323888026
 0.0029926748977751744 0.019073366011648437 -0.002570842774489407 -0.012124531210957665 0.008904379518332022 0.04103484261461432 0.9886942643069634 -0.0962960822337659
 -0.0025728647703452813 -0.012124334944886128 0.003031115695439702 0.019067347323888026 0.9886942643069634 -0.0962960822337659 0.008896371817480063 0.041035556643708705
0.1500625260525 0.009332522460017303 0.042723539927103746 0.9880916562265883 -0.10036434177744091 0.003206606953989745 0.019869917488926706 -0.002752278582523797 -0.012621860756684929
 0.9880916562265883 -0.10036434177744091 0.009325232045748085 0.04272427162458694 -0.002750079231404228 -0.012622083713014844 0.003248394579450037 0.019863258294269295
 0.003206606953989745 0.019869917488926706 -0.002750079231404228 -0.012622083713014844 0.009333362649274571 0.042725536465121366 0.9880917757916238 -0.10036235741118234
 -0.002752278582523797 -0.012621860756684929 0.003248394579450037 0.019863258294269295 0.9880917757916238 -0.10036235741118234 0.009324641387635554 0.04272630640044051
0.15631513130469998 0.009775272513680211 0.044404744297323086 0.9874696186895076 -0.1044200091061742 0.003428382889894999 0.020663017246421264 -0.00293819469391657 -0.013116178830876525
 0.9874696186895076 -0.1044200091061742 0.0097673603616165 0.044405528980501575 -0.0029358107030587814 -0.01311643068957345 0.003473650775087239 0.020655672576285297
