! Created with skrf 1.8.0 (http://scikit-rf.org).
# GHz S RI R 50.0 
!freq ReS11 ImS11 ReS12 ImS12 ReS13 ImS13
! ReS14 ImS14
! ReS21 ImS21 ReS22 ImS22 ReS23 ImS23
! ReS24 ImS24
! ReS31 ImS31 ReS32 ImS32 ReS33 ImS33
! ReS34 ImS34
! ReS41 ImS41 ReS42 ImS42 ReS43 ImS43
! ReS44 ImS44
!
0.0 0.001528698614901 0.0 0.9984713013619 0.0 5.89442462831e-05 0.0 -5.894424657158e-05 7.218588289203779e-21
 0.9984713013619 0.0 0.001528698614879 0.0 -5.894424657089e-05 7.218588289119279e-21 5.894424628207e-05 0.0
 5.89442462831e-05 0.0 -5.894424657089e-05 7.218588289119279e-21 0.001528698615685 0.0 0.9984713013627 0.0
 -5.894424657158e-05 7.218588289203779e-21 5.894424628207e-05 0.0 0.9984713013627 0.0 0.001528698615695 0.0
0.005 0.001644701658641413 0.0012505382214175102 0.9983245412312892 -0.0032023068195252734 8.261322208760552e-05 0.0006498520503255043 -8.019067746076547e-05 -0.00040784984549267224
 0.9983245412312892 -0.0032023068195252734 0.0016447268235440847 0.0012505234866043108 -8.018852593101475e-05 -0.00040784816323019714 8.246423312225108e-05 0.0006499087406755478
 8.261322208760552e-05 0.0006498520503255043 -8.018852593101475e-05 -0.00040784816323019714 0.0016447032719754807 0.0012506045055890697 0.9983245415886938 -0.003202239759842626
 -8.019067746076547e-05 -0.00040784984549267224 8.246423312225108e-05 0.0006499087406755478 0.9983245415886938 -0.003202239759842626 0.0016447259201505951 0.0012505913180495647
0.006252605252188 0.0016751095545985725 0.001568094369099767 0.9982858273833493 -0.004003668691471736 8.93795538080343e-05 0.0008126296474248874 -8.618199167192655e-05 -0.0005103403575267557
 0.9982858273833493 -0.004003668691471736 0.0016751488922969323 0.0015680756705093951 -8.617864393195247e-05 -0.000510338282649204 8.91467716169217e-05 0.0008127032609706918
 8.93795538080343e-05 0.0008126296474248874 -8.617864393195247e-05 -0.000510338282649204 0.0016751120041854643 0.0015681772124639037 0.9982858278694086 -0.004003584872016154
 -8.618199167192655e-05 -0.0005103403575267557 8.91467716169217e-05 0.0008127032609706918 0.9982858278694086 -0.004003584872016154 0.0016751474070684652 0.0015681604575457013
0.01250521050438 0.001835089460856826 0.0031690595868332275 0.9980807963484639 -0.008008153031430933 0.0001282042850672919 0.001625610930006507 -0.00012013635261096432 -0.001023162504722964
 0.9980807963484639 -0.008008153031430933 0.0018352465431022572 0.0031690193558201376 -0.00012012316208326645 -0.0010231586611096838 0.0001272759806154352 0.0016257878116257497
 0.0001282042850672919 0.001625610930006507 -0.00012012316208326645 -0.0010231586611096838 0.0018350986773008945 0.0031692249457538754 0.99808079772031 -0.008007985629362897
 -0.00012013635261096432 -0.001023162504722964 0.0001272759806154352 0.0016257878116257497 0.99808079772031 -0.008007985629362897 0.00183524003558965 0.0031691887201030504
0.01875781575657 0.0020089858154768076 0.004792833868518949 0.9978559548267723 -0.012023201210808332 0.00017550709391165806 0.002439486481799805 -0.00016091127140174642 -0.0015377286667511492
 0.9978559548267723 -0.012023201210808332 0.00200933879767552 0.004792769032683364 -0.00016088185956240718 -0.0015377234184415292 0.000173421704330073 0.002439802045178869
 0.00017550709391165806 0.002439486481799805 -0.00016088185956240718 -0.0015377234184415292 0.0020090061090199725 0.004793081498265328 0.9978559574863908 -0.012022950313003366
 -0.00016091127140174642 -0.0015377286667511492 0.000173421704330073 0.002439802045178869 0.9978559574863908 -0.012022950313003366 0.002009323735492008 0.004793022916852431
0.02501042100875 0.0021971358997083645 0.006437146419619916 0.997611039436527 -0.016050760045760153 0.00023137840146051418 0.0032542881604023873 -0.0002086073655051116 -0.0020538062808264914
 0.997611039436527 -0.016050760045760153 0.0021977627869490092 0.006437053695846611 -0.00020855543104544505 -0.002053800056259931 0.00022767415547063013 0.003254783379147794
 0.00023137840146051418 0.0032542881604023873 -0.00020855543104544505 -0.002053800056259931 0.002197171576350802 0.006437476063593076 0.9976110437867244 -0.01605042568557917
 -0.0002086073655051116 -0.0020538062808264914 0.00022767415547063013 0.003254783379147794 0.9976110437867244 -0.01605042568557917 0.0021977356355120216 0.006437392096658151
0.03126302626094 0.002399863026787211 0.008100829186396277 0.9973457732827615 -0.020091663206760983 0.00029590922814005363 0.004069972924314727 -0.00026332245067696333 -0.0025712320216179137
 0.9973457732827615 -0.020091663206760983 0.0024008417166761797 0.008100705086047101 -0.00026324175637012826 -0.002571225314429647 0.0002901237169484652 0.004070694364484651
 0.00029590922814005363 0.004069972924314727 -0.00026324175637012826 -0.002571225314429647 0.002399918390602538 0.008101240539478013 0.9973457797287398 -0.020091245400360353
 -0.00026332245067696333 -0.0025712320216179137 0.0002901237169484652 0.004070694364484651 0.9973457797287398 -0.020091245400360353 0.0024007989380446207 0.008101128017956857
0.037515631513130004 0.002617483517977837 0.009783120959888326 0.9970598731454922 -0.024146327054520248 0.000369190229893883 0.0048864680985305315 -0.00032515223131443033 -0.003089866527199757
 0.9970598731454922 -0.024146327054520248 0.002618891827961333 0.009782961791228709 -0.00032503659717275543 -0.003089859896441719 0.0003608602146338669 0.004887467975109366
 0.000369190229893883 0.0048864680985305315 -0.00032503659717275543 -0.003089859896441719 0.002617562868001794 0.009783613677746644 0.9970598820918933 -0.024145825791045447
 -0.00032515223131443033 -0.003089866527199757 0.0003608602146338669 0.004887467975109366 0.9970598820918933 -0.024145825791045447 0.0026188298772455362 0.009783469296296763
0.043768236765320004 0.002850309396720889 0.01148345562116759 0.9967530523913175 -0.028214962325161852 0.00045131123886794076 0.005703685148439901 -0.000394190554226333 -0.0036095806234208764
 0.9967530523913175 -0.028214962325161852 0.0028522250866119684 0.011483257490497053 -0.00039403385355596756 -0.0036095746936281176 0.00043997255927573765 0.005705021389180617
 0.00045131123886794076 0.005703685148439901 -0.00039403385355596756 -0.0036095746936281176 0.0028504170299387907 0.011484029301618855 0.9967530642457404 -0.02821437758465279
 -0.000394190554226333 -0.0036095806234208764 0.00043997255927573765 0.005705021389180617 0.9967530642457404 -0.02821437758465279 0.0028521404138703234 0.01148384962068354
0.050020842017509996 0.0030986496412960386 0.01320137461473422 0.9964250224475504 -0.03229766158498708 0.0005423609930617709 0.006521525376245945 -0.00047052949652838717 -0.004130249629454616
 0.9964250224475504 -0.03229766158498708 0.0031011504319519846 0.013201133426862254 -0.00047032565327809536 -0.00413024509065422 0.0005275485291236729 0.006523261688629901
 0.0005423609930617709 0.006521525376245945 -0.00047032565327809536 -0.00413024509065422 0.003098789850733528 0.01320202880873588 0.9964250376199314 -0.0322969933268688
 -0.00047052949652838717 -0.004130249629454616 0.0005275485291236729 0.006523261688629901 0.9964250376199314 -0.0322969933268688 0.0031010394807062798 0.013201810255881208
0.055454545454549996 0.0033273025573910702 0.014708271797763545 0.9961225050954341 -0.03585708746667177 0.0006288051757235895 0.007232677180892747 -0.0005428695415891113 -0.004583406763439896
 0.9961225050954341 -0.03585708746667177 0.0033303749202333215 0.014707989709482732 -0.0005426198335933483 -0.004583404044693228 0.0006105954039018918 0.0072348174460666005
 0.0006288051757235895 0.007232677180892747 -0.0005426198335933483 -0.004583404044693228 0.003327474560880975 0.01470899554943638 0.9961225234867043 -0.03585634658959549
 -0.0005428695415891113 -0.004583406763439896 0.0006105954039018918 0.0072348174460666005 0.9961225234867043 -0.03585634658959549 0.0033302382392900163 0.014708740211891537
0.056273447269699996 0.003362810826768387 0.014936483992762229 0.9960754936705406 -0.03639444211573093 0.0006424269445150736 0.007339882704356253 -0.0005542593832593088 -0.004651750580164956
 0.9960754936705406 -0.03639444211573093 0.003365974417788077 0.014936195450842828 -0.0005540023703653777 -0.004651748187858471 0.0006236746111277906 0.007342088643814355
 0.0006424269445150736 0.007339882704356253 -0.0005540023703653777 -0.004651748187858471 0.0033629879023259588 0.014937218191893748 0.9960755125739107 -0.036393690290500554
 -0.0005542593832593088 -0.004651750580164956 0.0006236746111277906 0.007342088643814355 0.9960755125739107 -0.036393690290500554 0.0033658336252906465 0.014936957062627917
0.06252605252188 0.003643097468630739 0.01668843080326969 0.9957041759184638 -0.04050526945817156 0.0007515951091590635 0.008158645214533519 -0.0006454687677809032 -0.005173960696542106
 0.9957041759184638 -0.04050526945817156 0.0036470015541447153 0.016688090408247078 -0.0006451526058294007 -0.005173961271681074 0.0007284358718777448 0.008161396253251168
 0.0007515951091590635 0.008158645214533519 -0.0006451526058294007 -0.005173961271681074 0.0036433156958347187 0.01668924444264981 0.9957041989697706 -0.04050443400404058
 -0.0006454687677809032 -0.005173960696542106 0.0007284358718777448 0.008161396253251168 0.9957041989697706 -0.04050443400404058 0.00364682735165851 0.01668893690073126
0.06877865777407 0.003939812204693141 0.01845688900068175 0.9953107789679254 -0.04463007143731418 0.0008699499377134892 0.008977696068861164 -0.0007442443922357888 -0.00569675647854214
 0.9953107789679254 -0.04463007143731418 0.003944534489609787 0.018456492050029367 -0.0007438631487731974 -0.005696760907481304 0.0008419158435446088 0.008981073664611634
 0.0008699499377134892 0.008977696068861164 -0.0007438631487731974 -0.005696760907481304 0.003940075863550217 0.018457781463417103 0.9953108065873046 -0.044629152274935295
 -0.0007442443922357888 -0.00569675647854214 0.0008419158435446088 0.008981073664611634 0.9953108065873046 -0.044629152274935295 0.003944323300502477 0.018457423540654074
0.07503126302626001 0.00425325587763616 0.020241550532683665 0.994895012833736 -0.04876874701494329 0.0009975742010145871 0.00979691409335639 -0.0008506711339238528 -0.006220013139596509
 0.994895012833736 -0.04876874701494329 0.004258874092827011 0.02024109211885002 -0.0008502189227996232 -0.0062200223740570765 0.0009641964208054516 0.00980100575809726
 0.0009975742010145871 0.00979691409335639 -0.0008502189227996232 -0.0062200223740570765 0.004253569242629867 0.02024252114220243 0.9948950454460807 -0.048767744054627055
 -0.0008506711339238528 -0.006220013139596509 0.0009641964208054516 0.00980100575809726 0.9948950454460807 -0.048767744054627055 0.004258622334070305 0.02024210873779068
0.08128386827845 0.004583727559912936 0.02204211939403121 0.9944565880357253 -0.05292117218018529 0.0011345488827340738 0.010616174174978694 -0.0009648319441058603 -0.006743604232282514
 0.9944565880357253 -0.05292117218018529 0.004590319477581294 0.02204159440225726 -0.0009643029251550161 -0.006743619289291084 0.001095357762143763 0.010621073542987074
 0.0011345488827340738 0.010616174174978694 -0.0009643029251550161 -0.006743619289291084 0.004584094899087483 0.022043167411824313 0.9944566260708044 -0.05292008532344773
 -0.0009648319441058603 -0.006743604232282514 0.001095357762143763 0.010621073542987074 0.9944566260708044 -0.05292008532344773 0.004590023558983015 0.022042696291179407
0.08753647353064001 0.00493152453655217 0.02385830751918522 0.9939952158262028 -0.05708720400585685 0.0012809530781496188 0.011435347538611692 -0.0010868077801213071 -0.007267401398686974
 0.9939952158262028 -0.05708720400585685 0.0049391679852180525 0.02385771062484274 -0.001086196158943711 -0.007267423360522599 0.0012354781957964272 0.011441154434040353
 0.0012809530781496188 0.011435347538611692 -0.001086196158943711 -0.007267423360522599 0.004931950110531972 0.023859432151767227 0.993995259719064 -0.057086033137951214
 -0.0010868077801213071 -0.007267401398686974 0.0012354781957964272 0.011441154434040353 0.993995259719064 -0.057086033137951214 0.004938824309351273 0.023858897944801394
0.09378907878283 0.005296942260609586 0.025689831855085252 0.9935106083944122 -0.061266683530106815 0.001436863895773448 0.01225430195144607 -0.001216677533812457 -0.007791274198217608
 0.9935106083944122 -0.061266683530106815 0.005305715140297975 0.025689157520537832 -0.001215977561648299 -0.007791304212349846 0.0013846341276171114 0.012261122455067235
 0.001436863895773448 0.01225430195144607 -0.001215977561648299 -0.007791304212349846 0.00529743032144795 0.02569103224695619 0.9935106585856832 -0.061265428526515946
 -0.001216677533812457 -0.007791274198217608 0.0013846341276171114 0.012261122455067235 0.9935106585856832 -0.061265428526515946 0.005305320102256408 0.025690430445846072
0.100041684035 0.005680274288604968 0.02753641220946959 0.9930024790537177 -0.06545943786773628 0.0016023563618597543 0.013072901881132646 -0.0013545179565810268 -0.00831508998659807
 0.9930024790537177 -0.06545943786773628 0.005690254585949766 0.027535654680339642 -0.0013537239303611235 -0.008315129265607802 0.001542899950367074 0.013080848396323206
 0.0016023563618597543 0.013072901881132646 -0.0013537239303611235 -0.008315129265607802 0.005680829079547023 0.027537687445130323 0.9930025359902674 -0.06545809859160809
 -0.0013545179565810268 -0.00831508998659807 0.001542899950367074 0.013080848396323206 0.9930025359902674 -0.06545809859160809 0.005689804573601517 0.02753701340162327
0.1059090909091 0.0060565433661692245 0.029282676808422316 0.9925040064069514 -0.06940580156965376 0.0017664328150722465 0.013840625174394694 -0.001491182233087909 -0.00880646353274993
 0.9925040064069514 -0.06940580156965376 0.006067727715455555 0.029281835779644532 -0.0014902948009856392 -0.008806512666628345 0.001699765407724914 0.013849736250847657
 0.0017664328150722465 0.013840625174394694 -0.0014902948009856392 -0.008806512666628345 0.0060571646262841386 0.029284021390821455 0.9925040700858009 -0.06940438307700157
 -0.001491182233087909 -0.00880646353274993 0.001699765407724914 0.013849736250847657 0.9925040700858009 -0.06940438307700157 0.006067222823578999 0.029283275199899674
0.1062942892872 0.006081812200763319 0.02939776963796289 0.9924705424170404 -0.06966528178858358 0.0017775033262161257 0.01389100861871366 -0.0015004035821444721 -0.008838713835184045
 0.9924705424170404 -0.06966528178858358 0.006093078004360036 0.02939692293884073 -0.0014995098445637876 -0.008838763656684182 0.0017103479543650075 0.013900199936427852
 0.0017775033262161257 0.01389100861871366 -0.0014995098445637876 -0.008838763656684182 0.006082437954887895 0.029399118741298507 0.9924706065527032 -0.06966385809093381
 -0.0015004035821444721 -0.008838713835184045 0.0017103479543650075 0.013900199936427852 0.9924706065527032 -0.06966385809093381 0.006092569397915283 0.029398367663349044
0.11254689453939999 0.006501845510881605 0.031273625210502046 0.9919145145650176 -0.07388401892243403 0.0019623753696980284 0.014708480383025373 -0.001654406647348798 -0.00936200847400165
 0.9919145145650176 -0.07388401892243403 0.006514475025977367 0.031272683140211845 -0.0016534075869497984 -0.009362070180561849 0.0018870482385542186 0.014719041745695043
 0.0019623753696980284 0.014708480383025373 -0.0016534075869497984 -0.009362070180561849 0.00650254644987404 0.03127504714319058 0.9919145863603532 -0.07388251064316226
 -0.001654406647348798 -0.00936200847400165 0.0018870482385542186 0.014719041745695043 0.9919145863603532 -0.07388251064316226 0.00651390419820392 0.031274214091039615
0.11879949979160001 0.006940661566126277 0.03316369905411562 0.9913341132072664 -0.07811544269348446 0.0021570407120028645 0.015525172406415396 -0.0018165970115657387 -0.009884834258738831
 0.9913341132072664 -0.07811544269348446 0.006954733130390239 0.03316265518023162 -0.0018154870629761323 -0.009884909257779923 0.0020730686225479446 0.015537235570807328
 0.0021570407120028645 0.015525172406415396 -0.0018154870629761323 -0.009884909257779923 0.0069414418997083924 0.033165192716244726 0.9913341931306516 -0.07811384966048694
 -0.0018165970115657387 -0.009884834258738831 0.0020730686225479446 0.015537235570807328 0.9913341931306516 -0.07811384966048694 0.006954096446635809 0.03316427259792351
0.1250521050438 0.007398545440532507 0.03506770959724267 0.9907290578398652 -0.08235933705971778 0.0023615651207047777 0.016340937014253692 -0.0019870420749277607 -0.01040704914940434
 0.9907290578398652 -0.08235933705971778 0.007414137539435081 0.03506655725006955 -0.0019858157191486657 -0.010407138913106198 0.002268474558526428 0.016354640313112588
 0.0023615651207047777 0.016340937014253692 -0.0019858157191486657 -0.010407138913106198 0.00739940936527892 0.035069273825629514 0.9907291463677348 -0.08235765909005871
 -0.0019870420749277607 -0.01040704914940434 0.002268474558526428 0.016354640313112588 0.9907291463677348 -0.08235765909005871 0.007413431357023294 0.035068261391928805
0.131304710296 0.007875779822473266 0.036985372968352914 0.9900990698993524 -0.08661547710422066 0.00257601182059112 0.017155623694403037 -0.002165806695819031 -0.010928508704523191
 0.9900990698993524 -0.08661547710422066 0.00789297110438539 0.03698410523434609 -0.0021644584604482383 -0.010928614769703453 0.002473329043885553 0.017171112096756
 0.00257601182059112 0.017155623694403037 -0.0021644584604482383 -0.010928614769703453 0.007876731520786119 0.03698700653736373 0.9900991675169194 -0.08661371400301683
 -0.002165806695819031 -0.010928508704523191 0.002473329043885553 0.017171112096756 0.9900991675169194 -0.08661371400301683 0.007892191773268529 0.036985896376038094
0.1375573155481 0.008262898603878327 0.03866644301345515 0.9895536593196863 -0.09063356857381807 0.0027737749175488 0.017944170119956773 -0.002326409916601853 -0.011424085076157591
 0.9895536593196863 -0.09063356857381807 0.008281772806261252 0.03866507861329588 -0.0023249316121422827 -0.01142420756303011 0.002661264252145304 0.01796142117459307
 0.0027737749175488 0.017944170119956773 -0.0023249316121422827 -0.01142420756303011 0.008263941608035615 0.03866814492673722 0.9895537664436809 -0.09063172024560248
 -0.002326409916601853 -0.011424085076157591 0.002661264252145304 0.01796142117459307 0.9895537664436809 -0.09063172024560248 0.008280917447962706 0.038666956962004256
0.1438099208003 0.008663628506653247 0.04033868386488058 0.9889890717419101 -0.09464149412004112 0.0029795375298828104 0.018729460472153393 -0.0024934357607634787 -0.01191673237989636
 0.9889890717419101 -0.09464149412004112 0.008684265253144067 0.040337217377526276 -0.002491821492536916 -0.011916872802075118 0.002856767930202629 0.01874860674849757
 0.0029795375298828104 0.018729460472153393 -0.002491821492536916 -0.011916872802075118 0.008664766861947108 0.0403404528751605 0.9889891888553995 -0.09463956037784069
 -0.0024934357607634787 -0.01191673237989636 0.002856767930202629 0.01874860674849757 0.9889891888553995 -0.09463956037784069 0.008683330346496402 0.040339183198020656
0.1500625260525 0.00907782847653426 0.042001956494281185 0.9884054522393808 -0.0986391546772728 0.003193229108118736 0.019511412289074773 -0.002666816756257801 -0.012406374755568678
 0.9884054522393808 -0.0986391546772728 0.00910030757061054 0.04200038218115252 -0.002665060641553989 -0.012406534687706377 0.003059772066840973 0.019532591195749058
 0.003193229108118736 0.019511412289074773 -0.002665060641553989 -0.012406534687706377 0.009079066207171223 0.04200379130435214 0.9884055798327734 -0.09863713532809873
 -0.002666816756257801 -0.012406374755568678 0.003059772066840973 0.019532591195749058 0.9884055798327734 -0.09863713532809873 0.009099289596146027 0.042002435748016535
0.15631513130469998 0.0095053564610751 0.04365612608108707 0.9878029466192972 -0.10262645152362795 0.003414778262905488 0.020289944493738197 -0.0028464845989556228 -0.012892937946899939
 0.9878029466192972 -0.10262645152362795 0.009529757891405677 0.043654437878260705 -0.002844580767257035 -0.012893119024420066 0.0032702078491200675 0.020313298228538033
