! Created with skrf 1.8.0 (http://scikit-rf.org).
# GHz S RI R 50.0 
!freq ReS11 ImS11 ReS12 ImS12 ReS13 ImS13
! ReS14 ImS14
! ReS21 ImS21 ReS22 ImS22 ReS23 ImS23
! ReS24 ImS24
! ReS31 ImS31 ReS32 ImS32 ReS33 ImS33
! ReS34 ImS34
! ReS41 ImS41 ReS42 ImS42 ReS43 ImS43
! ReS44 ImS44
!
0.0 0.001383899785967 0.0 0.9986161001998 0.0 5.339985825342e-05 0.0 -5.339985829706e-05 6.539596553841676e-21
 0.9986161001998 0.0 0.001383899785961 0.0 -5.339985829748e-05 6.539596553893111e-21 5.339985825225e-05 0.0
 5.339985825342e-05 0.0 -5.339985829748e-05 6.539596553893111e-21 0.001383899790242 0.0 0.9986161002041 0.0
 -5.339985829706e-05 6.539596553841676e-21 5.339985825225e-05 0.0 0.9986161002041 0.0 0.001383899790215 0.0
0.005 0.0014885977356389082 0.001127129059982698 0.9984836831882212 -0.0028996775961663743 7.544310649905869e-05 0.0006207135281011804 -7.305507779317212e-05 -0.00038405256436472023
 0.9984836831882212 -0.0028996775961663743 0.0014886191228024967 0.0011271166085033814 -7.305712185231604e-05 -0.0003840541631735834 7.529602794041981e-05 0.0006207693316472877
 7.544310649905869e-05 0.0006207135281011804 -7.305712185231604e-05 -0.0003840541631735834 0.0014885962130125746 0.0011270627185078583 0.9984836828473533 -0.0028997446621081367
 -7.305507779317212e-05 -0.00038405256436472023 7.529602794041981e-05 0.0006207693316472877 0.9984836828473533 -0.0028997446621081367 0.001488619964765743 0.001127048817359907
0.006252605252188 0.0015159324319529187 0.0014133872113663664 0.998448907384669 -0.003625327732273922 8.168924349556767e-05 0.0007761844317092843 -7.855073006836851e-05 -0.00048057709822776695
 0.998448907384669 -0.003625327732273922 0.001515965864019602 0.0014133714235965036 -7.85539105991489e-05 -0.0004805790705665446 8.145944297663288e-05 0.0007762568831903325
 8.168924349556767e-05 0.0007761844317092843 -7.85539105991489e-05 -0.0004805790705665446 0.001515930119200304 0.0014133043030946529 0.9984489069197255 -0.003625411550009427
 -7.855073006836851e-05 -0.00048057709822776695 8.145944297663288e-05 0.0007762568831903325 0.9984489069197255 -0.003625411550009427 0.0015159672482715019 0.0014132866951682495
0.01250521050438 0.0016591042719640186 0.0028567613162224803 0.9982656174737409 -0.007251607770001993 0.00011723601888963607 0.0015526663619632635 -0.00010944396888955545 -0.0009635957152563825
 0.9982656174737409 -0.007251607770001993 0.0016592377650743984 0.002856727519552053 -0.00010945650095919102 -0.0009635993755497332 0.00011631952462087183 0.0015528401483877444
 0.00011723601888963607 0.0015526663619632635 -0.00010945650095919102 -0.0009635993755497332 0.0016590955975616844 0.002856595793047232 0.9982656161829745 -0.007251775159300933
 -0.00010944396888955545 -0.0009635957152563825 0.00011631952462087183 0.0015528401483877444 0.9982656161829745 -0.007251775159300933 0.0016592438642205206 0.0028565582568101755
0.01875781575657 0.0018137034131564577 0.004321026342008326 0.9980660203711443 -0.010887697774630601 0.00016011685386511555 0.0023300166402518336 -0.00014617005605998236 -0.0014483325149317495
 0.9980660203711443 -0.010887697774630601 0.0018140033736020191 0.0043209722183268 -0.00014619800063016532 -0.0014483375301958842 0.00015805780238238798 0.002330325817468521
 0.00016011685386511555 0.0023300166402518336 -0.00014619800063016532 -0.0014483375301958842 0.0018136843334788837 0.0043207783932062895 0.9980660178933051 -0.01088794862021757
 -0.00014617005605998236 -0.0014483325149317495 0.00015805780238238798 0.002330325817468521 0.9980660178933051 -0.01088794862021757 0.0018140175123910812 0.004320718453425905
0.02501042100875 0.001980010742680649 0.005804147781406914 0.9978498984279056 -0.01453538610522424 0.00021041025965332826 0.0031082913290166217 -0.00018881679307855624 -0.0019345746110564644
 0.9978498984279056 -0.01453538610522424 0.001980543440992199 0.0058040709408861465 -0.00018886613846754536 -0.0019345805934315634 0.00020675244627225392 0.003108774931542874
 0.00021041025965332826 0.0031082913290166217 -0.00018886613846754536 -0.0019345805934315634 0.0019799772179910744 0.0058038175571741065 0.9978498944047044 -0.014535720356152105
 -0.00018881679307855624 -0.0019345746110564644 0.00020675244627225392 0.003108774931542874 0.9978498944047044 -0.014535720356152105 0.0019805689466001375 0.005803732612439719
0.03126302626094 0.0021582953867935613 0.007305091237987881 0.9976170220400515 -0.018195453149871404 0.00026819564621049466 0.00388747151103342 -0.00023746967817221633 -0.002422179650583883
 0.9976170220400515 -0.018195453149871404 0.0021591269949068044 0.0073049892253357444 -0.0002375463526195454 -0.002422186156561953 0.0002624820925321992 0.0038881735817810205
 0.00026819564621049466 0.00388747151103342 -0.0002375463526195454 -0.002422186156561953 0.0021582433739426544 0.007304678927909037 0.9976170161106286 -0.018195870741357673
 -0.00023746967817221633 -0.002422179650583883 0.0002624820925321992 0.0038881735817810205 0.9976170161106286 -0.018195870741357673 0.0021591671929969917 0.007304566256523654
0.037515631513130004 0.0023488207709602194 0.008823191845959612 0.9973671558555463 -0.021868301852055363 0.00033355242623898593 0.004667508988617859 -0.0002922125812205867 -0.002911030097215161
 0.9973671558555463 -0.021868301852055363 0.0023500173877938455 0.008823062143992783 -0.00029232245947046186 -0.0029110366273813427 0.0003253251790470161 0.00466847863132376
 0.00033355242623898593 0.004667508988617859 -0.00029232245947046186 -0.0029110366273813427 0.0023487462288616103 0.008822697648573356 0.9973671476623894 -0.02186880273623322
 -0.0002922125812205867 -0.002911030097215161 0.0003253251790470161 0.00466847863132376 0.9973671476623894 -0.02186880273623322 0.002350075608725448 0.008822554411798546
0.043768236765320004 0.00255184697452589 0.010357962331138138 0.9971000612789086 -0.025554149587643352 0.00040655960681565466 0.005448340177106052 -0.0003531279945998497 -0.0034010193269658896
 0.9971000612789086 -0.025554149587643352 0.0025534746457585747 0.010357802363628519 -0.00035327690174070486 -0.0034010253259232084 0.0003953596357401827 0.005449631615932796
 0.00040655960681565466 0.005448340177106052 -0.00035327690174070486 -0.0034010253259232084 0.0025517458601971113 0.010357386465948543 0.9971000504644295 -0.025554733722079327
 -0.0003531279945998497 -0.0034010193269658896 0.0003953596357401827 0.005449631615932796 0.9971000504644295 -0.025554733722079327 0.0025535542219097588 0.0103572097098943
0.050020842017509996 0.0027676318280644477 0.011909013697385926 0.9968154977226494 -0.02925310741450247 0.00048729555266704505 0.006229891847441509 -0.0004202971334384901 -0.003892045877445087
 0.9968154977226494 -0.02925310741450247 0.002769756563763418 0.011908820831161746 -0.00042049084745255597 -0.0038920507337728083 0.0004726627000897476 0.006231564489547251
 0.00048729555266704505 0.006229891847441509 -0.00042049084745255597 -0.0038920507337728083 0.002767500096943628 0.011908356409903993 0.9968154839299892 -0.029253774757733154
 -0.0004202971334384901 -0.003892045877445087 0.0004726627000897476 0.006231564489547251 0.9968154839299892 -0.029253774757733154 0.002769860830108988 0.011908143066935358
0.055454545454549996 0.0029657159640489026 0.01326988933372787 0.9965538286089561 -0.03247829596075691 0.0005637944990690429 0.006909607006689403 -0.0004838100804809768 -0.004319528256134763
 0.9965538286089561 -0.03247829596075691 0.0029683262570691783 0.013269665696055841 -0.0004840473902486755 -0.004319531579419216 0.0005458037744790573 0.006911663245361411
 0.0005637944990690429 0.006909607006689403 -0.0004840473902486755 -0.004319531579419216 0.0029655543403425758 0.01326916150165763 0.9965538119384229 -0.03247903558805423
 -0.0004838100804809768 -0.004319528256134763 0.0005458037744790573 0.006911663245361411 0.9965538119384229 -0.03247903558805423 0.0029684546901938644 0.013268913784528855
0.056273447269699996 0.0029964314814137295 0.013476016313943502 0.9965132233329064 -0.03296521892140869 0.0005758378254729244 0.007012083933440302 -0.0004937999683473464 -0.004384010634870538
 0.9965132233329064 -0.03296521892140869 0.0029991192728018225 0.01347578786050175 -0.0004940442219222454 -0.004384013681121344 0.0005573107880410297 0.007014202432950841
 0.0005758378254729244 0.007012083933440302 -0.0004940442219222454 -0.004384013681121344 0.002996265087870688 0.013475277868968143 0.9965132062056539 -0.03296596944005677
 -0.0004937999683473464 -0.004384010634870538 0.0005573107880410297 0.007014202432950841 0.9965132062056539 -0.03296596944005677 0.0029992515670137277 0.013475024758518027
0.06252605252188 0.003238500719102862 0.015058678488811168 0.9961929954640262 -0.03669048159200244 0.0006722630608234335 0.0077948310781537885 -0.000573715224557969 -0.004876815284465446
 0.9961929954640262 -0.03669048159200244 0.0032418175534478424 0.015058411705609691 -0.0005740157062319375 -0.004876815797170699 0.0006493793913114753 0.0077974654008709406
 0.0006722630608234335 0.0077948310781537885 -0.0005740157062319375 -0.004876815797170699 0.00323829561518281 0.015057859185961298 0.9961929746457213 -0.03669131524592342
 -0.000573715224557969 -0.004876815284465446 0.0006493793913114753 0.0077974654008709406 0.9961929746457213 -0.03669131524592342 0.003241981215179682 0.015057563014943357
0.06877865777407 0.003494093132145573 0.016656733728896693 0.9958545710141878 -0.040428859484290876 0.0007766468657048533 0.008578043556109203 -0.0006601203615658477 -0.0053703613876823035
 0.9958545710141878 -0.040428859484290876 0.003498105008313159 0.01665642582021016 -0.0006604827166453177 -0.005370358587378706 0.0007489429897508559 0.0085812690444247
 0.0007766468657048533 0.008578043556109203 -0.0006604827166453177 -0.005370358587378706 0.003493845268621646 0.016655833890391707 0.9958545461492904 -0.04042977623929931
 -0.0006601203615658477 -0.0053703613876823035 0.0007489429897508559 0.0085812690444247 0.9958545461492904 -0.04042977623929931 0.0034983033797808816 0.016655491253116817
0.07503126302626001 0.0037634612087551864 0.01826993263486562 0.9954977066820953 -0.04418029127754264 0.0008890637289117448 0.009361627855368511 -0.0007530915406171885 -0.0058645498023669985
 0.9954977066820953 -0.04418029127754264 0.0037682341517189695 0.018269580752206364 -0.0007535213717848779 -0.005864542853613397 0.0008560749722910255 0.009365525293214383
 0.0008890637289117448 0.009361627855368511 -0.0007535213717848779 -0.005864542853613397 0.0037631665349456022 0.01826895261124753 0.9954976774154118 -0.04418129110025863
 -0.0007530915406171885 -0.0058645498023669985 0.0008560749722910255 0.009365525293214383 0.9954976774154118 -0.04418129110025863 0.003768470577395029 0.018268559989078673
0.08128386827845 0.004046856373334131 0.019898037523873133 0.9951221591746839 -0.04794469559434972 0.0010095869389198818 0.01014548706881383 -0.0008527035842994017 -0.006359280296632281
 0.9951221591746839 -0.04794469559434972 0.004052456448985375 0.019897638766071094 -0.000853206452052513 -0.006359268308040874 0.0009708475633197386 0.010150142746403462
 0.0010095869389198818 0.01014548706881383 -0.000853206452052513 -0.006359268308040874 0.004046510836806748 0.01989697769531503 0.9951221251507842 -0.047945778451405255
 -0.0008527035842994017 -0.006359280296632281 0.0009708475633197386 0.010150142746403462 0.9951221251507842 -0.047945778451405255 0.004052734274919109 0.019896531455813268
0.08753647353064001 0.004344528989505799 0.021540818703777935 0.9947276853820243 -0.05172197467392061 0.0011382885066146184 0.010929521164549219 -0.0009590299307871 -0.006854451286613652
 0.9947276853820243 -0.05172197467392061 0.00435102231972166 0.021540370116550377 -0.0009596113537356046 -0.006854433310884102 0.0010933317522102098 0.010935026942840967
 0.0011382885066146184 0.010929521164549219 -0.0009596113537356046 -0.006854433310884102 0.004344128536772458 0.021539679479695952 0.9947276462462831 -0.05172314053299794
 -0.0009590299307871 -0.006854451286613652 0.0010933317522102098 0.010935026942840967 0.9947276462462831 -0.05172314053299794 0.004351344893803387 0.021539175875346473
0.09378907878283 0.004656728341874808 0.023198051810407197 0.9943140425333137 -0.0555120169856881 0.0012752390914636336 0.011713627181760175 -0.0010721425841678043 -0.007349959651942525
 0.9943140425333137 -0.0555120169856881 0.004664181118749535 0.023197550385644142 -0.0010728080392117673 -0.0073499346859083456 0.0012235972247799955 0.011720080556439106
 0.0012752390914636336 0.011713627181760175 -0.0010728080392117673 -0.0073499346859083456 0.004656268918284447 0.02319683363374979 0.9943139979311025 -0.05551326581170516
 -0.0010721425841678043 -0.007349959651942525 0.0012235972247799955 0.011720080556439106 0.9943139979311025 -0.05551326581170516 0.004664551790224134 0.02319626880034061
0.100041684035 0.004983702598972411 0.024869515856306194 0.9938809883371095 -0.05931469913474876 0.0014205079295186848 0.012497699379309427 -0.0011921120618120016 -0.007845700601678482
 0.9938809883371095 -0.05931469913474876 0.0049921811000366864 0.024868958530844157 -0.0011928669842233414 -0.00784566758634455 0.0013617122964113674 0.012505203544300802
 0.0014205079295186848 0.012497699379309427 -0.0011928669842233414 -0.00784566758634455 0.004983180148687307 0.024868219197693806 0.9938809379137548 -0.059316030896276226
 -0.0011921120618120016 -0.007845700601678482 0.0013617122964113674 0.012505203544300802 0.9938809379137548 -0.059316030896276226 0.004992603219081566 0.024867589152256012
0.1059090909091 0.005304190917128588 0.026450755292464455 0.9934567432026978 -0.06289448971413857 0.0015644530499676153 0.013233340681196129 -0.0013109883618935396 -0.008311017542129876
 0.9934567432026978 -0.06289448971413857 0.005313692319393202 0.02645014267369189 -0.001311832146218154 -0.008310975960554606 0.0014985173598862833 0.013241929886399714
 0.0015644530499676153 0.013233340681196129 -0.001311832146218154 -0.008310975960554606 0.005303605634001556 0.026449385443841802 0.9934566869948165 -0.06289589927278727
 -0.0013109883618935396 -0.008311017542129876 0.0014985173598862833 0.013241929886399714 0.9934566869948165 -0.06289589927278727 0.0053141657644782325 0.026448690473280263
0.1062942892872 0.005325698764195168 0.026554991763087957 0.9934282811117193 -0.06312988728709705 0.0015741627633266907 0.01328162934665481 -0.0013190073393638964 -0.008341567581234575
 0.9934282811117193 -0.06312988728709705 0.005335269367290539 0.02655437541702207 -0.001319857122833093 -0.008341525401833519 0.0015077438458088142 0.01329029325703944
 0.0015741627633266907 0.01328162934665481 -0.001319857122833093 -0.008341525401833519 0.005325109231039887 0.026553617126036346 0.9934282245130384 -0.0631313019517749
 -0.0013190073393638964 -0.008341567581234575 0.0015077438458088142 0.01329029325703944 0.9934282245130384 -0.0631313019517749 0.005335746285122067 0.026552917764224308
0.11254689453939999 0.005682962617651503 0.028254261237795744 0.9929556799092327 -0.06695743825467504 0.001736269772498386 0.014065306095920589 -0.0014528957940863813 -0.008837452201588835
 0.9929556799092327 -0.06695743825467504 0.005693691815948738 0.028253582692405424 -0.0014538457906539074 -0.008837399687643705 0.0016617572494415406 0.0140752445301651
 0.001736269772498386 0.014065306095920589 -0.0014538457906539074 -0.008837399687643705 0.0056823019449595506 0.02825280915702086 0.992955616781197 -0.06695893579145708
 -0.0014528957940863813 -0.008837452201588835 0.0016617572494415406 0.0140752445301651 0.992955616781197 -0.06695893579145708 0.005694226884364131 0.028252036250221796
0.11879949979160001 0.0060557386499321434 0.02996710589366909 0.992462944634011 -0.07079720033978523 0.0019068935053409603 0.014848616136006259 -0.0015938431465028185 -0.009333244189877639
 0.992462944634011 -0.07079720033978523 0.006067693067288762 0.029966361908793714 -0.0015948986664963542 -0.009333180115255755 0.001823816316353824 0.014859949757485742
 0.0019068935053409603 0.014848616136006259 -0.0015948986664963542 -0.009333180115255755 0.00605500278079763 0.029965576939519775 0.9924628746226086 -0.07079878071501139
 -0.0015938431465028185 -0.009333244189877639 0.001823816316353824 0.014859949757485742 0.9924628746226086 -0.07079878071501139 0.006068289637996963 0.029964726131337018
0.1250521050438 0.006444269990297923 0.03169330656404688 0.9919498361579178 -0.07464901399022235 0.0020860968106138486 0.015631443534434488 -0.0017419134011791195 -0.009828831355892948
 0.9919498361579178 -0.07464901399022235 0.006457516396377515 0.031692493835038416 -0.0017430797130236827 -0.009828754438894598 0.001993983223052233 0.015644298952120734
 0.0020860968106138486 0.015631443534434488 -0.0017430797130236827 -0.009828754438894598 0.006443454867785445 0.03169170133779201 0.9919497589091019 -0.07465067717288712
 -0.0017419134011791195 -0.009828831355892948 0.001993983223052233 0.015644298952120734 0.9919497589091019 -0.07465067717288712 0.0064581778212775606 0.03169076814009394
0.131304710296 0.0068487983293385405 0.033432642742618215 0.9914161164320294 -0.07851271233209325 0.0022739407697545603 0.016413669974433186 -0.0018971687863310776 -0.010324099566929057
 0.9914161164320294 -0.07851271233209325 0.00686340365550312 0.03343175789671072 -0.0018984511164611905 -0.010324008470341506 0.00217231844855693 0.01642817980279757
 0.0022739407697545603 0.016413669974433186 -0.0018984511164611905 -0.010324008470341506 0.0068478998974430445 0.033430961880223785 0.9914160315920334 -0.07851445829066404
 -0.0018971687863310776 -0.010324099566929057 0.00217231844855693 0.01642817980279757 0.9914160315920334 -0.07851445829066404 0.006864133285873701 0.03342994166880675
0.1375573155481 0.007172991563454004 0.034956428885048775 0.9909581493104227 -0.08215958294574327 0.0024461976456908044 0.017171566606584192 -0.0020355056520579094 -0.010795252808778046
 0.9909581493104227 -0.08215958294574327 0.00718902865985618 0.03495548927120018 -0.0020369117846855693 -0.010795147541957525 0.002334836641477433 0.017187701452985368
 0.0024461976456908044 0.017171566606584192 -0.0020369117846855693 -0.010795147541957525 0.007172006398455045 0.03495467288817966 0.9909580565376659 -0.08216141161983424
 -0.0020355056520579094 -0.010795252808778046 0.002334836641477433 0.017187701452985368 0.9909580565376659 -0.08216141161983424 0.007189829188887238 0.034953581964626196
0.1438099208003 0.007508444150175745 0.03647276225763599 0.9904843214018971 -0.08579781896966533 0.0026254429776532873 0.017926784925109834 -0.0021794002668050405 -0.01126401058896955
 0.9904843214018971 -0.08579781896966533 0.007525981093242332 0.03647176574226727 -0.0021809358287674433 -0.011263889847101432 0.002503913954798905 0.017944665153163515
 0.0026254429776532873 0.017926784925109834 -0.0021809358287674433 -0.011263889847101432 0.007507368309629726 0.03647093175897883 0.9904842203459742 -0.0857997303199208
 -0.0021794002668050405 -0.01126401058896955 0.002503913954798905 0.017944665153163515 0.9904842203459742 -0.0857997303199208 0.00752685575203282 0.03646976672589399
0.1500625260525 0.007855045669127456 0.03798153398429037 0.9899947465942225 -0.08942734852883762 0.0028116212481252983 0.0186792599595532 -0.0023287996806452224 -0.011730312703976575
 0.9899947465942225 -0.08942734852883762 0.00787415072883927 0.03798047826799161 -0.0023304702894186894 -0.011730175129919553 0.002679497113859992 0.01869901030598774
 0.0028116212481252983 0.0186792599595532 -0.0023304702894186894 -0.011730175129919553 0.007853875217857955 0.037979629640058535 0.9899946369046398 -0.0894293425154739
 -0.0023287996806452224 -0.011730312703976575 0.002679497113859992 0.01869901030598774 0.9899946369046398 -0.0894293425154739 0.007875102739602341 0.03797838688407128
0.15631513130469998 0.008212685005659623 0.0394826385750662 0.9894895392539115 -0.09304809963939578 0.0030046763423555484 0.019428927716508303 -0.00248365034410553 -0.012194100157018415
