! Created with skrf 1.8.0 (http://scikit-rf.org).
# GHz S RI R 50.0 
!freq ReS11 ImS11 ReS12 ImS12 ReS13 ImS13
! ReS14 ImS14
! ReS21 ImS21 ReS22 ImS22 ReS23 ImS23
! ReS24 ImS24
! ReS31 ImS31 ReS32 ImS32 ReS33 ImS33
! ReS34 ImS34
! ReS41 ImS41 ReS42 ImS42 ReS43 ImS43
! ReS44 ImS44
!
0.0 0.00113508220906 0.0 0.9988649177908 0.0 4.317294170372e-05 0.0 -4.317294260275e-05 5.287160596823018e-21
 0.9988649177908 0.0 0.001135082209046 0.0 -4.317294260246e-05 5.287160596787504e-21 4.317294170293e-05 0.0
 4.317294170372e-05 0.0 -4.317294260246e-05 5.287160596787504e-21 0.001135082206036 0.0 0.9988649177878 0.0
 -4.317294260275e-05 5.287160596823018e-21 4.317294170293e-05 0.0 0.9988649177878 0.0 0.001135082206036 0.0
0.005 0.0012203768691120061 0.0009277057686628868 0.9987571406003565 -0.002378916376714597 6.018769998693246e-05 0.00048479616068377343 -5.8495437965171164e-05 -0.0003028647943762421
 0.9987571406003565 -0.002378916376714597 0.001220377489050951 0.0009277054301959976 -5.8496792290554293e-05 -0.0003028658623489967 6.018604015224476e-05 0.0004847969066797813
 6.018769998693246e-05 0.00048479616068377343 -5.8496792290554293e-05 -0.0003028658623489967 0.0012203757136990065 0.0009276392175495093 0.9987571402757154 -0.0023789834408069715
 -5.8495437965171164e-05 -0.0003028647943762421 6.018604015224476e-05 0.0004847969066797813 0.9987571402757154 -0.0023789834408069715 0.0012203779939711484 0.0009276378508326878
0.006252605252188 0.0012424887987309977 0.00116332507779945 0.9987290656672992 -0.0029742678940020985 6.490062856368735e-05 0.0006062424016121518 -6.270286115785032e-05 -0.00037898972176615974
 0.9987290656672992 -0.0029742678940020985 0.001242489767330213 0.0011633246100454513 -6.270496842902641e-05 -0.00037899103984589966 6.489803654793262e-05 0.0006062433506004614
 6.490062856368735e-05 0.0006062424016121518 -6.270496842902641e-05 -0.00037899103984589966 0.0012424870677107864 0.0011632419053419327 0.9987290652351861 -0.0029743517101168764
 -6.270286115785032e-05 -0.00037898972176615974 6.489803654793262e-05 0.0006062433506004614 0.9987290652351861 -0.0029743517101168764 0.0012424906323320046 0.0011632401455141455
0.01250521050438 0.001357386815051294 0.0023514582904809638 0.9985824167453312 -0.005949555729502921 9.114593475731419e-05 0.001212894946161688 -8.593808528908687e-05 -0.0007599887668427489
 0.9985824167453312 -0.005949555729502921 0.0013573906770806413 0.002351456905878676 -8.594638810555e-05 -0.0007599912219103123 9.113563928374217e-05 0.0012128970309287247
 9.114593475731419e-05 0.001212894946161688 -8.594638810555e-05 -0.0007599912219103123 0.0013573804706450282 0.002351292218026239 0.998582415593144 -0.005949723112889403
 -8.593808528908687e-05 -0.0007599887668427489 9.113563928374217e-05 0.0012128970309287247 0.998582415593144 -0.005949723112889403 0.0013573947085923856 0.0023512881707310556
0.01875781575657 0.001479972478246802 0.0035569701162572556 0.9984248281105571 -0.008933159379373855 0.00012196056042749734 0.0018204065374064812 -0.00011293828240053908 -0.0011424678620575975
 0.9984248281105571 -0.008933159379373855 0.0014799811474434648 0.0035569673505779185 -0.00011295679632324448 -0.001142471247803767 0.00012193752834674906 0.001820409994546016
 0.00012196056042749734 0.0018204065374064812 -0.00011295679632324448 -0.001142471247803767 0.001479958628858999 0.0035567212836870145 0.9984248259392288 -0.008933410216120987
 -0.00011293828240053908 -0.0011424678620575975 0.00012193752834674906 0.001820409994546016 0.9984248259392288 -0.008933410216120987 0.0014799906325232248 0.003556714370540656
0.02501042100875 0.0016104388993747696 0.004778223322587777 0.9982561528567808 -0.01192657808796247 0.00015739689564557528 0.0024288386456249524 -0.0001437619158695348 -0.0015262827793334096
 0.9982561528567808 -0.01192657808796247 0.0016104542793953884 0.004778218694845527 -0.00014379460874216303 -0.0015262868599823381 0.00015735614759169336 0.002428843753027749
 0.00015739689564557528 0.0024288386456249524 -0.00014379460874216303 -0.0015262868599823381 0.0016104146625510322 0.004777891829090658 0.99825614937852 -0.011926912306068233
 -0.0001437619158695348 -0.0015262827793334096 0.00015735614759169336 0.002428843753027749 0.99825614937852 -0.011926912306068233 0.0016104715156599711 0.004777881421748455
0.03126302626094 0.0017489707516149962 0.006014401979295208 0.9980762348371414 -0.014930485431012996 0.00019750801971694354 0.0030381967317773453 -0.00017846619680811802 -0.0019113429013797518
 0.9980762348371414 -0.014930485431012996 0.0017489947362901942 0.00601439499121581 -0.00017851699722285972 -0.0019113474111284725 0.0001974446222054434 0.0030382038072146126
 0.00019750801971694354 0.0030381967317773453 -0.00017851699722285972 -0.0019113474111284725 0.0017489332367118468 0.006013987930285485 0.9980762297592551 -0.014930902953534447
 -0.00017846619680811802 -0.0019113429013797518 0.0001974446222054434 0.0030382038072146126 0.9980762297592551 -0.014930902953534447 0.0017490220168856943 0.006013973349831074
0.037515631513130004 0.0018957488449207192 0.007264994278643242 0.9978849133088703 -0.01794524645590589 0.00024234720241766592 0.0036484646782954993 -0.0002171075344985814 -0.002297576779707129
 0.9978849133088703 -0.01794524645590589 0.0018957833182763307 0.007264984414438934 -0.00021718033621902127 -0.00229758142253853 0.00024225626417165156 0.003648474078834779
 0.00024234720241766592 0.0036484646782954993 -0.00021718033621902127 -0.00229758142253853 0.001895695162210722 0.007264497768952186 0.9978849063437293 -0.017945747217942648
 -0.0002171075344985814 -0.002297576779707129 0.00024225626417165156 0.003648474078834779 0.9978849063437293 -0.017945747217942648 0.0018958229419688073 0.007264478285357598
0.043768236765320004 0.002050951915840089 0.008529635119688864 0.9976820247927063 -0.0209710750532117 0.00029196768117296126 0.004259615259474165 -0.00025974171039527344 -0.002684921652193063
 0.9976820247927063 -0.0209710750532117 0.0020509987522651842 0.008529621845842938 -0.00025984037506737506 -0.00268492610179556 0.0002918443510852357 0.0042596273810823594
 0.00029196768117296126 0.004259615259474165 -0.00025984037506737506 -0.00268492610179556 0.0020508791706895916 0.008529056253126367 0.9976820156524506 -0.020971658982547183
 -0.00025974171039527344 -0.002684921652193063 0.0002918443510852357 0.0042596273810823594 0.9976820156524506 -0.020971658982547183 0.0020510530179208225 0.008529031084652819
0.050020842017509996 0.0022147574601715987 0.00980804109840158 0.9974674039773322 -0.024008098920662607 0.0003464225352873295 0.004871614460306442 -0.0003064239542135806 -0.003073319112195733
 0.9974674039773322 -0.024008098920662607 0.002214818524177204 0.009808023863584361 -0.0003065523131237909 -0.003073323011928248 0.00034626200140061087 0.0048716297375759965
 0.0003464225352873295 0.004871614460306442 -0.0003065523131237909 -0.003073323011928248 0.0022146627554855175 0.009807379972201432 0.9974673923764446 -0.024008765953642004
 -0.0003064239542135806 -0.003073319112195733 0.00034626200140061087 0.0048716297375759965 0.9974673923764446 -0.024008765953642004 0.002214889733798219 0.009807348284823915
0.055454545454549996 0.002364232952710986 0.010930011230822682 0.9972712345410935 -0.026656514647878465 0.00039771260208660105 0.005404119536456672 -0.00035032226764372096 -0.003411659443729244
 0.9972712345410935 -0.026656514647878465 0.002364307887484441 0.010929990092106476 -0.0003504795206042675 -0.003411662552402074 0.00039751585910408993 0.005404137938843171
 0.00039771260208660105 0.005404119536456672 -0.0003504795206042675 -0.003411662552402074 0.002364116808129457 0.010929278706639659 0.997271220570652 -0.026657253841231437
 -0.00035032226764372096 -0.003411659443729244 0.00039751585910408993 0.005404137938843171 0.997271220570652 -0.026657253841231437 0.002364395692074864 0.010929240635707788
0.056273447269699996 0.002387342179083892 0.011099978546096947 0.9972408842374405 -0.027056391478657033 0.00040576460405180724 0.005484423587526266 -0.0003572089753120133 -0.003462712985904414
 0.9972408842374405 -0.027056391478657033 0.002387419325385518 0.011099956781011958 -0.00035737083067264127 -0.0034627159487772147 0.00040556209307558846 0.005484442493422851
 0.00040576460405180724 0.005484423587526266 -0.00035737083067264127 -0.0034627159487772147 0.002387222613174766 0.01109923526712808 0.9972408698912534 -0.02705714154412741
 -0.0003572089753120133 -0.003462712985904414 0.00040556209307558846 0.005484442493422851 0.9972408698912534 -0.02705714154412741 0.0023875097817313887 0.011099196173894186
0.06252605252188 0.002568882229964304 0.012405246004891858 0.9970022979586178 -0.03011598934830783 0.00047004642367222236 0.006098000436997009 -0.0004121509744860775 -0.0038530481540017267
 0.9970022979586178 -0.03011598934830783 0.002568977303079202 0.012405219122262794 -0.0004123501002816089 -0.003853049762672149 0.00046979720085561625 0.006098023482633317
 0.00047004642367222236 0.006098000436997009 -0.0004123501002816089 -0.003853049762672149 0.0025687348974928405 0.012404420686043666 0.9970022805845671 -0.030116822371686964
 -0.0004121509744860775 -0.0038530481540017267 0.00046979720085561625 0.006098023482633317 0.9970022805845671 -0.030116822371686964 0.002569089311197598 0.01240437324652402
0.06877865777407 0.0027595533743298636 0.01372366375186278 0.9967514767610094 -0.03318690278187539 0.0005393201778798812 0.006712299977623699 -0.0004713036411390739 -0.004244269857613305
 0.9967514767610094 -0.03318690278187539 0.0027596682087870205 0.01372363114628121 -0.00047154378387511385 -0.004244269664383194 0.0005390195471117827 0.006712327712041259
 0.0005393201778798812 0.006712299977623699 -0.00047154378387511385 -0.004244269664383194 0.0027593753655164414 0.013722756510682268 0.9967514560778175 -0.03318781868660935
 -0.0004713036411390739 -0.004244269857613305 0.0005390195471117827 0.006712327712041259 0.9967514560778175 -0.03318781868660935 0.0027598040745814446 0.01372269973036838
0.07503126302626001 0.002959531065946096 0.01505506716751916 0.9964882516639781 -0.03626912224892095 0.0006136376544099026 0.007327274787654787 -0.0005347201438454489 -0.004636323252773644
 0.9964882516639781 -0.03626912224892095 0.002959667485907825 0.01505502821542765 -0.0005350050230044868 -0.004636320779590376 0.0006132809585698562 0.007327307797589964
 0.0006136376544099026 0.007327274787654787 -0.0005350050230044868 -0.004636320779590376 0.002959319466740442 0.015054078129222631 0.9964882273924659 -0.03627012095389562
 -0.0005347201438454489 -0.004636323252773644 0.0006132809585698562 0.007327307797589964 0.9964882273924659 -0.03627012095389562 0.002959829516569611 0.015054010958940996
0.08128386827845 0.0031689905006307335 0.016399302319641967 0.9962124532144905 -0.03936262280828803 0.0006930502060546194 0.007942875341572625 -0.0006024531154963371 -0.0050291531152749855
 0.9962124532144905 -0.03936262280828803 0.003169150319835143 0.016399256379272427 -0.0006027864239543224 -0.005029147853743897 0.0006926328274088127 0.007942914251234145
 0.0006930502060546194 0.007942875341572625 -0.0006027864239543224 -0.005029147853743897 0.0031687423926710116 0.01639823161623097 0.9962124250772857 -0.0393637042290066
 -0.0006024531154963371 -0.0050291531152749855 0.0006926328274088127 0.007942914251234145 0.9962124250772857 -0.0393637042290066 0.0031693408234766698 0.016398152951555726
0.08753647353064001 0.00338810664103308 0.017756222906623587 0.9959239115918705 -0.04246736712145747 0.0007776087143478669 0.008559050209540077 -0.0006745546350051905 -0.005422703634014506
 0.9959239115918705 -0.04246736712145747 0.0033882916626393252 0.017756169317900566 -0.0006749400393044594 -0.005422695045405056 0.0007771260751308748 0.008559095680353132
 0.0007776087143478669 0.008559050209540077 -0.0006749400393044594 -0.005422695045405056 0.0033878191012834164 0.017755070679005367 0.995923879313429 -0.04246853116816168
 -0.0006745546350051905 -0.005422703634014506 0.0007771260751308748 0.008559095680353132 0.995923879313429 -0.04246853116816168 0.0033885129478241384 0.017754979359673857
0.09378907878283 0.0036170542251508916 0.019125688076500356 0.99562245669727 -0.04558330759105117 0.0008673635549397491 0.009175746195586837 -0.0007510762065500698 -0.005816918266683857
 0.99562245669727 -0.04558330759105117 0.0036172662414397753 0.019125626161065574 -0.000751517347121877 -0.005816905781941382 0.0008668111179857683 0.009175798925944945
 0.0008673635549397491 0.009175746195586837 -0.000751517347121877 -0.005816905781941382 0.0036167243260829753 0.01912445447256553 0.9956224200044379 -0.045584554171029815
 -0.0007510762065500698 -0.005816918266683857 0.0008668111179857683 0.009175798925944945 0.9956224200044379 -0.045584554171029815 0.003617520617159765 0.0191243492819054
0.100041684035 0.003856007762053747 0.020507560821559613 0.995307918232945 -0.04871038792511902 0.000962364564090476 0.009792908442376513 -0.0008320687369238368 -0.006211739630022514
 0.995307918232945 -0.04871038792511902 0.0038562485544696495 0.02050748988264625 -0.0008325692282421301 -0.006211722649785905 0.0009617378335734781 0.009792969167363354
 0.000962364564090476 0.009792908442376513 -0.0008325692282421301 -0.006211722649785905 0.0038556325711974456 0.020506245999538802 0.9953078768545504 -0.04871171693964907
 -0.0008320687369238368 -0.006211739630022514 0.0009617378335734781 0.009792969167363354 0.9953078768545504 -0.04871171693964907 0.0038565383294885246 0.02050612566387801
0.1059090909091 0.004089495855317129 0.021815466652748725 0.9950007060708809 -0.05165489598084071 0.0010563281588916575 0.010372423553674692 -0.0009121827259905194 -0.006582737495331089
 0.9950007060708809 -0.05165489598084071 0.00408976526126306 0.021815386596149094 -0.00091274217600114 -0.006582715724455747 0.0010556276603165963 0.01037249248175155
 0.0010563281588916575 0.010372423553674692 -0.00091274217600114 -0.006582715724455747 0.004089075491749447 0.021814075768616138 0.9950006600510396 -0.05165630225724845
 -0.0009121827259905194 -0.006582737495331089 0.0010556276603165963 0.01037249248175155 0.9950006600510396 -0.05165630225724845 0.004090090354300667 0.021813940011331117
0.1062942892872 0.0041051415189763555 0.0219017067703833 0.9949801257729365 -0.05184854430495931 0.0010626610059398583 0.010410480506213335 -0.0009175825113918516 -0.006607109421022741
 0.9949801257729365 -0.05184854430495931 0.0041054128576877395 0.02190162609281117 -0.0009181459420921848 -0.006607087315641639 0.0010619555281078364 0.01041054999730828
 0.0010626610059398583 0.010410480506213335 -0.0009181459420921848 -0.006607087315641639 0.004104718099193873 0.021900310898111456 0.9949800794402165 -0.05184995565034159
 -0.0009175825113918516 -0.006607109421022741 0.0010619555281078364 0.01041054999730828 0.9949800794402165 -0.05184995565034159 0.0041057403405023625 0.02190017408623193
0.11254689453939999 0.004364629502029379 0.0233079932668796 0.9946389088302289 -0.054997706267273815 0.0011683015402907664 0.011028404416810208 -0.0010076671682631882 -0.007002968354562335
 0.9946389088302289 -0.054997706267273815 0.004364933145894101 0.023307902117025027 -0.0010082971012198654 -0.007002940464118035 0.001167512904316158 0.011028483481620457
 0.0011683015402907664 0.011028404416810208 -0.0010082971012198654 -0.007002940464118035 0.004364154911431449 0.02330651652020631 0.9946388572767908 -0.05499919983682471
 -0.0010076671682631882 -0.007002968354562335 0.001167512904316158 0.011028483481620457 0.9946388572767908 -0.05499919983682471 0.004365300644300692 0.023306361842736063
0.11879949979160001 0.004634645431099365 0.024726288642133217 0.9942840969185511 -0.05815779739489231 0.0012793341904882838 0.01164662072347254 -0.0011023716726797333 -0.007399256115990495
 0.9942840969185511 -0.05815779739489231 0.00463498312758519 0.02472618626785844 -0.0011030716450523823 -0.007399221750315191 0.001278458029379081 0.011646710205334941
 0.0012793341904882838 0.01164662072347254 -0.0011030716450523823 -0.007399221750315191 0.0046341167230246364 0.024724731207948998 0.9942840398805826 -0.05815937307616088
 -0.0011023716726797333 -0.007399256115990495 0.001278458029379081 0.011646710205334941 0.9942840398805826 -0.05815937307616088 0.004635392948325385 0.024724557216842802
0.1250521050438 0.004915362711145721 0.026156461644341805 0.9939155196120462 -0.061328735850614775 0.0013958063117555518 0.012265068530680597 -0.0012017442893551178 -0.007795911325445635
 0.9939155196120462 -0.061328735850614775 0.0049157361957883365 0.02615634727496231 -0.0012025178125718806 -0.0077958697641521595 0.001394838303196463 0.012265169308379311
 0.0013958063117555518 0.012265068530680597 -0.0012025178125718806 -0.0077958697641521595 0.004914776933991847 0.02615482371975342 0.9939154568285206 -0.06133039352666014
 -0.0012017442893551178 -0.007795911325445635 0.001394838303196463 0.012265169308379311 0.9939154568285206 -0.06133039352666014 0.004916190644320268 0.026154628907690405
0.131304710296 0.005206954399890744 0.027598380975318353 0.9935330066036985 -0.06451043480602832 0.0015177645592872205 0.01288368552907811 -0.0013058325547404726 -0.008192871508252484
 0.9935330066036985 -0.06451043480602832 0.00520736539634262 0.027598253821625212 -0.0013066831145039852 -0.008192822000768867 0.0015167004266605033 0.012883798516462909
 0.0015177645592872205 0.01288368552907811 -0.0013066831145039852 -0.008192822000768867 0.005206308597232065 0.027596662768476263 0.9935329378162797 -0.0645121743548873
 -0.0013058325547404726 -0.008192871508252484 0.0015167004266605033 0.012883798516462909 0.9935329378162797 -0.0645121743548873 0.0052078667763981535 0.027596445568337336
0.1375573155481 0.005434322580996946 0.028862737251861136 0.9932116748015027 -0.0675135804554167 0.0016274665169801266 0.013482508947585013 -0.001396893997765536 -0.008570178923811306
 0.9932116748015027 -0.0675135804554167 0.005434773351464522 0.028862601329703662 -0.00139782677334973 -0.00857012160494875 0.0016262999506420782 0.013482633807250616
 0.0016274665169801266 0.013482508947585013 -0.00139782677334973 -0.00857012160494875 0.005433614365729171 0.028860938877290812 0.9932115997405754 -0.06751540176693469
 -0.001396893997765536 -0.008570178923811306 0.0016262999506420782 0.013482633807250616 0.9932115997405754 -0.06751540176693469 0.005435323412909502 0.028860702710362864
0.1438099208003 0.0056693673943820746 0.030121740378502026 0.9928796135261239 -0.07051045082597694 0.0017415899220072566 0.01407973370927671 -0.0014916080314120092 -0.008946025508368406
 0.9928796135261239 -0.07051045082597694 0.005669859735341113 0.030121595302292286 -0.0014926267769591554 -0.008945959658689296 0.0017403163450830173 0.014079871301632874
 0.0017415899220072566 0.01407973370927671 -0.0014926267769591554 -0.008945959658689296 0.005668593905627284 0.030119862028897503 0.9928795319356882 -0.07051235377212418
 -0.0014916080314120092 -0.008946025508368406 0.0017403163450830173 0.014079871301632874 0.9928795319356882 -0.07051235377212418 0.005670460678057139 0.0301196057291446
0.1500625260525 0.005912021556699945 0.0313753244593734 0.9925368926035115 -0.07350101166509677 0.0018601044899096142 0.014675326077548815 -0.0015899452066145826 -0.009320378292823622
 0.9925368926035115 -0.07350101166509677 0.005912557258623445 0.031375169826083335 -0.00159105367212444 -0.00932030316437069 0.0018587193453020617 0.01467547729605867
 0.0018601044899096142 0.014675326077548815 -0.00159105367212444 -0.00932030316437069 0.005911179935325268 0.03137336633254619 0.9925368042303324 -0.07350299611432803
 -0.0015899452066145826 -0.009320378292823622 0.0018587193453020617 0.01467547729605867 0.9925368042303324 -0.07350299611432803 0.005913211274157998 0.031373088685933026
0.15631513130469998 0.006162217480847783 0.032623425847932014 0.9921835820222829 -0.07648522812144774 0.0019829796846812806 0.015269252737625038 -0.0016918758092469193 -0.009693204917445627
