! Created with skrf 1.8.0 (http://scikit-rf.org).
# GHz S RI R 50.0 
!freq ReS11 ImS11 ReS12 ImS12 ReS13 ImS13
! ReS14 ImS14
! ReS21 ImS21 ReS22 ImS22 ReS23 ImS23
! ReS24 ImS24
! ReS31 ImS31 ReS32 ImS32 ReS33 ImS33
! ReS34 ImS34
! ReS41 ImS41 ReS42 ImS42 ReS43 ImS43
! ReS44 ImS44
!
0.0 0.001592434798924 0.0 0.9984075651972 0.0 6.182191695201e-05 0.0 -6.182191719558e-05 7.571001301071977e-21
 0.9984075651972 0.0 0.001592434798892 0.0 -6.182191719538e-05 7.571001301047484e-21 6.182191695044e-05 0.0
 6.182191695201e-05 0.0 -6.182191719538e-05 7.571001301047484e-21 0.001592434800428 0.0 0.9984075651987 0.0
 -6.182191719558e-05 7.571001301071977e-21 6.182191695044e-05 0.0 0.9984075651987 0.0 0.001592434800415 0.0
0.005 0.0017135553579284717 0.0012967365351418897 0.9982542995144389 -0.0033358686846912135 8.755004837209362e-05 0.0007167204019851577 -8.485427917210652e-05 -0.000443623908649617
 0.9982542995144389 -0.0033358686846912135 0.0017135419102819024 0.0012967443899844135 -8.485652309392461e-05 -0.0004436256657916924 8.763831654500754e-05 0.0007166870085780135
 8.755004837209362e-05 0.0007167204019851577 -8.485652309392461e-05 -0.0004436256657916924 0.0017135536885320613 0.0012966702699094485 0.9982542991539848 -0.0033359357616231794
 -8.485427917210652e-05 -0.000443623908649617 8.763831654500754e-05 0.0007166870085780135 0.9982542991539848 -0.0033359357616231794 0.0017135428667207383 0.0012966765097608625
0.006252605252188 0.0017453698994629192 0.0016260425429850027 0.9982137812266912 -0.004170647053808771 9.491301648119434e-05 0.0008962291410225755 -9.138405258940525e-05 -0.0005551087023007609
 0.9982137812266912 -0.004170647053808771 0.0017453488775024304 0.0016260524499417549 -9.138754403982974e-05 -0.0005551108694165749 9.505092970987478e-05 0.0008961857392285804
 9.491301648119434e-05 0.0008962291410225755 -9.138754403982974e-05 -0.0005551108694165749 0.001745367353721812 0.0016259597577557238 0.9982137807274238 -0.004170730862623421
 -9.138405258940525e-05 -0.0005551087023007609 9.505092970987478e-05 0.0008961857392285804 0.9982137807274238 -0.004170730862623421 0.001745350437379527 0.0016259676360235093
0.01250521050438 0.001913129357375494 0.003286294526892921 0.997998687786936 -0.008342078167100711 0.00013720505985015955 0.0017927001728365584 -0.00012857745514032232 -0.0011129106806533002
 0.997998687786936 -0.008342078167100711 0.0019130454060828548 0.0032863152221450404 -0.0001285912114210125 -0.0011129146932530192 0.00013775510306126702 0.0017925954492482125
 0.00013720505985015955 0.0017927001728365584 -0.0001285912114210125 -0.0011129146932530192 0.001913119770416136 0.0032861292925004614 0.9979986863743755 -0.008342245576882217
 -0.00012857745514032232 -0.0011129106806533002 0.00013775510306126702 0.0017925954492482125 0.9979986863743755 -0.008342245576882217 0.0019130522257410848 0.003286145806625975
0.01875781575657 0.0020960896851941082 0.0049702512994302854 0.9977620102380591 -0.012524440481554544 0.00018879818246823397 0.00269004774272003 -0.0001735198944789913 -0.0016725466308690371
 0.9977620102380591 -0.012524440481554544 0.002095901022190576 0.004970283730696498 -0.00017355056690426544 -0.0016725521047308545 0.00019003397505248094 0.0026898602311104147
 0.00018879818246823397 0.00269004774272003 -0.00017355056690426544 -0.0016725521047308545 0.002096068560190756 0.004970003914912554 0.9977620074843891 -0.012524691424509056
 -0.0001735198944789913 -0.0016725466308690371 0.00019003397505248094 0.0026898602311104147 0.9977620074843891 -0.012524691424509056 0.0020959167889483 0.004970029815638146
0.02501042100875 0.0022946156942480487 0.006675530033808307 0.9975034628667657 -0.01671974753536191 0.00024979347819162605 0.00358831251671414 -0.00022632488886880438 -0.0022337445226588678
 0.9975034628667657 -0.01671974753536191 0.0022942806036720964 0.006675575196610709 -0.0002263790477051212 -0.002233751004245041 0.0002519888462252318 0.003588017310293985
 0.00024979347819162605 0.00358831251671414 -0.0002263790477051212 -0.002233751004245041 0.002294578542724925 0.006675200836710347 0.9975034583438884 -0.01672008200674146
 -0.00022632488886880438 -0.0022337445226588678 0.0002519888462252318 0.003588017310293985 0.9975034583438884 -0.01672008200674146 0.002294309012248517 0.006675236852616136
0.03126302626094 0.002509057084006667 0.00840089702542419 0.9972227457712433 -0.02092885193194183 0.00032029230911835045 0.004487448067809814 -0.00028710249897046083 -0.0027963128011122182
 0.9972227457712433 -0.02092885193194183 0.0025085338895517516 0.008400955959048774 -0.00028718664711174525 -0.0027963197667468073 0.0003237215326524814 0.004487016795248914
 0.00032029230911835045 0.004487448067809814 -0.00028718664711174525 -0.0027963197667468073 0.00250899942473702 0.008400486426051821 0.997222739049875 -0.020929269956164467
 -0.00028710249897046083 -0.0027963128011122182 0.0003237215326524814 0.004487016795248914 0.997222739049875 -0.020929269956164467 0.0025085786448740383 0.008400533259248217
0.037515631513130004 0.0027397558548320875 0.01014554221990498 0.9969195525391636 -0.02515217075025723 0.0004003953455747861 0.005387373543639199 -0.00035596017399427407 -0.0033600877371303124
 0.9969195525391636 -0.02515217075025723 0.0027390029014212306 0.010145616005342957 -0.00035608075392775166 -0.003360094592805289 0.00040533326865318766 0.005386774331722849
 0.0004003953455747861 0.005387373543639199 -0.00035608075392775166 -0.003360094592805289 0.0027396732118280475 0.010145050688635035 0.9969195431861643 -0.025152672394292797
 -0.00035596017399427407 -0.0033600877371303124 0.00040533326865318766 0.005386774331722849 0.9969195431861643 -0.025152672394292797 0.0027390677184825343 0.010145109011768155
0.043768236765320004 0.002987049156156247 0.011908858438164865 0.9965935733600171 -0.029389906249191446 0.0004902021112937178 0.0062879896891255135 -0.00043300304985148747 -0.003924917416818948
 0.9965935733600171 -0.029389906249191446 0.0029860247949377804 0.011908948196967393 -0.0004331664478099349 -0.003924923498153655 0.0004969241933402104 0.006287187121230853
 0.0004902021112937178 0.0062879896891255135 -0.0004331664478099349 -0.003924923498153655 0.0029869370577666706 0.011908286528708689 0.996593560936138 -0.02939049160006317
 -0.00043300304985148747 -0.003924917416818948 0.0004969241933402104 0.006287187121230853 0.996593560936138 -0.02939049160006317 0.002986113398744971 0.011908356982771226
0.050020842017509996 0.003251270605686355 0.01369035015924165 0.9962444966106642 -0.033642137012962335 0.0005898107037803318 0.007189185469486772 -0.0005183340558792514 -0.0044906551314350335
 0.9962444966106642 -0.033642137012962335 0.003249933180410171 0.013690457052801586 -0.0005185466044994101 -0.004490659703679456 0.0005985930394116468 0.007188140542323008
 0.0005898107037803318 0.007189185469486772 -0.0005185466044994101 -0.004490659703679456 0.0032511245869968983 0.013689698504446434 0.996244480671371 -0.033642806182631546
 -0.0005183340558792514 -0.0044906551314350335 0.0005985930394116468 0.007188140542323008 0.996244480671371 -0.033642806182631546 0.00325004930880584 0.01368978169705173
0.055454545454549996 0.003494891730668255 0.015252947077271595 0.9959221376009436 -0.037349227523387554 0.0006844088382444169 0.007972729961710234 -0.0005992985575876458 -0.004982923359865811
 0.9959221376009436 -0.037349227523387554 0.0034932483976750344 0.015253069835523282 -0.0005995589221809339 -0.004982925969348986 0.0006952063135867564 0.00797143992290055
 0.0006844088382444169 0.007972729961710234 -0.0005995589221809339 -0.004982925969348986 0.0034947126131205488 0.015252226695568975 0.9959221182402085 -0.037349969646288436
 -0.0005992985575876458 -0.004982923359865811 0.0006952063135867564 0.00797143992290055 0.9959221182402085 -0.037349969646288436 0.0034933914914036155 0.015252321424861912
0.056273447269699996 0.0035327509657904444 0.015489588724357522 0.99587200980116 -0.037908862677246906 0.0006993175935536322 0.008090841319202501 -0.0006120539338911652 -0.005057156144525346
 0.99587200980116 -0.037908862677246906 0.0035310587997602317 0.015489713953829639 -0.0006123219139467496 -0.00505715840261656 0.0007104369136743427 0.008089511398847981
 0.0006993175935536322 0.008090841319202501 -0.0006123219139467496 -0.00505715840261656 0.0035325665683106715 0.015488858035912427 0.9958719898949032 -0.037909615803772494
 -0.0006120539338911652 -0.005057156144525346 0.0007104369136743427 0.008089511398847981 0.9958719898949032 -0.037909615803772494 0.0035312062035467995 0.015488954539944378
0.06252605252188 0.003831818493891386 0.017306187723672838 0.9954758002000059 -0.042190028476404975 0.0008188174612078073 0.008992830935794179 -0.0007142612140262059 -0.005624275918575392
 0.9954758002000059 -0.042190028476404975 0.0038297298779637994 0.01730633253009625 -0.000714590855593365 -0.005624274987191624 0.0008325511216890373 0.008991169713399744
 0.0008188174612078073 0.008992830935794179 -0.000714590855593365 -0.005624274987191624 0.003831591267531872 0.017305378792697897 0.9954757758684197 -0.04219086572400132
 -0.0007142612140262059 -0.005624275918575392 0.0008325511216890373 0.008991169713399744 0.9954757758684197 -0.04219086572400132 0.00382991232318725 0.01730548914528546
0.06877865777407 0.004148799125548911 0.019139788318997625 0.9950555552947858 -0.046485539859263285 0.0009484030561555358 0.009895022351464155 -0.0008250521652096025 -0.0061918690686208425
 0.9950555552947858 -0.046485539859263285 0.004146272305945524 0.01913995398396437 -0.0008254496485058209 -0.006191864002254193 0.0009650290174230738 0.009892979798984456
 0.0009484030561555358 0.009895022351464155 -0.0008254496485058209 -0.006191864002254193 0.004148524627993222 0.01913890202270815 0.9950555260700646 -0.04648646141231612
 -0.0008250521652096025 -0.0061918690686208425 0.0009650290174230738 0.009892979798984456 0.9950555260700646 -0.04648646141231612 0.004146493572894899 0.019139026724710847
0.07503126302626001 0.004484016547882832 0.02099004994636898 0.9946109631477508 -0.050795271730516636 0.0010881650674570205 0.010797278621094895 -0.0009445207305072232 -0.006759788704814851
 0.9946109631477508 -0.050795271730516636 0.004481009714263488 0.020990237792952983 -0.0009449921863566421 -0.006759778487853059 0.0011079618675104632 0.010794800947150062
 0.0010881650674570205 0.010797278621094895 -0.0009449921863566421 -0.006759778487853059 0.004483690347175741 0.020989087243170806 0.9946109285536637 -0.05079627779927057
 -0.0009445207305072232 -0.006759788704814851 0.0011079618675104632 0.010794800947150062 0.9946109285536637 -0.05079627779927057 0.0044812736004719265 0.020989226758840726
0.08128386827845 0.004837792214178977 0.02285664412415807 0.9941417126966522 -0.05511907459247271 0.0012381920028025164 0.011699458284596528 -0.0010727584517991765 -0.007327886006189859
 0.9941417126966522 -0.05511907459247271 0.004834263487941022 0.02285685551829316 -0.0010733099619989522 -0.00732786955300665 0.0012614387250971264 0.01169648789063377
 0.0012381920028025164 0.011699458284596528 -0.0010733099619989522 -0.00732786955300665 0.004837409888889504 0.022855606057491408 0.9941416722464262 -0.05512016540972757
 -0.0010727584517991765 -0.007327886006189859 0.0012614387250971264 0.01169648789063377 0.9941416722464262 -0.05512016540972757 0.004834573807634892 0.022855760814664255
0.08753647353064001 0.0052104453109478276 0.024739250178141766 0.9936474940120675 -0.05945677877610474 0.0013985700721513197 0.012601415695864633 -0.0012098543879960869 -0.007896009933662927
 0.9936474940120675 -0.05945677877610474 0.00520635273340547 0.024739486530330253 -0.0012104919854684165 -0.007895986088707533 0.0014255463091370725 0.012597891132714952
 0.0013985700721513197 0.012601415695864633 -0.0012104919854684165 -0.007895986088707533 0.0052100024518769725 0.02473813787724831 0.9936474472080561 -0.059457954597003426
 -0.0012098543879960869 -0.007896009933662927 0.0014255463091370725 0.012597891132714952 0.9936474472080561 -0.059457954597003426 0.005206713319036161 0.024738308267798235
0.09378907878283 0.005602292697859997 0.026637552194784034 0.9931279985302399 -0.06380819745029684 0.0015693830748782804 0.013503001266115517 -0.001355895028083334 -0.008464007034633871
 0.9931279985302399 -0.06380819745029684 0.005597594217758756 0.026637814962295964 -0.001356624696818158 -0.008463974572558229 0.001600368887875764 0.013498857190981541
 0.0015693830748782804 0.013503001266115517 -0.001356624696818158 -0.008463974572558229 0.005601784908527025 0.02663636687229274 0.9931279448623802 -0.06380945855540668
 -0.001355895028083334 -0.008464007034633871 0.001600368887875764 0.013498857190981541 0.9931279448623802 -0.06380945855540668 0.00559800892085884 0.026636553253026503
0.100041684035 0.006013648824104789 0.028551236778146496 0.9925829192675127 -0.06817312883466738 0.0017507122889486146 0.014404061650678248 -0.0015109642004073793 -0.009031721310350524
 0.9925829192675127 -0.06817312883466738 0.0060083022864151955 0.028551527467542828 -0.0015117918755164978 -0.009031678936108912 0.0017859881652152448 0.01439922878467515
 0.0017507122889486146 0.014404061650678248 -0.0015117918755164978 -0.009031678936108912 0.006013071722735133 0.028549979736506338 0.9925828582131394 -0.0681744755238982
 -0.0015109642004073793 -0.009031721310350524 0.0017859881652152448 0.01439922878467515 0.9925828582131394 -0.0681744755238982 0.006008774978299932 0.02855018243052747
0.1059090909091 0.006417683811052717 0.030360738643180958 0.9920478801312169 -0.07228125221610647 0.0019305049958280953 0.015248993838998163 -0.0016647637795952415 -0.009564062442940554
 0.9920478801312169 -0.07228125221610647 0.006411690697360554 0.03036105695099899 -0.0016656887774961094 -0.009564009527378835 0.001970062080752707 0.015243448064423843
 0.0019305049958280953 0.015248993838998163 -0.0016656887774961094 -0.009564009527378835 0.00641703769686041 0.030359415560985974 0.9920478116579177 -0.0722826795116988
 -0.0016647637795952415 -0.009564062442940554 0.001970062080752707 0.015243448064423843 0.9920478116579177 -0.0722826795116988 0.006412221345253141 0.03035963382856075
0.1062942892872 0.0064448256302056025 0.030479991380238818 0.9920119510225275 -0.07255135784577728 0.0019426363619214476 0.015304439899008366 -0.0016751429794178404 -0.00959899412638896
 0.9920119510225275 -0.07255135784577728 0.00643878876374487 0.03048031155033489 -0.0016760745469300384 -0.009598940475368465 0.0019824831688681865 0.015298844985301298
 0.0019426363619214476 0.015304439899008366 -0.0016760745469300384 -0.009598940475368465 0.00644417485111391 0.030478664006786935 0.992011882045375 -0.07255279044381199
 -0.0016751429794178404 -0.00959899412638896 0.0019824831688681865 0.015298844985301298 0.992011882045375 -0.07255279044381199 0.0064393233368643145 0.030478883305137986
0.11254689453939999 0.006896132438171113 0.03242350302218626 0.9914147905700664 -0.07694265736009635 0.0021452312028705594 0.016203975579750094 -0.0018485095904235969 -0.010165664154559894
 0.9914147905700664 -0.07694265736009635 0.0068893628434717556 0.032423854287435154 -0.0018495508870551888 -0.010165597792728832 0.0021899301397791037 0.016197541342291934
 0.0021452312028705594 0.016203975579750094 -0.0018495508870551888 -0.010165597792728832 0.00689540363235444 0.03242210679281136 0.9914147131188198 -0.07694417621309844
 -0.0018485095904235969 -0.010165664154559894 0.0021899301397791037 0.016197541342291934 0.9914147131188198 -0.07694417621309844 0.0068899632116250446 0.03242234295665518
0.11879949979160001 0.00736787583034919 0.03438145729825029 0.9907911368470256 -0.08134678920158739 0.0023585698754734893 0.017102504888770173 -0.0020311393124477456 -0.010731567338508595
 0.9907911368470256 -0.08134678920158739 0.0073603309674228935 0.03438184133264155 -0.002032296125374724 -0.010731486762537728 0.0024084024231112978 0.01709514999179381
 0.0023585698754734893 0.017102504888770173 -0.002032296125374724 -0.010731486762537728 0.007367064667332814 0.03437999377625866 0.9907910503548453 -0.08134839467870955
 -0.0020311393124477456 -0.010731567338508595 0.0024084024231112978 0.01709514999179381 0.9907910503548453 -0.08134839467870955 0.007361001067026113 0.03438024703944221
0.1250521050438 0.007860359522022688 0.03635353760189788 0.9901406911349574 -0.0857635049151115 0.0025827224916026574 0.017999860744199545 -0.0022231043802788423 -0.011296536878949718
 0.9901406911349574 -0.0857635049151115 0.007851996698158658 0.03635395614320437 -0.002224382446770106 -0.011296440516400113 0.0026379703598505455 0.01799149975242412
 0.0025827224916026574 0.017999860744199545 -0.002224382446770106 -0.011296440516400113 0.007859461691314478 0.03635200843984503 0.9901405950183384 -0.08576519740683881
 -0.0022231043802788423 -0.011296536878949718 0.0026379703598505455 0.01799149975242412 0.9901405950183384 -0.08576519740683881 0.007852740489122387 0.036352279011966276
0.131304710296 0.008373884228264543 0.038339424503867 0.9894631572392452 -0.09019254639584084 0.0028177561058680663 0.018895872875372515 -0.0024244738853635237 -0.011860403232014455
 0.9894631572392452 -0.09019254639584084 0.00836466058575632 0.03833987935843495 -0.0024258788924766224 -0.01186028944151779 0.0028787011792652806 0.018886416214950824
 0.0028177561058680663 0.018895872875372515 -0.0024258788924766224 -0.01186028944151779 0.008372895440735564 0.03833783144286754 0.9894630508970668 -0.09019432631495557
 -0.0024244738853635237 -0.011860403232014455 0.0028787011792652806 0.018886416214950824 0.9894630508970668 -0.09019432631495557 0.008365482052107026 0.038338119512755515
0.1375573155481 0.008793077605480907 0.04007860876713345 0.9888739617222061 -0.09437332571410248 0.0030344292362511605 0.019764115773326273 -0.0026059381046846476 -0.01239681559677109
 0.9888739617222061 -0.09437332571410248 0.008782947926371135 0.040079094632589414 -0.0026074785882844406 -0.012396684213264668 0.00310120482950722 0.019753575184829678
 0.0030344292362511605 0.019764115773326273 -0.0026074785882844406 -0.012396684213264668 0.008791994206339554 0.04007695326115399 0.988873844676684 -0.09437519331467886
 -0.0026059381046846476 -0.01239681559677109 0.00310120482950722 0.019753575184829678 0.988873844676684 -0.09437519331467886 0.008783850199021993 0.04007725225306427
0.1438099208003 0.00922707351939862 0.04180821964055575 0.9882639352809044 -0.09854311957464534 0.0032598468221421346 0.02062873168086355 -0.002794661920684573 -0.012929858036125
 0.9882639352809044 -0.09854311957464534 0.00921599438493113 0.04180873810454731 -0.002796344008264089 -0.012929707439540073 0.003332708245160995 0.02061702515331131
 0.0032598468221421346 0.02062873168086355 -0.002796344008264089 -0.012929707439540073 0.009225891363171606 0.04180650347988945 0.9882638069308084 -0.0985450752633568
 -0.002794661920684573 -0.012929858036125 0.003332708245160995 0.02061702515331131 0.9882638069308084 -0.0985450752633568 0.009216981330713546 0.0418068133538239
0.1500625260525 0.009675713808970995 0.043528100844408016 0.9876332405489894 -0.10270181291143354 0.003493928199093783 0.021489628427155703 -0.0029905659098071165 -0.013459441501247824
 0.9876332405489894 -0.10270181291143354 0.009663641636133143 0.04352865362389124 -0.0029923957148031742 -0.013459270006497322 0.0035731292141645494 0.02147667095038651
 0.003493928199093783 0.021489628427155703 -0.0029923957148031742 -0.013459270006497322 0.0096744287775666 0.04352632589221187 0.9876331002781644 -0.10270385710865573
 -0.0029905659098071165 -0.013459441501247824 0.0035731292141645494 0.02147667095038651 0.9876331002781644 -0.10270385710865573 0.009664717135946304 0.04352664667102114
0.15631513130469998 0.010138839118929108 0.04523810078019863 0.9869820410686007 -0.10684929130953029 0.003736591716610258 0.02234671547905451 -0.0031935696330590117 -0.013985478886131244
