! Created with skrf 1.8.0 (http://scikit-rf.org).
# GHz S RI R 50.0 
!freq ReS11 ImS11 ReS12 ImS12 ReS13 ImS13
! ReS14 ImS14
! ReS21 ImS21 ReS22 ImS22 ReS23 ImS23
! ReS24 ImS24
! ReS31 ImS31 ReS32 ImS32 ReS33 ImS33
! ReS34 ImS34
! ReS41 ImS41 ReS42 ImS42 ReS43 ImS43
! ReS44 ImS44
!
0.0 0.001535537713327 0.0 0.9984644622733 0.0 5.950595719988e-05 0.0 -5.950595727782e-05 7.287378011048142e-21
 0.9984644622733 0.0 0.001535537713334 0.0 -5.950595727793e-05 7.287378011061613e-21 5.950595720047e-05 0.0
 5.950595719988e-05 0.0 -5.950595727793e-05 7.287378011061613e-21 0.001535537719991 0.0 0.99846446228 0.0
 -5.950595727782e-05 7.287378011048142e-21 5.950595720047e-05 0.0 0.99846446228 0.0 0.001535537719994 0.0
0.005 0.0016521590002346893 0.0012508247201306448 0.9983169140567874 -0.003216847620249806 8.41530702797165e-05 0.0006882596838194374 -8.156558193109203e-05 -0.00042631301184220234
 0.9983169140567874 -0.003216847620249806 0.001652153795683993 0.0012508277403026698 -8.15633990500736e-05 -0.00042631130294547173 8.418622343944942e-05 0.0006882469479963521
 8.41530702797165e-05 0.0006882596838194374 -8.15633990500736e-05 -0.00042631130294547173 0.001652159923320745 0.0012507568806909648 0.9983169137051141 -0.003216914675580198
 -8.156558193109203e-05 -0.00042631301184220234 8.418622343944942e-05 0.0006882469479963521 0.9983169137051141 -0.003216914675580198 0.001652152169877537 0.001250761467442736
0.006252605252188 0.001682741617756752 0.0015684769974110774 0.9982779775727513 -0.0040218494520132915 9.118504546741388e-05 0.0008606436753768431 -8.779646285762426e-05 -0.0005334501399508594
 0.9982779775727513 -0.0040218494520132915 0.001682733482625526 0.0015684808742912363 -8.779306636061524e-05 -0.0005334480321880197 9.123684290026215e-05 0.0008606271564439006
 9.118504546741388e-05 0.0008606436753768431 -8.779306636061524e-05 -0.0005334480321880197 0.0016827431250835889 0.0015683921935653493 0.9982779770870599 -0.004021933270460947
 -8.779646285762426e-05 -0.0005334501399508594 9.123684290026215e-05 0.0008606271564439006 0.9982779770870599 -0.004021933270460947 0.001682731004748199 0.0015683980381281065
0.01250521050438 0.0018437139715602802 0.003170015315244294 0.99807168300133 -0.00804453595280163 0.00013146149451132605 0.001721555101367391 -0.00012316376239480945 -0.0010695197923698916
 0.99807168300133 -0.00804453595280163 0.0018436814949202944 0.0031700240887886726 -0.00012315037997585637 -0.0010695158872741576 0.00013166801041985523 0.001721515588910507
 0.00013146149451132605 0.001721555101367391 -0.00012315037997585637 -0.0010695158872741576 0.0018437205646869874 0.003169845893470015 0.9980716816302883 -0.008044703336666587
 -0.00012316376239480945 -0.0010695197923698916 0.00013166801041985523 0.001721515588910507 0.9980716816302883 -0.008044703336666587 0.0018436721628749676 0.0031698587192722587
0.01875781575657 0.0020188060322912536 0.004794496937406839 0.9978453223251735 -0.01207785593512489 0.00018042867315414972 0.0025833481165865205 -0.00016571745219880183 -0.001607392393177848
 0.9978453223251735 -0.01207785593512489 0.002018733069177918 0.004794511673550455 -0.00016568761279679378 -0.0016073870596500386 0.00018089249266990535 0.0025832778519536853
 0.00018042867315414972 0.0025833481165865205 -0.00016568761279679378 -0.0016073870596500386 0.0020188212832760355 0.004794242895893536 0.9978453196690035 -0.012078106776369725
 -0.00016571745219880183 -0.001607392393177848 0.00018089249266990535 0.0025832778519536853 0.9978453196690035 -0.012078106776369725 0.0020187125119983463 0.004794263954685153
0.02501042100875 0.0022083586868039845 0.006439635940749268 0.9975986292290394 -0.016123763144506018 0.00023818109360678415 0.0034460677658341575 -0.00021556340945164262 -0.002146814158977204
 0.9975986292290394 -0.016123763144506018 0.002208229134433072 0.006439657748559441 -0.0002155107204589054 -0.002146807831008813 0.00023900477989488556 0.003445957757776216
 0.00023818109360678415 0.0034460677658341575 -0.0002155107204589054 -0.002146807831008813 0.002208386169476954 0.006439297203968448 0.9975986248909094 -0.016124097368030558
 -0.00021556340945164262 -0.002146814158977204 0.00023900477989488556 0.003445957757776216 0.9975986248909094 -0.016124097368030558 0.0022081929846029234 0.006439327855974616
0.03126302626094 0.002412698697724343 0.008104254854195275 0.9973313238169069 -0.020183092248860376 0.0003048137038428894 0.004309675841753117 -0.0002728044325176061 -0.002687608595691889
 0.9973313238169069 -0.020183092248860376 0.002412496487823418 0.00810428488497526 -0.00027272256641638004 -0.0026876017731703628 0.00030609989296582986 0.004309515861605404
 0.0003048137038428894 0.004309675841753117 -0.00027272256641638004 -0.0026876017731703628 0.002412741983926145 0.008103831297417045 0.997331317397755 -0.020183509787969126
 -0.0002728044325176061 -0.002687608595691889 0.00030609989296582986 0.004309515861605404 0.997331317397755 -0.020183509787969126 0.0024124403741048635 0.008103873010755951
0.037515631513130004 0.0026321457259702624 0.009787585127066878 0.9970431198626738 -0.024256258309550336 0.0003804209663713099 0.00517410133569193 -0.00033754102454011106 -0.0032296260561252756
 0.9970431198626738 -0.024256258309550336 0.002631854818879132 0.009787624573910782 -0.0003374237119695822 -0.0032296193050380547 0.0003822724079608935 0.00517387990681358
 0.0003804209663713099 0.00517410133569193 -0.0003374237119695822 -0.0032296193050380547 0.0026322083920341257 0.009787076577558033 0.9970431109673834 -0.024256759104528527
 -0.00033754102454011106 -0.0032296260561252756 0.0003822724079608935 0.00517387990681358 0.9970431109673834 -0.024256759104528527 0.0026317743720026933 0.009787130928568297
0.043768236765320004 0.0028670150439370897 0.011489054231897484 0.9967337277519182 -0.028343469609399177 0.00046509642343114054 0.006039255779527712 -0.0004098716754976735 -0.0037727284027029213
 0.9967337277519182 -0.028343469609399177 0.0028666194243781103 0.011489104329423813 -0.000409712701226849 -0.0037727223552198874 0.00046761599798384964 0.006038960165005142
 0.00046509642343114054 0.006039255779527712 -0.000409712701226849 -0.0037727223552198874 0.0028671006676868854 0.011488460471948752 0.9967337159862231 -0.02834405360417501
 -0.0004098716754976735 -0.0037727284027029213 0.00046761599798384964 0.006038960165005142 0.9967337159862231 -0.02834405360417501 0.002866510272989237 0.011488529145754444
0.050020842017509996 0.0031176187964787393 0.01320819769360634 0.9964028559739466 -0.03244481555269108 0.0005589324346683885 0.006905039586066273 -0.0004898929650113065 -0.004316782672730945
 0.9964028559739466 -0.03244481555269108 0.003117102469838278 0.013208259717613698 -0.0004896861652896309 -0.004316778027202879 0.0005622231587215498 0.006904655775768818
 0.0005589324346683885 0.006905039586066273 -0.0004896861652896309 -0.004316778027202879 0.0031177309575107794 0.013207518461062055 0.9964028409445517 -0.03244548269395687
 -0.0004898929650113065 -0.004316782672730945 0.0005622231587215498 0.006904655775768818 0.9964028409445517 -0.03244548269395687 0.0031169602406820184 0.013207603252197414
0.055454545454549996 0.0033484198900259918 0.014716227682274199 0.9960976470780969 -0.03602050053463449 0.0006479889667083388 0.007657859671701053 -0.0005657532196993467 -0.00479025372192229
 0.9960976470780969 -0.03602050053463449 0.0033477856890498704 0.01471630113880642 -0.0005654998911128875 -0.004790250913272401 0.0006520336090594083 0.007657386839902806
 0.0006479889667083388 0.007657859671701053 -0.0005654998911128875 -0.004790250913272401 0.0033485580208725443 0.014715473930275452 0.9960976288938008 -0.03602123988510143
 -0.0005657532196993467 -0.00479025372192229 0.0006520336090594083 0.007657386839902806 0.9960976288938008 -0.03602123988510143 0.0033476111611001266 0.014715574270941513
0.056273447269699996 0.0033842666433276008 0.014944615896982927 0.9960502119993767 -0.03656030978807992 0.0006620199907333183 0.007771345161502742 -0.0005776995852154929 -0.004861657974379738
 0.9960502119993767 -0.03656030978807992 0.003383613632120567 0.014944691164373443 -0.0005774388459804505 -0.004861655495321618 0.0006661850145505399 0.0077708578589057815
 0.0006620199907333183 0.007771345161502742 -0.0005774388459804505 -0.004861655495321618 0.0033844089226414955 0.014943850891621459 0.9960501933139242 -0.03656106001859559
 -0.0005776995852154929 -0.004861657974379738 0.0006661850145505399 0.0077708578589057815 0.9960501933139242 -0.03656106001859559 0.0033834339499001203 0.01494395370499169
0.06252605252188 0.0036672661046811945 0.016697950358101687 0.9956755028633762 -0.0406899138707191 0.0007744485640666048 0.008638058617565853 -0.0006733843234945 -0.005407223786627118
 0.9956755028633762 -0.0406899138707191 0.0036664604449822063 0.016698040226806373 -0.000673063579148402 -0.005407224304688672 0.0007795911641917406 0.008637451226522399
 0.0007744485640666048 0.008638058617565853 -0.000673063579148402 -0.005407224304688672 0.0036674420846828097 0.0166970992367027 0.9956754801310029 -0.04069074713385188
 -0.0006733843234945 -0.005407223786627118 0.0007795911641917406 0.008637451226522399 0.9956754801310029 -0.04069074713385188 0.003666238932610038 0.01669722208843517
0.06877865777407 0.003966922740229954 0.01846786956495902 0.9952784355877553 -0.04483355135861407 0.0008963059809817182 0.009505060793450364 -0.0007770380212811275 -0.005953348953520602
 0.9952784355877553 -0.04483355135861407 0.003965948478944014 0.018467975433974767 -0.0007766512538907996 -0.005953353365435615 0.0009025295494496875 0.009504315405071542
 0.0008963059809817182 0.009505060793450364 -0.0007766512538907996 -0.005953353365435615 0.003967136004283308 0.018466931940238 0.9952784084184354 -0.04483446759903973
 -0.0007770380212811275 -0.005953348953520602 0.0009025295494496875 0.009504315405071542 0.9952784084184354 -0.04483446759903973 0.003965680757084764 0.018467076958816192
0.07503126302626001 0.004283540231774714 0.02025406000397072 0.9948587175085737 -0.048991116727799044 0.001027678304992606 0.010372227912909527 -0.0008887495196623975 -0.006499901047734655
 0.9948587175085737 -0.048991116727799044 0.004282381423038993 0.02025418331354019 -0.0008882907583175363 -0.0064999103162814665 0.0010350863358772984 0.010371325292596172
 0.001027678304992606 0.010372227912909527 -0.0008882907583175363 -0.0064999103162814665 0.004283794363867607 0.02025303544969183 0.9948586855135574 -0.04899211588599518
 -0.0008887495196623975 -0.006499901047734655 0.0010350863358772984 0.010371325292596172 0.9948586855135574 -0.04899211588599518 0.0042820631108431905 0.0202532048771476
0.08128386827845 0.004617420403695258 0.022056220195978526 0.9944160565468172 -0.05316248128257442 0.0011686497289519465 0.01123943202086157 -0.0010086055942473175 -0.007046745959332423
 0.9944160565468172 -0.05316248128257442 0.0046160611060572015 0.022056362427849734 -0.001008068914760878 -0.00704676111326539 0.0011773458027464977 0.011238351595518786
 0.0011686497289519465 0.01123943202086157 -0.001008068914760878 -0.00704676111326539 0.004617718987664762 0.02205510824099279 0.9944160193382924 -0.0531635633004916
 -0.0010086055942473175 -0.007046745959332423 0.0011773458027464977 0.011238351595518786 0.9944160193382924 -0.0531635633004916 0.004615687820280128 0.022055304434169216
0.08753647353064001 0.004968863203744239 0.02387405656685563 0.9939501614419316 -0.057347497236558596 0.00131930247066846 0.012106541294959344 -0.0011366908849435062 -0.007593747614430858
 0.9939501614419316 -0.057347497236558596 0.004967287476816509 0.02387421924471823 -0.0011360704095722694 -0.007593769748430976 0.0013293902370679405 0.012105261140531814
 0.00131930247066846 0.012106541294959344 -0.0011360704095722694 -0.007593769748430976 0.004969209823673362 0.02387285669949564 0.9939501186338782 -0.05734866205277053
 -0.0011366908849435062 -0.007593747614430858 0.0013293902370679405 0.012105261140531814 0.9939501186338782 -0.05734866205277053 0.00496685483334041 0.02387308213150798
0.09378907878283 0.005338166655330851 0.02570728050185212 0.9934607419610019 -0.06154600061526178 0.0014797166728820167 0.012973420271443516 -0.0012730878198521976 -0.008140767784699257
 0.9934607419610019 -0.06154600061526178 0.005336358556924367 0.02570746519177727 -0.0012723777172355415 -0.008140798059296656 0.001491299832143589 0.012971917100661156
 0.0014797166728820167 0.012973420271443516 -0.0012723777172355415 -0.008140798059296656 0.005338564894170883 0.025705992169289857 0.9934606931680205 -0.061547248165386946
 -0.0012730878198521976 -0.008140767784699257 0.001491299832143589 0.012971917100661156 0.9934606931680205 -0.061547248165386946 0.005335862169731261 0.025706249431011744
0.100041684035 0.0057256267894034395 0.027555606189279637 0.9929475090902623 -0.06575781337519464 0.001649970304411803 0.013839930021297246 -0.0014178765367674055 -0.008687665951756544
 0.9929475090902623 -0.06575781337519464 0.005723570372294289 0.02755581450040875 -0.0014170710218929215 -0.008687705593259876 0.0016631525875448988 0.01383817917177565
 0.001649970304411803 0.013839930021297246 -0.0014170710218929215 -0.008687705593259876 0.005726080229070049 0.02755422879314488 0.9929474539286706 -0.06575914359583736
 -0.0014178765367674055 -0.008687665951756544 0.0016631525875448988 0.01383817917177565 0.9929474539286706 -0.06575914359583736 0.0057230058545371205 0.027554520594862204
0.1059090909091 0.00610599221496341 0.029303545123769984 0.9924439802384694 -0.06972208811659235 0.0018187515940241907 0.014652595029947132 -0.0015614469289517245 -0.009200633655054916
 0.9924439802384694 -0.06972208811659235 0.006103688266060694 0.029303777103409357 -0.001560546659765533 -0.009200683260238521 0.001833528836373643 0.01465058809493205
 0.0018187515940241907 0.014652595029947132 -0.001560546659765533 -0.009200683260238521 0.006106500710662405 0.02930208356984048 0.9924439187523906 -0.06972349585398466
 -0.0015614469289517245 -0.009200633655054916 0.001833528836373643 0.01465058809493205 0.9924439187523906 -0.06972349585398466 0.006103055824093362 0.029302410356621234
0.1062942892872 0.0061315375618338965 0.0294187489926909 0.9924101752160253 -0.06998274500042977 0.0018301390635993764 0.014705928285634563 -0.00157113480132548 -0.009234299217717422
 0.9924101752160253 -0.06998274500042977 0.006129216870759807 0.02941898257796296 -0.0015702281356373311 -0.009234349518123687 0.0018450242112900907 0.014703903708320594
 0.0018301390635993764 0.014705928285634563 -0.0015702281356373311 -0.009234349518123687 0.006132049782329188 0.029417281893619883 0.9924101133029886 -0.0699841578242862
 -0.00157113480132548 -0.009234299217717422 0.0018450242112900907 0.014703903708320594 0.9924101133029886 -0.0699841578242862 0.0061285798343929535 0.029417611066841213
0.11254689453939999 0.006556190758941562 0.031296424223840186 0.9918484542956566 -0.07422059370432234 0.0020202962822044837 0.015571269590517458 -0.0017329379235960843 -0.00978052224177829
 0.9918484542956566 -0.07422059370432234 0.006553589827243277 0.03129668478092176 -0.0017319244150976437 -0.00978058455868729 0.002036988023043825 0.015568943838466269
 0.0020202962822044837 0.015571269590517458 -0.0017319244150976437 -0.00978058455868729 0.006556765338121461 0.03129486673785609 0.9918483852501138 -0.07422208906354816
 -0.0017329379235960843 -0.00978052224177829 0.002036988023043825 0.015568943838466269 0.9918483852501138 -0.07422208906354816 0.0065528758838981835 0.0312952362371966
0.11879949979160001 0.006999875894100419 0.033188346172080746 0.9912620620243259 -0.07847114738148651 0.002220512830416974 0.016435805343010323 -0.0019033586729435318 -0.010326187201199016
 0.9912620620243259 -0.07847114738148651 0.006996978741020649 0.03318863544433386 -0.0019022326764265175 -0.01032626295770702 0.002239114858107359 0.016433149560569505
 0.002220512830416974 0.016435805343010323 -0.0019022326764265175 -0.01032626295770702 0.007000516407217151 0.033186697571538706 0.9912619854667136 -0.07847272520635991
 -0.0019033586729435318 -0.010326187201199016 0.002239114858107359 0.016433149560569505 0.9912619854667136 -0.07847272520635991 0.0069961835020700205 0.03318711047669432
0.1250521050438 0.007462880098063257 0.03509422735213183 0.9906507159966569 -0.0827341843476587 0.002430857022374339 0.01729938391691468 -0.002082467191744265 -0.010871143768295824
 0.9906507159966569 -0.0827341843476587 0.007459670725302717 0.03509454712985754 -0.0020812231090529165 -0.010871234452892696 0.0024514729721917964 0.017296367829308882
 0.002430857022374339 0.01729938391691468 -0.0020812231090529165 -0.010871234452892696 0.007463590116842204 0.03509248686606269 0.990650631548305 -0.08273584456594088
 -0.002082467191744265 -0.010871143768295824 0.0024514729721917964 0.017296367829308882 0.990650631548305 -0.08273584456594088 0.007458789802064357 0.0350929463840244
0.131304710296 0.00794548800223734 0.03701377789947507 0.9900141358641719 -0.08700947393879421 0.0026513945223054537 0.018161850728139233 -0.0022703309081798058 -0.01141523910364447
 0.9900141358641719 -0.08700947393879421 0.00794195039090974 0.03701413002118286 -0.002268963188405923 -0.011415346270101597 0.0026741279467720484 0.018158442631485253
 0.0026513945223054537 0.018161850728139233 -0.002268963188405923 -0.011415346270101597 0.007946271094539027 0.037011944712248016 0.9900140431484703 -0.08701121647679966
 -0.0022703309081798058 -0.01141523910364447 0.0026741279467720484 0.018158442631485253 0.9900140431484703 -0.08701121647679966 0.007940979395251934 0.037012454179576514
0.1375573155481 0.00833763052702305 0.03869513614713946 0.9894624391819511 -0.09104508597130705 0.0028543634763959448 0.018997507407681163 -0.0024391713485841697 -0.011932814749213025
 0.9894624391819511 -0.09104508597130705 0.008333746489472656 0.03869551226817809 -0.0024376716798193694 -0.011932938514438197 0.002879269943735538 0.018993712236789938
 0.0028543634763959448 0.018997507407681163 -0.0024376716798193694 -0.011932938514438197 0.008338489535344936 0.038693209562355245 0.9894623378291264 -0.0910469107309793
 -0.0024391713485841697 -0.011932814749213025 0.002879269943735538 0.018993712236789938 0.9894623378291264 -0.0910469107309793 0.00833268174094973 0.038693761829940415
0.1438099208003 0.008743568680204403 0.04036753956886345 0.9888913336732172 -0.0950703951420949 0.003065533674775738 0.01982982317641618 -0.002614775441068663 -0.012447312520440885
 0.9888913336732172 -0.0950703951420949 0.00873932182172239 0.04036794081151165 -0.0026131378432176678 -0.012447454414194856 0.0030927079488158454 0.019825611905546915
 0.003065533674775738 0.01982982317641618 -0.0026131378432176678 -0.012447454414194856 0.008744507034861659 0.0403655187496522 0.9888912233108943 -0.09507230204116343
 -0.002614775441068663 -0.012447312520440885 0.0030927079488158454 0.019825611905546915 0.9888912233108943 -0.09507230204116343 0.008738159058587134 0.04036611644610286
0.1500625260525 0.009163158604934172 0.04203084602408179 0.988300967400542 -0.0990852994033291 0.003284832239286079 0.020658714035553728 -0.002797071870328562 -0.012958652015326531
 0.988300967400542 -0.0990852994033291 0.009158532494419164 0.0420312735810312 -0.0027952903754623047 -0.012958813629008656 0.0033143684486171255 0.02065405659336142
 0.003284832239286079 0.020658714035553728 -0.0027952903754623047 -0.012958813629008656 0.009164179723818095 0.042028730101153156 0.98830084765829 -0.09908728835494014
 -0.002797071870328562 -0.012958652015326531 0.0033143684486171255 0.02065405659336142 0.98830084765829 -0.09908728835494014 0.009157267463254511 0.04202937598522272
0.15631513130469998 0.009596255406777533 0.043684917660917325 0.9876914891996399 -0.10308969711127977 0.0035121854266512206 0.021484097414990026 -0.0029859884341956783 -0.013466754544399261
 0.9876914891996399 -0.10308969711127977 0.009591233575870908 0.04368537279717013 -0.0029840570866798244 -0.013466937530777927 0.0035441770532614824 0.021478962697350203
