! Created with skrf 1.8.0 (http://scikit-rf.org).
# GHz S RI R 50.0 
!freq ReS11 ImS11 ReS12 ImS12 ReS13 ImS13
! ReS14 ImS14
! ReS21 ImS21 ReS22 ImS22 ReS23 ImS23
! ReS24 ImS24
! ReS31 ImS31 ReS32 ImS32 ReS33 ImS33
! ReS34 ImS34
! ReS41 ImS41 ReS42 ImS42 ReS43 ImS43
! ReS44 ImS44
!
0.0 0.001618372957654 0.0 0.9983816270392 0.0 6.291929683997e-05 0.0 -6.291929586282e-05 7.705391428300781e-21
 0.9983816270392 0.0 0.001618372957652 0.0 -6.291929586263e-05 7.705391428277512e-21 6.291929683947e-05 0.0
 6.291929683997e-05 0.0 -6.291929586263e-05 7.705391428277512e-21 0.001618372959082 0.0 0.9983816270406 0.0
 -6.291929586282e-05 7.705391428300781e-21 6.291929683947e-05 0.0 0.9983816270406 0.0 0.001618372959089 0.0
0.005 0.0017415404202720227 0.0013168933447563337 0.9982257338453607 -0.0033901696930467517 8.939460389645843e-05 0.00073479212043174 -8.650181785016307e-05 -0.0004539242041187654
 0.9982257338453607 -0.0033901696930467517 0.0017415581210254787 0.0013168830368871496 -8.650332139259775e-05 -0.00045392540625499047 8.928232663315611e-05 0.0007348349439255063
 8.939460389645843e-05 0.00073479212043174 -8.650332139259775e-05 -0.00045392540625499047 0.0017415390667760852 0.0013168269181518372 0.9982257334863102 -0.0033902367526761844
 -8.650181785016307e-05 -0.0004539242041187654 8.928232663315611e-05 0.0007348349439255063 0.9982257334863102 -0.0033902367526761844 0.0017415587650006835 0.0013168153528962828
0.006252605252188 0.0017739117961079163 0.0016513191932506913 0.9981844861272805 -0.004238533076620023 9.701459391481623e-05 0.0009188211183397199 -9.320023805910875e-05 -0.0005679971876546479
 0.9981844861272805 -0.004238533076620023 0.0017739394651481524 0.0016513060796741713 -9.320257732419041e-05 -0.0005679986707374486 9.683917244043346e-05 0.0009188767266132672
 9.701459391481623e-05 0.0009188211183397199 -9.320257732419041e-05 -0.0005679986707374486 0.001773909744727929 0.0016512361819723638 0.9981844856305885 -0.004238616888906084
 -9.320023805910875e-05 -0.0005679971876546479 9.683917244043346e-05 0.0009188767266132672 0.9981844856305885 -0.004238616888906084 0.0017739405370294445 0.001651221485513605
0.01250521050438 0.001944719489030258 0.0033373786492385156 0.9979653215431384 -0.00847782756970327 0.00014100867325285527 0.001837832854784252 -0.00013142193746793087 -0.0011387384236059808
 0.9979653215431384 -0.00847782756970327 0.0019448299664545587 0.0033373501298310133 -0.00013143115168206602 -0.00113874117492954 0.00014030916437879432 0.0018379665753619674
 0.00014100867325285527 0.001837832854784252 -0.00013143115168206602 -0.00113874117492954 0.0019447118532858968 0.0033372129682737455 0.9979653201183888 -0.008477994987797837
 -0.00013142193746793087 -0.0011387384236059808 0.00014030916437879432 0.0018379665753619674 0.9979653201183888 -0.008477994987797837 0.0019448348159058501 0.0033371811510475957
0.01875781575657 0.002131184629267409 0.005047495678154198 0.9977238500010851 -0.012728190795876582 0.00019500435139898853 0.002757683210177832 -0.00017770655292012505 -0.0017113333754772422
 0.9977238500010851 -0.012728190795876582 0.002131432866975145 0.005047449332257071 -0.00017772709445617143 -0.0017113371386707208 0.00019343305855553321 0.002757922121822703
 0.00019500435139898853 0.002757683210177832 -0.00017772709445617143 -0.0017113371386707208 0.0021311678810818626 0.005047247634207196 0.9977238472130452 -0.01272844174708935
 -0.00017770655292012505 -0.0017113333754772422 0.00019343305855553321 0.002757922121822703 0.9977238472130452 -0.01272844174708935 0.002131444200856468 0.005047196084121382
0.02501042100875 0.0023336833762737704 0.006779242385977879 0.9974597766776564 -0.016991662895771885 0.0002591063658046751 0.003678406760171453 -0.00023217169337876636 -0.0022854981816276118
 0.9974597766776564 -0.016991662895771885 0.0023341242105256394 0.006779175682532556 -0.00023220795924324013 -0.0022855026542348547 0.00025631552082102966 0.00367878236278745
 0.0002591063658046751 0.003678406760171453 -0.00023220795924324013 -0.0022855026542348547 0.002333653997486992 0.006778912315030582 0.9974597720942109 -0.016991997376116185
 -0.00023217169337876636 -0.0022854981816276118 0.00025631552082102966 0.00367878236278745 0.9974597720942109 -0.016991997376116185 0.0023341447489850014 0.006778838252415751
0.03126302626094 0.002552576274539442 0.008531358639625541 0.9971727923080997 -0.021269103850643373 0.00033341994850752594 0.004599948035038266 -0.00029493128836687894 -0.0028610320117391005
 0.9971727923080997 -0.021269103850643373 0.002553264457205977 0.008531268940973977 -0.00029498762950576265 -0.002861036844701892 0.0003290613962066539 0.004600496274251942
 0.00033341994850752594 0.004599948035038266 -0.00029498762950576265 -0.002861036844701892 0.002552530748035954 0.008530946940123714 0.9971727854906128 -0.021269521892117227
 -0.00029493128836687894 -0.0028610320117391005 0.0003290613962066539 0.004600496274251942 0.9971727854906128 -0.021269521892117227 0.002553296927616179 0.00853084742111069
0.037515631513130004 0.0027882158362581328 0.010303014715109558 0.9968625810428171 -0.025560930775181942 0.0004180496620691053 0.005522215892047023 -0.0003660964647242402 -0.00343776270043137
 0.9968625810428171 -0.025560930775181942 0.0027892060569596 0.010302899278959799 -0.00036617719088662083 -0.00343776749796031 0.0004117747242561844 0.005522977202161306
 0.0004180496620691053 0.005522215892047023 -0.00036617719088662083 -0.00343776749796031 0.002788150651324537 0.010302521843431313 0.9968625715505436 -0.025561432450824217
 -0.0003660964647242402 -0.00343776270043137 0.0004117747242561844 0.005522977202161306 0.9968625715505436 -0.025561432450824217 0.00278925319962449 0.01030239376136212
0.043768236765320004 0.003040949467693416 0.01209358688738386 0.9965288236522282 -0.029867342258486147 0.0005130988474320708 0.006445100066866633 -0.00044577585997825563 -0.0040155302069160145
 0.9965288236522282 -0.029867342258486147 0.0030422963713553986 0.0120934428680922 -0.0004458852425569707 -0.0040155345264908104 0.0005045582635269912 0.0064461194194681565
 0.0005130988474320708 0.006445100066866633 -0.0004458852425569707 -0.0040155345264908104 0.00304086111692505 0.012093013383806432 0.9965288110371625 -0.029867927657213227
 -0.00044577585997825563 -0.0040155302069160145 0.0005045582635269912 0.0064461194194681565 0.9965288110371625 -0.029867927657213227 0.0030423609368732045 0.01209285346952703
0.050020842017509996 0.0033111208185873575 0.013902564721337536 0.9961711991583907 -0.03418841100271826 0.0006186692958556485 0.007368478001164889 -0.0005340757269197151 -0.004594179802806623
 0.9961711991583907 -0.03418841100271826 0.003312879021550371 0.01390238917040952 -0.0005342180008079995 -0.004594183155196378 0.0006075132043392292 0.007369804955845185
 0.0006186692958556485 0.007368478001164889 -0.0005342180008079995 -0.004594183155196378 0.003311005801333193 0.013901911192885218 0.9961711829669139 -0.034189080246994075
 -0.0005340757269197151 -0.004594179802806623 0.0006075132043392292 0.007369804955845185 0.9961711829669139 -0.034189080246994075 0.003312963774229854 0.013901716014532694
0.055454545454549996 0.003560334051641183 0.015489223923784197 0.9958407797470987 -0.03795544967574911 0.0007190354822334692 0.00817122047510557 -0.0006178926089696495 -0.005097641535917585
 0.9958407797470987 -0.03795544967574911 0.003562494030045567 0.015489018496724776 -0.0006180668782437355 -0.005097643614245566 0.0007053218428904666 0.008172858595886309
 0.0007190354822334692 0.00817122047510557 -0.0006180668782437355 -0.005097643614245566 0.0035601930229975393 0.01548850140655553 0.995840760073959 -0.03795619189996115
 -0.0006178926089696495 -0.005097641535917585 0.0007053218428904666 0.008172858595886309 0.995840760073959 -0.03795619189996115 0.003562598581725707 0.015488272668626122
0.056273447269699996 0.0035990704674772893 0.015729505545779288 0.9957893858070542 -0.038524129280890114 0.0007348610106282467 0.008292218219295933 -0.0006310999539117045 -0.0051735587155557336
 0.9957893858070542 -0.038524129280890114 0.0036012945721300206 0.015729295412156077 -0.0006312793187454274 -0.005173560564877727 0.0007207389555545596 0.008293906975280017
 0.0007348610106282467 0.008292218219295933 -0.0006312793187454274 -0.005173560564877727 0.0035989252905680364 0.01572877267692403 0.9957893655788767 -0.03852488251674398
 -0.0006310999539117045 -0.0051735587155557336 0.0007207389555545596 0.008293906975280017 0.9957893655788767 -0.03852488251674398 0.0036014022904766263 0.015728538639154875
0.06252605252188 0.003905136281448976 0.0175740094451862 0.9953830617195512 -0.04287443388101218 0.0008617720220961069 0.009216182164007844 -0.0007369500342525728 -0.005753514318285769
 0.9953830617195512 -0.04287443388101218 0.003907880890163553 0.017573761574843822 -0.0007371706552379178 -0.0057535140820484925 0.0008443329755924261 0.009218291611952598
 0.0008617720220961069 0.009216182164007844 -0.0007371706552379178 -0.0057535140820484925 0.003904957459456643 0.017573197999706178 0.9953830369860025 -0.04287527127673227
 -0.0007369500342525728 -0.005753514318285769 0.0008443329755924261 0.009218291611952598 0.9953830369860025 -0.04287527127673227 0.003908014367041638 0.01757292134251256
0.06877865777407 0.004229653595138611 0.019435704328420147 0.9949519053677973 -0.04723922097859994 0.0009994982248400072 0.010140225317109338 -0.0008517250132731056 -0.006333893040350279
 0.9949519053677973 -0.04723922097859994 0.004232973324623513 0.01943541546362321 -0.0008519910218506773 -0.006333890089522547 0.0009783906216195442 0.0101428190906942
 0.0009994982248400072 0.010140225317109338 -0.0008519910218506773 -0.006333890089522547 0.004229437652208187 0.019434815144671175 0.9949518756511306 -0.047240142730088856
 -0.0008517250132731056 -0.006333893040350279 0.0009783906216195442 0.0101428190906942 0.9949518756511306 -0.047240142730088856 0.004233135368171437 0.019434491941633228
0.07503126302626001 0.004572955284121464 0.02131423649371534 0.9944955959479159 -0.051618355518636055 0.0011481332331254107 0.011064197908362348 -0.0009755214171086381 -0.006914539695678307
 0.9944955959479159 -0.051618355518636055 0.004576904778468414 0.021313903271789936 -0.000975836911272477 -0.006914533354753164 0.0011230050137040102 0.01106734443548999
 0.0011481332331254107 0.011064197908362348 -0.000975836911272477 -0.006914533354753164 0.004572698755452749 0.021313270487446943 0.9944955607608932 -0.05161936184707485
 -0.0009755214171086381 -0.006914539695678307 0.0011230050137040102 0.01106734443548999 0.9944955607608932 -0.05161936184707485 0.004577098213718336 0.021312896643607956
0.08128386827845 0.00493537177264171 0.02320926433367506 0.9940138136928879 -0.056011677464068516 0.0013077682451893727 0.011987945397719111 -0.0011084331717807192 -0.0074952970441217615
 0.9940138136928879 -0.056011677464068516 0.00494000571722187 0.02320888328527011 -0.0011088022164199409 -0.007495286591190553 0.001278266905839855 0.011991717951041824
 0.0013077682451893727 0.011987945397719111 -0.0011088022164199409 -0.007495286591190553 0.004935071205469682 0.023208222500958296 0.9940137725374172 -0.0560127686134866
 -0.0011084331717807192 -0.0074952970441217615 0.001278266905839855 0.011991717951041824 0.9940137725374172 -0.0560127686134866 0.004940233385908181 0.023207793750145544
0.08753647353064001 0.005317230995379829 0.025120453994701412 0.9935062401430056 -0.06041900609680545 0.001478491914114809 0.012911308819124973 -0.001250551514837759 -0.008076005497645932
 0.9935062401430056 -0.06041900609680545 0.005322604130110722 0.025120021541624765 -0.0012509781418417996 -0.008075990164466808 0.0014442645626343475 0.012915785565856748
 0.001478491914114809 0.012911308819124973 -0.0012509781418417996 -0.008075990164466808 0.005316882950604293 0.025119337410529092 0.9935061925090767 -0.06042018233581778
 -0.001250551514837759 -0.008076005497645932 0.0014442645626343475 0.012915785565856748 0.9935061925090767 -0.06042018233581778 0.005322868892101348 0.025118849312303446
0.09378907878283 0.0057188583295103654 0.027047476274694646 0.9929725583903826 -0.06484014308747527 0.001660390222911072 0.013834125034699732 -0.0014019649019842181 -0.00865650292287893
 0.9929725583903826 -0.06484014308747527 0.005725025462757825 0.027046988727132668 -0.001402453110385762 -0.008656481894952472 0.0016210836389781644 0.013839389085625193
 0.001660390222911072 0.013834125034699732 -0.001402453110385762 -0.008656481894952472 0.005718459383210165 0.027046286095272966 0.992972503755494 -0.06484140470742752
 -0.0014019649019842181 -0.00865650292287893 0.0016210836389781644 0.013839389085625193 0.992972503755494 -0.06484140470742752 0.0057253301963921385 0.027045734031293647
0.100041684035 0.006140576505167492 0.028990004362256447 0.9924124533053401 -0.0692748747313371 0.0018535463627017332 0.014756226931587254 -0.0015627589098723563 -0.009236624507859366
 0.9924124533053401 -0.0692748747313371 0.006147592526865177 0.02898945791567442 -0.0015633126657935421 -0.009236596924520668 0.0018088070624152415 0.014762366389010713
 0.0018535463627017332 0.014756226931587254 -0.0015633126657935421 -0.009236596924520668 0.006140123249712219 0.02898874182191281 0.9924123911331961 -0.06927622204968018
 -0.0015627589098723563 -0.009236624507859366 0.0018088070624152415 0.014762366389010713 0.9924123911331961 -0.06927622204968018 0.006147940129864704 0.028988120991801456
0.1059090909091 0.006554871752599964 0.0308266727869401 0.9918625433918092 -0.07344856182296791 0.0020451133373585043 0.015620719885568011 -0.0017222522205678984 -0.009780516020485104
 0.9918625433918092 -0.07344856182296791 0.006562734372843674 0.030826067504094976 -0.001722871063729584 -0.00978048146176459 0.001994954344214867 0.01562776543488876
 0.0020451133373585043 0.015620719885568011 -0.001722871063729584 -0.00978048146176459 0.006554364450990984 0.03082534354190885 0.9918624736460497 -0.07344998986614833
 -0.0017222522205678984 -0.009780516020485104 0.001994954344214867 0.01562776543488876 0.9918624736460497 -0.07344998986614833 0.006563124857641175 0.03082465364993652
0.1062942892872 0.006582705497507572 0.03094771212851585 0.991825611748717 -0.07372297363937802 0.0020580406130081817 0.015677443582876514 -0.00173301613615872 -0.00981620267167053
 0.991825611748717 -0.07372297363937802 0.006590625393148119 0.030947102859779616 -0.0017336393728085626 -0.009816167626167811 0.0020075149169150753 0.015684551587582047
 0.0020580406130081817 0.015677443582876514 -0.0017336393728085626 -0.009816167626167811 0.006582194543646918 0.030946378546036917 0.9918255414884513 -0.07372440699353384
 -0.00173301613615872 -0.00981620267167053 0.0020075149169150753 0.015684551587582047 0.9918255414884513 -0.07372440699353384 0.006591018783483427 0.030945683962722053
0.11254689453939999 0.007045562408996415 0.03292027283826404 0.9912117227764728 -0.0781842000179947 0.002273950223870142 0.01659760038088096 -0.0019128160972615611 -0.010395067008909808
 0.9912117227764728 -0.0781842000179947 0.007054441273106329 0.03291959670144652 -0.0019135127148535427 -0.010395023548501848 0.00221728432829503 0.016605775157994957
 0.002273950223870142 0.01659760038088096 -0.0019135127148535427 -0.010395023548501848 0.007044990387023203 0.032918869609519626 0.9912116438617191 -0.07818571977297961
 -0.0019128160972615611 -0.010395067008909808 0.00221728432829503 0.016605775157994957 0.9912116438617191 -0.07818571977297961 0.007054883389686728 0.032918096094071626
0.11879949979160001 0.007529461339861236 0.03490735814274781 0.9905704778364618 -0.08265830267546419 0.0025013492988022012 0.017516519151383685 -0.0021022351251113332 -0.010973044260470998
 0.9905704778364618 -0.08265830267546419 0.007539354389792163 0.034906610964233996 -0.0021030089906801308 -0.01097299138652983 0.0024381893500117937 0.017525864055014738
 0.0025013492988022012 0.017516519151383685 -0.0021030089906801308 -0.01097299138652983 0.007528824901382814 0.03490588674912204 0.990570389684179 -0.08265990921549353
 -0.0021022351251113332 -0.010973044260470998 0.0024381893500117937 0.017525864055014738 0.990570389684179 -0.08265990921549353 0.007539848193151431 0.0349050289250263
0.1250521050438 0.008034713252147694 0.03690863729173574 0.9899015709613013 -0.08714501981755969 0.0027403086793042096 0.01843401826127145 -0.0023013462621051415 -0.011549958298303164
 0.9899015709613013 -0.08714501981755969 0.008045675841914632 0.03690781476475168 -0.0023022012094531578 -0.011549894966394898 0.0026703008505137124 0.018444641817912173
 0.0027403086793042096 0.01843401826127145 -0.0023022012094531578 -0.011549894966394898 0.008034009071616301 0.036907099294096524 0.9899014729708168 -0.08714671355207673
 -0.0023013462621051415 -0.011549958298303164 0.0026703008505137124 0.018444641817912173 0.9899014729708168 -0.08714671355207673 0.008046224315009233 0.036906151580967717
0.131304710296 0.008561625826963928 0.03892377651448249 0.9892046989566953 -0.09164407968280286 0.0029908958300353737 0.019349912713088835 -0.0025102191558511486 -0.012125630130805051
 0.9892046989566953 -0.09164407968280286 0.008573713460927843 0.038922874193147564 -0.002511158985211722 -0.012125555250830651 0.002913686400845909 0.019361928663626116
 0.0029908958300353737 0.019349912713088835 -0.002511158985211722 -0.012125555250830651 0.008560850603247308 0.03892217355572443 0.9892045905084819 -0.09164586104405502
 -0.0025102191558511486 -0.012125630130805051 0.002913686400845909 0.019361928663626116 0.9892045905084819 -0.09164586104405502 0.008574319609904605 0.03892113016236743
0.1375573155481 0.0089923816485608 0.04068824523441074 0.9885977321743202 -0.09589088162617361 0.003222837672768398 0.020237527584688646 -0.0026986745822735816 -0.01267334620418766
 0.9885977321743202 -0.09589088162617361 0.009005655150119224 0.04068728039818308 -0.002699705070720429 -0.012673259656403743 0.003138247755945857 0.020250922086254165
 0.003222837672768398 0.020237527584688646 -0.002699705070720429 -0.012673259656403743 0.008991532786169815 0.040686578567550084 0.9885976127781896 -0.09589275087718038
 -0.0026986745822735816 -0.01267334620418766 0.003138247755945857 0.020250922086254165 0.9885976127781896 -0.09589275087718038 0.00900632104945645 0.04068545596043233
0.1438099208003 0.00943835482095578 0.04244284398319145 0.9879692623346683 -0.10012636527678581 0.003464158177153149 0.021121235660799462 -0.0028946639286055722 -0.013217527329571776
 0.9879692623346683 -0.10012636527678581 0.00945287072245323 0.042441813506267474 -0.00289578918400851 -0.013217428034563024 0.003371865764286882 0.021136113083760018
 0.003464158177153149 0.021121235660799462 -0.00289578918400851 -0.013217428034563024 0.009437429180781134 0.0424411152852024 0.9879691313708301 -0.10012832284249704
 -0.0028946639286055722 -0.013217527329571776 0.003371865764286882 0.021136113083760018 0.9879691313708301 -0.10012832284249704 0.009453599243914196 0.04243990901465482
0.1500625260525 0.00989937984877386 0.04418740978645643 0.9873194593820811 -0.10435040902375542 0.0037147699915692856 0.022000935803824218 -0.003098103111935413 -0.013758079534790583
 0.9873194593820811 -0.10435040902375542 0.009915194858405998 0.04418631032647859 -0.0030993272336894053 -0.013757966369487255 0.0036144551930519363 0.02201740431450172
 0.0037147699915692856 0.022000935803824218 -0.0030993272336894053 -0.013757966369487255 0.009898374323564685 0.0441856208016978 0.9873193162149656 -0.1043524553428961
 -0.003098103111935413 -0.013758079534790583 0.0036144551930519363 0.02201740431450172 0.9873193162149656 -0.1043524553428961 0.009915988885431739 0.04418432614970683
0.15631513130469998 0.010375289954917776 0.04592178456189267 0.9866484942436685 -0.10856289203838364 0.003974584669942041 0.02287652868118769 -0.003308906957665773 -0.014294910925839057
 0.9866484942436685 -0.10856289203838364 0.010392460961541963 0.04592061255215248 -0.003310234036629342 -0.01429478272369755 0.0038659297506651153 0.022894700198273353
