! Created with skrf 1.8.0 (http://scikit-rf.org).
# GHz S RI R 50.0 
!freq ReS11 ImS11 ReS12 ImS12 ReS13 ImS13
! ReS14 ImS14
! ReS21 ImS21 ReS22 ImS22 ReS23 ImS23
! ReS24 ImS24
! ReS31 ImS31 ReS32 ImS32 ReS33 ImS33
! ReS34 ImS34
! ReS41 ImS41 ReS42 ImS42 ReS43 ImS43
! ReS44 ImS44
!
0.0 0.001467486693673 0.0 0.9985325133033 0.0 5.663636048566e-05 0.0 -5.663635986376e-05 6.935953682251131e-21
 0.9985325133033 0.0 0.001467486693715 0.0 -5.663635986428e-05 6.935953682314813e-21 5.663636048587e-05 0.0
 5.663636048566e-05 0.0 -5.663635986428e-05 6.935953682314813e-21 0.001467486695108 0.0 0.9985325133048 0.0
 -5.663635986376e-05 6.935953682251131e-21 5.663636048587e-05 0.0 0.9985325133048 0.0 0.001467486695128 0.0
0.005 0.0015787250283971434 0.0011976757802908786 0.99839181645994 -0.0030744461575429125 7.963241686242015e-05 0.0006419831603329349 -7.729323596551925e-05 -0.00039985723831185115
 0.99839181645994 -0.0030744461575429125 0.0015787177660018341 0.0011976799209130664 -7.729639063273697e-05 -0.0003998595475796387 7.968505415964462e-05 0.000641963373645022
 7.963241686242015e-05 0.0006419831603329349 -7.729639063273697e-05 -0.0003998595475796387 0.0015787243224196618 0.0011977433972338324 0.9983918168048781 -0.003074379086121296
 -7.729323596551925e-05 -0.00039985723831185115 7.968505415964462e-05 0.000641963373645022 0.9983918168048781 -0.003074379086121296 0.0015787191563141846 0.0011977464418743932
0.006252605252188 0.0016078395730154192 0.0015018286591110851 0.9983547705414845 -0.0038438206023548404 8.615519043794206e-05 0.0008027864635024468 -8.309802586177841e-05 -0.0005003463074492993
 0.9983547705414845 -0.0038438206023548404 0.0016078282205975163 0.001501833835371145 -8.310293571461422e-05 -0.0005003491526440568 8.623743470920683e-05 0.0008027607374110064
 8.615519043794206e-05 0.0008027864635024468 -8.310293571461422e-05 -0.0005003491526440568 0.001607838406147139 0.0015019131495053039 0.9983547710170988 -0.003843736783224507
 -8.309802586177841e-05 -0.0005003463074492993 8.623743470920683e-05 0.0008027607374110064 0.9983547710170988 -0.003843736783224507 0.001607830329704383 0.0015019169721833983
0.01250521050438 0.0017607560389645788 0.0030353192377370873 0.9981589654738358 -0.007688523136866519 0.0001233137925513744 0.0016059114822417038 -0.00011588660160504753 -0.001003175593931063
 0.9981589654738358 -0.007688523136866519 0.0017607107149948125 0.0030353295843077786 -0.00011590596262024774 -0.0010031808307936411 0.00012364186325243545 0.0016058493818940128
 0.0001233137925513744 0.0016059114822417038 -0.00011590596262024774 -0.0010031808307936411 0.0017607508292828572 0.003035487864659973 0.9981589668153662 -0.0076883557355307865
 -0.00011588660160504753 -0.001003175593931063 0.00012364186325243545 0.0016058493818940128 0.9981589668153662 -0.0076883557355307865 0.00176071856735275 0.0030354956565909175
0.01875781575657 0.001926557802725385 0.004590817715735919 0.9979448633294239 -0.011543481104685603 0.0001681968577809538 0.002409942760157263 -0.00015510097898133047 -0.0015077476430566472
 0.9979448633294239 -0.011543481104685603 0.0019264559716963279 0.004590833232591267 -0.0001551441715192217 -0.0015077547304146442 0.0001689340672251116 0.002409831679748268
 0.0001681968577809538 0.002409942760157263 -0.0001551441715192217 -0.0015077547304146442 0.0019265456878909762 0.004591070269096967 0.9979448659221484 -0.011543230191463114
 -0.00015510097898133047 -0.0015077476430566472 0.0001689340672251116 0.002409831679748268 0.9979448659221484 -0.011543230191463114 0.0019264731691584203 0.0045910821467111465
0.02501042100875 0.0021055577701412404 0.0061661535271619215 0.9977122204307625 -0.015410575310794008 0.00022088999576306114 0.003214928497796307 -0.00020083695645415362 -0.0020138365788561472
 0.9977122204307625 -0.015410575310794008 0.002105376945044846 0.006166174207154738 -0.0002009132546524244 -0.002013844878694016 0.00022219986110893114 0.003214753931763311
 0.00022088999576306114 0.003214928497796307 -0.0002009132546524244 -0.002013844878694016 0.0021055359038690694 0.006166489807988863 0.997712224663569 -0.01541024091981481
 -0.00020083695645415362 -0.0020138365788561472 0.00022219986110893114 0.003214753931763311 0.997712224663569 -0.01541024091981481 0.0021054070714490933 0.006166505848599589
0.03126302626094 0.0022980558620577015 0.007760215602617342 0.9974607802325882 -0.01929061778447973 0.0002814792980911902 0.0040208410019031355 -0.0002531877226952946 -0.002521287300555511
 0.9974607802325882 -0.01929061778447973 0.0022977735890107377 0.007760241428050016 -0.0002533063127149844 -0.0025212960767531387 0.0002835256901467394 0.004020586530227678
 0.0002814792980911902 0.0040208410019031355 -0.0002533063127149844 -0.0025212960767531387 0.002298021410045532 0.0077606354201672475 0.997460786497621 -0.019290199916090822
 -0.0002531877226952946 -0.002521287300555511 0.0002835256901467394 0.004020586530227678 0.997460786497621 -0.019290199916090822 0.00229782021036404 0.007760655659117118
0.037515631513130004 0.002504345601036003 0.009372284024745067 0.9971902801005958 -0.023184020063811546 0.0003500505450291946 0.004827622774559697 -0.0003122445621705335 -0.0030299693959574287
 0.9971902801005958 -0.023184020063811546 0.0025039394484498464 0.009372314965466658 -0.00031241455144503434 -0.003029977813829629 0.00035299775678133966 0.004827270040660839
 0.0003500505450291946 0.004827622774559697 -0.00031241455144503434 -0.003029977813829629 0.002504295735370632 0.009372787184064382 0.9971902887894224 -0.023183518696795226
 -0.0003122445621705335 -0.0030299693959574287 0.00035299775678133966 0.004827270040660839 0.9971902887894224 -0.023183518696795226 0.002504006109770493 0.009372811612720019
0.043768236765320004 0.002724716648767881 0.011001826605052768 0.9969004540393828 -0.027090996551072652 0.00042668883269971934 0.005635200528889464 -0.000378097113466511 -0.0035397631240854568
 0.9969004540393828 -0.027090996551072652 0.0027241641984467727 0.011001862617068698 -0.0003783275361285937 -0.003539770250136955 0.00043070161339006294 0.0056347292152210135
 0.00042668883269971934 0.005635200528889464 -0.0003783275361285937 -0.003539770250136955 0.0027246485499073225 0.011002412904923509 0.9969004655468575 -0.02709041164463223
 -0.000378097113466511 -0.0035397631240854568 0.00043070161339006294 0.0056347292152210135 0.9969004655468575 -0.02709041164463223 0.002724254427285479 0.011002441469110617
0.050020842017509996 0.0029594559950036595 0.012648414834473803 0.9965910340743017 -0.031011648492715215 0.0005114783515753298 0.006443490976649328 -0.00045083346561097294 -0.004050553626337389
 0.9965910340743017 -0.031011648492715215 0.002958734834140156 0.01264845585892248 -0.00045113328585433634 -0.004050558428117176 0.0005167219226188028 0.0064428787792756865
 0.0005114783515753298 0.006443490976649328 -0.00045113328585433634 -0.004050558428117176 0.0029593668504850996 0.01264908406691403 0.9965910487991199 -0.031010979986873344
 -0.00045083346561097294 -0.004050553626337389 0.0005167219226188028 0.0064428787792756865 0.9965910487991199 -0.031010979986873344 0.0029588521409937294 0.012649116665517738
0.055454545454549996 0.0031753417496506874 0.014092907617228069 0.9963060170875009 -0.03442994406267414 0.0005918473982959885 0.0071464285642878714 -0.0005197013180181165 -0.004495167913260328
 0.9963060170875009 -0.03442994406267414 0.0031744557710042054 0.014092952937690006 -0.0005200686742713696 -0.004495169779757783 0.0005982951140947431 0.007145674258972908
 0.0005918473982959885 0.0071464285642878714 -0.0005200686742713696 -0.004495169779757783 0.0031752320360788106 0.014093648739171419 0.9963060349349184 -0.03442920285010087
 -0.0005197013180181165 -0.004495167913260328 0.0005982951140947431 0.007145674258972908 0.9963060349349184 -0.03442920285010087 0.0031745994464878846 0.014093684724386255
0.056273447269699996 0.003208848566246469 0.014311682623549031 0.9962617510562045 -0.034946005170236875 0.0006045022282981078 0.007252403670117417 -0.0005305401851586014 -0.004562228085291739
 0.9962617510562045 -0.034946005170236875 0.003207936280158161 0.014311728585923836 -0.0005309182994961199 -0.004562229431277239 0.0006111422884043332 0.007251626272814081
 0.0006045022282981078 0.007252403670117417 -0.0005309182994961199 -0.004562229431277239 0.003208735569340943 0.01431243456314089 0.9962617694009749 -0.03494525299656152
 -0.0005305401851586014 -0.004562228085291739 0.0006111422884043332 0.007251626272814081 0.9962617694009749 -0.03494525299656152 0.0032080841577551557 0.014312471046986918
0.06252605252188 0.003473177558859935 0.01599130361014498 0.9959123351937237 -0.03889404652588107 0.0007058424014162818 0.008061842559279792 -0.000617302305831434 -0.005074674170879352
 0.9959123351937237 -0.03889404652588107 0.0034720517237100783 0.015991354419712445 -0.0006177675445365317 -0.005074670830391625 0.0007140451242329892 0.00806087360742678
 0.0007058424014162818 0.008061842559279792 -0.0006177675445365317 -0.005074670830391625 0.003473037906800047 0.015992138030475785 0.9959123575645842 -0.03889321059098048
 -0.000617302305831434 -0.005074674170879352 0.0007140451242329892 0.00806087360742678 0.9959123575645842 -0.03889321059098048 0.0034722336463473102 0.015992178201328488
0.06877865777407 0.003752724614851078 0.017686977647587757 0.9955425164310565 -0.04285571661033814 0.0008155795135247791 0.008871706926241356 -0.0007112032986735247 -0.005587779112481066
 0.9955425164310565 -0.04285571661033814 0.003751362790883948 0.017687033197049257 -0.0007117644267174354 -0.005587769755617899 0.0008255115403193766 0.008870518000603449
 0.0008155795135247791 0.008871706926241356 -0.0007117644267174354 -0.005587769755617899 0.0037525555092393784 0.017687894307629674 0.9955425432395149 -0.042854796809614334
 -0.0007112032986735247 -0.005587779112481066 0.0008255115403193766 0.008870518000603449 0.9955425432395149 -0.042854796809614334 0.0037515822152993723 0.017687937917439955
0.07503126302626001 0.004047769910809476 0.019398422222984876 0.9951520247430284 -0.046830932103975764 0.000933792814862766 0.009681891976703185 -0.0008123250285098072 -0.006101429117359087
 0.9951520247430284 -0.046830932103975764 0.00404614963512622 0.019398482388274612 -0.0008129907460765541 -0.006101412314942934 0.0009456212434464651 0.0096804525672239
 0.000933792814862766 0.009681891976703185 -0.0008129907460765541 -0.006101412314942934 0.004047568555870839 0.019399420871448334 0.9951520564057758 -0.04682992831731548
 -0.0008123250285098072 -0.006101429117359087 0.0009456212434464651 0.0096804525672239 0.9951520564057758 -0.04682992831731548 0.004046409999930352 0.019399467621641697
0.08128386827845 0.004358592187782841 0.0211253667496153 0.9947405903736836 -0.05081958796736026 0.0010605600732549604 0.010492289236158518 -0.0009207477021622097 -0.006615508987981609
 0.9947405903736836 -0.05081958796736026 0.0043566909676871655 0.021125431389977585 -0.0009215266449693777 -0.006615483211528237 0.001074452443701499 0.010490566715828603
 0.0010605600732549604 0.010492289236158518 -0.0009215266449693777 -0.006615483211528237 0.004358355789776154 0.02112644712432231 0.9947406273133297 -0.05081850006000367
 -0.0009207477021622097 -0.006615508987981609 0.001074452443701499 0.010490566715828603 0.9947406273133297 -0.05081850006000367 0.004356995692848519 0.021126496665436666
0.08753647353064001 0.004685468744747934 0.0228675486233954 0.9943079440419924 -0.05482156133205024 0.0011959574875546107 0.011302786829740829 -0.0010365498112413828 -0.007129901859543023
 0.9943079440419924 -0.05482156133205024 0.004683264050740767 0.022867617581564057 -0.0010374505505381642 -0.00712986548123624 0.0012120817658380935 0.011300746428563855
 0.0011959574875546107 0.011302786829740829 -0.0010374505505381642 -0.00712986548123624 0.00468519451085067 0.022868710453899033 0.9943079866873763 -0.05482038915196838
 -0.0010365498112413828 -0.007129901859543023 0.0012120817658380935 0.011300746428563855 0.9943079866873763 -0.05482038915196838 0.004683616537487025 0.022868762385231466
0.09378907878283 0.005028675404925216 0.024624710409473328 0.9938538171233566 -0.058836714265190944 0.0013400596042343195 0.012113269682777952 -0.0011598080704164177 -0.007644489020646828
 0.9938538171233566 -0.058836714265190944 0.005026144663804795 0.024624783512091197 -0.0011608391129014992 -0.007644440313337666 0.0013585841636469967 0.012110874461913062
 0.0013400596042343195 0.012113269682777952 -0.0011608391129014992 -0.007644440313337666 0.0050283605427862196 0.024625953412377975 0.9938538659103625 -0.058835457648069925
 -0.0011598080704164177 -0.007644489020646828 0.0013585841636469967 0.012110874461913062 0.9938538659103625 -0.058835457648069925 0.005026548294433658 0.02462600728191867
0.100041684035 0.005388486464546496 0.02639659776431937 0.9933779418167111 -0.06286489580331582 0.0014929392357809627 0.01292361967462758 -0.0012905973524683415 -0.008159149784886058
 0.9933779418167111 -0.06286489580331582 0.0053856070523823265 0.026396674822566857 -0.001291767140037593 -0.008159086922100522 0.0015140328366256384 0.012920830500714043
 0.0014929392357809627 0.01292361967462758 -0.001291767140037593 -0.008159086922100522 0.005388128181148426 0.026397921647081827 0.9933779971888279 -0.06286355456895863
 -0.0012905973524683415 -0.008159149784886058 0.0015140328366256384 0.012920830500714043 0.9933779971888279 -0.06286355456895863 0.005386065189545427 0.026397976951622524
0.1059090909091 0.005741475443730846 0.028072493653164086 0.9929113656999102 -0.06665662171098394 0.0016444468760932122 0.013683818569495238 -0.0014202436253343553 -0.008642061948169981
 0.9929113656999102 -0.06665662171098394 0.005738248213325449 0.028072574238568772 -0.0014215512301777918 -0.008641984052364238 0.0016681050612386693 0.013680622143807202
 0.0016444468760932122 0.013683818569495238 -0.0014215512301777918 -0.008641984052364238 0.005741073872532703 0.028073893158342196 0.9929114276617628 -0.06665520089504548
 -0.0014202436253343553 -0.008642061948169981 0.0016681050612386693 0.013680622143807202 0.9929114276617628 -0.06665520089504548 0.005738760539815051 0.02807394930641916
0.1062942892872 0.0057651746270678764 0.028182957890580656 0.9928800513003784 -0.0669059434578969 0.001654667379764631 0.013733715758888534 -0.001428990621322053 -0.008673761400171993
 0.9928800513003784 -0.0669059434578969 0.005761923862293709 0.028183038700997275 -0.001430307530674618 -0.00867368245614497 0.0016784991477631099 0.013730491278541996
 0.001654667379764631 0.013733715758888534 -0.001430307530674618 -0.00867368245614497 0.005764770127928035 0.028184362350557046 0.9928801137090084 -0.06690451741144021
 -0.001428990621322053 -0.008673761400171993 0.0016784991477631099 0.013730491278541996 0.9928801137090084 -0.06690451741144021 0.005762439848897065 0.02818441853594302
0.11254689453939999 0.006159010927052835 0.02998353834721454 0.9923598798794744 -0.07095968437054948 0.0018253131393747765 0.014543434059821973 -0.0015750588627477483 -0.009188198986174564
 0.9923598798794744 -0.07095968437054948 0.006155366063174737 0.02998362269273566 -0.0015765312049504602 -0.009188101935895915 0.0018520525424355091 0.01453973067445453
 0.0018253131393747765 0.014543434059821973 -0.0015765312049504602 -0.009188101935895915 0.006158557415446047 0.02998502307154287 0.9923599497845791 -0.07095817330289184
 -0.0015750588627477483 -0.009188198986174564 0.0018520525424355091 0.01453973067445453 0.9923599497845791 -0.07095817330289184 0.006155943221764438 0.029985079533158713
0.11879949979160001 0.006570264645838979 0.03179808612255231 0.9918171631292139 -0.07502593621024614 0.0020049436439734227 0.01535264795327872 -0.0017288710138870997 -0.009702335491688762
 0.9918171631292139 -0.07502593621024614 0.006566202864402646 0.03179817377376773 -0.001730507033789347 -0.009702218210970653 0.0020347604680313208 0.01534841979413597
 0.0020049436439734227 0.01535264795327872 -0.001730507033789347 -0.009702218210970653 0.006569759321729066 0.03179965078928239 0.9918172410000452 -0.07502433989724144
 -0.0017288710138870997 -0.009702335491688762 0.0020347604680313208 0.01534841979413597 0.9918172410000452 -0.07502433989724144 0.0065668444969425805 0.03179970687273533
0.1250521050438 0.0069992032199486355 0.033626346908820964 0.9912516380323877 -0.07910450787425621 0.0021936239702935087 0.016161228138722956 -0.0018904938914444068 -0.010216041665406966
 0.9912516380323877 -0.07910450787425621 0.006994701623328049 0.033626437625460456 -0.0018923017671487368 -0.010215901930965035 0.002226688293812343 0.01615642704220991
 0.0021936239702935087 0.016161228138722956 -0.0018923017671487368 -0.010215901930965035 0.0069986432795741925 0.03362799118539108 0.9912517243479233 -0.07910282607863102
 -0.0018904938914444068 -0.010216041665406966 0.002226688293812343 0.01615642704220991 0.9912517243479233 -0.07910282607863102 0.006995411010472218 0.03362804618745088
0.131304710296 0.007446092145597475 0.035468064513538886 0.9906630431162322 -0.0831952000575097 0.002391417063944848 0.016969042700493247 -0.0020599921190025978 -0.010729186041999234
 0.9906630431162322 -0.0831952000575097 0.007441127749557085 0.035468158046205685 -0.00206197996112001 -0.010729021531557144 0.002427899231474674 0.01696361818384114
 0.002391417063944848 0.016969042700493247 -0.00206197996112001 -0.010729021531557144 0.007445474780204062 0.03546978806003775 0.9906631383656679 -0.08319343252605806
 -0.0020599921190025978 -0.010729186041999234 0.002427899231474674 0.01696361818384114 0.9906631383656679 -0.08319343252605806 0.007441908150190634 0.03546984122974387
0.1375573155481 0.007807088050256607 0.03708199876638756 0.9901552645836529 -0.08705672262585219 0.002572757671824263 0.017751403909957338 -0.0022117570347330797 -0.011217127442869537
 0.9901552645836529 -0.08705672262585219 0.007801635163178214 0.03708209575314509 -0.002213936499819204 -0.011216938026691922 0.002612733962799699 0.017745365184768325
 0.002572757671824263 0.017751403909957338 -0.002213936499819204 -0.011216938026691922 0.007806409394847286 0.03708380209064665 0.9901553691773722 -0.08705486921959525
 -0.0022117570347330797 -0.011217127442869537 0.002612733962799699 0.017745365184768325 0.9901553691773722 -0.08705486921959525 0.007802491031473836 0.037083852040512386
0.1438099208003 0.00818072822435029 0.038687696687057176 0.9896297378374609 -0.09090874213636561 0.002761425036248998 0.01853084894184568 -0.0023696066567375565 -0.011702367355513965
 0.9896297378374609 -0.09090874213636561 0.008174763297666594 0.038687797162872815 -0.002371986397522442 -0.011702150765379529 0.0028050491716002717 0.018524150081763596
 0.002761425036248998 0.01853084894184568 -0.002371986397522442 -0.011702150765379529 0.0081799852713772 0.03868957951634856 0.9896298522633683 -0.09090680260879426
 -0.0023696066567375565 -0.011702367355513965 0.0028050491716002717 0.018524150081763596 0.9896298522633683 -0.09090680260879426 0.008175698079309901 0.038689625596672175
0.1500625260525 0.008566885257655452 0.04028503224597098 0.9890865941936794 -0.09475117152366272 0.002957356884757784 0.019307306353955132 -0.0025334798534614395 -0.01218483660875279
 0.9890865941936794 -0.09475117152366272 0.008560384638692981 0.04028513628045933 -0.0025360685008762604 -0.012184590486073977 0.003004781749082525 0.019299899758031033
 0.002957356884757784 0.019307306353955132 -0.0025360685008762604 -0.012184590486073977 0.008566074981948205 0.04028699429931364 0.9890867189482877 -0.09474914561979272
 -0.0025334798534614395 -0.01218483660875279 0.003004781749082525 0.019299899758031033 0.9890867189482877 -0.09474914561979272 0.00856140177278885 0.0402870358611631
0.15631513130469998 0.00896543088218386 0.041873883250034556 0.9885259655857868 -0.09858392385741661 0.0031604902418000806 0.020080705869712133 -0.0027033147670579684 -0.012664467457298248
