! Created with skrf 1.8.0 (http://scikit-rf.org).
# GHz S RI R 50.0 
!freq ReS11 ImS11 ReS12 ImS12 ReS13 ImS13
! ReS14 ImS14
! ReS21 ImS21 ReS22 ImS22 ReS23 ImS23
! ReS24 ImS24
! ReS31 ImS31 ReS32 ImS32 ReS33 ImS33
! ReS34 ImS34
! ReS41 ImS41 ReS42 ImS42 ReS43 ImS43
! ReS44 ImS44
!
0.0 0.001174329240843 0.0 0.9988256707592 0.0 4.504828484378e-05 0.0 -4.504828466608e-05 5.516823762339366e-21
 0.9988256707592 0.0 0.001174329240838 0.0 -4.504828466588e-05 5.516823762314873e-21 4.504828484337e-05 0.0
 4.504828484378e-05 0.0 -4.504828466588e-05 5.516823762314873e-21 0.001174329223069 0.0 0.9988256707414 0.0
 -4.504828466608e-05 5.516823762339366e-21 4.504828484337e-05 0.0 0.9988256707414 0.0 0.001174329223073 0.0
0.005 0.0012627296851401124 0.0009542239941947658 0.9987139386784535 -0.0024614118726065553 6.366319823834949e-05 0.0005385511060862789 -6.167053113844632e-05 -0.00033082893022067043
 0.9987139386784535 -0.0024614118726065553 0.0012627270783638136 0.0009542255821250224 -6.16689393090051e-05 -0.0003308277840364349 6.367701855787386e-05 0.0005385457721275018
 6.366319823834949e-05 0.0005385511060862789 -6.16689393090051e-05 -0.0003308277840364349 0.0012627304417458037 0.0009542908507675209 0.9987139390012395 -0.0024613448073717405
 -6.167053113844632e-05 -0.00033082893022067043 6.367701855787386e-05 0.0005385457721275018 0.9987139390012395 -0.0024613448073717405 0.0012627269642531604 0.0009542928534082854
0.006252605252188 0.001285675032902771 0.0011966004003607304 0.9986847910900022 -0.0030774072694474772 6.883955308877654e-05 0.0006734462981417693 -6.625386749051724e-05 -0.0004139883670304814
 0.9986847910900022 -0.0030774072694474772 0.001285670957650013 0.0011966024481823209 -6.62513898062059e-05 -0.0004139869546018251 6.886114551375349e-05 0.0006734393917297506
 6.883955308877654e-05 0.0006734462981417693 -6.62513898062059e-05 -0.0004139869546018251 0.001285676145907199 0.0011966839716697367 0.9986847915253106 -0.003077323441952082
 -6.625386749051724e-05 -0.0004139883670304814 6.886114551375349e-05 0.0006734393917297506 0.9986847915253106 -0.003077323441952082 0.0012856707103668734 0.0011966865259747902
0.01250521050438 0.0014050702420489644 0.002418884415292898 0.9985322928507137 -0.006155858642890815 9.777551104997974e-05 0.0013472100191165668 -9.167002453853595e-05 -0.0008301842891616851
 0.9985322928507137 -0.006155858642890815 0.0014050539619947576 0.0024188891440127674 -9.166025163056419e-05 -0.0008301816834768306 9.786159742638263e-05 0.0013471936610424896
 9.777551104997974e-05 0.0013472100191165668 -9.166025163056419e-05 -0.0008301816834768306 0.0014050741219903424 0.0024190513431876118 0.9985322940332305 -0.006155691239221459
 -9.167002453853595e-05 -0.0008301842891616851 9.786159742638263e-05 0.0013471936610424896 0.9985322940332305 -0.006155691239221459 0.0014050524246038373 0.002419056967941863
0.01875781575657 0.001532725173227676 0.003659152367010522 0.9983680227753167 -0.009242904136308083 0.0001319140543862743 0.0020218226363886683 -0.0001213643136922913 -0.0012479621389420946
 0.9983680227753167 -0.009242904136308083 0.0015326885757488676 0.003659160440139024 -0.00012134250689820377 -0.0012479585938278961 0.00013210739559149217 0.002021793863245675
 0.0001319140543862743 0.0020218226363886683 -0.00012134250689820377 -0.0012479585938278961 0.0015327334554764863 0.00365940257826786 0.998368025013783 -0.009242653239983549
 -0.0001213643136922913 -0.0012479621389420946 0.00013210739559149217 0.002021793863245675 0.998368025013783 -0.009242653239983549 0.001532684714014514 0.0036594118286043774
0.02501042100875 0.0016688464739117656 0.004915703058415152 0.9981918231129835 -0.012340090431274417 0.00017131392958511562 0.0026973574535756667 -0.00015540270869695755 -0.0016671516391148014
 0.9981918231129835 -0.012340090431274417 0.0016687814555887543 0.0049157151691129 -0.00015536418081578345 -0.0016671474477373367 0.00017165728500463854 0.0026973129073352264
 0.00017131392958511562 0.0026973574535756667 -0.00015536418081578345 -0.0016671474477373367 0.0016688607818551254 0.0049160364875335955 0.9981918267178289 -0.01233975609271714
 -0.00015540270869695755 -0.0016671516391148014 0.00017165728500463854 0.0026973129073352264 0.9981918267178289 -0.01233975609271714 0.0016687742451032507 0.0049160499546871605
0.03126302626094 0.0018136318363465506 0.0061876856620434 0.9980035264254896 -0.0154481089578751 0.00021603466260813135 0.0033738215450552413 -0.00019384964868992378 -0.002087645932723793
 0.9980035264254896 -0.0154481089578751 0.0018135302995913023 0.0061877025331225615 -0.0001937897546916638 -0.0020876414282760187 0.00021657083613750827 0.003373757471921786
 0.00021603466260813135 0.0033738215450552413 -0.0001937897546916638 -0.0020876414282760187 0.0018136537787694434 0.006188102256142166 0.9980035317053013 -0.015447691189542218
 -0.00019384964868992378 -0.002087645932723793 0.00021657083613750827 0.003373757471921786 0.9980035317053013 -0.015447691189542218 0.0018135187216815488 0.006188120567067758
0.037515631513130004 0.0019672748175208377 0.007474564131725905 0.9978029604890133 -0.018567331440764487 0.0002661359673510166 0.004051196479336321 -0.00023676858037064702 -0.002509360850556259
 0.9978029604890133 -0.018567331440764487 0.001967128668912157 0.007474586515793206 -0.0002366827127134668 -0.002509356406550015 0.0002669078304630929 0.0040511087261179855
 0.0002661359673510166 0.004051196479336321 -0.0002366827127134668 -0.002509356406550015 0.001967305993706634 0.0074750638141400025 0.9978029677558319 -0.018566830253452068
 -0.00023676858037064702 -0.002509360850556259 0.0002669078304630929 0.0040511087261179855 0.9978029677558319 -0.018566830253452068 0.001967111714132881 0.007475087631541779
0.043768236765320004 0.0021299667160672624 0.008775954162349659 0.9975899502536479 -0.02169797289238446 0.0003216774818303176 0.004729450702209899 -0.0002842221665041772 -0.002932222516372994
 0.9975899502536479 -0.02169797289238446 0.002129767864782451 0.00877598284186473 -0.0002841057522168181 -0.002932218546804842 0.0003227279869759841 0.0047293347118409134
 0.0003216774818303176 0.004729450702209899 -0.0002841057522168181 -0.002932218546804842 0.002130008711496987 0.008776536847147267 0.9975899598186679 -0.021697388280577958
 -0.0002842221665041772 -0.002932222516372994 0.0003227279869759841 0.0047293347118409134 0.9975899598186679 -0.021697388280577958 0.0021297445284625604 0.008776566869445163
0.050020842017509996 0.002301897444483619 0.010091555855269253 0.9973643187987992 -0.02484015889869267 0.00038271861946229455 0.005408544650740133 -0.0003362723764933075 -0.003356162220947824
 0.9973643187987992 -0.02484015889869267 0.0023016378014233344 0.01009159164266327 -0.0003361208753668536 -0.003356159180420999 0.00038409080828582604 0.005408395457477051
 0.00038271861946229455 0.005408544650740133 -0.0003361208753668536 -0.003356159180420999 0.002301951834097656 0.010092221445226235 0.997364330975569 -0.024839490842462137
 -0.0003362723764933075 -0.003356162220947824 0.00038409080828582604 0.005408395457477051 0.997364330975569 -0.024839490842462137 0.0023016070860125463 0.01009225840666716
0.055454545454549996 0.0024589603174199094 0.01124620123640388 0.9971578498507858 -0.02758024411255749 0.00044027748591897746 0.005999344934147022 -0.00038528624301906514 -0.003725402831311493
 0.9971578498507858 -0.02758024411255749 0.002458641275446416 0.011246243883892575 -0.00038510058763427006 -0.0037254009989557465 0.00044196425580698826 0.00599916253259057
 0.00044027748591897746 0.005999344934147022 -0.00038510058763427006 -0.0037254009989557465 0.002459026747617253 0.011246938778367212 0.9971578645530311 -0.027579503520414304
 -0.00038528624301906514 -0.003725402831311493 0.00044196425580698826 0.00599916253259057 0.9971578645530311 -0.027579503520414304 0.0024586033415259227 0.011246982394333825
0.056273447269699996 0.002483255996613802 0.011421120655126188 0.9971258878850774 -0.027993958633201404 0.00044931847053198104 0.006088433251703125 -0.0003929805250610345 -0.003781113912149895
 0.9971258878850774 -0.027993958633201404 0.0024829274729991145 0.01142116439288607 -0.00039278942834929196 -0.0037811122959742947 0.0004510554789595394 0.006088245476095806
 0.00044931847053198104 0.006088433251703125 -0.00039278942834929196 -0.0037811122959742947 0.0024833243432794364 0.011421869033604443 0.9971259029885918 -0.027993207106106567
 -0.0003929805250610345 -0.003781113912149895 0.0004510554789595394 0.006088245476095806 0.9971259029885918 -0.027993207106106567 0.0024828883865374816 0.011421913704358432
0.06252605252188 0.0026742307084759594 0.01276443316301764 0.9968744783018915 -0.03115940299477611 0.0005215357291360571 0.0067690672994692655 -0.0004544072838018081 -0.004207012806362293
 0.9968744783018915 -0.03115940299477611 0.0026738252154877257 0.012764485723806287 -0.00045417211339624815 -0.004207013150640433 0.0005236807907101288 0.006768835143239735
 0.0005215357291360571 0.0067690672994692655 -0.00045417211339624815 -0.004207013150640433 0.0026743145632356566 0.012765264197740251 0.9968744966489194 -0.031158567960033
 -0.0004544072838018081 -0.004207012806362293 0.0005236807907101288 0.006768835143239735 0.9968744966489194 -0.031158567960033 0.002673776771041541 0.012765317384027348
0.06877865777407 0.0028750094116078767 0.014121300303873279 0.9966099101086464 -0.03433649539206941 0.0005994286331294247 0.007450394269136158 -0.0005206126788536678 -0.004633794565663568
 0.9966099101086464 -0.03433649539206941 0.0028745188591258954 0.014121362590666188 -0.0005203289866071953 -0.004633797447373737 0.000602025080735167 0.007450111509971742
 0.0005994286331294247 0.007450394269136158 -0.0005203289866071953 -0.004633797447373737 0.0028751103137520154 0.01412221384608141 0.996609932018164 -0.0343355768031323
 -0.0005206126788536678 -0.004633794565663568 0.000602025080735167 0.007450111509971742 0.996609932018164 -0.0343355768031323 0.002874460074999825 0.01412227639030076
0.07503126302626001 0.003085779521068819 0.01549154445517707 0.9963320028124193 -0.03752521856723162 0.0006830549128111756 0.008132358833597409 -0.0005916560784054189 -0.0050613947722327165
 0.9963320028124193 -0.03752521856723162 0.0030851958170080777 0.015491617401382054 -0.0005913194456948353 -0.005061400809302811 0.0006861461796251363 0.008132018819877821
 0.0006830549128111756 0.008132358833597409 -0.0005913194456948353 -0.005061400809302811 0.0030858989975609437 0.015492540340504967 0.9963320286053879 -0.0375242163668414
 -0.0005916560784054189 -0.0050613947722327165 0.0006861461796251363 0.008132018819877821 0.9963320286053879 -0.0375242163668414 0.0030851257160054955 0.015492613121397394
0.08128386827845 0.003306728084624563 0.016874998876398394 0.9960405755084782 -0.040725539120257094 0.0007724717442135369 0.008814903204309686 -0.0006675961747964077 -0.005489748580265179
 0.9960405755084782 -0.040725539120257094 0.0033060431341736993 0.016875083445974427 -0.0006672022122505708 -0.005489758431642113 0.0007761013636756629 0.008814498849821795
 0.0007724717442135369 0.008814903204309686 -0.0006672022122505708 -0.005489758431642113 0.0033068676506789857 0.016876076922620404 0.996040605508916 -0.04072445324251611
 -0.0006675961747964077 -0.005489748580265179 0.0007761013636756629 0.008814498849821795 0.996040605508916 -0.04072445324251611 0.0033059607437137635 0.01687616085544426
0.08753647353064001 0.0035380418056330624 0.018271504540906425 0.9957354469960396 -0.04393741063183408 0.0008677357056108051 0.009497967366496197 -0.0007484909622605696 -0.005918790474805052
 0.9957354469960396 -0.04393741063183408 0.0035372475104709583 0.01827160172858866 -0.0007480353095748843 -0.005918804840512553 0.00087194731092955 0.009497491145098024
 0.0008677357056108051 0.009497967366496197 -0.0007480353095748843 -0.005918804840512553 0.003538202963591553 0.018272664544972433 0.9957354815303205 -0.04393624100505489
 -0.0007484909622605696 -0.005918790474805052 0.00087194731092955 0.009497491145098024 0.9957354815303205 -0.04393624100505489 0.0035371518613126155 0.018272760581717482
0.09378907878283 0.0037799070461405513 0.019680907874747466 0.9954164358765862 -0.0471607758807348 0.0009689027361649572 0.010181489247089061 -0.0008343977116101708 -0.0063484540991930166
 0.9954164358765862 -0.0471607758807348 0.0037789953036915565 0.019681018706171963 -0.0008338760374053421 -0.006348473720399074 0.0009737400594425919 0.010180933187373042
 0.0009689027361649572 0.010181489247089061 -0.0008338760374053421 -0.006348473720399074 0.0037800912864716153 0.019682149618540267 0.9954164752746124 -0.047159522421502544
 -0.0008343977116101708 -0.0063484540991930166 0.0009737400594425919 0.010180933187373042 0.9954164752746124 -0.047159522421502544 0.003778885430953001 0.019682258748120483
0.100041684035 0.004032509820161745 0.021103059100807946 0.9950833606427044 -0.05039556845722533 0.0010760280956512904 0.010865404837209706 -0.0009253729430695075 -0.006778672129435486
 0.9950833606427044 -0.05039556845722533 0.00403147252267918 0.021103184632707262 -0.0009247809448685039 -0.006778697788501514 0.0010815349663538566 0.010864760517136843
 0.0010760280956512904 0.010865404837209706 -0.0009247809448685039 -0.006778697788501514 0.0040327186201033595 0.02110438234656383 0.9950834052374437 -0.05039423107491352
 -0.0009253729430695075 -0.006778672129435486 0.0010815349663538566 0.010864760517136843 0.9950834052374437 -0.05039423107491352 0.00403134746426722 0.021104505595050668
0.1059090909091 0.004279481777890421 0.02244906007093814 0.9947578519950756 -0.05344140506708424 0.0011820215121132206 0.011507486518744184 -0.0010154029404310786 -0.0071828294443659815
 0.9947578519950756 -0.05344140506708424 0.004278319281393457 0.02244920038668037 -0.0010147410633300734 -0.007182861517613546 0.0011881966297919884 0.011506751309817563
 0.0011820215121132206 0.011507486518744184 -0.0010147410633300734 -0.007182861517613546 0.004279714956652136 0.022450459564872686 0.9947579017722933 -0.05343998884191577
 -0.0010154029404310786 -0.0071828294443659815 0.0011881966297919884 0.011506751309817563 0.9947579017722933 -0.05343998884191577 0.00427817910058743 0.022450597028999063
0.1062942892872 0.004296035774496889 0.02253781098371346 0.9947360397576382 -0.05364171397716871 0.0011891663254063522 0.011549648284575338 -0.0010214723967948952 -0.007209376180149082
 0.9947360397576382 -0.05364171397716871 0.0042948648085381624 0.022537952304159264 -0.0010208058010410404 -0.007209408700681917 0.0011953866687587971 0.011548906826125973
 0.0011891663254063522 0.011549648284575338 -0.0010208058010410404 -0.007209408700681917 0.004296270598589504 0.022539215474391215 0.9947360898855601 -0.05364029257342816
 -0.0010214723967948952 -0.007209376180149082 0.0011953866687587971 0.011548906826125973 0.9947360898855601 -0.05364029257342816 0.00429472360548031 0.02253935390529321
0.11254689453939999 0.004570670164251499 0.023985017872977858 0.9943742917298364 -0.05689913099956461 0.0013083712096081087 0.012234151963382154 -0.0011227510024080006 -0.007640496734563722
 0.9943742917298364 -0.05689913099956461 0.004569357409831296 0.023985176101558692 -0.001122005564530831 -0.00764053698145794 0.0013153490445441478 0.012233304027173481
 0.0013083712096081087 0.012234151963382154 -0.001122005564530831 -0.00764053698145794 0.004570932463849928 0.023986503336509125 0.9943743477312775 -0.05689762546394979
 -0.0011227510024080006 -0.007640496734563722 0.0013153490445441478 0.012233304027173481 0.9943743477312775 -0.05689762546394979 0.004569199105647958 0.023986658050975503
0.11879949979160001 0.0048565978225471335 0.02544453496035922 0.9939979351842414 -0.060167731731323504 0.0014336957369469204 0.012918846532312747 -0.0012292628473000867 -0.008071963088007124
 0.9939979351842414 -0.060167731731323504 0.004855135152217412 0.025444711248476425 -0.001228434351799952 -0.008072011967483552 0.0014414751738020969 0.012917882312239861
 0.0014336957369469204 0.012918846532312747 -0.001228434351799952 -0.008072011967483552 0.004856889035850972 0.02544610110189257 0.9939979974038148 -0.060166141948993376
 -0.0012292628473000867 -0.008071963088007124 0.0014414751738020969 0.012917882312239861 0.9939979974038148 -0.060166141948993376 0.004854958792870038 0.025446273239105234
0.1250521050438 0.005154003124996186 0.026916217678367705 0.9936067889291146 -0.06344742259284526 0.0015651920624739854 0.013603660977443451 -0.0013410611438582289 -0.008503703308104273
 0.9936067889291146 -0.06344742259284526 0.005152382403255607 0.02691641320945944 -0.0013401454044388564 -0.008503761767743371 0.001573817300626367 0.013602570195306815
 0.0015651920624739854 0.013603660977443451 -0.0013401454044388564 -0.008503761767743371 0.00515432467640616 0.026917864186654254 0.9936068577156959 -0.06344574843807049
 -0.0013410611438582289 -0.008503703308104273 0.001573817300626367 0.013602570195306815 0.9936068577156959 -0.06344574843807049 0.005152187036490241 0.026918054924031366
0.131304710296 0.0054630699515303615 0.0283999212285248 0.9932006720225115 -0.06673810465540445 0.0017029114697034882 0.01428852265133144 -0.0014581981959646297 -0.008935644200534405
 0.9932006720225115 -0.06673810465540445 0.0054612830338812155 0.02840013721836736 -0.0014571910557046423 -0.008935713229304499 0.0017124267947391646 0.014287294551503365
 0.0017029114697034882 0.01428852265133144 -0.0014571910557046423 -0.008935713229304499 0.005463423251761511 0.02840164777263791 0.9932007477297832 -0.06673634599479235
 -0.0014581981959646297 -0.008935644200534405 0.0017124267947391646 0.014287294551503365 0.9932007477297832 -0.06673634599479235 0.005461067709097673 0.028401858326238417
0.1375573155481 0.005705502736480397 0.02969950054925525 0.9928579013237357 -0.06984361852076817 0.0018272119597370897 0.014952334774583508 -0.0015610258045226585 -0.009346705092009563
 0.9928579013237357 -0.06984361852076817 0.005703541751709677 0.029699732024953747 -0.0015599214090251706 -0.009346784569278503 0.001837642346763144 0.014950972971476137
 0.0018272119597370897 0.014952334774583508 -0.0015599214090251706 -0.009346784569278503 0.005705890068965574 0.029701306353586917 0.9928579842630729 -0.06984177528644812
 -0.0015610258045226585 -0.009346705092009563 0.001837642346763144 0.014950972971476137 0.9928579842630729 -0.06984177528644812 0.00570330471918169 0.029701532746851226
0.1438099208003 0.005956162321118754 0.03099339288337554 0.992503603937688 -0.07294247975787817 0.0019565351890325922 0.01561433016468708 -0.0016679926086282403 -0.009756105950233275
 0.992503603937688 -0.07294247975787817 0.0059540191794707166 0.030993640571173167 -0.0016667865368928869 -0.009756196822655655 0.0019679215422863565 0.015612824972104148
 0.0019565351890325922 0.01561433016468708 -0.0016667865368928869 -0.009756196822655655 0.005956585234937326 0.03099527755199392 0.9925036944609801 -0.07294055182067383
 -0.0016679926086282403 -0.009756105950233275 0.0019679215422863565 0.015612824972104148 0.9925036944609801 -0.07294055182067383 0.005953759346262413 0.030995520616357956
0.1500625260525 0.006214974941573532 0.03228152570812445 0.9921378563627138 -0.07603464830229564 0.0020908460435082603 0.016274469411337485 -0.0017790643930906222 -0.01016380802869173
 0.9921378563627138 -0.07603464830229564 0.006212641550817876 0.032281790368100874 -0.0017777522315656378 -0.010163911280395515 0.0021032291243879456 0.01627281078679246
 0.0020908460435082603 0.016274469411337485 -0.0017777522315656378 -0.010163911280395515 0.006215434982897372 0.03228348882877196 0.992137954825189 -0.0760326355268835
 -0.0017790643930906222 -0.01016380802869173 0.0021032291243879456 0.01627281078679246 0.992137954825189 -0.0760326355268835 0.006212357816155585 0.03228374943620167
0.15631513130469998 0.0064818664717944795 0.03356382892123319 0.9917607353074775 -0.0791200835553089 0.0022301091014006484 0.016932713609288278 -0.0018942066176933809 -0.010569773308956771
