! Created with skrf 1.8.0 (http://scikit-rf.org).
# GHz S RI R 50.0 
!freq ReS11 ImS11 ReS12 ImS12 ReS13 ImS13
! ReS14 ImS14
! ReS21 ImS21 ReS22 ImS22 ReS23 ImS23
! ReS24 ImS24
! ReS31 ImS31 ReS32 ImS32 ReS33 ImS33
! ReS34 ImS34
! ReS41 ImS41 ReS42 ImS42 ReS43 ImS43
! ReS44 ImS44
!
0.0 0.00165917110563 0.0 0.9983408288941 0.0 6.438260825896e-05 0.0 -6.438260848123e-05 7.884595539729555e-21
 0.9983408288941 0.0 0.001659171105648 0.0 -6.438260848171e-05 7.884595539788338e-21 6.43826082599e-05 0.0
 6.438260825896e-05 0.0 -6.438260848171e-05 7.884595539788338e-21 0.001659171105634 0.0 0.9983408288941 0.0
 -6.438260848123e-05 7.884595539729555e-21 6.43826082599e-05 0.0 0.9983408288941 0.0 0.001659171105632 0.0
0.005 0.0017855442127655181 0.0013534069205792195 0.9981808927900165 -0.0034753646612249857 9.089952182000959e-05 0.0007309102540749453 -8.817985670343974e-05 -0.00045493819708997845
 0.9981808927900165 -0.0034753646612249857 0.0017855280099721854 0.001353416431952343 -8.818345737210527e-05 -0.0004549409750423779 9.099183019035999e-05 0.0007308751624443116
 9.089952182000959e-05 0.0007309102540749453 -8.818345737210527e-05 -0.0004549409750423779 0.0017855426622603416 0.0013534751277970948 0.9981808931553855 -0.0034752976047919557
 -8.817985670343974e-05 -0.00045493819708997845 9.099183019035999e-05 0.0007308751624443116 0.9981808931553855 -0.0034752976047919557 0.0017855302850439412 0.0013534823325279653
0.006252605252188 0.001818799397730523 0.0016970840815681495 0.9981385258074056 -0.0043450399756619126 9.851910030512668e-05 0.0009139758891429493 -9.495185619582967e-05 -0.0005692591354209549
 0.9981385258074056 -0.0043450399756619126 0.0018187740690412384 0.001697096122808001 -9.495745901868643e-05 -0.0005692625603358103 9.866332378612756e-05 0.0009139302956707712
 9.851910030512668e-05 0.0009139758891429493 -9.495745901868643e-05 -0.0005692625603358103 0.0018187969041974098 0.0016971693412689375 0.9981385263091807 -0.004344956156381527
 -9.495185619582967e-05 -0.0005692591354209549 9.866332378612756e-05 0.0009139302956707712 0.9981385263091807 -0.004344956156381527 0.0018187775563851508 0.0016971784902344404
0.01250521050438 0.0019945095816991357 0.0034296870685385124 0.997913131107802 -0.008690778493946845 0.0001424479854548371 0.0018282076834272608 -0.00013366050862397794 -0.0011412246562845952
 0.997913131107802 -0.008690778493946845 0.00199440843285667 0.0034297126950042734 -0.00013368258738032912 -0.0011412309821056455 0.00014302313084754468 0.0018280977645691507
 0.0001424479854548371 0.0018282076834272608 -0.00013368258738032912 -0.0011412309821056455 0.0019944990575496173 0.00342985736832824 0.9979131325521584 -0.008690611094850868
 -0.00013366050862397794 -0.0011412246562845952 0.00014302313084754468 0.0018280977645691507 0.9979131325521584 -0.008690611094850868 0.001994421801625904 0.003429877085587337
0.01875781575657 0.00218670825923821 0.0051868546631166895 0.9976643482808779 -0.01304776920998667 0.00019627545090461875 0.0027433155444631565 -0.0001806332348295526 -0.0017150263952558525
 0.9976643482808779 -0.01304776920998667 0.002186480951339102 0.0051868955752529455 -0.0001806824687338819 -0.0017150349902565509 0.0001975674854678392 0.0027431187146420796
 0.00019627545090461875 0.0027433155444631565 -0.0001806824687338819 -0.0017150349902565509 0.002186684171312796 0.0051871099633060145 0.9976643511039701 -0.01304751830129368
 -0.0001806332348295526 -0.0017150263952558525 0.0001975674854678392 0.0027431187146420796 0.9976643511039701 -0.01304751830129368 0.002186510573279413 0.005187141717835191
0.02501042100875 0.002395788666626955 0.006966090803483309 0.9973918685186328 -0.01741809432082572 0.00026010851703266256 0.0036593262222657822 -0.00023599001239384495 -0.0022903801733529876
 0.9973918685186328 -0.01741809432082572 0.002395384945008789 0.006966148838317953 -0.00023607695173905147 -0.002290390287355776 0.0002624035225817022 0.0036590161604345144
 0.00026010851703266256 0.0036593262222657822 -0.00023607695173905147 -0.002290390287355776 0.002395745485870568 0.006966431111446794 0.9973918731608172 -0.017417759933350395
 -0.00023599001239384495 -0.0022903801733529876 0.0002624035225817022 0.0036590161604345144 0.9973918731608172 -0.017417759933350395 0.002395437185264441 0.0069664764076493675
0.03126302626094 0.002622127755215766 0.008766095733581216 0.9970953681490878 -0.021802626464132176 0.00033405424919016966 0.004576179164401627 -0.0002998470152130098 -0.002867081793028126
 0.9970953681490878 -0.021802626464132176 0.0026214974200550957 0.008766172861488394 -0.0002999821029927498 -0.0028670925561653645 0.00033763867793827835 0.004575725790684688
 0.00033405424919016966 0.004576179164401627 -0.0002999821029927498 -0.0028670925561653645 0.002622059949178966 0.008766521094295095 0.9970953750513682 -0.021802208598788803
 -0.0002998470152130098 -0.002867081793028126 0.00033763867793827835 0.004575725790684688 0.9970953750513682 -0.021802208598788803 0.0026215786349401563 0.008766581468114954
0.037515631513130004 0.0028660940323664516 0.010586010450005583 0.9967745167857383 -0.026201784210036733 0.0004182187592141638 0.005493779096728862 -0.0003723174757413708 -0.0034449544842547384
 0.9967745167857383 -0.026201784210036733 0.0028651869190190857 0.010586108773531028 -0.00037251105862738627 -0.0034449649066136917 0.0004233795440201235 0.005493148534406495
 0.0004182187592141638 0.005493779096728862 -0.00037251105862738627 -0.0034449649066136917 0.0028659960652174187 0.01058652093855237 0.9967745263922281 -0.026201282845688637
 -0.0003723174757413708 -0.0034449544842547384 0.0004233795440201235 0.005493148534406495 0.9967745263922281 -0.026201282845688637 0.002865303458339328 0.010586597955287227
0.043768236765320004 0.0031280505837170676 0.01242518675492024 0.9964289806569283 -0.030615761937525566 0.0005127067231834669 0.006412012031079439 -0.00045351198470458944 -0.004023832917849189
 0.9964289806569283 -0.030615761937525566 0.003126816546848962 0.01242530850846725 -0.00045377431952662765 -0.004023841889360105 0.0005197313252678561 0.006411166564090688
 0.0005127067231834669 0.006412012031079439 -0.00045377431952662765 -0.004023841889360105 0.0031279169147198768 0.012425782474712294 0.9964289934144689 -0.03061517703308311
 -0.00045351198470458944 -0.004023832917849189 0.0005197313252678561 0.006411166564090688 0.9964289934144689 -0.03061517703308311 0.003126974753257983 0.012425877727462235
0.050020842017509996 0.0034083564651374446 0.014283092252808487 0.9960584243069034 -0.03504462476594685 0.0006176210814240827 0.007330751880203699 -0.0005435385907027161 -0.004603556613215318
 0.9960584243069034 -0.03504462476594685 0.003406745364852259 0.01428323980299515 -0.0005438798484793532 -0.0046035629036731175 0.0006267975048737659 0.0073296499088740434
 0.0006176210814240827 0.007330751880203699 -0.0005438798484793532 -0.0046035629036731175 0.0034081815475775316 0.014283773340634414 0.9960584406658383 -0.03504395625599902
 -0.0005435385907027161 -0.004603556613215318 0.0006267975048737659 0.0073296499088740434 0.9960584406658383 -0.03504395625599902 0.003406951573528579 0.014283888449009186
0.055454545454549996 0.003667129023581436 0.015912517835778194 0.9957158190839689 -0.038905517195625294 0.0007173408282375726 0.008129471704742465 -0.0006290291945392542 -0.005107917153938388
 0.9957158190839689 -0.038905517195625294 0.0036651495186829108 0.01591268982926561 -0.0006294472342122824 -0.005107920022108927 0.0007286215618323438 0.008128109989312933
 0.0007173408282375726 0.008129471704742465 -0.0006294472342122824 -0.005107920022108927 0.0036669137512644937 0.015913273232696333 0.995715838942657 -0.038904775973562726
 -0.0006290291945392542 -0.005107917153938388 0.0007286215618323438 0.008128109989312933 0.995715838942657 -0.038904775973562726 0.0036654025829170335 0.01591340693168793
0.056273447269699996 0.0037073674048035887 0.016159263713345057 0.9956625116114975 -0.039488355123493815 0.0007330628203627988 0.008249863698476308 -0.0006425028086644052 -0.005183966724538756
 0.9956625116114975 -0.039488355123493815 0.003705329093881875 0.016159439559777947 -0.0006429330772417618 -0.005183968983621341 0.0007446796065307124 0.00824845969455973
 0.0007330628203627988 0.008249863698476308 -0.0006429330772417618 -0.005183968983621341 0.003707145686737288 0.016160030320875773 0.9956625320276115 -0.03948760293721955
 -0.0006425028086644052 -0.005183966724538756 0.0007446796065307124 0.00824845969455973 0.9956625320276115 -0.03948760293721955 0.0037055896335780776 0.01616016693041084
0.06252605252188 0.004025436170819894 0.018053281423748676 0.9952409064636303 -0.04394687833047422 0.0008591307917404904 0.009169205490873862 -0.0007505075852377331 -0.005764904263960982
 0.9952409064636303 -0.04394687833047422 0.004022920482732121 0.018053488200302628 -0.0007510368711057467 -0.005764901021307983 0.0008734770001812842 0.009167449952422675
 0.0008591307917404904 0.009169205490873862 -0.0007510368711057467 -0.005764901021307983 0.004025162092266477 0.018054133736537612 0.9952409313962955 -0.043946042373368376
 -0.0007505075852377331 -0.005764904263960982 0.0008734770001812842 0.009167449952422675 0.9952409313962955 -0.043946042373368376 0.004023241672280586 0.018054293518338115
0.06877865777407 0.004362912747978848 0.01996475391816762 0.9947932732724956 -0.04842007781182282 0.0009959215561824364 0.010088629279555674 -0.0008676532357964293 -0.006346209073176824
 0.9947932732724956 -0.04842007781182282 0.004359869484917497 0.019964994394607295 -0.0008682914651896829 -0.006346198738468487 0.0010132867360889968 0.010086468685933029
 0.0009959215561824364 0.010088629279555674 -0.0008682914651896829 -0.006346198738468487 0.0043625807420863355 0.019965692146536238 0.9947933031871657 -0.04841915797543989
 -0.0008676532357964293 -0.006346209073176824 0.0010132867360889968 0.010086468685933029 0.9947933031871657 -0.04841915797543989 0.004360257634380815 0.01996587679738156
0.07503126302626001 0.0047201444076880985 0.021893308286420544 0.9943192773602144 -0.05290780473667124 0.0011435292380626984 0.01100798180091112 -0.000994037367051262 -0.006927719170916054
 0.9943192773602144 -0.05290780473667124 0.004716523329288935 0.021893585370512492 -0.0009947943866305254 -0.006927700033970241 0.0011642033925562745 0.01100535856815601
 0.0011435292380626984 0.01100798180091112 -0.0009947943866305254 -0.006927700033970241 0.004719748900544464 0.021894332667349237 0.9943193127291785 -0.052906800897434325
 -0.000994037367051262 -0.006927719170916054 0.0011642033925562745 0.01100535856815601 0.9943193127291785 -0.052906800897434325 0.004716984739264818 0.02189454391014234
0.08128386827845 0.005097475709200532 0.023838583740228333 0.9938185852943506 -0.057409884407661003 0.0013020453892318752 0.011927104975682293 -0.0011297547883983917 -0.007509270334195719
 0.9938185852943506 -0.057409884407661003 0.005093226520954205 0.023838900480207273 -0.0011306403656294289 -0.0075092405650863175 0.0013263189339691411 0.011923957412328046
 0.0013020453892318752 0.011927104975682293 -0.0011306403656294289 -0.0075092405650863175 0.0050970111185218376 0.02383969453927891 0.9938186265963127 -0.05740879642565309
 -0.0011297547883983917 -0.007509270334195719 0.0013263189339691411 0.011923957412328046 0.9938186265963127 -0.05740879642565309 0.005093767480457812 0.02383993412398562
0.08753647353064001 0.005495248452144143 0.02580022715804826 0.9932908651757568 -0.06192612067926759 0.0014715588580113334 0.012845836243333887 -0.0012748974160531978 -0.008090695822185969
 0.9932908651757568 -0.06192612067926759 0.005490320794100798 0.025800586745593285 -0.0012759212393041485 -0.008090653471363262 0.0014997225751895993 0.012842098506844452
 0.0014715588580113334 0.012845836243333887 -0.0012759212393041485 -0.008090653471363262 0.005494709187115345 0.02580142466864568 0.993290912896777 -0.06192494839974174
 -0.0012748974160531978 -0.008090695822185969 0.0014997225751895993 0.012842098506844452 0.993290912896777 -0.06192494839974174 0.005490947579850464 0.02580169437360688
0.09378907878283 0.005913801598973507 0.027777889918847134 0.9927357869006502 -0.0664562990953791 0.0016521556610551871 0.013764008814511923 -0.001429554172716571 -0.00867182618931569
 0.9927357869006502 -0.0664562990953791 0.0059081450345149595 0.02777829569236632 -0.001430725851173954 -0.008671769187754527 0.0016845006495447045 0.013759610868422525
 0.0016521556610551871 0.013764008814511923 -0.001430725851173954 -0.008671769187754527 0.005913182060551177 0.027779174464309678 0.9927358415350405 -0.06645504234746581
 -0.001429554172716571 -0.00867182618931569 0.0016845006495447045 0.013759610868422525 0.9927358415350405 -0.06645504234746581 0.005908863910213784 0.027779476098031542
0.100041684035 0.006353471173987603 0.029771225575390057 0.9921530224023197 -0.07100018919542397 0.0018439188584433491 0.014681451865330939 -0.001593810882768515 -0.009252489163979354
 0.9921530224023197 -0.07100018919542397 0.0063470351787175755 0.029771681023860387 -0.001595139946191085 -0.009252415323333816 0.001880736480670571 0.014676319437112503
 0.0018439188584433491 0.014681451865330939 -0.001595139946191085 -0.009252415323333816 0.006352765754310361 0.02977259750788466 0.9921530844532409 -0.07099884779407314
 -0.001593810882768515 -0.009252489163979354 0.001880736480670571 0.014676319437112503 0.9921530844532409 -0.07099884779407314 0.006347852393525069 0.029772932911229417
0.1059090909091 0.006785556244065089 0.03165570577278433 0.9915806891655229 -0.07527640091036744 0.002034095279072396 0.015541555805573449 -0.0017567530752717016 -0.009796798678832002
 0.9915806891655229 -0.07527640091036744 0.006778342795724134 0.03165621114703197 -0.0017582384238673911 -0.009796706940089273 0.0020753751698786367 0.015535662784053078
 0.002034095279072396 0.015541555805573449 -0.0017582384238673911 -0.009796706940089273 0.006784765125463731 0.03165716005516056 0.9915807586419694 -0.07527497989013109
 -0.0017567530752717016 -0.009796798678832002 0.0020753751698786367 0.015535662784053078 0.9915807586419694 -0.07527497989013109 0.00677925796097 0.031657528853117865
0.1062942892872 0.006814590145681174 0.031779888116969676 0.9915422458807127 -0.07555754624005948 0.0020469284298840628 0.015597990701491234 -0.0017677501655764772 -0.00983250956488164
 0.9915422458807127 -0.07555754624005948 0.006807324095706374 0.03178039688424134 -0.0017692460638872867 -0.0098324165776712 0.002088510255523644 0.015592045241309194
 0.0020469284298840628 0.015597990701491234 -0.0017692460638872867 -0.0098324165776712 0.006813793227645266 0.03178134781844445 0.9915423158605823 -0.07555611998596164
 -0.0017677501655764772 -0.00983250956488164 0.002088510255523644 0.015592045241309194 0.9915423158605823 -0.07555611998596164 0.006808245883056042 0.031781718867285765
0.11254689453939999 0.007297488295472595 0.033803530644913815 0.9909031340207818 -0.08012811253265445 0.00226126115279133 0.01651344688830151 -0.0019514513261048583 -0.010411709259378284
 0.9909031340207818 -0.08012811253265445 0.007289341456143121 0.03380409653444287 -0.001953123428883213 -0.010411594699180748 0.002307898899942901 0.016506605528632867
 0.00226126115279133 0.01651344688830151 -0.001953123428883213 -0.010411594699180748 0.007296594252819269 0.033805078528706345 0.9909032124523387 -0.08012660121154419
 -0.0019514513261048583 -0.010411709259378284 0.002307898899942901 0.016506605528632867 0.9909032124523387 -0.08012660121154419 0.0072903740327517836 0.033805487137178694
0.11879949979160001 0.007802492076902658 0.03584180434659896 0.990235366205736 -0.08471161845177334 0.0024869904812355524 0.017427638372653164 -0.0021449902444124038 -0.010989907137615534
 0.990235366205736 -0.08471161845177334 0.007793413591830257 0.03584243132661087 -0.002146847840413663 -0.01098976845927715 0.002538975955214563 0.017419813888875996
 0.0024869904812355524 0.017427638372653164 -0.002146847840413663 -0.01098976845927715 0.0078014952738831665 0.0358434408587335 0.9902354536221984 -0.08471002183402651
 -0.0021449902444124038 -0.010989907137615534 0.002538975955214563 0.017419813888875996 0.9902354536221984 -0.08471002183402651 0.0077945631557811935 0.03584388898279794
0.1250521050438 0.008329924466548781 0.037894357693173876 0.9895386247234964 -0.08930778326907483 0.0027241864257659286 0.018340379589217932 -0.0023484392642216943 -0.011566919110573096
 0.9895386247234964 -0.08930778326907483 0.008319863346114256 0.037895049902388275 -0.0023504915606085003 -0.011566753650455503 0.002781811455660549 0.018331480361235046
 0.0027241864257659286 0.018340379589217932 -0.0023504915606085003 -0.011566753650455503 0.00832881925799177 0.03789608331326092 0.9895387216696908 -0.08930610110979587
 -0.0023484392642216943 -0.011566919110573096 0.002781811455660549 0.018331480361235046 0.9895387216696908 -0.08930610110979587 0.008321136076041083 0.03789657295488347
0.131304710296 0.008880104809322496 0.039960835807072555 0.988812594970518 -0.09391631580706972 0.002972915434537255 0.019251481562113197 -0.0025618670806331805 -0.01214255812058486
 0.988812594970518 -0.09391631580706972 0.008869009918982882 0.039961597561004085 -0.002564123202295376 -0.012142363096811534 0.003036471807498332 0.01924141153709654
 0.002972915434537255 0.019251481562113197 -0.002564123202295376 -0.012142363096811534 0.0088788855400827 0.039962651046419675 0.9888127020033343 -0.09391454784908324
 -0.0025618670806331805 -0.01214255812058486 0.003036471807498332 0.01924141153709654 0.9888127020033343 -0.09391454784908324 0.008870411972425468 0.03996318425825611
0.1375573155481 0.0093313278460811 0.041770988523930005 0.9881790429417951 -0.09826686995193959 0.0032027450993914373 0.02013397827164479 -0.0027547717959272825 -0.012689935665931167
 0.9881790429417951 -0.09826686995193959 0.009319145753531662 0.041771810886445625 -0.002757245350261361 -0.012689710697759943 0.0032723759693006034 0.02012274762525859
 0.0032027450993914373 0.02013397827164479 -0.002757245350261361 -0.012689710697759943 0.009329989603923124 0.04177289394409089 0.9881791605281971 -0.09826501605974398
 -0.0027547717959272825 -0.012689935665931167 0.0032723759693006034 0.02012274762525859 0.9881791605281971 -0.09826501605974398 0.009320682704882307 0.04177345962412618
0.1438099208003 0.009798547794745986 0.04357083796242909 0.9875229742451521 -0.10260563171893433 0.0034418307920804124 0.021012515014187952 -0.0029553702151509063 -0.013233638652715724
 0.9875229742451521 -0.10260563171893433 0.009785226860614758 0.04357172459503259 -0.0029580710156520925 -0.013233380987085694 0.003517801067953521 0.021000035513712125
 0.0034418307920804124 0.021012515014187952 -0.0029580710156520925 -0.013233380987085694 0.009797085043739447 0.04357283408040681 0.9875231029404754 -0.10260369164333402
 -0.0029553702151509063 -0.013233638652715724 0.003517801067953521 0.021000035513712125 0.9875231029404754 -0.10260369164333402 0.009786904734249506 0.04357343357202946
0.1500625260525 0.010281589110419176 0.04536021110019947 0.9868445691677165 -0.10693247047556895 0.0036900827529171266 0.02188698948002437 -0.0031635740425701793 -0.013773569094616864
 0.9868445691677165 -0.10693247047556895 0.010267077554263275 0.04536116588685292 -0.003166511877595658 -0.013773275867655782 0.0037726555916855684 0.021873169673877462
 0.0036900827529171266 0.02188698948002437 -0.003166511877595658 -0.013773275867655782 0.010279996313419717 0.04536229845406853 0.9868447095375601 -0.10693044395970085
 -0.0031635740425701793 -0.013773569094616864 0.0037726555916855684 0.021873169673877462 0.9868447095375601 -0.10693044395970085 0.010268902348216018 0.04536293322874843
0.15631513130469998 0.010780274863429827 0.04713894007883903 0.9861440090702809 -0.11124725655234774 0.003947410082558562 0.022757301261776094 -0.0033792938181510432 -0.014309631211279546
