! Created with skrf 1.8.0 (http://scikit-rf.org).
# GHz S RI R 50.0 
!freq ReS11 ImS11 ReS12 ImS12 ReS13 ImS13
! ReS14 ImS14
! ReS21 ImS21 ReS22 ImS22 ReS23 ImS23
! ReS24 ImS24
! ReS31 ImS31 ReS32 ImS32 ReS33 ImS33
! ReS34 ImS34
! ReS41 ImS41 ReS42 ImS42 ReS43 ImS43
! ReS44 ImS44
!
0.0 0.001412637305497 0.0 0.9985873626945 0.0 5.441389563781e-05 0.0 -5.44138947376e-05 6.663780201954284e-21
 0.9985873626945 0.0 0.001412637305508 0.0 -5.441389473888e-05 6.66378020211104e-21 5.441389563713e-05 0.0
 5.441389563781e-05 0.0 -5.441389473888e-05 6.66378020211104e-21 0.001412637285272 0.0 0.9985873626742 0.0
 -5.44138947376e-05 6.663780201954284e-21 5.441389563713e-05 0.0 0.9985873626742 0.0 0.001412637285219 0.0
0.005 0.0015195708589609256 0.0011532473839810195 0.9984521382512594 -0.002959637631211985 7.638293185552089e-05 0.000615874085776815 -7.417217914456673e-05 -0.00038377608714212355
 0.9984521382512594 -0.002959637631211985 0.0015195595183204347 0.0011532540128142046 -7.417482227090383e-05 -0.00038377813630362435 7.646008307220489e-05 0.0006158450030102661
 7.638293185552089e-05 0.000615874085776815 -7.417482227090383e-05 -0.00038377813630362435 0.0015195690626686967 0.0011531812011545347 0.9984521379025805 -0.002959704689541285
 -7.417217914456673e-05 -0.00038377608714212355 7.646008307220489e-05 0.0006158450030102661 0.9984521379025805 -0.002959704689541285 0.0015195606157575598 0.0011531860756315055
0.006252605252188 0.0015475159581721956 0.0014461226215070606 0.9984165955652318 -0.0037002882132685703 8.258574696026778e-05 0.000770141064422811 -7.970390240908633e-05 -0.00048022615418437235
 0.9984165955652318 -0.0037002882132685703 0.0015474982297606348 0.0014461309561721273 -7.970801521317586e-05 -0.0004802286816080048 8.270629276631051e-05 0.0007701032713008411
 8.258574696026778e-05 0.000770141064422811 -7.970801521317586e-05 -0.0004802286816080048 0.0015475132318048847 0.0014460398951794805 0.9984165951022659 -0.0037003720363347455
 -7.970390240908633e-05 -0.00048022615418437235 8.270629276631051e-05 0.0007701032713008411 0.9984165951022659 -0.0037003720363347455 0.0015475000276783636 0.0014460460294346853
0.01250521050438 0.001694040698339297 0.0029227892605339337 0.9982290935878125 -0.007401496541597237 0.00011776944214246438 0.0015406428325892947 -0.00011083923430039098 -0.0009628627552117209
 0.9982290935878125 -0.007401496541597237 0.0016939698998064733 0.0029228064114984608 -0.00011085544143128319 -0.0009628674396751179 0.00011825027141786929 0.00154055183067433
 0.00011776944214246438 0.0015406428325892947 -0.00011085544143128319 -0.0009628674396751179 0.0016940303544707234 0.0029226241003792296 0.9982290922877352 -0.007401663921795705
 -0.00011083923430039098 -0.0009628627552117209 0.00011825027141786929 0.00154055183067433 0.9982290922877352 -0.007401663921795705 0.001693977632021652 0.0029226367520216873
0.01875781575657 0.001852510534804628 0.00442071571768698 0.998024638538981 -0.0111126579307817 0.0001600438627167569 0.0023120550329522316 -0.0001479117017121091 -0.0014472062943284689
 0.998024638538981 -0.0111126579307817 0.0018523514333381582 0.004420742212253813 -0.0001479478433240969 -0.001447212700100034 0.00016112427878659107 0.0023118926386882996
 0.0001600438627167569 0.0023120550329522316 -0.0001479478433240969 -0.001447212700100034 0.0018524877009362852 0.004420468277596658 0.9980246360392391 -0.011112908753917964
 -0.0001479117017121091 -0.0014472062943284689 0.00016112427878659107 0.0023118926386882996 0.9980246360392391 -0.011112908753917964 0.0018523692373643905 0.004420487804482821
0.02501042100875 0.002023216830939678 0.0059378220535343555 0.9978030041836508 -0.014835592805096108 0.0002094886151838089 0.0030844300147931753 -0.00019101041225122394 -0.001933046004212606
 0.9978030041836508 -0.014835592805096108 0.0020229342530138964 0.00593785844741659 -0.0001910742350731091 -0.001933053622214048 0.0002114081916040952 0.0030841753672519266
 0.0002094886151838089 0.0030844300147931753 -0.0001910742350731091 -0.001933053622214048 0.002023176636840634 0.0059374924730299025 0.9978030001230566 -0.014835926982674994
 -0.00019101041225122394 -0.001933046004212606 0.0002114081916040952 0.0030841753672519266 0.9978030001230566 -0.014835926982674994 0.002022966263512586 0.005937519194285912
0.03126302626094 0.0022064388196019395 0.007473048590846638 0.9975639520192228 -0.018571093025698225 0.000266183804943123 0.0038577476000011338 -0.00024022213710410455 -0.002420239065272453
 0.9975639520192228 -0.018571093025698225 0.0022059976299956753 0.0074730954639458886 -0.00024032131062850582 -0.002420247312066139 0.00026918260784886973 0.0038573771416736094
 0.000266183804943123 0.0038577476000011338 -0.00024032131062850582 -0.002420247312066139 0.0022063763926387704 0.0074726370114604895 0.9975639460363559 -0.01857151047865326
 -0.00024022213710410455 -0.002420239065272453 0.00026918260784886973 0.0038573771416736094 0.9975639460363559 -0.01857151047865326 0.002206047977778154 0.007472671203191556
0.037515631513130004 0.0024024498261797185 0.009025712502492842 0.997307237666531 -0.022319565244704163 0.0003302093216901388 0.004631959222613131 -0.0002956319747376613 -0.002908666466956021
 0.997307237666531 -0.022319565244704163 0.0024018149136225326 0.00902577045668491 -0.0002957740995284819 -0.0029086746844119134 0.00033452801326400963 0.0046314466690889535
 0.0003302093216901388 0.004631959222613131 -0.0002957740995284819 -0.0029086746844119134 0.0024023602944101986 0.009025219081494574 0.9973072294032851 -0.02232006589001941
 -0.0002956319747376613 -0.002908666466956021 0.00033452801326400963 0.0046314466690889535 0.9973072294032851 -0.02232006589001941 0.0024018877304684367 0.00902526097400449
0.043768236765320004 0.0026115196894967827 0.010595312018484952 0.997032613455129 -0.026081226633307763 0.00040164450682729806 0.005407001356628352 -0.00035732359502412003 -0.00339821957551726
 0.997032613455129 -0.026081226633307763 0.0026106559551137797 0.010595381676104597 -0.00035751620766036037 -0.0033982270306996878 0.00040752439808696626 0.005406317662729841
 0.00040164450682729806 0.005407001356628352 -0.00035751620766036037 -0.0033982270306996878 0.0026113981778193907 0.010594736922565656 0.9970326025546259 -0.026081810390871263
 -0.00035732359502412003 -0.00339821957551726 0.00040752439808696626 0.005406317662729841 0.9970326025546259 -0.026081810390871263 0.002610755371033073 0.010594786697883095
0.050020842017509996 0.002833915881744932 0.012181445482741547 0.9967398297104865 -0.02985618575822158 0.0004805679564827361 0.0061828010583274565 -0.00042537933365523607 -0.0038887945870841266
 0.9967398297104865 -0.02985618575822158 0.0028327882289155924 0.012181527485526982 -0.000425629909939301 -0.003888800472205752 0.00048825103291994844 0.006181914382756843
 0.0004805679564827361 0.0061828010583274565 -0.000425629909939301 -0.003888800472205752 0.002833757513386449 0.012180788902872117 0.9967398158189197 -0.02985685253649281
 -0.00042537933365523607 -0.0038887945870841266 0.00048825103291994844 0.006181914382756843 0.9967398158189197 -0.02985685253649281 0.0028329183741949175 0.012180846692790674
0.055454545454549996 0.0030382139095435252 0.013573005016088784 0.9964704491461978 -0.03314757104921962 0.0005552965917656545 0.006857548024808837 -0.0004897532393444456 -0.004315870045638507
 0.9964704491461978 -0.03314757104921962 0.003036828395758972 0.013573098282812413 -0.000490060213534276 -0.004315873852163273 0.0005647437440309088 0.006856456894237143
 0.0005552965917656545 0.006857548024808837 -0.000490060213534276 -0.004315873852163273 0.003038019548163791 0.013572277787101869 0.996470432368971 -0.033148309903235404
 -0.0004897532393444456 -0.004315870045638507 0.0005647437440309088 0.006856456894237143 0.996470432368971 -0.033148309903235404 0.003036988598646293 0.01357234260860843
0.056273447269699996 0.0030699040948892684 0.013783771660102556 0.9964286355100523 -0.03364448220844091 0.0005670573834471488 0.006959278680503097 -0.0004998802199730419 -0.004380289810222259
 0.9964286355100523 -0.03364448220844091 0.003068477420075503 0.01378386666839646 -0.0005001961771357465 -0.0043802932426323365 0.0005767863149215796 0.006958154349757079
 0.0005670573834471488 0.006959278680503097 -0.0005001961771357465 -0.0043802932426323365 0.003069703989556446 0.013783033796256368 0.9964286182752999 -0.033645231920271856
 -0.0004998802199730419 -0.004380289810222259 0.0005767863149215796 0.006958154349757079 0.9964286182752999 -0.033645231920271856 0.0030686424234610127 0.013783099680531633
0.06252605252188 0.0033197485575443483 0.015401987880333982 0.9960987791719949 -0.0374461083863863 0.0006611895064527293 0.007736349365353814 -0.0005809059733407472 -0.0048726041719815184
 0.9960987791719949 -0.0374461083863863 0.0033179877412937413 0.015402096572588555 -0.0005812946715436688 -0.004872604194168059 0.0006732076461360053 0.007734949837271265
 0.0006611895064527293 0.007736349365353814 -0.0005812946715436688 -0.004872604194168059 0.0033195018320652733 0.015401168959802602 0.9960987582451992 -0.037446940931356365
 -0.0005809059733407472 -0.0048726041719815184 0.0006732076461360053 0.007734949837271265 0.9960987582451992 -0.037446940931356365 0.003318191730758622 0.01540124296463059
0.06877865777407 0.0035837122121191918 0.017035817031545625 0.9957500086075048 -0.04126102245198208 0.0007630399573653407 0.008513923935809816 -0.000668534978168512 -0.0053656363280197746
 0.9957500086075048 -0.04126102245198208 0.003581582110306012 0.017035940104115164 -0.0006690037215582961 -0.005365631907632477 0.0007775913332576727 0.008512208762975065
 0.0007630399573653407 0.008513923935809816 -0.0006690037215582961 -0.005365631907632477 0.003583413979550093 0.01703491729521209 0.9957499836421744 -0.04126193773069826
 -0.000668534978168512 -0.0053656363280197746 0.0007775913332576727 0.008512208762975065 0.9957499836421744 -0.04126193773069826 0.0035818292121348426 0.017034999391966323
0.07503126302626001 0.0038620568030843794 0.01868499929342281 0.9953820715872062 -0.04508915652959214 0.0008726831956772691 0.00929190946013768 -0.0007628442491270667 -0.0058592841022830295
 0.9953820715872062 -0.04508915652959214 0.0038595222385621047 0.01868513746047223 -0.0007634002866190022 -0.005859274132158655 0.000890012496606412 0.009289835253253876
 0.0008726831956772691 0.00929190946013768 -0.0007634002866190022 -0.005859274132158655 0.003861702172859123 0.018684019008216195 0.9953820422399324 -0.04509015443184222
 -0.0007628442491270667 -0.0058592841022830295 0.000890012496606412 0.009289835253253876 0.9953820422399324 -0.04509015443184222 0.0038598165768567944 0.018684109112359706
0.08128386827845 0.004155042914158862 0.02034928665189685 0.9949947159593361 -0.04893042213641758 0.000990192430566117 0.010070209629014802 -0.000863909386836504 -0.006353444117194867
 0.9949947159593361 -0.04893042213641758 0.0041520686680062745 0.020349440645696257 -0.0008645599125183676 -0.0063534274153968714 0.0010105449878476563 0.010067730020325197
 0.000990192430566117 0.010070209629014802 -0.0008645599125183676 -0.0063534274153968714 0.0041546269914279005 0.020348226104692935 0.9949946818897281 -0.0489315025479622
 -0.000863909386836504 -0.006353444117194867 0.0010105449878476563 0.010067730020325197 0.9949946818897281 -0.0489315025479622 0.00415241436461085 0.02034832407494714
0.08753647353064001 0.004462929968627271 0.022028439095283615 0.994587689833589 -0.05278471393280269 0.001115639545596381 0.010848725019038084 -0.0009718045289496012 -0.006848011540525041
 0.994587689833589 -0.05278471393280269 0.004459480772107438 0.022028609666574574 -0.0009725566825147493 -0.006847986850380363 0.0011392613112052605 0.01084579062592449
 0.001115639545596381 0.010848725019038084 -0.0009725566825147493 -0.006847986850380363 0.004462447854848526 0.022027298596494202 0.9945876507046996 -0.052785876732373144
 -0.0009718045289496012 -0.006848011540525041 0.0011392613112052605 0.01084579062592449 0.9945876507046996 -0.052785876732373144 0.004459881945684991 0.02202740423421963
0.09378907878283 0.0047859762067259766 0.023722221898895477 0.9941607417457555 -0.05665191238753585 0.0012490950259757914 0.011627353283098307 -0.0010866022973073104 -0.007342879908775102
 0.9941607417457555 -0.05665191238753585 0.004782016732552715 0.02372240981767262 -0.0010874631641587444 -0.007342845898928456 0.0012762325477917982 0.011623911671804175
 0.0012490950259757914 0.011627353283098307 -0.0010874631641587444 -0.007342845898928456 0.004785422999355647 0.023721001783262915 0.9941606972242065 -0.05665315744671309
 -0.0010866022973073104 -0.007342879908775102 0.0012762325477917982 0.011623911671804175 0.9941606972242065 -0.05665315744671309 0.004782477498537237 0.023721114832175812
0.100041684035 0.005124438644777037 0.025430403634500883 0.9937136208054718 -0.060531885721799884 0.0013906278877091093 0.01240598929089058 -0.0012083737416030062 -0.00783794100365376
 0.9937136208054718 -0.060531885721799884 0.005119933498443873 0.025430609690943753 -0.0012093503529003046 -0.00783789626813661 0.0014215282823874628 0.012401984940566472
 0.0013906278877091093 0.01240598929089058 -0.0012093503529003046 -0.00783789626813661 0.005123809436563048 0.025429104262042704 0.9937135705613875 -0.06053321290484922
 -0.0012083737416030062 -0.00783794100365376 0.0014215282823874628 0.012401984940566472 0.9937135705613875 -0.06053321290484922 0.005120457967743479 0.02542922440800794
0.1059090909091 0.005456298435439594 0.02704624211942506 0.9932754753734441 -0.06418432092065508 0.0015308478833894485 0.013136567653591263 -0.0013290476688642108 -0.008302580592373624
 0.9932754753734441 -0.06418432092065508 0.005451248975641831 0.02704646593382473 -0.0013301392404976675 -0.008302524446824116 0.0015655045658285133 0.01313198195542982
 0.0015308478833894485 0.013136567653591263 -0.0013301392404976675 -0.008302524446824116 0.0054555934418130435 0.027044868722519697 0.99327541946291 -0.06418572503902426
 -0.0013290476688642108 -0.008302580592373624 0.0015655045658285133 0.01313198195542982 0.99327541946291 -0.06418572503902426 0.005451836958424132 0.027044995191243114
0.1062942892872 0.005478573020665898 0.027152754674094733 0.9932460768345182 -0.06442449136294691 0.0015403056065249195 0.013184525246192113 -0.001337188282143241 -0.008333084755437757
 0.9932460768345182 -0.06442449136294691 0.005473486732128268 0.027152979679760245 -0.0013382876147985006 -0.008333027813728236 0.0015752165300749964 0.013179899513170407
 0.0015403056065249195 0.013184525246192113 -0.0013382876147985006 -0.008333027813728236 0.005477862900369354 0.027151376429423276 0.9932460205421767 -0.06442590052803832
 -0.001337188282143241 -0.008333084755437757 0.0015752165300749964 0.013179899513170407 0.9932460205421767 -0.06442590052803832 0.005474079011149168 0.027151503300644475
0.11254689453939999 0.005848633730725557 0.02888904603874835 0.9927578604984713 -0.06832957705691724 0.0016981940491804328 0.013962850768971701 -0.0014731136490132109 -0.00882819918505569
 0.9927578604984713 -0.06832957705691724 0.005842930745596184 0.028889290828003955 -0.0014743426255562216 -0.008828128482159601 0.0017373636657216083 0.013957541851294135
 0.0016981940491804328 0.013962850768971701 -0.0014743426255562216 -0.008828128482159601 0.005847837782735494 0.02888758933118863 0.9927577978358697 -0.06833106805681369
 -0.0014731136490132109 -0.00882819918505569 0.0017373636657216083 0.013957541851294135 0.9927577978358697 -0.06833106805681369 0.005843594935299018 0.02888772249863028
0.11879949979160001 0.006234873758043437 0.03063904851008426 0.9922487234316902 -0.07224698172226536 0.00186435740388344 0.014740852972431944 -0.0016162158211631558 -0.009323170354823992
 0.9922487234316902 -0.07224698172226536 0.006228518428900117 0.03063931394188609 -0.0016175813095423528 -0.00932308426136932 0.0019080343526658567 0.014734795874869177
 0.00186435740388344 0.014740852972431944 -0.0016175813095423528 -0.00932308426136932 0.006233987062698295 0.03063751377706606 0.9922486540819506 -0.07224855440162008
 -0.0016162158211631558 -0.009323170354823992 0.0019080343526658567 0.014734795874869177 0.9922486540819506 -0.07224855440162008 0.006229258624644845 0.030637652755064422
0.1250521050438 0.006637544595030828 0.03240253192365169 0.9917184183606111 -0.07617653612654203 0.002038858111650717 0.015518416524214228 -0.0017665589636635057 -0.0098178823389244
 0.9917184183606111 -0.07617653612654203 0.006630501172446415 0.03240281888354868 -0.0017680677770420365 -0.009817779151252388 0.0020872914724141644 0.015511543023533548
 0.002038858111650717 0.015518416524214228 -0.0017680677770420365 -0.009817779151252388 0.006636562228231964 0.03240091963000938 0.991718342010719 -0.07617819032331866
 -0.0017665589636635057 -0.0098178823389244 0.0020872914724141644 0.015511543023533548 0.991718342010719 -0.07617819032331866 0.0066313214626608375 0.03240106387733265
0.131304710296 0.007056896160465138 0.03417926460114005 0.9911666992222538 -0.08011806342835148 0.0022217567974310327 0.016295423702780344 -0.0019242053644358008 -0.010312217202465612
 0.9911666992222538 -0.08011806342835148 0.007049128784402164 0.03417957400352441 -0.0019258642608660055 -0.01031209514274139 0.002275196054368582 0.0162876623135072
 0.0022217567974310327 0.016295423702780344 -0.0019258642608660055 -0.01031209514274139 0.007055813194001993 0.03417757523868121 0.9911666155643019 -0.08011979897496907
 -0.0019242053644358008 -0.010312217202465612 0.002275196054368582 0.0162876623135072 0.9911666155643019 -0.08011979897496907 0.007050033250437925 0.034177724159656246
0.1375573155481 0.007394025102343003 0.035736447054283985 0.9906925072808229 -0.08383872128781755 0.0023888793113187308 0.01704789030958072 -0.0020649161128565847 -0.010782247860112419
 0.9906925072808229 -0.08383872128781755 0.007385495778306321 0.03573677650684281 -0.002066735115827102 -0.01078210690356703 0.0024474391897961203 0.017039255872046324
 0.0023888793113187308 0.01704789030958072 -0.002066735115827102 -0.01078210690356703 0.007392837227922166 0.03573468107258664 0.990692415990191 -0.08384053802638419
 -0.0020649161128565847 -0.010782247860112419 0.0024474391897961203 0.017039255872046324 0.990692415990191 -0.08384053802638419 0.007386487903603346 0.03573483084438674
0.1438099208003 0.00774291175360266 0.03728592775364774 0.9902018384897753 -0.08755047001261307 0.002562750444957234 0.017797704810614687 -0.002211272159920996 -0.011249816367805036
 0.9902018384897753 -0.08755047001261307 0.007733584150459873 0.03728627817909619 -0.002213258536580306 -0.011249654777098238 0.0026266566321177798 0.017788132423506964
 0.002562750444957234 0.017797704810614687 -0.002213258536580306 -0.011249654777098238 0.007741614147357284 0.0372840856373616 0.9902017392629758 -0.08755236776677114
 -0.002211272159920996 -0.011249816367805036 0.0026266566321177798 0.017788132423506964 0.9902017392629758 -0.08755236776677114 0.00773466789711212 0.03728423563775354
0.1500625260525 0.00810344051524747 0.03882759241323325 0.9896948121558761 -0.09125323315008951 0.0027433145509151253 0.018544803491862168 -0.0023632187281153916 -0.011714860616099772
 0.9896948121558761 -0.09125323315008951 0.008093278185953078 0.038827964812995296 -0.0023653797322200727 -0.011714676584300802 0.002812791555111164 0.018534225890908394
 0.0027433145509151253 0.018544803491862168 -0.0023653797322200727 -0.011714676584300802 0.008102028355804116 0.03882567466514446 0.9896947046940652 -0.09125521173752113
 -0.0023632187281153916 -0.011714860616099772 0.002812791555111164 0.018534225890908394 0.9896947046940652 -0.09125521173752113 0.00809445750172634 0.038825824288315
0.15631513130469998 0.00847549505094728 0.04036133026692817 0.9891715481030214 -0.09494693420813313 0.0029305153756089544 0.019289123642648245 -0.0025207004104736462 -0.012177319748786983
