! Created with skrf 1.8.0 (http://scikit-rf.org).
# GHz S RI R 50.0 
!freq ReS11 ImS11 ReS12 ImS12 ReS13 ImS13
! ReS14 ImS14
! ReS21 ImS21 ReS22 ImS22 ReS23 ImS23
! ReS24 ImS24
! ReS31 ImS31 ReS32 ImS32 ReS33 ImS33
! ReS34 ImS34
! ReS41 ImS41 ReS42 ImS42 ReS43 ImS43
! ReS44 ImS44
!
0.0 0.001987312946535 0.0 0.9980126870431 0.0 7.739962431861e-05 0.0 -7.739962390294e-05 9.478720166794444e-21
 0.9980126870431 0.0 0.001987312946591 0.0 -7.739962390328e-05 9.478720166836081e-21 7.739962432027e-05 0.0
 7.739962431861e-05 0.0 -7.739962390328e-05 9.478720166836081e-21 0.001987312951701 0.0 0.9980126870483 0.0
 -7.739962390294e-05 9.478720166794444e-21 7.739962432027e-05 0.0 0.9980126870483 0.0 0.001987312951728 0.0
0.005 0.002139840233612131 0.0016240178109919272 0.9978194650564411 -0.004161247284219167 0.00010929374390793119 0.0008538524464696498 -0.00010613095124623247 -0.0005354314497146928
 0.9978194650564411 -0.004161247284219167 0.0021398002654819752 0.0016240412141940517 -0.00010613456635875736 -0.0005354342473677188 0.000109527058586089 0.0008537633524500271
 0.00010929374390793119 0.0008538524464696498 -0.00010613456635875736 -0.0005354342473677188 0.0021398386397301935 0.0016240860824327952 0.9978194654516175 -0.004161180220762438
 -0.00010613095124623247 -0.0005354314497146928 0.000109527058586089 0.0008537633524500271 0.9978194654516175 -0.004161180220762438 0.0021398026454413346 0.0016241070682109777
0.006252605252188 0.002180342086465421 0.002036342585650532 0.9977677668947841 -0.005202496849901248 0.00011863661987964313 0.00106769906810732 -0.0001144687823539445 -0.0006699515318149955
 0.9977677668947841 -0.005202496849901248 0.002180279608444981 0.002036372305321582 -0.00011447440748002465 -0.0006699549796567357 0.00011900114343439086 0.0010675832458110072
 0.00011863661987964313 0.00106769906810732 -0.00011447440748002465 -0.0006699549796567357 0.0021803395187006847 0.0020364279202842593 0.9977677674369269 -0.005202413030661571
 -0.0001144687823539445 -0.0006699515318149955 0.00011900114343439086 0.0010675832458110072 0.9977677674369269 -0.005202413030661571 0.002180283253624391 0.002036454605308665
0.01250521050438 0.002396452541678943 0.004114601818730683 0.9974898000338965 -0.01040517881087874 0.0001734370151956769 0.0021355332804499443 -0.00016298780706538592 -0.0013428178424523731
 0.9974898000338965 -0.01040517881087874 0.0023962030558060243 0.004114666009765952 -0.00016300997100952144 -0.0013428241873196525 0.00017489046099718625 0.002135252705899091
 0.0001734370151956769 0.0021355332804499443 -0.00016300997100952144 -0.0013428241873196525 0.002396441729057659 0.004114772308998323 0.9974898016474714 -0.01040501142182407
 -0.00016298780706538592 -0.0013428178424523731 0.00017489046099718625 0.002135252705899091 0.9974898016474714 -0.01040501142182407 0.002396217065434315 0.00411483025545561
0.01875781575657 0.0026362151768052153 0.006221570520540735 0.9971783711608313 -0.015620580660304325 0.00024194452572243337 0.0032041390924224867 -0.00022312559201731667 -0.002017547667668139
 0.9971783711608313 -0.015620580660304325 0.00263565454327791 0.00622167441772178 -0.00022317501044053805 -0.0020175562263715415 0.00024520905677606673 0.00320363326427208
 0.00024194452572243337 0.0032041390924224867 -0.00022317501044053805 -0.0020175562263715415 0.0026361904391244808 0.006221826189755947 0.9971783743621099 -0.01562032979822699
 -0.00022312559201731667 -0.002017547667668139 0.00024520905677606673 0.00320363326427208 0.9971783743621099 -0.01562032979822699 0.0026356856081270444 0.006221920322289887
0.02501042100875 0.002900177405358225 0.008354162899551178 0.9968330462590602 -0.02085109361217787 0.00032430257171521613 0.004273478296752373 -0.0002950429471195331 -0.00269375220014613
 0.9968330462590602 -0.02085109361217787 0.002899181704053692 0.00835431217897567 -0.0002951302026082864 -0.0026937621466544036 0.00033010022141558975 0.00427267544490893
 0.00032430257171521613 0.004273478296752373 -0.0002951302026082864 -0.0026937621466544036 0.002900133069739895 0.008354503863518747 0.9968330515698647 -0.02085075932832016
 -0.0002950429471195331 -0.00269375220014613 0.00033010022141558975 0.00427267544490893 0.9968330515698647 -0.02085075932832016 0.00289923651285379 0.008354639418165366
0.03126302626094 0.0031888633233926717 0.010510721937328769 0.9964533734219796 -0.026097657948327472 0.00042065302903767515 0.005343411945591644 -0.00037889419813594397 -0.003371131471967885
 0.9964533734219796 -0.026097657948327472 0.003187308775963439 0.010510922710319956 -0.0003790297615856605 -0.0033711418363322775 0.0004297063026527837 0.0053422289633205415
 0.00042065302903767515 0.005343411945591644 -0.0003790297615856605 -0.0033711418363322775 0.0031887937127254343 0.01051114837717302 0.9964533813610386 -0.026097240275666067
 -0.00037889419813594397 -0.003371131471967885 0.0004297063026527837 0.0053422289633205415 0.9964533813610386 -0.026097240275666067 0.003187394008516315 0.010511330894538352
0.037515631513130004 0.0035027838836419944 0.012690114990254074 0.9960388936377711 -0.03136066739062608 0.0005311349310124499 0.006413760026541713 -0.0004748282589490417 -0.004049414798701338
 0.9960388936377711 -0.03136066739062608 0.0035005467982342116 0.012690373802532993 -0.0004750225001761775 -0.004049424466873914 0.0005441670345362414 0.00641210236387878
 0.0005311349310124499 0.006413760026541713 -0.0004750225001761775 -0.004049424466873914 0.0035026833212132803 0.01269062714477363 0.9960389047275148 -0.03136016635210501
 -0.0004748282589490417 -0.004049414798701338 0.0005441670345362414 0.00641210236387878 0.9960389047275148 -0.03136016635210501 0.003500669132161352 0.012690862467529485
0.043768236765320004 0.0038424407824593654 0.014891458596756488 0.9955891452815869 -0.03664024425694892 0.0006558838067521226 0.007484319635072149 -0.0005829889566772666 -0.004728342716357857
 0.9955891452815869 -0.03664024425694892 0.0038393975075555918 0.014891782429784249 -0.0005832521505008746 -0.004728350430216524 0.0006736187153018824 0.007482081180838851
 0.0006558838067521226 0.007484319635072149 -0.0005832521505008746 -0.004728350430216524 0.0038423035874348356 0.01489205676009244 0.9955891600438604 -0.03663965986827457
 -0.0005829889566772666 -0.004728342716357857 0.0006736187153018824 0.007482081180838851 0.9955891600438604 -0.03663965986827457 0.0038395636143130803 0.014892351032812744
0.050020842017509996 0.004208328204971021 0.017114004748312275 0.9951036664686396 -0.041936353156621094 0.0007950312390539398 0.00855487251905701 -0.0007035150968715634 -0.005407659551888472
 0.9951036664686396 -0.041936353156621094 0.004204355087773443 0.017114401022917256 -0.0007038574267352069 -0.005407663909378006 0.0008181936792083257 0.008551935478941158
 0.0007950312390539398 0.00855487251905701 -0.0007038574267352069 -0.005407663909378006 0.004208148694109693 0.01711468928234163 0.9951036854275154 -0.04193568541479376
 -0.0007035150968715634 -0.005407659551888472 0.0008181936792083257 0.008551935478941158 0.9951036854275154 -0.04193568541479376 0.004204571634691335 0.017115048953073073
0.055454545454549996 0.004547976645960503 0.019062163319022926 0.9946523953255582 -0.046552153567188635 0.0009277469378826516 0.009485031671166322 -0.0008184022086132854 -0.005998123927662488
 0.9946523953255582 -0.046552153567188635 0.004543095016103818 0.019062628919206015 -0.0008188215110447556 -0.005998124118071905 0.000956215165573322 0.00948138270928038
 0.0009277469378826516 0.009485031671166322 -0.0008188215110447556 -0.005998124118071905 0.004547755743804603 0.019062923246934312 0.9946524183586755 -0.046551413383756214
 -0.0008184022086132854 -0.005998123927662488 0.000956215165573322 0.00948138270928038 0.9946524183586755 -0.046551413383756214 0.004543360807956601 0.019063345225169868
0.056273447269699996 0.00460093366669792 0.019357085114901015 0.9945819965096355 -0.04724885674182917 0.0009487045207279061 0.009625188806300602 -0.0008365404109673251 -0.006087109821357634
 0.9945819965096355 -0.04724885674182917 0.004595907014024687 0.01935756169636846 -0.000836971971197005 -0.0060871092766698965 0.000978019900410504 0.009621423580126296
 0.0009487045207279061 0.009625188806300602 -0.000836971971197005 -0.0060871092766698965 0.004600706153909042 0.019357856435075288 0.9945820201911673 -0.04724810563987549
 -0.0008365404109673251 -0.006087109821357634 0.000978019900410504 0.009621423580126296 0.9945820201911673 -0.04724810563987549 0.0045961806634106555 0.019358288258517688
0.06252605252188 0.0050207384056868126 0.021620080382520192 0.9940236769221762 -0.05257754636008541 0.0011170263598894751 0.010695029091652047 -0.0009821934444410572 -0.006766436281495753
 0.9940236769221762 -0.05257754636008541 0.005014534446224713 0.02162064558733128 -0.0009827242415776096 -0.006766429145252958 0.0011532206628076223 0.010690294151319517
 0.0011170263598894751 0.010695029091652047 -0.0009827242415776096 -0.006766429145252958 0.005020457201848752 0.0216209389631445 0.9940237058549585 -0.05257671188271769
 -0.0009821934444410572 -0.006766436281495753 0.0011532206628076223 0.010690294151319517 0.9940237058549585 -0.05257671188271769 0.005014871854428965 0.021621450005465084
0.06877865777407 0.005468217525867657 0.023902402002274916 0.9934282522005125 -0.05792216031048223 0.0013001146135920166 0.011764145709685708 -0.0011405974102872897 -0.007445378809820437
 0.9934282522005125 -0.05792216031048223 0.0054607123737793715 0.023903064606479008 -0.001141237363803379 -0.00744536324930281 0.0013439142684261967 0.011758287478788893
 0.0013001146135920166 0.011764145709685708 -0.001141237363803379 -0.00744536324930281 0.005467876939187926 0.023903348375831322 0.9934282869155109 -0.05792124243553991
 -0.0011405974102872897 -0.007445378809820437 0.0013439142684261967 0.011758287478788893 0.9934282869155109 -0.05792124243553991 0.005461120190437559 0.023903946021048374
0.07503126302626001 0.005943839997320262 0.02620348064074001 0.9927952704464034 -0.06328239541555979 0.0014980820373589805 0.012832283578794691 -0.0013118700231890745 -0.008123673728328498
 0.9927952704464034 -0.06328239541555979 0.005934909615065017 0.02620424989001176 -0.001312628965647671 -0.008123647767720286 0.0015502137672688716 0.012825136314513739
 0.0014980820373589805 0.012832283578794691 -0.001312628965647671 -0.008123647767720286 0.00594343433314788 0.02620451539873277 0.9927953114777336 -0.06328139411402568
 -0.0013118700231890745 -0.008123673728328498 0.0015502137672688716 0.012825136314513739 0.9927953114777336 -0.06328139411402568 0.005935394482666304 0.026205207356705534
0.08128386827845 0.006448068559546628 0.028522758519556383 0.9921242839096251 -0.06865791472153614 0.0017110360463687604 0.013899180792239146 -0.0014961233196798369 -0.00880105339587036
 0.9921242839096251 -0.06865791472153614 0.006437588722472072 0.028523644140851075 -0.0014970109967052069 -0.008801014916510055 0.0017722267032193588 0.01389056646994999
 0.0017110360463687604 0.013899180792239146 -0.0014970109967052069 -0.008801014916510055 0.006447592121741453 0.028523882314902074 0.9921243317957348 -0.0686568299560341
 -0.0014961233196798369 -0.00880105339587036 0.0017722267032193588 0.01389056646994999 0.9921243317957348 -0.0686568299560341 0.006438157275926866 0.028524676631028343
0.08753647353064001 0.00698135956733685 0.030859684142362533 0.991414849475397 -0.07404835282984548 0.00193907848335987 0.014964569067084398 -0.001693463471064466 -0.009477245958483909
 0.991414849475397 -0.07404835282984548 0.006969205827464041 0.030860696357293518 -0.0016944895409897257 -0.009477192699153288 0.0020100548690189747 0.01495429726815634
 0.00193907848335987 0.014964569067084398 -0.0016944895409897257 -0.009477192699153288 0.0069808066572580076 0.030860897688483734 0.9914149047578366 -0.0740471845564331
 -0.001693463471064466 -0.009477245958483909 0.0020100548690189747 0.01495429726815634 0.9914149047578366 -0.0740471845564331 0.0069698646918733365 0.03086180275510373
0.09378907878283 0.007544162790803064 0.0332137085534778 0.9906665291098151 -0.07945331971603516 0.0021823053929498 0.016028174097349093 -0.0019039905900179413 -0.010151975212015829
 0.9906665291098151 -0.07945331971603516 0.0075302104414097844 0.0332148580934425 -0.0019051646233218308 -0.0101519047692436 0.0022637940698618463 0.016016041900367248
 0.0021823053929498 0.016028174097349093 -0.0019051646233218308 -0.0101519047692436 0.007543527709083229 0.03321501262445111 0.9906665923352518 -0.07945206788493397
 -0.0019039905900179413 -0.010151975212015829 0.0022637940698618463 0.016016041900367248 0.9906665923352518 -0.07945206788493397 0.00753096623205983 0.03321603719401437
0.100041684035 0.008136921187602942 0.0355842826196555 0.9898788902814797 -0.08487240354552344 0.002440806799922758 0.017089715850337063 -0.002127798534582895 -0.010824960538052408
 0.9898788902814797 -0.08487240354552344 0.008121045227088787 0.03558558074273388 -0.002129130013193416 -0.010824870366433743 0.0025335338919822924 0.01707550772603953
 0.002440806799922758 0.017089715850337063 -0.002129130013193416 -0.010824870366433743 0.008136198233079537 0.03558567805235536 0.9898789620005431 -0.08487106809996095
 -0.002127798534582895 -0.010824960538052408 0.0025335338919822924 0.01707550772603953 0.9898789620005431 -0.08487106809996095 0.008121904547522502 0.03558683125230362
0.1059090909091 0.008720794360680087 0.037823375596123525 0.9891036349547788 -0.0899700940235649 0.0026973496611031825 0.018083729415199465 -0.0023499752644029143 -0.011454645949179781
 0.9891036349547788 -0.0899700940235649 0.008702999313898032 0.037824823873428 -0.0023514630327655913 -0.011454534823015766 0.002801282642578839 0.018067365912026716
 0.0026973496611031825 0.018083729415199465 -0.0023514630327655913 -0.011454534823015766 0.008719983761587143 0.037824857579590906 0.98910371515022 -0.08996868005725323
 -0.0023499752644029143 -0.011454645949179781 0.002801282642578839 0.018067365912026716 0.98910371515022 -0.08996868005725323 0.008703961781061859 0.03782614013564301
0.1062942892872 0.008760070650726664 0.03797085501311762 0.9890515063611324 -0.09030517280808395 0.002714666491852518 0.018148908824629044 -0.002364974709732424 -0.011495916895160246
 0.9890515063611324 -0.09030517280808395 0.008742145747245814 0.03797231352287528 -0.0023664730261430747 -0.011495804307741369 0.0028193574768741636 0.018132396534892195
 0.002714666491852518 0.018148908824629044 -0.0023664730261430747 -0.011495804307741369 0.008759254122168018 0.0379723427085837 0.9890515871303387 -0.09030375368385271
 -0.002364974709732424 -0.011495916895160246 0.0028193574768741636 0.018132396534892195 0.9890515871303387 -0.09030375368385271 0.008743115188798608 0.03797363405823669
0.11254689453939999 0.009414039742252946 0.040372870702927055 0.9881839570105546 -0.09575117796494982 0.0030039618047111444 0.019205462286188676 -0.002615599868785008 -0.012164554848968565
 0.9881839570105546 -0.09575117796494982 0.009393940198460338 0.04037450196893712 -0.002617274325072934 -0.012164417017602505 0.003121341299426349 0.01918640478711695
 0.0030039618047111444 0.019205462286188676 -0.002617274325072934 -0.012164417017602505 0.009413123937964254 0.04037445162380836 0.9881840473913474 -0.09574967509395144
 -0.002615599868785008 -0.012164554848968565 0.003121341299426349 0.01918640478711695 0.9881840473913474 -0.09574967509395144 0.009395026338485683 0.040375891052897725
0.11879949979160001 0.010099249412718003 0.04278976979636799 0.987275828556841 -0.10120995276673464 0.003308763412643604 0.02025908048908015 -0.0028797479143969126 -0.01283058063482604
 0.987275828556841 -0.10120995276673464 0.01007684913026237 0.04279158677680503 -0.0028816077212825758 -0.012830414590621512 0.0034395549504097726 0.020237223838705944
 0.003308763412643604 0.02025908048908015 -0.0028816077212825758 -0.012830414590621512 0.010098228632001282 0.04279144497277112 0.9872759291170095 -0.1012083660720539
 -0.0028797479143969126 -0.01283058063482604 0.0034395549504097726 0.020237223838705944 0.9872759291170095 -0.1012083660720539 0.010078058530941328 0.042793042842235424
0.1250521050438 0.010816112712715722 0.045220986667656594 0.9863267143612581 -0.10668101530557858 0.0036291351206995713 0.021309462885619086 -0.0031574857009531456 -0.013493696248396943
 0.9863267143612581 -0.10668101530557858 0.010791285157061856 0.045223002933732256 -0.0031595399765386462 -0.013493498882125862 0.0037740609231001494 0.021284540156077256
 0.0036291351206995713 0.021309462885619086 -0.0031595399765386462 -0.013493498882125862 0.010814981255311476 0.045222757195791774 0.9863268256746929 -0.10667934470393488
 -0.0031574857009531456 -0.013493696248396943 0.0037740609231001494 0.021284540156077256 0.9863268256746929 -0.10667934470393488 0.010792624364197069 0.04522452432016595
0.131304710296 0.01156503449620706 0.0476659492787333 0.985336215178696 -0.11216386889675245 0.00396513366146094 0.022356304336694388 -0.0034488728383797484 -0.014153599553310239
 0.985336215178696 -0.11216386889675245 0.011537652662049903 0.04766817904116126 -0.003451130607012711 -0.014153367615919033 0.004124914403552547 0.022328035531400975
 0.00396513366146094 0.022356304336694388 -0.003451130607012711 -0.014153367615919033 0.011563786664011666 0.04766781632025494 0.9853363378261779 -0.11216211430012246
 -0.0034488728383797484 -0.014153599553310239 0.004124914403552547 0.022328035531400975 0.9853363378261779 -0.11216211430012246 0.011539128203524714 0.04766976399239088
0.1375573155481 0.01219165049067215 0.049806851971717796 0.9844588019488454 -0.11734050431257796 0.004278437435519136 0.023369732038750084 -0.0037154190158930956 -0.014780599601035326
 0.9844588019488454 -0.11734050431257796 0.012161579157664606 0.04980926740254731 -0.0037178939212735578 -0.014780332245412926 0.004453437927787191 0.023338117773216493
 0.004278437435519136 0.023369732038750084 -0.0037178939212735578 -0.014780332245412926 0.012190281473037183 0.049808816556046895 0.9844589364464689 -0.11733866572830165
 -0.0037154190158930956 -0.014780599601035326 0.004453437927787191 0.023338117773216493 0.9844589364464689 -0.11733866572830165 0.01216319679368297 0.04981091447243747
0.1438099208003 0.012840741428862384 0.05193317950640435 0.9835496190428218 -0.12250066757736922 0.004604215026178985 0.024377115457235265 -0.00399243759858942 -0.015401923368130791
 0.9835496190428218 -0.12250066757736922 0.01280785181212949 0.051935792811507994 -0.003995139360280249 -0.015401617335666706 0.004795089784093458 0.024341895680767955
 0.004604215026178985 0.024377115457235265 -0.003995139360280249 -0.015401617335666706 0.012839245688472698 0.05193524281673231 0.9835497659661778 -0.12249874493333561
 -0.00399243759858942 -0.015401923368130791 0.004795089784093458 0.024341895680767955 0.9835497659661778 -0.12249874493333561 0.012809617912618422 0.05193750022480304
0.1500625260525 0.013512022992871697 0.05404465690655174 0.9826089567975136 -0.12764413110080744 0.004942315836432258 0.02537829121350267 -0.004279779143075662 -0.0160174145781526
 0.9826089567975136 -0.12764413110080744 0.013476185846694798 0.054047481070452597 -0.004282717445722887 -0.01601706647864263 0.005149713857998371 0.02533919639741126
 0.004942315836432258 0.02537829121350267 -0.004282717445722887 -0.01601706647864263 0.01351039500426041 0.05404682017646091 0.982609116727268 -0.1276421243223177
 -0.004279779143075662 -0.0160174145781526 0.005149713857998371 0.02533919639741126 0.982609116727268 -0.1276421243223177 0.01347810675700241 0.054049246981819975
0.15631513130469998 0.014205208180529193 0.05614101753597049 0.9816371077672731 -0.1327706705607738 0.00529258712827909 0.026373099687171008 -0.004577292026054461 -0.016626921097221803
 0.9816371077672731 -0.1327706705607738 0.014166293788512398 0.056144066346253164 -0.004580476518337705 -0.016626527409666466 0.005517151788878236 0.02632985095176282
