! Created with skrf 1.8.0 (http://scikit-rf.org).
# GHz S RI R 50.0 
!freq ReS11 ImS11 ReS12 ImS12 ReS13 ImS13
! ReS14 ImS14
! ReS21 ImS21 ReS22 ImS22 ReS23 ImS23
! ReS24 ImS24
! ReS31 ImS31 ReS32 ImS32 ReS33 ImS33
! ReS34 ImS34
! ReS41 ImS41 ReS42 ImS42 ReS43 ImS43
! ReS44 ImS44
!
0.0 0.001121125468431 0.0 0.9988788745316 0.0 4.262189389254e-05 0.0 -4.262189350383e-05 5.219676545306478e-21
 0.9988788745316 0.0 0.001121125468386 0.0 -4.262189350309e-05 5.219676545215854e-21 4.262189389155e-05 0.0
 4.262189389254e-05 0.0 -4.262189350309e-05 5.219676545215854e-21 0.001121125463252 0.0 0.9988788745264 0.0
 -4.262189350383e-05 5.219676545306478e-21 4.262189389155e-05 0.0 0.9988788745264 0.0 0.001121125463248 0.0
0.005 0.0012053446924794114 0.0009160852836860067 0.9987724621161909 -0.002349725695039743 5.942685047076565e-05 0.0004799790656162395 -5.7760070125441894e-05 -0.0002996249823633008
 0.9987724621161909 -0.002349725695039743 0.0012053408570987013 0.0009160874897602922 -5.775995145208528e-05 -0.00029962484554093487 5.9443850910329394e-05 0.0004799724726842684
 5.942685047076565e-05 0.0004799790656162395 -5.775995145208528e-05 -0.00029962484554093487 0.0012053446609718024 0.0009160180149096899 0.9987724617895092 -0.002349792760428279
 -5.7760070125441894e-05 -0.0002996249823633008 5.9443850910329394e-05 0.0004799724726842684 0.9987724617895092 -0.002349792760428279 0.0012053402409064812 0.0009160206336341806
0.006252605252188 0.0012271697300975347 0.0011487554750149677 0.9987447551455374 -0.0029377733056461493 6.407427678573039e-05 0.0006002186295036454 -6.191318765582446e-05 -0.00037493638930824805
 0.9987447551455374 -0.0029377733056461493 0.001227163735321672 0.001148758313411484 -6.191300335153113e-05 -0.00037493621960060265 6.410083734776444e-05 0.0006002101006125175
 6.407427678573039e-05 0.0006002186295036454 -6.191300335153113e-05 -0.00037493621960060265 0.001227169768558342 0.001148671398340773 0.9987447547220769 -0.002937857126543489
 -6.191318765582446e-05 -0.00037493638930824805 6.410083734776444e-05 0.0006002101006125175 0.9987447547220769 -0.002937857126543489 0.0012271628591264568 0.0011486747612146162
0.01250521050438 0.0013405292449926531 0.0023220291802362463 0.9986001005916743 -0.005876569038574734 8.991475159162712e-05 0.0012008458926769353 -8.482807784169111e-05 -0.0007518672343669846
 0.9986001005916743 -0.005876569038574734 0.0013405053151013164 0.002322035671952942 -8.482735589131726e-05 -0.0007518669087136741 9.002063239558122e-05 0.001200825773101581
 8.991475159162712e-05 0.0012008458926769353 -8.482735589131726e-05 -0.0007518669087136741 0.00134052994119647 0.0023218612596706636 0.9986000994354833 -0.0058767364482977666
 -8.482807784169111e-05 -0.0007518672343669846 9.002063239558122e-05 0.001200825773101581 0.9986000994354833 -0.0058767364482977666 0.001340502347784669 0.0023218688917470156
0.01875781575657 0.0014613955761760794 0.0035124837064882653 0.9984447713195681 -0.008823595494018259 0.0001201940751683983 0.0018023291894352232 -0.00011142493356290123 -0.0011302680675359341
 0.9984447713195681 -0.008823595494018259 0.0014613418175435822 0.003512494712200648 -0.00011142332967578398 -0.0011302676003509368 0.00012043184126116041 0.001802293923796741
 0.0001201940751683983 0.0018023291894352232 -0.00011142332967578398 -0.0011302676003509368 0.0014613975750875693 0.0035122320533090457 0.998444769138816 -0.00882384642045955
 -0.00011142493356290123 -0.0011302680675359341 0.00012043184126116041 0.001802293923796741 0.998444769138816 -0.00882384642045955 0.0014613355616219727 0.003512244922729419
0.02501042100875 0.00158995740322483 0.00471850325721242 0.9982786239854659 -0.011780335168652317 0.00015496358549726188 0.002404731209129829 -0.0001417609838935259 -0.001509996805965775
 0.9982786239854659 -0.011780335168652317 0.0015898619554728737 0.004718519681715719 -0.00014175815986585105 -0.0015099962128101154 0.00015538578028097234 0.0024046767798258555
 0.00015496358549726188 0.002404731209129829 -0.00014175815986585105 -0.0015099962128101154 0.0015899613527698205 0.00471816796234858 0.998278620481646 -0.011780669598968506
 -0.0001417609838935259 -0.001509996805965775 0.00015538578028097234 0.0024046767798258555 0.998278620481646 -0.011780669598968506 0.001589851206592197 0.0047181870968719475
0.03126302626094 0.0017263951157161024 0.005939283342605779 0.9981015061376121 -0.014747455039860488 0.00019427528723408745 0.0030080590454776815 -0.0001758922425880278 -0.0018909646483796934
 0.9981015061376121 -0.014747455039860488 0.001726246146779334 0.005939306134726548 -0.0001758878652702051 -0.0018909639459865632 0.00019493448894232973 0.003007980972239906
 0.00019427528723408745 0.0030080590454776815 -0.0001758878652702051 -0.0018909639459865632 0.001726401672491701 0.005938864521257618 0.9981015010100215 -0.014747872975948605
 -0.0001758922425880278 -0.0018909646483796934 0.00019493448894232973 0.003007980972239906 0.9981015010100215 -0.014747872975948605 0.0017262296990355373 0.005938891008431335
0.037515631513130004 0.001870885333513251 0.007174319942292034 0.9979132608042262 -0.01772531736438723 0.000238181370374916 0.003612298413710193 -0.00021387395755968698 -0.0022731018491095527
 0.9979132608042262 -0.01772531736438723 0.001870671036641213 0.007174350095036376 -0.00021386769829913956 -0.0022731010553892505 0.00023913022002820095 0.0036121917499722387
 0.000238181370374916 0.003612298413710193 -0.00021386769829913956 -0.0022731010553892505 0.0018708951635630995 0.00717381771606271 0.9979132537502738 -0.017725818840941807
 -0.00021387395755968698 -0.0022731018491095527 0.00023913022002820095 0.0036121917499722387 0.9979132537502738 -0.017725818840941807 0.0018706476832738418 0.007173852703487641
0.043768236765320004 0.002023602653712069 0.008423254019786558 0.9977137283080523 -0.020714135120966454 0.00028673400465628813 0.004217424022697945 -0.0002557607761260462 -0.0026563473347412537
 0.9977137283080523 -0.020714135120966454 0.0020233112456771525 0.008423292570291063 -0.0002557523104188157 -0.0026563464687454383 0.0002880252216026449 0.004217283350881007
 0.00028673400465628813 0.004217424022697945 -0.0002557523104188157 -0.0026563464687454383 0.00202361643287267 0.008422668528744088 0.9977137190221548 -0.02071472019347519
 -0.0002557607761260462 -0.0026563473347412537 0.0002880252216026449 0.004217283350881007 0.9977137190221548 -0.02071472019347519 0.0020232797793229146 0.00842271322439114
0.050020842017509996 0.002184720477089856 0.009685807261437572 0.9975027471603304 -0.023714036226637515 0.00033998521802611285 0.00482340387989339 -0.0003016068224186618 -0.0030406443873870763
 0.9975027471603304 -0.023714036226637515 0.0021843401964450064 0.00968585529116964 -0.0003015958296719316 -0.003040643469290115 0.00034167160918518135 0.004823223306322134
 0.00033998521802611285 0.00482340387989339 -0.0003015958296719316 -0.003040643469290115 0.002184738891425098 0.00968513866428866 0.9975027353339166 -0.023714704971399218
 -0.0003016068224186618 -0.0030406443873870763 0.00034167160918518135 0.004823223306322134 0.9975027353339166 -0.023714704971399218 0.002184299409568692 0.009685194336933153
0.055454545454549996 0.0023316930782629882 0.010793885884332818 0.9973099740360395 -0.02633010095035934 0.00039011820008279474 0.005350684159873343 -0.00034470546885437584 -0.0033754218356359653
 0.9973099740360395 -0.02633010095035934 0.0023312260288109853 0.010793943064547364 -0.0003446920225371896 -0.003375420889492128 0.00039219096736641825 0.0053504637503005905
 0.00039011820008279474 0.005350684159873343 -0.0003446920225371896 -0.003375420889492128 0.0023317160861736318 0.010793145213130557 0.9973099597486235 -0.026330842482631036
 -0.00034470546885437584 -0.0033754218356359653 0.00039219096736641825 0.0053504637503005905 0.9973099597486235 -0.026330842482631036 0.002331176161990193 0.010793211502975512
0.056273447269699996 0.0023544114422885203 0.01096175055205723 0.9972801545647992 -0.026725095016098516 0.00039798681871279495 0.0054302013859850295 -0.00035146572923836227 -0.003425938538532357
 0.9972801545647992 -0.026725095016098516 0.0023539305480581264 0.010961809186866789 -0.0003514518925426411 -0.003425937589596641 0.0004001212839466237 0.005429974535540513
 0.00039798681871279495 0.0054302013859850295 -0.0003514518925426411 -0.003425937589596641 0.0023544351884029 0.010960999031728627 0.9972801398857748 -0.026725847524631405
 -0.00035146572923836227 -0.003425938538532357 0.0004001212839466237 0.005429974535540513 0.9972801398857748 -0.026725847524631405 0.0023538792336638306 0.010961067011262215
0.06252605252188 0.0025328476744179746 0.01225088664138133 0.9970457867368053 -0.029747349529989524 0.00046079033653638793 0.006037776490601171 -0.00040539064908383393 -0.0038121764023275185
 0.9970457867368053 -0.029747349529989524 0.0025322544452188894 0.01225095705163465 -0.00040537365511650905 -0.0038121754448788947 0.00046342587158070176 0.0060374965012598225
 0.00046079033653638793 0.006037776490601171 -0.00040537365511650905 -0.0038121754448788947 0.0025328774602570614 0.01225005240000341 0.9970457688892804 -0.029748185914270683
 -0.00040539064908383393 -0.0038121764023275185 0.00046342587158070176 0.0060374965012598225 0.9970457688892804 -0.029748185914270683 0.0025321913973751814 0.012250134077858469
0.06877865777407 0.0027202009317561847 0.013553039801021727 0.996799479121819 -0.03278081181334715 0.0005284469757187405 0.006646086372499873 -0.0004634342526242528 -0.004199304985105696
 0.996799479121819 -0.03278081181334715 0.002719483664744967 0.013553123201711507 -0.0004634137915023558 -0.00419930404249675 0.0005316366733589515 0.0066457458898095765
 0.0005284469757187405 0.006646086372499873 -0.0004634137915023558 -0.00419930404249675 0.0027202374757807663 0.013552123065222656 0.9967994577849074 -0.032781732200531974
 -0.0004634342526242528 -0.004199304985105696 0.0005316366733589515 0.0066457458898095765 0.9967994577849074 -0.032781732200531974 0.0027194076781647757 0.013552219894758495
0.07503126302626001 0.0029166426924576096 0.014868049276713148 0.9965410665556926 -0.03582547441919801 0.00060100757384291 0.007255085871635651 -0.0005256487200060808 -0.004587271243827746
 0.9965410665556926 -0.03582547441919801 0.0029157897022332583 0.014868146927570412 -0.0005256244851739134 -0.004587270340409801 0.0006048046236961054 0.0072546770431557595
 0.00060100757384291 0.007255085871635651 -0.0005256244851739134 -0.004587270340409801 0.0029166867256837587 0.014867050292463905 0.9965410414041149 -0.03582647895678568
 -0.0005256487200060808 -0.004587271243827746 0.0006048046236961054 0.0072546770431557595 0.9965410414041149 -0.03582647895678568 0.002915699574462745 0.014867163789410385
0.08128386827845 0.00312234420444902 0.016195764923828435 0.9962703833894538 -0.038881314729634 0.0006785225647066186 0.007864727778602717 -0.000592085727088928 -0.004976021788064933
 0.9962703833894538 -0.038881314729634 0.003121343822497282 0.01619587812952081 -0.0005920574152463035 -0.004976020949157912 0.0006829802523769022 0.007864242248304006
 0.0006785225647066186 0.007864727778602717 -0.0005920574152463035 -0.004976020949157912 0.003122396469593159 0.016194683960045426 0.9962703540923973 -0.03888240358202309
 -0.000592085727088928 -0.004976021788064933 0.0006829802523769022 0.007864242248304006 0.9962703540923973 -0.03888240358202309 0.0031212383531726423 0.01619481570290508
0.08753647353064001 0.003337476511098964 0.017536044187307885 0.9959872635913783 -0.04194829793343134 0.0007610419441602873 0.00847496302717809 -0.0006627964282091134 -0.005365502679818279
 0.9959872635913783 -0.04194829793343134 0.0033363170848271307 0.01753617429758122 -0.000662763739242686 -0.005365501931681821 0.0007662136492387553 0.00847439192985789
 0.0007610419441602873 0.00847496302717809 -0.000662763739242686 -0.005365501931681821 0.0033375377640492473 0.017534881534560412 0.995987229812512 -0.04194947128319258
 -0.0006627964282091134 -0.005365502679818279 0.0007662136492387553 0.00847439192985789 0.995987229812512 -0.04194947128319258 0.0033361950771758067 0.017535033165069828
0.09378907878283 0.0035622104606160515 0.018888749948422788 0.9956915408333806 -0.04502637913762061 0.0008486152371809417 0.009085740832867895 -0.0007378314365570757 -0.0057556592883604134
 0.9956915408333806 -0.04502637913762061 0.0035608803524351416 0.01888889835828418 -0.0007377940734284319 -0.005755658658165917 0.0008545544309184265 0.009085074788572583
 0.0008486152371809417 0.009085740832867895 -0.0007377940734284319 -0.005755658658165917 0.0035622814697642154 0.018887505922659156 0.9956915022297711 -0.04502763718181012
 -0.0007378314365570757 -0.0057556592883604134 0.0008545544309184265 0.009085074788572583 0.9956915022297711 -0.04502763718181012 0.003560740613215196 0.018887679146237967
0.100041684035 0.0037967167019092186 0.02025374894068411 0.9953830485671076 -0.048115504911186775 0.0009412914660472361 0.009697008797671464 -0.0008172408028076418 -0.006146436179923872
 0.9953830485671076 -0.048115504911186775 0.003795204288747383 0.02025391709060882 -0.0008171984715292561 -0.006146435695718262 0.0009480517083770653 0.009696237906111162
 0.0009412914660472361 0.009697008797671464 -0.0008171984715292561 -0.006146435695718262 0.0037967982496022526 0.0202524238773526 0.9953830047894319 -0.048116847867196486
 -0.0008172408028076418 -0.006146436179923872 0.0009480517083770653 0.009696237906111162 0.9953830047894319 -0.048116847867196486 0.003795045629506129 0.020252620463590703
0.1059090909091 0.004025815557908304 0.02154571990295103 0.9950817990761547 -0.051024312640552155 0.0010329425413271888 0.010271016716736189 -0.0008957805716331924 -0.00651365283426623
 0.9950817990761547 -0.051024312640552155 0.004024121511754733 0.021545907927618204 -0.0008957333135252967 -0.006513652513323783 0.0010405220388962117 0.010270137964553764
 0.0010329425413271888 0.010271016716736189 -0.0008957333135252967 -0.006513652513323783 0.004025907718427733 0.02154431912095921 0.9950817501189342 -0.05102573548910549
 -0.0008957805716331924 -0.00651365283426623 0.0010405220388962117 0.010270137964553764 0.9950817501189342 -0.05102573548910549 0.004023944021519527 0.021544539297617175
0.1062942892872 0.0040411656747296855 0.021630910555963105 0.9950616200934228 -0.05121561443932651 0.0010391191194795324 0.01030871298315085 -0.0009010739919933135 -0.006537777040173104
 0.9950616200934228 -0.05121561443932651 0.004039459346964305 0.02163109993210215 -0.0009010264015291521 -0.006537776730856283 0.0010467540556947322 0.01030782681815481
 0.0010391191194795324 0.01030871298315085 -0.0009010264015291521 -0.006537776730856283 0.004041258556767295 0.02162950481568672 0.9950615707849776 -0.05121704253925319
 -0.0009010739919933135 -0.006537777040173104 0.0010467540556947322 0.01030782681815481 0.9950615707849776 -0.05121704253925319 0.00403928058410866 0.021629726598840687
0.11254689453939999 0.0042957275901894685 0.023020105931505917 0.9947270886258257 -0.054326640398297626 0.0011421461216440617 0.010920797971087982 -0.000989379859777711 -0.006929624610222207
 0.9947270886258257 -0.054326640398297626 0.0042938157510837936 0.023020318065925922 -0.000989326722019356 -0.006929624505515805 0.0011507094786281534 0.010919785575071523
 0.0011421461216440617 0.010920797971087982 -0.000989326722019356 -0.006929624505515805 0.004295832616942493 0.023018619895055624 0.9947270334222476 -0.05432815389385355
 -0.000989379859777711 -0.006929624610222207 0.0011507094786281534 0.010919785575071523 0.9947270334222476 -0.05432815389385355 0.004293615706887273 0.023018868774574847
0.11879949979160001 0.004560572408097243 0.02442120723536152 0.9943792873505315 -0.05744850963287033 0.001250419802160568 0.01153320690570899 -0.0010822066270101938 -0.007321920642309752
 0.9943792873505315 -0.05744850963287033 0.004558443473148283 0.024421443706292248 -0.0010821476567110704 -0.007321920772730272 0.001259965384357498 0.011532056784207927
 0.001250419802160568 0.01153320690570899 -0.0010821476567110704 -0.007321920772730272 0.004560690404903695 0.02441964130818959 0.994379225879482 -0.05745010879086764
 -0.0010822066270101938 -0.007321920642309752 0.001259965384357498 0.011532056784207927 0.994379225879482 -0.05745010879086764 0.004558220976528842 0.02441991924919808
0.1250521050438 0.004835869810037258 0.02583408709977933 0.9940180494843635 -0.06058114368712452 0.0013639868656684184 0.012145881531572806 -0.001179601854127985 -0.007714605860989105
 0.9940180494843635 -0.06058114368712452 0.004833512205805214 0.02583434953190489 -0.0011795367688136461 -0.0077146062578219024 0.001374568550639862 0.012144581647731044
 0.0013639868656684184 0.012145881531572806 -0.0011795367688136461 -0.0077146062578219024 0.004836001617107422 0.0258324417070017 0.9940179813644081 -0.06058282879437874
 -0.001179601854127985 -0.007714605860989105 0.001374568550639862 0.012144581647731044 0.9940179813644081 -0.06058282879437874 0.004833266092722896 0.025832750740883974
0.131304710296 0.005121789167922384 0.02725861816571452 0.9936432083295734 -0.06372445922555012 0.0014828933615331332 0.012758762223369007 -0.001281612414554324 -0.00810761993363509
 0.9936432083295734 -0.06372445922555012 0.00511919133194874 0.0272589082304504 -0.0012815409345503159 -0.008107620628900735 0.0014945650953940822 0.01275729999258642
 0.0014828933615331332 0.012758762223369007 -0.0012815409345503159 -0.008107620628900735 0.005121935641561647 0.027256893758354016 0.9936431331705045 -0.06372623058252298
 -0.001281612414554324 -0.00810761993363509 0.0014945650953940822 0.01275729999258642 0.9936431331705045 -0.06372623058252298 0.0051189204462751305 0.027257235983310826
0.1375573155481 0.005344379653463758 0.028507688486931287 0.993328734080605 -0.06669133454394248 0.001589663521699104 0.013352064168878098 -0.0013707536285953701 -0.008481192989184674
 0.993328734080605 -0.06669133454394248 0.0053415286430964935 0.02850799956413064 -0.0013706752068334024 -0.008481193963598078 0.001602457057631015 0.013350444271589382
 0.001589663521699104 0.013352064168878098 -0.0013706752068334024 -0.008481193963598078 0.005344540925989853 0.028505885684745623 0.9933286515665124 -0.06669319234110646
 -0.0013707536285953701 -0.008481192989184674 0.001602457057631015 0.013350444271589382 0.9933286515665124 -0.06669319234110646 0.00534123242402851 0.028506254397910324
0.1438099208003 0.0055744710548598034 0.029751506101533223 0.9930037859434121 -0.06965205026569875 0.0017007339351730263 0.013943819436242936 -0.0014634709038249323 -0.00885334452850517
 0.9930037859434121 -0.06965205026569875 0.005571355095850988 0.02975183921738939 -0.0014633852164114651 -0.00885334581406293 0.001714699287293035 0.013942030571107246
 0.0017007339351730263 0.013943819436242936 -0.0014633852164114651 -0.00885334581406293 0.005574647874071892 0.029749625408561194 0.9930036956855679 -0.06965399480246766
 -0.0014634709038249323 -0.00885334452850517 0.001714699287293035 0.013942030571107246 0.9930036956855679 -0.06965399480246766 0.005571032506939788 0.029750022020532944
0.1500625260525 0.0058119980396075105 0.030990006983121883 0.9926684317271994 -0.07260657375198608 0.0018160754406376057 0.014533995872486072 -0.001559735752509264 -0.00922404270688077
 0.9926684317271994 -0.07260657375198608 0.005808605355101274 0.030990363213041983 -0.0015596424749795648 -0.009224044336894955 0.0018312624287769618 0.014532026327887637
 0.0018160754406376057 0.014533995872486072 -0.0015596424749795648 -0.009224044336894955 0.005812191160011056 0.030988048921972086 0.9926683333289563 -0.07260860534299418
 -0.001559735752509264 -0.00922404270688077 0.0018312624287769618 0.014532026327887637 0.9926683333289563 -0.07260860534299418 0.005808255374769034 0.03098847490647938
0.15631513130469998 0.006056894986476096 0.03222312930125063 0.9923227393914408 -0.07555487175174459 0.0019356586409733515 0.015122561722897675 -0.0016595194356180864 -0.009593256264972436
