! Created with skrf 1.8.0 (http://scikit-rf.org).
# GHz S RI R 50.0 
!freq ReS11 ImS11 ReS12 ImS12 ReS13 ImS13
! ReS14 ImS14
! ReS21 ImS21 ReS22 ImS22 ReS23 ImS23
! ReS24 ImS24
! ReS31 ImS31 ReS32 ImS32 ReS33 ImS33
! ReS34 ImS34
! ReS41 ImS41 ReS42 ImS42 ReS43 ImS43
! ReS44 ImS44
!
0.0 0.001756582176968 0.0 0.9982434177975 0.0 6.817686837454e-05 0.0 -6.817686798575e-05 8.34925831546404e-21
 0.9982434177975 0.0 0.001756582176947 0.0 -6.817686798512e-05 8.349258315386886e-21 6.817686837346e-05 0.0
 6.817686837454e-05 0.0 -6.817686798512e-05 8.349258315386886e-21 0.001756582189729 0.0 0.9982434178103 0.0
 -6.817686798575e-05 8.34925831546404e-21 6.817686837346e-05 0.0 0.9982434178103 0.0 0.001756582189744 0.0
0.005 0.0018906584251777504 0.0014351198868836907 0.99807368440831 -0.0036789235443239745 9.605683164986554e-05 0.0007586683603460278 -9.324451397114213e-05 -0.0004747537641817748
 0.99807368440831 -0.0036789235443239745 0.0018906474453119983 0.0014351262079025048 -9.32457005318291e-05 -0.0004747545803089047 9.613608569098102e-05 0.0007586383430462821
 9.605683164986554e-05 0.0007586683603460278 -9.32457005318291e-05 -0.0004747545803089047 0.0018906586634388684 0.001435186977565243 0.9980736847804389 -0.0036788564719557044
 -9.324451397114213e-05 -0.0004747537641817748 9.613608569098102e-05 0.0007586383430462821 0.9980736847804389 -0.0036788564719557044 0.0018906479535619445 0.0014351932675484187
0.006252605252188 0.0019260339291169598 0.0017995218114914603 0.9980285891084263 -0.004599521013112711 0.00010411943800076868 0.0009486870661477084 -0.0001004188260241329 -0.000594044897427448
 0.9980285891084263 -0.004599521013112711 0.0019260167656592177 0.001799529779957581 -0.00010042067314032876 -0.0005940459013103819 0.00010424326601367826 0.0009486480349719961
 0.00010411943800076868 0.0009486870661477084 -0.00010042067314032876 -0.0005940459013103819 0.0019260342313164695 0.0017996056497125686 0.9980285896192223 -0.004599437192073546
 -0.0001004188260241329 -0.000594044897427448 0.00010424326601367826 0.0009486480349719961 0.9980285896192223 -0.004599437192073546 0.0019260174888984776 0.00179961359536066
0.01250521050438 0.0021134880111074563 0.003636470524962488 0.9977879209242428 -0.009199605333295358 0.00015087211682960909 0.0018976245985475623 -0.0001416440084495486 -0.00119083608270393
 0.9977879209242428 -0.009199605333295358 0.002113419482700776 0.003636487123554836 -0.00014165129666257744 -0.0011908379088041705 0.00015136595755478455 0.0018975301310360222
 0.00015087211682960909 0.0018976245985475623 -0.00014165129666257744 -0.0011908379088041705 0.0021134886692955566 0.0036366378848241994 0.9977879224046715 -0.009199437963977772
 -0.0001416440084495486 -0.00119083608270393 0.00015136595755478455 0.0018975301310360222 0.9977879224046715 -0.009199437963977772 0.0021134218033353495 0.0036366546006276856
0.01875781575657 0.0023193970427668673 0.005499230567664426 0.9975210833545121 -0.013811398154130421 0.00020855080963920057 0.0028474240033249977 -0.00019198841175570942 -0.001789471422363778
 0.9975210833545121 -0.013811398154130421 0.002319243066992847 0.005499256493643989 -0.00019200467669482874 -0.0017894738458251599 0.00020966026656318466 0.0028472541965751147
 0.00020855080963920057 0.0028474240033249977 -0.00019200467669482874 -0.0017894738458251599 0.002319398120198549 0.0054994813160802606 0.9975210862568635 -0.013811147359113794
 -0.00019198841175570942 -0.001789471422363778 0.00020966026656318466 0.0028472541965751147 0.9975210862568635 -0.013811147359113794 0.0023192478428030686 0.005499507669545143
0.02501042100875 0.0025441976150352465 0.007385136776802148 0.9972277323725217 -0.018437078703726285 0.00027727220729371275 0.003798093003300316 -0.0002515826078653567 -0.002389643895155721
 0.9972277323725217 -0.018437078703726285 0.0025439241778295115 0.007385172747396326 -0.00025161134621222865 -0.0023896466446831077 0.0002792430167806887 0.0037978245498895068
 0.00027727220729371275 0.003798093003300316 -0.00025161134621222865 -0.0023896466446831077 0.0025441991852775563 0.007385470828323527 0.9972277371448222 -0.018436744590513178
 -0.0002515826078653567 -0.002389643895155721 0.0002792430167806887 0.0037978245498895068 0.9972277371448222 -0.018436744590513178 0.0025439322553194857 0.007385507715386772
0.03126302626094 0.0027883081637404624 0.009292789213711359 0.9969075081088147 -0.023077545411149238 0.00035715274015441477 0.004749550083231018 -0.00032055278218391827 -0.002991127258821602
 0.9969075081088147 -0.023077545411149238 0.0027878812958572114 0.009292835962174855 -0.00032059745804668385 -0.0029911300162036893 0.0003602309853900919 0.004749156247267149
 0.00035715274015441477 0.004749550083231018 -0.00032059745804668385 -0.0029911300162036893 0.002788310314454011 0.009293206517415846 0.9969075151982826 -0.023077128084790868
 -0.00032055278218391827 -0.002991127258821602 0.0003602309853900919 0.004749156247267149 0.9969075151982826 -0.023077128084790868 0.0027878935154058183 0.00929325485916744
0.037515631513130004 0.0030521374864294214 0.011221253599803123 0.9965600437462634 -0.027733215412967523 0.00044830748480218803 0.005701677946178512 -0.00039902162878764825 -0.003593722635713577
 0.9965600437462634 -0.027733215412967523 0.003051523245629168 0.011221311873386855 -0.0003990856767335774 -0.003593725035653465 0.00045273968611166473 0.005701128527228959
 0.00044830748480218803 0.005701677946178512 -0.0003990856767335774 -0.003593725035653465 0.003052140314657872 0.011221754134513172 0.9965600535942649 -0.027732714980589237
 -0.00039902162878764825 -0.003593722635713577 0.00045273968611166473 0.005701128527228959 0.9965600535942649 -0.027732714980589237 0.003051540438443204 0.011221814875285651
0.043768236765320004 0.0033360880084269463 0.013169817967908736 0.9961849691637945 -0.03240426783383107 0.0005508496235312118 0.006654339785224144 -0.0004871086549226831 -0.004197242278368305
 0.9961849691637945 -0.03240426783383107 0.00333525246464702 0.013169888526417895 -0.00048719548169492147 -0.004197243908372075 0.0005568827754271253 0.006653601078506887
 0.0005508496235312118 0.006654339785224144 -0.00048719548169492147 -0.004197243908372075 0.003336091624603134 0.013170401738698842 0.9961849822095804 -0.03240368440786257
 -0.0004871086549226831 -0.004197242278368305 0.0005568827754271253 0.006653601078506887 0.9961849822095804 -0.03240368440786257 0.003335275457635081 0.013170475844945103
0.050020842017509996 0.003640557287823484 0.015137892120547837 0.995781912822243 -0.037090744259949064 0.0006648901065455454 0.007607386008879205 -0.000584930267608799 -0.00480150288445003
 0.995781912822243 -0.037090744259949064 0.003639466508988526 0.01513797573570093 -0.0005850432529819786 -0.004801503284764969 0.0006727716868317121 0.007606420763976842
 0.0006648901065455454 0.007607386008879205 -0.0005850432529819786 -0.004801503284764969 0.0036405618129808676 0.015138559149949559 0.9957819295000783 -0.03709007796664124
 -0.000584930267608799 -0.00480150288445003 0.0006727716868317121 0.007606420763976842 0.9957819295000783 -0.03709007796664124 0.003639496124063432 0.01513864760961078
0.055454545454549996 0.00392211971574657 0.016863649117992634 0.9954086312509925 -0.04117592588560026 0.0007734171077948838 0.008435800893534405 -0.0006779339632433071 -0.005327083966741787
 0.9954086312509925 -0.04117592588560026 0.003920779561886328 0.016863744715446206 -0.0006780724055321449 -0.005327082888300608 0.0007831063798340298 0.008434605742995718
 0.0007734171077948838 0.008435800893534405 -0.0006780724055321449 -0.005327082888300608 0.003922125138857377 0.01686438853964292 0.9954086514347682 -0.041175187685035856
 -0.0006779339632433071 -0.005327083966741787 0.0007831063798340298 0.008434605742995718 0.9954086514347682 -0.041175187685035856 0.0039208155970455695 0.0168644902917518
0.056273447269699996 0.003965938758457177 0.017124958273293998 0.9953505028943251 -0.041792598031644236 0.0007905373973984166 0.008560657563022137 -0.0006925997691288864 -0.005406322320939669
 0.9953505028943251 -0.041792598031644236 0.00396455879788246 0.01712505572834595 -0.0006927422665090368 -0.005406320984503031 0.0008005153588280163 0.008559424942045781
 0.0007905373973984166 0.008560657563022137 -0.0006927422665090368 -0.005406320984503031 0.003965944326110816 0.01712570860870795 0.9953505236343755 -0.04179184900347109
 -0.0006925997691288864 -0.005406322320939669 0.0008005153588280163 0.008559424942045781 0.9953505236343755 -0.04179184900347109 0.003964595854073854 0.017125812431051237
0.06252605252188 0.00431262211108999 0.019130543935958172 0.9948903680362121 -0.04650972130474681 0.0009278972646535356 0.00951398775663391 -0.0008102273011459728 -0.006011517851569452
 0.9948903680362121 -0.04650972130474681 0.004310918994441073 0.019130656025883666 -0.0008104026377835274 -0.006011514223970875 0.0009402200152364401 0.009512443292315665
 0.0009278972646535356 0.00951398775663391 -0.0008104026377835274 -0.006011514223970875 0.004312628866369631 0.019131377644811372 0.9948903932636288 -0.04650888968489324
 -0.0008102273011459728 -0.006011517851569452 0.0009402200152364401 0.009512443292315665 0.9948903932636288 -0.04650888968489324 0.004310964308415595 0.01913149786066806
0.06877865777407 0.004680993466742648 0.021154205738577164 0.9944011379580437 -0.051241961174991774 0.0010770725957824309 0.010467203372355844 -0.0009379197629026091 -0.006616905087277366
 0.9944011379580437 -0.051241961174991774 0.004678933179627692 0.021154333270650773 -0.0009381312399375618 -0.006616898566739483 0.001091988970978466 0.0104652989262732
 0.0010770725957824309 0.010467203372355844 -0.0009381312399375618 -0.006616898566739483 0.004681001567456199 0.021155122906110792 0.9944011680930637 -0.05124104711931307
 -0.0009379197629026091 -0.006616905087277366 0.001091988970978466 0.0104652989262732 0.9944011680930637 -0.05124104711931307 0.0046789875677440565 0.021155260568542885
0.07503126302626001 0.0050714354329421925 0.023195519196267507 0.9938824438809686 -0.05598912987246455 0.0012381632260010426 0.01142012538146877 -0.0010757807119465184 -0.007222297340555355
 0.9938824438809686 -0.05598912987246455 0.005068983908135917 0.023195662991074045 -0.0010760316043246835 -0.007222287277917706 0.001255922454374933 0.011417809102628854
 0.0012381632260010426 0.01142012538146877 -0.0010760316043246835 -0.007222287277917706 0.005071445048573355 0.02319651993264546 0.9938824793380798 -0.055988133542103684
 -0.0010757807119465184 -0.007222297340555355 0.001255922454374933 0.011417809102628854 0.9938824793380798 -0.055988133542103684 0.005069048186400359 0.023196676117961168
0.08128386827845 0.005484327080915727 0.0252540719042822 0.9933339189216965 -0.06075101153539009 0.0014112657762241853 0.012372569431840058 -0.0012239102532644393 -0.007827505215544033
 0.9933339189216965 -0.06075101153539009 0.00548145018571235 0.02525423279719468 -0.001224203809481628 -0.007827490914272806 0.0014321174406952454 0.012369785715735084
 0.0014112657762241853 0.012372569431840058 -0.001224203809481628 -0.007827490914272806 0.005484338393501058 0.02525515633291084 0.993333960109233 -0.060749933108091014
 -0.0012239102532644393 -0.007827505215544033 0.0014321174406952454 0.012369785715735084 0.993333960109233 -0.060749933108091014 0.0054815251721791036 0.025255332142202092
0.08753647353064001 0.005920043874994868 0.027329458831621592 0.9927551984322196 -0.06552736689541495 0.0015964734961747935 0.01332434620646145 -0.0013824049219529275 -0.008432336336537359
 0.9927551984322196 -0.06552736689541495 0.005916707399170476 0.027329637674694096 -0.0013827443638583597 -0.008432317052730827 0.0016206674908949177 0.013321035654707925
 0.0015964734961747935 0.01332434620646145 -0.0013827443638583597 -0.008432317052730827 0.005920057079181285 0.027330627097202374 0.9927552457523688 -0.06552620655722476
 -0.0013824049219529275 -0.008432336336537359 0.0016206674908949177 0.013321035654707925 0.9927552457523688 -0.06552620655722476 0.005916793914271174 0.027330823658208537
0.09378907878283 0.006378957565252068 0.029421278980485823 0.9921459203082601 -0.07031793660774299 0.0017938761125362013 0.014275261692021392 -0.0015513575595949554 -0.009036595175783955
 0.9921459203082601 -0.07031793660774299 0.006375127207786473 0.02942147664485023 -0.0015517460819906316 -0.009036570118204761 0.001821662596470273 0.014271361072634771
 0.0017938761125362013 0.014275261692021392 -0.0015517460819906316 -0.009036570118204761 0.00637897286808871 0.029422531246697088 0.9921459741562438 -0.07031669455487086
 -0.0015513575595949554 -0.009036595175783955 0.001821662596470273 0.014271361072634771 0.9921459741562438 -0.07031669455487086 0.0063752260755870925 0.029422749716197516
0.100041684035 0.006861436055204705 0.03152913293697663 0.9915057252763297 -0.07512244370069918 0.0020035596790383236 0.01522511739343047 -0.0017308571878676185 -0.00964008294474517
 0.9915057252763297 -0.07512244370069918 0.006857077411716105 0.03152935031571622 -0.0017312979581025991 -0.009640051274864742 0.0020351890266213707 0.01522055960183316
 0.0020035596790383236 0.01522511739343047 -0.0017312979581025991 -0.009640051274864742 0.006861453676672758 0.03153046938157505 0.9915057860402254 -0.0751211201441368
 -0.0017308571878676185 -0.00964008294474517 0.0020351890266213707 0.01522055960183316 0.9915057860402254 -0.0751211201441368 0.006857189461604324 0.03153071094814267
0.1059090909091 0.0073359470908812355 0.033521356876945546 0.9908765342387134 -0.07964337933603327 0.0022115681596656445 0.016115311768682306 -0.0019089667572178889 -0.010205510930800542
 0.9908765342387134 -0.07964337933603327 0.007331061313556434 0.03352159359025527 -0.001909459412363956 -0.010205472251264102 0.002247031486326957 0.016110072776590323
 0.0022115681596656445 0.016115311768682306 -0.001909459412363956 -0.010205472251264102 0.007335967099547759 0.03352277249430808 0.9908766018385895 -0.07964197949557329
 -0.0019089667572178889 -0.010205510930800542 0.002247031486326957 0.016110072776590323 0.9908766018385895 -0.07964197949557329 0.007331186492954529 0.0335230368471953
0.1062942892872 0.007367843251662257 0.033652621041409626 0.9908342571670237 -0.07994059541726889 0.0022256064295997175 0.016173710513937654 -0.0019209888787342568 -0.010242597529519996
 0.9908342571670237 -0.07994059541726889 0.007362921801869341 0.03365285905289234 -0.00192148503628625 -0.01024255836158737 0.0022613291788146543 0.016168424534798467
 0.0022256064295997175 0.016173710513937654 -0.00192148503628625 -0.01024255836158737 0.007367863424375632 0.03365404186282732 0.9908343252271008 -0.07993919057579496
 -0.0019209888787342568 -0.010242597529519996 0.0022613291788146543 0.016168424534798467 0.9908343252271008 -0.07993919057579496 0.0073630478690048405 0.03365430775008935
0.11254689453939999 0.007898538899575017 0.035791342002973084 0.9901311631765636 -0.08477208462373136 0.0024600946327386314 0.017120834109758083 -0.002121833623399042 -0.010843933461584541
 0.9901311631765636 -0.08477208462373136 0.007893019994164658 0.03579160159472531 -0.00212238827941108 -0.010843885862661733 0.002500161430762312 0.017114744979645786
 0.0024600946327386314 0.017120834109758083 -0.00212238827941108 -0.010843885862661733 0.007898561869370022 0.03579284741705367 0.9901312389052457 -0.08477059872675102
 -0.002121833623399042 -0.010843933461584541 0.002500161430762312 0.017114744979645786 0.9901312389052457 -0.08477059872675102 0.007893160921049988 0.035793138887506286
0.11879949979160001 0.008453878406670785 0.03794489183020177 0.9893960941212007 -0.08961659091444228 0.002707098447795779 0.018066277229733113 -0.0023334681998492565 -0.011443881913533604
 0.9893960941212007 -0.08961659091444228 0.008447727254201017 0.0379451739832741 -0.0023340844365765307 -0.01144382490362296 0.002751759994480457 0.018059306000693113
 0.002707098447795779 0.018066277229733113 -0.0023340844365765307 -0.01144382490362296 0.008453904432085858 0.03794648206702438 0.9893961778820585 -0.08961502420472219
 -0.0023334681998492565 -0.011443881913533604 0.002751759994480457 0.018059306000693113 0.9893961778820585 -0.08961502420472219 0.008447883891573275 0.03794680042621476
0.1250521050438 0.009034212658721258 0.040112862992300435 0.9886287046852875 -0.09447378149803469 0.002966687782604687 0.019009825044744796 -0.0025559650395989538 -0.012042230715194415
 0.9886287046852875 -0.09447378149803469 0.009027394313161805 0.04011316872616258 -0.002556645909911227 -0.012042163267342398 0.00301619477207792 0.019001888748854768
 0.002966687782604687 0.019009825044744796 -0.002556645909911227 -0.012042163267342398 0.009034242011672841 0.04011453830196135 0.9886287968330154 -0.09447213422547213
 -0.0025559650395989538 -0.012042230715194415 0.00301619477207792 0.019001888748854768 0.9886287968330154 -0.09447213422547213 0.009027567521194015 0.04011488490323116
0.131304710296 0.009639887828973813 0.042294843767452815 0.9878286536655685 -0.0993433119088279 0.003238928152503823 0.01995125896964482 -0.0027893920943599425 -0.012638764387515832
 0.9878286536655685 -0.0993433119088279 0.009632367175971691 0.04229517414543376 -0.0027901406211783626 -0.012638685427893735 0.003293531212822416 0.0199422705846001
 0.003238928152503823 0.01995125896964482 -0.0027901406211783626 -0.012638685427893735 0.009639920794638424 0.04229660441385614 0.987828754545403 -0.09934158433622753
 -0.0027893920943599425 -0.012638764387515832 0.003293531212822416 0.0199422705846001 0.987828754545403 -0.09934158433622753 0.00963255782545388 0.042296980663614925
0.1375573155481 0.010139767372051101 0.044206386954485866 0.987127150387326 -0.10394061934355951 0.00349136309757028 0.020862787576800705 -0.0030012351164682605 -0.013205768082406298
 0.987127150387326 -0.10394061934355951 0.010131505239418158 0.044206737463045015 -0.0030020555495097233 -0.01320567741048233 0.0035511813399761805 0.020852753422473145
 0.00349136309757028 0.020862787576800705 -0.0030020555495097233 -0.01320567741048233 0.010139803101229675 0.04420823382645332 0.9871272603766126 -0.1039388117133002
 -0.0030012351164682605 -0.013205768082406298 0.0035511813399761805 0.020852753422473145 0.9871272603766126 -0.1039388117133002 0.010131715290271747 0.04420863432916247
0.1438099208003 0.010657450138532292 0.04610648110540219 0.9864005467309112 -0.10852487491207792 0.0037539403748803623 0.021769826462389615 -0.0032214941895207143 -0.013768602583059742
 0.9864005467309112 -0.10852487491207792 0.010648410541612934 0.046106852735951095 -0.0032223897298041065 -0.013768499140700429 0.003819200631893594 0.021758666379398932
 0.0037539403748803623 0.021769826462389615 -0.0032223897298041065 -0.013768499140700429 0.01065748873179649 0.046108414572245196 0.9864006661662275 -0.10852298750005321
 -0.0032214941895207143 -0.013768602583059742 0.003819200631893594 0.021758666379398932 0.9864006661662275 -0.10852298750005321 0.010648641080251044 0.04610884053097514
0.1500625260525 0.011192732624928804 0.04799492637708599 0.9856490512712319 -0.11309592287256563 0.004026555338655788 0.022672257538750986 -0.003450066488367144 -0.014327155400977388
 0.9856490512712319 -0.11309592287256563 0.01118287939313447 0.047995320237351306 -0.0034510403229970703 -0.014327038088362451 0.004097482871267194 0.022659888433581472
 0.004026555338655788 0.022672257538750986 -0.0034510403229970703 -0.014327038088362451 0.011192774182794147 0.04799694682803398 0.9856491804802388 -0.1130939559631768
 -0.003450066488367144 -0.014327155400977388 0.004097482871267194 0.022659888433581472 0.9856491804802388 -0.1130939559631768 0.01118313153021859 0.04799739956363102
0.15631513130469998 0.011745409623909775 0.04987152888117655 0.9848728739316356 -0.11765360897938552 0.004309101959606332 0.023569965054916427 -0.00368684778350543 -0.014881316693888228
 0.9848728739316356 -0.11765360897938552 0.011734706396282654 0.049871946202366714 -0.003687903085319083 -0.014881184369917167 0.004385920431650624 0.023556300933187543
