! Created with skrf 1.8.0 (http://scikit-rf.org).
# GHz S RI R 50.0 
!freq ReS11 ImS11 ReS12 ImS12 ReS13 ImS13
! ReS14 ImS14
! ReS21 ImS21 ReS22 ImS22 ReS23 ImS23
! ReS24 ImS24
! ReS31 ImS31 ReS32 ImS32 ReS33 ImS33
! ReS34 ImS34
! ReS41 ImS41 ReS42 ImS42 ReS43 ImS43
! ReS44 ImS44
!
0.0 0.001725149376134 0.0 0.9982748506112 0.0 6.712533173601e-05 0.0 -6.712533219053e-05 8.220482320883536e-21
 0.9982748506112 0.0 0.001725149376158 0.0 -6.7125332191e-05 8.220482320941094e-21 6.712533173517e-05 0.0
 6.712533173601e-05 0.0 -6.7125332191e-05 8.220482320941094e-21 0.001725149382449 0.0 0.9982748506175 0.0
 -6.712533219053e-05 8.220482320883536e-21 6.712533173517e-05 0.0 0.9982748506175 0.0 0.001725149382451 0.0
0.005 0.0018567668466337108 0.0014055355465571319 0.9981082193616478 -0.0036134247572219866 9.520230824578457e-05 0.0007710007738326182 -9.22149977668968e-05 -0.00047834601400364003
 0.9981082193616478 -0.0036134247572219866 0.0018567719885981798 0.0014055324593296992 -9.221373552808076e-05 -0.0004783449898404383 9.517107241630353e-05 0.0007710125872180383
 9.520230824578457e-05 0.0007710007738326182 -9.221373552808076e-05 -0.0004783449898404383 0.0018567681329345663 0.0014056020162224161 0.998108219731202 -0.003613357702712943
 -9.22149977668968e-05 -0.00047834601400364003 9.517107241630353e-05 0.0007710125872180383 0.998108219731202 -0.003613357702712943 0.001856771441090005 0.0014056001005499261
0.006252605252188 0.0018914629459741835 0.0017624480404304212 0.9980639859576989 -0.00451763850632004 0.00010332698115800377 0.0009640978424543713 -9.938785900248212e-05 -0.0005985470098555289
 0.9980639859576989 -0.00451763850632004 0.001891470984750397 0.0017624441518285297 -9.93858952654581e-05 -0.0005985457461834188 0.00010327817733755249 0.0009641132061352995
 0.00010332698115800377 0.0009640978424543713 -9.93858952654581e-05 -0.0005985457461834188 0.0018914648871246368 0.001762531123569901 0.9980639864654991 -0.004517554686450801
 -9.938785900248212e-05 -0.0005985470098555289 0.00010327817733755249 0.0009641132061352995 0.9980639864654991 -0.004517554686450801 0.00189147005870909 0.0017625287119819692
0.01250521050438 0.002075139864839226 0.003561742320600687 0.9978281321102941 -0.00903590158403452 0.0001504647410853223 0.001928372042141693 -0.00014056369364623817 -0.0011999028879782722
 0.9978281321102941 -0.00903590158403452 0.0020751719788942367 0.0035617342424748228 -0.00014055596026429085 -0.0011999005428289182 0.00015027009486503798 0.0019284092439864756
 0.0001504647410853223 0.001928372042141693 -0.00014055596026429085 -0.0011999005428289182 0.0020751470651628906 0.0035619081701476485 0.9978281335797575 -0.009035734197625774
 -0.00014056369364623817 -0.0011999028879782722 0.00015027009486503798 0.0019284092439864756 0.9978281335797575 -0.009035734197625774 0.002075167715110275 0.0035619031927464203
0.01875781575657 0.0022766183646369103 0.005386474881104697 0.9975669697486411 -0.013565747129103033 0.00020865283446650561 0.002893472085635476 -0.00019078810396613963 -0.0018031297461114748
 0.9975669697486411 -0.013565747129103033 0.002276690554663938 0.005386462272278322 -0.0001907708660531232 -0.0018031265384605283 0.00020821551987529354 0.002893538952856391
 0.00020865283446650561 0.002893472085635476 -0.0001907708660531232 -0.0018031265384605283 0.002276634135643699 0.005386723293482206 0.9975669726273015 -0.013565496295746528
 -0.00019078810396613963 -0.0018031297461114748 0.00020821551987529354 0.002893538952856391 0.9975669726273015 -0.013565496295746528 0.0022766805366241025 0.005386715615953702
0.02501042100875 0.0024963214199612764 0.007234033200632982 0.9972801660229916 -0.018109322747835527 0.00027800692580106783 0.003859413659056333 -0.00025019092112372787 -0.0024079151594254946
 0.9972801660229916 -0.018109322747835527 0.002496449673488914 0.007234015687480864 -0.0002501604911172946 -0.0024079113488933604 0.00027723005123791083 0.0038595193359930897
 0.00027800692580106783 0.003859413659056333 -0.0002501604911172946 -0.0024079113488933604 0.002496349077393869 0.0072343639996804215 0.9972801707601011 -0.018108988539930062
 -0.00025019092112372787 -0.0024079151594254946 0.00027723005123791083 0.0038595193359930897 0.9972801707601011 -0.018108988539930062 0.0024964314842934 0.0072343535134222585
0.03126302626094 0.0027346544003162576 0.00910304829835825 0.9969673725849302 -0.02266751764211165 0.00035864269671437895 0.004826118975834294 -0.00031889760233061275 -0.0030140318666732483
 0.9969673725849302 -0.02266751764211165 0.002734854701419351 0.009103025476111193 -0.00031885033202156614 -0.003014027753943477 0.00035742922263618595 0.004826273933222343
 0.00035864269671437895 0.004826118975834294 -0.00031885033202156614 -0.003014027753943477 0.00273469725845787 0.00910346129179082 0.9969673796243044 -0.022667100128051624
 -0.00031889760233061275 -0.0030140318666732483 0.00035742922263618595 0.004826273933222343 0.9969673796243044 -0.022667100128051624 0.002734825916644328 0.009103447915529602
0.037515631513130004 0.0029920133631371423 0.01099260897513634 0.996628234233 -0.02724074831228085 0.00045067463614450223 0.00579347291904114 -0.0003970301614420749 -0.0036212816576134087
 0.996628234233 -0.02724074831228085 0.0029923016990785504 0.010992580408337446 -0.00039696243784468314 -0.0036212775844977215 0.00044892734106327133 0.005793688967990425
 0.00045067463614450223 0.00579347291904114 -0.00039696243784468314 -0.0036212775844977215 0.002992074740686546 0.010993103954466251 0.996628244019042 -0.027240247556043734
 -0.0003970301614420749 -0.0036212816576134087 0.00044892734106327133 0.005793688967990425 0.996628244019042 -0.027240247556043734 0.0029922598925968906 0.010993087635512697
0.043768236765320004 0.0032687882543931787 0.012902022732628821 0.9962623924685704 -0.031829197571647684 0.0005542154550408307 0.006761340136643077 -0.0004847074880511155 -0.0042294783089052174
 0.9962623924685704 -0.031829197571647684 0.003269180620981475 0.012901987955265681 -0.00048461573092209204 -0.004229474658351129 0.00055183692236425 0.006761630443947949
 0.0005542154550408307 0.006761340136643077 -0.00048461573092209204 -0.004229474658351129 0.003268871472499108 0.012902599468475814 0.996262405444105 -0.03182861363691058
 -0.0004847074880511155 -0.0042294783089052174 0.00055183692236425 0.006761630443947949 0.996262405444105 -0.03182861363691058 0.003269123363574871 0.012902580183485876
0.050020842017509996 0.0035653643756815663 0.014830716938813803 0.9958694873221251 -0.03643291331389937 0.0006693757247762443 0.007729572103163288 -0.000582045445860312 -0.004838440558211759
 0.9958694873221251 -0.03643291331389937 0.0035658767819229326 0.01483067545417728 -0.0005819261061156396 -0.0048384377542620175 0.0006662683405907733 0.0077299512071533506
 0.0006693757247762443 0.007729572103163288 -0.0005819261061156396 -0.0048384377542620175 0.0035654727583780237 0.014831375183993719 0.9958695039288905 -0.03643224626040238
 -0.000582045445860312 -0.004838440558211759 0.0006662683405907733 0.0077299512071533506 0.9958695039288905 -0.03643224626040238 0.0035658016422075254 0.014831352939683493
0.055454545454549996 0.0038394753311615623 0.016522078184165172 0.9955057822035873 -0.04044605168623425 0.0007789739761374047 0.008571168565309295 -0.0006745684076390323 -0.00536812936860752
 0.9955057822035873 -0.04044605168623425 0.003840105070689692 0.016522030443198277 -0.0006744222388685348 -0.005368127676635113 0.0007751537738285158 0.00857163772046008
 0.0007789739761374047 0.008571168565309295 -0.0006744222388685348 -0.005368127676635113 0.0038396082835224677 0.016522807045617635 0.995505802323077 -0.04044531244828239
 -0.0006745684076390323 -0.00536812936860752 0.0007751537738285158 0.00857163772046008 0.995505802323077 -0.04044531244828239 0.003840012414014841 0.016522782258734197
0.056273447269699996 0.003882123117224281 0.016778190353037924 0.9954491584506908 -0.04105185692507325 0.0007962636130419523 0.008698010600175827 -0.0006891568734098659 -0.0054479886656960685
 0.9954491584506908 -0.04105185692507325 0.0038827715900807526 0.01677814163336575 -0.0006890064320513602 -0.005447987173439024 0.0007923295709550996 0.008698494426727727
 0.0007962636130419523 0.008698010600175827 -0.0006890064320513602 -0.005447987173439024 0.003882259990394908 0.016778929838112216 0.9954491791284891 -0.04105110681249211
 -0.0006891568734098659 -0.0054479886656960685 0.0007923295709550996 0.008698494426727727 0.9954491791284891 -0.04105110681249211 0.0038826761341263514 0.016778904671740747
0.06252605252188 0.004219442331309211 0.01874398646625279 0.995001045880992 -0.04568592988629299 0.0009349846679041245 0.00966648963864938 -0.0008061515360029799 -0.006057942540784692
 0.995001045880992 -0.04568592988629299 0.004220242919636788 0.018743929952237327 -0.0008059665033014295 -0.006057942866309467 0.0009301259781149366 0.009667095517188888
 0.0009349846679041245 0.00966648963864938 -0.0008059665033014295 -0.006057942866309467 0.004219611023013381 0.018744806895833892 0.9950010710684711 -0.0456850967773813
 -0.0008061515360029799 -0.006057942540784692 0.0009301259781149366 0.009667095517188888 0.9950010710684711 -0.0456850967773813 0.0042201247127624025 0.01874477887542009
0.06877865777407 0.0045776965086999685 0.02072767761322822 0.994524790560042 -0.05033498961188093 0.001085641629516461 0.010634836618299939 -0.0009331360484855798 -0.00666812063962549
 0.994524790560042 -0.05033498961188093 0.004578665287327415 0.020727612713346107 -0.0009329129635132284 -0.006668123329970472 0.001079760131092464 0.010635583297707666
 0.001085641629516461 0.010634836618299939 -0.0009329129635132284 -0.006668123329970472 0.004577900349377165 0.020728578666009988 0.9945248206950884 -0.05033407357181596
 -0.0009331360484855798 -0.00666812063962549 0.001079760131092464 0.010635583297707666 0.9945248206950884 -0.05033407357181596 0.004578521894670957 0.020728547890498796
0.07503126302626001 0.004957256837772988 0.022728854905714663 0.9940200347941544 -0.05499885947490773 0.0012483342574741568 0.01160287307394028 -0.0010702137810453865 -0.007278339283687215
 0.9940200347941544 -0.05499885947490773 0.004958409911744397 0.022728780995387263 -0.0010699492112325455 -0.007278344926777552 0.001241331633352762 0.011603780738254485
 0.0012483342574741568 0.01160287307394028 -0.0010699492112325455 -0.007278344926777552 0.004957499158670242 0.022729836236939544 0.9940200703126234 -0.05499786056827375
 -0.0010702137810453865 -0.007278339283687215 0.001241331633352762 0.011603780738254485 0.9940200703126234 -0.05499786056827375 0.004958238898460816 0.022729802836159177
0.08128386827845 0.005358491189303962 0.02474712154842119 0.9934864226178154 -0.059677335458774926 0.0014231591687058067 0.012570415187876159 -0.001217484753463077 -0.007888412220714753
 0.9934864226178154 -0.059677335458774926 0.005359844697610741 0.02474703796902591 -0.0012171752943623078 -0.007888421445327792 0.0014149369622957722 0.012571505471809219
 0.0014231591687058067 0.012570415187876159 -0.0012171752943623078 -0.007888421445327792 0.005358775322729417 0.024748182787696398 0.9934864639542478 -0.059676253751212285
 -0.001217484753463077 -0.007888412220714753 0.0014149369622957722 0.012571505471809219 0.9934864639542478 -0.059676253751212285 0.005359643630052193 0.02474814692204557
0.08753647353064001 0.005781764051566016 0.026782088219916157 0.9929236001170343 -0.0643701907532678 0.0016102096815856335 0.013537274159500866 -0.001375045521916717 -0.008498150337238459
 0.9929236001170343 -0.0643701907532678 0.005783334171263761 0.026781994277636858 -0.0013746877970463943 -0.008498163812930936 0.001600669315132718 0.013538570163668068
 0.0016102096815856335 0.013537274159500866 -0.0013746877970463943 -0.008498163812930936 0.005782093330449164 0.02678322896564338 0.9929236477047149 -0.06436902631647153
 -0.001375045521916717 -0.008498150337238459 0.001600669315132718 0.013538570163668068 0.9929236477047149 -0.06436902631647153 0.005783100617694935 0.02678319082573954
0.09378907878283 0.006227436432502395 0.028833369778383636 0.9923312157249853 -0.06907717903575243 0.001809575664849822 0.014503256482809191 -0.0015429890602426113 -0.009107361472135696
 0.9923312157249853 -0.06907717903575243 0.006229239382886061 0.02883326474280519 -0.0015425797209904204 -0.009107379909199347 0.0017986184592122228 0.014504782788617712
 0.001809575664849822 0.014503256482809191 -0.0015425797209904204 -0.009107379909199347 0.006227814189796647 0.02883458960330372 0.9923312699955528 -0.06907593194128625
 -0.0015429890602426113 -0.009107361472135696 0.0017986184592122228 0.014504782788617712 0.9923312699955528 -0.06907593194128625 0.006228970914175413 0.02883454940928223
0.100041684035 0.006695865737108976 0.03090058285743494 0.9917089204953906 -0.07379803687242951 0.0020213433899743576 0.01546816416783424 -0.0017214046373686506 -0.00971585029531869
 0.9917089204953906 -0.07379803687242951 0.006697917783195255 0.030900465960155783 -0.0017209403629123298 -0.009715874444725249 0.002008870585337727 0.015469946852134608
 0.0020213433899743576 0.01546816416783424 -0.0017209403629123298 -0.009715874444725249 0.006696295305094732 0.030901881304587618 0.9917089818787689 -0.07379670719529932
 -0.0017214046373686506 -0.00971585029531869 0.002008870585337727 0.015469946852134608 0.9917089818787689 -0.07379670719529932 0.006697611973839018 0.030901839305385294
0.1059090909091 0.007156449217326305 0.032854591107615815 0.9910974505361964 -0.07824042734477632 0.002231417752506906 0.016372470174503384 -0.0018984290970747812 -0.010286018739092318
 0.9910974505361964 -0.07824042734477632 0.007158749850750773 0.03285446234514031 -0.0018979102762951266 -0.01028604896811605 0.002217432845451772 0.016374518504045414
 0.002231417752506906 0.016372470174503384 -0.0018979102762951266 -0.01028604896811605 0.007156930433953508 0.032855962893931244 0.9910975189839952 -0.07823902024077953
 -0.0018984290970747812 -0.010286018739092318 0.002217432845451772 0.016374518504045414 0.9910975189839952 -0.07823902024077953 0.007158406799049919 0.03285591945183588
0.1062942892872 0.007187405625778517 0.03298334406999344 0.9910563683615534 -0.07853248552210494 0.0022455953855614534 0.016431794923727983 -0.001910377692192796 -0.010323418234229874
 0.9910563683615534 -0.07853248552210494 0.007189723082745994 0.03298321450285083 -0.0019098551895224466 -0.010323448887576182 0.0022315081634283964 0.016433861573018658
 0.0022455953855614534 0.016431794923727983 -0.0019098551895224466 -0.010323448887576182 0.007187890335772013 0.03298472065530603 0.9910564372863258 -0.07853107333761282
 -0.001910377692192796 -0.010323418234229874 0.0022315081634283964 0.016433861573018658 0.9910564372863258 -0.07853107333761282 0.007189377511551829 0.03298467712755665
0.11254689453939999 0.007702405860707787 0.03508126863946799 0.9903732163862241 -0.08328023232362883 0.0024824102942410087 0.0173939423147472 -0.002109989706261097 -0.010929863436886806
 0.9903732163862241 -0.08328023232362883 0.007705005097524377 0.03508112555274536 -0.00210940571028191 -0.0109299014263342 0.002466609800191975 0.017396322039060382
 0.0024824102942410087 0.0173939423147472 -0.00210940571028191 -0.0109299014263342 0.007702949042209633 0.03508272284788547 0.9903732932789368 -0.08327873771067239
 -0.002109989706261097 -0.010929863436886806 0.002466609800191975 0.017396322039060382 0.9903732932789368 -0.08327873771067239 0.007704617348380088 0.035082678094737384
0.11879949979160001 0.008241212139534793 0.03719396934777396 0.9896591250023392 -0.08804097177759342 0.0027318627307963065 0.01835439590121733 -0.002320318075475326 -0.011534980759555509
 0.9896591250023392 -0.08804097177759342 0.008244109583229499 0.037193811848088884 -0.002319669349013311 -0.01153502695776463 0.0027142500982052452 0.0183571193475711
 0.0027318627307963065 0.01835439590121733 -0.002319669349013311 -0.01153502695776463 0.008241817120010672 0.0371955006345947 0.9896592102881834 -0.08803939481681444
 -0.002320318075475326 -0.011534980759555509 0.0027142500982052452 0.0183571193475711 0.9896592102881834 -0.08803939481681444 0.008243677246296077 0.03719545498426861
0.1250521050438 0.008804165922933484 0.03932105571078544 0.9889137582492749 -0.09281438641191425 0.0029940231421300813 0.019312941368296067 -0.002541435980751743 -0.012138561776409222
 0.9889137582492749 -0.09281438641191425 0.00880737806252084 0.039320882858895616 -0.0025407193146904684 -0.01213861709648517 0.002974499516601456 0.019316040733725417
 0.0029940231421300813 0.019312941368296067 -0.0025407193146904684 -0.01213861709648517 0.008804836027011891 0.03932266350128692 0.9889138523514504 -0.09281272718553212
 -0.002541435980751743 -0.012138561776409222 0.002974499516601456 0.019316040733725417 0.9889138523514504 -0.09281272718553212 0.00880689873465917 0.039322617305431434
0.131304710296 0.009391604254038913 0.041462133332054577 0.9881367840041546 -0.09760014748088208 0.003268957668460853 0.02026936064706192 -0.0027734122584171274 -0.012740394806784343
 0.9881367840041546 -0.09760014748088208 0.009395147644202411 0.04146194414045026 -0.0027726244717882413 -0.012740460202244128 0.0032474242330839155 0.02027286969122813
 0.003268957668460853 0.02026936064706192 -0.0027726244717882413 -0.012740460202244128 0.009392342802531324 0.04146381702006062 0.9881368873440289 -0.09759840607361728
 -0.0027734122584171274 -0.012740394806784343 0.0032474242330839155 0.02027286969122813 0.9881368873440289 -0.09759840607361728 0.0093946189302479 0.041463770651859855
0.1375573155481 0.009875466739182794 0.043336958993526235 0.987456329624303 -0.10211790700554733 0.00352407042737748 0.02119595438847574 -0.0029836855655988957 -0.01331279077402578
 0.987456329624303 -0.10211790700554733 0.009879357462306535 0.043336754419345334 -0.002982821768337766 -0.01331286639693052 0.0035004814480653276 0.021199870139799668
 0.00352407042737748 0.02119595438847574 -0.002982821768337766 -0.01331286639693052 0.009876276174805756 0.04333871834578076 0.9874564426128879 -0.10211608353089566
 -0.0029836855655988957 -0.01331279077402578 0.0035004814480653276 0.021199870139799668 0.9874564426128879 -0.10211608353089566 0.009878777872736593 0.0433386734521201
0.1438099208003 0.010376521268243634 0.04520068129561757 0.9867515826378122 -0.1066229849414287 0.003789455046306666 0.022118048722474106 -0.00320232659548034 -0.013881082860751433
 0.9867515826378122 -0.1066229849414287 0.01038077584853617 0.045200460367616546 -0.0032013833396169296 -0.013881169662377811 0.0037637213283238206 0.022122402199427182
 0.003789455046306666 0.022118048722474106 -0.0032013833396169296 -0.013881169662377811 0.010377404749707003 0.04520251574258849 0.986751705690394 -0.106621079496875
 -0.00320232659548034 -0.013881082860751433 0.0037637213283238206 0.022122402199427182 0.986751705690394 -0.106621079496875 0.010380143165004548 0.045202472672964344
0.1500625260525 0.010894572423943582 0.04705310863165588 0.9860227434602079 -0.11111523272618958 0.00406500762930614 0.02303552484395446 -0.003429234593796496 -0.01444516033137892
 0.9860227434602079 -0.11111523272618958 0.010899207433869358 0.047052870314766675 -0.0034282084379184145 -0.01444525930206923 0.00403704062381955 0.023040348189411457
 0.00406500762930614 0.02303552484395446 -0.0034282084379184145 -0.01444525930206923 0.010895533097015745 0.04705501758601692 0.986022876989969 -0.1111132454103959
 -0.003429234593796496 -0.01444516033137892 0.00403704062381955 0.023040348189411457 0.986022876989969 -0.1111132454103959 0.01089851945696606 0.04705497667505221
0.15631513130469998 0.01142942316851993 0.04889405513031386 0.9852700137887421 -0.11559450315018382 0.00435062290654367 0.023948266233909037 -0.0036643074353614386 -0.015004915033581973
 0.9852700137887421 -0.11559450315018382 0.011434455230341228 0.04889379832322892 -0.0036631949447563676 -0.015005027202649986 0.004320334722022769 0.023953592701384866
