! Created with skrf 1.8.0 (http://scikit-rf.org).
# GHz S RI R 50.0 
!freq ReS11 ImS11 ReS12 ImS12 ReS13 ImS13
! ReS14 ImS14
! ReS21 ImS21 ReS22 ImS22 ReS23 ImS23
! ReS24 ImS24
! ReS31 ImS31 ReS32 ImS32 ReS33 ImS33
! ReS34 ImS34
! ReS41 ImS41 ReS42 ImS42 ReS43 ImS43
! ReS44 ImS44
!
0.0 0.001743513331132 0.0 0.9982564866575 0.0 6.739610420725e-05 0.0 -6.739610402975e-05 8.253642307503536e-21
 0.9982564866575 0.0 0.001743513331125 0.0 -6.739610402984e-05 8.25364230751456e-21 6.73961042076e-05 0.0
 6.739610420725e-05 0.0 -6.739610402984e-05 8.25364230751456e-21 0.001743513336824 0.0 0.9982564866632 0.0
 -6.739610402975e-05 8.253642307503536e-21 6.73961042076e-05 0.0 0.9982564866632 0.0 0.001743513336809 0.0
0.005 0.0018764777630606389 0.0014293136492034449 0.9980881713467996 -0.0036512587364360433 9.428434038673294e-05 0.0007213735360284022 -9.161200607193091e-05 -0.00045638714661522993
 0.9980881713467996 -0.0036512587364360433 0.0018764976025722848 0.0014293020932796534 -9.161328403906299e-05 -0.0004563881787577374 9.414931148612595e-05 0.0007214248886402535
 9.428434038673294e-05 0.0007213735360284022 -9.161328403906299e-05 -0.0004563881787577374 0.0018764764700863908 0.0014292471826363102 0.9980881709735612 -0.0036513257999733636
 -9.161200607193091e-05 -0.00045638714661522993 9.414931148612595e-05 0.0007214248886402535 0.9980881709735612 -0.0036513257999733636 0.001876498161036334 0.0014292344442306463
0.006252605252188 0.001911540762527067 0.0017922211256298929 0.9980434770790593 -0.004564933791104389 0.0001020735160636914 0.0009020635745656559 -9.852937564167341e-05 -0.000571057665723764
 0.9980434770790593 -0.004564933791104389 0.00191157177544554 0.001792206472627485 -9.853136386797221e-05 -0.0005710589390972483 0.00010186254662032357 0.0009021303119540003
 0.0001020735160636914 0.0009020635745656559 -9.853136386797221e-05 -0.0005710589390972483 0.0019115388124734947 0.0017921380600154288 0.9980434765669544 -0.0045650176148718325
 -9.852937564167341e-05 -0.000571057665723764 0.00010186254662032357 0.0009021303119540003 0.9980434765669544 -0.0045650176148718325 0.0019115727203330242 0.0017921219160503042
0.01250521050438 0.0020972284442160173 0.003621564141566506 0.9978050870011135 -0.009130425450525679 0.00014730893040470832 0.0018044563983373389 -0.00013820828936923234 -0.001144738104905153
 0.9978050870011135 -0.009130425450525679 0.0020973522767439223 0.0036215327422730514 -0.00013821611961062181 -0.0011447404661221157 0.0001464676297634443 0.0018046175599368062
 0.00014730893040470832 0.0018044563983373389 -0.00013821611961062181 -0.0011447404661221157 0.002097221205444732 0.0036213984041249887 0.9978050855064157 -0.009130592871270283
 -0.00013820828936923234 -0.001144738104905153 0.0001464676297634443 0.0018046175599368062 0.9978050855064157 -0.009130592871270283 0.002097356613094944 0.0036213638723402363
0.01875781575657 0.0023010218599090458 0.005476512487279243 0.9975409917312645 -0.013707535441008487 0.0002032127453990216 0.002707725076784094 -0.0001865622919383179 -0.0017202154881070387
 0.9975409917312645 -0.013707535441008487 0.002301300112562182 0.00547646209444762 -0.00018657974618609377 -0.0017202187132309473 0.00020132285420559724 0.0027080142645852117
 0.0002032127453990216 0.002707725076784094 -0.00018657974618609377 -0.0017202187132309473 0.0023010060117524067 0.005476264408971287 0.9975409887920224 -0.013707786418160008
 -0.0001865622919383179 -0.0017202154881070387 0.00020132285420559724 0.0027080142645852117 0.9975409887920224 -0.013707786418160008 0.002301310303896771 0.005476209028495992
0.02501042100875 0.0025233508696471596 0.007354427755431607 0.9972508526927443 -0.018298430926131464 0.0002698969005981648 0.003611866743205541 -0.00024371592149831738 -0.002297205480984715
 0.9972508526927443 -0.018298430926131464 0.0025238450212133534 0.007354355991410614 -0.00024374673376225268 -0.002297209303793564 0.0002665400305858326 0.0036123233033881668
 0.0002698969005981648 0.003611866743205541 -0.00024374673376225268 -0.002297209303793564 0.0025233230919213217 0.007354097733521236 0.9972508478384013 -0.018298765475429263
 -0.00024371592149831738 -0.002297205480984715 0.0002665400305858326 0.0036123233033881668 0.9972508478384013 -0.018298765475429263 0.002523863537390688 0.0073540188520333
0.03126302626094 0.002764627495019193 0.00925392669392734 0.9969343155809358 -0.0229040087601838 0.0003474733352005462 0.004516797135211109 -0.00030978967736786675 -0.002875497110281158
 0.9969343155809358 -0.0229040087601838 0.002765398940524622 0.009253831055950562 -0.00030983754167221433 -0.002875501221881316 0.00034223060050970284 0.004517466194691561
 0.0003474733352005462 0.004516797135211109 -0.00030983754167221433 -0.002875501221881316 0.0027645844737231844 0.00925351519965675 0.9969343083365729 -0.022904426946572964
 -0.00030978967736786675 -0.002875497110281158 0.00034223060050970284 0.004517466194691561 0.9969343083365729 -0.022904426946572964 0.0027654282651191336 0.009253409978114243
0.037515631513130004 0.0030252543368483784 0.011174088088357176 0.9965910191356514 -0.02752468854736307 0.0004360528231348213 0.005422399226844645 -0.0003849008348251444 -0.003454904151702617
 0.9965910191356514 -0.02752468854736307 0.0030263644144659196 0.011173965951180332 -0.00038496940923744914 -0.0034549082004455907 0.00042850468485445745 0.0054233317513588805
 0.0004360528231348213 0.005422399226844645 -0.00038496940923744914 -0.0034549082004455907 0.003025192764260758 0.011173595680488283 0.996591009020273 -0.027525190472137168
 -0.0003849008348251444 -0.003454904151702617 0.00042850468485445745 0.0054233317513588805 0.996591009020273 -0.027525190472137168 0.0030264070459012603 0.011173461095128944
0.043768236765320004 0.0033056278101017736 0.01311421138872491 0.9962205987350202 -0.03216065394503807 0.0005357444093507644 0.006328538034628394 -0.0004691637164503727 -0.00403525035095646
 0.9962205987350202 -0.03216065394503807 0.0033071378238554504 0.013114060006226473 -0.00046925662557095136 -0.004035253942471643 0.0005254706118995279 0.006329790893437595
 0.0005357444093507644 0.006328538034628394 -0.00046925662557095136 -0.004035253942471643 0.0033055443867234394 0.013113638711994322 0.9962205852604996 -0.03216123974799006
 -0.0004691637164503727 -0.00403525035095646 0.0005254706118995279 0.006329790893437595 0.9962205852604996 -0.03216123974799006 0.003307196276702397 0.013113471555080844
0.050020842017509996 0.003606139631747926 0.015073716979216912 0.9958226882469756 -0.03681195232292965 0.0006466550619572532 0.0072350667292464055 -0.0005626897669239871 -0.004616363345193656
 0.9958226882469756 -0.03681195232292965 0.0036081108710870873 0.015073533485179251 -0.0005628106032986621 -0.0046163660424485674 0.0006332346177079065 0.007236702762333674
 0.0006466550619572532 0.0072350667292464055 -0.0005628106032986621 -0.0046163660424485674 0.003606031065620046 0.015073064779490648 0.9958226709151793 -0.036812622168003864
 -0.0005626897669239871 -0.004616363345193656 0.0006332346177079065 0.007236702762333674 0.9958226709151793 -0.036812622168003864 0.0036081876762251762 0.015072861659045774
0.055454545454549996 0.003883949557715342 0.016791931983018978 0.9954542819905888 -0.040866494367770165 0.0007522323583340138 0.00802306357148264 -0.0006515739508883776 -0.005121857724438221
 0.9954542819905888 -0.040866494367770165 0.0038863713939985595 0.016791718162111127 -0.0006517219504534528 -0.005121859256545728 0.0007357349315257089 0.008025088316884933
 0.0007522323583340138 0.00802306357148264 -0.0006517219504534528 -0.005121859256545728 0.0038838164770345286 0.016791211342144494 0.9954542608947111 -0.04086723741789806
 -0.0006515739508883776 -0.005121857724438221 0.0007357349315257089 0.008025088316884933 0.9954542608947111 -0.04086723741789806 0.0038864662177727424 0.016790974069928796
0.056273447269699996 0.003927177559126897 0.0170520972252349 0.995396921137995 -0.041478543648965166 0.0007688894128591157 0.008141829660323459 -0.0006655875457152184 -0.005198071677902069
 0.995396921137995 -0.041478543648965166 0.003929671318477502 0.017051878633379664 -0.0006657398709771264 -0.005198073001269094 0.0007519006169133434 0.008143917746636755
 0.0007688894128591157 0.008141829660323459 -0.0006657398709771264 -0.005198073001269094 0.0039270405699914235 0.01705136632911618 0.9953968994415826 -0.0414792977452637
 -0.0006655875457152184 -0.005198071677902069 0.0007519006169133434 0.008143917746636755 0.9953968994415826 -0.0414792977452637 0.003929769025995198 0.017051123668145686
0.06252605252188 0.004269125772495117 0.01904888955203129 0.9949429312304564 -0.04616032734943956 0.000902549549256888 0.009048664015160343 -0.0007779626723157549 -0.0057802031871252765
 0.9949429312304564 -0.04616032734943956 0.004272203369128651 0.01904863275544594 -0.000778150017790711 -0.00578020261445885 0.0008815700135337869 0.009051279140907156
 0.000902549549256888 0.009048664015160343 -0.000778150017790711 -0.00578020261445885 0.004268957091721826 0.01904808088542199 0.9949429046501969 -0.04616116593317305
 -0.0007779626723157549 -0.0057802031871252765 0.0008815700135337869 0.009051279140907156 0.9949429046501969 -0.04616116593317305 0.004272324548423432 0.01904779492039724
0.06877865777407 0.0046323650498443 0.021063660423048254 0.99446035325833 -0.05085715827689875 0.0010477348285185956 0.009955400831441344 -0.0008999177484724457 -0.006362584047249709
 0.99446035325833 -0.05085715827689875 0.00463608784167053 0.02106336219301066 -0.0009001436156593827 -0.00636258101397511 0.0010223415301409337 0.009958624158144849
 0.0010477348285185956 0.009955400831441344 -0.0009001436156593827 -0.00636258101397511 0.004632161422990671 0.021062775005369787 0.9944603212625963 -0.05085808161775664
 -0.0008999177484724457 -0.006362584047249709 0.0010223415301409337 0.009958624158144849 0.9944603212625963 -0.05085808161775664 0.004636235083343254 0.02106244178405447
0.07503126302626001 0.005017272827097301 0.023095995170782386 0.9939488233136381 -0.05556885683374369 0.0012045417106589307 0.010861865643557888 -0.0010315522628145174 -0.006945038185238984
 0.9939488233136381 -0.05556885683374369 0.005021702231058251 0.023095652154853083 -0.0010318201237184076 -0.006945032084434383 0.001174311051214202 0.010865784575432733
 0.0012045417106589307 0.010861865643557888 -0.0010318201237184076 -0.006945032084434383 0.005017031015348017 0.023095034116062618 0.9939487853567369 -0.05556986523424705
 -0.0010315522628145174 -0.006945038185238984 0.001174311051214202 0.010865784575432733 0.9939487853567369 -0.05556986523424705 0.005021878147542077 0.023094649494666795
0.08128386827845 0.005424223181655347 0.025145491240009712 0.9934079792201015 -0.060295215692502235 0.0013730635997074136 0.011767878931104252 -0.0011729624867191214 -0.007527386902946862
 0.9934079792201015 -0.060295215692502235 0.005429420690706315 0.025145099959531823 -0.0011732757840142631 -0.007527377085436785 0.001337571472236131 0.0117725871816423
 0.0013730635997074136 0.011767878931104252 -0.0011732757840142631 -0.007527377085436785 0.005423939963938287 0.02514445576084879 0.9934079347408972 -0.06029630948434567
 -0.0011729624867191214 -0.007527386902946862 0.001337571472236131 0.0117725871816423 0.9934079347408972 -0.06029630948434567 0.005429627917716862 0.02514401540067255
0.08753647353064001 0.005853586766029386 0.027211753532191987 0.9928374608627317 -0.06503600442448121 0.0015533906914628663 0.012673256442501382 -0.0013242413626000126 -0.008109448632853485
 0.9928374608627317 -0.06503600442448121 0.005859613967018843 0.027211310379136742 -0.0013246035096840076 -0.008109434407304612 0.0015122125550532503 0.012678854099973899
 0.0015533906914628663 0.012673256442501382 -0.0013246035096840076 -0.008109434407304612 0.005853258940554219 0.0272106449382757 0.9928374092836875 -0.06503718397042402
 -0.0013242413626000126 -0.008109448632853485 0.0015122125550532503 0.012678854099973899 0.9928374092836875 -0.06503718397042402 0.005859855164850412 0.02721014430146041
0.09378907878283 0.006305730707006269 0.029294391077877856 0.9922369104875034 -0.06979097281037577 0.001745609825812677 0.013577809440560718 -0.001485478387714001 -0.008691038780583854
 0.9922369104875034 -0.06979097281037577 0.006312649298848767 0.029293892310866217 -0.0014858927688124704 -0.008691019413602855 0.001698320785633468 0.013584403032414713
 0.001745609825812677 0.013577809440560718 -0.0014858927688124704 -0.008691019413602855 0.006305355094022265 0.029293210772105886 0.9922368512129259 -0.06979223850816328
 -0.001485478387714001 -0.008691038780583854 0.001698320785633468 0.013584403032414713 0.9922368512129259 -0.06979223850816328 0.006312927153480782 0.029292645116894757
0.100041684035 0.00678101848067381 0.031393014604243055 0.9916059729795004 -0.07455985326595256 0.00194980434243963 0.014481344901182028 -0.0016567594942616926 -0.009271969623300163
 0.9916059729795004 -0.07455985326595256 0.0067888902915989756 0.03139245634406332 -0.0016572294643269398 -0.009271944339535102 0.0018959792348310818 0.014489047457092124
 0.00194980434243963 0.014481344901182028 -0.0016572294643269398 -0.009271944339535102 0.006780591923571126 0.03139176409077453 0.9916059053942635 -0.0745612055404878
 -0.0016567594942616926 -0.009271969623300163 0.0018959792348310818 0.014489047457092124 0.9916059053942635 -0.0745612055404878 0.006789207515605549 0.031391128466024286
0.1059090909091 0.0072483951595752934 0.03337654241335109 0.9909859544989911 -0.07904734263194947 0.0021523817593775267 0.015328116094350861 -0.0018266969403948647 -0.009816341957371978
 0.9909859544989911 -0.07904734263194947 0.0072572178287019055 0.03337592466951809 -0.0018272220999543001 -0.009816310378884138 0.0020920364033246265 0.015336967940992999
 0.0021523817593775267 0.015328116094350861 -0.0018272220999543001 -0.009816310378884138 0.007247917948854036 0.03337522747100078 0.9909858785373847 -0.07904877656487823
 -0.0018266969403948647 -0.009816341957371978 0.0020920364033246265 0.015336967940992999 0.9909858785373847 -0.07904877656487823 0.00725757448892392 0.03337452149217648
0.1062942892872 0.007279809767678463 0.03350723472204344 0.9909442961268502 -0.07934236265921285 0.0021660539387381365 0.015383665674410485 -0.0018381669270990401 -0.009852050254769928
 0.9909442961268502 -0.07934236265921285 0.007288696773323096 0.0335066129462496 -0.001838695811730918 -0.00985201823703122 0.0021052674208642233 0.015392596787958488
 0.0021660539387381365 0.015383665674410485 -0.001838695811730918 -0.00985201823703122 0.007279329135586143 0.03350591560034748 0.9909442195951957 -0.07934380196854154
 -0.0018381669270990401 -0.009852050254769928 0.0021052674208642233 0.015392596787958488 0.9909442195951957 -0.07934380196854154 0.007289056107586835 0.03350520483920064
0.11254689453939999 0.00780246029556617 0.035636660542816084 0.9902515308747569 -0.08413820370823308 0.002394434529594655 0.016284570629335977 -0.0020297791197151074 -0.01043108655596531
 0.9902515308747569 -0.08413820370823308 0.007812424637123335 0.03563597107968301 -0.002030370215063134 -0.010431046945316559 0.0023262611731812415 0.016294856518172737
 0.002394434529594655 0.016284570629335977 -0.002030370215063134 -0.010431046945316559 0.007801922485551248 0.035635274512077354 0.9902514447389297 -0.08413973053901143
 -0.0020297791197151074 -0.01043108655596531 0.0023262611731812415 0.016294856518172737 0.9902514447389297 -0.08413973053901143 0.007812828851748171 0.03563448322504583
0.11879949979160001 0.008349321670249947 0.037780898613597375 0.9895273315713862 -0.08894706607282306 0.0026350181092979932 0.017183854780569215 -0.0022316705689773265 -0.011008881193437382
 0.9895273315713862 -0.08894706607282306 0.008360425672211453 0.03778013713527182 -0.0022323271416286507 -0.011008833089324387 0.0025590324976968587 0.01719562834497114
 0.0026350181092979932 0.017183854780569215 -0.0022323271416286507 -0.011008833089324387 0.008348723609161635 0.03777944747039119 0.9895272351499749 -0.08894868094241155
 -0.0022316705689773265 -0.011008881193437382 0.0025590324976968587 0.01719562834497114 0.9895272351499749 -0.08894868094241155 0.008360877567540092 0.03777857003766999
0.1250521050438 0.008920741198089782 0.03993955208711831 0.9887713562081752 -0.09376862722212323 0.00288787261405521 0.018081309408719555 -0.002443911709470585 -0.011585233633268348
 0.9887713562081752 -0.09376862722212323 0.00893304738658261 0.03993871410199967 -0.0024446369961447813 -0.011585176093665871 0.002803649443155722 0.018094710288426744
 0.00288787261405521 0.018081309408719555 -0.0024446369961447813 -0.011585176093665871 0.00892007984482359 0.03993803772520714 0.9887712487947838 -0.09377033067865492
 -0.002443911709470585 -0.011585233633268348 0.002803649443155722 0.018094710288426744 0.9887712487947838 -0.09377033067865492 0.008933549794820516 0.03993706828806559
0.131304710296 0.009517061702135498 0.042112220063072435 0.9879832666559699 -0.09860255314323088 0.0031530617867795998 0.018976722173352906 -0.0026665687870734006 -0.01215994017221258
 0.9879832666559699 -0.09860255314323088 0.00953063282305245 0.04211130090736255 -0.002667365994564683 -0.01215987221370384 0.0030601759687472 0.018991896802659034
 0.0031530617867795998 0.018976722173352906 -0.002667365994564683 -0.01215987221370384 0.00951633405001122 0.04211064447548332 0.9879831475179415 -0.09860434576299015
 -0.0026665687870734006 -0.01215994017221258 0.0030601759687472 0.018991896802659034 0.9879831475179415 -0.09860434576299015 0.009531188609074835 0.042109576927076814
0.1375573155481 0.010008406382307078 0.044016894553721646 0.9872930056256013 -0.10316673720488671 0.0033993506550765644 0.01984291836577258 -0.002868520833586298 -0.012705772958282157
 0.9872930056256013 -0.10316673720488671 0.01002331082149689 0.044015908306141514 -0.0028693948915661403 -0.01270569441064023 0.003297593203191879 0.019859855732388233
 0.0033993506550765644 0.01984291836577258 -0.0028693948915661403 -0.01270569441064023 0.010007610173552287 0.044015259229372994 0.9872928742018948 -0.10316861934477792
 -0.002868520833586298 -0.012705772958282157 0.003297593203191879 0.019859855732388233 0.9872928742018948 -0.10316861934477792 0.010023921805267056 0.044014106888542084
0.1438099208003 0.010517241285184881 0.04591033671697242 0.98657806306608 -0.1077181076708974 0.003655548631370071 0.020704743480503017 -0.003078488753507329 -0.013247642104719761
 0.98657806306608 -0.1077181076708974 0.010533542939811664 0.04590927960299618 -0.003079443135265909 -0.013247551986412085 0.003544533723377021 0.02072357854526701
 0.003655548631370071 0.020704743480503017 -0.003079443135265909 -0.013247551986412085 0.010516373696477142 0.04590864369226264 0.9865779186212726 -0.10772007989670385
 -0.003078488753507329 -0.013247642104719761 0.003544533723377021 0.02072357854526701 0.9865779186212726 -0.10772007989670385 0.010534211845662155 0.04590740137319544
0.1500625260525 0.011043368201612662 0.047792352059925776 0.9858386419399018 -0.11225651399803077 0.003921554720263706 0.021562081895027924 -0.0032963754008386425 -0.013785441381563372
 0.9858386419399018 -0.11225651399803077 0.011061131205627572 0.04779122003385513 -0.0032974135713977333 -0.013785338671301614 0.003800899221642514 0.021582954554342205
 0.003921554720263706 0.021562081895027924 -0.0032974135713977333 -0.013785338671301614 0.011042426451383149 0.04779060344868926 0.9858384837159961 -0.11225857689711836
 -0.0032963754008386425 -0.013785441381563372 0.003800899221642514 0.021582954554342205 0.9858384837159961 -0.11225857689711836 0.011061860777739648 0.04778926563915682
0.15631513130469998 0.011586587289767289 0.04966275188785822 0.9850749464877123 -0.11678180701451728 0.004197266590941193 0.02241482022972634 -0.0035220823133381377 -0.014319067036747934
 0.9850749464877123 -0.11678180701451728 0.011605876020358983 0.04966154062218839 -0.0035232077293254472 -0.014318950673549335 0.004066590100591553 0.022437875258569825
