! Created with skrf 1.8.0 (http://scikit-rf.org).
# GHz S RI R 50.0 
!freq ReS11 ImS11 ReS12 ImS12 ReS13 ImS13
! ReS14 ImS14
! ReS21 ImS21 ReS22 ImS22 ReS23 ImS23
! ReS24 ImS24
! ReS31 ImS31 ReS32 ImS32 ReS33 ImS33
! ReS34 ImS34
! ReS41 ImS41 ReS42 ImS42 ReS43 ImS43
! ReS44 ImS44
!
0.0 0.001290403831138 0.0 0.9987095961405 0.0 4.933996292789e-05 0.0 -4.933996313876e-05 6.042402792793083e-21
 0.9987095961405 0.0 0.001290403831109 0.0 -4.93399631384e-05 6.042402792748995e-21 4.933996292737e-05 0.0
 4.933996292789e-05 0.0 -4.93399631384e-05 6.042402792748995e-21 0.001290403845334 0.0 0.9987095961547 0.0
 -4.933996313876e-05 6.042402792793083e-21 4.933996292737e-05 0.0 0.9987095961547 0.0 0.001290403845324 0.0
0.005 0.0013877440350548974 0.0010562204267288622 0.9985865512618466 -0.0027038483433441014 6.872176216852108e-05 0.0005428219780182378 -6.682921250957497e-05 -0.0003409705654195466
 0.9985865512618466 -0.0027038483433441014 0.001387744852713571 0.00105621989468546 -6.682715033440064e-05 -0.00034096895936435004 6.872567817222271e-05 0.0005428205140027595
 6.872176216852108e-05 0.0005428219780182378 -6.682715033440064e-05 -0.00034096895936435004 0.0013877455277804833 0.0010562867793846287 0.9985865515877442 -0.0027037812749663164
 -6.682921250957497e-05 -0.0003409705654195466 6.872567817222271e-05 0.0005428205140027595 0.9985865515877442 -0.0027037812749663164 0.0013877440071531073 0.001056287674610651
0.006252605252188 0.0014130911266610423 0.0013244555779955223 0.9985543389940906 -0.0033805001100174615 7.415043540566801e-05 0.0006788027963764906 -7.168253192057942e-05 -0.0004266644083531863
 0.9985543389940906 -0.0033805001100174615 0.0014130924054040332 0.0013244549075882926 -7.167932314074375e-05 -0.0004266624269898278 7.415655417902419e-05 0.0006788008935477817
 7.415043540566801e-05 0.0006788027963764906 -7.167932314074375e-05 -0.0004266624269898278 0.0014130933958331124 0.001324538501955864 0.9985543394388662 -0.0033804162857754088
 -7.168253192057942e-05 -0.0004266644083531863 7.415655417902419e-05 0.0006788008935477817 0.9985543394388662 -0.0033804162857754088 0.0014130910185833022 0.001324539622802873
0.01250521050438 0.001545462368719082 0.002676922205099227 0.9983851488401868 -0.006761970626123163 0.00010470945385155628 0.0013580334017016258 -9.876564064604367e-05 -0.0008555115509805963
 0.9983851488401868 -0.006761970626123163 0.0015454674820828164 0.002676920799713488 -9.875299629388868e-05 -0.0008555078717354077 0.00010473386317489307 0.0013580288206485774
 0.00010470945385155628 0.0013580334017016258 -9.875299629388868e-05 -0.0008555078717354077 0.001545470902926946 0.002677087731720623 0.9983851500865007 -0.006761803220125546
 -9.876564064604367e-05 -0.0008555115509805963 0.00010473386317489307 0.0013580288206485774 0.9983851500865007 -0.006761803220125546 0.001545461407578745 0.0026770899983482683
0.01875781575657 0.0016877685352376754 0.004048939510362366 0.9982018426404818 -0.010152679710748624 0.00014108210301080207 0.0020381697025904605 -0.0001306643687337113 -0.0012859484687485863
 0.9982018426404818 -0.010152679710748624 0.0016877800396754232 0.004048937273878283 -0.00013063617222029307 -0.0012859434208715105 0.00014113695735861918 0.00203816153851581
 0.00014108210301080207 0.0020381697025904605 -0.00013063617222029307 -0.0012859434208715105 0.0016877872911860714 0.004049187424059323 0.9982018450150647 -0.010152428798206568
 -0.0001306643687337113 -0.0012859484687485863 0.00014113695735861918 0.00203816153851581 0.9982018450150647 -0.010152428798206568 0.0016877659492164328 0.004049190884553248
0.02501042100875 0.0018402551583583926 0.00543862690606414 0.9980042312078334 -0.013554309432137214 0.0001833342947682983 0.002719264749618107 -0.00016745198564446635 -0.001717803602844375
 0.9980042312078334 -0.013554309432137214 0.0018402756141224336 0.005438623711945087 -0.00016740219301434925 -0.0017177975676735031 0.00018343176684554633 0.002719251972670876
 0.0001833342947682983 0.002719264749618107 -0.00016740219301434925 -0.0017177975676735031 0.0018402881052721305 0.005438956964892612 0.998004235054435 -0.013553975054473177
 -0.00016745198564446635 -0.001717803602844375 0.00018343176684554633 0.002719251972670876 0.998004235054435 -0.013553975054473177 0.0018402501935604859 0.005438961688476788
0.03126302626094 0.0020031573983056634 0.006845036146115089 0.9977921144273235 -0.016967603175203495 0.00023153257431904106 0.003401309834108813 -0.00020920006532709051 -0.002150963723015185
 0.9977921144273235 -0.016967603175203495 0.00200318937025563 0.006845031837057514 -0.00020912269249778964 -0.0021509571347857748 0.00023168486635183536 0.0034012912884556854
 0.00023153257431904106 0.003401309834108813 -0.00020912269249778964 -0.0021509571347857748 0.002003208499760827 0.006845448089911544 0.9977921200883183 -0.016967185331687652
 -0.00020920006532709051 -0.002150963723015185 0.00023168486635183536 0.0034012912884556854 0.9977921200883183 -0.016967185331687652 0.0020031492986404887 0.0068454541666453025
0.037515631513130004 0.0021767055132450607 0.00826756379820668 0.9975652868405299 -0.02039295311901225 0.0002857435126547367 0.004084272222865795 -0.00025597901549939103 -0.0025853361844269825
 0.9975652868405299 -0.02039295311901225 0.002176751571181011 0.008267558185711774 -0.0002558681317755649 -0.00258532953054779 0.00028596286191890903 0.004084246625176442
 0.0002857435126547367 0.004084272222865795 -0.0002558681317755649 -0.00258532953054779 0.002176778730067767 0.008268057311540985 0.9975652946590545 -0.020392451803361727
 -0.00025597901549939103 -0.0025853361844269825 0.00028596286191890903 0.004084246625176442 0.9975652946590545 -0.020392451803361727 0.00217669352153563 0.008268064852378555
0.043768236765320004 0.0023611269906234278 0.00970577239321296 0.997323539890602 -0.023830579030788505 0.00034603343140804003 0.004768106621710194 -0.00030785827398199523 -0.003020837453668497
 0.997323539890602 -0.023830579030788505 0.0023611897091989254 0.009705765257112543 -0.0003077079980213848 -0.0030208312748288423 0.0003463321132095243 0.0047680725595073544
 0.00034603343140804003 0.004768106621710194 -0.0003077079980213848 -0.0030208312748288423 0.002361226280634033 0.009706347124627942 0.9973235502111726 -0.023829994211438704
 -0.00030785827398199523 -0.003020837453668497 0.0003463321132095243 0.0047680725595073544 0.9973235502111726 -0.023829994211438704 0.0023611103479729894 0.009706356261538781
0.050020842017509996 0.0025566475390440806 0.011159316536422628 0.9970666630302881 -0.027280602096095907 0.0004124682420408409 0.005452759903036905 -0.0003649063894677169 -0.003457388370834514
 0.9970666630302881 -0.027280602096095907 0.0025567294975801257 0.011159307624309453 -0.00036471088679325804 -0.0034573832610369465 0.0004128585711687297 0.005452715832957802
 0.0004124682420408409 0.005452759903036905 -0.00036471088679325804 -0.0034573832610369465 0.0025567768594118787 0.01115997208772298 0.9970666762011238 -0.02727993372627085
 -0.0003649063894677169 -0.003457388370834514 0.0004128585711687297 0.005452715832957802 0.9970666762011238 -0.02727993372627085 0.0025566254857791997 0.01115998297398959
0.055454545454549996 0.0027357489721095934 0.012434718881357285 0.9968309773753751 -0.03028889151757748 0.0004752433084443258 0.006048363956486443 -0.0004187332672429094 -0.003837556866794034
 0.9968309773753751 -0.03028889151757748 0.00273584974899164 0.01243470819544708 -0.000418493757888824 -0.0038375532098568737 0.00047572331440960973 0.006048309832891692
 0.0004752433084443258 0.006048363956486443 -0.000418493757888824 -0.0038375532098568737 0.002735907601304841 0.012435444302245302 0.99683099330766 -0.030288150495296387
 -0.0004187332672429094 -0.003837556866794034 0.00047572331440960973 0.006048309832891692 0.99683099330766 -0.030288150495296387 0.002735721597582544 0.012435456849912919
0.056273447269699996 0.0027634916127948534 0.012627906648213148 0.9967944443645702 -0.030743081119294587 0.00048511333424120054 0.006138173431523661 -0.00042719105179769287 -0.0038949118143405083
 0.9967944443645702 -0.030743081119294587 0.002763595395092391 0.01262789567495868 -0.0004269445329767089 -0.003894908420927152 0.0004856076659369062 0.0061381176775673705
 0.00048511333424120054 0.006138173431523661 -0.0004269445329767089 -0.003894908420927152 0.0027636549180928465 0.012628642566671852 0.996794460736319 -0.03074232914425108
 -0.00042719105179769287 -0.0038949118143405083 0.0004856076659369062 0.0061381176775673705 0.996794460736319 -0.03074232914425108 0.0027634633863154443 0.01262865537706606
0.06252605252188 0.002981882702641251 0.014111289006639717 0.9965066710615592 -0.03421803242278697 0.0005640334931157441 0.006824284329665929 -0.0004947790924352002 -0.004333331427260062
 0.9965066710615592 -0.03421803242278697 0.00298201089658029 0.014111275653804168 -0.0004944758118130939 -0.004333330450909887 0.0005646442232295889 0.00682421508137285
 0.0005640334931157441 0.006824284329665929 -0.0004944758118130939 -0.004333330450909887 0.0029820839444069645 0.014112104797109665 0.9965066909877754 -0.03421719676715726
 -0.0004947790924352002 -0.004333331427260062 0.0005646442232295889 0.00682421508137285 0.9965066909877754 -0.03421719676715726 0.0029818475365853557 0.014112119728145587
0.06877865777407 0.0032120435009309356 0.015609233864005688 0.9962031296403222 -0.0377054416733332 0.0006492928267649766 0.007511026241124467 -0.0005677364731529788 -0.0047725708473583634
 0.9962031296403222 -0.0377054416733332 0.0032121986981359647 0.01560921777938399 -0.000567370728004878 -0.00477257304207605 0.0006500323916654433 0.007510941551792338
 0.0006492928267649766 0.007511026241124467 -0.000567370728004878 -0.00477257304207605 0.0032122866282204136 0.015610128977134218 0.9962031534784604 -0.037704522252282886
 -0.0005677364731529788 -0.0047725708473583634 0.0006500323916654433 0.007510941551792338 0.9962031534784604 -0.037704522252282886 0.0032120006247735263 0.015610146247422728
0.07503126302626001 0.003454195994299134 0.01712152790339241 0.9958836061884105 -0.0412052713700816 0.0007409547045245711 0.00819832980417045 -0.000646128262999577 -0.005212553228789533
 0.9958836061884105 -0.0412052713700816 0.0034543807896195624 0.017121508700387457 -0.0006456943928354837 -0.005212559401888616 0.0007418355807801685 0.008198227589034606
 0.0007409547045245711 0.00819832980417045 -0.0006456943928354837 -0.005212559401888616 0.003454484952567885 0.017122501742021894 0.9958836342996701 -0.04120426808237795
 -0.000646128262999577 -0.005212553228789533 0.0007418355807801685 0.008198227589034606 0.9958836342996701 -0.04120426808237795 0.0034541446322488107 0.01712252159250846
0.08128386827845 0.003708561508527855 0.01864796922981793 0.995547886533561 -0.04471746579949232 0.0008390816989524827 0.008886122971170548 -0.0007300186104025396 -0.005653200919575136
 0.995547886533561 -0.04471746579949232 0.003708778499588575 0.0186479464870219 -0.0007295109965360294 -0.005653211931657876 0.0008401164026343188 0.00888600100559622
 0.0008390816989524827 0.008886122971170548 -0.0007295109965360294 -0.005653211931657876 0.003708900239791828 0.018649021142280862 0.9955479192840633 -0.04471637853370556
 -0.0007300186104025396 -0.005653200919575136 0.0008401164026343188 0.00888600100559622 0.9955479192840633 -0.04471637853370556 0.0037085008789944827 0.018649043836553008
0.08753647353064001 0.003975360724758357 0.02018836388478081 0.9951957563897034 -0.04824195446908985 0.0009437355314340462 0.009574331229242965 -0.000819470710431886 -0.006094435239881056
 0.9951957563897034 -0.04824195446908985 0.003975612511421237 0.02018833714541026 -0.0008188837756526416 -0.006094452004809011 0.0009449366174313971 0.009574187146905366
 0.0009437355314340462 0.009574331229242965 -0.0008188837756526416 -0.006094452004809011 0.003975753166408895 0.020189493168644886 0.9951957941495727 -0.0482407830991786
 -0.000819470710431886 -0.006094435239881056 0.0009449366174313971 0.009574187146905366 0.9951957941495727 -0.0482407830991786 0.003975290038883626 0.02018951899328877
0.09378907878283 0.0042548136731430505 0.021742523374929965 0.9948270014815015 -0.05177865452885048 0.001054977019479425 0.01026287775942786 -0.0009145467693692741 -0.006536176323800755
 0.9948270014815015 -0.05177865452885048 0.004255102857172429 0.021742492146256728 -0.0009138749777342383 -0.00653619980865343 0.0010563570807078121 0.010262709050501202
 0.001054977019479425 0.01026287775942786 -0.0009138749777342383 -0.00653619980865343 0.0042552637579465775 0.021743729273605315 0.9948270446268423 -0.051777398917141275
 -0.0009145467693692741 -0.006536176323800755 0.0010563570807078121 0.010262709050501202 0.9948270446268423 -0.051777398917141275 0.004254732134643782 0.021743758538539874
0.100041684035 0.004547139712481515 0.023310262847450983 0.9944414076586173 -0.055327472548373044 0.0011728660261899747 0.010951683548858743 -0.0010153079662098222 -0.006978343010261253
 0.9944414076586173 -0.055327472548373044 0.004547468896770917 0.02331022660042024 -0.001014545822950409 -0.006978374235305691 0.001174437692435505 0.010951487558222643
 0.0011728660261899747 0.010951683548858743 -0.001014545822950409 -0.006978374235305691 0.004547651367799258 0.02331154455135783 0.9944414565704969 -0.0553261325438461
 -0.0010153079662098222 -0.006978343010261253 0.001174437692435505 0.010951487558222643 0.9944414565704969 -0.0553261325438461 0.004547046516144928 0.023311577590152763
0.1059090909091 0.004833359416229401 0.02479360823625561 0.9940640633830942 -0.058668591661003 0.0012895906434753095 0.011598218289771802 -0.001115085794378834 -0.007393583119746577
 0.9940640633830942 -0.058668591661003 0.0048337285044141925 0.024793566765967844 -0.001114233904881851 -0.007393622583392415 0.0012913536292457196 0.011597994152325023
 0.0012895906434753095 0.011598218289771802 -0.001114233904881851 -0.007393622583392415 0.004833932415582753 0.024794960290594602 0.9940641180585595 -0.058667172314315605
 -0.001115085794378834 -0.007393583119746577 0.0012913536292457196 0.011597994152325023 0.9940641180585595 -0.058667172314315605 0.004833254539590489 0.024794997195532267
0.1062942892872 0.004852557498372229 0.02489139971614899 0.9940387609987996 -0.05888830584554551 0.0012974614095183654 0.011640667481782318 -0.0011218144132258544 -0.007420852757262687
 0.9940387609987996 -0.05888830584554551 0.004852929286505786 0.024891357884779648 -0.0011209564646708975 -0.00742089279589852 0.0012992373463528283 0.011640441407204128
 0.0012974614095183654 0.011640667481782318 -0.0011209564646708975 -0.00742089279589852 0.004853134645776554 0.02489275636119686 0.9940388160648055 -0.0588868812848482
 -0.0011218144132258544 -0.007420852757262687 0.0012992373463528283 0.011640441407204128 0.9940388160648055 -0.0588868812848482 0.0048524518297520915 0.024892793531437325
0.11254689453939999 0.00517128494356491 0.0264857526142558 0.9936188479067084 -0.062461043490935085 0.0014288209727561345 0.012329746412007353 -0.0012341251143900705 -0.00786362157691744
 0.9936188479067084 -0.062461043490935085 0.005171701939051357 0.026485704595240578 -0.0012331659480216352 -0.007863671555623609 0.001430813880423881 0.012329487302376943
 0.0014288209727561345 0.012329746412007353 -0.0012331659480216352 -0.007863671555623609 0.005171931497832132 0.026487183282078972 0.993618909520592 -0.062459534197700665
 -0.0012341251143900705 -0.00786362157691744 0.001430813880423881 0.012329487302376943 0.993618909520592 -0.062459534197700665 0.005171165977203158 0.026487224965772615
0.11879949979160001 0.00550353917039518 0.02809314057395545 0.9931814552068446 -0.0660455670881429 0.0015670014151012849 0.01301883521344858 -0.0013522979229441635 -0.00830656399477766
 0.9931814552068446 -0.0660455670881429 0.005504003976328118 0.02809308572611095 -0.0013512321674360413 -0.0083066250930571 0.0015692240272679877 0.013018539966971082
 0.0015670014151012849 0.01301883521344858 -0.0013512321674360413 -0.0083066250930571 0.0055042590392347344 0.028094644291594587 0.9931815237692467 -0.06604397287282686
 -0.0013522979229441635 -0.00830656399477766 0.0015692240272679877 0.013018539966971082 0.9931815237692467 -0.06604397287282686 0.005503406069708339 0.028094690895516118
0.1250521050438 0.005849536459506844 0.029713382374530493 0.9927263702333502 -0.06964175138796015 0.0017120582828318853 0.013707846829162929 -0.0014763894976010706 -0.008749593012971162
 0.9927263702333502 -0.06964175138796015 0.005850051677618715 0.02971332001840164 -0.0014752118229498206 -0.008749666463278493 0.001714523365036482 0.013707512191600749
 0.0017120582828318853 0.013707846829162929 -0.0014752118229498206 -0.008749666463278493 0.005850333542820143 0.029714958112003517 0.9927264461523789 -0.06964007204985484
 -0.0014763894976010706 -0.008749593012971162 0.001714523365036482 0.013707512191600749 0.9927264461523789 -0.06964007204985484 0.0058493883753080985 0.02971501006809716
0.131304710296 0.006209492193180511 0.03134629602409433 0.9922533809185826 -0.07324946477188571 0.001864045919632458 0.014396692311677922 -0.001606455258543149 -0.009192620084504988
 0.9922533809185826 -0.07324946477188571 0.006210060423265903 0.03134622544148321 -0.0016051603762069406 -0.009192707172174748 0.0018667662680348735 0.014396314874593913
 0.001864045919632458 0.014396692311677922 -0.0016051603762069406 -0.009192707172174748 0.0062103703823248955 0.03134794269655251 0.9922534646098938 -0.07324770009654692
 -0.001606455258543149 -0.009192620084504988 0.0018667662680348735 0.014396314874593913 0.9922534646098938 -0.07324770009654692 0.006209328262857595 0.03134800046235484
0.1375573155481 0.006495217178049096 0.032778334362721914 0.9918507050964321 -0.07665513684569912 0.0020021306993434347 0.015063319961286454 -0.0017216622988926822 -0.009613606497757457
 0.9918507050964321 -0.07665513684569912 0.006495839992931987 0.032778255055747885 -0.0017202423714877343 -0.009613707146910507 0.0020051120033665504 0.015062900621428085
 0.0020021306993434347 0.015063319961286454 -0.0017202423714877343 -0.009613707146910507 0.006496179831243562 0.0327800510161108 0.9918507969129239 -0.07665328671257089
 -0.0017216622988926822 -0.009613606497757457 0.0020051120033665504 0.015062900621428085 0.9918507969129239 -0.07665328671257089 0.006495036155337752 0.03278011515148303
0.1438099208003 0.006790788295829698 0.03420379326848424 0.9914342486293746 -0.08005315428057441 0.002145792260650462 0.015727841645516206 -0.0018414917252621839 -0.010032655811308432
 0.9914342486293746 -0.08005315428057441 0.006791468110208169 0.03420370453346987 -0.001839941064536142 -0.010032771268686463 0.002149046073461762 0.0157273773282611
 0.002145792260650462 0.015727841645516206 -0.001839941064536142 -0.010032771268686463 0.006791839196189422 0.03420557878473421 0.9914343489850642 -0.08005121848048798
 -0.0018414917252621839 -0.010032655811308432 0.002149046073461762 0.0157273773282611 0.9914343489850642 -0.08005121848048798 0.006790589232457884 0.03420564978474472
0.1500625260525 0.007096113822894377 0.03562258239456785 0.9910041063720573 -0.08344346202454138 0.0022949883491194785 0.01639020916090956 -0.0019659023299601476 -0.010449721360227423
 0.9910041063720573 -0.08344346202454138 0.007096853038444079 0.0356224835014771 -0.001964215256638124 -0.010449852922247076 0.0022985261702963217 0.01638969668013687
 0.0022949883491194785 0.01639020916090956 -0.001964215256638124 -0.010449852922247076 0.007097256739389408 0.03562443561153584 0.9910042156876981 -0.08344144033906968
 -0.0019659023299601476 -0.010449721360227423 0.0022985261702963217 0.01638969668013687 0.9910042156876981 -0.08344144033906968 0.0070958957539913195 0.03562451399337534
0.15631513130469998 0.007411101529288241 0.037034614280290604 0.990560373501914 -0.08682600466780721 0.0024496762976029705 0.01705037499662019 -0.0020948524768881877 -0.010864757374357928
