! Created with skrf 1.8.0 (http://scikit-rf.org).
# GHz S RI R 50.0 
!freq ReS11 ImS11 ReS12 ImS12 ReS13 ImS13
! ReS14 ImS14
! ReS21 ImS21 ReS22 ImS22 ReS23 ImS23
! ReS24 ImS24
! ReS31 ImS31 ReS32 ImS32 ReS33 ImS33
! ReS34 ImS34
! ReS41 ImS41 ReS42 ImS42 ReS43 ImS43
! ReS44 ImS44
!
0.0 0.0009360403871739 0.0 0.9990639596128 0.0 3.537295070828e-05 0.0 -3.537295071898e-05 4.331937087439593e-21
 0.9990639596128 0.0 0.000936040387157 0.0 -3.537295071875e-05 4.3319370874114255e-21 3.537295070728e-05 0.0
 3.537295070828e-05 0.0 -3.537295071875e-05 4.3319370874114255e-21 0.0009360403772205 0.0 0.9990639596029 0.0
 -3.537295071898e-05 4.331937087439593e-21 3.537295070728e-05 0.0 0.9990639596029 0.0 0.0009360403772144 0.0
0.005 0.001006043079390337 0.0007607905098253103 0.998975532285432 -0.0019626404163210266 4.9748760086814e-05 0.00042344914095834065 -4.822414135198087e-05 -0.0002601132580551344
 0.998975532285432 -0.0019626404163210266 0.0010060427046280152 0.000760790709251286 -4.82254224224509e-05 -0.00026011418244378115 4.9748735026775114e-05 0.00042344915079357967
 4.9748760086814e-05 0.00042344914095834065 -4.82254224224509e-05 -0.00026011418244378115 0.001006042415633706 0.0007607236240799765 0.9989755319728876 -0.0019627074723989175
 -4.822414135198087e-05 -0.0002601132580551344 4.9748735026775114e-05 0.00042344915079357967 0.9989755319728876 -0.0019627074723989175 0.0010060427467554727 0.0007607234863216855
0.006252605252188 0.0010240867478996233 0.0009540522613682218 0.9989526452653862 -0.002453831062805135 5.367304374219057e-05 0.0005295215078993826 -5.170599412138967e-05 -0.0003255046686471574
 0.9989526452653862 -0.002453831062805135 0.0010240861621793687 0.0009540525053329807 -5.1707988110870854e-05 -0.0003255058082083882 5.367300462118404e-05 0.0005295215198549741
 5.367304374219057e-05 0.0005295215078993826 -5.1707988110870854e-05 -0.0003255058082083882 0.0010240857945728345 0.0009539686526506238 0.9989526448608899 -0.002453914881313582
 -5.170599412138967e-05 -0.0003255046686471574 5.367300462118404e-05 0.0005295215198549741 0.9989526448608899 -0.002453914881313582 0.0010240863117358208 0.0009539684846981785
0.01250521050438 0.00111723268480814 0.0019287678080747567 0.9988339514128873 -0.004908688081530728 7.521188149688335e-05 0.0010593749105420847 -7.067484370276441e-05 -0.0006528250367550896
 0.9988339514128873 -0.004908688081530728 0.0011172303497701602 0.0019287682440168859 -7.068270904127772e-05 -0.0006528271463833871 7.521172735764273e-05 0.0010593749316629689
 7.521188149688335e-05 0.0010593749105420847 -7.068270904127772e-05 -0.0006528271463833871 0.0011172294441972722 0.0019286008087815458 0.9988339503562996 -0.004908855480956713
 -7.067484370276441e-05 -0.0006528250367550896 7.521172735764273e-05 0.0010593749316629689 0.9988339503562996 -0.004908855480956713 0.0011172315013898155 0.0019286005148903516
0.01875781575657 0.001215613740443112 0.002918024796710646 0.9987077796618138 -0.007370614621907797 0.00010002680468935273 0.0015899919147249523 -9.232276976271904e-05 -0.0009814814589931913
 0.9987077796618138 -0.007370614621907797 0.0012156085014908963 0.0029180253768236217 -9.234032091902986e-05 -0.000981484348025668 0.0001000264625529363 0.0015899919432786759
 0.00010002680468935273 0.0015899919147249523 -9.234032091902986e-05 -0.000981484348025668 0.0012156068912255302 0.002917774491639128 0.9987077777051486 -0.007370865528791692
 -9.232276976271904e-05 -0.0009814814589931913 0.0001000264625529363 0.0015899919432786759 0.9987077777051486 -0.007370865528791692 0.0012156114984341365 0.002917774111652182
0.02501042100875 0.0013193646279766854 0.003920487030651997 0.9985740299055139 -0.009840866121627153 0.00012815566012616694 0.0021214440948637736 -0.00011669236466893761 -0.0013113529976567502
 0.9985740299055139 -0.009840866121627153 0.0013193553371213529 0.003920487710152619 -0.00011672337539430462 -0.0013113564504259507 0.00012815505918800828 0.0021214441299198744
 0.00012815566012616694 0.0021214440948637736 -0.00011672337539430462 -0.0013113564504259507 0.0013193528613402897 0.0039201535044692416 0.9985740268016682 -0.009841200492635678
 -0.00011669236466893761 -0.0013113529976567502 0.00012815505918800828 0.0021214441299198744 0.9985740268016682 -0.009841200492635678 0.0013193610175578532 0.003920153076727612
0.03126302626094 0.0014286137205198257 0.004935497402733923 0.9984325948633962 -0.012320016429074548 0.00015963698047896077 0.0026537512995446757 -0.00014382534592057285 -0.0016423690090873761
 0.9984325948633962 -0.012320016429074548 0.001428599235729067 0.004935498139658965 -0.0001438735567814133 -0.0016423727843508308 0.00015963605164367756 0.002653751340941676
 0.00015963698047896077 0.0026537512995446757 -0.0001438735567814133 -0.0016423727843508308 0.0014285957371608469 0.004935080737744828 0.9984325903636769 -0.01232043425325007
 -0.00014382534592057285 -0.0016423690090873761 0.00015963605164367756 0.002653751340941676 0.9984325903636769 -0.01232043425325007 0.0014286084311516656 0.004935080299148593
0.037515631513130004 0.0015434865993783065 0.0059626505884945395 0.9982833636632491 -0.014808385084273684 0.00019450959108841415 0.0031869136854494077 -0.0001737629272105985 -0.0019744771005959856
 0.9982833636632491 -0.014808385084273684 0.001543465783905004 0.005962651343722208 -0.00017383204947323902 -0.0019744809312899634 0.0001945082665804965 0.0031869137338216376
 0.00019450959108841415 0.0031869136854494077 -0.00017383204947323902 -0.0019744809312899634 0.0015434611092268772 0.005962150884587927 0.9982833575171689 -0.014808886363208706
 -0.0001737629272105985 -0.0019744771005959856 0.0001945082665804965 0.0031869137338216376 0.9982833575171689 -0.014808886363208706 0.0015434793199492268 0.005962150470710248
0.043768236765320004 0.0016641074212033326 0.007001663049100366 0.9981262232425177 -0.017306167287571478 0.0002328124368502283 0.0037209214701338826 -0.0002065459679931707 -0.002307633367733213
 0.9981262232425177 -0.017306167287571478 0.0016640791434184238 0.007001663786281798 -0.00020663968601150324 -0.0023076369608333947 0.00023281064991578516 0.003720921526919863
 0.0002328124368502283 0.0037209214701338826 -0.00020663968601150324 -0.0023076369608333947 0.0016640731454575068 0.0070010804174488826 0.9981262151993079 -0.017306752041850657
 -0.0002065459679931707 -0.002307633367733213 0.00023281064991578516 0.003720921526919863 0.9981262151993079 -0.017306752041850657 0.0016640978423484048 0.007001080062539197
0.050020842017509996 0.0017905995688303755 0.008052319298946347 0.9979610590331458 -0.0198134876024011 0.0002745844896550539 0.00425575894804709 -0.00024221504177440088 -0.0026417983680848203
 0.9979610590331458 -0.0198134876024011 0.0017905627019092882 0.008052319984525508 -0.00024233701454218982 -0.0026418014044979955 0.000274582174282997 0.004255759015527898
 0.0002745844896550539 0.00425575894804709 -0.00024233701454218982 -0.0026418014044979955 0.0017905552375742134 0.008051653869654134 0.9979610488398811 -0.019814155864091968
 -0.00024221504177440088 -0.0026417983680848203 0.000274582174282997 0.004255759015527898 0.9979610488398811 -0.019814155864091968 0.0017905873808829968 0.00805165360669068
0.055454545454549996 0.001905388810844253 0.00897469185794296 0.9978109202026928 -0.02200023420359555 0.0003137333343110485 0.004721207544778483 -0.00027558768058162506 -0.002932988348253235
 0.9978109202026928 -0.02200023420359555 0.0019053435683066685 0.0089746924736148 -0.00027573716029682927 -0.002932990621439468 0.0003137305064106169 0.004721207624087055
 0.0003137333343110485 0.004721207544778483 -0.00027573716029682927 -0.002932990621439468 0.0019053347177793905 0.00897395459454813 0.9978109079345755 -0.022000975071696287
 -0.00027558768058162506 -0.002932988348253235 0.0003137305064106169 0.004721207624087055 0.9978109079345755 -0.022000975071696287 0.0019053741050011875 0.00897395443730502
0.056273447269699996 0.0019230859947073319 0.00911444553276457 0.9977877553408316 -0.02233042629807589 0.0003198646901791734 0.004791406460715311 -0.0002808104694382474 -0.0029769351409639957
 0.9977877553408316 -0.02233042629807589 0.0019230394166446418 0.009114446135994513 -0.00028096433172853264 -0.002976937275449369 0.0003198617807483007 0.004791406542051483
 0.0003198646901791734 0.004791406460715311 -0.00028096433172853264 -0.002976937275449369 0.001923030348385711 0.00911369745375942 0.9977877427431582 -0.022331178112044277
 -0.0002808104694382474 -0.0029769351409639957 0.0003198617807483007 0.004791406542051483 0.9977877427431582 -0.022331178112044277 0.0019230708892362758 0.009113697314481011
0.06252605252188 0.0020616894203981592 0.010187895133088414 0.9976061955800523 -0.02485703381206295 0.0003686919060605193 0.005327841478531035 -0.0003223723356105899 -0.003313008115689865
 0.9976061955800523 -0.02485703381206295 0.0020616320136495935 0.010187895626077378 -0.0003225616987207829 -0.0033130089767870537 0.00036868833711109397 0.0053278415777982735
 0.0003686919060605193 0.005327841478531035 -0.0003225616987207829 -0.0033130089767870537 0.002061621209106521 0.010187064571697595 0.9976061803212729 -0.024857869234533685
 -0.0003223723356105899 -0.003313008115689865 0.00036868833711109397 0.0053278415777982735 0.9976061803212729 -0.024857869234533685 0.002061671089801826 0.010187064586583182
0.06877865777407 0.002206532457081145 0.011272540029564451 0.9974162624310798 -0.027393339360453246 0.00042110490009513135 0.005865039241823394 -0.0003669404945247383 -0.003649982460846038
 0.9974162624310798 -0.027393339360453246 0.002206463108565578 0.011272540387285786 -0.00036716894689976337 -0.003649981650808216 0.0004211006059874984 0.005865039364064389
 0.00042110490009513135 0.005865039241823394 -0.00036716894689976337 -0.003649981650808216 0.002206450441178773 0.011271627171289047 0.9974162442525809 -0.027394258460454127
 -0.0003669404945247383 -0.003649982460846038 0.0004211006059874984 0.005865039364064389 0.9974162442525809 -0.027394258460454127 0.002206510595207162 0.011271627369629719
0.07503126302626001 0.002357737681084484 0.012368265213945257 0.9972178379532891 -0.02993935639286029 0.00047714230404064434 0.006402973163655382 -0.00041455456977070726 -0.0039878236721461145
 0.9972178379532891 -0.02993935639286029 0.0023576552821460567 0.01236826541427494 -0.0004148256774117958 -0.003987820766880493 0.0004771372186797082 0.0064029733149341735
 0.00047714230404064434 0.006402973163655382 -0.0004148256774117958 -0.003987820766880493 0.0023576406311563523 0.012367270267098883 0.9972178165938305 -0.02994035924768311
 -0.00041455456977070726 -0.0039878236721461145 0.0004771372186797082 0.0064029733149341735 0.9972178165938305 -0.02994035924768311 0.0023577119835426976 0.012367270676944776
0.08128386827845 0.002515427680727554 0.013474965109349705 0.9970108036697984 -0.03249508619319594 0.0005368425954266305 0.006941615098842846 -0.00046525395054065183 -0.004326497294448251
 0.9970108036697984 -0.03249508619319594 0.0025153311269031408 0.013474965133119259 -0.00046557125734591424 -0.004326491843451654 0.0005368366519786494 0.006941615286285421
 0.0005368425954266305 0.006941615098842846 -0.00046557125734591424 -0.004326491843451654 0.0025153143775735265 0.013473888299391376 0.9970107788655207 -0.03249617289430771
 -0.00046525395054065183 -0.004326497294448251 0.0005368366519786494 0.006941615286285421 0.9970107788655207 -0.03249617289430771 0.00251539784484746 0.013473888947611335
0.08753647353064001 0.0026797250847213202 0.014592541037230438 0.9967950406349046 -0.03506052038319989 0.0006002440767744992 0.007480935526085572 -0.0005190777850174621 -0.004665968731021153
 0.9967950406349046 -0.03506052038319989 0.0026796132758572194 0.014592540868246372 -0.0005194448130272894 -0.004665960257338538 0.000600237207361736 0.007480935757956166
 0.0006002440767744992 0.007480935526085572 -0.0005194448130272894 -0.004665960257338538 0.002679594319571175 0.014591382611797044 0.996795012119044 -0.03506169103129098
 -0.0005190777850174621 -0.004665968731021153 0.000600237207361736 0.007480935757956166 0.996795012119044 -0.03506169103129098 0.0026796908100104283 0.014591383524070736
0.09378907878283 0.002850752578442947 0.015720899421425762 0.9965704294902087 -0.0376356426889018 0.0006673848564272067 0.008020903678985124 -0.0005760649716839331 -0.005006203104392494
 0.9965704294902087 -0.0376356426889018 0.002850624418465795 0.015720899046538537 -0.0005764852212603211 -0.0050061911045535985 0.0006673769918268609 0.00802090396474238
 0.0006673848564272067 0.008020903678985124 -0.0005764852212603211 -0.0050061911045535985 0.0028506031532605754 0.015719659648930403 0.9965703969927242 -0.037636897395564695
 -0.0005760649716839331 -0.005006203104392494 0.0006673769918268609 0.00802090396474238 0.9965703969927242 -0.037636897395564695 0.0028507135668030103 0.015719660849767537
0.100041684035 0.003028632910865529 0.016859950465594353 0.9963368505119214 -0.04022043023448329 0.0007383028301066022 0.008561487637598482 -0.0006362541494460906 -0.005347165157080946
 0.9963368505119214 -0.04022043023448329 0.0030284873079090223 0.016859949874693796 -0.0006367310993878866 -0.005347149101054981 0.0007382938994276897 0.008561487987960819
 0.0007383028301066022 0.008561487637598482 -0.0006367310993878866 -0.005347149101054981 0.0030284636383835126 0.016858629634200838 0.9963368137594276 -0.04022176912323717
 -0.0006362541494460906 -0.005347165157080946 0.0007382938994276897 0.008561487987960819 0.9963368137594276 -0.04022176912323717 0.003028588867071304 0.01685863114693115
0.1059090909091 0.0032018967184873426 0.017938476371785424 0.9961093983375051 -0.04265474429947984 0.0008083206975549449 0.009069299033230562 -0.0006956816662071077 -0.0056677518862083285
 0.9961093983375051 -0.04265474429947984 0.0032017337575454274 0.017938475571795034 -0.0006962149682057637 -0.005667731518132205 0.0008083107002924951 0.009069299455160353
 0.0008083206975549449 0.009069299033230562 -0.0006962149682057637 -0.005667731518132205 0.003201707751298072 0.017937079757382856 0.9961093573402551 -0.04265616230490116
 -0.0006956816662071077 -0.0056677518862083285 0.0008083107002924951 0.009069299455160353 0.9961093573402551 -0.04265616230490116 0.003201847686614434 0.01793708158299153
0.1062942892872 0.00321348889597304 0.018009607155918605 0.9960941836536673 -0.04281485451084623 0.0008130356630555469 0.009102654401246815 -0.000699683686672323 -0.005688819171525298
 0.9960941836536673 -0.04281485451084623 0.003213324762119563 0.018009606342041753 -0.0007002207942952084 -0.005688798502682776 0.0008130255934904779 0.009102654828273923
 0.0008130356630555469 0.009102654401246815 -0.0007002207942952084 -0.005688798502682776 0.003213298599895421 0.018008205576402283 0.9960941423691081 -0.04281627771452676
 -0.000699683686672323 -0.005688819171525298 0.0008130255934904779 0.009102654828273923 0.9960941423691081 -0.04281627771452676 0.0032134395277585753 0.018008207423215926
0.11254689453939999 0.0034054434080276526 0.01916978450273757 0.995842308583499 -0.04541888210588102 0.0008916207729060753 0.009644369938369318 -0.000766391669163407 -0.00603112891350029
 0.995842308583499 -0.04541888210588102 0.003405259659382681 0.019169783462066037 -0.0007669923703460673 -0.006031103048559749 0.0008916094893624228 0.009644370455540409
 0.0008916207729060753 0.009644369938369318 -0.0007669923703460673 -0.006031103048559749 0.003405230923234056 0.019168302507139703 0.9958422624860699 -0.04542038976809599
 -0.000766391669163407 -0.00603112891350029 0.0008916094893624228 0.009644370455540409 0.9958422624860699 -0.04542038976809599 0.0034053884265167252 0.019168304709053924
0.11879949979160001 0.0036046193746649903 0.020340398941279977 0.9955811047204581 -0.04803247527615722 0.0009740953125781019 0.0101865992287708 -0.0008364158875512099 -0.006374057583597825
 0.9955811047204581 -0.04803247527615722 0.003604414931263718 0.02034039767322906 -0.0008370835967492592 -0.006374025912592305 0.0009740827373691094 0.010186599851064878
 0.0009740953125781019 0.0101865992287708 -0.0008370835967492592 -0.006374025912592305 0.0036043835473190933 0.020338836882827782 0.99558105352497 -0.048034067551477856
 -0.0008364158875512099 -0.006374057583597825 0.0009740827373691094 0.010186599851064878 0.99558105352497 -0.048034067551477856 0.0036045584945382145 0.020338839459734137
0.1250521050438 0.0038111397656102157 0.021521367859749913 0.9953104512662445 -0.050655592391594166 0.0010604961534519447 0.010729306293257468 -0.0009097938240053389 -0.006717567781886153
 0.9953104512662445 -0.050655592391594166 0.003810913551557061 0.021521366366965555 -0.0009105319342646866 -0.006717529668123906 0.0010604822060108641 0.010729307037251206
 0.0010604961534519447 0.010729306293257468 -0.0009105319342646866 -0.006717529668123906 0.0038108794536684297 0.02151972611323005 0.9953103946833044 -0.05065726944534423
 -0.0009097938240053389 -0.006717567781886153 0.0010604822060108641 0.010729307037251206 0.9953103946833044 -0.05065726944534423 0.0038110727057789288 0.02151972908387157
0.131304710296 0.004025127580183824 0.022712609221065126 0.9950302272378125 -0.05328818828706792 0.001150859868503101 0.01127245422092945 -0.0009865626386262756 -0.007061621475415105
 0.9950302272378125 -0.05328818828706792 0.004024878523385618 0.02271260750950278 -0.0009873745215199833 -0.0070615762554481236 0.0011508444650459714 0.01127245510486171
 0.001150859868503101 0.01127245422092945 -0.0009873745215199833 -0.0070615762554481236 0.004024841653359376 0.02271088818278049 0.9950301649731894 -0.05328995029540293
 -0.0009865626386262756 -0.007061621475415105 0.0011508444650459714 0.01127245510486171 0.9950301649731894 -0.05328995029540293 0.004025054063809268 0.022710891564758497
0.1375573155481 0.004187356941490936 0.023756226792872523 0.9947996698331238 -0.055772373641775196 0.0012307846252720986 0.011798768685714072 -0.0010523209847834029 -0.007388947074570366
 0.9947996698331238 -0.055772373641775196 0.004187083542174893 0.023756225399001487 -0.0010532113563338644 -0.007388894968413107 0.0012307674876070366 0.011798769723785867
 0.0012307846252720986 0.011798768685714072 -0.0010532113563338644 -0.007388894968413107 0.004187043556243173 0.023754427206797938 0.9947996016360755 -0.05577422071136527
 -0.0010523209847834029 -0.007388947074570366 0.0012307674876070366 0.011798769723785867 0.9947996016360755 -0.05577422071136527 0.004187276901362129 0.023754430749773032
0.1438099208003 0.004354860268141447 0.024795823426535905 0.9945617409373084 -0.05825180052747923 0.001313911997129517 0.012323983838145088 -0.001120711106313215 -0.0077152755896333245
 0.9945617409373084 -0.05825180052747923 0.004354561381743167 0.024795822408538584 -0.0011216835498495652 -0.0077152159765337845 0.0013138930018075953 0.012323985051346343
 0.001313911997129517 0.012323983838145088 -0.0011216835498495652 -0.0077152159765337845 0.004354518181876686 0.02479394574995834 0.9945616665153745 -0.058253732833082425
 -0.001120711106313215 -0.0077152755896333245 0.0013138930018075953 0.012323985051346343 0.9945616665153745 -0.058253732833082425 0.004354773471419106 0.02479394944073632
0.1500625260525 0.004527594506579852 0.025831357087514887 0.9943164854319428 -0.06072645359281858 0.001400222822747885 0.012848079861328406 -0.0011917143895590723 -0.008040586905390272
 0.9943164854319428 -0.06072645359281858 0.004527268987209406 0.025831356506491182 -0.0011927724842653376 -0.008040519140408839 0.0014002018408331004 0.01284808127248067
 0.001400222822747885 0.012848079861328406 -0.0011927724842653376 -0.008040519140408839 0.0045272224796160335 0.025829401797186013 0.9943164044890349 -0.06072847131692521
 -0.0011917143895590723 -0.008040586905390272 0.0014002018408331004 0.01284808127248067 0.9943164044890349 -0.06072847131692521 0.004527500727266978 0.02582940562069886
