! Created with skrf 1.8.0 (http://scikit-rf.org).
# GHz S RI R 50.0 
!freq ReS11 ImS11 ReS12 ImS12 ReS13 ImS13
! ReS14 ImS14
! ReS21 ImS21 ReS22 ImS22 ReS23 ImS23
! ReS24 ImS24
! ReS31 ImS31 ReS32 ImS32 ReS33 ImS33
! ReS34 ImS34
! ReS41 ImS41 ReS42 ImS42 ReS43 ImS43
! ReS44 ImS44
!
0.0 0.00133784931426 0.0 0.9986621506857 0.0 5.126598189693e-05 0.0 -5.126598189786e-05 6.2782720636360406e-21
 0.9986621506857 0.0 0.001337849314272 0.0 -5.126598189742e-05 6.278272063582155e-21 5.126598189834e-05 0.0
 5.126598189693e-05 0.0 -5.126598189742e-05 6.278272063582155e-21 0.00133784930289 0.0 0.9986621506744 0.0
 -5.126598189786e-05 6.2782720636360406e-21 5.126598189834e-05 0.0 0.9986621506744 0.0 0.001337849302927 0.0
0.005 0.0014388895642625395 0.001094682942766436 0.9985344027449867 -0.002803117860709186 7.155156286792257e-05 0.0005657834454048531 -6.952657657052931e-05 -0.00035506720487484873
 0.9985344027449867 -0.002803117860709186 0.001438901175884098 0.001094676124131493 -6.952589912015791e-05 -0.00035506663891304895 7.149091154653074e-05 0.0005658066263514689
 7.155156286792257e-05 0.0005657834454048531 -6.952589912015791e-05 -0.00035506663891304895 0.0014388904815852434 0.0010947496291211771 0.9985344030857631 -0.002803050791779245
 -6.952657657052931e-05 -0.00035506720487484873 7.149091154653074e-05 0.0005658066263514689 0.9985344030857631 -0.002803050791779245 0.001438900932548571 0.0010947435679205771
0.006252605252188 0.0014652342701920857 0.001372682354018073 0.9985009079472721 -0.0035046070025637035 7.726284463077719e-05 0.0007075126023091915 -7.46105833619059e-05 -0.00044430222669141986
 0.9985009079472721 -0.0035046070025637035 0.001465252421284921 0.001372673663519775 -7.460952953814377e-05 -0.0004443015277340584 7.716808280057831e-05 0.0007075426663195433
 7.726284463077719e-05 0.0007075126023091915 -7.460952953814377e-05 -0.0004443015277340584 0.0014652356299313704 0.0013727656958413307 0.9985009084055968 -0.0035045231739953765
 -7.46105833619059e-05 -0.00044430222669141986 7.716808280057831e-05 0.0007075426663195433 0.9985009084055968 -0.0035045231739953765 0.001465251965966445 0.0013727579618458968
0.01250521050438 0.0016030156805979907 0.0027743547673770093 0.9983246851333052 -0.007010164092968826 0.00010957078257292116 0.0014154342176721526 -0.00010307199433852836 -0.0008908568556201286
 0.9983246851333052 -0.007010164092968826 0.0016030881614343814 0.0027743356918599887 -0.00010306784547378871 -0.0008908555494389548 0.0001091929115876809 0.00141550599322128
 0.00010957078257292116 0.0014154342176721526 -0.00010306784547378871 -0.0008908555494389548 0.0016030205566859386 0.002774521088820697 0.9983246864071341 -0.007009996683030722
 -0.00010307199433852836 -0.0008908568556201286 0.0001091929115876809 0.00141550599322128 0.9983246864071341 -0.007009996683030722 0.0016030857774560357 0.002774504034049252
0.01875781575657 0.0017514626548045676 0.004196239166167704 0.9981332859472022 -0.010525235964890124 0.00014825932686401966 0.0021242592848929286 -0.00013673096816861096 -0.0013390396456970672
 0.9981332859472022 -0.010525235964890124 0.001751625529797164 0.004196207879517231 -0.0001367217216702478 -0.001339037838166713 0.0001474105172163469 0.0021243864887619994
 0.00014825932686401966 0.0021242592848929286 -0.0001367217216702478 -0.001339037838166713 0.001751473197621766 0.004196488227973145 0.9981332883910476 -0.010524985020538244
 -0.00013673096816861096 -0.0013390396456970672 0.0001474105172163469 0.0021243864887619994 0.9981332883910476 -0.010524985020538244 0.0017516197339485175 0.004196460166191895
0.02501042100875 0.001910838030139579 0.005636378736219553 0.9979265072622644 -0.01405155902695731 0.00019339921047635715 0.002834037759115426 -0.00017566616496668392 -0.0017886670549583552
 0.9979265072622644 -0.01405155902695731 0.0019111272932742806 0.005636333290995436 -0.00017564984381495432 -0.0017886648682489746 0.00019189156874542402 0.00283423608743278
 0.00019339921047635715 0.002834037759115426 -0.00017564984381495432 -0.0017886648682489746 0.0019108563904216285 0.005636710258455233 0.997926511234398 -0.014051224558910325
 -0.00017566616496668392 -0.0017886670549583552 0.00019189156874542402 0.00283423608743278 0.997926511234398 -0.014051224558910325 0.0019111165951461622 0.0056366694130560195
0.03126302626094 0.0020813935996450476 0.007093783041723507 0.9977041344948517 -0.01758989625613739 0.0002450618745131542 0.003544754879774414 -0.0002199543514941801 -0.0022396164256621295
 0.9977041344948517 -0.01758989625613739 0.0020818451915027617 0.007093721370514161 -0.00021992899980743371 -0.0022396139984840187 0.00024270725784670118 0.0035450420171728773
 0.0002450618745131542 0.003544754879774414 -0.00021992899980743371 -0.0022396139984840187 0.002081421927043091 0.00709419670258999 0.9977041403560161 -0.017589478239674647
 -0.0002199543514941801 -0.0022396164256621295 0.00024270725784670118 0.0035450420171728773 0.9977041403560161 -0.017589478239674647 0.002081828090912937 0.007094141208188623
0.037515631513130004 0.0022633758866657337 0.00856781883782215 0.9974659475073686 -0.021140646332253266 0.000303318764810591 0.0042563706218914235 -0.0002696709644743748 -0.002691786520233247
 0.9974659475073686 -0.021140646332253266 0.0022640257052289788 0.008567738753744052 -0.000269634645232004 -0.002691784007900349 0.000299928693045014 0.004256766260898375
 0.000303318764810591 0.0042563706218914235 -0.000269634645232004 -0.002691784007900349 0.0022634163288931656 0.00856831427078219 0.9974659556212444 -0.021140144709637383
 -0.0002696709644743748 -0.002691786520233247 0.000299928693045014 0.004256766260898375 0.9974659556212444 -0.021140144709637383 0.0022640006906277615 0.008568242174081067
0.043768236765320004 0.0024570283819925643 0.010058024719186232 0.9972117229748967 -0.02470402892948954 0.0003682410088320839 0.004968831689776249 -0.00032489032125081646 -0.0031450855166259596
 0.9972117229748967 -0.02470402892948954 0.0024579122901873503 0.010057923916105114 -0.00032484111484941863 -0.003145083091062142 0.0003636266182769276 0.004969357553357022
 0.0003682410088320839 0.004968831689776249 -0.00032484111484941863 -0.003145083091062142 0.0024570830849449683 0.010058601503038559 0.9972117337093171 -0.024703443619401518
 -0.00032489032125081646 -0.0031450855166259596 0.0003636266182769276 0.004969357553357022 0.9972117337093171 -0.024703443619401518 0.0024578778389971025 0.010058510763423848
0.050020842017509996 0.0026625925862655167 0.011564034491742113 0.9969412355613239 -0.02828016128280594 0.00043989922703543846 0.005682076470053419 -0.00038568570454282456 -0.0035994260456036
 0.9969412355613239 -0.02828016128280594 0.0026637464187944447 0.011563910544070298 -0.0003856217078849241 -0.0035994238953174717 0.0004338712464979954 0.005682756335529511
 0.00043989922703543846 0.005682076470053419 -0.0003856217078849241 -0.0035994238953174717 0.0026626636937713585 0.011564692149956701 0.9969412492895668 -0.028279492180440773
 -0.00038568570454282456 -0.0035994260456036 0.0004338712464979954 0.005682756335529511 0.9969412492895668 -0.028279492180440773 0.002663700996872697 0.011564580639883587
0.055454545454549996 0.002851094347814887 0.012885396616581345 0.9966927903428812 -0.0313983248804743 0.0005076971963122669 0.006302491958749787 -0.00044310330854983176 -0.003995041274232244
 0.9966927903428812 -0.0313983248804743 0.002852511837077192 0.012885250492763546 -0.00044302492548945323 -0.003995039529119117 0.0005002867268099604 0.006303326580635233
 0.0005076971963122669 0.006302491958749787 -0.00044302492548945323 -0.003995039529119117 0.0028511814491972965 0.012886124128528022 0.996692806979531 -0.03139758285492464
 -0.00044310330854983176 -0.003995041274232244 0.0005002867268099604 0.006303326580635233 0.996692806979531 -0.03139758285492464 0.0028524556248534774 0.012885992773174685
0.056273447269699996 0.002880308560819983 0.01308553956724538 0.9966542586049276 -0.0318690957311649 0.0005183634047122672 0.0063960374558215405 -0.0004521293902772311 -0.004054722758459444
 0.9966542586049276 -0.0318690957311649 0.0028817681296303536 0.013085389929739 -0.000452048716125647 -0.004054721088514055 0.0005107321442418749 0.006396897179449199
 0.0005183634047122672 0.0063960374558215405 -0.000452048716125647 -0.004054721088514055 0.0028803982126856115 0.01308627757013402 0.9966542757049841 -0.03186834270557768
 -0.0004521293902772311 -0.004054722758459444 0.0005107321442418749 0.006396897179449199 0.9966542757049841 -0.03186834270557768 0.002881710189400582 0.013086143075411642
0.06252605252188 0.003110415227533596 0.014622268293343035 0.9963505645570654 -0.035470840326402436 0.0006037027921390254 0.007110642580735712 -0.0005242926476069827 -0.0045108909866008835
 0.9963505645570654 -0.035470840326402436 0.003112216327054949 0.014622090300730854 -0.0005241934240858362 -0.004510890018589853 0.0005942781409026572 0.007111710122635695
 0.0006037027921390254 0.007110642580735712 -0.0005241934240858362 -0.004510890018589853 0.003110525559462038 0.014623086053418947 0.9963505854132112 -0.03547000322466035
 -0.0005242926476069827 -0.0045108909866008835 0.0005942781409026572 0.007111710122635695 0.9963505854132112 -0.03547000322466035 0.0031121443077509036 0.014622926273276864
0.06877865777407 0.0033531505398707697 0.016173973623132255 0.9960299252936183 -0.03908537110392996 0.0006959858222000577 0.007825816009729732 -0.0006022457217734485 -0.004967845946541468
 0.9960299252936183 -0.03908537110392996 0.0033553289520718336 0.01617376448958121 -0.0006021260920452695 -0.004967845918551158 0.0006845772522035255 0.007827121458960126
 0.0006959858222000577 0.007825816009729732 -0.0006021260920452695 -0.004967845918551158 0.003353283682611231 0.016174870495237994 0.9960299502966925 -0.0390844497505554
 -0.0006022457217734485 -0.004967845946541468 0.0006845772522035255 0.007827121458960126 0.9960299502966925 -0.0390844497505554 0.0033552412788182264 0.01617468304236795
0.07503126302626001 0.0036087515749027932 0.01774042530399354 0.9956921123502424 -0.04271263983624189 0.000795280037278146 0.008541478642320098 -0.0006860578071975946 -0.0054255022344208
 0.9956921123502424 -0.04271263983624189 0.00361134307366297 0.01774018212251611 -0.0006859159291513891 -0.005425503400993496 0.0007816966115125303 0.008543054242021012
 0.000795280037278146 0.008541478642320098 -0.0006859159291513891 -0.005425503400993496 0.0036089096532713797 0.017741400581743543 0.9956921418987824 -0.04271163403624742
 -0.0006860578071975946 -0.0054255022344208 0.0007816966115125303 0.008543054242021012 0.9956921418987824 -0.04271163403624742 0.003611238157105465 0.017741182982175585
0.08128386827845 0.003877454576253996 0.019321404665419758 0.9953368971115585 -0.046352579189345926 0.0009016520219327861 0.009257548446484553 -0.0007757970138693193 -0.005883773492263318
 0.9953368971115585 -0.046352579189345926 0.0038804949320829095 0.01932112440710933 -0.0007756310599534654 -0.005883776124364178 0.0008857024061663772 0.009259428618985984
 0.0009016520219327861 0.009257548446484553 -0.0007756310599534654 -0.005883776124364178 0.003877639707948834 0.019322457587434682 0.995336931612027 -0.04635148872170523
 -0.0007757970138693193 -0.005883773492263318 0.0008857024061663772 0.009259428618985984 0.995336931612027 -0.04635148872170523 0.0038803711671762083 0.019322207280307483
0.08753647353064001 0.004159494964155778 0.02091670102708433 0.994964050969536 -0.05000510626158776 0.0010151673396898845 0.00997394069061746 -0.0008715303290322936 -0.006342572178537694
 0.994964050969536 -0.05000510626158776 0.004163019948829811 0.02091638054021764 -0.000871338486081012 -0.006342576563509609 0.00099665981685022 0.009976162062470388
 0.0010151673396898845 0.00997394069061746 -0.000871338486081012 -0.006342576563509609 0.0041597092595581 0.020917830772928775 0.9949640908375603 -0.050003930882806295
 -0.0008715303290322936 -0.006342572178537694 0.00099665981685022 0.009976162062470388 0.9949640908375603 -0.050003930882806295 0.004162875715070074 0.02091754511011084
0.09378907878283 0.004455107324828766 0.022526109128135095 0.9945733454637612 -0.05367012510358777 0.0011358904719154927 0.010690568110082775 -0.0009733235757160446 -0.006801809406583555
 0.9945733454637612 -0.05367012510358777 0.0044591527155379545 0.022525745137175895 -0.0009731040448364117 -0.00680181584811029 0.0011146329588264255 0.010693169536965771
 0.0011358904719154927 0.010690568110082775 -0.0009731040448364117 -0.00680181584811029 0.004455352885030278 0.0225273148159986 0.9945733911241942 -0.05366886454975081
 -0.0009733235757160446 -0.006801809406583555 0.0011146329588264255 0.010693169536965771 0.9945733911241942 -0.05366886454975081 0.004458986375318041 0.02252699106159281
0.100041684035 0.004764525382245487 0.024149427232503542 0.9941645524063469 -0.05734752856505716 0.0012638847586919672 0.011407341031949915 -0.0010812413684038208 -0.007261394827421704
 0.9941645524063469 -0.05734752856505716 0.00476912696629333 0.02414901633695338 -0.001080992364874423 -0.007261403645495267 0.0012396848247826838 0.011410363623409438
 0.0012638847586919672 0.011407341031949915 -0.001080992364874423 -0.007261403645495267 0.00476480429865483 0.02415070791981497 0.9941646042944657 -0.057346182550861935
 -0.0010812413684038208 -0.007261394827421704 0.0012396848247826838 0.011410363623409438 0.9941646042944657 -0.057346182550861935 0.004768936864894391 0.02415034324948395
0.1059090909091 0.005067644949040567 0.025685212246076183 0.9937642901251031 -0.06080954127039804 0.0013906622261798188 0.012080006818063104 -0.0011881374350477733 -0.007692901839066201
 0.9937642901251031 -0.06080954127039804 0.005072801022301051 0.025684754130379663 -0.0011878591639500624 -0.0076929131927858255 0.00136352583728692 0.01208346404579113
 0.0013906622261798188 0.012080006818063104 -0.0011878591639500624 -0.0076929131927858255 0.005067957059110459 0.025686562402043304 0.9937643482630313 -0.0608081147809674
 -0.0011881374350477733 -0.007692901839066201 0.00136352583728692 0.01208346404579113 0.9937643482630313 -0.0608081147809674 0.0050725871026074355 0.025686156688334363
0.1062942892872 0.005087981958697982 0.025786455714015236 0.9937374439985448 -0.061037199664416834 0.00139921234056666 0.01212416746901214 -0.0011953470670013292 -0.007721236545940632
 0.9937374439985448 -0.061037199664416834 0.005093175537591181 0.025785994387120516 -0.0011950668202128885 -0.007721248076807376 0.0013718772281039854 0.012127654613027691
 0.00139921234056666 0.01212416746901214 -0.0011950668202128885 -0.007721248076807376 0.0050882963118410365 0.02578781039827537 0.9937375025608789 -0.06103576788209847
 -0.0011953470670013292 -0.007721236545940632 0.0013718772281039854 0.012127654613027691 0.9937375025608789 -0.06103576788209847 0.005092960002359755 0.025787401898529086
0.11254689453939999 0.005425708926793675 0.02743699596594032 0.993291792940943 -0.06473901263724702 0.0015419341009677394 0.01284095319635148 -0.0013157027291281302 -0.008181241057241802
 0.993291792940943 -0.06473901263724702 0.005431530320907903 0.027436480553304676 -0.0013153894825518357 -0.008181255653366365 0.0015112707469083478 0.012844950583657689
 0.0015419341009677394 0.01284095319635148 -0.0013153894825518357 -0.008181255653366365 0.005426060785221308 0.027438423584616227 0.9932918586353664 -0.0647374947563936
 -0.0013157027291281302 -0.008181241057241802 0.0015112707469083478 0.012844950583657689 0.9932918586353664 -0.0647374947563936 0.005431287660453322 0.027437968251838696
0.11879949979160001 0.005777937153809057 0.029100849552371442 0.9928273725375167 -0.06845283374571148 0.0016921096092383495 0.013557601812025297 -0.0014423690610742474 -0.008641313201625889
 0.9928273725375167 -0.06845283374571148 0.005784422206816945 0.02910027627034099 -0.0014420210722202698 -0.008641331231650909 0.0016579246683833722 0.013562157460236651
 0.0016921096092383495 0.013557601812025297 -0.0014420210722202698 -0.008641331231650909 0.005778328573014958 0.02910234898207947 0.9928274458346871 -0.06845122941399073
 -0.0014423690610742474 -0.008641313201625889 0.0016579246683833722 0.013562157460236651 0.9928274458346871 -0.06845122941399073 0.005784150710351381 0.0291018437214739
0.1250521050438 0.006144896440861588 0.03077781753777047 0.9923439567979645 -0.072178521913237 0.00184979706383274 0.014274014787805466 -0.0015754053678477824 -0.009101356132416222
 0.9923439567979645 -0.072178521913237 0.006152081023894634 0.030777182471727605 -0.0015750209082510814 -0.009101377981109613 0.0018118969330629877 0.01427917906521733
 0.00184979706383274 0.014274014787805466 -0.0015750209082510814 -0.009101377981109613 0.006145329462292194 0.030779387593211048 0.9923440381817482 -0.0721768307571798
 -0.0015754053678477824 -0.009101356132416222 0.0018118969330629877 0.01427917906521733 0.9923440381817482 -0.0721768307571798 0.006151778960796688 0.030778829217584104
0.131304710296 0.006526815457045482 0.03246769994668393 0.991841320536277 -0.07591592923213168 0.0020150532357837477 0.01499009151482741 -0.0017148695020928685 -0.009561271291791566
 0.991841320536277 -0.07591592923213168 0.006534735473482742 0.032466999049158514 -0.0017144468573187341 -0.009561297360002984 0.00197324407958442 0.014995917163989108
 0.0020150532357837477 0.01499009151482741 -0.0017144468573187341 -0.009561297360002984 0.006527292106775567 0.032469339380219474 0.9918414105045961 -0.0759141508575026
 -0.0017148695020928685 -0.009561271291791566 0.00197324407958442 0.014995917163989108 0.9918414105045961 -0.0759141508575026 0.006534401092235405 0.032468724608596566
0.1375573155481 0.00683138562150422 0.03394952860668324 0.9914118026991944 -0.07944406584996401 0.0021658556312633805 0.01568313902488665 -0.0018387892116346212 -0.009998344663143558
 0.9914118026991944 -0.07944406584996401 0.006840078804225241 0.03394877378881896 -0.0018383257231029003 -0.009998374930720118 0.002120036584061684 0.015689613325106547
 0.0021658556312633805 0.01568313902488665 -0.0018383257231029003 -0.009998374930720118 0.006831907283159537 0.03395123653564901 0.9914119016460557 -0.079442200008507
 -0.0018387892116346212 -0.009998344663143558 0.002120036584061684 0.015689613325106547 0.9914119016460557 -0.079442200008507 0.006839711175499003 0.03395057753784302
0.1438099208003 0.0071464990690019116 0.03542436439974925 0.9909674929034863 -0.08296408320199869 0.0023227587492152847 0.016373858177071047 -0.001967679988050489 -0.010433301245219826
 0.9909674929034863 -0.08296408320199869 0.007156001628198796 0.03542355272197728 -0.001967173791482 -0.010433336104208792 0.0022727524799919137 0.016381028990425043
 0.0023227587492152847 0.016373858177071047 -0.001967173791482 -0.010433336104208792 0.007147067630242731 0.03542613955156678 0.9909676013260827 -0.08296212950282149
 -0.001967679988050489 -0.010433301245219826 0.0022727524799919137 0.016381028990425043 0.9909676013260827 -0.08296212950282149 0.007155599119196899 0.03542543412176921
0.1500625260525 0.007472055368465716 0.03689210837194444 0.9905084948821394 -0.08647591857717318 0.0024857151484703943 0.017062194136621876 -0.0021014960270980118 -0.010866089120077046
 0.9905084948821394 -0.08647591857717318 0.007482403553599892 0.03689123674573337 -0.0021009452602464363 -0.010866128978305103 0.002431345186388974 0.017070111071226957
 0.0024857151484703943 0.017062194136621876 -0.0021009452602464363 -0.010866128978305103 0.007472672694555503 0.036893949425340175 0.990508613290059 -0.08647387661221326
 -0.0021014960270980118 -0.010866089120077046 0.002431345186388974 0.017070111071226957 0.990508613290059 -0.08647387661221326 0.007481964521307106 0.036893195236809756
0.15631513130469998 0.007807953501261889 0.038352664688361154 0.9900349127575175 -0.08997950901022615 0.0026546769017657835 0.01774809287747738 -0.0022401910284732852 -0.011296657384856334
