! Created with skrf 1.8.0 (http://scikit-rf.org).
# GHz S RI R 50.0 
!freq ReS11 ImS11 ReS12 ImS12 ReS13 ImS13
! ReS14 ImS14
! ReS21 ImS21 ReS22 ImS22 ReS23 ImS23
! ReS24 ImS24
! ReS31 ImS31 ReS32 ImS32 ReS33 ImS33
! ReS34 ImS34
! ReS41 ImS41 ReS42 ImS42 ReS43 ImS43
! ReS44 ImS44
!
0.0 0.001518352859665 0.0 0.9984816471375 0.0 5.847762266684e-05 0.0 -5.847762088915e-05 7.161443124364995e-21
 0.9984816471375 0.0 0.001518352859644 0.0 -5.84776208896e-05 7.161443124420103e-21 5.847762266461e-05 0.0
 5.847762266684e-05 0.0 -5.84776208896e-05 7.161443124420103e-21 0.001518352849723 0.0 0.9984816471276 0.0
 -5.847762088915e-05 7.161443124364995e-21 5.847762266461e-05 0.0 0.9984816471276 0.0 0.001518352849679 0.0
0.005 0.0016335408335486504 0.0012430976505743293 0.9983359408464552 -0.003180548585357805 8.173346338032154e-05 0.0006390925938181959 -7.943570194354605e-05 -0.000402070848316263
 0.9983359408464552 -0.003180548585357805 0.0016335451186367054 0.0012430951924505091 -7.943533868623699e-05 -0.0004020706387568196 8.171128965498032e-05 0.0006391011119280309
 8.173346338032154e-05 0.0006390925938181959 -7.943533868623699e-05 -0.0004020706387568196 0.0016335403131439914 0.0012430307289096004 0.9983359404938718 -0.003180615657060484
 -7.943570194354605e-05 -0.000402070848316263 8.171128965498032e-05 0.0006391011119280309 0.9983359404938718 -0.003180615657060484 0.001633544935918343 0.0012430279711610635
0.006252605252188 0.0016637291196371065 0.001558760915374939 0.9982975186363882 -0.003976466624764127 8.835813972437685e-05 0.0007991795849727326 -8.534015688511374e-05 -0.0005031084084817256
 0.9982975186363882 -0.003976466624764127 0.0016637358174559395 0.0015587577748625953 -8.533959107960158e-05 -0.0005031081515789966 8.832349609873382e-05 0.0007991906322550458
 8.835813972437685e-05 0.0007991795849727326 -8.533959107960158e-05 -0.0005031081515789966 0.0016637283776601388 0.001558677283644977 0.9982975181571832 -0.003976550450898574
 -8.534015688511374e-05 -0.0005031084084817256 8.832349609873382e-05 0.0007991906322550458 0.9982975181571832 -0.003976550450898574 0.0016637356041219221 0.001558673755692388
0.01250521050438 0.0018225184950905753 0.0031501729619621086 0.9980941102488943 -0.007953753607149863 0.00012624696998909493 0.0015987454281290458 -0.00011877256747925069 -0.0010086644705487795
 0.9980941102488943 -0.007953753607149863 0.0018225452309081937 0.0031501659921143025 -0.00011877033087585305 -0.0010086640127524018 0.00012610884336834773 0.001598771839351036
 0.00012624696998909493 0.0015987454281290458 -0.00011877033087585305 -0.0010086640127524018 0.001822516077652018 0.0031500060381526324 0.9980941088878835 -0.007953920993975338
 -0.00011877256747925069 -0.0010086644705487795 0.00012610884336834773 0.001598771839351036 0.9980941088878835 -0.007953920993975338 0.0018225449404009819 0.003149998158700084
0.01875781575657 0.001995063718129815 0.004764246038016787 0.9978711718865443 -0.011941544168951103 0.00017223173029311644 0.0023992295324888726 -0.00015887676349928283 -0.001515950324821792
 0.9978711718865443 -0.011941544168951103 0.001995123779125181 0.0047642344957976295 -0.00015887176630874982 -0.001515949735245305 0.0001719214990056648 0.0023992764760983705
 0.00017223173029311644 0.0023992295324888726 -0.00015887176630874982 -0.001515949735245305 0.0019950586954766937 0.004763995998027345 0.9978711692516673 -0.011941795031052154
 -0.00015887676349928283 -0.001515950324821792 0.0001719214990056648 0.0023992764760983705 0.9978711692516673 -0.011941795031052154 0.001995123567211765 0.0047639828710791705
0.02501042100875 0.0021816976259854772 0.006398727225724423 0.9976284436967456 -0.01594177419244328 0.00022640117841975235 0.003200666439196795 -0.00020575148305226152 -0.0020247400985456835
 0.9976284436967456 -0.01594177419244328 0.0021818042630152397 0.006398710317560242 -0.0002057426453418133 -0.0020247394603365165 0.0002258502244209077 0.0032007399015801983
 0.00022640117841975235 0.003200666439196795 -0.0002057426453418133 -0.0020247394603365165 0.0021816890576123052 0.006398394237555236 0.9976284393922932 -0.01594210846896725
 -0.00020575148305226152 -0.0020247400985456835 0.0002258502244209077 0.0032007399015801983 0.9976284393922932 -0.01594210846896725 0.002181804291209466 0.006398374897906907
0.03126302626094 0.0023827392905162387 0.008052458779585221 0.9973656524161568 -0.01995527420157477 0.0002888445197403945 0.004003017769690263 -0.000259492761791816 -0.002534875362959945
 0.9973656524161568 -0.01995527420157477 0.0023829057253623043 0.008052435661779158 -0.0002594790118452058 -0.0025348747734699317 0.00028798416105963506 0.004003124558980151
 0.0002888445197403945 0.004003017769690263 -0.0002594790118452058 -0.0025348747734699317 0.0023827262307928687 0.008052043017445604 0.9973656460476165 -0.019955691842419195
 -0.000259492761791816 -0.002534875362959945 0.00028798416105963506 0.004003124558980151 0.9973656460476165 -0.019955691842419195 0.002382906165805591 0.00805201643083235
0.037515631513130004 0.0025985009197833334 0.009724687076528534 0.9970825184837966 -0.023982460350297618 0.00035965055898209644 0.004806216328803173 -0.000320194616919598 -0.003046221030662043
 0.9970825184837966 -0.023982460350297618 0.0025987403491966442 0.00972465685554692 -0.00032017489037353326 -0.0030462206015471087 0.00035841201819633497 0.004806364082701817
 0.00035965055898209644 0.004806216328803173 -0.00032017489037353326 -0.0030462206015471087 0.0025984824161430593 0.009724188713130587 0.9970825096560616 -0.023982961324165764
 -0.000320194616919598 -0.003046221030662043 0.00035841201819633497 0.004806364082701817 0.9970825096560616 -0.023982961324165764 0.0025987413830367346 0.009724153776114715
0.043768236765320004 0.002829290524775263 0.011414852305895564 0.9967787589206383 -0.028023544662219565 0.00043890730249077184 0.005610179515046061 -0.000387949289733321 -0.0035586519453108655
 0.9967787589206383 -0.028023544662219565 0.0028296161237084216 0.011414814038427184 -0.00038792252914051576 -0.003558651802604656 0.000437221690785139 0.005610376709864686
 0.00043890730249077184 0.005610179515046061 -0.00038792252914051576 -0.003558651802604656 0.002829265620094702 0.011414271524486772 0.9967787472398543 -0.028024128944953052
 -0.000387949289733321 -0.0035586519453108655 0.000437221690785139 0.005610376709864686 0.9967787472398543 -0.028024128944953052 0.0028296179431462278 0.011414227064127685
0.050020842017509996 0.003075413159019343 0.013122501541715676 0.9964540887860927 -0.03207862188599461 0.0005267017159436912 0.006414814867323156 -0.00046284733478071135 -0.004072047336492712
 0.9964540887860927 -0.03207862188599461 0.003075838083466506 0.01312245423469441 -0.0004628124893801536 -0.0040720476206874 0.000524500025319323 0.006415070827564645
 0.0005267017159436912 0.006414814867323156 -0.0004628124893801536 -0.0040720476206874 0.003075380889025101 0.013121838543043475 0.9964540738569014 -0.03207928945396502
 -0.00046284733478071135 -0.004072047336492712 0.000524500025319323 0.006415070827564645 0.9964540738569014 -0.03207928945396502 0.00307584088880811 0.013121783316492146
0.055454545454549996 0.0033019886505292833 0.014620396610644256 0.996154736519093 -0.035613987793443075 0.0006099979880108678 0.007114536037344839 -0.0005338063715190594 -0.004518894257354014
 0.996154736519093 -0.035613987793443075 0.003302510563076556 0.014620340602776888 -0.0005337636519003118 -0.004518895037908698 0.0006072916713414192 0.007114851305300935
 0.0006099979880108678 0.007114536037344839 -0.0005337636519003118 -0.004518895037908698 0.003301949192989333 0.014619662331608859 0.9961547184463285 -0.03561472772797124
 -0.0005338063715190594 -0.004518894257354014 0.0006072916713414192 0.007114851305300935 0.9961547184463285 -0.03561472772797124 0.0033025143959823267 0.014619596684941429
0.056273447269699996 0.0033371715546857274 0.014847246099441304 0.9961082220334794 -0.0361477120672466 0.000623119554542865 0.007220022774853978 -0.0005449776364489012 -0.004586288114109572
 0.9961082220334794 -0.0361477120672466 0.0033377089439185015 0.014847188709969409 -0.0005449336620059389 -0.004586288980216633 0.0006203326547973971 0.007220347683048212
 0.000623119554542865 0.007220022774853978 -0.0005449336620059389 -0.004586288980216633 0.003337130950087334 0.014846501091508946 0.9961082034607887 -0.036148462907955356
 -0.0005449776364489012 -0.004586288114109572 0.0006203326547973971 0.007220347683048212 0.9961082034607887 -0.036148462907955356 0.003337712945727906 0.014846433785554315
0.06252605252188 0.0036148664646516414 0.016588738072581394 0.995740872076251 -0.040230783943085865 0.0007282452248306662 0.008025697980841984 -0.0006344273927084052 -0.005101255372303422
 0.995740872076251 -0.040230783943085865 0.0036155294436347497 0.016588669507787288 -0.0006343732515101672 -0.00510125698990632 0.0007248038640556895 0.008026102887526488
 0.0007282452248306662 0.008025697980841984 -0.0006343732515101672 -0.00510125698990632 0.0036148165506301112 0.016587911281060817 0.995740849464334 -0.0402316180449927
 -0.0006344273927084052 -0.005101255372303422 0.0007248038640556895 0.008026102887526488 0.995740849464334 -0.0402316180449927 0.0036155348615992187 0.016587830511716063
0.06877865777407 0.003908796842476078 0.018346656355970208 0.995351752194991 -0.04432776885326291 0.0008421616681685635 0.008831730471133975 -0.0007312820763318239 -0.005616829512100077
 0.995351752194991 -0.04432776885326291 0.0039095985237528365 0.01834657547288931 -0.0007312167371536497 -0.005616832065426516 0.0008379964751697943 0.008832227304874393
 0.0008421616681685635 0.008831730471133975 -0.0007312167371536497 -0.005616832065426516 0.0039087366384205026 0.018345748019568803 0.9953517251469212 -0.044328686210897625
 -0.0007312820763318239 -0.005616829512100077 0.0008379964751697943 0.008832227304874393 0.9953517251469212 -0.044328686210897625 0.003909605586429259 0.018345652331403665
0.07503126302626001 0.004219259927556488 0.020120697772147457 0.9949405758542226 -0.04843856955229056 0.0009649502540142914 0.009638006044613524 -0.0008356253845488053 -0.0061328896862977616
 0.9949405758542226 -0.04843856955229056 0.004220213413573619 0.02012060337741874 -0.0008355478227357778 -0.0061328933742615275 0.0009599917427653784 0.009638607622045062
 0.0009649502540142914 0.009638006044613524 -0.0008355478227357778 -0.0061328933742615275 0.0042191884481948055 0.020119708145048758 0.9949405439721665 -0.04843957016396208
 -0.0008356253845488053 -0.0061328896862977616 0.0009599917427653784 0.009638607622045062 0.9949405439721665 -0.04843957016396208 0.004220222358961258 0.020119596010644565
0.08128386827845 0.004546551270545843 0.021910571179837284 0.9945070569617114 -0.05256306604356229 0.001096690680757791 0.0104444066988926 -0.0009475391801579851 -0.0066493134332399825
 0.9945070569617114 -0.05256306604356229 0.004547669655348737 0.021910462029457 -0.0009474483776554321 -0.006649318469500548 0.0010908692558851865 0.010445126734712974
 0.001096690680757791 0.0104444066988926 -0.0009474483776554321 -0.006649318469500548 0.0045464675257630835 0.021909500532678185 0.9945070198470781 -0.05256414991087762
 -0.0009475391801579851 -0.0066493134332399825 0.0010908692558851865 0.010445126734712974 0.9945070198470781 -0.05256414991087762 0.004547680730712931 0.021909370351917954
0.08753647353064001 0.004890964719143332 0.023715993393260297 0.9940509100932012 -0.05670111960764025 0.001237460880907527 0.011250810897589641 -0.0010671034266633015 -0.007165976433341183
 0.9940509100932012 -0.05670111960764025 0.004892261090572948 0.023715868192179558 -0.001066998372164115 -0.007165983046346607 0.0012307068444283166 0.011251664014560576
 0.001237460880907527 0.011250810897589641 -0.001066998372164115 -0.007165983046346607 0.004890867714130511 0.023714842013475755 0.9940508673459845 -0.05670228673532921
 -0.0010671034266633015 -0.007165976433341183 0.0012307068444283166 0.011251664014560576 0.9940508673459845 -0.05670228673532921 0.004892274551959792 0.023714692112839237
0.09378907878283 0.005252792375224755 0.025536686267317893 0.9935718506910354 -0.06085257566938349 0.0013873369290840114 0.01205709376824431 -0.001194396119603141 -0.007682752339583048
 0.9935718506910354 -0.06085257566938349 0.005254279816768077 0.025536543669067397 -0.0011942758086370435 -0.0076827607726186985 0.0013795804879172685 0.012058095507048313
 0.0013873369290840114 0.01205709376824431 -0.0011942758086370435 -0.0076827607726186985 0.005252681110935924 0.025535454459261035 0.9935718019097377 -0.06085382606552896
 -0.001194396119603141 -0.007682752339583048 0.0013795804879172685 0.012058095507048313 0.9935718019097377 -0.06085382606552896 0.00525429592935342 0.025535283091023354
0.100041684035 0.005632324533513423 0.027372374564742424 0.99306959524777 -0.06501726588841769 0.001546392952193015 0.012863127253314467 -0.0013294932144533248 -0.008199512659467011
 0.99306959524777 -0.06501726588841769 0.0056340161263177015 0.02737221317088455 -0.0013293566495222882 -0.008199523170693343 0.0015375642263972423 0.012864294082396305
 0.001546392952193015 0.012863127253314467 -0.0013293566495222882 -0.008199523170693343 0.005632198007128256 0.0273710626496269 0.9930695400297134 -0.06501859956483183
 -0.0013294932144533248 -0.008199512659467011 0.0015375642263972423 0.012864294082396305 0.9930695400297134 -0.06501859956483183 0.005634035164469056 0.02737086799102589
0.1059090909091 0.006004834199596353 0.029108367473809026 0.9925769337678704 -0.06893726159480008 0.0017040634902216471 0.013619160612822112 -0.0014634313324039998 -0.00868430682014128
 0.9925769337678704 -0.06893726159480008 0.006006729263437405 0.02910818712368523 -0.0014632786139763564 -0.008684319529612197 0.0016941649145434852 0.013620498174469222
 0.0017040634902216471 0.013619160612822112 -0.0014632786139763564 -0.008684319529612197 0.006004692435588023 0.029106980694742286 0.9925768721413851 -0.06893867343432557
 -0.0014634313324039998 -0.00868430682014128 0.0016941649145434852 0.013620498174469222 0.9925768721413851 -0.06893867343432557 0.006006751304047719 0.029106762455127853
0.1062942892872 0.006029849604991805 0.029222784349808895 0.9925438614778841 -0.06919500972852083 0.0017147010404653688 0.01366878023050003 -0.0014724685526347607 -0.008716126672505474
 0.9925438614778841 -0.06919500972852083 0.0060317584297025 0.029222602709463023 -0.0014723147433480023 -0.008716139535000946 0.0017047300722279287 0.013670129555785771
 0.0017147010404653688 0.01366878023050003 -0.0014723147433480023 -0.008716139535000946 0.006029706809527813 0.0292213926652626 0.9925437994182905 -0.06919642670144319
 -0.0014724685526347607 -0.008716126672505474 0.0017047300722279287 0.013670129555785771 0.9925437994182905 -0.06919642670144319 0.0060317806763993355 0.029221172817532188
0.11254689453939999 0.00644565402874792 0.03108764176528292 0.9919943684810798 -0.07338561564925491 0.0018923311601620296 0.014473918609446152 -0.001623393785003858 -0.009232461376224839
 0.9919943684810798 -0.07338561564925491 0.006447793167604039 0.031087438374437885 -0.0016232217482653082 -0.009232476878020637 0.0018811479232577896 0.014475468783962381
 0.0018923311601620296 0.014473918609446152 -0.0016232217482653082 -0.009232476878020637 0.006445493954149614 0.031086170669382768 0.991994299173466 -0.0733871159356202
 -0.001623393785003858 -0.009232461376224839 0.0018811479232577896 0.014475468783962381 0.991994299173466 -0.0733871159356202 0.006447818914948513 0.031085923656795755
0.11879949979160001 0.006880022176115892 0.03296667207581696 0.9914208369004549 -0.07758888203718155 0.002079351066301762 0.015278405415873011 -0.0017823382945407447 -0.009748381449742539
 0.9914208369004549 -0.07758888203718155 0.006882404714810386 0.0329664453766383 -0.0017821470546865279 -0.009748399893841266 0.0020668854761586434 0.01528017574922901
 0.002079351066301762 0.015278405415873011 -0.0017821470546865279 -0.009748399893841266 0.0068798438089864656 0.03296512194208581 0.9914207599363049 -0.07759046565985685
 -0.0017823382945407447 -0.009748381449742539 0.0020668854761586434 0.01528017574922901 0.9914207599363049 -0.07759046565985685 0.006882434263583216 0.032964845710939744
0.1250521050438 0.00733323624663356 0.034859598919154806 0.9908229890758486 -0.08180459793494953 0.0022758262163143413 0.016082100864697756 -0.001949369117502462 -0.0102637492334495
 0.9908229890758486 -0.08180459793494953 0.007335875276361392 0.03485934729924343 -0.0019491577065077327 -0.010263770937853856 0.0022620081404361478 0.01608411163246392
 0.0022758262163143413 0.016082100864697756 -0.0019491577065077327 -0.010263770937853856 0.007333038570944773 0.03485797014104095 0.9908229040445541 -0.08180626491853478
 -0.001949369117502462 -0.0102637492334495 0.0022620081404361478 0.01608411163246392 0.9908229040445541 -0.08180626491853478 0.007335908936335921 0.03485766255847791
0.131304710296 0.00780557615900615 0.03676614370448942 0.9902005491944229 -0.08603254362975078 0.0024818196838891004 0.016884862426871775 -0.0021245508638791243 -0.01077842472014923
 0.9902005491944229 -0.08603254362975078 0.00780848477841776 0.03676586549601856 -0.002124318321556296 -0.010778450017903122 0.002466578952861174 0.016887134879816714
 0.0024818196838891004 0.016884862426871775 -0.002124318321556296 -0.010778450017903122 0.007805358156314654 0.036764436693077704 0.9902004556831289 -0.08603429400310708
 -0.0021245508638791243 -0.01077842472014923 0.002466578952861174 0.016887134879816714 0.9902004556831289 -0.08603429400310708 0.007808522867969501 0.03676409554594086
0.1375573155481 0.008188526290045519 0.038437745100723834 0.9896620778166427 -0.09002410233358853 0.00267127298792316 0.017661752272950845 -0.0022818468221137826 -0.0112674764788027
 0.9896620778166427 -0.09002410233358853 0.008191719189997684 0.038437445306298085 -0.002281591929596014 -0.011267505407835823 0.0026545717085336355 0.017664283185448697
 0.00267127298792316 0.017661752272950845 -0.002281591929596014 -0.011267505407835823 0.008188287831841381 0.03843595977504434 0.9896619754423228 -0.09002593607395291
 -0.0022818468221137826 -0.0112674764788027 0.0026545717085336355 0.017664283185448697 0.9896619754423228 -0.09002593607395291 0.00819176108069109 0.0384355904099424
0.1438099208003 0.008584942481685974 0.04010062951035647 0.9891046903837165 -0.09400562620234987 0.0028683789368656068 0.018435540624188364 -0.002445435017620666 -0.011753677042912088
 0.9891046903837165 -0.09400562620234987 0.00858843302891975 0.04010030691524447 -0.00244515677898765 -0.011753709926188023 0.002850152723808602 0.018438349483809017
 0.0028683789368656068 0.018435540624188364 -0.00244515677898765 -0.011753709926188023 0.008584682705646197 0.040098766239742685 0.9891045787370135 -0.0940075433279459
 -0.002445435017620666 -0.011753677042912088 0.002850152723808602 0.018438349483809017 0.9891045787370135 -0.0940075433279459 0.008588478879894787 0.040098366978040464
0.1500625260525 0.00899468649083005 0.04175466030474502 0.9885285291339487 -0.09797701870095339 0.00307307045240829 0.019206150110562207 -0.002615250144518646 -0.012236952905010859
 0.9885285291339487 -0.09797701870095339 0.008998488072167266 0.041754313630115156 -0.0026149475680644968 -0.012236990078265671 0.0030532552582759435 0.01920925712563381
 0.00307307045240829 0.019206150110562207 -0.0026149475680644968 -0.012236990078265671 0.0089944045420605 0.041752719466980996 0.988528407803677 -0.09797901923520969
 -0.002615250144518646 -0.012236952905010859 0.0030532552582759435 0.01920925712563381 0.988528407803677 -0.09797901923520969 0.00899853803957771 0.04175228854967809
0.15631513130469998 0.009417619109467285 0.04339970498210516 0.9879337370088142 -0.10193818358823505 0.0032852796748871482 0.01997350466540469 -0.0027912261018263433 -0.012717232098595745
 0.9879337370088142 -0.10193818358823505 0.009421745132680124 0.0433993328840011 -0.0027908982002382687 -0.012717273910194412 0.0032638117949191333 0.01997693075852688
