! Created with skrf 1.8.0 (http://scikit-rf.org).
# GHz S RI R 50.0 
!freq ReS11 ImS11 ReS12 ImS12 ReS13 ImS13
! ReS14 ImS14
! ReS21 ImS21 ReS22 ImS22 ReS23 ImS23
! ReS24 ImS24
! ReS31 ImS31 ReS32 ImS32 ReS33 ImS33
! ReS34 ImS34
! ReS41 ImS41 ReS42 ImS42 ReS43 ImS43
! ReS44 ImS44
!
0.0 0.001926084486653 0.0 0.9980739155105 0.0 7.519177627384e-05 0.0 -7.519177696193e-05 9.208336897862925e-21
 0.9980739155105 0.0 0.001926084486675 0.0 -7.519177696255e-05 9.208336897938854e-21 7.519177627404e-05 0.0
 7.519177627384e-05 0.0 -7.519177696255e-05 9.208336897938854e-21 0.001926084488012 0.0 0.9980739155118 0.0
 -7.519177696193e-05 9.208336897862925e-21 7.519177627404e-05 0.0 0.9980739155118 0.0 0.001926084487999 0.0
0.005 0.002073745373570269 0.0015695168694006966 0.9978868618148673 -0.0040334535503648225 0.00010686912875035091 0.0008580924964646773 -0.00010355442152859952 -0.000533159559229961
 0.9978868618148673 -0.0040334535503648225 0.0020737288859648505 0.0015695264885415348 -0.00010354857277179744 -0.0005331550844184743 0.00010698112002470344 0.0008580496192979557
 0.00010686912875035091 0.0008580924964646773 -0.00010354857277179744 -0.0005331550844184743 0.0020737479281765694 0.0015694480614882385 0.9978868614272164 -0.004033520608260146
 -0.00010355442152859952 -0.000533159559229961 0.00010698112002470344 0.0008580496192979557 0.9978868614272164 -0.004033520608260146 0.0020737255621671893 0.0015694611846117951
0.006252605252188 0.002112889036219221 0.0019680348745698974 0.997836900082789 -0.005042738479080332 0.00011613735912039514 0.0010729909042553856 -0.0001117642596406439 -0.0006671194426323651
 0.997836900082789 -0.005042738479080332 0.0021128632637756662 0.0019680471612399733 -0.00011175515852350078 -0.000667113928488669 0.00011631232986640937 0.001072935193660314
 0.00011613735912039514 0.0010729909042553856 -0.00011175515852350078 -0.000667113928488669 0.002112893095006983 0.0019679488662018726 0.9978368995416943 -0.005042822297322874
 -0.0001117642596406439 -0.0006671194426323651 0.00011631232986640937 0.001072935193660314 0.9978368995416943 -0.005042822297322874 0.002112858132561767 0.0019679655423123117
0.01250521050438 0.0023213738703431078 0.003976849206624588 0.9975687553022986 -0.010085794449463644 0.0001704410527301566 0.002146051451894047 -0.0001594289867558149 -0.0013372131294657834
 0.9975687553022986 -0.010085794449463644 0.0023212709665552432 0.003976876417974079 -0.00015939312130519272 -0.0013372029874734051 0.00017113867079070135 0.0021459168489019243
 0.0001704410527301566 0.002146051451894047 -0.00015939312130519272 -0.0013372029874734051 0.002321390658182205 0.003976677390075617 0.9975687537151731 -0.010085961843536712
 -0.0001594289867558149 -0.0013372131294657834 0.00017113867079070135 0.0021459168489019243 0.9975687537151731 -0.010085961843536712 0.0023212510481711267 0.003976713535912196
0.01875781575657 0.002552078321387975 0.006013651653648028 0.9972690887535458 -0.01514134032985198 0.00023824185274500735 0.003219863885642473 -0.00021835041913357975 -0.002009206344328658
 0.9972690887535458 -0.01514134032985198 0.002551847099019071 0.006013696566546286 -0.00021827044261319323 -0.002009192669521437 0.0002398086699426288 0.0032196218232819545
 0.00023824185274500735 0.003219863885642473 -0.00021827044261319323 -0.002009192669521437 0.002552116484990066 0.006013394008130851 0.9972690856124174 -0.015141591223829019
 -0.00021835041913357975 -0.002009206344328658 0.0002398086699426288 0.0032196218232819545 0.9972690856124174 -0.015141591223829019 0.002551802763615022 0.006013452737119525
0.02501042100875 0.0028055202441585264 0.008075466773265426 0.9969374905493054 -0.020211712245877762 0.0003196793467380329 0.004294408290080462 -0.000288685370590478 -0.0026827150762862035
 0.9969374905493054 -0.020211712245877762 0.0028051096207407267 0.008075532289564199 -0.0002885441485321574 -0.0026826991893889075 0.00032246181448381775 0.004294024969731242
 0.0003196793467380329 0.004294408290080462 -0.0002885441485321574 -0.0026826991893889075 0.0028055884210482353 0.008075123195685025 0.9969374853439253 -0.020212046595967686
 -0.000288685370590478 -0.0026827150762862035 0.00032246181448381775 0.004294024969731242 0.9969374853439253 -0.020212046595967686 0.002805031253483239 0.00807520791907486
0.03126302626094 0.003082195531451552 0.010160705253352276 0.9965735334476233 -0.02529783981609437 0.00041489212938644555 0.005369560357897012 -0.00037058453473937515 -0.00335744845926698
 0.9965735334476233 -0.02529783981609437 0.003081554496650442 0.010160794396904005 -0.00037036511056494207 -0.0033574319085179494 0.00041923689432035613 0.005368996720188107
 0.00041489212938644555 0.005369560357897012 -0.00037036511056494207 -0.0033574319085179494 0.0030823023583447747 0.010160275551826456 0.9965735256684483 -0.02529825761688837
 -0.00037058453473937515 -0.00335744845926698 0.00041923689432035613 0.005368996720188107 0.9965735256684483 -0.02529825761688837 0.0030814324983711255 0.010160389976654615
0.037515631513130004 0.0033825878571661487 0.012268286857210695 0.996176783137427 -0.030400123173505378 0.0005240164102461488 0.006445153537860193 -0.00046419357678071597 -0.004033146718316961
 0.996176783137427 -0.030400123173505378 0.0033816654496586535 0.012268402772322367 -0.0004638791547770544 -0.00403313127989703 0.0005302704292744756 0.006444365214524469
 0.0005240164102461488 0.006445153537860193 -0.0004638791547770544 -0.00403313127989703 0.0033827419683029876 0.012267770781178997 0.9961767722713071 -0.030400624427166033
 -0.00046419357678071597 -0.004033146718316961 0.0005302704292744756 0.006444365214524469 0.9961767722713071 -0.030400624427166033 0.0033814902311475 0.012267918910591575
0.043768236765320004 0.0037071724025885 0.014397373552241575 0.9957468025064856 -0.035518699792135816 0.0006471853238761129 0.007520997951336047 -0.0005696534748411959 -0.004709562341490293
 0.9957468025064856 -0.035518699792135816 0.0037059176892546143 0.01439751950310899 -0.0005692274103989905 -0.004709550019532975 0.000655695901684638 0.007519935211414945
 0.0006471853238761129 0.007520997951336047 -0.0005692274103989905 -0.004709550019532975 0.003707382433247968 0.014396770772876167 0.9957467880379396 -0.03551928452702834
 -0.0005696534748411959 -0.004709562341490293 0.000655695901684638 0.007519935211414945 0.9957467880379396 -0.03551928452702834 0.0037056796729608393 0.014396956908064707
0.050020842017509996 0.0040564175364683494 0.0165472592280574 0.995283153866479 -0.04065355472666659 0.0007845284797789544 0.008596888241597938 -0.0006871006028918889 -0.005386452324842557
 0.995283153866479 -0.04065355472666659 0.004054779594194381 0.016547438598818888 -0.0006865463966134702 -0.005386445351322322 0.0007956432648965723 0.008595495935648208
 0.0007845284797789544 0.008596888241597938 -0.0006865463966134702 -0.005386445351322322 0.004056692124304955 0.01654656935119286 0.9952831352774503 -0.040654222983330046
 -0.0006871006028918889 -0.005386452324842557 0.0007956432648965723 0.008595495935648208 0.9952831352774503 -0.040654222983330046 0.004054469214723347 0.016546798093919603
0.055454545454549996 0.004380308805075364 0.018431977021224524 0.9948525472594785 -0.04512903311765947 0.0009154928236129711 0.009531738505979062 -0.0007990032419572646 -0.005974887336342784
 0.9948525472594785 -0.04512903311765947 0.004378296463757096 0.01843218827688133 -0.000798324387030883 -0.005974887000208508 0.0009291533220897594 0.009530010758454405
 0.0009154928236129711 0.009531738505979062 -0.000798324387030883 -0.005974887000208508 0.0043806465101101704 0.01843121107834069 0.9948525246643561 -0.045129774003521625
 -0.0007990032419572646 -0.005974887336342784 0.0009291533220897594 0.009530010758454405 0.9948525246643561 -0.045129774003521625 0.004377915438058605 0.01843148082157779
0.056273447269699996 0.0044307856370382126 0.018717315590338627 0.9947854003267721 -0.045804574684663465 0.000936171622346566 0.009672607446469474 -0.00081666669431462 -0.0060635744039227776
 0.9947854003267721 -0.045804574684663465 0.004428713534815186 0.018717531885781402 -0.0008159679883863054 -0.006063575238443952 0.0009502385776812139 0.009670824950296121
 0.000936171622346566 0.009672607446469474 -0.0008159679883863054 -0.006063575238443952 0.004431133420073738 0.01871653815104257 0.9947853770933187 -0.04580532652003467
 -0.00081666669431462 -0.0060635744039227776 0.0009502385776812139 0.009670824950296121 0.9947853770933187 -0.04580532652003467 0.00442832123685025 0.01871681440715304
0.06252605252188 0.004830733477424439 0.02090696241517408 0.9942531067365212 -0.05097157774971178 0.001102236343498419 0.010747929159012426 -0.0009584787469147821 -0.006740685008855151
 0.9942531067365212 -0.05097157774971178 0.004828176259007279 0.020907219262259462 -0.0009576193230002164 -0.006740696338431965 0.0011196037000784488 0.010745690317660657
 0.001102236343498419 0.010747929159012426 -0.0009576193230002164 -0.006740696338431965 0.0048311630977523005 0.02090609688017476 0.9942530783316135 -0.050972413233505404
 -0.0009584787469147821 -0.006740685008855151 0.0011196037000784488 0.010745690317660657 0.9942530783316135 -0.050972413233505404 0.004827692500867417 0.020906425863766825
0.06877865777407 0.005256712382649383 0.023115649854049514 0.993685840405725 -0.0561543310673825 0.0012828398258737813 0.011822618836783616 -0.001112658893999519 -0.007417538083616567
 0.993685840405725 -0.0561543310673825 0.005253619049792019 0.023115951003869064 -0.0011116226721017274 -0.007417562822385501 0.0013038560241879498 0.011819851909204709
 0.0012828398258737813 0.011822618836783616 -0.0011116226721017274 -0.007417562822385501 0.005257232484622565 0.023114695620065007 0.9936858062959102 -0.05615525028244639
 -0.001112658893999519 -0.007417538083616567 0.0013038560241879498 0.011819851909204709 0.9936858062959102 -0.05615525028244639 0.005253034302264007 0.02311508285835504
0.07503126302626001 0.0057091682425330645 0.025342847224027312 0.9930831716860327 -0.06135256206039724 0.0014780946052373042 0.01289643466371153 -0.0012793242537168736 -0.008093884366061729
 0.9930831716860327 -0.06135256206039724 0.005705487737672361 0.025343196554815997 -0.0012780952917370422 -0.008093925654990005 0.00150310822747381 0.012893062268467053
 0.0014780946052373042 0.01289643466371153 -0.0012780952917370422 -0.008093925654990005 0.005709787473671651 0.0253418036169233 0.9930831313322463 -0.06135356510228232
 -0.0012793242537168736 -0.008093884366061729 0.00150310822747381 0.012893062268467053 0.9930831313322463 -0.06135356510228232 0.005704792485905045 0.025342254955903976
0.08128386827845 0.006188541437592358 0.027588035558963844 0.99244467447125 -0.06656596589840222 0.001688108343186709 0.013969128155948132 -0.0014585867668788566 -0.008769470937942411
 0.99244467447125 -0.06656596589840222 0.006184222627084024 0.02758843707954941 -0.001457149260786283 -0.00876953214447279 0.0017174680378722197 0.013965067218125944
 0.001688108343186709 0.013969128155948132 -0.001457149260786283 -0.00876953214447279 0.006189268448524113 0.027586901833910382 0.992444627327314 -0.0665670528737568
 -0.0014585867668788566 -0.008769470937942411 0.0017174680378722197 0.013965067218125944 0.992444627327314 -0.0665670528737568 0.00618340737126472 0.027587423444726072
0.08753647353064001 0.006695266706431408 0.02985070250479457 0.9917699266435749 -0.07179421063980536 0.0019129836084869343 0.015040444603952707 -0.0016505530254174896 -0.009444040953055212
 0.9917699266435749 -0.07179421063980536 0.006690258363706236 0.02985116035890088 -0.0016488913097562452 -0.009444125670730934 0.001947038009293113 0.015035606303455577
 0.0019129836084869343 0.015040444603952707 -0.0016488913097562452 -0.009444125670730934 0.00669611015122466 0.029849477838367403 0.9917698721562543 -0.07179538167288363
 -0.0016505530254174896 -0.009444040953055212 0.001947038009293113 0.015035606303455577 0.9917698721562543 -0.07179538167288363 0.006689313620849226 0.029850076224474817
0.09378907878283 0.007229772972451723 0.032130338660978586 0.9910585104833368 -0.07703694094436739 0.0021528176643389 0.016110123426517835 -0.0018553240951746587 -0.010117333468043594
 0.9910585104833368 -0.07703694094436739 0.007224023760984002 0.032130857132334906 -0.001853422643986253 -0.010117445516083646 0.0021919153035428415 0.01610441314795486
 0.0021528176643389 0.016110123426517835 -0.001853422643986253 -0.010117445516083646 0.007230741508529975 0.032129022159560455 0.9910584480911896 -0.07703819616716187
 -0.0018553240951746587 -0.010117333468043594 0.0021919153035428415 0.01610441314795486 0.9910584480911896 -0.07703819616716187 0.007222940065847621 0.03212970416460873
0.100041684035 0.007792483140932988 0.034426434949870965 0.9903100130528034 -0.08229378077510305 0.0024077022599688163 0.017177898454602544 -0.0020729953350974517 -0.010789083358380813
 0.9903100130528034 -0.08229378077510305 0.007785941597292002 0.034427018468047604 -0.002070838763038599 -0.010789226781216901 0.002452191477578287 0.017171215738824182
 0.0024077022599688163 0.017177898454602544 -0.002070838763038599 -0.010789226781216901 0.007793585428974992 0.03442502563998745 0.9903099421858984 -0.08229512033549458
 -0.0020729953350974517 -0.010789083358380813 0.002452191477578287 0.017171215738824182 0.9903099421858984 -0.08229512033549458 0.007784709503889793 0.03442579845659404
0.1059090909091 0.008346549336921874 0.03659559316504609 0.9895735392714727 -0.08723924853105598 0.002660649431256244 0.018177918801852096 -0.0022890690476179724 -0.011417806508365961
 0.9895735392714727 -0.08723924853105598 0.008339217340152492 0.0365962418872358 -0.002286659205297253 -0.011417983251662408 0.002710514629921128 0.018170226943814406
 0.002660649431256244 0.018177918801852096 -0.002286659205297253 -0.011417983251662408 0.008347785016635065 0.03659409581084116 0.9895734599253806 -0.08724066737757563
 -0.0022890690476179724 -0.011417806508365961 0.002710514629921128 0.018170226943814406 0.9895734599253806 -0.08724066737757563 0.008337837418647631 0.03659496070520031
0.1062942892872 0.008383813875949423 0.0367384806371078 0.9895240265630485 -0.08756433546707915 0.0026777234259653645 0.01824349818368813 -0.002303656214313866 -0.011459021280982523
 0.9895240265630485 -0.08756433546707915 0.008376428392703177 0.03673913378428744 -0.0023012292779711124 -0.011459200347765095 0.002727952274594942 0.018235736681121162
 0.0026777234259653645 0.01824349818368813 -0.0023012292779711124 -0.011459200347765095 0.008385058579914008 0.03673697746903996 0.9895239466422352 -0.08756575952370003
 -0.002303656214313866 -0.011459021280982523 0.002727952274594942 0.018235736681121162 0.9895239466422352 -0.08756575952370003 0.008375038476351189 0.03673784864824306
0.11254689453939999 0.009004175360985028 0.03906596185839157 0.9887001487273961 -0.09284819330799636 0.0029629612729393994 0.01930664599286228 -0.002547390127833709 -0.012126873685407382
 0.9887001487273961 -0.09284819330799636 0.008995894169756258 0.039066689376750695 -0.0025446777273412553 -0.012127092889414787 0.0030192774192468897 0.019297693418781073
 0.0029629612729393994 0.01930664599286228 -0.0025446777273412553 -0.012127092889414787 0.009005571147730672 0.03906436370266033 0.9887000591634524 -0.09284970203207688
 -0.002547390127833709 -0.012126873685407382 0.0030192774192468897 0.019297693418781073 0.9887000591634524 -0.09284970203207688 0.008994337027740346 0.039065341164340774
0.11879949979160001 0.009653971047267633 0.04140836048550426 0.9878379831037474 -0.09814492679795092 0.0032634897933205165 0.020367060350729084 -0.0028042742119070365 -0.012792362853754886
 0.9878379831037474 -0.09814492679795092 0.009644742201171834 0.041409167285812475 -0.002801261392474018 -0.012792626911853086 0.0033262404162915774 0.02035679844245904
 0.0032634897933205165 0.020367060350729084 -0.002801261392474018 -0.012792626911853086 0.009655526586322703 0.04140666613427528 0.987837883296952 -0.09814652037036506
 -0.0028042742119070365 -0.012792362853754886 0.0033262404162915774 0.02035679844245904 0.987837883296952 -0.09814652037036506 0.009643008455372935 0.04140775817834851
0.1250521050438 0.010333597393239052 0.04376515326238558 0.9869371394306262 -0.103454093658276 0.0035793766662173486 0.021424455013089507 -0.003074379159835448 -0.013455206964479294
 0.9869371394306262 -0.103454093658276 0.010323368750633475 0.04376604443305604 -0.003071051113695051 -0.013455520816410056 0.003648908352213389 0.0214127594893515
 0.0035793766662173486 0.021424455013089507 -0.003071051113695051 -0.013455520816410056 0.010335321356741197 0.043763361421330166 0.986937028769729 -0.10345577227591558
 -0.003074379159835448 -0.013455206964479294 0.003648908352213389 0.0214127594893515 0.986937028769729 -0.10345577227591558 0.010321449048649012 0.0437645767398008
0.131304710296 0.011043443597654514 0.04613581112829705 0.9859972339557973 -0.10877523767217764 0.003910683065368195 0.02247853921169401 -0.0033577690388291704 -0.014115120180636232
 0.9859972339557973 -0.10877523767217764 0.011032162804411032 0.04613679194569631 -0.0033541111071884117 -0.014115488988342377 0.003987341700327422 0.022465279734208816
 0.003910683065368195 0.02247853921169401 -0.0033541111071884117 -0.014115488988342377 0.011045344659926848 0.046133920422594184 0.9859971118177545 -0.10877700154031654
 -0.0033577690388291704 -0.014115120180636232 0.003987341700327422 0.022465279734208816 0.9859971118177545 -0.10877700154031654 0.011030047821519066 0.046135268112553675
0.1375573155481 0.01163543517319199 0.04821079483520369 0.9851664376113994 -0.11379864329361074 0.004219586230488139 0.023499696333830776 -0.0036165537096514515 -0.014742597302957482
 0.9851664376113994 -0.11379864329361074 0.011623044504994764 0.04821184549758494 -0.003612543924444013 -0.014743022293620019 0.004303551148779609 0.023484875367232125
 0.004219586230488139 0.023499696333830776 -0.003612543924444013 -0.014743022293620019 0.011637521308404543 0.04820880375517625 0.9851663034649895 -0.1138004924933405
 -0.0036165537096514515 -0.014742597302957482 0.004303551148779609 0.023484875367232125 0.9851663034649895 -0.1138004924933405 0.011620725451307419 0.04821026789459461
0.1438099208003 0.012248608822069487 0.050272027780927195 0.9843056466997715 -0.11880647007759679 0.004540841342781638 0.02451504882936919 -0.00388554987448331 -0.015364681217949944
 0.9843056466997715 -0.11880647007759679 0.012235054839353103 0.050273152095179005 -0.003881172476704308 -0.015365167550090174 0.004632427475041447 0.02449854546253281
 0.004540841342781638 0.02451504882936919 -0.003881172476704308 -0.015365167550090174 0.012250888585297137 0.050269934903360125 0.9843054999248465 -0.11880840480069384
 -0.00388554987448331 -0.015364681217949944 0.004632427475041447 0.02449854546253281 0.9843054999248465 -0.11880840480069384 0.012232522519157891 0.050271523241708395
0.1500625260525 0.012882701676677124 0.052319255004779575 0.9834151298690867 -0.1237985092065753 0.0048743062989499274 0.025524440044074614 -0.004164617705004312 -0.015981223461294575
 0.9834151298690867 -0.1237985092065753 0.012867930715817795 0.0523204570597879 -0.004159856991270037 -0.015981776501055624 0.004973826010589825 0.02550612896075205
 0.0048743062989499274 0.025524440044074614 -0.004159856991270037 -0.015981776501055624 0.012885183617955114 0.05231705884388702 0.9834149698355636 -0.12380052965168199
 -0.004164617705004312 -0.015981223461294575 0.004973826010589825 0.02550612896075205 0.9834149698355636 -0.12380052965168199 0.01286517596415722 0.05231877957687412
0.15631513130469998 0.013537448436420876 0.054352229247239425 0.9824951577647856 -0.12877455465793214 0.005219837002145336 0.026527716769664617 -0.004453615356537321 -0.016592079383302965
 0.9824951577647856 -0.12877455465793214 0.013521406604236626 0.05435351342537597 -0.004448455680339268 -0.01659270470324828 0.005327600044457396 0.026507468306822667
