! Created with skrf 1.8.0 (http://scikit-rf.org).
# GHz S RI R 50.0 
!freq ReS11 ImS11 ReS12 ImS12 ReS13 ImS13
! ReS14 ImS14
! ReS21 ImS21 ReS22 ImS22 ReS23 ImS23
! ReS24 ImS24
! ReS31 ImS31 ReS32 ImS32 ReS33 ImS33
! ReS34 ImS34
! ReS41 ImS41 ReS42 ImS42 ReS43 ImS43
! ReS44 ImS44
!
0.0 0.001948532379573 0.0 0.9980514676153 0.0 7.621109772244e-05 0.0 -7.621109791073e-05 9.333167711588103e-21
 0.9980514676153 0.0 0.001948532379601 0.0 -7.621109791132e-05 9.333167711660357e-21 7.621109772209e-05 0.0
 7.621109772244e-05 0.0 -7.621109791132e-05 9.333167711660357e-21 0.001948532382152 0.0 0.9980514676178 0.0
 -7.621109791073e-05 9.333167711588103e-21 7.621109772209e-05 0.0 0.9980514676178 0.0 0.001948532382149 0.0
0.005 0.0020979957289392987 0.0015856199052833343 0.9978620733922255 -0.00408050583017791 0.00010887146352570891 0.0008823594846399913 -0.00010524240211536586 -0.0005461171117132935
 0.9978620733922255 -0.00408050583017791 0.0020980292884256535 0.0015856003530080043 -0.0001052417996812798 -0.000546116746213664 0.00010866122017261118 0.0008824397011914845
 0.00010887146352570891 0.0008823594846399913 -0.0001052417996812798 -0.000546116746213664 0.0020979951919674307 0.0015855530058833348 0.9978620730061575 -0.004080572899941586
 -0.00010524240211536586 -0.0005461171117132935 0.00010866122017261118 0.0008824397011914845 0.9978620730061575 -0.004080572899941586 0.0020980290713291357 0.001585533132581445
0.006252605252188 0.0021376351227699888 0.001988233134197765 0.9978114485468448 -0.005101561265894636 0.00011848919351245817 0.0011033245935034239 -0.00011366010316698439 -0.0006833338879234787
 0.9978114485468448 -0.005101561265894636 0.0021376875821265905 0.0019882083125182482 -0.00011365916497138462 -0.0006833334396947049 0.00011816071448228308 0.0011034288726122386
 0.00011848919351245817 0.0011033245935034239 -0.00011365916497138462 -0.0006833334396947049 0.0021376343428503052 0.001988149528124527 0.997811448002903 -0.005101645102717056
 -0.00011366010316698439 -0.0006833338879234787 0.00011816071448228308 0.0011034288726122386 0.997811448002903 -0.005101645102717056 0.0021376873034242723 0.001988124288062816
0.01250521050438 0.002348864264902252 0.0040177054009131515 0.9975395301738197 -0.010203410278490433 0.00017515631970386293 0.0022066221749567367 -0.0001626066390856921 -0.0013697077524157566
 0.9975395301738197 -0.010203410278490433 0.0023490737362256765 0.00401765191540647 -0.00016260293272698693 -0.0013697069540348301 0.00017384655726268588 0.002206874685079532
 0.00017515631970386293 0.0022066221749567367 -0.00016260293272698693 -0.0013697069540348301 0.002348861704319254 0.004017538662510514 0.9975395285568971 -0.01020357772245393
 -0.0001626066390856921 -0.0013697077524157566 0.00017384655726268588 0.002206874685079532 0.9975395285568971 -0.01020357772245393 0.0023490731964272865 0.004017484159558283
0.01875781575657 0.002582771711279239 0.006075465421507474 0.9972353112858023 -0.015317855831331259 0.00024635410326608476 0.0033105945262203447 -0.00022322098078861072 -0.002057998598265204
 0.9972353112858023 -0.015317855831331259 0.0025832424111199726 0.006075379151018366 -0.00022321270346023603 -0.002057997574993706 0.00024341220668909 0.0033110494465679913
 0.00024635410326608476 0.0033105945262203447 -0.00022321270346023603 -0.002057997574993706 0.0025827663748242326 0.006075215956914464 0.9972353080659403 -0.015318106887629815
 -0.00022322098078861072 -0.002057998598265204 0.00024341220668909 0.0033110494465679913 0.9972353080659403 -0.015318106887629815 0.0025832416533510378 0.006075127861807437
0.02501042100875 0.0028398869316590375 0.008158494311338802 0.9968983727718707 -0.020447253062176547 0.00033222625359361846 0.004415210850861135 -0.0002956651857998519 -0.0027478042226248703
 0.9968983727718707 -0.020447253062176547 0.0028407228877127396 0.008158370892109572 -0.0002956505529274342 -0.002747803128479207 0.00032700142400181434 0.00441593231797992
 0.00033222625359361846 0.004415210850861135 -0.0002956505529274342 -0.002747803128479207 0.0028398778279072117 0.00815816262257344 0.9968983674118042 -0.020447587807943424
 -0.0002956651857998519 -0.0027478042226248703 0.00032700142400181434 0.00441593231797992 0.9968983674118042 -0.020447587807943424 0.0028407219777468735 0.008158036335140135
0.03126302626094 0.0031207167866177227 0.010265175555065587 0.9965282780082306 -0.02559253362206979 0.0004329157810554041 0.005520331346818729 -0.00038009478454186565 -0.0034388195940523118
 0.9965282780082306 -0.02559253362206979 0.0031220219073279432 0.01026501038725072 -0.0003800720270907759 -0.0034388186120214753 0.00042475672226008267 0.005521393516186654
 0.0004329157810554041 0.005520331346818729 -0.0003800720270907759 -0.0034388186120214753 0.0031207029299309763 0.010264762252360225 0.9965282699599873 -0.025592952194381593
 -0.00038009478454186565 -0.0034388195940523118 0.00042475672226008267 0.005521393516186654 0.9965282699599873 -0.025592952194381593 0.003122020933858693 0.010264592907884174
0.037515631513130004 0.003425755454084466 0.01239440753898747 0.9961245833415868 -0.030754093119566537 0.0005485632729510676 0.006625772021342007 -0.00047665993007347726 -0.004130772114522228
 0.9961245833415868 -0.030754093119566537 0.0034276335793867957 0.01239419578900635 -0.0004766272932930021 -0.0041307714567108 0.0005368179771408898 0.006627259163524468
 0.0005485632729510676 0.006625772021342007 -0.0004766272932930021 -0.0041307714567108 0.003425735870377184 0.012393913336485261 0.9961245720466078 -0.030754595720227554
 -0.00047665993007347726 -0.004130772114522228 0.0005368179771408898 0.006627259163524468 0.9961245720466078 -0.030754595720227554 0.003427632658790816 0.012393695807440156
0.043768236765320004 0.003755488224568493 0.014545333484671295 0.9956868424471725 -0.0359320611509264 0.0006793060480612753 0.007731324437498337 -0.0005855057632159161 -0.004823401964215921
 0.9956868424471725 -0.0359320611509264 0.0037580431691031824 0.01454507008518438 -0.0005854615060415749 -0.004823401871920081 0.0006633217259978642 0.007733331044684236
 0.0006793060480612753 0.007731324437498337 -0.0005854615060415749 -0.004823401871920081 0.0037554619518031973 0.014544759215725142 0.9956868273318646 -0.035932648031547866
 -0.0005855057632159161 -0.004823401964215921 0.0006633217259978642 0.007733331044684236 0.9956868273318646 -0.035932648031547866 0.0037580424447810185 0.014544488111431345
0.050020842017509996 0.004110393209874399 0.01671722986544192 0.9952146086085604 -0.041126412850406836 0.0008252776221928144 0.008836763912780498 -0.0007067724984054733 -0.005516454006391003
 0.9952146086085604 -0.041126412850406836 0.004113728802870943 0.016716909513734574 -0.0007067148932508042 -0.005516454750163476 0.0008044007102680557 0.008839394808929436
 0.0008252776221928144 0.008836763912780498 -0.0007067148932508042 -0.005516454750163476 0.004110359302816093 0.016716576478470156 0.9952145890834618 -0.04112708431670077
 -0.0007067724984054733 -0.005516454006391003 0.0008044007102680557 0.008839394808929436 0.9952145890834618 -0.04112708431670077 0.004113728448474515 0.016716246143088708
0.055454545454549996 0.004439625861030813 0.018621201867819775 0.9947758644058999 -0.04565367253388819 0.0009645995353022307 0.009797148866222707 -0.0008223494250126602 -0.006118882570140233
 0.9947758644058999 -0.04565367253388819 0.0044437242228371745 0.018620827531378146 -0.0008222788274944467 -0.006118884282969335 0.0009389394798740965 0.009800415526095977
 0.0009645995353022307 0.009797148866222707 -0.0008222788274944467 -0.006118884282969335 0.0044395845670134795 0.018620480584810025 0.9947758405552909 -0.04565441779780709
 -0.0008223494250126602 -0.006118882570140233 0.0009389394798740965 0.009800415526095977 0.9947758405552909 -0.04565441779780709 0.004443724355528309 0.01862009397411066
0.056273447269699996 0.0044909421720508045 0.018909451658144158 0.9947074361233691 -0.04633702361422877 0.00098660731185922 0.009941853551453583 -0.0008405953842013724 -0.0062096738714716515
 0.9947074361233691 -0.04633702361422877 0.004495162295031407 0.018909068813061713 -0.0008405227169285052 -0.00620967575117779 0.0009601835264821599 0.009945224003449138
 0.00098660731185922 0.009941853551453583 -0.0008405227169285052 -0.00620967575117779 0.00449089970525552 0.018908720217191356 0.9947074115803219 -0.04633778002561887
 -0.0008405953842013724 -0.0062096738714716515 0.0009601835264821599 0.009945224003449138 0.9947074115803219 -0.04633778002561887 0.004495162516182032 0.018908324726297134
0.06252605252188 0.004897600912265434 0.021121402266720775 0.9941648812764569 -0.05156369916525849 0.0011634199054575843 0.011046346512891306 -0.0009871046026377953 -0.00690280581896528
 0.9941648812764569 -0.05156369916525849 0.004902809535224232 0.021120951144094628 -0.0009870151726210866 -0.006902809163820851 0.0011307943286873537 0.011050582341216897
 0.0011634199054575843 0.011046346512891306 -0.0009870151726210866 -0.006902809163820851 0.004897548983032017 0.021120593952927744 0.9941648510863461 -0.05156454093335921
 -0.0009871046026377953 -0.00690280581896528 0.0011307943286873537 0.011050582341216897 0.9941648510863461 -0.05156454093335921 0.004902810571420546 0.021120127108603254
0.06877865777407 0.005330829421386137 0.02335251560050536 0.993586503081138 -0.056806193477351656 0.0013558353745832074 0.012149987380102333 -0.001146425131171548 -0.007595591513615224
 0.993586503081138 -0.056806193477351656 0.00533713063918423 0.02335199016705327 -0.001146317251492577 -0.007595596682211323 0.0013163525629804526 0.01215522506828313
 0.0013558353745832074 0.012149987380102333 -0.001146317251492577 -0.007595596682211323 0.005330767153580927 0.02335163171255034 0.9935864665917092 -0.05680712106532279
 -0.001146425131171548 -0.007595591513615224 0.0013163525629804526 0.01215522506828313 0.9935864665917092 -0.05680712106532279 0.005337132766347117 0.023351087037002515
0.07503126302626001 0.005791081885868354 0.025602244746521827 0.992971863880528 -0.06206422012124911 0.0015639686078812982 0.013252513068684392 -0.0013186765844823319 -0.008287769276066293
 0.992971863880528 -0.06206422012124911 0.005798579953704387 0.02560163871233746 -0.0013185485822092575 -0.008287776656391077 0.001516972718245619 0.013258899870893699
 0.0015639686078812982 0.013252513068684392 -0.0013185485822092575 -0.008287776656391077 0.005791008433568844 0.02560128670089354 0.9929718204144127 -0.06206523404314841
 -0.0013186765844823319 -0.008287769276066293 0.001516972718245619 0.013258899870893699 0.9929718204144127 -0.06206523404314841 0.0057985834863413434 0.025600657428734134
0.08128386827845 0.006278806605223319 0.027870054450315332 0.9923205298675024 -0.06733745981874872 0.0017879291603145465 0.014353653463104686 -0.0015039730420662437 -0.008979073621541758
 0.9923205298675024 -0.06733745981874872 0.006287605974787079 0.02786936125980856 -0.001503823258643155 -0.008979083630972391 0.0017327640894367786 0.014361347509633362
 0.0017879291603145465 0.014353653463104686 -0.001503823258643155 -0.008979083630972391 0.0062787211559189975 0.027869023781989792 0.9923204787188827 -0.06733856063827717
 -0.0015039730420662437 -0.008979073621541758 0.0017327640894367786 0.014361347509633362 0.9923204787188827 -0.06733856063827717 0.006287611267221996 0.027868302850877293
0.08753647353064001 0.006794445848648838 0.030155415938758937 0.9916320715459365 -0.07262556567202413 0.0020278210136018336 0.01545313188846321 -0.0017024228665112869 -0.009669234978779861
 0.9916320715459365 -0.07262556567202413 0.006804651202825403 0.030154628759978142 -0.001702249657932778 -0.00966924806409251 0.001963830549314877 0.015462302288543173
 0.0020278210136018336 0.01545313188846321 -0.001702249657932778 -0.00966924806409251 0.006794347626689987 0.03015431429773791 0.991632011979133 -0.07262675400536642
 -0.0017024228665112869 -0.009669234978779861 0.001963830549314877 0.015462302288543173 0.991632011979133 -0.07262675400536642 0.006804658652773855 0.030153494337554456
0.09378907878283 0.007338435670341424 0.03245780324263304 0.9909060641575678 -0.0779281669114965 0.0022837423432007986 0.016550665483605165 -0.0019141285166423235 -0.010357979523539411
 0.9909060641575678 -0.0779281669114965 0.007350151959746448 0.03245691495504434 -0.0019139302540122688 -0.010357996160868747 0.002210270325155848 0.016561492425491566
 0.0022837423432007986 0.016550665483605165 -0.0019139302540122688 -0.010357996160868747 0.007338323940973048 0.03245663239913716 0.9909059954041367 -0.07792944342113932
 -0.0019141285166423235 -0.010357979523539411 0.002210270325155848 0.016561492425491566 0.9909059954041367 -0.07792944342113932 0.007350162009494508 0.032455705719633875
0.100041684035 0.007911205696108713 0.03477669053434593 0.9901420880809434 -0.08324487164675465 0.0025557852921474825 0.017645965510822256 -0.0021391863564365027 -0.01104502909183736
 0.9901420880809434 -0.08324487164675465 0.00792453817386708 0.03477569371504471 -0.002138961426300298 -0.011045049786638918 0.0024721757808257618 0.017658640358788877
 0.0025557852921474825 0.017645965510822256 -0.002138961426300298 -0.011045049786638918 0.007911079768684624 0.03477545237474334 0.9901420093373481 -0.08324623704453718
 -0.0021391863564365027 -0.01104502909183736 0.0024721757808257618 0.017658640358788877 0.9901420093373481 -0.08324623704453718 0.00792455131309094 0.03477441095152804
0.1059090909091 0.00847524175684272 0.036967256850486095 0.9893902765053356 -0.0882464963092951 0.0028258077738452883 0.01867149488145809 -0.002362603262355621 -0.011687959057108859
 0.9893902765053356 -0.0882464963092951 0.008490186883454428 0.036966151151542385 -0.0023623518542989384 -0.011687984045213536 0.0027320890824730345 0.018686087874847043
 0.0028258077738452883 0.01867149488145809 -0.0023623518542989384 -0.011687984045213536 0.008475101920637149 0.03696595733901766 0.9893901876230763 -0.08824794581133151
 -0.002362603262355621 -0.011687959057108859 0.0027320890824730345 0.018686087874847043 0.9893901876230763 -0.08824794581133151 0.008490203411445229 0.036964800631524575
0.1062942892872 0.00851317888770658 0.037111550141616316 0.9893397292128812 -0.08857526896085949 0.0028440357490423958 0.018738737624377454 -0.002377686462052197 -0.011730101150741582
 0.9893397292128812 -0.08857526896085949 0.008528233145341443 0.03711043704963679 -0.002377433266802247 -0.011730126437766778 0.0027496332025018578 0.01875346301239838
 0.0028440357490423958 0.018738737624377454 -0.002377433266802247 -0.011730126437766778 0.008513038119560504 0.0371102466658319 0.9893396396382217 -0.08857672400923272
 -0.002377686462052197 -0.011730101150741582 0.0027496332025018578 0.01875346301239838 0.9893396396382217 -0.08857672400923272 0.00852824991340073 0.03710908212469675
0.11254689453939999 0.009144771291568002 0.039461851059691834 0.9884985793359963 -0.09391893052519354 0.00314857313069866 0.01982868210920865 -0.0026297124275778743 -0.012412908815596573
 0.9884985793359963 -0.09391893052519354 0.009161653294934602 0.039460613618818884 -0.002629429386003575 -0.012412939258784901 0.0030427225879865447 0.0198456720312359
 0.00314857313069866 0.01982868210920865 -0.002629429386003575 -0.012412939258784901 0.009144615091957036 0.0394604843844704 0.9884984780494495 -0.09392047603247809
 -0.0026297124275778743 -0.012412908815596573 0.0030427225879865447 0.0198456720312359 0.9884984780494495 -0.09392047603247809 0.009161674283012953 0.039459187984057134
0.11879949979160001 0.009806391775651156 0.0418270578201121 0.9876182364751261 -0.09927541187779468 0.003469470168634142 0.02091549410737386 -0.0028953411708617033 -0.013093160896257573
 0.9876182364751261 -0.09927541187779468 0.00982520790044817 0.041825687599728656 -0.002895026718540141 -0.013093197088702824 0.0033515174392816406 0.020934974003860612
 0.003469470168634142 0.02091549410737386 -0.002895026718540141 -0.013093197088702824 0.009806219609003537 0.04182563017641403 0.987618122553325 -0.09927704869909264
 -0.0028953411708617033 -0.013093160896257573 0.0033515174392816406 0.020934974003860612 0.987618122553325 -0.09927704869909264 0.009825233753691492 0.041824192789124776
0.1250521050438 0.010498441757608543 0.044206629619115374 0.9866983052463135 -0.10464425346175096 0.0038067926995145733 0.021998863829790435 -0.003174642739718655 -0.01377056197493324
 0.9866983052463135 -0.10464425346175096 0.010519298824314783 0.04420511781349347 -0.003174295329495415 -0.013770604538730732 0.0036760845587640607 0.022021070670466186
 0.0038067926995145733 0.021998863829790435 -0.003174295329495415 -0.013770604538730732 0.010498253147438396 0.044205143352037665 0.9866981777210675 -0.10464598249712771
 -0.003174642739718655 -0.01377056197493324 0.0036760845587640607 0.022021070670466186 0.9866981777210675 -0.10464598249712771 0.010519330244616631 0.04420355544326702
0.131304710296 0.01122131492480313 0.046600019657447325 0.9857383971988899 -0.11002498147306143 0.004160599459024587 0.02307847676830025 -0.003467680119669608 -0.014444812500530533
 0.9857383971988899 -0.11002498147306143 0.011244320235093691 0.046598357062917574 -0.0034672982221809912 -0.01444486208674728 0.004016483848703131 0.023103659130775937
 0.004160599459024587 0.02307847676830025 -0.0034672982221809912 -0.01444486208674728 0.011221109457643246 0.046598477222116484 0.9857382550543118 -0.11002680366946824
 -0.003467680119669608 -0.014444812500530533 0.004016483848703131 0.023103659130775937 0.9857382550543118 -0.11002680366946824 0.011244357982946578 0.04659672882756641
0.1375573155481 0.011824636304381856 0.04869419781606578 0.98488897986728 -0.11510441136907894 0.004491706752522218 0.02412458910552903 -0.003735444007770762 -0.015086087416727406
 0.98488897986728 -0.11510441136907894 0.011849905972233234 0.04869241007017387 -0.003735025583170196 -0.015086144186776989 0.004333855639544681 0.024152743540208542
 0.004491706752522218 0.02412458910552903 -0.003735025583170196 -0.015086144186776989 0.01182441448146155 0.04869260082599135 0.9848888223736736 -0.11510632734543925
 -0.003735444007770762 -0.015086087416727406 0.004333855639544681 0.024152743540208542 0.9848888223736736 -0.11510632734543925 0.011849949398734185 0.04869071805460115
0.1438099208003 0.012449525755813621 0.05077428129733771 0.9840088697422311 -0.12016787450711361 0.004836076298009298 0.025164443398944046 -0.004013761475477231 -0.01572173099810038
 0.9840088697422311 -0.12016787450711361 0.012477169021775175 0.05077236086486106 -0.004013304927510335 -0.015721795592535195 0.004663897547398069 0.02519580046505666
 0.004836076298009298 0.025164443398944046 -0.004013304927510335 -0.015721795592535195 0.012449287420828677 0.0507726322524775 0.9840086958741872 -0.12016988519596943
 -0.004013761475477231 -0.01572173099810038 0.004663897547398069 0.02519580046505666 0.9840086958741872 -0.12016988519596943 0.012477218717726635 0.050770606930210196
0.1500625260525 0.013095710487052855 0.05284000715714072 0.9830983452221328 -0.12521515361157057 0.005193554460430363 0.02619786835368454 -0.004302485247010481 -0.01635158780292529
 0.9830983452221328 -0.12521515361157057 0.013125837078458165 0.0528379459418907 -0.0043019889902197106 -0.016351660886963517 0.005006460735341971 0.026232667027595177
 0.005193554460430363 0.02619786835368454 -0.0043019889902197106 -0.016351660886963517 0.013095455556135243 0.05283830864809427 0.9830981539133336 -0.12521725997707756
 -0.004302485247010481 -0.01635158780292529 0.005006460735341971 0.026232667027595177 0.9830981539133336 -0.12521725997707756 0.013125893675455438 0.05283613202190125
0.15631513130469998 0.013762915139906568 0.054891120470826546 0.9821576868191295 -0.13024603443249058 0.005563985409749788 0.02722469643741437 -0.004601465905838155 -0.016975506446879014
 0.9821576868191295 -0.13024603443249058 0.01379563528216429 0.0548889097922062 -0.004600928365835091 -0.01697558871004961 0.005361394260605265 0.027263184003472073
