! Created with skrf 1.8.0 (http://scikit-rf.org).
# GHz S RI R 50.0 
!freq ReS11 ImS11 ReS12 ImS12 ReS13 ImS13
! ReS14 ImS14
! ReS21 ImS21 ReS22 ImS22 ReS23 ImS23
! ReS24 ImS24
! ReS31 ImS31 ReS32 ImS32 ReS33 ImS33
! ReS34 ImS34
! ReS41 ImS41 ReS42 ImS42 ReS43 ImS43
! ReS44 ImS44
!
0.0 0.001442551125675 0.0 0.9985574488659 0.0 5.581144025916e-05 0.0 -5.581143972605e-05 6.834930101631256e-21
 0.9985574488659 0.0 0.001442551125631 0.0 -5.58114397252e-05 6.834930101527161e-21 5.581144025789e-05 0.0
 5.581144025916e-05 0.0 -5.58114397252e-05 6.834930101527161e-21 0.001442551125639 0.0 0.9985574488658 0.0
 -5.581143972605e-05 6.834930101631256e-21 5.581144025789e-05 0.0 0.9985574488658 0.0 0.001442551125642 0.0
0.005 0.0015518775439845836 0.0011739831179399393 0.9984191752420043 -0.0030224801808879584 7.892090529449622e-05 0.0006529996889228886 -7.651168113617806e-05 -0.00040327028854706114
 0.9984191752420043 -0.0030224801808879584 0.0015518578257503659 0.0011739946629409658 -7.651395443970521e-05 -0.0004032720624806062 7.903833112715208e-05 0.0006529550824285789
 7.892090529449622e-05 0.0006529996889228886 -7.651395443970521e-05 -0.0004032720624806062 0.0015518765912514965 0.0011740509698093078 0.9984191755860208 -0.0030224131176662433
 -7.651168113617806e-05 -0.00040327028854706114 7.903833112715208e-05 0.0006529550824285789 0.9984191755860208 -0.0030224131176662433 0.0015518594611275782 0.0011740609328489836
0.006252605252188 0.0015804747963579031 0.0014721376103821514 0.9983827923154537 -0.0037788547472267842 8.546018597230343e-05 0.0008165547452391272 -8.23234445149844e-05 -0.0005046228393707179
 0.9983827923154537 -0.0037788547472267842 0.0015804439726069105 0.00147215224267484 -8.232698177283256e-05 -0.0005046250274992268 8.564365502506013e-05 0.0008164968284351188
 8.546018597230343e-05 0.0008165547452391272 -8.232698177283256e-05 -0.0005046250274992268 0.001580473251627444 0.0014722224154046985 0.998382792798198 -0.0037787709298607347
 -8.23234445149844e-05 -0.0005046228393707179 8.564365502506013e-05 0.0008164968284351188 0.998382792798198 -0.0037787709298607347 0.0015804464742653812 0.0014722350619276302
0.01250521050438 0.0017305755989258783 0.002975464553274059 0.9981906346833584 -0.007558627333903255 0.00012262985421192704 0.0016334002149722897 -0.00011512332930897091 -0.0010117813284706238
 0.9981906346833584 -0.007558627333903255 0.0017304525102819922 0.0029754958393858064 -0.00011513726719075106 -0.0010117853855315677 0.0001233615415857531 0.0016332612010557582
 0.00012262985421192704 0.0016334002149722897 -0.00011513726719075106 -0.0010117853855315677 0.0017305688241878849 0.0029756339443031367 0.9981906360124704 -0.00755845993173357
 -0.00011512332930897091 -0.0010117813284706238 0.0001233615415857531 0.0016332612010557582 0.9981906360124704 -0.00755845993173357 0.001730461904230478 0.0029756611546979225
0.01875781575657 0.0018931653924887562 0.004500488624598366 0.997980748385168 -0.011348540714553722 0.00016740465071947875 0.0024511395153042456 -0.00015430963244382554 -0.0015207038661951388
 0.997980748385168 -0.011348540714553722 0.0018928887894314043 0.004500538732112337 -0.00015434071187825387 -0.0015207094161347144 0.000169048437676272 0.0024508919312254923
 0.00016740465071947875 0.0024511395153042456 -0.00015434071187825387 -0.0015207094161347144 0.0018931497326003133 0.004500742526634403 0.9979807509514821 -0.011348289809788893
 -0.00015430963244382554 -0.0015207038661951388 0.000169048437676272 0.0024508919312254923 0.9979807509514821 -0.011348289809788893 0.001892909483190499 0.004500786299489521
0.02501042100875 0.002068547727877544 0.006045078356652602 0.997752897343764 -0.015150448272392925 0.00021986949525507987 0.003269830351888943 -0.00019997776336605814 -0.0020311591373059026
 0.997752897343764 -0.015150448272392925 0.0020680564720100218 0.006045149575965852 -0.00020003264436450045 -0.0020311657403011005 0.00022278948698274876 0.003269442587786093
 0.00021986949525507987 0.003269830351888943 -0.00020003264436450045 -0.0020311657403011005 0.0020685195155171615 0.006045416749746899 0.9977529015291502 -0.015150113883914516
 -0.00019997776336605814 -0.0020311591373059026 0.00022278948698274876 0.003269442587786093 0.9977529015291502 -0.015150113883914516 0.002068092857920377 0.0060454791451745255
0.03126302626094 0.0022570135336450097 0.007608144552950228 0.997506832891576 -0.018965152242869234 0.0002801097797122189 0.0040894509044039325 -0.00025222050420829805 -0.0025429903348879778
 0.997506832891576 -0.018965152242869234 0.002256246564075919 0.007608239292945448 -0.0002523057797980723 -0.002542997486487748 0.00028467064591006187 0.004088887189403537
 0.0002801097797122189 0.0040894509044039325 -0.0002523057797980723 -0.002542997486487748 0.0022569690987356175 0.00760856741447443 0.9975068390808386 -0.018964734383842392
 -0.00025222050420829805 -0.0025429903348879778 0.00028467064591006187 0.004088887189403537 0.9975068390808386 -0.018964734383842392 0.0022563030323283118 0.007608650549519146
0.037515631513130004 0.0024588475372819083 0.009188982835147469 0.9972423003765517 -0.02279306110808596 0.0003482105982600413 0.0049099482413804685 -0.0003111287475411071 -0.003056066752311473
 0.9972423003765517 -0.02279306110808596 0.0024577438486728166 0.009189103620828972 -0.00031125095098372444 -0.003056073883165737 0.00035477772840026753 0.0049091686009534044
 0.0003482105982600413 0.0049099482413804685 -0.00031125095098372444 -0.003056073883165737 0.0024587832030155323 0.009189490166774462 0.9972423089553528 -0.02279255975905537
 -0.0003111287475411071 -0.003056066752311473 0.00035477772840026753 0.0049091686009534044 0.9972423089553528 -0.02279255975905537 0.002457824784474064 0.009189596212514688
0.043768236765320004 0.002674330752963736 0.01078707361905878 0.9969590418326965 -0.02663438955474443 0.000424256393007861 0.005731253030157028 -0.0003767917624091371 -0.0035702690721705244
 0.9969590418326965 -0.02663438955474443 0.0026728293781024754 0.010787223090361078 -0.0003769573715098753 -0.003570275547939073 0.0004331959722460147 0.00573021323776581
 0.000424256393007861 0.005731253030157028 -0.0003769573715098753 -0.003570275547939073 0.002674242837525862 0.010787665431006881 0.9969590531900123 -0.02663380467955182
 -0.0003767917624091371 -0.0035702690721705244 0.0004331959722460147 0.00573021323776581 0.9969590531900123 -0.02663380467955182 0.002672939163998173 0.010787796610548343
0.050020842017509996 0.0029037416394882094 0.012401999420235425 0.996656797321324 -0.030489241100979825 0.0005083307383541477 0.006553285623685025 -0.00044929730058812875 -0.004085483277722592
 0.996656797321324 -0.030489241100979825 0.0029017816342510527 0.012402180331406068 -0.00044951274044937136 -0.004085488399042027 0.0005200097816227902 0.006551937150097741
 0.0005083307383541477 0.006553285623685025 -0.00044951274044937136 -0.004085488399042027 0.0029036264540958498 0.012402675733136952 0.9966568118489074 -0.03048857264515295
 -0.00044929730058812875 -0.004085483277722592 0.0005200097816227902 0.006551937150097741 0.9966568118489074 -0.03048857264515295 0.0029019246486979016 0.012402834320034223
0.055454545454549996 0.0031146324123151312 0.013818813416456641 0.9963785159713503 -0.033850233155393525 0.0005879782019065057 0.0072681805170197395 -0.000517930811071441 -0.004533955037178139
 0.9963785159713503 -0.033850233155393525 0.00311222435714827 0.013819023975165438 -0.0005181947338753251 -0.004533958362979457 0.0006023366346605911 0.00726652099780995
 0.0005879782019065057 0.0072681805170197395 -0.0005181947338753251 -0.004533958362979457 0.003114490526939005 0.013819563185734221 0.996378533574551 -0.033849492009574815
 -0.000517930811071441 -0.004533955037178139 0.0006023366346605911 0.00726652099780995 0.996378533574551 -0.033849492009574815 0.0031123998002819822 0.013819747475125066
0.056273447269699996 0.003147356698875161 0.014033404276425585 0.9963353057159421 -0.0343576486070692 0.000600516190816531 0.007375959037188996 -0.0005287316270758468 -0.004601597675974938
 0.9963353057159421 -0.0343576486070692 0.0031448771287826065 0.014033619495719232 -0.00052900327203361 -0.004601600678468077 0.0006153025515062062 0.007374248998698789
 0.000600516190816531 0.007375959037188996 -0.00052900327203361 -0.004601600678468077 0.0031472105473914435 0.014034165117900907 0.9963353238087234 -0.03435689650152579
 -0.0005287316270758468 -0.004601597675974938 0.0006153025515062062 0.007374248998698789 0.9963353238087234 -0.03435689650152579 0.003145057745495076 0.014034353434944647
0.06252605252188 0.003405450800624352 0.01568097143739155 0.9959943052153092 -0.03823959652055501 0.0007008941686289371 0.008199180590399629 -0.0006151795146055838 -0.0051185012575805326
 0.9959943052153092 -0.03823959652055501 0.003402390727889582 0.015681223947253117 -0.0006155136895247971 -0.00511850131185417 0.0007191565306996039 0.008197051696626805
 0.0007008941686289371 0.008199180590399629 -0.0006155136895247971 -0.00511850131185417 0.0034052699797567183 0.01568181684236203 0.9959943272726637 -0.03823876068154956
 -0.0006151795146055838 -0.0051185012575805326 0.0007191565306996039 0.008197051696626805 0.9959943272726637 -0.03823876068154956 0.0034026133161103884 0.015682037260896908
0.06877865777407 0.0036782973590865783 0.017344410056017168 0.9956335337132911 -0.042135034122802666 0.0008095448492239512 0.00902285288169004 -0.0007087242161435269 -0.005636082727723708
 0.9956335337132911 -0.042135034122802666 0.0036745958303861627 0.017344702953587258 -0.0007091271973914396 -0.0056360789393957635 0.0008316527074248859 0.009020243383257798
 0.0008095448492239512 0.00902285288169004 -0.0007091271973914396 -0.0056360789393957635 0.0036780781579135984 0.017345340067670988 0.9956335601389295 -0.04213411445124626
 -0.0007087242161435269 -0.005636082727723708 0.0008316527074248859 0.009020243383257798 0.9956335601389295 -0.04213411445124626 0.0036748647537557222 0.017345595007085757
0.07503126302626001 0.003966168420575842 0.019023446763417946 0.995252729080413 -0.04604388389456358 0.0009265470762243754 0.009846874412699588 -0.0008094474247323765 -0.006154229889699841
 0.995252729080413 -0.04604388389456358 0.003961764454599554 0.019023783261447887 -0.0008099254407726021 -0.0061542212994377685 0.0009528707076109936 0.009843718049060238
 0.0009265470762243754 0.009846874412699588 -0.0008099254407726021 -0.0061542212994377685 0.003965907119695341 0.019024461434186315 0.99525276028278 -0.0460428802754161
 -0.0008094474247323765 -0.006154229889699841 0.0009528707076109936 0.009843718049060238 0.99525276028278 -0.0460428802754161 0.003962084070385746 0.019024753361855183
0.08128386827845 0.004269334695465031 0.020717820052365915 0.9948516293945422 -0.04996604707674283 0.001051978272731618 0.010671140000567889 -0.0009174292244150534 -0.00667282924435829
 0.9948516293945422 -0.04996604707674283 0.00426416727149405 0.020718203480418355 -0.0009179884563146605 -0.006672814827901732 0.0010828887014477256 0.010667365948070879
 0.001051978272731618 0.010671140000567889 -0.0009179884563146605 -0.006672814827901732 0.004269027567602 0.0207189194400027 0.9948516657881838 -0.04996495938329941
 -0.0009174292244150534 -0.00667282924435829 0.0010828887014477256 0.010667365948070879 0.9948516657881838 -0.04996495938329941 0.004264541930210335 0.02071925087159558
0.08753647353064001 0.004588065555414677 0.022427276394870858 0.9944299731394022 -0.05390140750082862 0.0011859143585317355 0.011495541071448066 -0.001032748035465125 -0.007191765711822489
 0.9944299731394022 -0.05390140750082862 0.004582073600985443 0.02242771020099598 -0.0010333946171296844 -0.007191744380034142 0.0012217833147939513 0.011491073891838644
 0.0011859143585317355 0.011495541071448066 -0.0010333946171296844 -0.007191744380034142 0.004587708864188233 0.02242846056794888 0.9944300151442551 -0.053900235589588855
 -0.001032748035465125 -0.007191765711822489 0.0012217833147939513 0.011491073891838644 0.9944300151442551 -0.053900235589588855 0.004582507645071121 0.022428834068086073
0.09378907878283 0.00492262900201981 0.02415156747390713 0.9939874993770025 -0.057849834308998524 0.0013284296696491327 0.012319965869281602 -0.0011554805550489508 -0.007710922441709487
 0.9939874993770025 -0.057849834308998524 0.004915751381464569 0.024152055226576406 -0.0011562205734346822 -0.007710893040618005 0.0013696295444668085 0.01231472545865188
 0.0013284296696491327 0.012319965869281602 -0.0011562205734346822 -0.007710893040618005 0.004922219002477519 0.024152836508647565 0.9939875474197843 -0.05784857802322445
 -0.0011554805550489508 -0.007710922441709487 0.0013696295444668085 0.01231472545865188 0.9939875474197843 -0.05784857802322445 0.004916249144754187 0.024153254691932528
0.100041684035 0.005273291621514897 0.02589044814650134 0.9935239479096271 -0.06181118394712606 0.0014795968795858164 0.01314429961509381 -0.0012857016950112278 -0.008230180676747018
 0.9935239479096271 -0.06181118394712606 0.005265467123605656 0.025890993537080517 -0.0012865411901223356 -0.00823014198760848 0.001526500675372183 0.013138201153442781
 0.0014795968795858164 0.01314429961509381 -0.0012865411901223356 -0.00823014198760848 0.005272824559298631 0.025891802127816888 0.9935240024240107 -0.061809843116295185
 -0.0012857016950112278 -0.008230180676747018 0.001526500675372183 0.013138201153442781 0.9935240024240107 -0.061809843116295185 0.005266032930392164 0.02589226766028186
0.1059090909091 0.005617229493914539 0.027535255380256234 0.993069553079407 -0.06554010588248953 0.0016293832892421679 0.013917661805788883 -0.001414776348319467 -0.00871743422738526
 0.993069553079407 -0.06554010588248953 0.00560846070392958 0.02753585832700559 -0.0014157146433327944 -0.008717385656315524 0.0016819793497138266 0.013910676766534968
 0.0016293832892421679 0.013917661805788883 -0.0014157146433327944 -0.008717385656315524 0.005616705461842411 0.02753668916069299 0.9930696140679757 -0.06553868554720049
 -0.001414776348319467 -0.00871743422738526 0.0016819793497138266 0.013910676766534968 0.9930696140679757 -0.06553868554720049 0.005609094285852239 0.027537201597514608
0.1062942892872 0.005640318521380431 0.027643674915133365 0.9930390594263575 -0.06578530165392167 0.0016394869217300873 0.013968424631397622 -0.0014234845168891034 -0.008749419655240903
 0.9930390594263575 -0.06578530165392167 0.005631485848108882 0.02764428176058973 -0.0014244294818436247 -0.00874937039459555 0.001692468199519271 0.013961378532764118
 0.0016394869217300873 0.013968424631397622 -0.0014244294818436247 -0.00874937039459555 0.005639790633036402 0.027645113938082923 0.9930391208536999 -0.06578387609257515
 -0.0014234845168891034 -0.008749419655240903 0.001692468199519271 0.013961378532764118 0.9930391208536999 -0.06578387609257515 0.005632124012073188 0.02764562953905637
0.11254689453939999 0.00602397326080387 0.029411004762724516 0.9925325756460768 -0.06977202259077567 0.0018081689123769294 0.014792220441242752 -0.0015689001652855414 -0.00926851654299294
 0.9925325756460768 -0.06977202259077567 0.006014071014730014 0.02941167700886746 -0.0015699565461448955 -0.009268455362738114 0.0018676017359644023 0.014784132304634585
 0.0018081689123769294 0.014792220441242752 -0.0015699565461448955 -0.009268455362738114 0.006023380773231372 0.029412528930330965 0.9925326444355919 -0.06977051210134497
 -0.0015689001652855414 -0.00926851654299294 0.0018676017359644023 0.014784132304634585 0.9925326444355919 -0.06977051210134497 0.0060147858382786044 0.02941309737465456
0.11879949979160001 0.0064245177703404896 0.03119219423510415 0.992004239452084 -0.07377117272906585 0.001985710074417882 0.015615563850061957 -0.001722017799353739 -0.009787346386706896
 0.992004239452084 -0.07377117272906585 0.0064134844430659595 0.03119293596020812 -0.0017231914950309993 -0.00978727187417063 0.0020519689517946205 0.015606334411042998
 0.001985710074417882 0.015615563850061957 -0.0017231914950309993 -0.00978727187417063 0.006423856900551227 0.031193803662942148 0.9920043160616846 -0.07376957709768388
 -0.001722017799353739 -0.009787346386706896 0.0020519689517946205 0.015606334411042998 0.9920043160616846 -0.07376957709768388 0.0064142802159536305 0.031194427783683525
0.1250521050438 0.006842212266616215 0.03298699873302191 0.9914537950252227 -0.07778256953265524 0.002172175661072944 0.01643832901853662 -0.0018829045235708684 -0.010305782080545767
 0.9914537950252227 -0.07778256953265524 0.006829986226360875 0.032987814151875176 -0.0018842013855920041 -0.010305692758585061 0.0022456354831853318 0.016427854101692715
 0.002172175661072944 0.01643832901853662 -0.0018842013855920041 -0.010305692758585061 0.006841479221531852 0.032988693546230026 0.9914538799218454 -0.07778088853265509
 -0.0018829045235708684 -0.010305782080545767 0.0022456354831853318 0.016427854101692715 0.9914538799218454 -0.07778088853265509 0.006830867224954514 0.03298937623781057
0.131304710296 0.007277315160925326 0.03479517192885424 0.9908809879720929 -0.08180602252051733 0.002367628880155959 0.017260387524747317 -0.002051625316931735 -0.010823694347924592
 0.9908809879720929 -0.08180602252051733 0.0072638346407451265 0.034796065397240915 -0.002053051149293315 -0.01082358867498703 0.002448664857480963 0.017248557997010777
 0.002367628880155959 0.017260387524747317 -0.002053051149293315 -0.01082358867498703 0.007276506137605133 0.03479695226363511 0.9908810816325193 -0.08180425591155607
 -0.002051625316931735 -0.010823694347924592 0.002448664857480963 0.017248557997010777 0.9908810816325193 -0.08180425591155607 0.007264805126868892 0.03479769648544508
0.1375573155481 0.007628258463611173 0.03637892454990041 0.9903874273657816 -0.08560368654089964 0.0025464652189683286 0.018057037025908114 -0.002202483710645499 -0.011316462465400832
 0.9903874273657816 -0.08560368654089964 0.00761345825357123 0.03637988223455736 -0.0022040471607140473 -0.011316340400863292 0.0026352615221602394 0.0180438741125471
 0.0025464652189683286 0.018057037025908114 -0.0022040471607140473 -0.011316340400863292 0.007627370383651496 0.036380790527036216 0.9903875301916744 -0.0856018341923727
 -0.002202483710645499 -0.011316462465400832 0.0026352615221602394 0.0180438741125471 0.9903875301916744 -0.0856018341923727 0.007614521895976203 0.036381581248263656
0.1438099208003 0.00799146839576883 0.03795465567413089 0.989876661006974 -0.08939208478095349 0.002732525386825795 0.018850826234003398 -0.0023593991049577338 -0.011806566950427866
 0.989876661006974 -0.08939208478095349 0.007975286044343952 0.03795568085841193 -0.002361106420575841 -0.011806426984949856 0.0028294231338193945 0.018836230595396714
 0.002732525386825795 0.018850826234003398 -0.002361106420575841 -0.011806426984949856 0.007990497572737208 0.037956607417201506 0.9898767734737047 -0.08939014645701025
 -0.0023593991049577338 -0.011806566950427866 0.0028294231338193945 0.018836230595396714 0.9898767734737047 -0.08939014645701025 0.007976446977408413 0.037957446508973466
0.1500625260525 0.0083668222781987 0.03952224389814786 0.9893488154637871 -0.09317113416903537 0.0029257486783974868 0.019641685660845707 -0.0025223114618171173 -0.012293939664056024
 0.9893488154637871 -0.09317113416903537 0.008349195189736251 0.0395233400674989 -0.002524168879443378 -0.012293780227710906 0.0030310870745772728 0.019625554349372087
 0.0029257486783974868 0.019641685660845707 -0.002524168879443378 -0.012293780227710906 0.008365765024034081 0.039524281532534684 0.9893489380544097 -0.09316910962792575
 -0.0025223114618171173 -0.012293939664056024 0.0030310870745772728 0.019625554349372087 0.9893489380544097 -0.09316910962792575 0.008350457526943451 0.03952517101211167
0.15631513130469998 0.008754196615925816 0.04108157153255555 0.9888040178899317 -0.09694075170531385 0.003126073711366352 0.02042954693436364 -0.0026911600353445087 -0.012778513864079317
