! Created with skrf 1.8.0 (http://scikit-rf.org).
# GHz S RI R 50.0 
!freq ReS11 ImS11 ReS12 ImS12 ReS13 ImS13
! ReS14 ImS14
! ReS21 ImS21 ReS22 ImS22 ReS23 ImS23
! ReS24 ImS24
! ReS31 ImS31 ReS32 ImS32 ReS33 ImS33
! ReS34 ImS34
! ReS41 ImS41 ReS42 ImS42 ReS43 ImS43
! ReS44 ImS44
!
0.0 0.00196845711399 0.0 0.9980315428576 0.0 7.64926240559e-05 0.0 -7.649262405628e-05 9.367644720890513e-21
 0.9980315428576 0.0 0.001968457113965 0.0 -7.64926240558e-05 9.36764472083173e-21 7.649262405617e-05 0.0
 7.64926240559e-05 0.0 -7.64926240558e-05 9.36764472083173e-21 0.001968457128182 0.0 0.9980315428718 0.0
 -7.649262405628e-05 9.367644720890513e-21 7.649262405617e-05 0.0 0.9980315428718 0.0 0.001968457128186 0.0
0.005 0.002119404541455323 0.0016114760290451048 0.997840309389633 -0.0041216717161652195 0.00010769692978572359 0.0008270759441866114 -0.00010453212186695226 -0.0005216103106199395
 0.997840309389633 -0.0041216717161652195 0.002119426787153641 0.00161146297376511 -0.00010453006652714765 -0.0005216086856218897 0.00010757744485982116 0.000827121712123648
 0.00010769692978572359 0.0008270759441866114 -0.00010453006652714765 -0.0005216086856218897 0.002119406237270404 0.0016115422653577962 0.9978403097831392 -0.004121604653710425
 -0.00010453212186695226 -0.0005216103106199395 0.00010757744485982116 0.000827121712123648 0.9978403097831392 -0.004121604653710425 0.0021194258643569344 0.00161153084905989
0.006252605252188 0.0021594559032668244 0.00202060716583829 0.997789176601344 -0.0051530209302767015 0.00011686771532934252 0.001034222451131748 -0.00011265583632921717 -0.0006526555032989508
 0.997789176601344 -0.0051530209302767015 0.002159490677222257 0.002020590544617172 -0.00011265263845848075 -0.0006526534998038588 0.0001166810373968974 0.0010342819218889879
 0.00011686771532934252 0.001034222451131748 -0.00011265263845848075 -0.0006526534998038588 0.002159458480787649 0.002020689944429216 0.9977891771429508 -0.005152937105363118
 -0.00011265583632921717 -0.0006526555032989508 0.0001166810373968974 0.0010342819218889879 0.9977891771429508 -0.005152937105363118 0.002159489160599347 0.0020206753864077678
0.01250521050438 0.0023729856051980533 0.004082743396464526 0.997514437547222 -0.010306248886703692 0.0001708102132806062 0.002068616023435972 -0.00015985908548634586 -0.001308149604397163
 0.997514437547222 -0.010306248886703692 0.0023731244612197125 0.00408270705473066 -0.00015984648859838278 -0.0013081459074872675 0.00017006593180332063 0.0020687598003804987
 0.0001708102132806062 0.002068616023435972 -0.00015984648859838278 -0.0013081459074872675 0.002372995353142113 0.0040829085273687655 0.9975144391636587 -0.010306081468131854
 -0.00015985908548634586 -0.001308149604397163 0.00017006593180332063 0.0020687598003804987 0.9975144391636587 -0.010306081468131854 0.002373117844848911 0.004082876488774017
0.01875781575657 0.002609606696596293 0.006173338763482781 0.997206918042595 -0.01547210337923254 0.0002384578673904006 0.0031037740627982056 -0.00021826528136035378 -0.001965485297941803
 0.997206918042595 -0.01547210337923254 0.0026099187222762502 0.006173279262108312 -0.00021823719882578356 -0.001965480290357908 0.00023678628136636833 0.0031040328515779202
 0.0002384578673904006 0.0031037740627982056 -0.00021823719882578356 -0.001965480290357908 0.002609628182507773 0.0061735858758855304 0.9972069212576138 -0.015471852388457174
 -0.00021826528136035378 -0.001965485297941803 0.00023678628136636833 0.0031040328515779202 0.9972069212576138 -0.015471852388457174 0.002609903406000454 0.006173533189430014
0.02501042100875 0.002869856805728257 0.008289345598716708 0.9968661920680993 -0.020652960118602938 0.00031994965773952483 0.004139651073556899 -0.000288029834060207 -0.0026242929757139383
 0.9968661920680993 -0.020652960118602938 0.002870410958791807 0.008289259179300948 -0.0002879802561323688 -0.002624287118898 0.00031698120088112145 0.004140061285876261
 0.00031994965773952483 0.004139651073556899 -0.0002879802561323688 -0.002624287118898 0.002869894592528826 0.008289674216714794 0.9968661974145893 -0.020652625529151963
 -0.000288029834060207 -0.0026242929757139383 0.00031698120088112145 0.004140061285876261 0.9968661974145893 -0.020652625529151963 0.002870383336776456 0.008289597487885466
0.03126302626094 0.003154250719275281 0.010429131200926117 0.9964918158413781 -0.025849758346124026 0.00041542356820435563 0.005176106053488635 -0.000369302078803151 -0.0032842871102019664
 0.9964918158413781 -0.025849758346124026 0.003155115867257517 0.010429013787792844 -0.0003692250602899565 -0.0032842809448924604 0.0004107884971187766 0.0051767098384122474
 0.00041542356820435563 0.005176106053488635 -0.0003692250602899565 -0.0032842809448924604 0.003154309359368513 0.010429540747769894 0.9964918238577133 -0.025849340078712698
 -0.000369302078803151 -0.0032842871102019664 0.0004107884971187766 0.0051767098384122474 0.9964918238577133 -0.025849340078712698 0.0031550723184439896 0.010429436357613349
0.037515631513130004 0.003463290427044422 0.012591582321126706 0.9960833384306955 -0.031062896319129774 0.0005250150931725115 0.006212958976528492 -0.00046222627501861963 -0.00394520985311814
 0.9960833384306955 -0.031062896319129774 0.0034645353742316035 0.012591429521246528 -0.0004621159289581725 -0.003945203999432831 0.0005183433683910246 0.00621380427234372
 0.0005250150931725115 0.006212958976528492 -0.0004621159289581725 -0.003945203999432831 0.003463374463062956 0.012592072104579723 0.9960833496637912 -0.031062394255547188
 -0.00046222627501861963 -0.00394520985311814 0.0005183433683910246 0.00621380427234372 0.9960833496637912 -0.031062394255547188 0.0034644722629769307 0.012591936210525288
0.043768236765320004 0.0037974689584419443 0.01477583266413748 0.9956403061631258 -0.03629250376750147 0.0006488564944468717 0.007250007993346011 -0.0005669419102017826 -0.0046068139252380316
 0.9956403061631258 -0.03629250376750147 0.003799162468244452 0.0147756397653655 -0.0005667924043743207 -0.004606809082600746 0.00063977774454555 0.00725114858532529
 0.0006488564944468717 0.007250007993346011 -0.0005667924043743207 -0.004606809082600746 0.0037975829204191782 0.01477640188582005 0.995640321169357 -0.03629191774036834
 -0.0005669419102017826 -0.0046068139252380316 0.00063977774454555 0.00725114858532529 0.995640321169357 -0.03629191774036834 0.003799076140431213 0.014776230421498022
0.050020842017509996 0.00415727211196879 0.016981150290433067 0.9951622649336883 -0.041538554452256536 0.0007870763225924626 0.00828703656870685 -0.0006835837574692872 -0.005268855579839577
 0.9951622649336883 -0.041538554452256536 0.004159482925727335 0.016980912259289705 -0.0006833893120953285 -0.0052688525268814205 0.0007752198524245338 0.008288532148995852
 0.0007870763225924626 0.00828703656870685 -0.0006833893120953285 -0.0052688525268814205 0.004157420516094956 0.016981798030018938 0.9951622842808042 -0.04153788426005206
 -0.0006835837574692872 -0.005268855579839577 0.0007752198524245338 0.008288532148995852 0.9951622842808042 -0.04153788426005206 0.004159369708496837 0.01698158670419219
0.055454545454549996 0.004491134765833165 0.01891423894490037 0.9947180491068466 -0.04611078866501241 0.0009189673633622101 0.009188052627560984 -0.0007947356931749199 -0.005844356024702977
 0.9947180491068466 -0.04611078866501241 0.00449385095540902 0.018913957352555594 -0.0007944975398265369 -0.005844355220789953 0.000904395695445772 0.009189909813762824
 0.0009189673633622101 0.009188052627560984 -0.0007944975398265369 -0.005844355220789953 0.004491316756924306 0.01891495407695362 0.9947180726979814 -0.0461100451399296
 -0.0007947356931749199 -0.005844356024702977 0.000904395695445772 0.009189909813762824 0.9947180726979814 -0.0461100451399296 0.0044937113717506 0.018914704449260477
0.056273447269699996 0.004543179291663829 0.019206882366795106 0.9946487616283068 -0.046800921384347244 0.0009397990520932249 0.009323817013393082 -0.0008122818256429571 -0.00593109118372008
 0.9946487616283068 -0.046800921384347244 0.00454597614704126 0.0192065938452177 -0.0008120367120749616 -0.005931090778144122 0.0009247938785308789 0.009325733241343259
 0.0009397990520932249 0.009323817013393082 -0.0008120367120749616 -0.005931090778144122 0.004543366638476675 0.019207607583287916 0.9946487858975405 -0.04680016678941497
 -0.0008122818256429571 -0.00593109118372008 0.0009247938785308789 0.009325733241343259 0.9946487858975405 -0.04680016678941497 0.004545832346894529 0.01920735187803295
0.06252605252188 0.004955663901002212 0.02145242480492381 0.9940993451104242 -0.05207940716804426 0.0011071447778467185 0.010360112453165342 -0.0009531612514238485 -0.006593275374321222
 0.9940993451104242 -0.05207940716804426 0.004959115548631002 0.021452080106320257 -0.0009528597912271648 -0.00659327855276329 0.0010886196833435218 0.010362521015287418
 0.0011071447778467185 0.010360112453165342 -0.0009528597912271648 -0.00659327855276329 0.004955894672027724 0.021453226341862613 0.9940993748968581 -0.05207856789069435
 -0.0009531612514238485 -0.006593275374321222 0.0010886196833435218 0.010362521015287418 0.9940993748968581 -0.05207856789069435 0.0049589374490462464 0.021452921510056903
0.06877865777407 0.005395193492566751 0.023717204193869166 0.9935135669710331 -0.05737376206471571 0.0012892289434687642 0.011395678036637179 -0.0011063421605717566 -0.007255159991839754
 0.9935135669710331 -0.05737376206471571 0.0053993687131126825 0.023716797298404195 -0.0011059787250745608 -0.0072551677697039706 0.001266812543177831 0.01139865670571153
 0.0012892289434687642 0.011395678036637179 -0.0011059787250745608 -0.0072551677697039706 0.005395472149615101 0.023718080765957893 0.9935136028871425 -0.05737283779614738
 -0.0011063421605717566 -0.007255159991839754 0.001266812543177831 0.01139865670571153 0.9935136028871425 -0.05737283779614738 0.005399152574369144 0.023717721828001304
0.07503126302626001 0.005862229774757232 0.026000666349745478 0.9928909821408424 -0.06268369545529422 0.001486162090646608 0.012430261728052753 -0.0012719395093134353 -0.00791649344088597
 0.9928909821408424 -0.06268369545529422 0.0058671973947951326 0.02600019089887245 -0.0012715085193471937 -0.007916506912195996 0.0014594829092725318 0.0124338944210393
 0.001486162090646608 0.012430261728052753 -0.0012715085193471937 -0.007916506912195996 0.005862560755893991 0.026001616553083532 0.9928910248160934 -0.06268268584676621
 -0.0012719395093134353 -0.00791649344088597 0.0014594829092725318 0.0124338944210393 0.9928910248160934 -0.06268268584676621 0.005866939450916192 0.0260011982928063
0.08128386827845 0.0063572285254021536 0.028302268725152093 0.9922311494152163 -0.06800888345948879 0.0016980496205797723 0.013463604872423212 -0.0014500629143342327 -0.008577020294689744
 0.9922311494152163 -0.06800888345948879 0.006363057433283982 0.028301718015403092 -0.0014495588401594425 -0.008577040631904776 0.001666736177111601 0.013467981706994165
 0.0016980496205797723 0.013463604872423212 -0.0014495588401594425 -0.008577040631904776 0.006357616243597775 0.028303291035091084 0.9922311994994912 -0.0680077881242794
 -0.0014500629143342327 -0.008577020294689744 0.001666736177111601 0.013467981706994165 0.9922311994994912 -0.0680077881242794 0.006362753891930837 0.028302807994937184
0.08753647353064001 0.006880639445987102 0.030621475195425987 0.9915336319251994 -0.07334897419596877 0.0019249915648680408 0.014495442614430313 -0.001640816474123425 -0.009236481060763118
 0.9915336319251994 -0.07334897419596877 0.006887398607867086 0.03062084217134643 -0.0016402338355488157 -0.00923650951460126 0.00188867246417374 0.014500659963821813
 0.0019249915648680408 0.014495442614430313 -0.0016402338355488157 -0.00923650951460126 0.00688108828591052 0.03062256795869621 0.9915336900894617 -0.07334779271699533
 -0.001640816474123425 -0.009236481060763118 0.00188867246417374 0.014500659963821813 0.9915336900894617 -0.07334779271699533 0.006887045648053334 0.030622014434044467
0.09378907878283 0.007432905972597462 0.03295775233149883 0.9907979975690806 -0.07870359157397647 0.0021670823631627623 0.015525504234189148 -0.0018442985853232687 -0.009894612045286811
 0.9907979975690806 -0.07870359157397647 0.00744066444812624 0.03295702957777643 -0.0018436319519112801 -0.009894649944530083 0.0021253863928537655 0.015531664780333816
 0.0021670823631627623 0.015525504234189148 -0.0018436319519112801 -0.009894649944530083 0.007433420288127231 0.03295891377426187 0.9907980645075941 -0.07870232349564897
 -0.0018442985853232687 -0.009894612045286811 0.0021253863928537655 0.015531664780333816 0.9907980645075941 -0.07870232349564897 0.0074402582188596335 0.03295828380699869
0.100041684035 0.00801446505853231 0.03531056671288515 0.9900238194197687 -0.08407233806355204 0.00242441064531614 0.01655351342768034 -0.002060601756082076 -0.010551145288596691
 0.9900238194197687 -0.08407233806355204 0.008023292016242184 0.03530974644565242 -0.002059845747469822 -0.010551194039882793 0.002376966877742336 0.016560726212344723
 0.00242441064531614 0.01655351342768034 -0.002059845747469822 -0.010551194039882793 0.008015049170299073 0.03531179493595613 0.990023895851855 -0.08407098289658782
 -0.002060601756082076 -0.010551145288596691 0.002376966877742336 0.016560726212344723 0.990023895851855 -0.08407098289658782 0.008022828635483934 0.03531108230713566
0.1059090909091 0.008587221176631845 0.03753299699474549 0.9892619047600778 -0.0891228163966556 0.0026798179353414798 0.01751607354394405 -0.002275317026608784 -0.011165536524946257
 0.9892619047600778 -0.0891228163966556 0.008597113810338982 0.03753207780543319 -0.0022744723003971334 -0.011165596808213798 0.002626643461858366 0.01752437862364719
 0.0026798179353414798 0.01751607354394405 -0.0022744723003971334 -0.011165596808213798 0.008587874681865344 0.03753428604480914 0.9892619907783919 -0.08912137903172393
 -0.002275317026608784 -0.011165536524946257 0.002626643461858366 0.01752437862364719 0.9892619907783919 -0.08912137903172393 0.00859659323866851 0.03753348995130177
0.1062942892872 0.008625746933539489 0.03767938292362381 0.9892106761122219 -0.08945479680195575 0.002697059018470627 0.017579188549367075 -0.002289812417171839 -0.011205808554482713
 0.9892106761122219 -0.08945479680195575 0.00863571166653991 0.037678456980933604 -0.0022889617034258943 -0.011205869642077086 0.0026434969168262633 0.017587569023282307
 0.002697059018470627 0.017579188549367075 -0.0022889617034258943 -0.011205869642077086 0.008626405125751479 0.037680675903360245 0.989210762783492 -0.08945335402270982
 -0.002289812417171839 -0.011205808554482713 0.0026434969168262633 0.017587569023282307 0.989210762783492 -0.08945335402270982 0.008635187219060283 0.037679874125033964
0.11254689453939999 0.00926717484730649 0.040063662046475934 0.9883581522170484 -0.09485053322161156 0.0029851038575583813 0.018602242835961624 -0.0025320107324648083 -0.011858325354541972
 0.9883581522170484 -0.09485053322161156 0.009278346788677025 0.0400626218778755 -0.002531060034530396 -0.011858400340148397 0.002925053386066202 0.018611912905772625
 0.0029851038575583813 0.018602242835961624 -0.002531060034530396 -0.011858400340148397 0.009267911365249848 0.04006501763212505 0.9883582499019251 -0.09484900227504174
 -0.0025320107324648083 -0.011858325354541972 0.002925053386066202 0.018611912905772625 0.9883582499019251 -0.09484900227504174 0.009277757325261279 0.04006411993819268
0.11879949979160001 0.009939164801283273 0.04246286051426229 0.9874658386050993 -0.10025909634070414 0.003288615099494699 0.019622384614116407 -0.0027872704094088954 -0.012508415004947362
 0.9874658386050993 -0.10025909634070414 0.009951613539123109 0.04246169716946602 -0.0027862144996288456 -0.012508505527392726 0.003221706836989436 0.019633472686982893
 0.003288615099494699 0.019622384614116407 -0.0027862144996288456 -0.012508505527392726 0.009939983848300304 0.042464276431921515 0.9874659481081202 -0.10025747663690747
 -0.0027872704094088954 -0.012508415004947362 0.003221706836989436 0.019633472686982893 0.9874659481081202 -0.10025747663690747 0.009950955074822224 0.04246327576824068
0.1250521050438 0.01064212526987612 0.0448764292332079 0.9865333328020864 -0.10568001980234275 0.003607656040945474 0.02063931750135224 -0.0030556585101213867 -0.013155792706278533
 0.9865333328020864 -0.10568001980234275 0.010655920562566526 0.04487513334990667 -0.003054492212727901 -0.013155900481317656 0.003533521297910368 0.02065195852724243
 0.003607656040945474 0.02063931750135224 -0.003054492212727901 -0.013155900481317656 0.010643031004635714 0.04487790308343383 0.9865334549598391 -0.10567831071947638
 -0.0030556585101213867 -0.013155792706278533 0.003533521297910368 0.02065195852724243 0.9865334549598391 -0.10567831071947638 0.010655189075446296 0.04487679209686154
0.131304710296 0.011376456915644838 0.04730381290653824 0.985560239337672 -0.11111282273387181 0.00394228313955799 0.021652740602651606 -0.0033372352640150906 -0.013800169644326921
 0.985560239337672 -0.11111282273387181 0.011391668706606713 0.0473023746972713 -0.0033359534557090833 -0.013800296464336632 0.003860554078062414 0.021667076114067776
 0.00394228313955799 0.021652740602651606 -0.0033359534557090833 -0.013800296464336632 0.011377453448744345 0.04730534216427281 0.9855603750203819 -0.11111102361915422
 -0.0033372352640150906 -0.013800169644326921 0.003860554078062414 0.021667076114067776 0.9855603750203819 -0.11111102361915422 0.011390860136240572 0.047304113190787506
0.1375573155481 0.011989732263128074 0.049430166994964116 0.9846990831046064 -0.11624249939561809 0.004255069532411023 0.02263332144131014 -0.0035946741744779793 -0.014412182769656515
 0.9846990831046064 -0.11624249939561809 0.012006434665757156 0.04942860450176239 -0.003593269019264311 -0.014412329093028822 0.004165554764396563 0.022649350682232137
 0.004255069532411023 0.02263332144131014 -0.003593269019264311 -0.014412329093028822 0.011990822941011052 0.049431749685336666 0.9846992329723057 -0.11624060984650211
 -0.0035946741744779793 -0.014412182769656515 0.004165554764396563 0.022649350682232137 0.9846992329723057 -0.11624060984650211 0.012005546081305742 0.04943042216372809
0.1438099208003 0.012624982487864048 0.051542268667656224 0.9838067651270784 -0.12135604918999351 0.004580349009812338 0.023607925789985832 -0.003862234212200808 -0.015018750841237374
 0.9838067651270784 -0.12135604918999351 0.012643246269772469 0.0515405736230386 -0.003860700175138599 -0.01501891846850893 0.004482713633516029 0.023625780258077596
 0.004580349009812338 0.023607925789985832 -0.003860700175138599 -0.01501891846850893 0.012626171217604256 0.051543902207290423 0.9838069300550852 -0.12135406856845382
 -0.003862234212200808 -0.015018750841237374 0.004482713633516029 0.023625780258077596 0.9838069300550852 -0.12135406856845382 0.012642273757159074 0.051542469978003165
0.1500625260525 0.013281931581070185 0.053639851142595105 0.9828835669804772 -0.12645325214648193 0.004917974220994467 0.0245763908314744 -0.004139773063864123 -0.015619724399074135
 0.9828835669804772 -0.12645325214648193 0.01330182769266749 0.05363801480465634 -0.004138104628175823 -0.015619915203721788 0.004811886154095896 0.02459620681337585
 0.004917974220994467 0.0245763908314744 -0.004138104628175823 -0.015619915203721788 0.013283222215270573 0.05364153284881481 0.9828837478729592 -0.12645117979340714
 -0.004139773063864123 -0.015619724399074135 0.004811886154095896 0.02459620681337585 0.9828837478729592 -0.12645117979340714 0.013300767313160516 0.05363998936198801
0.15631513130469998 0.013960300958360573 0.05572265572457828 0.9819297723511606 -0.1315338913478647 0.005267795714635189 0.025538557386732136 -0.004427146353240263 -0.016214957894762988
 0.9819297723511606 -0.1315338913478647 0.013981900536756109 0.055720668865922945 -0.004425338020771041 -0.01621517382283206 0.0051529257487658055 0.025560475893275546
