! Created with skrf 1.8.0 (http://scikit-rf.org).
# GHz S RI R 50.0 
!freq ReS11 ImS11 ReS12 ImS12 ReS13 ImS13
! ReS14 ImS14
! ReS21 ImS21 ReS22 ImS22 ReS23 ImS23
! ReS24 ImS24
! ReS31 ImS31 ReS32 ImS32 ReS33 ImS33
! ReS34 ImS34
! ReS41 ImS41 ReS42 ImS42 ReS43 ImS43
! ReS44 ImS44
!
0.0 0.001661887891908 0.0 0.9983381121081 0.0 6.444917935823e-05 0.0 -6.444917953629e-05 7.892748142679064e-21
 0.9983381121081 0.0 0.00166188789192 0.0 -6.444917953562e-05 7.892748142597014e-21 6.444917935846e-05 0.0
 6.444917935823e-05 0.0 -6.444917953562e-05 7.892748142597014e-21 0.001661887876163 0.0 0.9983381120924 0.0
 -6.444917953629e-05 7.892748142679064e-21 6.444917935846e-05 0.0 0.9983381120924 0.0 0.001661887876213 0.0
0.005 0.001788450519597029 0.001356496561030966 0.998177918281559 -0.003480933367633892 9.097407956898913e-05 0.0007268020277698582 -8.818346499198986e-05 -0.00045322086925635884
 0.998177918281559 -0.003480933367633892 0.0017884671566285291 0.0013564868743486187 -8.818821754899984e-05 -0.00045322451249763836 9.086298866380752e-05 0.0007268444579673972
 9.097407956898913e-05 0.0007268020277698582 -8.818821754899984e-05 -0.00045322451249763836 0.0017884477463822191 0.0013564309300008132 0.9981779179166588 -0.003481000439026163
 -8.818346499198986e-05 -0.00045322086925635884 9.086298866380752e-05 0.0007268444579673972 0.9981779179166588 -0.003481000439026163 0.0017884692051454256 0.0013564183662164765
0.006252605252188 0.0018217528528928805 0.001700954131028724 0.9981354805111257 -0.004352001507424977 9.862392536698949e-05 0.0009088389129942492 -9.493739013320385e-05 -0.0005671090451513646
 0.9981354805111257 -0.004352001507424977 0.0018217788589708211 0.0017009417723297668 -9.494478554189651e-05 -0.0005671135363414998 9.845035841241386e-05 0.00090889400832514
 9.862392536698949e-05 0.0009088389129942492 -9.494478554189651e-05 -0.0005671135363414998 0.0018217485846506645 0.0017008721141796206 0.9981354800077418 -0.004352085330370897
 -9.493739013320385e-05 -0.0005671090451513646 9.845035841241386e-05 0.00090889400832514 0.9981354800077418 -0.004352085330370897 0.0018217821287058633 0.0017008561516282392
0.01250521050438 0.001997696876110461 0.0034374749334944413 0.9979096948112867 -0.008704694651920777 0.00014287238885623093 0.0018179272843566242 -0.00013354186559348208 -0.0011369083711190435
 0.9979096948112867 -0.008704694651920777 0.0019978007115943443 0.0034374477047718253 -0.00013357101048508047 -0.0011369166600189854 0.00014218030243838407 0.0018180597959158234
 0.00014287238885623093 0.0018179272843566242 -0.00013357101048508047 -0.0011369166600189854 0.001997680397810107 0.003437311233831641 0.9979096933690289 -0.008704862054939965
 -0.00013354186559348208 -0.0011369083711190435 0.00014218030243838407 0.0018180597959158234 0.9979096933690289 -0.008704862054939965 0.001997814342627067 0.00343727667873752
0.01875781575657 0.002190127822823703 0.00519859138482749 0.9976604576845857 -0.0130686486770356 0.00019729968586456115 0.0027278718841591038 -0.00018038692474340914 -0.0017085372720680224
 0.9976604576845857 -0.0130686486770356 0.0021903611349461277 0.005198546642184475 -0.00018045191870216478 -0.0017085485214504514 0.00019574513211707256 0.002728108776090051
 0.00019729968586456115 0.0027278718841591038 -0.00018045191870216478 -0.0017085485214504514 0.002190091210618376 0.005198346277729916 0.9976604548627218 -0.013068899573911451
 -0.00018038692474340914 -0.0017085372720680224 0.00019574513211707256 0.002728108776090051 0.9976604548627218 -0.013068899573911451 0.002190392197353356 0.005198290235826557
0.02501042100875 0.002399440073818012 0.0069818034136357125 0.9973874594492532 -0.017445948587516497 0.0002620126721108166 0.0036386935250205176 -0.0002355922156756825 -0.0022817137230883742
 0.9973874594492532 -0.017445948587516497 0.002399854399152583 0.006981738395712322 -0.00023570698892606056 -0.0022817269378998715 0.0002592516776105731 0.003639066250276255
 0.0002620126721108166 0.0036386935250205176 -0.00023570698892606056 -0.0022817269378998715 0.002399375421255195 0.006981477222657368 0.9973874548113297 -0.017446282938698668
 -0.0002355922156756825 -0.0022817137230883742 0.0002592516776105731 0.003639066250276255 0.9973874548113297 -0.017446282938698668 0.0023999099626400965 0.006981396557258043
0.03126302626094 0.0026260116649560955 0.008785809052759667 0.9970903755394851 -0.021837467978935834 0.00033711851297056015 0.004550326729366782 -0.00029927359681363103 -0.0028562346535827583
 0.9970903755394851 -0.021837467978935834 0.0026266584588240756 0.00878572088401797 -0.00029945193867893954 -0.002856248679269124 0.0003328067689975009 0.004550871253908642
 0.00033711851297056015 0.004550326729366782 -0.00029945193867893954 -0.002856248679269124 0.002625911073052705 0.008785402166480733 0.9970903686453051 -0.021837885775071057
 -0.00029927359681363103 -0.0028562346535827583 0.0003328067689975009 0.004550871253908642 0.9970903686453051 -0.021837885775071057 0.0026267455889290065 0.008785293501483446
0.037515631513130004 0.0028702121397504794 0.01060974770850996 0.9967688746579946 -0.026243625708715947 0.00042272352782064246 0.005462671657056276 -0.0003715439961143898 -0.003431924029859084
 0.9967688746579946 -0.026243625708715947 0.0028711427968561025 0.010609633401092111 -0.00037179956937304906 -0.0034319375518819897 0.00041651625878971136 0.005463428502460118
 0.00042272352782064246 0.005462671657056276 -0.00037179956937304906 -0.0034319375518819897 0.002870067718576515 0.010609260596061092 0.9967688650664303 -0.026244126955975885
 -0.0003715439961143898 -0.003431924029859084 0.00041651625878971136 0.005463428502460118 0.9967688650664303 -0.026244126955975885 0.0028712685597747376 0.010609120316519657
0.043768236765320004 0.003132405589554241 0.012452969916277108 0.9964226221204165 -0.030664616070306103 0.0005189326449130923 0.006375609899665204 -0.0004525137049113437 -0.004008617076867486
 0.9964226221204165 -0.030664616070306103 0.0031336714604442892 0.01245282637125974 -0.000452860054202796 -0.004008628620568092 0.0005104845531299768 0.006376624191362386
 0.0005189326449130923 0.006375609899665204 -0.000452860054202796 -0.004008628620568092 0.0031322094577931206 0.012452403131919764 0.9964226093885539 -0.030665200786850488
 -0.0004525137049113437 -0.004008617076867486 0.0005104845531299768 0.006376624191362386 0.9964226093885539 -0.030665200786850488 0.0031338429242860457 0.012452227383689316
0.050020842017509996 0.0034129520477888353 0.014314942171277947 0.9960512815582451 -0.035100503891058975 0.0006258490679140007 0.0072890110057654625 -0.0005422904743658759 -0.004586153773817626
 0.9960512815582451 -0.035100503891058975 0.0034146044539495493 0.014314766179375897 -0.0005427410314481371 -0.004586161704392703 0.0006148143189326965 0.0072903325234180884
 0.0006258490679140007 0.0072890110057654625 -0.0005427410314481371 -0.004586161704392703 0.003412696331638975 0.014314296346204469 0.9960512652401751 -0.03510117211640248
 -0.0005422904743658759 -0.004586153773817626 0.0006148143189326965 0.0072903325234180884 0.9960512652401751 -0.03510117211640248 0.00341482868877622 0.014314081034756787
0.055454545454549996 0.0036719374025550367 0.015947918025345786 0.9957079390605479 -0.038967510963627564 0.0007275369991222189 0.008083052162471708 -0.0006275434020686268 -0.0050886127393979
 0.9957079390605479 -0.038967510963627564 0.003673967386953733 0.015947711144251538 -0.0006280953420829157 -0.00508861607804537 0.0007139730973292906 0.00808468474916918
 0.0007275369991222189 0.008083052162471708 -0.0006280953420829157 -0.00508861607804537 0.003671623517450675 0.015947204097199713 0.9957079192609448 -0.03896825179669121
 -0.0006275434020686268 -0.0050886127393979 0.0007139730973292906 0.00808468474916918 0.9957079192609448 -0.03896825179669121 0.0036742432248265955 0.01594695089107058
0.056273447269699996 0.0037122081949053786 0.01619520021647528 0.9956545159380291 -0.03955127117580927 0.000743574033645147 0.008202735698379328 -0.0006409795257134439 -0.005164375663009726
 0.9956545159380291 -0.03955127117580927 0.0037142984428357216 0.01619498845827767 -0.0006415476129410149 -0.005164378185549401 0.0007296062664645923 0.008204418927046478
 0.000743574033645147 0.008202735698379328 -0.0006415476129410149 -0.005164378185549401 0.0037118850286200346 0.016194476074466377 0.9956544955842997 -0.03955202295615066
 -0.0006409795257134439 -0.005164375663009726 0.0007296062664645923 0.008204418927046478 0.9956544955842997 -0.03955202295615066 0.0037145825211194077 0.016194216863404935
0.06252605252188 0.004030527726151306 0.018093323369059205 0.9952319882467867 -0.04401684271635981 0.0008722066200851761 0.009116637641933793 -0.0007486835122108713 -0.005743124115101254
 0.9952319882467867 -0.04401684271635981 0.004033107120651386 0.01809307241482993 -0.000749382344741621 -0.005743119274663067 0.0008549589735202457 0.009118741823347322
 0.0008722066200851761 0.009116637641933793 -0.000749382344741621 -0.005743119274663067 0.004030129252509675 0.01809252171766321 0.9952319634043962 -0.04401767811464326
 -0.0007486835122108713 -0.005743124115101254 0.0008549589735202457 0.009118741823347322 0.9952319634043962 -0.04401767811464326 0.004033458118166108 0.018092214026510935
0.06877865777407 0.004368261529250699 0.020008919222704532 0.9947833619939127 -0.04849710133124947 0.0010118435775077152 0.010030564509883823 -0.0008655024579976437 -0.006322239300015095
 0.9947833619939127 -0.04849710133124947 0.004371381386462605 0.020008625531735755 -0.000866345145204892 -0.006322224981724786 0.0009909687282320528 0.01003315369347558
 0.0010118435775077152 0.010030564509883823 -0.000866345145204892 -0.006322224981724786 0.004367779900088075 0.0200080409578533 0.9947833322055446 -0.048498020423648286
 -0.0008655024579976437 -0.006322239300015095 0.0009909687282320528 0.01003315369347558 0.9947833322055446 -0.048498020423648286 0.0043718063827157365 0.020007679959487344
0.07503126302626001 0.004725757755167969 0.021941613940004958 0.9943083016094351 -0.052991897521959805 0.0011625791768978305 0.010944358668022009 -0.0009915336790773824 -0.006901559548850131
 0.9943083016094351 -0.052991897521959805 0.0047294694160594265 0.021941273859447434 -0.0009925332254654814 -0.006901533478013539 0.0011377293864721762 0.010947501761417979
 0.0011625791768978305 0.010944358668022009 -0.0009925332254654814 -0.006901533478013539 0.004725185132270142 0.02194066004992222 0.994308266413039 -0.052992900394990515
 -0.0009915336790773824 -0.006901559548850131 0.0011377293864721762 0.010947501761417979 0.994308266413039 -0.052992900394990515 0.004729975494087288 0.02194024066748516
0.08128386827845 0.005103361817857807 0.023891045810017608 0.9938064727763348 -0.05750105587118756 0.0013245050675214165 0.011857857638461596 -0.001126871694706157 -0.007480920942009098
 0.9938064727763348 -0.05750105587118756 0.00510771666054346 0.02389065557339449 -0.0011280410002187519 -0.0074808806842584456 0.0012953322362283697 0.011861628457264895
 0.0013245050675214165 0.011857857638461596 -0.0011280410002187519 -0.0074808806842584456 0.005102690373389839 0.023890017375220823 0.9938064317046388 -0.05750214262290206
 -0.001126871694706157 -0.007480920942009098 0.0012953322362283697 0.011861628457264895 0.9938064317046388 -0.05750214262290206 0.005108310907689386 0.02388953427853917
0.08753647353064001 0.0055014163466574825 0.025856860793586574 0.993277542719556 -0.06202437946109695 0.0014977101402849065 0.012770894435032999 -0.0012716081319655151 -0.008060157033032244
 0.993277542719556 -0.06202437946109695 0.005506465799704805 0.02585641651858217 -0.0012729599921446006 -0.008060099994477597 0.0014638658665433297 0.012775371751794337
 0.0014977101402849065 0.012770894435032999 -0.0012729599921446006 -0.008060099994477597 0.00550063826469582 0.025855758985882507 0.9932774952999034 -0.062025550203068415
 -0.0012716081319655151 -0.008060157033032244 0.0014638658665433297 0.012775371751794337 0.9932774952999034 -0.062025550203068415 0.005507155307688462 0.025855206587441358
0.09378907878283 0.005920261109630776 0.027838709339787982 0.9927211804702303 -0.06656165302852925 0.0016822803962033598 0.013683297811749266 -0.0014258316245842554 -0.008639098666764522
 0.9927211804702303 -0.06656165302852925 0.005926056664788454 0.027838207025797868 -0.001427378730328129 -0.008639022094190383 0.001643416040785241 0.01368856540393678
 0.0016822803962033598 0.013683297811749266 -0.001427378730328129 -0.008639022094190383 0.005919368586041514 0.0278375354255591 0.9927211262232464 -0.0665629078836676
 -0.0014258316245842554 -0.008639098666764522 0.001643416040785241 0.01368856540393678 0.9927211262232464 -0.0665629078836676 0.005926848529237902 0.027836907875890188
0.100041684035 0.00636023291007894 0.02983624406814732 0.9921370571065727 -0.07111264526281093 0.0018782988171981722 0.014594892458802213 -0.0015896277086562421 -0.009217573857468901
 0.9921370571065727 -0.07111264526281093 0.006366826135377423 0.029835679593059244 -0.0015913826458418651 -0.00921747483852991 0.001834065571643958 0.01460103915572905
 0.0018782988171981722 0.014594892458802213 -0.0015913826458418651 -0.00921747483852991 0.006359218154435258 0.02983499940934399 0.9921369955464313 -0.07111398436529998
 -0.0015896277086562421 -0.009217573857468901 0.001834065571643958 0.01460103915572905 0.9921369955464313 -0.07111398436529998 0.006367727456611714 0.02983429059194458
0.1059090909091 0.006792611906785899 0.031724675890189645 0.9915633798549416 -0.07539552714207895 0.002072724454344836 0.015449432223485814 -0.0017521125103625687 -0.009759831491574049
 0.9915633798549416 -0.07539552714207895 0.006800000640882287 0.031724049223134904 -0.001754073827976513 -0.009759708618810224 0.0020231357498511605 0.015456489196617539
 0.002072724454344836 0.015449432223485814 -0.001754073827976513 -0.009759708618810224 0.00679147537674972 0.031723366169736096 0.9915633109838099 -0.07539694543396246
 -0.0017521125103625687 -0.009759831491574049 0.0020231357498511605 0.015456489196617539 0.9915633109838099 -0.07539694543396246 0.006801011137158352 0.03172257528551417
0.1062942892872 0.006821665469397237 0.031849118022115847 0.9915248459852103 -0.07567711054102465 0.0020858452395947505 0.01550549915915668 -0.0017630787153236841 -0.009795407713997301
 0.9915248459852103 -0.07567711054102465 0.006829108022209481 0.03184848713874699 -0.0017650539642375684 -0.009795283177455821 0.0020358941981548514 0.015512618887752318
 0.0020858452395947505 0.01550549915915668 -0.0017650539642375684 -0.009795283177455821 0.006820520705650399 0.031847804076878455 0.9915247766188607 -0.07567853403676131
 -0.0017630787153236841 -0.009795407713997301 0.0020358941981548514 0.015512618887752318 0.9915247766188607 -0.07567853403676131 0.006830125904896576 0.03184700760261038
0.11254689453939999 0.007304889295160751 0.03387698334674088 0.9908842229606853 -0.08025479024807143 0.002304996229048321 0.01641493492674114 -0.0019462636616392455 -0.01037242239127319
 0.9908842229606853 -0.08025479024807143 0.007313232935151075 0.033876281678654904 -0.001948471596260214 -0.010372269107250457 0.002248978463948539 0.016423126756110136
 0.002304996229048321 0.01641493492674114 -0.001948471596260214 -0.010372269107250457 0.007303606762715657 0.033875601670999456 0.9908841452871592 -0.08025629829394637
 -0.0019462636616392455 -0.01037242239127319 0.002248978463948539 0.016423126756110136 0.9908841452871592 -0.08025629829394637 0.007314374488384899 0.033874710871868226
0.11879949979160001 0.007810231539029932 0.035919490261150246 0.9902148665981041 -0.08484541381109331 0.0025358249568083343 0.017323013125414344 -0.0021392581401755433 -0.010948437068833361
 0.9902148665981041 -0.08484541381109331 0.007819528141617679 0.03591871329785558 -0.002141711027312315 -0.010948251649118683 0.0024733915963517576 0.01733238131005667
 0.0025358249568083343 0.017323013125414344 -0.002141711027312315 -0.010948251649118683 0.007808803494082491 0.03591804250897595 0.9902147801083218 -0.08484700657563948
 -0.0021392581401755433 -0.010948437068833361 0.0024733915963517576 0.01733238131005667 0.9902147801083218 -0.08484700657563948 0.007820800478840068 0.03591705043144247
0.1250521050438 0.008338015847761837 0.03797628625553952 0.9895164583819739 -0.08944869951893329 0.0027784010772128965 0.018229543576140934 -0.002342134207356957 -0.011523267949416799
 0.9895164583819739 -0.08944869951893329 0.008348317416889916 0.03797542934721357 -0.0023448442057990614 -0.011523046847757139 0.002709203386794025 0.018240197597794477
 0.0027784010772128965 0.018229543576140934 -0.0023448442057990614 -0.011523046847757139 0.0083364345644476 0.03797477417980227 0.989516362557877 -0.08945037718245774
 -0.002342134207356957 -0.011523267949416799 0.002709203386794025 0.018240197597794477 0.989516362557877 -0.08945037718245774 0.008349727656038239 0.03797367357744542
0.131304710296 0.008888562206965664 0.04004701545327166 0.9887886829199163 -0.0940643551861233 0.0030327906066106906 0.019134332657643544 -0.0025549602710814587 -0.012096728272106989
 0.9887886829199163 -0.0940643551861233 0.008899920888614897 0.04004607380482542 -0.0025579394304254253 -0.012096467784551012 0.0029564800721825265 0.019146387265677297
 0.0030327906066106906 0.019134332657643544 -0.0025579394304254253 -0.012096467784551012 0.00888681997862373 0.04004544090825671 0.9887885772343784 -0.0940661179389259
 -0.0025549602710814587 -0.012096728272106989 0.0029564800721825265 0.019146387265677297 0.9887885772343784 -0.0940661179389259 0.008901476151937433 0.04004422423391376
0.1375573155481 0.009339899280829681 0.04186109173164648 0.9881535688295835 -0.09842171695366479 0.0032685056529923534 0.020010564847515663 -0.002747337529089444 -0.01264196278334234
 0.9881535688295835 -0.09842171695366479 0.009352372334489208 0.041860084527216464 -0.002750603755391153 -0.012641662393407147 0.0031849039953476222 0.020024008103092152
 0.0032685056529923534 0.020010564847515663 -0.002750603755391153 -0.012641662393407147 0.009337988902680132 0.041859456560307186 0.9881534528288181 -0.09842356488230161
 -0.002747337529089444 -0.01264196278334234 0.0031849039953476222 0.020024008103092152 0.9881534528288181 -0.09842356488230161 0.009354079110818158 0.04185814008800529
0.1438099208003 0.009807228029351755 0.043664844523630154 0.9874958777336783 -0.10276726112727183 0.0035137333655249994 0.020882746503910966 -0.002947384800145074 -0.01318352816548351
 0.9874958777336783 -0.10276726112727183 0.009820868574219814 0.04366376847143784 -0.0029509510403853906 -0.013183184208811365 0.0034225231024275853 0.020897683926505914
 0.0035137333655249994 0.020882746503910966 -0.0029509510403853906 -0.013183184208811365 0.009805141909133574 0.04366315064488856 0.9874957508927319 -0.10276919441120005
 -0.002947384800145074 -0.01318352816548351 0.0034225231024275853 0.020897683926505914 0.9874957508927319 -0.10276919441120005 0.009822733878989671 0.043661728231117726
0.1500625260525 0.010290372212124626 0.0454581004916745 0.9868157904585807 -0.1071008566371132 0.0037683821153537966 0.0217507719225831 -0.0031550138854245877 -0.013721326624584699
 0.9868157904585807 -0.1071008566371132 0.010305233531494899 0.04545695207579793 -0.0031588930522390138 -0.013720935289511842 0.0036692479368921143 0.021767312869995597
 0.0037683821153537966 0.0217507719225831 -0.0031588930522390138 -0.013720935289511842 0.010288102781049866 0.04545634990033641 0.986815652244736 -0.10710287546402786
 -0.0031550138854245877 -0.013721326624584699 0.0036692479368921143 0.021767312869995597 0.986815652244736 -0.10710287546402786 0.010307264377390234 0.04545481505967234
0.15631513130469998 0.010789154195814468 0.04724069148297947 0.9861134889067469 -0.11142237338439671 0.00403235910076378 0.022614537344736067 -0.0033701354221678417 -0.014255262569741557
 0.9861134889067469 -0.11142237338439671 0.010805289741012416 0.047239466955695114 -0.0033743403932077424 -0.01425481989800499 0.003924987906940014 0.02263279496766892
