! Created with skrf 1.8.0 (http://scikit-rf.org).
# GHz S RI R 50.0 
!freq ReS11 ImS11 ReS12 ImS12 ReS13 ImS13
! ReS14 ImS14
! ReS21 ImS21 ReS22 ImS22 ReS23 ImS23
! ReS24 ImS24
! ReS31 ImS31 ReS32 ImS32 ReS33 ImS33
! ReS34 ImS34
! ReS41 ImS41 ReS42 ImS42 ReS43 ImS43
! ReS44 ImS44
!
0.0 0.001234559913126 0.0 0.9987654400869 0.0 4.711458826063e-05 0.0 -4.711458812736e-05 5.7698729543317316e-21
 0.9987654400869 0.0 0.00123455991313 0.0 -4.711458812709e-05 5.769872954298666e-21 4.711458826034e-05 0.0
 4.711458826063e-05 0.0 -4.711458812709e-05 5.769872954298666e-21 0.001234559906205 0.0 0.99876544008 0.0
 -4.711458812736e-05 5.7698729543317316e-21 4.711458826034e-05 0.0 0.99876544008 0.0 0.00123455990622 0.0
0.005 0.0013275604324883507 0.001010224674029669 0.9986479017494152 -0.0025869776393080187 6.559761053985827e-05 0.0005209414575300575 -6.380016927359311e-05 -0.00032679176037243537
 0.9986479017494152 -0.0025869776393080187 0.0013275565331572758 0.0010102269740782776 -6.37998377564597e-05 -0.000326791562487994 6.5630726501235e-05 0.0005209290342227514
 6.559761053985827e-05 0.0005209414575300575 -6.37998377564597e-05 -0.000326791562487994 0.0013275599835125575 0.0010101577253453851 0.9986479014227952 -0.002587044699211463
 -6.380016927359311e-05 -0.00032679176037243537 6.5630726501235e-05 0.0005209290342227514 0.9986479014227952 -0.002587044699211463 0.0013275563273546138 0.0010101597998857246
0.006252605252188 0.001351739635409303 0.0012667860657759667 0.9986171861130457 -0.0032343880049327096 7.074943949269737e-05 0.0006514424344712875 -6.841287792415211e-05 -0.0004089249648353903
 0.9986171861130457 -0.0032343880049327096 0.0013517335394225393 0.0012667889477651307 -6.841236159112271e-05 -0.0004089247219003005 7.080118294154616e-05 0.0006514262908824366
 7.074943949269737e-05 0.0006514424344712875 -6.841236159112271e-05 -0.0004089247219003005 0.0013517390001958588 0.001266702389854175 0.9986171856694633 -0.00323447182377845
 -6.841287792415211e-05 -0.0004089249648353903 7.080118294154616e-05 0.0006514262908824366 0.9986171856694633 -0.00323447182377845 0.0013517332851245172 0.0012667049796086008
0.01250521050438 0.0014777895676530526 0.0025604345708629232 0.99845617462117 -0.006469768997696038 9.961487872147052e-05 0.0013033141170207038 -9.405734093476435e-05 -0.0008199683258478538
 0.99845617462117 -0.006469768997696038 0.0014777652192648212 0.002560440396680415 -9.40553003637526e-05 -0.0008199678882776288 9.982129830307281e-05 0.0013032753057940476
 9.961487872147052e-05 0.0013033141170207038 -9.40553003637526e-05 -0.0008199678882776288 0.001477787589501602 0.0025602675066515954 0.9984561734158527 -0.00646993638023161
 -9.405734093476435e-05 -0.0008199683258478538 9.982129830307281e-05 0.0013032753057940476 0.9984561734158527 -0.00646993638023161 0.0014777647753710576 0.002560272640899909
0.01875781575657 0.0016129402164322642 0.0038728569730471073 0.9982822375113823 -0.00971406205421899 0.00013377104574844865 0.0019560815760521046 -0.0001241172435511873 -0.001232562630309106
 0.9982822375113823 -0.00971406205421899 0.0016128854934086107 0.0038728658046856194 -0.00012411268484950367 -0.0012325620556993095 0.00013423493091288294 0.0019560125270280493
 0.00013377104574844865 0.0019560815760521046 -0.00012411268484950367 -0.0012325620556993095 0.0016129361799533427 0.003872606650595237 0.9982822352264528 -0.009714312887785032
 -0.0001241172435511873 -0.001232562630309106 0.00013423493091288294 0.0019560125270280493 0.9982822352264528 -0.009714312887785032 0.0016128849304418462 0.003872614272799685
0.02501042100875 0.0017574175860317258 0.005202261088015449 0.998095201374386 -0.012968884350778129 0.00017327871275237306 0.002609801551916578 -0.00015866028259503608 -0.0016465471692352245
 0.998095201374386 -0.012968884350778129 0.0017573203835424707 0.005202272980908229 -0.00015865222087184372 -0.0016465465253416066 0.00017410301088875493 0.002609693686429875
 0.00017327871275237306 0.002609801551916578 -0.00015865222087184372 -0.0016465465253416066 0.0017574107679312594 0.005201927599093395 0.9980951976925735 -0.012969218546130317
 -0.00015866028259503608 -0.0016465471692352245 0.00017410301088875493 0.002609693686429875 0.9980951976925735 -0.012969218546130317 0.0017573197777005095 0.005201937634412946
0.03126302626094 0.0019114380273692999 0.0065477471819240084 0.997894882470423 -0.01623495503907815 0.00021819926402444532 0.0032644713496314047 -0.00019775263934416213 -0.002061817645125355
 0.997894882470423 -0.01623495503907815 0.0019112862507179636 0.006547762183089536 -0.00019774009709111508 -0.002061817010013797 0.0002194871769475865 0.0032643150731490812
 0.00021819926402444532 0.0032644713496314047 -0.00019774009709111508 -0.002061817010013797 0.0019114276974398507 0.00654733059285181 0.9978948770766765 -0.016235372517673246
 -0.00019775263934416213 -0.002061817645125355 0.0002194871769475865 0.0032643150731490812 0.9978948770766765 -0.016235372517673246 0.0019112856845332736 0.006547342946157065
0.037515631513130004 0.002075213394264072 0.007908745684785038 0.9976810919835075 -0.019512657485913205 0.00026859415997694747 0.003920065231846342 -0.00024145947436255425 -0.002478289771341108
 0.9976810919835075 -0.019512657485913205 0.0020749949543059252 0.007908763831632921 -0.00024144148064521537 -0.0024782892334758943 0.0002704491900734833 0.003919849922110255
 0.00026859415997694747 0.003920065231846342 -0.00024144148064521537 -0.0024782892334758943 0.002075198816338982 0.007908246043495338 0.997681084565592 -0.01951315817302525
 -0.00024145947436255425 -0.002478289771341108 0.0002704491900734833 0.003919849922110255 0.997681084565592 -0.01951315817302525 0.0020749945172063356 0.007908260597863662
0.043768236765320004 0.0022489530437647684 0.009284846099953831 0.9974536381182796 -0.022802210311317267 0.00032452469015882476 0.004576545483548756 -0.00028984511823536963 -0.0028958881966097702
 0.9974536381182796 -0.022802210311317267 0.0022486558529863088 0.009284867419398036 -0.0002898207082273088 -0.0028958878549148956 0.0003270506652440397 0.004576259477339969
 0.00032452469015882476 0.004576545483548756 -0.0002898207082273088 -0.0028958878549148956 0.002248933474321717 0.009284263445466739 0.9974536283660819 -0.0228027941267019
 -0.00028984511823536963 -0.0028958881966097702 0.0003270506652440397 0.004576259477339969 0.9974536283660819 -0.0228027941267019 0.0022486556396478213 0.009284280061078577
0.050020842017509996 0.002432864771867702 0.010675726300406413 0.9972123271341481 -0.026103738038028648 0.00038605183231526114 0.0052338669785839675 -0.0003429731504371471 -0.0033145419273897417
 0.9972123271341481 -0.026103738038028648 0.0024324767410581556 0.010675750808108187 -0.0003429413651471742 -0.003314541891301179 0.0003893529189631465 0.0052334975578530105
 0.00038605183231526114 0.0052338669785839675 -0.0003429413651471742 -0.003314541891301179 0.0024328394589381123 0.010675060657502138 0.9972123147382684 -0.026104404901413178
 -0.0003429731504371471 -0.0033145419273897417 0.0003893529189631465 0.0052334975578530105 0.9972123147382684 -0.026104404901413178 0.0024324768499716432 0.010675079170672681
0.055454545454549996 0.002601111185651129 0.011896236860141258 0.996991215409759 -0.028982642414860458 0.00044411296978819266 0.005805743507796189 -0.0003930432565029198 -0.0036791682157380724
 0.996991215409759 -0.028982642414860458 0.002600634390454024 0.011896264142028313 -0.0003930042874717526 -0.0036791685423079664 0.00044817251598522383 0.005805290438825962
 0.00044411296978819266 0.005805743507796189 -0.0003930042874717526 -0.0036791685423079664 0.0026010802649864316 0.01189549911073614 0.9969912004671374 -0.02898338138043015
 -0.0003930432565029198 -0.0036791682157380724 0.00044817251598522383 0.005805290438825962 0.9969912004671374 -0.02898338138043015 0.002600634862793527 0.011895519120796177
0.056273447269699996 0.002627155306858378 0.012081117811184207 0.9969569639383238 -0.029417305754606625 0.00045323615670906986 0.005891979417117857 -0.0004009064295198194 -0.003734182079820505
 0.9969569639383238 -0.029417305754606625 0.002626664341936085 0.012081145510898183 -0.0004008663156434631 -0.003734182469336763 0.00045741686683773596 0.005891512794824118
 0.00045323615670906986 0.005891979417117857 -0.0004008663156434631 -0.003734182469336763 0.002627123491124232 0.01208036919507778 0.9969569485919885 -0.029418055581078625
 -0.0004009064295198194 -0.003734182079820505 0.00045741686683773596 0.005891512794824118 0.9969569485919885 -0.029418055581078625 0.002626664876028938 0.01208038941734422
0.06252605252188 0.0028320305878040447 0.013500786731963811 0.9966873524662451 -0.032742938138560156 0.0005261377520249809 0.006550828552387414 -0.00046370709951031047 -0.00415474064334076
 0.9966873524662451 -0.032742938138560156 0.0028314245867595176 0.013500817615000943 -0.00046365770928228495 -0.00415474158906541 0.0005313029451146149 0.006550249858181385
 0.0005261377520249809 0.006550828552387414 -0.00046365770928228495 -0.00415474158906541 0.002831991502478312 0.013499955149773481 0.9966873338650917 -0.032743770837388844
 -0.00046370709951031047 -0.00415474064334076 0.0005313029451146149 0.006550249858181385 0.9966873338650917 -0.032743770837388844 0.0028314256533882743 0.013499976867153256
0.06877865777407 0.0030476959239986784 0.01493452235746563 0.9964032959446759 -0.03608063078277749 0.0006048161647721655 0.007210356918488783 -0.0005314365811055431 -0.004576149744496327
 0.9964032959446759 -0.03608063078277749 0.0030469627740773225 0.014934556402149739 -0.0005313769723048736 -0.00457615138767989 0.0006110710468603124 0.007209650184282147
 0.0006048161647721655 0.007210356918488783 -0.0005313769723048736 -0.00457615138767989 0.0030476487941364615 0.014933607807316156 0.9964032737863878 -0.03608154625833353
 -0.0005314365811055431 -0.004576149744496327 0.0006110710468603124 0.007209650184282147 0.9964032737863878 -0.03608154625833353 0.003046964483524122 0.014933630779559708
0.07503126302626001 0.003274356085474831 0.016382129968686095 0.9961045970875536 -0.0394303573520953 0.0006893303453188911 0.00787050429306276 -0.0006041555547513351 -0.004998341177172871
 0.9961045970875536 -0.0394303573520953 0.0032734836602511144 0.016382167139977446 -0.000604084790655238 -0.004998343669756493 0.0006967804658420017 0.007869652438571297
 0.0006893303453188911 0.00787050429306276 -0.000604084790655238 -0.004998343669756493 0.003274300128356484 0.016381132441233143 0.9961045710725723 -0.03943135550257799
 -0.0006041555547513351 -0.004998341177172871 0.0006967804658420017 0.007869652438571297 0.9961045710725723 -0.03943135550257799 0.0032734861260880427 0.01638115640120419
0.08128386827845 0.0035122153515879675 0.017843426023058842 0.9957910582526392 -0.04279207434229217 0.0007797385985680921 0.008531208001333954 -0.0006819239379146125 -0.005421246092957132
 0.9957910582526392 -0.04279207434229217 0.003511191508000247 0.017843466272205708 -0.0006818410873309066 -0.005421249597611661 0.0007884898452365253 0.008530192819604829
 0.0007797385985680921 0.008531208001333954 -0.0006818410873309066 -0.005421249597611661 0.003512149776415352 0.017842345500129454 0.995791028083983 -0.04279315506121645
 -0.0006819239379146125 -0.005421246092957132 0.0007884898452365253 0.008530192819604829 0.995791028083983 -0.04279315506121645 0.003511194846260624 0.017842370153235417
0.08753647353064001 0.003761477530753325 0.019318234839792173 0.9954624815703573 -0.04616572434552783 0.0008760985374094793 0.009192403127397901 -0.0007648008581820585 -0.005844794785809553
 0.9954624815703573 -0.04616572434552783 0.003760290106496101 0.019318278103978462 -0.0007647049954835806 -0.0058447994759643325 0.0008862571299641887 0.009191205270350663
 0.0008760985374094793 0.009192403127397901 -0.0007647049954835806 -0.0058447994759643325 0.003761401538449232 0.019317071295827073 0.9954624469537461 -0.04616688752043633
 -0.0007648008581820585 -0.005844794785809553 0.0008862571299641887 0.009191205270350663 0.9954624469537461 -0.04616688752043633 0.0037602944351786123 0.01931709631954965
0.09378907878283 0.004022345960118492 0.020806386220151997 0.995118669055065 -0.04955123838231167 0.0009784670380391998 0.00985402266473767 -0.0008528446237168023 -0.006268916539114588
 0.995118669055065 -0.04955123838231167 0.00402098277056942 0.020806432422349176 -0.0008527348288899305 -0.006268922598999259 0.0009901395205206983 0.009852621628745157
 0.0009784670380391998 0.00985402266473767 -0.0008527348288899305 -0.006268922598999259 0.004022258743398899 0.020805139624686688 0.9951186296992222 -0.049552483892487995
 -0.0008528446237168023 -0.006268916539114588 0.0009901395205206983 0.009852621628745157 0.9951186296992222 -0.049552483892487995 0.0040209882093452075 0.020805164668147937
0.100041684035 0.0042950234923150735 0.022307713707193453 0.9947594227050699 -0.05294853759588128 0.0010869001962923502 0.010515997626717392 -0.0009461126913929516 -0.00669353951449
 0.9947594227050699 -0.05294853759588128 0.004293472327576269 0.022307762756033963 -0.000945988050089269 -0.006693547139164142 0.001100193428592967 0.01051437173820597
 0.0010869001962923502 0.010515997626717392 -0.000945988050089269 -0.006693547139164142 0.004294924235494565 0.0223063840215345 0.9947593783219517 -0.052949865315932106
 -0.0009461126913929516 -0.00669353951449 0.001100193428592967 0.01051437173820597 0.9947593783219517 -0.052949865315932106 0.004293478997345658 0.022306408705134884
0.1059090909091 0.004561822937325005 0.02372838769765339 0.994408094894018 -0.056147183266581475 0.0011942182010737869 0.01113745105537823 -0.0010384367313075208 -0.0070923939467968655
 0.994408094894018 -0.056147183266581475 0.004560084248105632 0.02372843932175956 -0.0010382973317038483 -0.007092403226934237 0.0012091297960377932 0.01113559340005619
 0.0011942182010737869 0.01113745105537823 -0.0010382973317038483 -0.007092403226934237 0.004561711632942489 0.023726980000251488 0.9944080455342613 -0.05614858801158499
 -0.0010384367313075208 -0.0070923939467968655 0.0012091297960377932 0.01113559340005619 0.9944080455342613 -0.05614858801158499 0.004560092183746877 0.02372700397514446
0.1062942892872 0.004579712471016843 0.023822053269685815 0.9943845445936834 -0.05635753452428516 0.0012014532850412169 0.01117825713013536 -0.0010446616331221221 -0.0071185906692416276
 0.9943845445936834 -0.05635753452428516 0.004577961093062102 0.023822105059332497 -0.001044521236748717 -0.00711860006462095 0.0012164744333719396 0.01117638353132384
 0.0012014532850412169 0.01117825713013536 -0.001044521236748717 -0.00711860006462095 0.004579600350085134 0.0238206404499552 0.9943844948986234 -0.05635894432115732
 -0.0010446616331221221 -0.0071185906692416276 0.0012164744333719396 0.01117638353132384 0.9943844948986234 -0.05635894432115732 0.0045779691155688265 0.02382066436516273
0.11254689453939999 0.00487661469968234 0.025349242302025423 0.9939938369548496 -0.059778134058205874 0.0013221807115736583 0.011840728460140875 -0.0011485471010909758 -0.0075439956943481766
 0.9939938369548496 -0.059778134058205874 0.004874650839357893 0.025349296712202467 -0.0011483900468979632 -0.007544007077234323 0.001339037238393 0.011838583094729035
 0.0013221807115736583 0.011840728460140875 -0.0011483900468979632 -0.007544007077234323 0.004876488882196263 0.025347746294948053 0.9939937816665045 -0.059779625795698135
 -0.0011485471010909758 -0.0075439956943481766 0.001339037238393 0.011838583094729035 0.9939937816665045 -0.059779625795698135 0.004874660336683433 0.02534776900406544
0.11879949979160001 0.0051859314033743656 0.02688911883137751 0.9935871022638656 -0.06321023419382062 0.0014491359756062237 0.012503337121752094 -0.0012578237916663184 -0.007969678967638475
 0.9935871022638656 -0.06321023419382062 0.005183742757474101 0.026889175727456097 -0.0012576491828392587 -0.007969692565740157 0.0014679356287720662 0.012500894720815612
 0.0014491359756062237 0.012503337121752094 -0.0012576491828392587 -0.007969692565740157 0.005185791048180902 0.026887539581229497 0.9935870411048034 -0.06321180772583561
 -0.0012578237916663184 -0.007969678967638475 0.0014679356287720662 0.012500894720815612 0.9935870411048034 -0.06321180772583561 0.005183753851429875 0.026887560617358586
0.1250521050438 0.005507863186326955 0.028441520901607047 0.9931641433161007 -0.06665372661087392 0.0015823716273506913 0.0131660068819525 -0.0013725454083676734 -0.008395563518361295
 0.9931641433161007 -0.06665372661087392 0.005505437414404598 0.028441580134768243 -0.001372352354121383 -0.008395579570315198 0.0016032224286726083 0.013163240949861814
 0.0015823716273506913 0.0131660068819525 -0.001372352354121383 -0.008395579570315198 0.005507707443732604 0.028439858345456905 0.9931640760127216 -0.06665538178638782
 -0.0013725454083676734 -0.008395563518361295 0.0016032224286726083 0.013163240949861814 0.9931640760127216 -0.06665538178638782 0.005505450226327544 0.028439877212388866
0.131304710296 0.005842609985109863 0.030006286067454972 0.9927247633022718 -0.07010849714266089 0.0017219392255854434 0.013828659805206546 -0.0014927646240915048 -0.008821571000299157
 0.9927247633022718 -0.07010849714266089 0.005839934706432084 0.03000634747494351 -0.0014925522397827194 -0.008821589755696765 0.001744949458770046 0.01382554260567172
 0.0017219392255854434 0.013828659805206546 -0.0014925522397827194 -0.008821589755696765 0.005842437996703846 0.030004540137209462 0.9927246895851244 -0.07011023380389464
 -0.0014927646240915048 -0.008821571000299157 0.001744949458770046 0.01382554260567172 0.9927246895851244 -0.07011023380389464 0.005839949356645103 0.03000455630957988
0.1375573155481 0.006106760388369869 0.03137855356909294 0.9923523986067044 -0.07336966827795073 0.0018481947394296172 0.014469974365932699 -0.0015988098762370437 -0.00922640663746124
 0.9923523986067044 -0.07336966827795073 0.006103822654654476 0.031378616964840234 -0.001598577034189962 -0.009226428087866608 0.0018734122835308707 0.014466514250527113
 0.0018481947394296172 0.014469974365932699 -0.001598577034189962 -0.009226428087866608 0.0061065720689962785 0.03137672384870113 0.9923523181884562 -0.07337148628287103
 -0.0015988098762370437 -0.00922640663746124 0.0018734122835308707 0.014466514250527113 0.9923523181884562 -0.07337148628287103 0.006103838515196342 0.031376737476880155
0.1438099208003 0.006379955540160186 0.032744702522143086 0.991967393405872 -0.07662370223475595 0.0019795426726175154 0.015109391906908307 -0.0017091102637955245 -0.009629489968126561
 0.991967393405872 -0.07662370223475595 0.006376742834852109 0.03274476783450778 -0.001708856044301319 -0.009629514352095709 0.002007065243758111 0.015105563962382454
 0.0019795426726175154 0.015109391906908307 -0.001708856044301319 -0.009629514352095709 0.006379750158184873 0.03274278888813961 0.9919673060202259 -0.07662560141876365
 -0.0017091102637955245 -0.009629489968126561 0.002007065243758111 0.015105563962382454 0.9919673060202259 -0.07662560141876365 0.006376759887727256 0.03274279960361227
0.1500625260525 0.006662113138911392 0.03410465198004627 0.9915698329312638 -0.0798705521051949 0.0021159457020258057 0.015746870313821625 -0.0018236292093113966 -0.010030779683914857
 0.9915698329312638 -0.0798705521051949 0.006658612905619978 0.03410471914619624 -0.001823352695589105 -0.010030807249332828 0.002145870560864645 0.015742648731144417
 0.0021159457020258057 0.015746870313821625 -0.001823352695589105 -0.010030807249332828 0.006661889963412718 0.03410265430104968 0.9915697383155199 -0.07987253229825471
 -0.0018236292093113966 -0.010030779683914857 0.002145870560864645 0.015742648731144417 0.9915697383155199 -0.07987253229825471 0.006658631122468403 0.03410266173458595
0.15631513130469998 0.00695315045908255 0.03545832363836175 0.9911598026708845 -0.08311017051791647 0.0022573661594589645 0.016382368050913212 -0.001942329773043854 -0.010430235257237078
