! Created with skrf 1.8.0 (http://scikit-rf.org).
# GHz S RI R 50.0 
!freq ReS11 ImS11 ReS12 ImS12 ReS13 ImS13
! ReS14 ImS14
! ReS21 ImS21 ReS22 ImS22 ReS23 ImS23
! ReS24 ImS24
! ReS31 ImS31 ReS32 ImS32 ReS33 ImS33
! ReS34 ImS34
! ReS41 ImS41 ReS42 ImS42 ReS43 ImS43
! ReS44 ImS44
!
0.0 0.001650798234171 0.0 0.9983492017646 0.0 6.405398894076e-05 0.0 -6.405398686528e-05 7.844350998719175e-21
 0.9983492017646 0.0 0.00165079823415 0.0 -6.405398686462e-05 7.844350998638349e-21 6.405398894132e-05 0.0
 6.405398894076e-05 0.0 -6.405398686462e-05 7.844350998638349e-21 0.00165079823309 0.0 0.9983492017635 0.0
 -6.405398686528e-05 7.844350998719175e-21 6.405398894132e-05 0.0 0.9983492017635 0.0 0.0016507982331 0.0
0.005 0.0017764899711084378 0.0013465062059080885 0.9981901068111823 -0.0034577972748253915 9.057212820257442e-05 0.0007281732471643705 -8.773808336512366e-05 -0.00045309386781109204
 0.9981901068111823 -0.0034577972748253915 0.0017765144771226971 0.0013464919317953178 -8.773871073120801e-05 -0.0004530944110987434 9.041364734418865e-05 0.0007282335703224202
 9.057212820257442e-05 0.0007281732471643705 -8.773871073120801e-05 -0.0004530944110987434 0.0017764889868841854 0.0013464395612299291 0.9981901064464492 -0.0034578643433937177
 -8.773808336512366e-05 -0.00045309386781109204 9.041364734418865e-05 0.0007282335703224202 0.9981901064464492 -0.0034578643433937177 0.0017765147457419685 0.0013464244537761151
0.006252605252188 0.001809552170878697 0.001688432794444297 0.9981479734905258 -0.004323077862402664 9.82223837273995e-05 0.0009105510586651523 -9.447490431865877e-05 -0.000566952016247779
 0.9981479734905258 -0.004323077862402664 0.0018095904781609412 0.0016884146771708815 -9.44758800739153e-05 -0.0005669526873450777 9.797477269538898e-05 0.0009106294198242363
 9.82223837273995e-05 0.0009105510586651523 -9.44758800739153e-05 -0.0005669526873450777 0.001809550699936845 0.0016883495159970752 0.9981479729880818 -0.004323161683897086
 -9.447490431865877e-05 -0.000566952016247779 9.797477269538898e-05 0.0009106294198242363 0.9981479729880818 -0.004323161683897086 0.0018095909664359677 0.0016883303443116324
0.01250521050438 0.0019841640850831424 0.003412221110959833 0.9979238837427021 -0.008646864928343906 0.0001424850538322205 0.001821333170234217 -0.00013296650857259933 -0.0011366052421064887
 0.9979238837427021 -0.008646864928343906 0.001984317043250272 0.003412182120590437 -0.00013297034794545738 -0.001136606496728363 0.0001414976404430822 0.001821521931657405
 0.0001424850538322205 0.001821333170234217 -0.00013297034794545738 -0.001136606496728363 0.0019841587626777306 0.0034120549512282744 0.9979238822894293 -0.008647032358589496
 -0.00013296650857259933 -0.0011366052421064887 0.0001414976404430822 0.001821521931657405 0.9979238822894293 -0.008647032358589496 0.0019843195594957427 0.003412013709899698
0.01875781575657 0.0021750368910729147 0.005160467673560727 0.9976766388026271 -0.012981863567293861 0.00019694625259274978 0.00273296096493644 -0.00017965235718525122 -0.0017080925863590531
 0.9976766388026271 -0.012981863567293861 0.0021753805890198465 0.005160404878684174 -0.00017966091076331147 -0.0017080943211643248 0.000194728145307479 0.0027332987510006474
 0.00019694625259274978 0.00273296096493644 -0.00017966091076331147 -0.0017080943211643248 0.0021750253535468026 0.0051602189817235335 0.9976766359583749 -0.012982114576540827
 -0.00017965235718525122 -0.0017080925863590531 0.000194728145307479 0.0027332987510006474 0.9976766359583749 -0.012982114576540827 0.0021753866953430684 0.005160152553890544
0.02501042100875 0.0023825602956622357 0.006930690943466464 0.9974059328418379 -0.017330147356074403 0.00026171222312132707 0.0036454571563026617 -0.00023465139289821177 -0.002281131700371732
 0.9974059328418379 -0.017330147356074403 0.0023831706693618 0.006930601264683751 -0.00023466648636886062 -0.0022811337942575606 0.00025777237005978167 0.003645988968836167
 0.00026171222312132707 0.0036454571563026617 -0.00023466648636886062 -0.0022811337942575606 0.002382540175663435 0.0069303601386507905 0.997405928153798 -0.017330481979383923
 -0.00023465139289821177 -0.002281131700371732 0.00025777237005978167 0.003645988968836167 0.997405928153798 -0.017330481979383923 0.0023831819339781976 0.0069302652170906975
0.03126302626094 0.0026071078262713708 0.008721599741408953 0.99711144524906 -0.02169258644353599 0.0003368896159533409 0.0045587573591794875 -0.0002980788081964703 -0.002855520070078997
 0.99711144524906 -0.02169258644353599 0.002608060704388796 0.00872147995715845 -0.0002981022466278522 -0.0028555223839948104 0.0003307363616203506 0.004559534616161481
 0.0003368896159533409 0.0045587573591794875 -0.0002981022466278522 -0.0028555223839948104 0.0026070767645669526 0.008721187314347387 0.9971114382609922 -0.0216930047795892
 -0.0002980788081964703 -0.002855520070078997 0.0003307363616203506 0.004559534616161481 0.9971114382609922 -0.0216930047795892 0.002608078713699329 0.00872106040701244
0.037515631513130004 0.0028490446366139163 0.010532341460776936 0.9967928487276975 -0.02606959927850564 0.0004225843036573145 0.005472762526729479 -0.0003700468950114424 -0.0034310825848438238
 0.9967928487276975 -0.02606959927850564 0.002850415771874704 0.010532188210424294 -0.00037008046499716844 -0.0034310849617783744 0.00041372519718889167 0.0054738431264291535
 0.0004225843036573145 0.005472762526729479 -0.00037008046499716844 -0.0034310849617783744 0.0028490002795011444 0.010531848005452293 0.9967928389741705 -0.0260701014586096
 -0.0003700468950114424 -0.0034310825848438238 0.00041372519718889167 0.0054738431264291535 0.9967928389741705 -0.0260701014586096 0.0028504421284238973 0.010531685437972404
0.043768236765320004 0.003108730509480975 0.012362273329329746 0.9964498125941018 -0.030461381278620647 0.0005189008138433265 0.006387354917781535 -0.0004506653456966387 -0.0040076555839194524
 0.9964498125941018 -0.030461381278620647 0.003110595604572084 0.012362083114927983 -0.0004507108167245565 -0.0040076578489305625 0.0005068425246472647 0.006388803310798214
 0.0005189008138433265 0.006387354917781535 -0.0004507108167245565 -0.0040076578489305625 0.0031086705125114235 0.012361699522773308 0.996449799601577 -0.030461967487523087
 -0.0004506653456966387 -0.0040076555839194524 0.0005068425246472647 0.006388803310798214 0.996449799601577 -0.030461967487523087 0.00311063193036285 0.012361497439621581
0.050020842017509996 0.0033865212433913682 0.014210867836264867 0.9960820044666154 -0.03486799933243424 0.0006259419900959713 0.007302404683950213 -0.0005400413487511032 -0.0045850802885659256
 0.9960820044666154 -0.03486799933243424 0.0033889559741107607 0.014210637023509222 -0.0005401004740719767 -0.004585082248832984 0.000610190280932364 0.007304291948346788
 0.0006259419900959713 0.007302404683950213 -0.0005401004740719767 -0.004585082248832984 0.0033864432723876314 0.01421021446079345 0.9960819877507747 -0.03486866978662353
 -0.0005400413487511032 -0.0045850802885659256 0.000610190280932364 0.007304291948346788 0.9960819877507747 -0.03486866978662353 0.0033890039113368053 0.014209968825576753
0.055454545454549996 0.003642907026536201 0.015832151418150683 0.9957419914930158 -0.03870952227455459 0.0007277521828637915 0.0080978745672992 -0.00062490538228734 -0.005087449502942237
 0.9957419914930158 -0.03870952227455459 0.003645898241224018 0.015831882266913108 -0.000624977785295779 -0.005087451027946816 0.000708388700119744 0.008100206152965684
 0.0007277521828637915 0.0080978745672992 -0.000624977785295779 -0.005087451027946816 0.0036428115498216653 0.01583142960033129 0.9957419711395863 -0.03871026615306658
 -0.00062490538228734 -0.005087449502942237 0.000708388700119744 0.008100206152965684 0.9957419711395863 -0.03871026615306658 0.0036459576203096977 0.015831142698134286
0.056273447269699996 0.0036827693524307107 0.016077666359260268 0.9956890912711915 -0.0392894381041254 0.0007438087464518339 0.008217773125890896 -0.0006382796000389871 -0.005163199570592331
 0.9956890912711915 -0.0392894381041254 0.0036858493893048377 0.016077391177627257 -0.0006383541172689842 -0.005163201015480566 0.0007238684812408797 0.008220177043537976
 0.0007438087464518339 0.008217773125890896 -0.0006383541172689842 -0.005163201015480566 0.0036826710855600154 0.016076934288737948 0.9956890703361315 -0.039290193066208415
 -0.0006382796000389871 -0.005163199570592331 0.0007238684812408797 0.008220177043537976 0.9956890703361315 -0.039290193066208415 0.0036859106021859813 0.016076640883644047
0.06252605252188 0.0039978244318243615 0.017962253635646984 0.9952707399190095 -0.04372562549872683 0.0008725998729401701 0.009133314468839117 -0.000745482266689399 -0.005741856207536991
 0.9952707399190095 -0.04372562549872683 0.0040016254610414385 0.01796193017789701 -0.0007455738983313637 -0.0057418569086430185 0.0008479750474213763 0.009136319602142187
 0.0008725998729401701 0.009133314468839117 -0.0007455738983313637 -0.0057418569086430185 0.003997703561507843 0.017961443844058005 0.9952707142555071 -0.04372646526920966
 -0.000745482266689399 -0.005741856207536991 0.0008479750474213763 0.009136319602142187 0.9952707142555071 -0.04372646526920966 0.004001701636677958 0.017961098268771604
0.06877865777407 0.004332033336734656 0.01986424257135404 0.9948266178009229 -0.0481764477951711 0.001012411865824565 0.010048876947259871 -0.0008617489274943515 -0.006320891835046051
 0.9948266178009229 -0.0481764477951711 0.0043366310803975554 0.01986386679232506 -0.0008618593812124776 -0.006320891546270334 0.000982605654908338 0.010052574715621999
 0.001012411865824565 0.010048876947259871 -0.0008618593812124776 -0.006320891546270334 0.004331887570945557 0.019863356130286718 0.9948265868840362 -0.04817737271548821
 -0.0008617489274943515 -0.006320891835046051 0.000982605654908338 0.010052574715621999 0.9948265868840362 -0.04817737271548821 0.004336723929852327 0.01986295380005197
0.07503126302626001 0.004685740252745816 0.021783264598312594 0.9943563931790044 -0.0526417592374504 0.0011633387768410683 0.010964303489386307 -0.000987176494771898 -0.006900146305888698
 0.9943563931790044 -0.0526417592374504 0.004691210488992862 0.021782832313007934 -0.0009873074637107879 -0.006900144763487201 0.001127853593873947 0.010968792245192722
 0.0011633387768410683 0.010964303489386307 -0.0009873074637107879 -0.006900144763487201 0.004685567318265319 0.021782302679852567 0.9943563564679065 -0.0526427696872663
 -0.000987176494771898 -0.006900146305888698 0.001127853593873947 0.010968792245192722 0.9943563564679065 -0.0526427696872663 0.004691321749509113 0.02178183882300185
0.08128386827845 0.005059286698140934 0.023718963271130853 0.9938597355136066 -0.05712138839333976 0.0013254720698904954 0.011879432188254779 -0.0011218591282136582 -0.007479457269366165
 0.9938597355136066 -0.05712138839333976 0.005065705280981377 0.023718470152214146 -0.0011220122911431059 -0.007479454192009385 0.0012838096359564875 0.011884817291993399
 0.0013254720698904954 0.011879432188254779 -0.0011220122911431059 -0.007479454192009385 0.0050590843419268455 0.023717927147563028 0.993859692449377 -0.05712248479119741
 -0.0011218591282136582 -0.007479457269366165 0.0012838096359564875 0.011884817291993399 0.993859692449377 -0.05712248479119741 0.005065836717019341 0.023717396802309297
0.08753647353064001 0.005453011479441391 0.02567098983917335 0.9933363157487438 -0.061615142545590876 0.0014989004856013856 0.012794096638296181 -0.0012658881404544304 -0.008058659892095631
 0.9933363157487438 -0.061615142545590876 0.005460454358959958 0.025670431413571986 -0.001266065161957157 -0.008058654980928984 0.0014505619066775579 0.012800490532763928
 0.0014989004856013856 0.012794096638296181 -0.001266065161957157 -0.008058654980928984 0.005452777471268607 0.025669880883965917 0.9933362657529413 -0.061616325347908896
 -0.0012658881404544304 -0.008058659892095631 0.0014505619066775579 0.012800490532763928 0.9933362657529413 -0.061616325347908896 0.0054606077638206735 0.025669278894419667
0.09378907878283 0.005867250615789765 0.027639000093169105 0.9927858065693375 -0.06612281081597693 0.001683709910159066 0.013708126185682842 -0.0014193518979695196 -0.008637586672324253
 0.9927858065693375 -0.06612281081597693 0.005875793857960075 0.027638371738079776 -0.0014195544285353506 -0.008637579611027606 0.0016281957606751828 0.01371564846900085
 0.001683709910159066 0.013708126185682842 -0.0014195544285353506 -0.008637579611027606 0.005866982750422673 0.02763781977699285 0.9927857490427442 -0.06612408052119832
 -0.0014193518979695196 -0.008637586672324253 0.0016281957606751828 0.01371564846900085 0.9927857490427442 -0.06612408052119832 0.0058759710553754705 0.027637140788514307
0.100041684035 0.006302337240435774 0.02962265204627137 0.992207882640245 -0.07064416646344156 0.0018799832472754816 0.01462134612087424 -0.001582335718017108 -0.00921606731941974
 0.992207882640245 -0.07064416646344156 0.006312057047444587 0.029621948984385284 -0.0015825653941725355 -0.009216057774261403 0.0018167936596839365 0.014630123618237751
 0.0018799832472754816 0.01462134612087424 -0.0015825653941725355 -0.009216057774261403 0.006302033339662942 0.029621401945216383 0.992207816960588 -0.07064552360372763
 -0.001582335718017108 -0.00921606731941974 0.0018167936596839365 0.014630123618237751 0.992207816960588 -0.07064552360372763 0.006312259892456631 0.02962064039906194
0.1059090909091 0.006729874572156064 0.03149802077232884 0.9916403410453645 -0.07489921330040336 0.0020746623813219143 0.015477410792088581 -0.0017440103709092862 -0.009758350083247788
 0.9916403410453645 -0.07489921330040336 0.006740767904252173 0.03149724311859763 -0.0017442669962833637 -0.009758337888268737 0.0020038152743747863 0.015487488020461654
 0.0020746623813219143 0.015477410792088581 -0.0017442669962833637 -0.009758337888268737 0.006729534901377791 0.031496706706576685 0.9916402671279121 -0.07490065300942657
 -0.0017440103709092862 -0.009758350083247788 0.0020038152743747863 0.015487488020461654 0.9916402671279121 -0.07490065300942657 0.006740996534030273 0.0314958624459167
0.1062942892872 0.006758601485236337 0.03162160421312956 0.9916022208309224 -0.07517896859249273 0.0020878002923578674 0.015533577842824435 -0.0017549217632970018 -0.009793928669209112
 0.9916022208309224 -0.07517896859249273 0.006769574215314463 0.031620821507046 -0.0017551802075878244 -0.009793916289113294 0.0020164350515724004 0.015543744676869886
 0.0020878002923578674 0.015533577842824435 -0.0017551802075878244 -0.009793916289113294 0.006758259400507941 0.031620286002791986 0.9916021463522169 -0.0751804137394486
 -0.0017549217632970018 -0.009793928669209112 0.0020164350515724004 0.015543744676869886 0.9916021463522169 -0.0751804137394486 0.006769804596713833 0.03161943612989394
0.11254689453939999 0.00723637035231931 0.03363551428788019 0.990968500432112 -0.07972696347162515 0.0023072376084497586 0.016444638991592198 -0.001937188934298837 -0.010370994638653604
 0.990968500432112 -0.07972696347162515 0.007248672540527971 0.033634646833688976 -0.0019374777554978548 -0.010370979055234836 0.002227196250946895 0.016456336651239297
 0.0023072376084497586 0.016444638991592198 -0.0019374777554978548 -0.010370979055234836 0.007235987966961864 0.03363412974329154 0.9909684164821335 -0.07972849723608515
 -0.001937188934298837 -0.010370994638653604 0.002227196250946895 0.016456336651239297 0.9909684164821335 -0.07972849723608515 0.007248932381221239 0.03363318555735368
0.11879949979160001 0.00773596757614309 0.035664038124164674 0.9903064033638876 -0.08428788555838358 0.002538368403631244 0.017354343566397028 -0.0021292127604539035 -0.01094708620283383
 0.9903064033638876 -0.08428788555838358 0.007749675954313045 0.035663080644304644 -0.002129533553415763 -0.010947067030476171 0.0024491503206733657 0.01736772097408518
 0.002538368403631244 0.017354343566397028 -0.002129533553415763 -0.010947067030476171 0.00773554280782099 0.0356625891208382 0.9903063092432408 -0.08428950858902316
 -0.0021292127604539035 -0.01094708620283383 0.0024491503206733657 0.01736772097408518 0.9903063092432408 -0.08428950858902316 0.007749967213842884 0.035661544410547114
0.1250521050438 0.008257713477023181 0.03770682893447615 0.9896156143800859 -0.08886145831463549 0.002781262409640883 0.018262502036509774 -0.002331065290134069 -0.011522021387127195
 0.9896156143800859 -0.08886145831463549 0.008272904994420138 0.03770577596968645 -0.0023314196358860334 -0.01152199822303686 0.002682366954161354 0.018277715613723707
 0.002781262409640883 0.018262502036509774 -0.0023314196358860334 -0.01152199822303686 0.00825724428010869 0.03770531745197442 0.9896155093603324 -0.08886317129386775
 -0.002331065290134069 -0.011522021387127195 0.002682366954161354 0.018277715613723707 0.9896155093603324 -0.08886317129386775 0.0082732296699907 0.03770416577241217
0.131304710296 0.00880192480894092 0.03976353666094436 0.9888958212682653 -0.09344739485954537 0.003035985761489959 0.019168921437899125 -0.0025428149799225025 -0.012095615281603942
 0.9888958212682653 -0.09344739485954537 0.008818676652877654 0.03976238256134447 -0.002543204445720064 -0.012095587705862252 0.00292691235879739 0.019186135168879282
 0.003035985761489959 0.019168921437899125 -0.002543204445720064 -0.012095587705862252 0.008801409177085618 0.039761964776784196 0.9888957045901255 -0.09344919850906261
 -0.0025428149799225025 -0.012095615281603942 0.00292691235879739 0.019186135168879282 0.9888957045901255 -0.09344919850906261 0.008819036780972404 0.039760699439961994
0.1375573155481 0.00924769197478629 0.041565125312957446 0.9882679887535611 -0.09777658453993131 0.003272089016759625 0.02004686092598666 -0.002734144275107674 -0.012641060371457328
 0.9882679887535611 -0.09777658453993131 0.00926608819946541 0.04156388982109612 -0.0027345713648416147 -0.012641028335781184 0.0031525889289218192 0.02006605701837081
 0.003272089016759625 0.02004686092598666 -0.0027345713648416147 -0.012641028335781184 0.00924712863625822 0.041563494548170085 0.9882678598570916 -0.0977784793266847
 -0.002734144275107674 -0.012641060371457328 0.0031525889289218192 0.02006605701837081 0.9882678598570916 -0.0977784793266847 0.009266484738027207 0.04156213501167307
0.1438099208003 0.00970923844185808 0.0433565090635479 0.9876178576340119 -0.10209408520004701 0.0035177285088525013 0.02092075671743446 -0.0029331060107200576 -0.013182868088334113
 0.9876178576340119 -0.10209408520004701 0.009729357608393486 0.04335518792498583 -0.002933572440100953 -0.013182831172630114 0.0033873467107958135 0.020942085814981536
 0.0035177285088525013 0.02092075671743446 -0.002933572440100953 -0.013182831172630114 0.00970862557999231 0.04335482154600152 0.9876177157562624 -0.10209607183918208
 -0.0029331060107200576 -0.013182868088334113 0.0033873467107958135 0.020942085814981536 0.9876177157562624 -0.10209607183918208 0.009729792456240848 0.043353362571983675
0.1500625260525 0.010186390686006836 0.045137517346261216 0.9869456059579976 -0.10639976822312827 0.0037728131389052617 0.02179050312953084 -0.003139612946862904 -0.013720941524339881
 0.9869456059579976 -0.10639976822312827 0.010208311620329766 0.04513610600552502 -0.0031401204294359383 -0.013720899291253051 0.003631097576073226 0.021814121377478606
 0.0037728131389052617 0.02179050312953084 -0.0031401204294359383 -0.013720899291253051 0.01018572653074588 0.04513577528928333 0.9869454503093079 -0.10640184745279928
 -0.003139612946862904 -0.013720941524339881 0.003631097576073226 0.021814121377478606 0.9869454503093079 -0.10640184745279928 0.010208786701905892 0.045134211302181995
0.15631513130469998 0.010678973817156545 0.04690798470970613 0.9862514128269689 -0.11069350591262621 0.004037250643616634 0.022655996403263004 -0.0033535766950873163 -0.014255185945882256
 0.9862514128269689 -0.11069350591262621 0.010702775617278787 0.04690647829892426 -0.0033541269423797053 -0.014255137940759968 0.0038837522806502104 0.02268206538695007
