! Created with skrf 1.8.0 (http://scikit-rf.org).
# GHz S RI R 50.0 
!freq ReS11 ImS11 ReS12 ImS12 ReS13 ImS13
! ReS14 ImS14
! ReS21 ImS21 ReS22 ImS22 ReS23 ImS23
! ReS24 ImS24
! ReS31 ImS31 ReS32 ImS32 ReS33 ImS33
! ReS34 ImS34
! ReS41 ImS41 ReS42 ImS42 ReS43 ImS43
! ReS44 ImS44
!
0.0 0.001388229825745 0.0 0.9986117701452 0.0 5.335970329895e-05 0.0 -5.33597033932e-05 6.534678996393454e-21
 0.9986117701452 0.0 0.001388229825727 0.0 -5.335970339226e-05 6.534678996278337e-21 5.33597032978e-05 0.0
 5.335970329895e-05 0.0 -5.335970339226e-05 6.534678996278337e-21 0.001388229840276 0.0 0.9986117701597 0.0
 -5.33597033932e-05 6.534678996393454e-21 5.33597032978e-05 0.0 0.9986117701597 0.0 0.001388229840306 0.0
0.005 0.0014932217921799597 0.0011346678180911335 0.9984789986279351 -0.002908507507094434 7.475763351794053e-05 0.0005961824545115563 -7.256174852125447e-05 -0.0003728514407491086
 0.9984789986279351 -0.002908507507094434 0.0014932385324128636 0.0011346580779473157 -7.256439286272406e-05 -0.00037285348924923474 7.46535419986788e-05 0.0005962221821842931
 7.475763351794053e-05 0.0005961824545115563 -7.256439286272406e-05 -0.00037285348924923474 0.001493220013958396 0.0011346016273483062 0.9984789982887706 -0.002908574573873628
 -7.256174852125447e-05 -0.0003728514407491086 7.46535419986788e-05 0.0005962221821842931 0.9984789982887706 -0.002908574573873628 0.001493239638180176 0.0011345901404206794
0.006252605252188 0.0015206358307429486 0.0014228214299699424 0.9984441292621297 -0.0036363652021514595 8.081167301220483e-05 0.0007455202253008959 -7.79272580272827e-05 -0.000466555349901083
 0.9984441292621297 -0.0036363652021514595 0.0015206619979205888 0.0014228090076419829 -7.793137274501058e-05 -0.0004665578765595967 8.064903981128227e-05 0.0007455717673932074
 8.081167301220483e-05 0.0007455202253008959 -7.793137274501058e-05 -0.0004665578765595967 0.0015206331172671484 0.001422738706764734 0.9984441287984335 -0.0036364490266402832
 -7.79272580272827e-05 -0.000466555349901083 8.064903981128227e-05 0.0007455717673932074 0.9984441287984335 -0.0036364490266402832 0.0015206637934063797 0.00142272409364494
0.01250521050438 0.0016642382623864584 0.002875676686570171 0.998260343625103 -0.007273659061857597 0.00011521663331325725 0.0014914136171811378 -0.00010807027297633605 -0.0009354579280191613
 0.998260343625103 -0.007273659061857597 0.0016643427388364676 0.0028756493589925576 -0.00010808648789478995 -0.0009354626118711397 0.00011456810495750179 0.001491536893664801
 0.00011521663331325725 0.0014914136171811378 -0.00010808648789478995 -0.0009354626118711397 0.0016642279781542673 0.0028755115717154106 0.9982603423271931 -0.007273826470246294
 -0.00010807027297633605 -0.0009354579280191613 0.00011456810495750179 0.001491536893664801 0.9982603423271931 -0.007273826470246294 0.0016643504693544212 0.0028754797667194776
0.01875781575657 0.0018193262590234882 0.0043494479438933595 0.9980602023360408 -0.01092076132034386 0.0001566496341769785 0.0022382037083442338 -0.00014387653637492218 -0.0014060373353905885
 0.9980602023360408 -0.01092076132034386 0.001819561004151621 0.004349403088069363 -0.00014391269572658867 -0.001406043742665747 0.00015519281693607753 0.0022384225863568996
 0.0001566496341769785 0.0022382037083442338 -0.00014391269572658867 -0.001406043742665747 0.0018193035640831632 0.004349200681773724 0.9980601998376916 -0.01092101223753323
 -0.00014387653637492218 -0.0014060373353905885 0.00015519281693607753 0.0022384225863568996 0.9980601998376916 -0.01092101223753323 0.0018195788092036588 0.004349148895874821
0.02501042100875 0.001986181722276295 0.005842096012325294 0.9978434868711844 -0.014579465233832415 0.0002051872380378604 0.002985939211012985 -0.00018543135584731863 -0.0018780937619087312
 0.9978434868711844 -0.014579465233832415 0.001986598576322469 0.005842030880051559 -0.00018549521063156382 -0.001878101386504915 0.00020259961721159287 0.002986281082476551
 0.0002051872380378604 0.002985939211012985 -0.00018549521063156382 -0.001878101386504915 0.0019861417833718646 0.00584176687118275 0.9978434828053551 -0.014579799637331137
 -0.00018543135584731863 -0.0018780937619087312 0.00020259961721159287 0.002986281082476551 0.9978434828053551 -0.014579799637331137 0.0019866305967144015 0.0058416921240337805
0.03126302626094 0.002165074770935252 0.007352584277754111 0.9976099666980132 -0.018250553607268464 0.00026090677208335015 0.0037345996066966997 -0.0002328178769790788 -0.002351492314555998
 0.9976099666980132 -0.018250553607268464 0.002165725481065877 0.0073524959987765065 -0.0002329171010430592 -0.0023515005770215376 0.0002568653998158123 0.0037350954058971847
 0.00026090677208335015 0.0037345996066966997 -0.0002329171010430592 -0.0023515005770215376 0.0021650127585686922 0.007352173577364744 0.997609960694857 -0.018250971499877134
 -0.0002328178769790788 -0.002351492314555998 0.0002568653998158123 0.0037350954058971847 0.997609960694857 -0.018250971499877134 0.002165775860489822 0.007352072700191937
0.037515631513130004 0.0023562698314723313 0.008880246546307292 0.9973594055127847 -0.021934430894318117 0.0003238855210911617 0.004484137275972595 -0.0002861177058652792 -0.002826120873156729
 0.9973594055127847 -0.021934430894318117 0.0023572060690319153 0.008880132129955594 -0.00028625990425540685 -0.0028261291203538763 0.0003180668708511607 0.004484821514280062
 0.0003238855210911617 0.004484137275972595 -0.00028625990425540685 -0.0028261291203538763 0.002356180919901787 0.008879754658694684 0.9973593971996628 -0.02193493230388382
 -0.0002861177058652792 -0.002826120873156729 0.0003180668708511607 0.004484821514280062 0.9973593971996628 -0.02193493230388382 0.0023572789556160767 0.00887962429551434
0.043768236765320004 0.0025600279890634838 0.01042459465370345 0.9970915637424292 -0.025631315524769306 0.000394200357190518 0.005234490315838313 -0.00034541113910908916 -0.0033018772627641307
 0.9970915637424292 -0.025631315524769306 0.002561301362907366 0.010424450990239599 -0.00034560385301908987 -0.0033018847677569324 0.000386280249628053 0.005235401121888559
 0.000394200357190518 0.005234490315838313 -0.00034560385301908987 -0.0033018847677569324 0.0025599073571598704 0.01042402201224853 0.9970915527442791 -0.02563190049581499
 -0.00034541113910908916 -0.0033018772627641307 0.000386280249628053 0.005235401121888559 0.9970915527442791 -0.02563190049581499 0.00256140091123647 0.010423858620212775
0.050020842017509996 0.0027766080904515875 0.011985238962673875 0.9968061998008524 -0.029341319342003177 0.00047192752277791804 0.005985587825429892 -0.0004107772553481097 -0.003778663959939335
 0.9968061998008524 -0.029341319342003177 0.002778270158394541 0.011985062824210949 -0.00041102796533781495 -0.0037786699219439623 0.00046158108904900723 0.005986766987507821
 0.00047192752277791804 0.005985587825429892 -0.00041102796533781495 -0.0037786699219439623 0.0027764509219603763 0.01198458605927989 0.9968061857398816 -0.029341987939209883
 -0.0004107772553481097 -0.003778663959939335 0.00046158108904900723 0.005986766987507821 0.9968061857398816 -0.029341987939209883 0.0027784005303587754 0.01198438590865292
0.055454545454549996 0.0029754355233588435 0.01335446319923154 0.9965437911411525 -0.03257611507169383 0.0005455531334802557 0.006638859013505326 -0.0004725746746474455 -0.0041937686126243025
 0.9965437911411525 -0.03257611507169383 0.0029774772174293493 0.013354256126244276 -0.00047288181465583403 -0.004193772526023071 0.0005328337695048545 0.006640308197234633
 0.0005455531334802557 0.006638859013505326 -0.00047288181465583403 -0.004193772526023071 0.002975242694762429 0.01335374099434202 0.9965437741078181 -0.03257685640768119
 -0.0004725746746474455 -0.0041937686126243025 0.0005328337695048545 0.006640308197234633 0.9965437741078181 -0.03257685640768119 0.002977637761061587 0.01335350572500024
0.056273447269699996 0.003006267316145864 0.013561849330659386 0.9965030708179903 -0.03306448657022691 0.0005571424819735542 0.006737352499132911 -0.0004822939436769002 -0.004256385493725622
 0.9965030708179903 -0.03306448657022691 0.0030083695951476056 0.013561637371742055 -0.00048261007184411704 -0.004256389038092999 0.0005440441499667071 0.006738845508612522
 0.0005571424819735542 0.006737352499132911 -0.00048261007184411704 -0.004256389038092999 0.003006068798422839 0.013561116720407173 0.996503053311562 -0.033065238874518954
 -0.0004822939436769002 -0.004256385493725622 0.0005440441499667071 0.006738845508612522 0.996503053311562 -0.033065238874518954 0.0030085349591576958 0.01356087589425094
0.06252605252188 0.003249261493902154 0.0151541336661687 0.9961819331131412 -0.03680081519424693 0.0006499198063907586 0.0074897020522581076 -0.000560037900176744 -0.004734947016350082
 0.9961819331131412 -0.03680081519424693 0.0032518554696418338 0.015153882424285918 -0.0005604268116383443 -0.0047349471945796594 0.0006337433016574356 0.007491558147605207
 0.0006499198063907586 0.0074897020522581076 -0.0005604268116383443 -0.0047349471945796594 0.003249016819755025 0.015153321964856815 0.9961819117747757 -0.036801651305972106
 -0.000560037900176744 -0.004734947016350082 0.0006337433016574356 0.007491558147605207 0.9961819117747757 -0.036801651305972106 0.0032520600028952892 0.015153036358403081
0.06877865777407 0.003505845273227914 0.01676182511988075 0.995842542532339 -0.040550269706681026 0.0007503330789341013 0.008242550067791345 -0.0006440846068714123 -0.005214253455402546
 0.995842542532339 -0.040550269706681026 0.0035089824097759865 0.01676153101554238 -0.0006445536108887041 -0.005214249245153687 0.00073075143618096 0.008244822278728338
 0.0007503330789341013 0.008242550067791345 -0.0006445536108887041 -0.005214249245153687 0.003505549641289388 0.016760935009670033 0.995842516970692 -0.04055118974061508
 -0.0006440846068714123 -0.005214253455402546 0.00073075143618096 0.008244822278728338 0.995842516970692 -0.04055118974061508 0.0035092302981575554 0.01676060032944528
0.07503126302626001 0.0037762722161032974 0.01838467398463735 0.9954846547043564 -0.044312789148353106 0.0008584548087901092 0.008995806536300974 -0.000734508299493758 -0.00569420897548711
 0.9954846547043564 -0.044312789148353106 0.0037800039648603133 0.018384333321350293 -0.0007350646501872353 -0.005694199280611975 0.0008351403911171074 0.008998551727960793
 0.0008584548087901092 0.008995806536300974 -0.0007350646501872353 -0.005694199280611975 0.0037759208308012562 0.018383706212605395 0.9954846245226728 -0.04431379323588129
 -0.000734508299493758 -0.00569420897548711 0.0008351403911171074 0.008998551727960793 0.9954846245226728 -0.04431379323588129 0.00378029940304456 0.018383317975305773
0.08128386827845 0.004060794836043637 0.02002244229533412 0.9951080252488942 -0.04808829245170646 0.0009743563539120222 0.009749378212989952 -0.0008313819272335056 -0.006174716625508062
 0.9951080252488942 -0.04808829245170646 0.004065172644630628 0.020022051259283996 -0.0008320328240550894 -0.0061747002760927545 0.0009469808779885079 0.009752657129982557
 0.0009743563539120222 0.009749378212989952 -0.0008320328240550894 -0.0061747002760927545 0.00406038290866711 0.02002139767374542 0.9951079900444068 -0.04808938074119987
 -0.0008313819272335056 -0.006174716625508062 0.0009469808779885079 0.009752657129982557 0.9951079900444068 -0.04808938074119987 0.004065519837186429 0.020020951204885815
0.08753647353064001 0.004359664602476617 0.021674900092033742 0.9947124099518925 -0.051876682123915906 0.0010981078470978613 0.01050316887055922 -0.0009347771080773855 -0.006655678093099139
 0.9947124099518925 -0.051876682123915906 0.004364739923837827 0.0216744547514471 -0.0009355296961623367 -0.00665565384550383 0.001066342413184624 0.010507046180738507
 0.0010981078470978613 0.01050316887055922 -0.0009355296961623367 -0.00665565384550383 0.0043591873517675826 0.0216737795006993 0.9947123693153239 -0.05187785477899666
 -0.0009347771080773855 -0.006655678093099139 0.001066342413184624 0.010507046180738507 0.9947123693153239 -0.05187785477899666 0.004365143085303944 0.02167326993289146
0.09378907878283 0.004673131921776636 0.023341822750492895 0.9942975649209059 -0.05567784686555648 0.00122977812554264 0.011257079475562398 -0.0010447640797679326 -0.007136993538511919
 0.9942975649209059 -0.05567784686555648 0.0046789562231776445 0.023341319054884412 -0.0010456254500999338 -0.007136960075430699 0.0011932932517621747 0.011261623813555655
 0.00122977812554264 0.011257079475562398 -0.0010456254500999338 -0.007136960075430699 0.004672584574809933 0.023340627139143026 0.9942975184360008 -0.05567910406339104
 -0.0010447640797679326 -0.007136993538511919 0.0011932932517621747 0.011261623813555655 0.9942975184360008 -0.05567910406339104 0.0046794195786965115 0.02334004941027233
0.100041684035 0.005001446101262105 0.02502298903269004 0.9938632467256583 -0.05949166347279762 0.001369434661821441 0.012011008328530073 -0.0011614116488382438 -0.007618561467921624
 0.9938632467256583 -0.05949166347279762 0.0050080708728542115 0.02502242281170541 -0.0011623888382759193 -0.007618517398444882 0.0013279003213333136 0.012016292338796862
 0.001369434661821441 0.012011008328530073 -0.0011623888382759193 -0.007618517398444882 0.005000823893998055 0.025021719415266482 0.9938631939685673 -0.05949300541038125
 -0.0011614116488382438 -0.007618561467921624 0.0013279003213333136 0.012016292338796862 0.9938631939685673 -0.05949300541038125 0.00500859865861132 0.02502106826623024
0.1059090909091 0.00532325826620993 0.02661334429528395 0.9934377582110119 -0.06308191364846835 0.0015078097693646624 0.012718414345624936 -0.0012769907493957139 -0.00807059958933793
 0.9934377582110119 -0.06308191364846835 0.005330681052553274 0.0266127154999768 -0.0012780829744995766 -0.008070544236363981 0.0014612364343804516 0.012724462138644348
 0.0015078097693646624 0.012718414345624936 -0.0012780829744995766 -0.008070544236363981 0.005322561486561289 0.026612006215621778 0.9934376991755536 -0.0630833352974133
 -0.0012769907493957139 -0.00807059958933793 0.0014612364343804516 0.012724462138644348 0.9934376991755536 -0.0630833352974133 0.005331273162321223 0.026611281208849473
0.1062942892872 0.005344855299761493 0.026718179602777153 0.9934092125284376 -0.06331799827756256 0.0015171434965585973 0.012764851165218737 -0.0012847871365440394 -0.008100278648714572
 0.9934092125284376 -0.06331799827756256 0.005352332064074719 0.02671754656480065 -0.0012858871278287377 -0.008100222508398959 0.001470229158153631 0.012770951544763263
 0.0015171434965585973 0.012764851165218737 -0.0012858871278287377 -0.008100222508398959 0.005344153478153363 0.026716837064300683 0.993409153067279 -0.06331942516543551
 -0.0012847871365440394 -0.008100278648714572 0.001470229158153631 0.012770951544763263 0.993409153067279 -0.06331942516543551 0.0053529285276508794 0.02671610703658938
0.11254689453939999 0.005703606470400905 0.028427175907898 0.9929352202081884 -0.0671567082263485 0.0016729691716077264 0.013518501241337001 -0.0014149563239115304 -0.008582040044663786
 0.9929352202081884 -0.0671567082263485 0.005711986790915359 0.02842647163842543 -0.00141618604547997 -0.008581970295626651 0.0016203438426602278 0.013525498781869708
 0.0016729691716077264 0.013518501241337001 -0.00141618604547997 -0.008581970295626651 0.005702820290810006 0.02842576160100396 0.9929351536023344 -0.06715822029259172
 -0.0014149563239115304 -0.008582040044663786 0.0016203438426602278 0.013525498781869708 0.9929351536023344 -0.06715822029259172 0.005712656191857493 0.028424947033921722
0.11879949979160001 0.006077945293437746 0.030149759295320534 0.9924410284787933 -0.07100764172672291 0.0018369746643521066 0.014271849400619558 -0.0015519833945583667 -0.009063738771113062
 0.9924410284787933 -0.07100764172672291 0.006087280784195787 0.030148979254903806 -0.0015533497204684515 -0.009063653802109314 0.0017783069362069844 0.014279829030214778
 0.0018369746643521066 0.014271849400619558 -0.0015533497204684515 -0.009063653802109314 0.006077070024168482 0.030148274446738683 0.9924409542783857 -0.07100923921099941
 -0.0015519833945583667 -0.009063738771113062 0.0017783069362069844 0.014279829030214778 0.9924409542783857 -0.07100923921099941 0.006088027394134089 0.03014736947433741
0.1250521050438 0.006468116105685908 0.03188571032191925 0.9919263970041928 -0.07487063930505664 0.0020092213216309648 0.015024784134259901 -0.0016959308773472793 -0.009545266062182216
 0.9919263970041928 -0.07487063930505664 0.006478458439955848 0.031884849843958146 -0.0016974406269305914 -0.009545164188719932 0.001944179417210919 0.015033834958428508
 0.0020092213216309648 0.015024784134259901 -0.0016974406269305914 -0.009545164188719932 0.0064671470270501975 0.031884156225488104 0.9919263147496575 -0.07487232246613623
 -0.0016959308773472793 -0.009545266062182216 0.001944179417210919 0.015033834958428508 0.9919263147496575 -0.07487232246613623 0.0064792865431866666 0.03188315477322725
0.131304710296 0.006874361822648817 0.03363480819063074 0.9913910865109358 -0.07874553414162831 0.0021897687946454223 0.015777191630147992 -0.0018468595872322337 -0.010026511251773526
 0.9913910865109358 -0.07874553414162831 0.006885762742623793 0.0336338624787303 -0.0018485195248539375 -0.01002639071623541 0.00211802061807526 0.015787406972266972
 0.0021897687946454223 0.015777191630147992 -0.0018485195248539375 -0.01002639071623541 0.006873294228545674 0.03363318621145625 0.9913909957320421 -0.07874730325358649
 -0.0018468595872322337 -0.010026511251773526 0.00211802061807526 0.015787406972266972 0.9913909957320421 -0.07874730325358649 0.006886676636604451 0.03363208199247944
0.1375573155481 0.007199941405200105 0.03516814945583971 0.9909318705429332 -0.08240339765669871 0.0023551418327558875 0.016505620419421843 -0.0019813777174281445 -0.010483979275186036
 0.9909318705429332 -0.08240339765669871 0.007212457785995115 0.03516713778952255 -0.0019831978657512614 -0.01048384007440033 0.0022765169200637176 0.016516979998251587
 0.0023551418327558875 0.016505620419421843 -0.0019831978657512614 -0.01048384007440033 0.007198771114868388 0.03516646084324871 0.9909317708492666 -0.08240525287620722
 -0.0019813777174281445 -0.010483979275186036 0.0022765169200637176 0.016516979998251587 0.9909317708492666 -0.08240525287620722 0.007213461104031483 0.03516527170328923
0.1438099208003 0.007536842168344867 0.036694030077693236 0.9904567421945994 -0.08605262076378903 0.0025272136817243193 0.0172314687278292 -0.002121292502361517 -0.010939114230164967
 0.9904567421945994 -0.08605262076378903 0.007550526657407462 0.03669294930110205 -0.002123280133695696 -0.010938954649009102 0.002441408734756151 0.01724405740318097
 0.0025272136817243193 0.0172314687278292 -0.002123280133695696 -0.010938954649009102 0.007535564588915844 0.03669227624276388 0.9904566331174027 -0.0860545623592153
 -0.002121292502361517 -0.010939114230164967 0.002441408734756151 0.01724405740318097 0.9904566331174027 -0.0860545623592153 0.007551623596075533 0.03669099749705787
0.1500625260525 0.007884953657399713 0.0382123410813031 0.9899658153842462 -0.08969313180507789 0.0027059308443182976 0.017954674388131434 -0.002266552550105368 -0.011391857845483216
 0.9899658153842462 -0.08969313180507789 0.007899859005367132 0.03821118785323882 -0.002268714923447197 -0.011391676100243596 0.0026126441391341243 0.017968580112274805
 0.0027059308443182976 0.017954674388131434 -0.002268714923447197 -0.011391676100243596 0.00788356421492398 0.038210523492823285 0.9899656964459622 -0.08969516005436673
 -0.002266552550105368 -0.011391857845483216 0.0026126441391341243 0.017968580112274805 0.9899656964459622 -0.08969516005436673 0.007901053766234026 0.03820915020913322
0.15631513130469998 0.008244164731248588 0.039722976874245905 0.9894592045001739 -0.09332485900540655 0.002891239251925755 0.018675176178184892 -0.0024171058909917987 -0.011842153013526034
