! Created with skrf 1.8.0 (http://scikit-rf.org).
# GHz S RI R 50.0 
!freq ReS11 ImS11 ReS12 ImS12 ReS13 ImS13
! ReS14 ImS14
! ReS21 ImS21 ReS22 ImS22 ReS23 ImS23
! ReS24 ImS24
! ReS31 ImS31 ReS32 ImS32 ReS33 ImS33
! ReS34 ImS34
! ReS41 ImS41 ReS42 ImS42 ReS43 ImS43
! ReS44 ImS44
!
0.0 0.001871262533533 0.0 0.9981287374664 0.0 7.297729914896e-05 0.0 -7.297729797313e-05 8.937141437321628e-21
 0.9981287374664 0.0 0.001871262533566 0.0 -7.297729797319e-05 8.937141437328977e-21 7.297729915093e-05 0.0
 7.297729914896e-05 0.0 -7.297729797319e-05 8.937141437328977e-21 0.001871262507866 0.0 0.9981287374408 0.0
 -7.297729797313e-05 8.937141437321628e-21 7.297729915093e-05 0.0 0.9981287374408 0.0 0.001871262507897 0.0
0.005 0.002014516515389722 0.0015250835656021677 0.9979472818210213 -0.003918831197945863 0.00010370490454323771 0.0008325736086083123 -0.0001003991988811628 -0.0005173968897333922
 0.9979472818210213 -0.003918831197945863 0.0020145313561331602 0.0015250749074701224 -0.00010040486826610071 -0.0005174012283981407 0.00010359955825009153 0.0008326138650447593
 0.00010370490454323771 0.0008325736086083123 -0.00010040486826610071 -0.0005174012283981407 0.0020145132746046436 0.0015250182031396082 0.9979472814278685 -0.003918898261070049
 -0.0001003991988811628 -0.0005173968897333922 0.00010359955825009153 0.0008326138650447593 0.9979472814278685 -0.003918898261070049 0.002014533816333885 0.0015250061472201202
0.006252605252188 0.002052430521599571 0.0019123275063179614 0.9978988966582035 -0.004899443777034611 0.0001126917876066617 0.0010410831713187929 -0.00010830849323558392 -0.0006473999812351883
 0.9978988966582035 -0.004899443777034611 0.0020524537200064807 0.0019123164610784556 -0.00010831731527201309 -0.0006474053280300802 0.00011252719750745356 0.0010411354795805013
 0.0001126917876066617 0.0010410831713187929 -0.00010831731527201309 -0.0006474053280300802 0.00205242554075313 0.0019122458173775035 0.9978988961291569 -0.004899527598161015
 -0.00010830849323558392 -0.0006473999812351883 0.00011252719750745356 0.0010411354795805013 0.9978988961291569 -0.004899527598161015 0.0020524576516579985 0.0019122305160384075
0.01250521050438 0.0022540131440499053 0.0038643683624087996 0.997639673325614 -0.009799296243100901 0.00016532730695805267 0.002082256121872361 -0.00015408094835904262 -0.00129772754541835
 0.997639673325614 -0.009799296243100901 0.0022541057723539904 0.0038643440465401953 -0.00015411571437912202 -0.0012977373865197736 0.00016467104463260466 0.0020823824778478934
 0.00016532730695805267 0.002082256121872361 -0.00015411571437912202 -0.0012977373865197736 0.002253993811466583 0.003864205332553789 0.9976396717720217 -0.009799463643042943
 -0.00015408094835904262 -0.00129772754541835 0.00016467104463260466 0.0020823824778478934 0.9976396717720217 -0.009799463643042943 0.0022541220379107057 0.0038641723574345866
0.01875781575657 0.0024765213164132864 0.00584371110561328 0.9973506956182755 -0.014711399986236998 0.00023101495499899694 0.003124186418933608 -0.00021045100281055727 -0.0019499505055845532
 0.9973506956182755 -0.014711399986236998 0.002476729453549994 0.00584367119407301 -0.00021052852870371045 -0.0019499637925714836 0.00022954094575965004 0.0031244134893355707
 0.00023101495499899694 0.003124186418933608 -0.00021052852870371045 -0.0019499637925714836 0.0024764782885269166 0.005843467048827244 0.9973506925442862 -0.014711650874768004
 -0.00021045100281055727 -0.0019499505055845532 0.00022954094575965004 0.0031244134893355707 0.9973506925442862 -0.014711650874768004 0.002476766434571772 0.005843413756945084
0.02501042100875 0.0027204462643359174 0.007847481425789659 0.9970315753168332 -0.019638041666573684 0.0003098874910937555 0.004166860992703561 -0.00027756794883004697 -0.0026037069272170253
 0.9970315753168332 -0.019638041666573684 0.002720815897335617 0.007847423507781875 -0.00027770484553478296 -0.002603722399261322 0.00030726970941867744 0.004167220229483202
 0.0003098874910937555 0.004166860992703561 -0.00027770484553478296 -0.002603722399261322 0.0027203702188082104 0.007847156713467366 0.9970315702313592 -0.019638376010523102
 -0.00027756794883004697 -0.0026037069272170253 0.00030726970941867744 0.004167220229483202 0.9970315702313592 -0.019638376010523102 0.002720881973622894 0.007847080212807996
0.03126302626094 0.0029862585024109396 0.009874152223146608 0.9966819073234917 -0.024580141972248618 0.0004020772377177031 0.00521016576271619 -0.00035557547599415204 -0.0032587254985539144
 0.9966819073234917 -0.024580141972248618 0.0029868355560449316 0.009874073805224004 -0.0003557881829540262 -0.003258741680583772 0.00039798943108281876 0.005210693429847828
 0.0004020772377177031 0.00521016576271619 -0.0003557881829540262 -0.003258741680583772 0.0029861401266969272 0.009873747327844488 0.9966818997317485 -0.02458055975229192
 -0.00035557547599415204 -0.0032587254985539144 0.00039798943108281876 0.005210693429847828 0.9966818997317485 -0.02458055975229192 0.002986939101587043 0.009873644479861901
0.037515631513130004 0.0032744171751001275 0.011922691519717735 0.9963012794812437 -0.029538107666658004 0.0005077146062484622 0.006253945885752927 -0.0004446127275316934 -0.003914765339891683
 0.9963012794812437 -0.029538107666658004 0.003275247533060938 0.011922590027617327 -0.00044491752934743895 -0.003914780542148794 0.0005018301876921701 0.006254683103520102
 0.0005077146062484622 0.006253945885752927 -0.00044491752934743895 -0.003914780542148794 0.0032742471667626416 0.011922207005533926 0.9963012688859927 -0.029538608888158156
 -0.0004446127275316934 -0.003914765339891683 0.0005018301876921701 0.006254683103520102 0.9963012688859927 -0.029538608888158156 0.0032753969203094197 0.011922074425095946
0.043768236765320004 0.0035853736397625556 0.013992303180617723 0.9958892766381878 -0.0345120908140253 0.0006269273755467109 0.007298024099345713 -0.0005448146452841424 -0.0045715977245950725
 0.9958892766381878 -0.0345120908140253 0.0035865031629113216 0.013992175960292834 -0.0005452276812399912 -0.004571610042589608 0.000618919389005559 0.0072990168937105025
 0.0006269273755467109 0.007298024099345713 -0.0005452276812399912 -0.004571610042589608 0.003585142706937182 0.013991739712827442 0.9958892625403314 -0.034512675498726275
 -0.0005448146452841424 -0.0045715977245950725 0.000618919389005559 0.0072990168937105025 0.9958892625403314 -0.034512675498726275 0.003586706765435904 0.013991573766984714
0.050020842017509996 0.003919573094482022 0.016082319744975444 0.9954454827639925 -0.03950209589674901 0.0007598402397032811 0.008342208318253715 -0.0006563120584018415 -0.0052289985555053955
 0.9954454827639925 -0.03950209589674901 0.003921047638027626 0.016082164062867093 -0.000656849328350495 -0.0052290058701003825 0.0007493813641437236 0.008343507672027213
 0.0007598402397032811 0.008342208318253715 -0.000656849328350495 -0.0052290058701003825 0.003919271955778635 0.016081678099190443 0.9954454646615792 -0.039502764074995256
 -0.0006563120584018415 -0.0052289985555053955 0.0007493813641437236 0.008343507672027213 0.9954454646615792 -0.039502764074995256 0.003921313830942898 0.016081474905066832
0.055454545454549996 0.004229220424404604 0.01791471814767651 0.9950336714162924 -0.04385150473685222 0.0008865659745101587 0.009249564592140163 -0.0007624785162717548 -0.005800588157339205
 0.9950336714162924 -0.04385150473685222 0.004231032048758793 0.017914535449574397 -0.0007631366376559183 -0.005800589236234354 0.0008737111144895701 0.00925117564818722
 0.0008865659745101587 0.009249564592140163 -0.0007631366376559183 -0.005800589236234354 0.0042288507444421765 0.0179140092723577 0.9950336494225085 -0.043852245512022985
 -0.0007624785162717548 -0.005800588157339205 0.0008737111144895701 0.00925117564818722 0.9950336494225085 -0.043852245512022985 0.004231359436661991 0.017913770358851024
0.056273447269699996 0.0042774553740095355 0.018192149866175327 0.9949694822384598 -0.04450803233002317 0.0009065744696370095 0.009386295392075075 -0.0007792316628273313 -0.005886744689956626
 0.9949694822384598 -0.04450803233002317 0.0042793208033493554 0.018191962909079686 -0.0007799090308264572 -0.005886744667524112 0.0008933370467118782 0.009387957296521513
 0.0009065744696370095 0.009386295392075075 -0.0007799090308264572 -0.005886744667524112 0.004277074757688066 0.018191430918139934 0.9949694596251318 -0.04450878405245785
 -0.0007792316628273313 -0.005886744689956626 0.0008933370467118782 0.009387957296521513 0.9949694596251318 -0.04450878405245785 0.004279657962728336 0.018191186340205452
0.06252605252188 0.004659455336036551 0.020321249404078656 0.9944608607384805 -0.049529743334513404 0.001067247635942823 0.010430073177524707 -0.0009136959407411642 -0.00654461196096242
 0.9944608607384805 -0.049529743334513404 0.004661757542772628 0.020321028278107688 -0.0009145291372351747 -0.006544602053572385 0.0010509037138801795 0.01043215868361227
 0.001067247635942823 0.010430073177524707 -0.0009145291372351747 -0.006544602053572385 0.004658985982051646 0.020320454143299225 0.9944608331044226 -0.04953057865990267
 -0.0009136959407411642 -0.00654461196096242 0.0010509037138801795 0.01043215868361227 0.9944608331044226 -0.04953057865990267 0.0046621740477899055 0.02032016378983321
0.06877865777407 0.0050660030254974404 0.02246910422448049 0.9939192059076627 -0.0545670231129447 0.0012419733633450573 0.01147332181047 -0.0010598230490015143 -0.007202374009941994
 0.9939192059076627 -0.0545670231129447 0.005068787942325441 0.02246884595375962 -0.0010608276719962445 -0.007202351455611596 0.0012221947519769538 0.011475897079521511
 0.0012419733633450573 0.01147332181047 -0.0010608276719962445 -0.007202351455611596 0.005065435684568801 0.022468233751083887 0.9939191727376467 -0.05456794211269657
 -0.0010598230490015143 -0.007202374009941994 0.0012221947519769538 0.011475897079521511 0.9939191727376467 -0.05456794211269657 0.0050692921743620825 0.022467892970131673
0.07503126302626001 0.005497523701541484 0.024635219299469015 0.9933441078950472 -0.059619627738501685 0.0014308611057539489 0.012515814528430562 -0.0012177266866563194 -0.00785980158105054
 0.9933441078950472 -0.059619627738501685 0.005500837317988724 0.024634920823931802 -0.001218918202319561 -0.007859763403996812 0.0014073194402754387 0.01251895088176316
 0.0014308611057539489 0.012515814528430562 -0.001218918202319561 -0.007859763403996812 0.005496849137504029 0.02463427482431285 0.9933440686688567 -0.059620630498026156
 -0.0012177266866563194 -0.00785980158105054 0.0014073194402754387 0.01251895088176316 0.9933440686688567 -0.059620630498026156 0.00550143766166142 0.02463387869890811
0.08128386827845 0.005954437783383714 0.02681911146540809 0.9927351598175986 -0.06468728239902174 0.001634015933157555 0.013557318246009758 -0.0013875159505649347 -0.008516662074811361
 0.9927351598175986 -0.06468728239902174 0.005958326161103253 0.026818769638036206 -0.001388909693178652 -0.008516605085751208 0.001606382744928564 0.013561092213417102
 0.001634015933157555 0.013557318246009758 -0.001388909693178652 -0.008516605085751208 0.005953646773362773 0.026818094314696783 0.9927351140091146 -0.0646883690145102
 -0.0013875159505649347 -0.008516662074811361 0.001606382744928564 0.013561092213417102 0.9927351140091146 -0.0646883690145102 0.005959031004030944 0.026817637657373997
0.08753647353064001 0.006437160737704393 0.029020304445479116 0.9920919581692428 -0.06976968639068946 0.0018515383278618566 0.014597593976130792 -0.0015692951817963346 -0.00917271926866534
 0.9920919581692428 -0.06976968639068946 0.006441670025945884 0.029019916028836454 -0.0015709063534064007 -0.00917264006513639 0.0018194851207372225 0.014602087343049207
 0.0018515383278618566 0.014597593976130792 -0.0015709063534064007 -0.00917264006513639 0.006436244073630468 0.029019216059630308 0.9920919052458175 -0.06977085697154789
 -0.0015692951817963346 -0.00917271926866534 0.0018194851207372225 0.014602087343049207 0.9920919052458175 -0.06977085697154789 0.00644248775885199 0.029018693406373405
0.09378907878283 0.006946102928866009 0.031238325294674643 0.9914141031965483 -0.07486651670378973 0.0020835239862357206 0.01563639715870899 -0.0017631638069104873 -0.009827733143003822
 0.9914141031965483 -0.07486651670378973 0.0069512793795797586 0.0312378869568939 -0.0017650074765592828 -0.009827628109745882 0.0020467223176868724 0.015641697011955648
 0.0020835239862357206 0.01563639715870899 -0.0017650074765592828 -0.009827628109745882 0.006945051418117961 0.03123716723389806 0.9914140426183083 -0.0748677713684754
 -0.0017631638069104873 -0.009827733143003822 0.0020467223176868724 0.015641697011955648 0.9914140426183083 -0.0748677713684754 0.006952218396140359 0.031236572837313743
0.100041684035 0.007481669439887589 0.03347270182382337 0.9907011992501334 -0.07997743064490045 0.002330063625221488 0.016673477927534035 -0.001969216174990615 -0.010481459782182284
 0.9907011992501334 -0.07997743064490045 0.007487559423316396 0.033472210133672325 -0.001971307277745669 -0.010481325091534004 0.002288185191899437 0.01667967669939909
 0.002330063625221488 0.016673477927534035 -0.001971307277745669 -0.010481325091534004 0.007480473907173566 0.03347147576551867 0.9907011304697466 -0.0799787695247836
 -0.001969216174990615 -0.010481459782182284 0.002288185191899437 0.01667967669939909 0.9907011304697466 -0.0799787695247836 0.007488628120658706 0.03347080358724963
0.1059090909091 0.008008812371305704 0.03558388087835421 0.9899999893073527 -0.08478596939764371 0.002574727887184101 0.017644874680275965 -0.0021737348938102564 -0.011093521431608121
 0.9899999893073527 -0.08478596939764371 0.008015414221914548 0.035583335908639595 -0.0021760716493065876 -0.011093355240601404 0.002527787062536054 0.01765200585712472
 0.002574727887184101 0.017644874680275965 -0.0021760716493065876 -0.011093355240601404 0.0080074733608145 0.03558259264348131 0.9899999123249131 -0.08478738743470314
 -0.0021737348938102564 -0.011093521431608121 0.002527787062536054 0.01765200585712472 0.9899999123249131 -0.08478738743470314 0.008016612250191357 0.03558184171722768
0.1062942892872 0.00804425987424793 0.03572296067215263 0.9899528551195811 -0.08510206782572065 0.0025912427926985736 0.017708581338398734 -0.0021875413921886803 -0.01113365132772662
 0.9899528551195811 -0.08510206782572065 0.008050909894693035 0.03572241209350829 -0.0021898947280713835 -0.011133482940062328 0.0025439595195499124 0.017715776849127268
 0.0025912427926985736 0.017708581338398734 -0.0021898947280713835 -0.011133482940062328 0.00804291116267282 0.03572166841415605 0.9899527775813204 -0.08510349106308716
 -0.0021875413921886803 -0.01113365132772662 0.0025439595195499124 0.017715776849127268 0.9899527775813204 -0.08510349106308716 0.008052116672449454 0.0357209121167493
0.11254689453939999 0.008634268142046589 0.037988625857094525 0.9891686843553532 -0.09024005169079617 0.002867141680797874 0.01874144757154722 -0.002418223155041309 -0.011784055970708047
 0.9891686843553532 -0.09024005169079617 0.00864172485283605 0.037988016742621845 -0.0024208533875614714 -0.011783849634928501 0.0028141258134788344 0.018749743069968208
 0.002867141680797874 0.01874144757154722 -0.0024208533875614714 -0.011783849634928501 0.008632757114382187 0.03798726931693018 0.9891685974947515 -0.09024155944079734
 -0.002418223155041309 -0.011784055970708047 0.0028141258134788344 0.018749743069968208 0.9891685974947515 -0.09024155944079734 0.008643078113606744 0.03798642225475384
0.11879949979160001 0.00925208223386361 0.04026921765852491 0.9883483055820694 -0.09539099072695283 0.0031578349419918187 0.019771812116257437 -0.0026613395827591283 -0.012432417975767444
 0.9883483055820694 -0.09539099072695283 0.00926039245328098 0.040268544242647204 -0.0026642612373828996 -0.012432169229861203 0.0030987591425888444 0.019781316318599793
 0.0031578349419918187 0.019771812116257437 -0.0026642612373828996 -0.012432169229861203 0.009250399774317953 0.04026779887980071 0.9883482088254023 -0.09539258315246349
 -0.0026613395827591283 -0.012432417975767444 0.0030987591425888444 0.019781316318599793 0.9883482088254023 -0.09539258315246349 0.009261900602494495 0.04026685408928244
0.1250521050438 0.00989808398640241 0.04256425176656072 0.9874913428045008 -0.10055447942588591 0.003463391508177788 0.020799405947890374 -0.0029169630494374115 -0.013078477726615209
 0.9874913428045008 -0.10055447942588591 0.009907294713252883 0.042563510157528725 -0.0029201905121449176 -0.013078181898176527 0.0033979289535584754 0.020810233074571666
 0.003463391508177788 0.020799405947890374 -0.0029201905121449176 -0.013078181898176527 0.009896221002286681 0.04256277291565978 0.987491235567743 -0.10055615670178351
 -0.0029169630494374115 -0.013078477726615209 0.0033979289535584754 0.020810233074571666 0.987491235567743 -0.10055615670178351 0.009908966158469725 0.04256172310487098
0.131304710296 0.01057264884121205 0.04487323861079247 0.9865974257076777 -0.10573009908186465 0.0037838744121339463 0.021823955696967146 -0.0031851600170206213 -0.013721971793229194
 0.9865974257076777 -0.10573009908186465 0.010582807270166859 0.04487242478211016 -0.003188707532450821 -0.013721624000141212 0.003711698895046574 0.02183622550739876
 0.0037838744121339463 0.021823955696967146 -0.003188707532450821 -0.013721624000141212 0.0105705962640108 0.04487170197771683 0.9865973073962614 -0.10573186139541761
 -0.0031851600170206213 -0.013721971793229194 0.003711698895046574 0.02183622550739876 0.9865973073962614 -0.10573186139541761 0.010584650420858578 0.04487053951496906
0.1375573155481 0.011133253310106103 0.04689456217359704 0.9858091613523915 -0.1106160977927356 0.004082837636775856 0.022816453208867406 -0.0034295720761880377 -0.014333867203664368
 0.9858091613523915 -0.1106160977927356 0.011144411389134736 0.04689369318995847 -0.0034334609513566746 -0.014333466376402178 0.004003782896344801 0.022830161272501117
 0.004082837636775856 0.022816453208867406 -0.0034334609513566746 -0.014333466376402178 0.01113100260018282 0.046892969998978296 0.9858090314554597 -0.11061794521373763
 -0.0034295720761880377 -0.014333867203664368 0.004003782896344801 0.022830161272501117 0.9858090314554597 -0.11061794521373763 0.011146433975531273 0.046891708249806346
0.1438099208003 0.011713877032793401 0.04890290166487796 0.9849925130297602 -0.11548735410509135 0.004393799156712541 0.02380345003411743 -0.0036836521785147402 -0.014940760155531023
 0.9849925130297602 -0.11548735410509135 0.011726082927675885 0.04890197471084153 -0.003687897725085223 -0.01494030142459088 0.004307568649049766 0.02381870718276368
 0.004393799156712541 0.02380345003411743 -0.003687897725085223 -0.01494030142459088 0.011711419245886562 0.04890125631152033 0.9849923709558358 -0.11548928680564037
 -0.0036836521785147402 -0.014940760155531023 0.004307568649049766 0.02381870718276368 0.9849923709558358 -0.11548928680564037 0.011728293243260402 0.048899888736307295
0.1500625260525 0.01231427695857144 0.05089802074449757 0.9841477291579888 -0.12034367693577844 0.004716626666625995 0.02478479766618192 -0.003947272528454957 -0.015542513611735836
 0.9841477291579888 -0.12034367693577844 0.012327579040708293 0.05089703277741287 -0.0039518900068042685 -0.015541991911720713 0.004622926262998877 0.024801718747885598
 0.004716626666625995 0.02478479766618192 -0.0039518900068042685 -0.015541991911720713 0.012311603178133988 0.05089632467030096 0.9841475743068857 -0.12034569509471417
 -0.003947272528454957 -0.015542513611735836 0.004622926262998877 0.024801718747885598 0.9841475743068857 -0.12034569509471417 0.012329985374058066 0.05089484434709077
0.15631513130469998 0.012934207845561792 0.05287969019275942 0.9832750599336441 -0.12518487754130478 0.005051186023483337 0.02576035072385659 -0.004220303514209581 -0.01613899396105556
 0.9832750599336441 -0.12518487754130478 0.012948654697142712 0.05287863793229831 -0.004225308132526976 -0.016138404031685587 0.004949724056543098 0.02577905454853546
