! Created with skrf 1.8.0 (http://scikit-rf.org).
# GHz S RI R 50.0 
!freq ReS11 ImS11 ReS12 ImS12 ReS13 ImS13
! ReS14 ImS14
! ReS21 ImS21 ReS22 ImS22 ReS23 ImS23
! ReS24 ImS24
! ReS31 ImS31 ReS32 ImS32 ReS33 ImS33
! ReS34 ImS34
! ReS41 ImS41 ReS42 ImS42 ReS43 ImS43
! ReS44 ImS44
!
0.0 0.001687789182805 0.0 0.9983122108172 0.0 6.532970514797e-05 0.0 -6.532970488149e-05 8.000581397235794e-21
 0.9983122108172 0.0 0.001687789182804 0.0 -6.532970488196e-05 8.000581397293352e-21 6.53297051484e-05 0.0
 6.532970514797e-05 0.0 -6.532970488196e-05 8.000581397293352e-21 0.001687789175703 0.0 0.9983122108101 0.0
 -6.532970488149e-05 8.000581397235794e-21 6.53297051484e-05 0.0 0.9983122108101 0.0 0.001687789175677 0.0
0.005 0.0018163841654673918 0.0013806178758527725 0.9981494636016359 -0.003534924409378953 9.168322512740243e-05 0.0007183775717346393 -8.908201803116979e-05 -0.0004510680670857353
 0.9981494636016359 -0.003534924409378953 0.0018163703293219407 0.001380625913095203 -8.908286455733375e-05 -0.0004510686317795365 9.177174855475567e-05 0.0007183438990197148
 9.168322512740243e-05 0.0007183775717346393 -8.908286455733375e-05 -0.0004510686317795365 0.0018163838064131723 0.0013805507428664536 0.9981494632459901 -0.0035349914838697706
 -8.908201803116979e-05 -0.0004510680670857353 9.177174855475567e-05 0.0007183438990197148 0.9981494632459901 -0.0035349914838697706 0.0018163699769917305 0.0013805588948759653
0.006252605252188 0.0018502489170579045 0.0017311829887763485 0.9981063185000563 -0.004419498151479146 9.926449673017977e-05 0.0008983133109452395 -9.584821881391585e-05 -0.0005644097005900783
 0.9981063185000563 -0.004419498151479146 0.0018502272888747272 0.0017311931754254658 -9.584953675144132e-05 -0.0005644103948550915 9.94028062023256e-05 0.0008982695597365033
 9.926449673017977e-05 0.0008983133109452395 -9.584953675144132e-05 -0.0005644103948550915 0.001850248406346606 0.001731099078434009 0.9981063179941666 -0.004419581980457552
 -9.584821881391585e-05 -0.0005644097005900783 9.94028062023256e-05 0.0008982695597365033 0.9981063179941666 -0.004419581980457552 0.0018502267876131567 0.0017311094234454497
0.01250521050438 0.0020293240844311386 0.0034984152099364037 0.9978765932350244 -0.00883964193677217 0.000143018237734824 0.0017969426304923696 -0.00013456075073613668 -0.0011314641985073074
 0.9978765932350244 -0.00883964193677217 0.0020292377276410925 0.0034984369944521844 -0.00013456595277449784 -0.0011314654576667328 0.0001435697901037509 0.00179683711602822
 0.000143018237734824 0.0017969426304923696 -0.00013456595277449784 -0.0011314654576667328 0.0020293226258464377 0.003498247578957835 0.9978765917870009 -0.008839809314860005
 -0.00013456075073613668 -0.0011314641985073074 0.0001435697901037509 0.00179683711602822 0.9978765917870009 -0.008839809314860005 0.0020292362888828623 0.0034982698345839285
0.01875781575657 0.00222543396949809 0.005290554686897026 0.9976227292296873 -0.013271155625814043 0.00019669798139686023 0.0026964680285843355 -0.00018159222023877267 -0.0017003283961389592
 0.9976227292296873 -0.013271155625814043 0.0022252399306650454 0.0052905895918394915 -0.00018160383205157455 -0.001700330060481665 0.0001979369959827601 0.0026962789800718486
 0.00019669798139686023 0.0026964680285843355 -0.00018160383205157455 -0.001700330060481665 0.0022254311337040313 0.005290303324156836 0.997622726400874 -0.01327140645508716
 -0.00018159222023877267 -0.0017003283961389592 0.0001979369959827601 0.0026962789800718486 0.997622726400874 -0.01327140645508716 0.002225237104655904 0.005290339180041409
0.02501042100875 0.002438983801464865 0.0071050583473332525 0.9973444078738687 -0.017716150760844453 0.0002604114733803899 0.003596905650458303 -0.00023706290834526875 -0.0022707235462788027
 0.9973444078738687 -0.017716150760844453 0.0024386392153506646 0.007105107989808179 -0.0002370834287493004 -0.002270725423451229 0.000262612268391292 0.0035966076517863397
 0.0002604114733803899 0.003596905650458303 -0.0002370834287493004 -0.002270725423451229 0.002438979171510745 0.007104723204464165 0.9973444032292044 -0.017716484961385025
 -0.00023706290834526875 -0.0022707235462788027 0.000262612268391292 0.0035966076517863397 0.9973444032292044 -0.017716484961385025 0.00243863454534001 0.007104774458540522
0.03126302626094 0.0026703620401916693 0.008940599178324451 0.9970412953897105 -0.022175508972623194 0.00033426637255604233 0.004498188472234995 -0.00030108929981344365 -0.002842446603264849
 0.9970412953897105 -0.022175508972623194 0.0026698241031394075 0.008940665266530132 -0.0003011212051678249 -0.002842448467918904 0.0003377036116237681 0.004497752438902094
 0.00033426637255604233 0.004498188472234995 -0.0003011212051678249 -0.002842448467918904 0.002670355206488044 0.008940180181298052 0.9970412884939039 -0.022175926470883213
 -0.00030108929981344365 -0.002842446603264849 0.0003377036116237681 0.004497752438902094 0.9970412884939039 -0.022175926470883213 0.002669817121624669 0.00894024873676373
0.037515631513130004 0.0029199484075209704 0.010796298067925428 0.9967130511879122 -0.026649650077065747 0.00041836928174436816 0.00540021624285899 -0.0003737849015779334 -0.0034153203108448407
 0.9967130511879122 -0.026649650077065747 0.0029191743590355804 0.010796382399565084 -0.00037383064784545785 -0.003415321904498829 0.000423318080636479 0.005399609384745292
 0.00041836928174436816 0.00540021624285899 -0.00037383064784545785 -0.003415321904498829 0.0029199389712843906 0.01079579512070763 0.9967130416093908 -0.02665015080223049
 -0.0003737849015779334 -0.0034153203108448407 0.000423318080636479 0.005399609384745292 0.9967130416093908 -0.02665015080223049 0.002919164592905278 0.010795882984625015
0.043768236765320004 0.0031881169799161868 0.012671490043557936 0.9963593312834499 -0.031138765765109017 0.0005128252723829028 0.006302870685657101 -0.00045526052499448503 -0.003989178024679483
 0.9963593312834499 -0.031138765765109017 0.0031870640877626455 0.012671594504897134 -0.00045532254898299223 -0.0039891790556252915 0.0005195612455695644 0.0063020564653474154
 0.0005128252723829028 0.006302870685657101 -0.00045532254898299223 -0.0039891790556252915 0.0031881045492238944 0.012670903025854595 0.9963593185915551 -0.03113934965146433
 -0.00045526052499448503 -0.003989178024679483 0.0005195612455695644 0.0063020564653474154 0.9963593185915551 -0.03113934965146433 0.0031870510546418663 0.012671012308519808
0.050020842017509996 0.0034752376095799225 0.014565627669081056 0.9959797900433265 -0.035642916133132405 0.0006177375886911597 0.0072060217798459855 -0.0005456243720889155 -0.004563857456728831
 0.9959797900433265 -0.035642916133132405 0.003473863156100913 0.01456575423451358 -0.0005457050919925468 -0.004563857599966081 0.0006265368642570327 0.007204959869247285
 0.0006177375886911597 0.0072060217798459855 -0.0005457050919925468 -0.004563857599966081 0.0034752217995587956 0.01456495644210517 0.9959797738088793 -0.03564358311417015
 -0.0005456243720889155 -0.004563857456728831 0.0006265368642570327 0.007204959869247285 0.9959797738088793 -0.03564358311417015 0.003473846366250011 0.01456508935682619
0.055454545454549996 0.0037404301292539013 0.016226704899506148 0.9956287182222774 -0.03956935211649069 0.0007174800343565643 0.007991183273335386 -0.0006314536947525154 -0.005063813595578469
 0.9956287182222774 -0.03956935211649069 0.0037387415393391916 0.016226852346036137 -0.0006315526116983025 -0.005063812677532774 0.0007282970275476931 0.007989870383808644
 0.0007174800343565643 0.007991183273335386 -0.0006315526116983025 -0.005063812677532774 0.003740411074842503 0.016225960365109898 0.995628698562335 -0.03957009125476892
 -0.0006314536947525154 -0.005063813595578469 0.0007282970275476931 0.007989870383808644 0.995628698562335 -0.03957009125476892 0.0037387210812209254 0.01622611569455285
0.056273447269699996 0.0037816766416703972 0.01647823362527038 0.9955740812341325 -0.040162077032704996 0.0007332074270940975 0.008109530855162085 -0.0006449820379977661 -0.005139197610984039
 0.9955740812341325 -0.040162077032704996 0.003779937911542905 0.016478384357421362 -0.0006450838538131519 -0.005139196508167076 0.0007443466420572004 0.008108177091393177
 0.0007332074270940975 0.008109530855162085 -0.0006450838538131519 -0.005139196508167076 0.0037816570737829267 0.016477478031386963 0.9955740610299915 -0.040162827041666724
 -0.0006449820379977661 -0.005139197610984039 0.0007443466420572004 0.008108177091393177 0.9955740610299915 -0.040162827041666724 0.003779916867726422 0.016477636894842187
0.06252605252188 0.0041077972846469924 0.018408874652413854 0.995141858727893 -0.04469616606363924 0.0008593337553316724 0.009013252293872953 -0.0007534364682938924 -0.005715037117403188
 0.995141858727893 -0.04469616606363924 0.0041056515523994735 0.01840905170254602 -0.0007535617619389284 -0.005715034376795212 0.0008730900381829502 0.009011558634957766
 0.0008593337553316724 0.009013252293872953 -0.0007535617619389284 -0.005715034376795212 0.0041077735854670614 0.018408034519897455 0.99514183412825 -0.044696999028708495
 -0.0007534364682938924 -0.005715037117403188 0.0008730900381829502 0.009011558634957766 0.99514183412825 -0.044696999028708495 0.00410562574972622 0.01840822175268249
0.06877865777407 0.004453959788842829 0.020357146013103143 0.9946827770208567 -0.0492450580527646 0.0009962131521000037 0.009917034558813823 -0.0008710878918221893 -0.006291213246112961
 0.9946827770208567 -0.0492450580527646 0.004451364307362205 0.020357351622062248 -0.0008712390271531579 -0.006291208442563345 0.0010128640963581832 0.009914949039472348
 0.0009962131521000037 0.009917034558813823 -0.0008712390271531579 -0.006291208442563345 0.004453931589780619 0.02035622115459315 0.9946827476019272 -0.049245973898839626
 -0.0008710878918221893 -0.006291213246112961 0.0010128640963581832 0.009914949039472348 0.9946827476019272 -0.049245973898839626 0.004451333233933579 0.020356439282311175
0.07503126302626001 0.00482052151270001 0.02232266165221409 0.9941964916447286 -0.05380859484299027 0.0011439396598933633 0.01082072085518717 -0.0009980337376541567 -0.006867561294599949
 0.9941964916447286 -0.05380859484299027 0.0048174335015996345 0.022322898151602783 -0.0009982130604119781 -0.00686755396950892 0.001163763290431165 0.01081818754292501
 0.0011439396598933633 0.01082072085518717 -0.0009982130604119781 -0.00686755396950892 0.004820488449339892 0.02232165186018313 0.9941964569842594 -0.053809593496193006
 -0.0009980337376541567 -0.006867561294599949 0.001163763290431165 0.01081818754292501 0.9941964569842594 -0.053809593496193006 0.004817396638579133 0.0223219035148469
0.08128386827845 0.0052078369193745404 0.024305047640978787 0.993682659511975 -0.05838659180563931 0.0013026046452508531 0.011724149579910739 -0.0011343685420687618 -0.007443914194419004
 0.993682659511975 -0.05838659180563931 0.0052042135530835365 0.02430531745488111 -0.001134578379656778 -0.007443903855735143 0.0013258793795140138 0.01172110853152877
 0.0013026046452508531 0.011724149579910739 -0.001134578379656778 -0.007443903855735143 0.0052077986305791414 0.024303952694778433 0.9936826191899206 -0.058387673186465545
 -0.0011343685420687618 -0.007443914194419004 0.0013258793795140138 0.01172110853152877 0.9936826191899206 -0.058387673186465545 0.005204170375204631 0.024304240616579133
0.08753647353064001 0.005616257523663819 0.02630393766399142 0.9931409392165789 -0.06297884231820426 0.0014722966644141145 0.01262715464217302 -0.0012801838483527015 -0.008020102254071891
 0.9931409392165789 -0.06297884231820426 0.005612055920044515 0.02630424331107744 -0.0012804265096708553 -0.008020088376281468 0.001499301269152281 0.012623541860824691
 0.0014722966644141145 0.01262715464217302 -0.0012804265096708553 -0.008020088376281468 0.005616213651092225 0.026302757327186236 0.9931408928149273 -0.06298000634436426
 -0.0012801838483527015 -0.008020102254071891 0.001499301269152281 0.012623541860824691 0.9931408928149273 -0.06298000634436426 0.005612005895714325 0.026303084366681877
0.09378907878283 0.006046131807857179 0.02831896978936128 0.9925709913085863 -0.06758512096758149 0.0016531013320799947 0.013529565711334039 -0.0014355681021643125 -0.008595952982097598
 0.9925709913085863 -0.06758512096758149 0.006041309016583596 0.028319313885367826 -0.0014358458773163674 -0.008595935006236434 0.0016841148762021228 0.013525313104207869
 0.0016531013320799947 0.013529565711334039 -0.0014358458773163674 -0.008595935006236434 0.006046081994853055 0.028317703811540987 0.9925709384110343 -0.06758636755223214
 -0.0014355681021643125 -0.008595952982097598 0.0016841148762021228 0.013525313104207869 0.9925709384110343 -0.06758636755223214 0.006041251607962543 0.02831807293228779
0.100041684035 0.006497805112857332 0.03034978411530681 0.9919724785457303 -0.07220518588559997 0.0018451011927829194 0.014431208403649655 -0.0016006065429517268 -0.009171290979103203
 0.9919724785457303 -0.07220518588559997 0.006492318103619171 0.030350169376015024 -0.0016009217029512384 -0.009171268312771106 0.0018804029971115717 0.014426243740380587
 0.0018451011927829194 0.014431208403649655 -0.0016009217029512384 -0.009171268312771106 0.006497749004199267 0.030348432226042384 0.9919724187385164 -0.07220651494371166
 -0.0016006065429517268 -0.009171290979103203 0.0018804029971115717 0.014426243740380587 0.9919724187385164 -0.07220651494371166 0.006492252767291033 0.030348846507591547
0.1059090909091 0.00694178333465718 0.0322695213351828 0.9913845601134231 -0.07655293690124435 0.002035525327230346 0.015276446851392757 -0.0017643310122595055 -0.009710559484527497
 0.9913845601134231 -0.07655293690124435 0.006935633810496071 0.03226994778667588 -0.0017646833021767918 -0.009710531848139364 0.0020751054260008065 0.015270744584627896
 0.002035525327230346 0.015276446851392757 -0.0017646833021767918 -0.009710531848139364 0.0069417209957808625 0.03226808857422106 0.9913844934479614 -0.07655434326545284
 -0.0017643310122595055 -0.009710559484527497 0.0020751054260008065 0.015270744584627896 0.9913844934479614 -0.07655434326545284 0.006935560535619879 0.032268548141552666
0.1062942892872 0.0069716195124474075 0.032396020994632166 0.9913450661344394 -0.07683878051615291 0.002048375593874992 0.015331904441200412 -0.0017753810930074565 -0.009745937865617213
 0.9913450661344394 -0.07683878051615291 0.006965425163501823 0.03239645023926936 -0.001775735889480597 -0.009745909883003678 0.0020882451781204184 0.015326151312998295
 0.002048375593874992 0.015331904441200412 -0.001775735889480597 -0.009745909883003678 0.0069715567537055965 0.03239458291483897 0.9913449990060919 -0.07684019195323405
 -0.0017753810930074565 -0.009745937865617213 0.0020882451781204184 0.015326151312998295 0.9913449990060919 -0.07684019195323405 0.006965351350563874 0.0323950455561702
0.11254689453939999 0.0074679136747092196 0.03445731970089801 0.9906884219595764 -0.08148563494985771 0.002263000560147056 0.01623147178494729 -0.001959970244534841 -0.010319712243799578
 0.9906884219595764 -0.08148563494985771 0.007460968761000599 0.03445779585602866 -0.0019603669093296986 -0.010319678285734305 0.0023077175871730254 0.01622484956462996
 0.002263000560147056 0.01623147178494729 -0.0019603669093296986 -0.010319678285734305 0.007467843911211283 0.03445579513337014 0.9906883471008068 -0.0814871286716924
 -0.001959970244534841 -0.010319712243799578 0.0023077175871730254 0.01622484956462996 0.9906883471008068 -0.0814871286716924 0.007460885917184133 0.03445630945681076
0.11879949979160001 0.007987022711910532 0.036533317380239246 0.9900022168068974 -0.08614546698320272 0.0024890486693166344 0.01712972475393849 -0.002154448945477879 -0.010892429681414212
 0.9900022168068974 -0.08614546698320272 0.00797928389311545 0.03653384348406998 -0.002154889690260241 -0.010892389055397465 0.0025388928871791505 0.017122148556814838
 0.0024890486693166344 0.01712972475393849 -0.002154889690260241 -0.010892389055397465 0.007986945588262769 0.036531706014840654 0.9900021338108427 -0.08614704289089214
 -0.002154448945477879 -0.010892429681414212 0.0025388928871791505 0.017122148556814838 0.9900021338108427 -0.08614704289089214 0.007979191459491636 0.03653227547037387
0.1250521050438 0.008529278023067901 0.03862364824353909 0.9892861245805322 -0.09081798294704208 0.0027265889287540796 0.018026474133089044 -0.0023588884842800704 -0.011463902715427654
 0.9892861245805322 -0.09081798294704208 0.00852070183195777 0.038624227450833645 -0.0023593755002296463 -0.011463854695701348 0.0027818401106199063 0.018017854778835087
 0.0027265889287540796 0.018026474133089044 -0.0023593755002296463 -0.011463854695701348 0.008529193182498208 0.03862194975374503 0.989286033043122 -0.09081964094074924
 -0.0023588884842800704 -0.011463902715427654 0.0027818401106199063 0.018017854778835087 0.989286033043122 -0.09081964094074924 0.008520599244905086 0.03862257792384783
0.131304710296 0.009095007129690942 0.0407279429164482 0.9885398225169256 -0.0955028783877443 0.0029756866530361416 0.018921527275835945 -0.002573356374326635 -0.012033940869409312
 0.9885398225169256 -0.0955028783877443 0.009085549960208647 0.040728578503812486 -0.0025738918316997677 -0.012033884697052267 0.0030366245349503166 0.018911771251335453
 0.0029756866530361416 0.018921527275835945 -0.0025738918316997677 -0.012033884697052267 0.00909491421363686 0.04072615696381249 0.9885397220367302 -0.09550461836244177
 -0.002573356374326635 -0.012033940869409312 0.0030366245349503166 0.018911771251335453 0.9885397220367302 -0.09550461836244177 0.009085436651807301 0.040726847568741904
0.1375573155481 0.009559747900801068 0.042572107689021595 0.9878878373116563 -0.09992595815597946 0.0032060016227997436 0.01978791101168106 -0.002767448117188091 -0.012575647235181802
 0.9878878373116563 -0.09992595815597946 0.00954936214974305 0.04257279024289734 -0.002768035008641611 -0.012575582786560674 0.003272764226682267 0.019777027100450918
 0.0032060016227997436 0.01978791101168106 -0.002768035008641611 -0.012575582786560674 0.00955964549439023 0.042570234457771146 0.9878877274917811 -0.09992777998682098
 -0.002767448117188091 -0.012575647235181802 0.003272764226682267 0.019777027100450918 0.9878877274917811 -0.09992777998682098 0.00954923859088243 0.042570977420278246
0.1438099208003 0.010040996738335034 0.04440567452935871 0.9872126293664159 -0.10433692386760314 0.0034455796220606337 0.02065028037097683 -0.002969266590647698 -0.013113619860180708
 0.9872126293664159 -0.10433692386760314 0.010029637993533454 0.044406406701640304 -0.0029699072046001987 -0.013113546390843089 0.003518421066800519 0.020638182539071792
 0.0034455796220606337 0.02065028037097683 -0.0029699072046001987 -0.013113546390843089 0.010040884286390888 0.044403713717857805 0.9872125098112577 -0.10433882743933397
 -0.002969266590647698 -0.013113619860180708 0.003518421066800519 0.020638182539071792 0.9872125098112577 -0.10433882743933397 0.010029503797251833 0.04440451201916709
0.1500625260525 0.010538571137536605 0.046228463626070644 0.9865143859732256 -0.10873563881050295 0.003694328977396648 0.0215085312619186 -0.0031787216061977455 -0.013647759141507445
 0.9865143859732256 -0.10873563881050295 0.010526194831220291 0.04622924825090679 -0.0031794182209526306 -0.013647675877845185 0.0037735017163613095 0.02149513032303561
 0.003694328977396648 0.0215085312619186 -0.0031794182209526306 -0.013647675877845185 0.010538448069501173 0.04622641492204745 0.9865142562901086 -0.10873762400449573
 -0.0031787216061977455 -0.013647759141507445 0.0037735017163613095 0.02149513032303561 0.9865142562901086 -0.10873762400449573 0.010526049618233991 0.04622727173294456
0.15631513130469998 0.01105228713871173 0.048040300520875594 0.9857932955545334 -0.1131219673542069 0.003952156839485649 0.022362561568696603 -0.0033957217771617516 -0.014177967740063954
 0.9857932955545334 -0.1131219673542069 0.01103884854319224 0.048041140621277845 -0.0033964766605996967 -0.014177873879564182 0.004037911633472998 0.022347765218761192
