! Created with skrf 1.8.0 (http://scikit-rf.org).
# GHz S RI R 50.0 
!freq ReS11 ImS11 ReS12 ImS12 ReS13 ImS13
! ReS14 ImS14
! ReS21 ImS21 ReS22 ImS22 ReS23 ImS23
! ReS24 ImS24
! ReS31 ImS31 ReS32 ImS32 ReS33 ImS33
! ReS34 ImS34
! ReS41 ImS41 ReS42 ImS42 ReS43 ImS43
! ReS44 ImS44
!
0.0 0.001444146088497 0.0 0.9985558539112 0.0 5.55129187379e-05 0.0 -5.551291749389e-05 6.79837167202235e-21
 0.9985558539112 0.0 0.001444146088483 0.0 -5.551291749352e-05 6.798371671977038e-21 5.551291873641e-05 0.0
 5.55129187379e-05 0.0 -5.551291749352e-05 6.798371671977038e-21 0.001444146085655 0.0 0.9985558539084 0.0
 -5.551291749389e-05 6.79837167202235e-21 5.551291873641e-05 0.0 0.9985558539084 0.0 0.001444146085659 0.0
0.005 0.0015534981936321565 0.0011821372693625733 0.9984175509540165 -0.003025364171335589 7.758509862416467e-05 0.0006089106415912417 -7.535396802629779e-05 -0.0003827374854489621
 0.9984175509540165 -0.003025364171335589 0.0015535175997049959 0.0011821259705919141 -7.535485153513505e-05 -0.0003827382105355495 7.745409870657866e-05 0.0006089603644637406
 7.758509862416467e-05 0.0006089106415912417 -7.535485153513505e-05 -0.0003827382105355495 0.0015534971537219597 0.0011820706616933315 0.9984175506042247 -0.0030254312268628222
 -7.535396802629779e-05 -0.0003827374854489621 7.745409870657866e-05 0.0006089603644637406 0.9984175506042247 -0.0030254312268628222 0.00155351794390283 0.001182058469945137
0.006252605252188 0.001582095003594371 0.0014823308610191948 0.9983811661344721 -0.003782457572915789 8.385547633699391e-05 0.0007614389907088457 -8.09166903781963e-05 -0.0004789207281549651
 0.9983811661344721 -0.003782457572915789 0.0015821253387568839 0.0014823165384224906 -8.091806483575891e-05 -0.0004789216232723265 8.365079837443424e-05 0.0007615035583256281
 8.385547633699391e-05 0.0007614389907088457 -8.091806483575891e-05 -0.0004789216232723265 0.0015820934524799508 0.0014822476125559536 0.998381165662427 -0.0037825413878653223
 -8.09166903781963e-05 -0.0004789207281549651 8.365079837443424e-05 0.0007615035583256281 0.998381165662427 -0.0037825413878653223 0.0015821259520237211 0.001482232163274017
0.01250521050438 0.001732152255772269 0.0029958152120022367 0.9981890318518464 -0.007565796830721473 0.00011962628212701626 0.001523267231926757 -0.00011226870018047942 -0.000960211735218139
 0.9981890318518464 -0.007565796830721473 0.0017322733807808998 0.002995784573239884 -0.00011227411252803861 -0.0009602134032068906 0.00011880999778317697 0.0015234222875040203
 0.00011962628212701626 0.001523267231926757 -0.00011227411252803861 -0.0009602134032068906 0.0017321466186207132 0.0029956490318296903 0.9981890305288503 -0.007565964226532381
 -0.00011226870018047942 -0.000960211735218139 0.00011880999778317697 0.0015234222875040203 0.9981890305288503 -0.007565964226532381 0.0017322763990762174 0.002995616022211888
0.01875781575657 0.001894629397974258 0.004530962705238415 0.9979792237991558 -0.011359242384023143 0.00016290497854661463 0.002286000012115562 -0.00014966193421166846 -0.0014431944011970665
 0.9979792237991558 -0.011359242384023143 0.001894901561095821 0.00453091363330473 -0.00014967399810834596 -0.0014431966990107637 0.00016107110493177696 0.0022862762742757964
 0.00016290497854661463 0.002286000012115562 -0.00014967399810834596 -0.0014431966990107637 0.0018946171396279409 0.004530713807531305 0.9979792212440582 -0.011359493273539469
 -0.00014966193421166846 -0.0014431944011970665 0.00016107110493177696 0.0022862762742757964 0.9979792212440582 -0.011359493273539469 0.001894908777858791 0.004530660962706049
0.02501042100875 0.002069829633296675 0.006085643579572554 0.9977515061768538 -0.015164649470601779 0.0002137728094514083 0.0030496770608675785 -0.00019318666263750796 -0.0019276609859429049
 0.9977515061768538 -0.015164649470601779 0.0020703129557552 0.006085573857079078 -0.00019320795877382054 -0.0019276637469527562 0.00021051509459550465 0.0030501098748012666
 0.0002137728094514083 0.0030496770608675785 -0.00019320795877382054 -0.0019276637469527562 0.0020698082233172217 0.006085312181407288 0.9977515020137775 -0.015164983807415024
 -0.00019318666263750796 -0.0019276609859429049 0.00021051509459550465 0.0030501098748012666 0.9977515020137775 -0.015164983807415024 0.002070326175591735 0.0060852370874909245
0.03126302626094 0.0022580435710813514 0.007658770330320052 0.9975056305876393 -0.01898282226110097 0.0002723117173239069 0.0038142685743336137 -0.00024293080632265888 -0.002413468511142169
 0.9975056305876393 -0.01898282226110097 0.0022587980805779282 0.007658677644973553 -0.00024296388810077764 -0.0024134715448215663 0.00026722326163861873 0.0038148979393163546
 0.0002723117173239069 0.0038142685743336137 -0.00024296388810077764 -0.0024134715448215663 0.002258010473537181 0.0076583566709433 0.9975056244350925 -0.018983240020597848
 -0.00024293080632265888 -0.002413468511142169 0.00026722326163861873 0.0038148979393163546 0.9975056244350925 -0.018983240020597848 0.0022588191103622463 0.007658256780221387
0.037515631513130004 0.0024595556403124216 0.009249640317041846 0.9972413426195976 -0.022814171193537392 0.0003386034854056101 0.004579717401275312 -0.00029898057194769484 -0.002900496560952351
 0.9972413426195976 -0.022814171193537392 0.002460641293948156 0.009249522264662711 -0.0002990279684525941 -0.0029004996528008485 0.0003312765695217208 0.00458058801855871
 0.0003386034854056101 0.004579717401275312 -0.0002990279684525941 -0.0029004996528008485 0.0024595083212511004 0.009249144654305163 0.9972413340981282 -0.022814672376928514
 -0.00029898057194769484 -0.002900496560952351 0.0003312765695217208 0.00458058801855871 0.9972413340981282 -0.022814672376928514 0.002460671950528143 0.009249017287828773
0.043768236765320004 0.002674646588050009 0.010857735720556334 0.9969583845192332 -0.026658912949976625 0.0004127293427985998 0.005345951854279186 -0.0003614206813541825 -0.003388634462942314
 0.9969583845192332 -0.026658912949976625 0.002676123290093394 0.0108575898073161 -0.000361484899088207 -0.003388637374481625 0.0004027553434297414 0.005347113181318272
 0.0004127293427985998 0.005345951854279186 -0.000361484899088207 -0.003388637374481625 0.0026745825113787458 0.010857158358048723 0.996958373246469 -0.026659497557556186
 -0.0003614206813541825 -0.003388634462942314 0.0004027553434297414 0.005347113181318272 0.996958373246469 -0.026659497557556186 0.00267616539655693 0.010857000707283761
0.050020842017509996 0.002903594633677113 0.012482640852543313 0.9966564965235154 -0.03051715307830511 0.0004947697286661712 0.006112891019118347 -0.00043033446052856487 -0.003877775973720713
 0.9966564965235154 -0.03051715307830511 0.0029055222513956714 0.012482464496472345 -0.00043041798462228046 -0.0038777784425052253 0.0004817390811384566 0.006114397326353277
 0.0004947697286661712 0.006112891019118347 -0.00043041798462228046 -0.0038777784425052253 0.0029035112628273143 0.012481982115945601 0.9966564821153863 -0.030517821133575502
 -0.00043033446052856487 -0.003877775973720713 0.0004817390811384566 0.006114397326353277 0.9966564821153863 -0.030517821133575502 0.0029055776384569725 0.012481791243789765
0.055454545454549996 0.0031140257069557425 0.013908108072013373 0.9963785706411399 -0.03388107143115992 0.0005725546343113498 0.006779888849328022 -0.0004955437177581187 -0.004303588713116657
 0.9963785706411399 -0.03388107143115992 0.0031163937859347585 0.013907903095772126 -0.000495646021909465 -0.004303590565415215 0.0005565343121401868 0.006781742810664905
 0.0005725546343113498 0.006779888849328022 -0.000495646021909465 -0.004303590565415215 0.003113923509607881 0.013907378913839254 0.9963785531955797 -0.03388181202918631
 -0.0004955437177581187 -0.004303588713116657 0.0005565343121401868 0.006781742810664905 0.9963785531955797 -0.03388181202918631 0.003116462207772548 0.01390715668652337
0.056273447269699996 0.0031466760704094883 0.014124001582439566 0.9963354176425491 -0.03438892649728421 0.0005848041298149178 0.006880447349516815 -0.0005058038625788542 -0.004367816681802615
 0.9963354176425491 -0.03438892649728421 0.003149114448821885 0.014123792114616583 -0.000505909157612346 -0.0043678184214602156 0.0005683063190833308 0.006882357778358509
 0.0005848041298149178 0.006880447349516815 -0.000505909157612346 -0.0043678184214602156 0.0031465708698477793 0.014123261835062316 0.9963353997140064 -0.03438967803191823
 -0.0005058038625788542 -0.004367816681802615 0.0005683063190833308 0.006882357778358509 0.9963353997140064 -0.03438967803191823 0.003149184955925732 0.014123034676363807
0.06252605252188 0.0034041655938616923 0.015781503013466657 0.9959948861731139 -0.038274219754016764 0.0006829109549132961 0.00764852808727407 -0.0005879094575950806 -0.004858652588018752
 0.9959948861731139 -0.038274219754016764 0.003407174568960154 0.015781257678792092 -0.0005880389681487101 -0.004858653288278508 0.0006625345246509793 0.0076509067085883805
 0.0006829109549132961 0.00764852808727407 -0.0005880389681487101 -0.004858653288278508 0.0034040360274481068 0.01578068265667809 0.9959948643355679 -0.038275054807878205
 -0.0005879094575950806 -0.004858652588018752 0.0006625345246509793 0.0076509067085883805 0.9959948643355679 -0.038275054807878205 0.0034072620426909483 0.01578041601843226
0.06877865777407 0.003676336476905667 0.017454856198070405 0.9956346400616795 -0.04217298424469933 0.0007891674270850711 0.00841703612176918 -0.0006767304047325328 -0.005350179249619916
 0.9956346400616795 -0.04217298424469933 0.0036799758895318274 0.017454572155522315 -0.0006768865558577654 -0.00535017857634336 0.0007645000023176775 0.008419951994428774
 0.0007891674270850711 0.00841703612176918 -0.0006768865558577654 -0.00535017857634336 0.0036761800096616172 0.017453955669582015 0.9956346139239558 -0.042173902867930595
 -0.0006767304047325328 -0.005350179249619916 0.0007645000023176775 0.008419951994428774 0.9956346139239558 -0.042173902867930595 0.0036800821845716664 0.017453646230704944
0.07503126302626001 0.003963460660496437 0.019143789688484486 0.9952544171861827 -0.04608514460292552 0.0009036494888023908 0.00918587052645953 -0.0007723444124745659 -0.005842291250591165
 0.9952544171861827 -0.04608514460292552 0.003967790369377934 0.019143464011151964 -0.0007725296100475319 -0.005842288845808192 0.0008742778081121391 0.009189397755785455
 0.0009036494888023908 0.00918587052645953 -0.0007725296100475319 -0.005842288845808192 0.003963274759509245 0.019142809460901904 0.9952543863546492 -0.04608614685785939
 -0.0007723444124745659 -0.005842291250591165 0.0008742778081121391 0.009189397755785455 0.9952543863546492 -0.04608614685785939 0.00396791734867293 0.019142453771607
0.08128386827845 0.004265808787487272 0.020848043932365088 0.9948539555852782 -0.05001060424648046 0.0010264317143646592 0.009954926923619014 -0.0008748276908837441 -0.006334881847097684
 0.9948539555852782 -0.05001060424648046 0.004270888682145199 0.020847673606979568 -0.0008750443217798411 -0.006334877329052174 0.0009919416697072756 0.009959144719509372
 0.0010264317143646592 0.009954926923619014 -0.0008750443217798411 -0.006334877329052174 0.00426559092115801 0.020846984517345298 0.9948539196620176 -0.05001169020386944
 -0.0008748276908837441 -0.006334881847097684 0.0009919416697072756 0.009959144719509372 0.9948539196620176 -0.05001169020386944 0.0042710382161631096 0.02084657899810423
0.08753647353064001 0.004583650199805084 0.022567367383647126 0.9944329936521854 -0.05394924921233247 0.0011575872267251704 0.010724097737987893 -0.0009842548987526274 -0.006827842727572293
 0.9944329936521854 -0.05394924921233247 0.004589540213399298 0.02256694930983247 -0.0009845053310033331 -0.006827835690766566 0.0011175639094938227 0.010729090472591818
 0.0011575872267251704 0.010724097737987893 -0.0009845053310033331 -0.006827835690766566 0.004583397839572482 0.0225662293323739 0.9944329522360434 -0.05395041895133724
 -0.0009842548987526274 -0.006827842727572293 0.0011175639094938227 0.010729090472591818 0.9944329522360434 -0.05395041895133724 0.004589714181502278 0.02256577027252473
0.09378907878283 0.00491725291055183 0.024301513739490757 0.9939912703084939 -0.05790095086957649 0.0012971876172174841 0.011493272378535245 -0.0011006990871516567 -0.007321063848247143
 0.9939912703084939 -0.05790095086957649 0.004924013033286897 0.024301044728454332 -0.0011009856701589412 -0.00732105386346614 0.0012512153692848965 0.0114991296433845
 0.0012971876172174841 0.011493272378535245 -0.0011009856701589412 -0.00732105386346614 0.004916963531167552 0.024300297642774193 0.9939912229941127 -0.057902204477972195
 -0.0011006990871516567 -0.007321063848247143 0.0012512153692848965 0.0114991296433845 0.9939912229941127 -0.057902204477972195 0.004924213322602071 0.024299781198805458
0.100041684035 0.005266883557970404 0.02605023989380766 0.9935285251614608 -0.061865567919653766 0.001445302868021716 0.012262337380494818 -0.0012242316394387735 -0.007814433312195479
 0.9935285251614608 -0.061865567919653766 0.005274573849943758 0.026049716666771795 -0.0012245567040183086 -0.007814419926561815 0.001392965337278521 0.0122691540430065
 0.001445302868021716 0.012262337380494818 -0.0012245567040183086 -0.007814419926561815 0.005266554638084703 0.026048946379766784 0.9935284715387565 -0.06186690549646493
 -0.0012242316394387735 -0.007814433312195479 0.001392965337278521 0.0122691540430065 0.9935284715387565 -0.06186690549646493 0.005274802355772088 0.026048368573026667
0.1059090909091 0.005609788330396706 0.0277042789998355 0.9930749375976807 -0.06559755123684242 0.0015920983525874364 0.012983820098877644 -0.001346662697022659 -0.008277441767697395
 0.9930749375976807 -0.06559755123684242 0.005618406185086564 0.02770370183289272 -0.001347025975780294 -0.00827742475779721 0.001533408445358023 0.01299162808392964
 0.0015920983525874364 0.012983820098877644 -0.001347025975780294 -0.00827742475779721 0.00560942001719467 0.02770291344517688 0.9930748776785351 -0.06559896770674405
 -0.001346662697022659 -0.008277441767697395 0.001533408445358023 0.01299162808392964 0.9930748776785351 -0.06559896770674405 0.005618662900782107 0.02770227431484363
0.1062942892872 0.005632807345408973 0.02781330441617166 0.9930444986504846 -0.06584294787546935 0.0016020012751287243 0.013031176512313012 -0.0013549222099091297 -0.00830783728726768
 0.9930444986504846 -0.06584294787546935 0.00564148794962252 0.027812723602334787 -0.001355288068317744 -0.008307820024283562 0.001542881474851667 0.013039052771578871
 0.0016020012751287243 0.013031176512313012 -0.001355288068317744 -0.008307820024283562 0.005632436368651483 0.02781193415381067 0.993044438305057 -0.06584436952782546
 -0.0013549222099091297 -0.00830783728726768 0.001542881474851667 0.013039052771578871 0.993044438305057 -0.06584436952782546 0.005641746576057607 0.0278112908679606
0.11254689453939999 0.006015287972577201 0.029590466380152596 0.9925389321879657 -0.0698329281955385 0.001767349372871116 0.01379967086554905 -0.00149283866016482 -0.008801159945013346
 0.9925389321879657 -0.0698329281955385 0.006025019128126178 0.029589824514104413 -0.0014932476061342342 -0.008801138304603594 0.001701029744404852 0.013808712307327782
 0.001767349372871116 0.01379967086554905 -0.0014932476061342342 -0.008801138304603594 0.00601487242744061 0.029589020078977048 0.9925388646999991 -0.06983443403933175
 -0.00149283866016482 -0.008801159945013346 0.001701029744404852 0.013808712307327782 0.9925388646999991 -0.06983443403933175 0.006025309787274737 0.029588307056893276
0.11879949979160001 0.006414587556009202 0.03138148445088895 0.9920115682924517 -0.07383533716343775 0.0019414118591197162 0.014567698925559163 -0.0016380469939270231 -0.009294283422818772
 0.9920115682924517 -0.07383533716343775 0.0064254296120205045 0.03138077796968604 -0.001638501302751215 -0.009294256881371542 0.0018674743377897385 0.014578016576444187
 0.0019414118591197162 0.014567698925559163 -0.001638501302751215 -0.009294256881371542 0.00641412493759752 0.031379962860806444 0.9920114932365315 -0.07383692732360941
 -0.0016380469939270231 -0.009294283422818772 0.0018674743377897385 0.014578016576444187 0.9920114932365315 -0.07383692732360941 0.006425754224326299 0.03137917570110952
0.1250521050438 0.006830966546025456 0.03318611616640166 0.99146215071894 -0.07784999457799763 0.0021242515206963434 0.015335136638446415 -0.0017906112912366673 -0.009787087793921748
 0.99146215071894 -0.07784999457799763 0.006842979974268027 0.033185341406173366 -0.001791113219662893 -0.009787055804345237 0.002042277604504454 0.01534684701908449
 0.0021242515206963434 0.015335136638446415 -0.001791113219662893 -0.009787055804345237 0.006830454355934225 0.03318452007711061 0.9914620676639037 -0.0778516691895558
 -0.0017906112912366673 -0.009787087793921748 0.002042277604504454 0.01534684701908449 0.9914620676639037 -0.0778516691895558 0.006843340468653462 0.03318365423020749
0.131304710296 0.007264683636534701 0.03500411736009261 0.9908904245871883 -0.0818767123075277 0.0023159291592625953 0.01610185746604687 -0.0019505936414153195 -0.010279451053494894
 0.9908904245871883 -0.0818767123075277 0.007277929045244267 0.03500327055213463 -0.0019511454276267572 -0.010279413045268604 0.002225499980299209 0.016115082643434135
 0.0023159291592625953 0.01610185746604687 -0.0019511454276267572 -0.010279413045268604 0.007264119384150513 0.03500244760359784 0.9908903330958327 -0.08187847151320747
 -0.0019505936414153195 -0.010279451053494894 0.002225499980299209 0.016115082643434135 0.9908903330958327 -0.08187847151320747 0.007278327359324485 0.035001498367249334
0.1375573155481 0.00761398400332816 0.03659819693407235 0.990398181127821 -0.08567816270318597 0.0024919985508952865 0.016843871838025475 -0.0020936586897814763 -0.01074732527857685
 0.990398181127821 -0.08567816270318597 0.007628527600185795 0.036597292628963336 -0.002094263774686351 -0.010747281238062805 0.0023929100236956854 0.016858588252830892
 0.0024919985508952865 0.016843871838025475 -0.002094263774686351 -0.010747281238062805 0.007613365922546728 0.03659645400934686 0.9903980808158789 -0.08568000656529322
 -0.0020936586897814763 -0.01074732527857685 0.0023929100236956854 0.016858588252830892 0.9903980808158789 -0.08568000656529322 0.007628964851628705 0.03659543553400417
0.1438099208003 0.007975491296816285 0.03818430038193284 0.9898887743431901 -0.08947039792092998 0.0026751953834623986 0.017583074414409868 -0.002242453897210865 -0.011212666005601188
 0.9898887743431901 -0.08947039792092998 0.007991394755955271 0.0381833358424034 -0.002243114708940435 -0.011212615371312597 0.0025670669595323267 0.01759939319345692
 0.0026751953834623986 0.017583074414409868 -0.002243114708940435 -0.011212615371312597 0.007974817038540378 0.03818248511539093 0.9898886647755865 -0.08947232657582518
 -0.002242453897210865 -0.011212666005601188 0.0025670669595323267 0.01759939319345692 0.9898886647755865 -0.08947232657582518 0.007991872745324933 0.0381813937620139
0.1500625260525 0.008349083753803322 0.03976230759019389 0.9893623296529227 -0.09325333631822641 0.002865460335175505 0.018319395956051976 -0.0023969225001207626 -0.011675409086270759
 0.9893623296529227 -0.09325333631822641 0.008366408917459635 0.039761279890831176 -0.002397641463513606 -0.011675351273956976 0.0027479136102050634 0.0183374322621305
 0.002865460335175505 0.018319395956051976 -0.002397641463513606 -0.011675351273956976 0.008348350984615453 0.03976042083959641 0.989362210389503 -0.09325534990781609
 -0.0023969225001207626 -0.011675409086270759 0.0027479136102050634 0.0183374322621305 0.989362210389503 -0.09325534990781609 0.008366929443518337 0.0397592527468982
0.15631513130469998 0.008734638814820124 0.04133210213142616 0.9888189730376779 -0.09702689629104358 0.0030627334197805643 0.019052768323028612 -0.00255700707203128 -0.0121354916783566
 0.9888189730376779 -0.09702689629104358 0.008753447698084522 0.0413310081521364 -0.002557786608557839 -0.012135426081079162 0.0029353921645396425 0.019072641313944122
