! Created with skrf 1.8.0 (http://scikit-rf.org).
# GHz S RI R 50.0 
!freq ReS11 ImS11 ReS12 ImS12 ReS13 ImS13
! ReS14 ImS14
! ReS21 ImS21 ReS22 ImS22 ReS23 ImS23
! ReS24 ImS24
! ReS31 ImS31 ReS32 ImS32 ReS33 ImS33
! ReS34 ImS34
! ReS41 ImS41 ReS42 ImS42 ReS43 ImS43
! ReS44 ImS44
!
0.0 0.001661261424059 0.0 0.9983387385759 0.0 6.46110812293e-05 0.0 -6.46110811406e-05 7.91257537082857e-21
 0.9983387385759 0.0 0.001661261424089 0.0 -6.46110811415e-05 7.912575370938789e-21 6.461108123042e-05 0.0
 6.46110812293e-05 0.0 -6.46110811415e-05 7.912575370938789e-21 0.001661261421238 0.0 0.9983387385731 0.0
 -6.46110811406e-05 7.91257537082857e-21 6.461108123042e-05 0.0 0.9983387385731 0.0 0.001661261421217 0.0
0.005 0.0017878320097125158 0.001352481579446105 0.9981785385384223 -0.003479822235789647 9.164947932162098e-05 0.0007496478478965305 -8.880359084845527e-05 -0.000463866286201108
 0.9981785385384223 -0.003479822235789647 0.001787818483606919 0.0013524894481491065 -8.880192263979168e-05 -0.00046386495896858746 9.174053751919159e-05 0.0007496131735984823
 9.164947932162098e-05 0.0007496478478965305 -8.880192263979168e-05 -0.00046386495896858746 0.0017878327231572301 0.0013524138439493343 0.9981785381664144 -0.0034798893021011092
 -8.880359084845527e-05 -0.000463866286201108 9.174053751919159e-05 0.0007496131735984823 0.9981785381664144 -0.0034798893021011092 0.0017878170393007176 0.001352423064968327
0.006252605252188 0.0018211419760515814 0.0016959355692901944 0.9981360953370824 -0.0043506137420893 9.942503712209307e-05 0.0009373988717251961 -9.569365073154175e-05 -0.0005804341562811984
 0.9981360953370824 -0.0043506137420893 0.0018211208324507993 0.001695945565716285 -9.569105522646155e-05 -0.0005804325190836005 9.956730659406839e-05 0.0009373538295761409
 9.942503712209307e-05 0.0009373988717251961 -9.569105522646155e-05 -0.0005804325190836005 0.0018211431723041838 0.001695850901280586 0.9981360948359742 -0.004350697574474229
 -9.569365073154175e-05 -0.0005804341562811984 9.956730659406839e-05 0.0009373538295761409 0.9981360948359742 -0.004350697574474229 0.001821118654922024 0.0016958625995170526
0.01250521050438 0.001997158067382346 0.0034274585786126565 0.9979102592900572 -0.008701937087733574 0.00014428512312221676 0.001875000325700099 -0.00013510675731339317 -0.0011636403068298734
 0.9979102592900572 -0.008701937087733574 0.0019970736435535414 0.003427480174076021 -0.00013509653325584548 -0.0011636372726848818 0.00014485245430605705 0.0018748918224017269
 0.00014428512312221676 0.001875000325700099 -0.00013509653325584548 -0.0011636372726848818 0.0019971634013256365 0.003427289519860812 0.9979102578333394 -0.008702104516292337
 -0.00013510675731339317 -0.0011636403068298734 0.00014485245430605705 0.0018748918224017269 0.9979102578333394 -0.008702104516292337 0.0019970654917147858 0.003427314655207912
0.01875781575657 0.002189717774281712 0.00518359544371532 0.9976609328735203 -0.013064539198187041 0.00019929946365162637 0.0028134575638305926 -0.00018297776818704533 -0.0017487087946790676
 0.9976609328735203 -0.013064539198187041 0.0021895280748424344 0.005183630320532832 -0.0001829549747367868 -0.0017487046516583861 0.0002005738931647933 0.002813263375762282
 0.00019929946365162637 0.0028134575638305926 -0.0001829549747367868 -0.0017487046516583861 0.0021897302067770924 0.0051833421306885456 0.997660930018162 -0.013064790203996361
 -0.00018297776818704533 -0.0017487087946790676 0.0002005738931647933 0.002813263375762282 0.997660930018162 -0.013064790203996361 0.0021895101766905923 0.005183382587080805
0.02501042100875 0.002399215713298596 0.006961844549812915 0.9973878062177788 -0.017440503940328318 0.0002645771379455244 0.003752801646179367 -0.00023942918013578074 -0.0023353444962525495
 0.9973878062177788 -0.017440503940328318 0.0023988788277099996 0.006961894454946044 -0.00023938893790974013 -0.002335339585292797 0.00026684078540957436 0.0037524958649466796
 0.0002645771379455244 0.003752801646179367 -0.00023938893790974013 -0.002335339585292797 0.0023992382078373087 0.006961507149750552 0.997387801508023 -0.01744083855164936
 -0.00023942918013578074 -0.0023353444962525495 0.00026684078540957436 0.0037524958649466796 0.997387801508023 -0.01744083855164936 0.002398847410365813 0.006961564938622519
0.03126302626094 0.0026260301218586466 0.008760902497427803 0.9970905545687153 -0.021830703612859867 0.00034022730779074446 0.00469297217517354 -0.00030457955115475673 -0.0029233362484513913
 0.9970905545687153 -0.021830703612859867 0.002625504198519699 0.008760969239167962 -0.00030451703181691084 -0.002923330963913917 0.00034376262968253035 0.004692525185422696
 0.00034022730779074446 0.00469297217517354 -0.00030451703181691084 -0.002923330963913917 0.0026260656592074316 0.008760481194388514 0.997090547547172 -0.021831121919180185
 -0.00030457955115475673 -0.0029233362484513913 0.00034376262968253035 0.004692525185422696 0.997090547547172 -0.021831121919180185 0.0026254555010898238 0.008760558451717878
0.037515631513130004 0.0028705307339788656 0.010579907300834863 0.9967688464751266 -0.026235555688076413 0.00042635816949282917 0.005633872436394006 -0.00037854439808574815 -0.0035125017367708014
 0.9967688464751266 -0.026235555688076413 0.00286977396247996 0.01057999274686607 -0.0003784548191643145 -0.0035124965265714843 0.00043144806853760156 0.005633250878943479
 0.00042635816949282917 0.005633872436394006 -0.0003784548191643145 -0.0035124965265714843 0.0028705823087657283 0.01057940231614767 0.9967688366754793 -0.026236057819602573
 -0.00037854439808574815 -0.0035125017367708014 0.00043144806853760156 0.005633250878943479 0.9967688366754793 -0.026236057819602573 0.002869704230848992 0.01057950130134487
0.043768236765320004 0.003133081803512755 0.012418208102470185 0.9964223471221861 -0.030655253027998028 0.000523076448123171 0.006575386177075378 -0.00046143651067463124 -0.00410267073943111
 0.9964223471221861 -0.030655253027998028 0.0031320523994905537 0.012418314178684449 -0.000461315132417463 -0.004102666105041471 0.0005300043206112428 0.006574552907536441
 0.000523076448123171 0.006575386177075378 -0.000461315132417463 -0.004102666105041471 0.003133152426862526 0.012417619695272377 0.9964223340692856 -0.030655839154931225
 -0.00046143651067463124 -0.00410267073943111 0.0005300043206112428 0.006574552907536441 0.9964223340692856 -0.030655839154931225 0.003131957888777999 0.012417742790897112
0.050020842017509996 0.0034140435035077727 0.014275269990295868 0.99605072004445 -0.03508985899689204 0.0006304870865815953 0.007517384547567573 -0.000553366054397066 -0.004693678210220235
 0.99605072004445 -0.03508985899689204 0.0034126996952795145 0.014275398680007979 -0.0005532081777517137 -0.00469367470663096 0.0006395368369247165 0.007516298593183937
 0.0006304870865815953 0.007517384547567573 -0.0005532081777517137 -0.00469367470663096 0.003414136204802793 0.014274598458125344 0.9960507032526478 -0.03509052932857467
 -0.000553366054397066 -0.004693678210220235 0.0006395368369247165 0.007516298593183937 0.9960507032526478 -0.03509052932857467 0.003412576671616932 0.014274748170129336
0.055454545454549996 0.0036734366006097446 0.01590398645032618 0.9957070962636343 -0.03895576001073012 0.0007325936865169325 0.00833629623281209 -0.0006406787095552877 -0.005207835758971958
 0.9957070962636343 -0.03895576001073012 0.0036717856423613437 0.015904136446937625 -0.0006404853291383613 -0.0052078337303172 0.0007437183687114789 0.008334954406469395
 0.0007325936865169325 0.00833629623281209 -0.0006404853291383613 -0.0052078337303172 0.0036735509648473264 0.015903242949846408 0.9957070758199736 -0.038956503720737015
 -0.0006406787095552877 -0.005207835758971958 0.0007437183687114789 0.008334954406469395 0.9957070758199736 -0.038956503720737015 0.0036716348181779646 0.01590341792381589
0.056273447269699996 0.003713772627808373 0.016150627290674017 0.9956536281443783 -0.03953935410102011 0.0007486930181970048 0.008459729501286341 -0.000654440581440559 -0.005285360907121609
 0.9956536281443783 -0.03953935410102011 0.0037120726438177095 0.016150780634353934 -0.0006542415467705802 -0.005285359142775392 0.000760149053249797 0.008458346017090597
 0.0007486930181970048 0.008459729501286341 -0.0006542415467705802 -0.005285359142775392 0.0037138904574025807 0.016149872964370964 0.9956536071171618 -0.03954010889074136
 -0.000654440581440559 -0.005285360907121609 0.000760149053249797 0.008458346017090597 0.9956536071171618 -0.03954010889074136 0.003711917386762119 0.016150051922837822
0.06252605252188 0.0040326229585694266 0.018043857883650802 0.9952307343817636 -0.04400366161089382 0.0008777949798460246 0.009402275685794981 -0.0007647649956333476 -0.005877555535274117
 0.9952307343817636 -0.04400366161089382 0.004030525014872907 0.018044037979072905 -0.000764520181781711 -0.0058775561720091725 0.0008919421901773262 0.009400545910596523
 0.0008777949798460246 0.009402275685794981 -0.000764520181781711 -0.0058775561720091725 0.004032768987641898 0.0180430211405801 0.9952307086090982 -0.04400450114224579
 -0.0007647649956333476 -0.005877555535274117 0.0008919421901773262 0.009400545910596523 0.9952307086090982 -0.04400450114224579 0.004030333817802711 0.018043232100859563
0.06877865777407 0.0043709454424915835 0.01995456791057212 0.9947817022766903 -0.048482662797345935 0.0010178913499601964 0.010344871568885904 -0.0008844414887156921 -0.0064700976611043
 0.9947817022766903 -0.048482662797345935 0.004368407731271744 0.019954776913219157 -0.0008841463124401958 -0.0064701014140612564 0.001035015081605621 0.010342742781381458
 0.0010178913499601964 0.010344871568885904 -0.0008841463124401958 -0.0064701014140612564 0.0043711227657811675 0.019953649159109695 0.9947816712343718 -0.048483587399236465
 -0.0008844414887156921 -0.0064700976611043 0.001035015081605621 0.010342742781381458 0.9947816712343718 -0.048483587399236465 0.004368176904008174 0.019953895003383446
0.07503126302626001 0.004729088260600588 0.021882382062731354 0.9943061963095148 -0.05297620659300269 0.0011690779997082519 0.011287360163547805 -0.0010135694605756362 -0.007062821034132021
 0.9943061963095148 -0.05297620659300269 0.004726068937591729 0.021882622186805513 -0.0010132193760891458 -0.007062828671683336 0.0011894640187926732 0.011284775638831679
 0.0011690779997082519 0.011287360163547805 -0.0010132193760891458 -0.007062828671683336 0.004729299997216756 0.021881381753141405 0.9943061594573789 -0.05297721662831589
 -0.0010135694605756362 -0.007062821034132021 0.0011894640187926732 0.011284775638831679 0.9943061594573789 -0.05297721662831589 0.00472579480814489 0.021881665492390033
0.08128386827845 0.0051073968257814755 0.023826937138586548 0.9938038822542697 -0.057484115993034296 0.0013314481517902007 0.012229579524654217 -0.001152245429397304 -0.00765555714406335
 0.9938038822542697 -0.057484115993034296 0.005103853999177608 0.023827210658272712 -0.0011518359281984234 -0.007655569487712911 0.0013553826035400626 0.012226478491126914
 0.0013314481517902007 0.012229579524654217 -0.0011518359281984234 -0.007655569487712911 0.005107646121321186 0.023825855758263088 0.9938038390347652 -0.05748521186266087
 -0.001152245429397304 -0.00765555714406335 0.0013553826035400626 0.012226478491126914 0.9938038390347652 -0.05748521186266087 0.005103532915681232 0.023826180534643044
0.08753647353064001 0.005506213736163231 0.0257878775892714 0.9932744274705863 -0.06200619247492069 0.0015050922462113393 0.013171363097950145 -0.0013005629330359672 -0.008248134932715874
 0.9932744274705863 -0.06200619247492069 0.00550210545418754 0.025788186840560744 -0.0013000895436842774 -0.008248152857020475 0.0015328616095462598 0.01316768069492566
 0.0015050922462113393 0.013171363097950145 -0.0013000895436842774 -0.008248152857020475 0.005506503763487306 0.025786715662492316 0.9932743773073235 -0.062007374617354796
 -0.0013005629330359672 -0.008248134932715874 0.0015328616095462598 0.01316768069492566 0.9932743773073235 -0.062007374617354796 0.005501733787052722 0.025787084752133822
0.09378907878283 0.005925878694764741 0.027764852340540245 0.9927175011672316 -0.06654221915037287 0.0016900978084731114 0.01411253998499941 -0.0014586124264026558 -0.008840380597525763
 0.9927175011672316 -0.06654221915037287 0.0059211629343634015 0.027765199723274757 -0.001458070714596966 -0.008840405029972697 0.0017219888465852431 0.014108207220894856
 0.0016900978084731114 0.01411253998499941 -0.001458070714596966 -0.008840405029972697 0.005926212656279935 0.02776361042905749 0.9927174434637007 -0.0665434880402986
 -0.0014586124264026558 -0.008840380597525763 0.0017219888465852431 0.014108207220894856 0.9927174434637007 -0.0665434880402986 0.005920737078134134 0.02776402724531695
0.100041684035 0.006366728407606572 0.029757512466639564 0.9921327746469597 -0.07109196307362581 0.0018865493213421204 0.01505293514724502 -0.0016264811742268386 -0.009432117463462203
 0.9921327746469597 -0.07109196307362581 0.006361363061871491 0.029757900447327276 -0.0016258667427394159 -0.009432149384381278 0.001922849028982301 0.015047878858654178
 0.0018865493213421204 0.01505293514724502 -0.0016258667427394159 -0.009432149384381278 0.006367109536135498 0.029756191167200685 0.9921327087843566 -0.07109331922345936
 -0.0016264811742268386 -0.009432117463462203 0.001922849028982301 0.015047878858654178 0.9921327087843566 -0.07109331922345936 0.006360879437591065 0.029756659264373136
0.1059090909091 0.006799983606679822 0.03164136787086792 0.9915584960734504 -0.07537367078202999 0.002081380670763783 0.015934525888172867 -0.00179301353309349 -0.009986777026846526
 0.9915584960734504 -0.07537367078202999 0.006793970313488955 0.031641796253665304 -0.001792326895832902 -0.009986816913464867 0.002122078623301038 0.015928720355741912
 0.002081380670763783 0.015934525888172867 -0.001792326895832902 -0.009986816913464867 0.006800411965372571 0.031639972648781794 0.9915584219710688 -0.07537510931425719
 -0.00179301353309349 -0.009986777026846526 0.002122078623301038 0.015928720355741912 0.9915584219710688 -0.07537510931425719 0.006793429250472411 0.031640492229376975
0.1062942892872 0.006829096463112257 0.03176550945409661 0.9915199215367231 -0.07565517696873693 0.0020945280975584036 0.01599236957588006 -0.0018042531416928213 -0.01002316589701048
 0.9915199215367231 -0.07565517696873693 0.0068230393298324265 0.03176594056886947 -0.0018035616305330847 -0.010023206339444129 0.0021355236456049136 0.015986512387382305
 0.0020945280975584036 0.01599236957588006 -0.0018035616305330847 -0.010023206339444129 0.006829528023650223 0.03176410939942429 0.9915198468730954 -0.07565662092672412
 -0.0018042531416928213 -0.01002316589701048 0.0021355236456049136 0.015986512387382305 0.9915198468730954 -0.07565662092672412 0.006822494387115469 0.031764632476832616
0.11254689453939999 0.007313313200477668 0.03378849387198721 0.9908786180094781 -0.08023160055938604 0.0023141121550704817 0.016930660430462565 -0.0019920088824563003 -0.010613343259346686
 0.9908786180094781 -0.08023160055938604 0.0073065219695936925 0.0337889707302817 -0.0019912359689693887 -0.01061339330894503 0.0023600908321096715 0.016923920715428118
 0.0023141121550704817 0.016930660430462565 -0.0019912359689693887 -0.01061339330894503 0.007313798491925269 0.03378701572881389 0.9908785338779786 -0.08023313291046494
 -0.0019920088824563003 -0.010613343259346686 0.0023600908321096715 0.016923920715428118 0.9908785338779786 -0.08023313291046494 0.007305912189032277 0.03378759763549097
0.11879949979160001 0.007819705566432944 0.035826114350396066 0.9902085429987966 -0.08482096160006028 0.002545376092539264 0.017867621164999962 -0.0021898254255600827 -0.011202463880204863
 0.9902085429987966 -0.08482096160006028 0.007812137808318571 0.03582663963893422 -0.002188966824673034 -0.011202524675093849 0.002596625244454478 0.017859913007255732
 0.002545376092539264 0.017867621164999962 -0.002188966824673034 -0.011202524675093849 0.007820247922685469 0.03582455881963576 0.990208448705795 -0.08482258296448074
 -0.0021898254255600827 -0.011202463880204863 0.002596625244454478 0.017859913007255732 0.990208448705795 -0.08482258296448074 0.00781145970336952 0.03582520355939735
0.1250521050438 0.008348596964731926 0.03787801677585994 0.9895093784072225 -0.08942297669944765 0.002788390966492005 0.018803061638537257 -0.0023977761612648946 -0.011790339055379843
 0.9895093784072225 -0.08942297669944765 0.008340210117799843 0.03787859326328951 -0.0023968276256766587 -0.011790411786013286 0.002845197933577015 0.01879429479516695
 0.002788390966492005 0.018803061638537257 -0.0023968276256766587 -0.011790411786013286 0.008349199756440637 0.03787638459080875 0.9895092732311652 -0.08942468773333112
 -0.0023977761612648946 -0.011790339055379843 0.002845197933577015 0.01879429479516695 0.9895092732311652 -0.08942468773333112 0.008339460237371187 0.03787709632788941
0.131304710296 0.008900307099329994 0.039943843656837806 0.9887808093125353 -0.09403735198402943 0.003043224169299171 0.01973678822182748 -0.0026159307260432314 -0.012376777056582106
 0.9887808093125353 -0.09403735198402943 0.008891058457723894 0.039944474198775455 -0.0026148880464651456 -0.012376862965591122 0.003105876221316331 0.019726868086960045
 0.003043224169299171 0.01973678822182748 -0.0026148880464651456 -0.012376862965591122 0.008900973735341735 0.03994213558383215 0.9887806925020237 -0.09403915337730573
 -0.0026159307260432314 -0.012376777056582106 0.003105876221316331 0.019726868086960045 0.9887806925020237 -0.09403915337730573 0.008890233388709328 0.0399429186489151
0.1375573155481 0.009352941021956277 0.04175273739081866 0.9881447925988243 -0.09839313188972149 0.003278802183724188 0.020641601710658743 -0.002813152172307091 -0.012934658588634915
 0.9881447925988243 -0.09839313188972149 0.009342783879182191 0.04175340987335053 -0.0028120089579074465 -0.01293475783762029 0.00334744239183565 0.020630538237095028
 0.003278802183724188 0.020641601710658743 -0.0028120089579074465 -0.01293475783762029 0.009353673915708228 0.04175095428840737 0.988144663596151 -0.09839502409027398
 -0.002813152172307091 -0.012934658588634915 0.00334744239183565 0.020630538237095028 0.988144663596151 -0.09839502409027398 0.009341880868296971 0.041751797509205796
0.1438099208003 0.009821615829335639 0.04355127457557557 0.9874861701024797 -0.10273705840349066 0.0035238731160825783 0.021542361905115638 -0.0030182451202053233 -0.01348878313955942
 0.9874861701024797 -0.10273705840349066 0.009810506672607178 0.04355199100736434 -0.003016996824018825 -0.013488896960855552 0.0035987626313161523 0.02153006815665845
 0.0035238731160825783 0.021542361905115638 -0.003016996824018825 -0.013488896960855552 0.009822418266609104 0.043549417293052485 0.9874860281528312 -0.10273904209509988
 -0.0030182451202053233 -0.01348878313955942 0.0035987626313161523 0.02153006815665845 0.9874860281528312 -0.10273904209509988 0.00980952247925502 0.04355032413697558
0.1500625260525 0.010306154571705495 0.0453392808850832 0.9868051235712514 -0.1070689994521983 0.0037783449509950673 0.022438963867115854 -0.003231119091647598 -0.014039050172859505
 0.9868051235712514 -0.1070689994521983 0.010294049728984124 0.04534004343133465 -0.003229761177028483 -0.014039179848514117 0.0038597431963912324 0.022425349735057457
 0.0037783449509950673 0.022438963867115854 -0.003229761177028483 -0.014039179848514117 0.010307029864335002 0.045337350304431624 0.9868049678942674 -0.10707107534348821
 -0.003231119091647598 -0.014039050172859505 0.0038597431963912324 0.022425349735057457 0.9868049678942674 -0.10707107534348821 0.010292981156965385 0.04533832445348136
0.15631513130469998 0.010806378891677203 0.04711658720131773 0.9861018358494333 -0.1113888239610133 0.00404212450144551 0.023331304609596867 -0.003451682410740044 -0.014585361421174912
 0.9861018358494333 -0.1113888239610133 0.01079323452758859 0.04711739819055277 -0.0034502103516894133 -0.014585508282713306 0.004130289143551964 0.023316276848568913
