! Created with skrf 1.8.0 (http://scikit-rf.org).
# GHz S RI R 50.0 
!freq ReS11 ImS11 ReS12 ImS12 ReS13 ImS13
! ReS14 ImS14
! ReS21 ImS21 ReS22 ImS22 ReS23 ImS23
! ReS24 ImS24
! ReS31 ImS31 ReS32 ImS32 ReS33 ImS33
! ReS34 ImS34
! ReS41 ImS41 ReS42 ImS42 ReS43 ImS43
! ReS44 ImS44
!
0.0 0.001633658264061 0.0 0.9983663417359 0.0 6.290798578523e-05 0.0 -6.290798560719e-05 7.7040063214653e-21
 0.9983663417359 0.0 0.001633658264081 0.0 -6.290798560749e-05 7.70400632150204e-21 6.290798578475e-05 0.0
 6.290798578523e-05 0.0 -6.290798560749e-05 7.70400632150204e-21 0.00163365825554 0.0 0.9983663417274 0.0
 -6.290798560719e-05 7.7040063214653e-21 6.290798578475e-05 0.0 0.9983663417274 0.0 0.001633658255543 0.0
0.005 0.0017578899934939344 0.0013410591840889083 0.9982091391653358 -0.003421469061282733 8.760023009795546e-05 0.0006642746199143485 -8.518316420893905e-05 -0.0004219543493814814
 0.9982091391653358 -0.003421469061282733 0.001757917349107407 0.0013410432671571233 -8.518452550686218e-05 -0.00042195543909138343 8.742710011637849e-05 0.00066434058609716
 8.760023009795546e-05 0.0006642746199143485 -8.518452550686218e-05 -0.00042195543909138343 0.0017578886935195187 0.0013409927213323312 0.9982091387996773 -0.0034215361213266174
 -8.518316420893905e-05 -0.0004219543493814814 8.742710011637849e-05 0.00066434058609716 0.9982091387996773 -0.0034215361213266174 0.0017579179251647251 0.0013409756161306616
0.006252605252188 0.0017905487723319877 0.0016815657661454241 0.9981675396455704 -0.004277658103864026 9.470457039298227e-05 0.0008306728038355295 -9.14997725061705e-05 -0.0005279771407348613
 0.9981675396455704 -0.004277658103864026 0.0017905915332976233 0.001681545533180607 -9.150189042675787e-05 -0.0005279784851046245 9.443407213637252e-05 0.0008307584780605493
 9.470457039298227e-05 0.0008306728038355295 -9.150189042675787e-05 -0.0005279784851046245 0.0017905468123425926 0.0016814827065683767 0.9981675391464748 -0.00427774191905121
 -9.14997725061705e-05 -0.0005279771407348613 9.443407213637252e-05 0.0008307584780605493 0.9981675391464748 -0.00427774191905121 0.0017905925069778604 0.0016814609765055102
0.01250521050438 0.0019629175127782884 0.0033980586431598585 0.9979464750336388 -0.008556002110939816 0.00013570906364651872 0.0016617474037302305 -0.00012748671920083724 -0.0010584352302510803
 0.9979464750336388 -0.008556002110939816 0.0019630882471933626 0.0033980147699994613 -0.00012749506144829224 -0.0010584377237170053 0.00013463040423915151 0.0016619535894277016
 0.00013570906364651872 0.0016617474037302305 -0.00012749506144829224 -0.0010584377237170053 0.0019629102465745316 0.003397892867637701 0.9979464736049402 -0.008556169518257238
 -0.00012748671920083724 -0.0010584352302510803 0.00013463040423915151 0.0016619535894277016 0.9979464736049402 -0.008556169518257238 0.0019630927090013082 0.0033978458632070085
0.01875781575657 0.0021511579441737356 0.005138714179977377 0.9977028609575155 -0.012845420057594906 0.0001860185172070452 0.002493731637072813 -0.00017098217257644686 -0.0015906385429712688
 0.9977028609575155 -0.012845420057594906 0.0021515415718246964 0.005138642990008538 -0.0001710007699521743 -0.0015906419516984465 0.00018359548892249707 0.002494100301779164
 0.0001860185172070452 0.002493731637072813 -0.0001710007699521743 -0.0015906419516984465 0.002151142032202798 0.005138465967417416 0.9977028581685862 -0.01284567098073498
 -0.00017098217257644686 -0.0015906385429712688 0.00018359548892249707 0.002494100301779164 0.9977028581685862 -0.01284567098073498 0.002151552040611202 0.005138389815418639
0.02501042100875 0.0023556508718451524 0.0069010863686035364 0.9974363986543495 -0.01714796902257757 0.0002457316957565916 0.0033266359465021415 -0.00022209564567935304 -0.0021243422682942696
 0.9974363986543495 -0.01714796902257757 0.0023563321308723247 0.0069009839443422176 -0.00022212847867023646 -0.0021243463157514654 0.00024142794241860055 0.003327215955980349
 0.0002457316957565916 0.0033266359465021415 -0.00022212847867023646 -0.0021243463157514654 0.002355622975296264 0.006900756024903657 0.9974363940710577 -0.017148303439387797
 -0.00022209564567935304 -0.0021243422682942696 0.00024142794241860055 0.003327215955980349 0.9974363940710577 -0.017148303439387797 0.0023563511305356956 0.0069006465539501625
0.03126302626094 0.002576761378388707 0.008683905957273658 0.9971467747419318 -0.021464516797314138 0.00031494770872530765 0.004160397383357821 -0.00028093344627215245 -0.002659368397067542
 0.9971467747419318 -0.021464516797314138 0.00257782487305563 0.0086837681463451 -0.0002809844535294342 -0.002659372763580298 0.00030822623685193985 0.004161244541980384
 0.00031494770872530765 0.004160397383357821 -0.0002809844535294342 -0.002659372763580298 0.0025767181625985544 0.008683493825545471 0.9971467679293571 -0.02146493473004682
 -0.00028093344627215245 -0.002659368397067542 0.00030822623685193985 0.004161244541980384 0.9971467679293571 -0.02146493473004682 0.0025778549378337257 0.008683346571628026
0.037515631513130004 0.0028148464786412193 0.010486337391775478 0.996833669144842 -0.025795484882610416 0.0003937649822043482 0.004994923645518296 -0.0003475993809232625 -0.0031955616827590376
 0.996833669144842 -0.025795484882610416 0.0028163767115746427 0.010486159809677865 -0.00034767246358668205 -0.003195566005393937 0.0003840879476457518 0.004996100764830257
 0.0003937649822043482 0.004994923645518296 -0.00034767246358668205 -0.003195566005393937 0.002814784611316984 0.010485843886301414 0.9968336596644282 -0.02579598636448528
 -0.0003475993809232625 -0.0031955616827590376 0.0003840879476457518 0.004996100764830257 0.9968336596644282 -0.02579598636448528 0.0028164203850404323 0.010485654095030737
0.043768236765320004 0.003070258075729164 0.012307752714202433 0.9964967583277813 -0.0301410745166512 0.00048228076419870906 0.0058301064768215335 -0.0004221950016975298 -0.003732776249706854
 0.9964967583277813 -0.0301410745166512 0.003072339473996772 0.012307530745980741 -0.00042229402598930476 -0.003732780122276431 0.0004691093768148045 0.005831683452813523
 0.00048228076419870906 0.0058301064768215335 -0.00042229402598930476 -0.003732780122276431 0.0030701742279977285 0.012307178303703406 0.9964967457372271 -0.030141659609225213
 -0.0004221950016975298 -0.003732776249706854 0.0004691093768148045 0.005831683452813523 0.9964967457372271 -0.030141659609225213 0.0030723993101408405 0.012306940931146936
0.050020842017509996 0.0033433443265265205 0.014147638096967298 0.9961357169423776 -0.03450136006607105 0.0005805908255609874 0.006665827204890545 -0.0005048196824024758 -0.00427087006804175
 0.9961357169423776 -0.03450136006607105 0.0033460612643810292 0.014147366898000469 -0.0005049484812733732 -0.004270873041134273 0.0005633853166120127 0.006667881098775715
 0.0005805908255609874 0.006665827204890545 -0.0005049484812733732 -0.004270873041134273 0.0033432351733409214 0.014146983312532271 0.9961357007945231 -0.034502028851987804
 -0.0005048196824024758 -0.00427087006804175 0.0005633853166120127 0.006667881098775715 0.9961357007945231 -0.034502028851987804 0.0033461398279745736 0.014146693025192602
0.055454545454549996 0.003595286627243163 0.015761206945148695 0.9958021107446164 -0.03830251152006533 0.0006740525106294063 0.007392432697749501 -0.0005832191574951549 -0.004739094541891471
 0.9958021107446164 -0.03830251152006533 0.0035986243653393503 0.015760888850435036 -0.000583376919212171 -0.0047390963348057525 0.0006529021131810279 0.007394969257579947
 0.0006740525106294063 0.007392432697749501 -0.000583376919212171 -0.0047390963348057525 0.003595152786560999 0.01576048279326102 0.9958020911383769 -0.038303253121798234
 -0.0005832191574951549 -0.004739094541891471 0.0006529021131810279 0.007394969257579947 0.9958020911383769 -0.038303253121798234 0.0035987212956712757 0.015760141964403625
0.056273447269699996 0.003634450332221799 0.016005547982435645 0.9957502188057412 -0.03887633481371981 0.0006887892431665543 0.007501959461352255 -0.0005955706226846678 -0.004809702251194945
 0.9957502188057412 -0.03887633481371981 0.0036378871522244165 0.016005222478513163 -0.000595732996935487 -0.004809703832233037 0.0006670088706603979 0.0075045745817671336
 0.0006887892431665543 0.007501959461352255 -0.000595732996935487 -0.004809703832233037 0.0036343125535324454 0.016004813418120253 0.9957501986481423 -0.03887708739670499
 -0.0005955706226846678 -0.004809702251194945 0.0006670088706603979 0.0075045745817671336 0.9957501986481423 -0.03887708739670499 0.003637987019543207 0.01600446459209544
0.06252605252188 0.003943918503750487 0.017881079862434906 0.9953399375571415 -0.04326593611003545 0.0008069682266936028 0.008338370682360674 -0.0006945428128239883 -0.005349131578351616
 0.9953399375571415 -0.04326593611003545 0.003948159536837471 0.017880694749049058 -0.0006947425318430974 -0.005349131231632828 0.000780071305922862 0.00834163866799615
 0.0008069682266936028 0.008338370682360674 -0.0006947425318430974 -0.005349131231632828 0.0039437487855435395 0.01788026618075997 0.9953399129314626 -0.04326677260996978
 -0.0006945428128239883 -0.005349131578351616 0.000780071305922862 0.00834163866799615 0.9953399129314626 -0.04326677260996978 0.003948283296531623 0.017879852900363577
0.06877865777407 0.004272088742821846 0.019773859250563627 0.9949045471357528 -0.047670060336930095 0.000935217968444435 0.009174923011785673 -0.0008018289772090751 -0.005889015619726489
 0.9949045471357528 -0.047670060336930095 0.004277218327447542 0.01977340899181684 -0.0008020697795122477 -0.005889012766503147 0.0009026619203097983 0.009178942913873375
 0.000935217968444435 0.009174923011785673 -0.0008020697795122477 -0.005889012766503147 0.004271883777544059 0.019772967176509497 0.9949045175765217 -0.047670980896438245
 -0.0008018289772090751 -0.005889015619726489 0.0009026619203097983 0.009178942913873375 0.9949045175765217 -0.047670980896438245 0.004277368580285085 0.019772483232136453
0.07503126302626001 0.004619298516903043 0.021683530152127505 0.9944437221576347 -0.052088572379850547 0.0010736265074421851 0.010011473876815538 -0.0009175195038034448 -0.0064292101952373015
 0.9944437221576347 -0.052088572379850547 0.004625401018891025 0.02168300897869977 -0.0009178050974229378 -0.006429204213767318 0.0010348679204981032 0.010016352241094062
 0.0010736265074421851 0.010011473876815538 -0.0009178050974229378 -0.006429204213767318 0.00461905500538591 0.02168256047914497 0.9944436871919821 -0.05208957715880216
 -0.0009175195038034448 -0.0064292101952373015 0.0010348679204981032 0.010016352241094062 0.9944436871919821 -0.05208957715880216 0.004625580378727973 0.02168199936451959
0.08128386827845 0.004985882867925155 0.023609748731366006 0.9939571382290548 -0.05652131190872166 0.0012222796020701315 0.010847876383170066 -0.0010417023652110485 -0.006969569019520709
 0.9939571382290548 -0.05652131190872166 0.0049930426989411286 0.023609150637941417 -0.0010420364278494458 -0.006969559245146841 0.0011767743049098116 0.010853727331040992
 0.0012222796020701315 0.010847876383170066 -0.0010420364278494458 -0.006969559245146841 0.0049855975201936855 0.023608702319524395 0.9939570973759355 -0.056522401086496844
 -0.0010417023652110485 -0.006969569019520709 0.0011767743049098116 0.010853727331040992 0.9939570973759355 -0.056522401086496844 0.004993253793514667 0.023608057228269305
0.08753647353064001 0.005372174374614715 0.025552178926037557 0.9934444722192628 -0.06096809771835895 0.0013812606088651257 0.011683979594213106 -0.0011744630329295692 -0.007509943469225462
 0.9934444722192628 -0.06096809771835895 0.005380476011367491 0.02555149766809839 -0.0011748492121497378 -0.007509929194445687 0.0013284637510744442 0.011690924902958245
 0.0013812606088651257 0.011683979594213106 -0.0011748492121497378 -0.007509929194445687 0.005371843910775685 0.025551056703230504 0.9934444249884012 -0.060969271493209756
 -0.0011744630329295692 -0.007509943469225462 0.0013284637510744442 0.011690924902958245 0.9934444249884012 -0.060969271493209756 0.005380721481945749 0.025550320524745467
0.09378907878283 0.005778503084742878 0.027510489327310615 0.9929054025066696 -0.06542873081079878 0.0015506503642358502 0.012519628741722338 -0.0013158843881342637 -0.008050182425023653
 0.9929054025066696 -0.06542873081079878 0.0057880310878798856 0.027509718417113405 -0.0013163263013838285 -0.00805016289956782 0.0014900165047309502 0.01252779792348212
 0.0015506503642358502 0.012519628741722338 -0.0013163263013838285 -0.00805016289956782 0.005778124236784165 0.027509292291168757 0.9929053483980838 -0.06542998939820013
 -0.0013158843881342637 -0.008050182425023653 0.0014900165047309502 0.01252779792348212 0.9929053483980838 -0.06542998939820013 0.005788313590554439 0.027508457605870514
0.100041684035 0.006205196424869265 0.02948435089042204 0.992339609205766 -0.06990299665405647 0.0017305270698256823 0.013354665389001335 -0.001466046628365497 -0.008590132167724968
 0.992339609205766 -0.06990299665405647 0.006216035457795661 0.02948348359240581 -0.001466547862965977 -0.008590106598639223 0.001661510271249939 0.01336419576851812
 0.0017305270698256823 0.013354665389001335 -0.001466547862965977 -0.008590106598639223 0.00620476593735258 0.029483080105343326 0.9923395477089685 -0.06990434029012506
 -0.001466046628365497 -0.008590132167724968 0.001661510271249939 0.01336419576851812 0.9923395477089685 -0.06990434029012506 0.0062163576633435785 0.02948213917914863
0.1059090909091 0.006624413550318593 0.03135046168535796 0.9917840841541148 -0.0741138161769406 0.0019089272951856417 0.014137557417534008 -0.001614976704250814 -0.009096415423348376
 0.9917840841541148 -0.0741138161769406 0.006636559954590225 0.0313494975860962 -0.0016155368413991707 -0.009096383423827443 0.001831547119192825 0.014148497058485936
 0.0019089272951856417 0.014137557417534008 -0.0016155368413991707 -0.009096383423827443 0.006623931656575257 0.03134912272681004 0.9917840152499302 -0.0741152398509284
 -0.001614976704250814 -0.009096415423348376 0.001831547119192825 0.014148497058485936 0.9917840152499302 -0.0741152398509284 0.006636921859978339 0.03134807478509673
0.1062942892872 0.006652579092491275 0.031473435215137784 0.9917467743816797 -0.07439066687906698 0.0019209661790698454 0.014188927565037718 -0.0016250271724201723 -0.009129636310088998
 0.9917467743816797 -0.07439066687906698 0.006664813940664024 0.0314724645404209 -0.0016255912855301664 -0.009129603861819113 0.0018430201077855354 0.01419996435588181
 0.0019209661790698454 0.014188927565037718 -0.0016255912855301664 -0.009129603861819113 0.006652093724326632 0.03147209181774981 0.9917467049748463 -0.07439209581531095
 -0.0016250271724201723 -0.009129636310088998 0.0018430201077855354 0.01419996435588181 0.9917467049748463 -0.07439209581531095 0.006665178535427105 0.03147103659583784
0.11254689453939999 0.00712097293732782 0.0334774132418394 0.991126582255583 -0.07889150056884532 0.0021220402856349423 0.015022249877748787 -0.0017929005631371192 -0.009668535756237396
 0.991126582255583 -0.07889150056884532 0.007134688527307625 0.03347633194205729 -0.0017935310816260877 -0.009668495550724143 0.0020346183165747683 0.015034946257051894
 0.0021220402856349423 0.015022249877748787 -0.0017935310816260877 -0.009668495550724143 0.007120429462825413 0.03347599843630362 0.9911265044048267 -0.07889301507710461
 -0.0017929005631371192 -0.009668535756237396 0.0020346183165747683 0.015034946257051894 0.9911265044048267 -0.07889301507710461 0.007135098213272642 0.0334748205361197
0.11879949979160001 0.00761069683100403 0.03549595423606125 0.9904787194030371 -0.08340524526724695 0.002333819012695695 0.015854463612297236 -0.001969738368939552 -0.010206668682961495
 0.9904787194030371 -0.08340524526724695 0.007625978249868605 0.03549475479639922 -0.001970438789331342 -0.010206619799721482 0.002236374338771631 0.015868980793801314
 0.002333819012695695 0.015854463612297236 -0.001970438789331342 -0.010206619799721482 0.007610092041399674 0.035494469298575554 0.990478632561333 -0.08340684563546844
 -0.001969738368939552 -0.010206668682961495 0.002236374338771631 0.015868980793801314 0.990478632561333 -0.08340684563546844 0.007626435745209256 0.035493160002074996
0.1250521050438 0.008122066530287445 0.0375287249918661 0.989802874948138 -0.0879316377776753 0.002556368903419737 0.016685396823631845 -0.0021556090844995265 -0.010743870533797115
 0.989802874948138 -0.0879316377776753 0.008138999044435711 0.03752739962328173 -0.002156382872732376 -0.010743812010047074 0.002448354648896204 0.016701904128933794
 0.002556368903419737 0.016685396823631845 -0.002156382872732376 -0.010743812010047074 0.00812139723497365 0.03752717126814305 0.9898027785551458 -0.0879333243124284
 -0.0021556090844995265 -0.010743870533797115 0.002448354648896204 0.016701904128933794 0.9898027785551458 -0.0879333243124284 0.008139507084215986 0.03752572151326128
0.131304710296 0.008655394532926476 0.03957538920118614 0.9890987407539437 -0.09247040480411707 0.0027897533120902237 0.017514874419776623 -0.002350578030542156 -0.011279974029492292
 0.9890987407539437 -0.09247040480411707 0.008674063608007303 0.03957392983180325 -0.0023514286217726477 -0.011279904860258611 0.0026706226500253253 0.017533549347779866
 0.0027897533120902237 0.017514874419776623 -0.0023514286217726477 -0.011279904860258611 0.00865465756111189 0.0395737681073803 0.9890986342346709 -0.09247217782981275
 -0.002350578030542156 -0.011279974029492292 0.0026706226500253253 0.017533549347779866 0.9890986342346709 -0.09247217782981275 0.00867462494446429 0.03957216847858433
0.1375573155481 0.009091368824664593 0.04137041592449813 0.9884856814889486 -0.09675594968308507 0.0030057832009145755 0.01831702402583665 -0.002526596783135859 -0.011789028068616174
 0.9884856814889486 -0.09675594968308507 0.00911186769299037 0.041368845866868585 -0.0025275294118820312 -0.01178894812416055 0.0028752614868955005 0.018337846671917096
 0.0030057832009145755 0.01831702402583665 -0.0025275294118820312 -0.01178894812416055 0.009090561745882159 0.0413687284805997 0.9884855643719668 -0.09675780938283894
 -0.002526596783135859 -0.011789028068616174 0.0028752614868955005 0.018337846671917096 0.9884855643719668 -0.09675780938283894 0.009112484156681309 0.04136700151667921
0.1438099208003 0.009542782051127668 0.04315551968463864 0.9878508703759342 -0.10103012351050339 0.0032305295916209634 0.019115482560347313 -0.002709625005741754 -0.01229475404941382
 0.9878508703759342 -0.10103012351050339 0.009565197644950832 0.043153832662385753 -0.0027106433866703828 -0.012294662332172425 0.0030881192008804 0.019138616001133302
 0.0032305295916209634 0.019115482560347313 -0.0027106433866703828 -0.012294662332172425 0.009541901855673208 0.04315376732672564 0.9878507420869693 -0.10103207019879992
 -0.002709625005741754 -0.01229475404941382 0.0030881192008804 0.019138616001133302 0.9878507420869693 -0.10103207019879992 0.009565871845996537 0.04315190542992676
0.1500625260525 0.010009467795329243 0.04493053658721561 0.9871944781410684 -0.1052928045608249 0.003463910050641949 0.019910154394170765 -0.0028995838610994043 -0.012797064510498004
 0.9871944781410684 -0.1052928045608249 0.010033887282678273 0.04492872593843788 -0.0029006917009272984 -0.012796959982505834 0.003309116543607602 0.019935767670803663
 0.003463910050641949 0.019910154394170765 -0.0029006917009272984 -0.012796959982505834 0.010008511500723316 0.04492872080592889 0.9871943380934952 -0.10529483856489871
 -0.0028995838610994043 -0.012797064510498004 0.003309116543607602 0.019935767670803663 0.9871943380934952 -0.10529483856489871 0.01003462183706605 0.04492671594139799
0.15631513130469998 0.010491258374653032 0.04669530763922413 0.9865166764675445 -0.10954387187178583 0.0037058411095572284 0.020700945622497163 -0.003096393494501811 -0.013295873922507495
 0.9865166764675445 -0.10954387187178583 0.01051776916593994 0.0466933663058142 -0.003097594491898393 -0.013295755505535783 0.003538173283598048 0.020729213675456347
