! Created with skrf 1.8.0 (http://scikit-rf.org).
# GHz S RI R 50.0 
!freq ReS11 ImS11 ReS12 ImS12 ReS13 ImS13
! ReS14 ImS14
! ReS21 ImS21 ReS22 ImS22 ReS23 ImS23
! ReS24 ImS24
! ReS31 ImS31 ReS32 ImS32 ReS33 ImS33
! ReS34 ImS34
! ReS41 ImS41 ReS42 ImS42 ReS43 ImS43
! ReS44 ImS44
!
0.0 0.001421809756545 0.0 0.9985781902427 0.0 5.471895240334e-05 0.0 -5.471895213369e-05 6.701138958322069e-21
 0.9985781902427 0.0 0.001421809756525 0.0 -5.471895213304e-05 6.7011389582424674e-21 5.471895240186e-05 0.0
 5.471895240334e-05 0.0 -5.471895213304e-05 6.7011389582424674e-21 0.001421809756836 0.0 0.9985781902431 0.0
 -5.471895213369e-05 6.701138958322069e-21 5.471895240186e-05 0.0 0.9985781902431 0.0 0.001421809756854 0.0
0.005 0.0015294377719980083 0.0011619393719666702 0.9984420753941835 -0.0029787556121037015 7.670762791507335e-05 0.000611996200786647 -7.446655231145796e-05 -0.0003826139748219524
 0.9984420753941835 -0.0029787556121037015 0.0015294473166806966 0.0011619338376255095 -7.44658128321006e-05 -0.0003826134791303194 7.664767706172586e-05 0.0006120189817698468
 7.670762791507335e-05 0.000611996200786647 -7.44658128321006e-05 -0.0003826134791303194 0.0015294374400710356 0.0011618723612433187 0.9984420750463318 -0.0029788226659912768
 -7.446655231145796e-05 -0.0003826139748219524 7.664767706172586e-05 0.0006120189817698468 0.9984420750463318 -0.0029788226659912768 0.0015294469564476182 0.001161866743247501
0.006252605252188 0.0015575680587106954 0.0014570153827209351 0.9984062895465877 -0.003724188846401004 8.293746467796922e-05 0.0007652935286279124 -7.999760826179537e-05 -0.0004787698968327338
 0.9984062895465877 -0.003724188846401004 0.0015575829785211659 0.001457008366027868 -7.999645698409637e-05 -0.0004787692870627919 8.284379593448033e-05 0.0007653231044828678
 8.293746467796922e-05 0.0007652935286279124 -7.999645698409637e-05 -0.0004787692870627919 0.0015575676136336885 0.0014569316270338938 0.9984062890770334 -0.0037242726637054637
 -7.999760826179537e-05 -0.0004787698968327338 8.284379593448033e-05 0.0007653231044828678 0.9984062890770334 -0.0037242726637054637 0.001557582490081973 0.0014569244932167553
0.01250521050438 0.0017050857830809996 0.002944749889970462 0.9982174522281541 -0.007449285289437485 0.00011838809622813541 0.0015309532391940164 -0.00011114162186018944 -0.0009599313541142484
 0.9982174522281541 -0.007449285289437485 0.001705145352567603 0.0029447348651055636 -0.00011113707756534914 -0.0009599302427109177 0.00011801453948596027 0.0015310241896313679
 0.00011838809622813541 0.0015309532391940164 -0.00011113707756534914 -0.0009599302427109177 0.0017050845613514065 0.002944582701270766 0.9982174509147066 -0.007449452688691803
 -0.00011114162186018944 -0.0009599313541142484 0.00011801453948596027 0.0015310241896313679 0.9982174509147066 -0.007449452688691803 0.0017051439727653447 0.002944567313730693
0.01875781575657 0.0018646655905063497 0.004453859837803405 0.9980114574722804 -0.011184377742885361 0.00016114952382075738 0.002297513764955226 -0.00014824282302726573 -0.0014427918188683717
 0.9980114574722804 -0.011184377742885361 0.0018647994338679963 0.004453835745446 -0.00014823267886657644 -0.0014427903357638226 0.00016031030386746845 0.0022976400516710885
 0.00016114952382075738 0.002297513764955226 -0.00014823267886657644 -0.0014427903357638226 0.0018646632563834606 0.004453609422270151 0.9980114549437272 -0.011184628632875912
 -0.00014824282302726573 -0.0014427918188683717 0.00016031030386746845 0.0022976400516710885 0.9980114549437272 -0.011184628632875912 0.00186479677488535 0.004453584584613919
0.02501042100875 0.002036602262791745 0.005982251009456215 0.9977880763256352 -0.01493129673693396 0.00021130174228351477 0.0030650216326463275 -0.00019139037095174057 -0.0019271422449457477
 0.9977880763256352 -0.01493129673693396 0.002036839938143055 0.005982216733705525 -0.0001913724429945773 -0.001927140543919976 0.00020981096961677364 0.0030652192999764457
 0.00021130174228351477 0.0030650216326463275 -0.0001913724429945773 -0.001927140543919976 0.0020365984723157353 0.005981917554232755 0.9977880722080309 -0.014931631073658748
 -0.00019139037095174057 -0.0019271422449457477 0.00020981096961677364 0.0030652192999764457 0.9977880722080309 -0.014931631073658748 0.0020368356210577437 0.005981882004098262
0.03126302626094 0.0022211782965017046 0.00752885579202989 0.9975470674617214 -0.018690837752859363 0.0002689254024686354 0.003833452120502854 -0.00024067110245437655 -0.0024128401963548997
 0.9975470674617214 -0.018690837752859363 0.0022215493123112612 0.00752881016289079 -0.00024064322573478426 -0.00241283845535707 0.00026659689884264557 0.0038337393073538057
 0.0002689254024686354 0.003833452120502854 -0.00024064322573478426 -0.00241283845535707 0.002221172700020825 0.007528439494323647 0.9975470613800952 -0.01869125551075031
 -0.00024067110245437655 -0.0024128401963548997 0.00026659689884264557 0.0038337393073538057 0.9975470613800952 -0.01869125551075031 0.0022215429685809476 0.007528391905543356
0.037515631513130004 0.002418670202097018 0.009092985751138205 0.9972881836442425 -0.022463408591357925 0.0003341010011154874 0.004602752561033591 -0.0002961701776290682 -0.0028997665358009806
 0.9972881836442425 -0.022463408591357925 0.0024192040280645107 0.009092927545791723 -0.0002961302041729971 -0.002899764957085331 0.00033074821979977654 0.004603149522145441
 0.0003341010011154874 0.004602752561033591 -0.0002961302041729971 -0.002899764957085331 0.0024186624478232674 0.009092486815969813 0.9972881752248439 -0.022463909765850467
 -0.0002961701776290682 -0.0028997665358009806 0.00033074821979977654 0.004603149522145441 0.9972881752248439 -0.022463909765850467 0.002419195302364345 0.009092425799628634
0.043768236765320004 0.002629350941005348 0.010674134582873735 0.99701117433 -0.02624922635569652 0.0004069085072549731 0.005372855513622239 -0.0003579713153993225 -0.003387812244914932
 0.99701117433 -0.02624922635569652 0.0026300770166187734 0.01067406252655448 -0.0003579171130974703 -0.0033878110551349458 0.0004023444937564973 0.005373384643829849
 0.0004069085072549731 0.005372855513622239 -0.0003579171130974703 -0.0033878110551349458 0.0026293406716072464 0.010673553233648863 0.9970111631964769 -0.026249810952924897
 -0.0003579713153993225 -0.003387812244914932 0.0004023444937564973 0.005373384643829849 0.9970111631964769 -0.026249810952924897 0.002630065562721344 0.010673477338719671
0.050020842017509996 0.0028534910587100976 0.012271896696045049 0.9967157869718837 -0.030048398802383244 0.000487427140287734 0.006143684201685328 -0.0004261568854536128 -0.0038768729817213487
 0.9967157869718837 -0.030048398802383244 0.0028544388009821616 0.01227180946261775 -0.00042608633741676456 -0.003876872431996498 0.0004814645147050192 0.006144370061322296
 0.000487427140287734 0.006143684201685328 -0.00042608633741676456 -0.003876872431996498 0.0028534779134677278 0.012271233177636775 0.9967157727460528 -0.03004906683632058
 -0.0004261568854536128 -0.0038768729817213487 0.0004814645147050192 0.006144370061322296 0.9967157727460528 -0.03004906683632058 0.0028544242830009455 0.012271140891442043
0.055454545454549996 0.003059415014402569 0.013673623497779269 0.9964439641027437 -0.033360871465342445 0.0005637235003541657 0.006814082399205561 -0.0004906601289251439 -0.004302626413159842
 0.9964439641027437 -0.033360871465342445 0.003060579269166393 0.013673521958467499 -0.0004905736682472841 -0.004302626642656989 0.0005563929288205008 0.006814926108835909
 0.0005637235003541657 0.006814082399205561 -0.0004905736682472841 -0.004302626642656989 0.00305939907554125 0.013672888778951687 0.996443946881908 -0.033361612034499714
 -0.0004906601289251439 -0.004302626413159842 0.0005563929288205008 0.006814926108835909 0.996443946881908 -0.033361612034499714 0.0030605618245622044 0.013672780971993757
0.056273447269699996 0.003091359272981326 0.01388592724726807 0.9964017677784861 -0.03386096423942352 0.0005757352181276598 0.006915155172544292 -0.0005008079331341759 -0.004366846417528399
 0.9964017677784861 -0.03386096423942352 0.0030925580827781615 0.013885823459692349 -0.0005007189372465163 -0.004366846783513813 0.0005681861701600549 0.006916024513421262
 0.0005757352181276598 0.006915155172544292 -0.0005007189372465163 -0.004366846783513813 0.0030913428891482077 0.013885181815105556 0.9964017500812913 -0.03386171574317922
 -0.0005008079331341759 -0.004366846417528399 0.0005681861701600549 0.006916024513421262 0.9964017500812913 -0.03386171574317922 0.0030925401760700274 0.01388507156345538
0.06252605252188 0.003343222797800164 0.015515920150646671 0.9960688622143868 -0.03768691345166347 0.0006719100360060295 0.007687179771196396 -0.000582004174089747 -0.004857630762497576
 0.9960688622143868 -0.03768691345166347 0.0033447020665407713 0.0155157983810879 -0.0005818946427674096 -0.004857632344424935 0.0006625863286019188 0.0076882615628061715
 0.0006719100360060295 0.007687179771196396 -0.0005818946427674096 -0.004857632344424935 0.0033432028097008797 0.015515093087271786 0.9960688406635961 -0.03768774846099213
 -0.000582004174089747 -0.004857630762497576 0.0006625863286019188 0.0076882615628061715 0.9960688406635961 -0.03768774846099213 0.0033446804561690514 0.015514963234595903
0.06877865777407 0.0036093475172668914 0.01716159499907772 0.9957168153520076 -0.04152620271656986 0.0007760277662671349 0.008459665008094183 -0.0006698239677456076 -0.005349123899999921
 0.9957168153520076 -0.04152620271656986 0.003611136632968228 0.01716145376899762 -0.0006696918278277284 -0.005349127022727552 0.0007647407452572548 0.008460990463867717
 0.0007760277662671349 0.008459665008094183 -0.0006696918278277284 -0.005349127022727552 0.00360932355801606 0.01716068660064592 0.9957167895631703 -0.04152712128368205
 -0.0006698239677456076 -0.005349123899999921 0.0007647407452572548 0.008460990463867717 0.9957167895631703 -0.04152712128368205 0.0036111110146828003 0.017160535449830025
0.07503126302626001 0.003889998076842411 0.018822688736078667 0.9953453721446691 -0.045378762072429045 0.0008881633678692443 0.009232514115412793 -0.0007643442803549531 -0.005841222835479763
 0.9953453721446691 -0.045378762072429045 0.0038921264302225534 0.01882252651606317 -0.0007641874730437519 -0.0058412278485370246 0.000874723976139334 0.009234116718922807
 0.0008881633678692443 0.009232514115412793 -0.0007641874730437519 -0.0058412278485370246 0.003889969777834799 0.018821699326423958 0.9953453417299706 -0.04537976425211322
 -0.0007643442803549531 -0.005841222835479763 0.000874723976139334 0.009234116718922807 0.9953453417299706 -0.04537976425211322 0.003892096509350482 0.018821525118508372
0.08128386827845 0.004185437917644964 0.02049895014047187 0.9949542776457806 -0.04924450077675758 0.0010083905031862388 0.010005626918984462 -0.0008656406399142099 -0.006333823332826666
 0.9949542776457806 -0.04924450077675758 0.004187934908096036 0.020498765349880203 -0.0008654571208148555 -0.0063338306104467265 0.0009926092981676015 0.010007542450015084
 0.0010083905031862388 0.010005626918984462 -0.0008654571208148555 -0.0063338306104467265 0.004185404910426251 0.02049788006052912 0.9949542422145506 -0.04924558663709248
 -0.0008656406399142099 -0.006333823332826666 0.0009926092981676015 0.010007542450015084 0.9949542422145506 -0.04924558663709248 0.004187900400749794 0.020497680974292914
0.08753647353064001 0.00449592927773337 0.022190135999414596 0.9945432771974965 -0.05312331107958112 0.00113678145879642 0.010778900095945843 -0.0009737870859779868 -0.006826819668316677
 0.9945432771974965 -0.05312331107958112 0.004498824319213384 0.02218992700594298 -0.0009735748251441876 -0.006826829609464926 0.0011184686329105728 0.010781166656364763
 0.00113678145879642 0.010778900095945843 -0.0009735748251441876 -0.006826829609464926 0.0044958911939435185 0.02218898561422166 0.9945432363554447 -0.05312448069514723
 -0.0009737870859779868 -0.006826819668316677 0.0011184686329105728 0.010781166656364763 0.9945432363554447 -0.05312448069514723 0.004498784951693899 0.022188759765533618
0.09378907878283 0.004821733167071228 0.023896008377530975 0.9941121165966377 -0.05701507090439339 0.0012734070693693298 0.011552227362721393 -0.0010888561153891614 -0.007320104457611939
 0.9941121165966377 -0.05701507090439339 0.004825055694178383 0.023895773496453825 -0.0010886130974635654 -0.0073201174860082485 0.0012523724727781745 0.011554885402118052
 0.0012734070693693298 0.011552227362721393 -0.0010886130974635654 -0.0073201174860082485 0.00482168963917182 0.023894778071663778 0.9941120699452659 -0.05701632436091775
 -0.0010888561153891614 -0.007320104457611939 0.0012523724727781745 0.011554885402118052 0.9941120699452659 -0.05701632436091775 0.004825011202841033 0.023894523512758187
0.100041684035 0.005163109325372006 0.025616332611095378 0.9936605422453865 -0.06091964580770636 0.0014183366433494072 0.012325499617338705 -0.0012109186253831219 -0.007813568531972123
 0.9936605422453865 -0.06091964580770636 0.005166888798812973 0.025616070104487226 -0.0012106428496905265 -0.007813585096117175 0.001394389808462661 0.012328591958392098
 0.0014183366433494072 0.012325499617338705 -0.0012106428496905265 -0.007813585096117175 0.005163059987383621 0.025615022792247616 0.9936604893822019 -0.060920983198685774
 -0.0012109186253831219 -0.007813568531972123 0.001394389808462661 0.012328591958392098 0.9936604893822019 -0.060920983198685774 0.005166838930553813 0.025614737510712773
0.1059090909091 0.005497847660625463 0.027243610761055505 0.9932179962835113 -0.06459520106290023 0.0015619503755216998 0.013050984014479575 -0.0013318835373614542 -0.008276696397468765
 0.9932179962835113 -0.06459520106290023 0.005502082753097861 0.027243320701786193 -0.0013315752156667076 -0.008276716709526705 0.001535097226176487 0.013054524984237556
 0.0015619503755216998 0.013050984014479575 -0.0013315752156667076 -0.008276716709526705 0.005497792539623696 0.02724222671829927 0.9932179372211164 -0.06459661731017925
 -0.0013318835373614542 -0.008276696397468765 0.001535097226176487 0.013054524984237556 0.9932179372211164 -0.06459661731017925 0.005502027617943242 0.027241910717985013
0.1062942892872 0.005520316166181592 0.02735087579968932 0.9931883012920255 -0.0648368904451596 0.0015716378895946198 0.013098605047776733 -0.0013400438543002362 -0.00830710085206205
 0.9931883012920255 -0.0648368904451596 0.005524582079522234 0.02735058387526044 -0.00133973333507311 -0.008307121425245423 0.0015445880578471506 0.013102176911268179
 0.0015716378895946198 0.013098605047776733 -0.00133973333507311 -0.008307121425245423 0.005520260654337562 0.0273494868969864 0.9931882418099903 -0.06483831187352204
 -0.0013400438543002362 -0.00830710085206205 0.0015445880578471506 0.013102176911268179 0.9931882418099903 -0.06483831187352204 0.0055245265912987175 0.027349168814624954
0.11254689453939999 0.005893610711970315 0.0290994056584976 0.992695141764861 -0.06876664968095614 0.001733376845519129 0.013871429221919019 -0.0014762993205341367 -0.008800588443791191
 0.992695141764861 -0.06876664968095614 0.005898392596885156 0.029099082468405996 -0.001475952087050174 -0.008800613524092754 0.0017030329951637111 0.013875528251468908
 0.001733376845519129 0.013871429221919019 -0.001475952087050174 -0.008800613524092754 0.0058935486654765655 0.02909793812528904 0.9926950752520036 -0.06876815525645825
 -0.0014762993205341367 -0.008800588443791191 0.0017030329951637111 0.013875528251468908 0.9926950752520036 -0.06876815525645825 0.005898331256230416 0.029097585096814788
0.11879949979160001 0.006283248520671613 0.030861689615067304 0.992180812699897 -0.07270875945724252 0.0019036178052523566 0.014643855160013044 -0.0016197507601495918 -0.009293916355546836
 0.992180812699897 -0.07270875945724252 0.0062885759534177564 0.03086133325439998 -0.0016193648569646983 -0.009293946465842234 0.001869788680833404 0.014648531446365475
 0.0019036178052523566 0.014643855160013044 -0.0016193648569646983 -0.009293946465842234 0.006283179582353402 0.030860143924884856 0.9921807387391899 -0.07271034930049451
 -0.0016197507601495918 -0.009293916355546836 0.001869788680833404 0.014648531446365475 0.9921807387391899 -0.07271034930049451 0.006288508538249892 0.0308597537364065
0.1250521050438 0.006689483606104089 0.032637494103234695 0.9916450642655062 -0.07666304747065639 0.002082423248472955 0.01541576339773141 -0.0017704620633365363 -0.009786967628645529
 0.9916450642655062 -0.07666304747065639 0.006695386213373001 0.032637102608393455 -0.0017700355504835213 -0.009787003316598994 0.002044917391501739 0.015421069502681465
 0.002082423248472955 0.01541576339773141 -0.0017700355504835213 -0.009787003316598994 0.006689407422968079 0.03263587075376458 0.9916449824341736 -0.07666472170919768
 -0.0017704620633365363 -0.009786967628645529 0.002044917391501739 0.015421069502681465 0.9916449824341736 -0.07666472170919768 0.0066953125120450836 0.0326354411210356
0.131304710296 0.007112568353555571 0.03442658399367477 0.9910876478845332 -0.08062933371674058 0.002269853769441884 0.016187032042161632 -0.001928495209894464 -0.010279623278807952
 0.9910876478845332 -0.08062933371674058 0.007119075818824495 0.03442615534042092 -0.0019280261631710641 -0.010279665116850795 0.0022284795503329166 0.016193023022030628
 0.002269853769441884 0.016187032042161632 -0.0019280261631710641 -0.010279665116850795 0.007112484577589892 0.03442488350345409 0.9910875577538527 -0.08063109248831492
 -0.001928495209894464 -0.010279623278807952 0.0022284795503329166 0.016193023022030628 0.9910875577538527 -0.08063109248831492 0.007118995629986959 0.03442441206999965
0.1375573155481 0.007452768835273477 0.03599487884665856 0.9906083334400259 -0.08437349995407117 0.0024416492267039513 0.01693374465630167 -0.002069642934530744 -0.010747948209430879
 0.9906083334400259 -0.08437349995407117 0.0074599137621459595 0.035994420201515546 -0.002069128724536038 -0.010747996224308123 0.0023963123903935003 0.016940409307845395
 0.0024416492267039513 0.01693374465630167 -0.002069128724536038 -0.010747996224308123 0.007452677970148073 0.03599310121496191 0.9906082346326488 -0.08437534331932503
 -0.002069642934530744 -0.010747948209430879 0.0023963123903935003 0.016940409307845395 0.9906082346326488 -0.08437534331932503 0.007459825940867602 0.03599259572948712
0.1438099208003 0.0078048364130285045 0.03755539569032306 0.990112347487126 -0.08810867042182043 0.002620394880382799 0.01767772754305684 -0.0022164499131139795 -0.011213792641922841
 0.990112347487126 -0.08810867042182043 0.007812649029051535 0.03755490556410384 -0.0022158885110976595 -0.011213847388633099 0.002570921166961624 0.017685115942219595
 0.002620394880382799 0.01767772754305684 -0.0022158885110976595 -0.011213847388633099 0.007804738272266888 0.03755354140068204 0.9901122395767058 -0.08811059851181872
 -0.0022164499131139795 -0.011213792641922841 0.002570921166961624 0.017685115942219595 0.9901122395767058 -0.08811059851181872 0.007812553217151949 0.03755300013416057
0.1500625260525 0.008168653689941047 0.03910801867783867 0.9895998110721714 -0.09183476721474 0.0028060334531365694 0.018418914168054884 -0.002368860846157689 -0.011677093932458625
 0.9895998110721714 -0.09183476721474 0.008177164298672 0.039107495485215985 -0.002368250229836962 -0.011677155987872393 0.0027522495706890117 0.018427078207697824
 0.0028060334531365694 0.018418914168054884 -0.002368250229836962 -0.011677155987872393 0.008168548102240516 0.0391060882315221 0.9895996936275839 -0.0918367801648259
 -0.002368860846157689 -0.011677093932458625 0.0027522495706890117 0.018427078207697824 0.9895996936275839 -0.0918367801648259 0.008177060136590633 0.039105509353261965
0.15631513130469998 0.008544102513863273 0.04065263553042515 0.9890708457709738 -0.0955517124109674 0.002998507035292143 0.019157239038895244 -0.002526819794574895 -0.01213779070610626
