! Created with skrf 1.8.0 (http://scikit-rf.org).
# GHz S RI R 50.0 
!freq ReS11 ImS11 ReS12 ImS12 ReS13 ImS13
! ReS14 ImS14
! ReS21 ImS21 ReS22 ImS22 ReS23 ImS23
! ReS24 ImS24
! ReS31 ImS31 ReS32 ImS32 ReS33 ImS33
! ReS34 ImS34
! ReS41 ImS41 ReS42 ImS42 ReS43 ImS43
! ReS44 ImS44
!
0.0 0.00169630205594 0.0 0.998303697944 0.0 6.568995796308e-05 0.0 -6.568995805151e-05 8.044699686390564e-21
 0.998303697944 0.0 0.001696302055889 0.0 -6.568995805101e-05 8.04469968632933e-21 6.56899579618e-05 0.0
 6.568995796308e-05 0.0 -6.568995805101e-05 8.04469968632933e-21 0.001696302055927 0.0 0.998303697944 0.0
 -6.568995805151e-05 8.044699686390564e-21 6.56899579618e-05 0.0 0.998303697944 0.0 0.001696302055894 0.0
0.005 0.0018255782459544868 0.0013871556048003775 0.9981400843467415 -0.003552811519990838 9.224956322241027e-05 0.000724342578561876 -8.962454406976383e-05 -0.00045445673386625867
 0.9981400843467415 -0.003552811519990838 0.0018255600016888025 0.0013871663186497479 -8.96247516136558e-05 -0.0004544569617323057 9.235422683132292e-05 0.000724302612475117
 9.224956322241027e-05 0.000724342578561876 -8.96247516136558e-05 -0.0004544569617323057 0.0018255781615329034 0.0013872229869736539 0.9981400847166416 -0.0035527444582917184
 -8.962454406976383e-05 -0.00045445673386625867 9.235422683132292e-05 0.000724302612475117 0.9981400847166416 -0.0035527444582917184 0.001825560825242398 0.0013872330617992871
0.006252605252188 0.0018596311657036106 0.0017393813934828291 0.9980966976190166 -0.004441860111072788 9.989305373199048e-05 0.0009057710959904727 -9.644697235017593e-05 -0.0005686498275427614
 0.9980966976190166 -0.004441860111072788 0.0018596026464045242 0.0017393950261728433 -9.644729476953552e-05 -0.0005686501099333137 0.00010005657870963553 0.0009057191923949847
 9.989305373199048e-05 0.0009057710959904727 -9.644729476953552e-05 -0.0005686501099333137 0.0018596309617814743 0.0017394656089015487 0.9980966981257848 -0.0044417763037218625
 -9.644697235017593e-05 -0.0005686498275427614 0.00010005657870963553 0.0009057191923949847 0.9980966981257848 -0.0044417763037218625 0.001859603862709605 0.001739478429097347
0.01250521050438 0.0020397521561748024 0.003514984141925976 0.9978656177497137 -0.008884356831459978 0.0001440214550179775 0.0018118498957377367 -0.00013550406581470833 -0.0011399609680870183
 0.9978656177497137 -0.008884356831459978 0.0020396382718489195 0.003515013849231627 -0.0001355053298144758 -0.001139961506756208 0.0001446735010560962 0.0018117249500947967
 0.0001440214550179775 0.0018118498957377367 -0.0001355053298144758 -0.001139961506756208 0.0020397507631310374 0.003515152423305866 0.9978656192022457 -0.008884189451114473
 -0.00013550406581470833 -0.0011399609680870183 0.0001446735010560962 0.0018117249500947967 0.9978656192022457 -0.008884189451114473 0.0020396425661339548 0.003515180355899291
0.01875781575657 0.0022370884024317155 0.005315607256716429 0.9976101495743731 -0.013338267059837523 0.00019818361011817598 0.002718823316316324 -0.00018298769477939793 -0.0017130882885216757
 0.9976101495743731 -0.013338267059837523 0.0022368324847214464 0.005315655693362876 -0.0001829905043095609 -0.0017130890543513376 0.00019964822928438634 0.0027185997272763706
 0.00019818361011817598 0.002718823316316324 -0.0001829905043095609 -0.0017130890543513376 0.002237084833159314 0.005315859603954044 0.9976101524150892 -0.01333801621927007
 -0.00018298769477939793 -0.0017130882885216757 0.00019964822928438634 0.0027185997272763706 0.9976101524150892 -0.01333801621927007 0.002236841727411551 0.0053159051175480886
0.02501042100875 0.002452048982450358 0.007138692480029396 0.9973299713373233 -0.017805710930035308 0.0002624886095671935 0.0036267079011211524 -0.00023901959053619266 -0.0022877493217534433
 0.9973299713373233 -0.017805710930035308 0.0024515944678517583 0.007138762495696922 -0.00023902453938710554 -0.0022877502818647597 0.0002650898792217021 0.003626355748029723
 0.0002624886095671935 0.0036267079011211524 -0.00023902453938710554 -0.0022877502818647597 0.002452042241692567 0.00713902894457897 0.9973299760057791 -0.01780537671775542
 -0.00023901959053619266 -0.0022877493217534433 0.0002650898792217021 0.003626355748029723 0.9973299760057791 -0.01780537671775542 0.0024516105336614587 0.007139094666848132
0.03126302626094 0.0026850260485908957 0.00898290371455464 0.9970247460320519 -0.02228757235276108 0.0003370454368001 0.004535436048182078 -0.0003037176200030992 -0.0028637381642602944
 0.9970247460320519 -0.02228757235276108 0.002684316447613015 0.008982998351026717 -0.0003037252935472921 -0.002863739281972543 0.00034110775095726615 0.0045349210669270975
 0.0003370454368001 0.004535436048182078 -0.0003037252935472921 -0.002863739281972543 0.002685015131614508 0.008983324396421003 0.997024752964367 -0.02228715483606835
 -0.0003037176200030992 -0.0028637381642602944 0.00034110775095726615 0.0045349210669270975 0.997024752964367 -0.02228715483606835 0.002684341214650576 0.008983413110875759
0.037515631513130004 0.0029364029080445483 0.010847354979879218 0.9966941298143143 -0.02678427099757931 0.0004219619896794706 0.00544490654343366 -0.0003771966224112566 -0.0034408749758988015
 0.9966941298143143 -0.02678427099757931 0.0029353817840844284 0.01084747747020225 -0.0003772075985356023 -0.003440876210766687 0.0004278101827591109 0.005444190084966592
 0.0004219619896794706 0.00544490654343366 -0.0003772075985356023 -0.003440876210766687 0.0029363868050217247 0.010847860012357286 0.9966941394468791 -0.02678377023786901
 -0.0003771966224112566 -0.0034408749758988015 0.0004278101827591109 0.005444190084966592 0.9966941394468791 -0.02678377023786901 0.002935417138372499 0.010847974656944745
0.043768236765320004 0.003206557139324153 0.012731375460794407 0.9963377754488661 -0.031295997172920816 0.0005173446069946642 0.006354999930591391 -0.0004595686912331692 -0.00401899063585183
 0.9963377754488661 -0.031295997172920816 0.0032051680925246095 0.012731529229128265 -0.0004595835410358205 -0.004018991943717959 0.0005253040056785313 0.006354038914090381
 0.0005173446069946642 0.006354999930591391 -0.0004595835410358205 -0.004018991943717959 0.003206534833268031 0.012731965004880486 0.9963377882155512 -0.031295413231422896
 -0.0004595686912331692 -0.00401899063585183 0.0005253040056785313 0.006354038914090381 0.9963377882155512 -0.031295413231422896 0.003205215924855595 0.012732108671379246
0.050020842017509996 0.0034958620237254 0.014634412394626393 0.9959553340733623 -0.03582280886621578 0.0006232977692851567 0.007265584866850644 -0.0005509432627945326 -0.004597920414218994
 0.9959553340733623 -0.03582280886621578 0.003494048676052897 0.014634601056804425 -0.0005509625509361324 -0.004597921747281697 0.0006336942061862499 0.007264331730833638
 0.0006232977692851567 0.007265584866850644 -0.0005509625509361324 -0.004597921747281697 0.0034958324920739735 0.014635086644193888 0.99595535040736 -0.03582214179887474
 -0.0005509432627945326 -0.004597920414218994 0.0006336942061862499 0.007264331730833638 0.99595535040736 -0.03582214179887474 0.0034941108838831953 0.014635262578071469
0.055454545454549996 0.003763116621176521 0.016303276987329945 0.9956015237019655 -0.03976897748890596 0.0007240384377850942 0.008057201339566547 -0.0006377446659511175 -0.005101562168632509
 0.9956015237019655 -0.03976897748890596 0.0037608887647366967 0.016303499059341246 -0.0006377682650418091 -0.005101563481977091 0.0007368177366622705 0.008055652199843428
 0.0007240384377850942 0.008057201339566547 -0.0006377682650418091 -0.005101563481977091 0.003763079975950059 0.01630402502027497 0.9956015434869666 -0.03976823823539286
 -0.0006377446659511175 -0.005101562168632509 0.0007368177366622705 0.008055652199843428 0.9956015434869666 -0.03976823823539286 0.0037609650109594155 0.016304231750889756
0.056273447269699996 0.003804687264899965 0.01655598343574783 0.9955464562561943 -0.04036467930992996 0.000739923877024794 0.008176521249468185 -0.0006514271175849358 -0.005177500877060524
 0.9955464562561943 -0.04036467930992996 0.003802393247499739 0.016556210800167552 -0.000651451402713176 -0.005177502183923672 0.0007530836811608604 0.008174923902155285
 0.000739923877024794 0.008176521249468185 -0.000651451402713176 -0.005177502183923672 0.0038046494799642873 0.016556742605214555 0.9955464765894438 -0.040363929179929287
 -0.0006514271175849358 -0.005177500877060524 0.0007530836811608604 0.008174923902155285 0.9955464765894438 -0.040363929179929287 0.0038024717341937344 0.016556954206054283
0.06252605252188 0.004133399360085426 0.01849565044894836 0.9951107927091105 -0.04492152312404804 0.0008673230671205867 0.009087661943726424 -0.0007611243373802992 -0.005757568195677198
 0.9951107927091105 -0.04492152312404804 0.004130568300221583 0.01849592051807982 -0.0007611541723830244 -0.005757569421407029 0.0008835730388656475 0.00908566371325893
 0.0008673230671205867 0.009087661943726424 -0.0007611541723830244 -0.005757569421407029 0.0041333522893577165 0.01849649478071688 0.9951108174720272 -0.04492068999435177
 -0.0007611243373802992 -0.005757568195677198 0.0008835730388656475 0.00908566371325893 0.9951108174720272 -0.04492068999435177 0.004130664974931983 0.018496745603157352
0.06877865777407 0.004482361780120103 0.02045300389441974 0.994647994814438 -0.04949321187330269 0.0010055930516729783 0.00999885381787644 -0.0008801362357902853 -0.006337957155265459
 0.994647994814438 -0.04949321187330269 0.004478937289380891 0.02045332086665604 -0.0008801721680246939 -0.006337958241455409 0.001025260426774534 0.00999639340279052
 0.0010055930516729783 0.00999885381787644 -0.0008801721680246939 -0.006337958241455409 0.004482304386535033 0.020453933659911636 0.9946480244358745 -0.04949229580583413
 -0.0008801362357902853 -0.006337957155265459 0.001025260426774534 0.00999639340279052 0.9946480244358745 -0.04949229580583413 0.0044790540667239975 0.02045422741487889
0.07503126302626001 0.004851935033111049 0.022427652937004595 0.9941577150401004 -0.05407958390754213 0.0011548289681909325 0.01090993841681781 -0.0010085612742112913 -0.006918500531736099
 0.9941577150401004 -0.05407958390754213 0.00484786069518259 0.022428021208951467 -0.0010086038457217904 -0.006918501416542525 0.001178241373485322 0.010906949836937942
 0.0011548289681909325 0.01090993841681781 -0.0010086038457217904 -0.006918501416542525 0.0048518662763110875 0.022428668434569705 0.9941577499481632 -0.05407858496527912
 -0.0010085612742112913 -0.006918500531736099 0.001178241373485322 0.010906949836937942 0.9941577499481632 -0.05407858496527912 0.004847999495670425 0.02242900899112045
0.08128386827845 0.0052424766587011356 0.024419218866159612 0.9936396072903543 -0.05868045089916797 0.0013151232385048815 0.011820752412182669 -0.0011464949666599123 -0.007499028699209466
 0.9936396072903543 -0.05868045089916797 0.005237696017945232 0.02441964303544473 -0.0011465447143629362 -0.007499029317414031 0.001342608641069792 0.011817164960264873
 0.0013151232385048815 0.011820752412182669 -0.0011465447143629362 -0.007499029317414031 0.005242395494635883 0.02442032041763718 0.9936396479109797 -0.058679369149672644
 -0.0011464949666599123 -0.007499028699209466 0.001342608641069792 0.011817164960264873 0.9936396479109797 -0.058679369149672644 0.005237858766833326 0.024420711805203107
0.08753647353064001 0.0056543411731417 0.026427330556129648 0.9930933272111325 -0.06329560234879479 0.0014865654321328825 0.012731127934352335 -0.001294029778184317 -0.008079369363243334
 0.9930933272111325 -0.06329560234879479 0.005648797722592511 0.026427815424689995 -0.0012940872340469944 -0.008079369646293955 0.001518452083094774 0.012726866128406752
 0.0014865654321328825 0.012731127934352335 -0.0012940872340469944 -0.008079369646293955 0.005654246555712811 0.026428518510694356 0.9930933739693428 -0.06329443786046718
 -0.001294029778184317 -0.008079369363243334 0.001518452083094774 0.012726866128406752 0.9930933739693428 -0.06329443786046718 0.005648986350678562 0.026428964921788953
0.09378907878283 0.006087879982708377 0.02845162121624675 0.9925185324684477 -0.06792480880964002 0.0016692421334026616 0.013640892815376246 -0.0014512550179542614 -0.008659347390715147
 0.9925185324684477 -0.06792480880964002 0.006081517152606858 0.028452171793980692 -0.0014513207090866018 -0.008659347266766388 0.0017058585073669317 0.013635876351950123
 0.0016692421334026616 0.013640892815376246 -0.0014513207090866018 -0.008659347266766388 0.006087770863125538 0.028452895948306755 0.9925185857873906 -0.0679235616537835
 -0.0014512550179542614 -0.008659347390715147 0.0017058585073669317 0.013635876351950123 0.9925185857873906 -0.0679235616537835 0.006081733595277482 0.028453401741789848
0.100041684035 0.006543441271358945 0.03049172602762899 0.9919148830047254 -0.07256782423456307 0.0018632368108764358 0.014549870784459965 -0.0016182567289020943 -0.00923878469516383
 0.9919148830047254 -0.07256782423456307 0.006536202417567836 0.03049234753666916 -0.0016183311777957642 -0.009238784089120409 0.0019049115413392688 0.014544014492901042
 0.0018632368108764358 0.014549870784459965 -0.0016183311777957642 -0.009238784089120409 0.00654331659968131 0.030493087939714822 0.9919149433063172 -0.07256649448261888
 -0.0016182567289020943 -0.00923878469516383 0.0019049115413392688 0.014544014492901042 0.9919149433063172 -0.07256649448261888 0.006536448614836504 0.030493657644468243
0.1059090909091 0.006991273645695905 0.032420206011268486 0.9913218782489365 -0.07693712865822806 0.0020556453208902628 0.015401974028748586 -0.0017839353964415813 -0.009781872076427138
 0.9913218782489365 -0.07693712865822806 0.006983161142763598 0.03242089902452041 -0.001784018534736459 -0.009781870946820767 0.0021023657527387035 0.015395247810877253
 0.0020556453208902628 0.015401974028748586 -0.001784018534736459 -0.009781870946820767 0.006991133424280515 0.032421650120579536 0.9913219454851137 -0.0769357214668508
 -0.0017839353964415813 -0.009781872076427138 0.0021023657527387035 0.015395247810877253 0.9913219454851137 -0.0769357214668508 0.006983437029850777 0.03242228407349997
0.1062942892872 0.007021369872535098 0.03254728036884192 0.9912820412833124 -0.0772243877436283 0.0020686296886850406 0.015457881626138361 -0.0017951175747006633 -0.009817500167535648
 0.9912820412833124 -0.0772243877436283 0.0070131982647337505 0.03254797824831105 -0.001795201299327666 -0.009817499001081049 0.0021156914999957916 0.015451095423930361
 0.0020686296886850406 0.015457881626138361 -0.001795201299327666 -0.009817499001081049 0.007021228597897725 0.032548729888010844 0.9912821089877459 -0.077222975470776
 -0.0017951175747006633 -0.009817500167535648 0.0021156914999957916 0.015451095423930361 0.9912821089877459 -0.077222975470776 0.007013476160923332 0.032549368207268274
0.11254689453939999 0.007522007127113595 0.03461791846179919 0.9906196725223679 -0.0818942249813725 0.0022854976187886467 0.01636474131660787 -0.0019819167251624433 -0.010395309637021538
 0.9906196725223679 -0.0818942249813725 0.0075128459374341205 0.034618698373001876 -0.001982010239083528 -0.010395307828655121 0.002338275255243566 0.016356930165847713
 0.0022854976187886467 0.01636474131660787 -0.001982010239083528 -0.010395307828655121 0.00752184819796343 0.034619456042731436 0.9906197480479867 -0.08189273026343062
 -0.0019819167251624433 -0.010395309637021538 0.002338275255243566 0.016356930165847713 0.9906197480479867 -0.08189273026343062 0.0075131574806646655 0.03462016785877503
0.11879949979160001 0.0080456907301375 0.03670327233217041 0.989927444920977 -0.0865770491692631 0.002513913955172817 0.01727026214483032 -0.0021787297396818916 -0.010972025855553515
 0.989927444920977 -0.0865770491692631 0.00803548302119786 0.03670414016439772 -0.0021788335521966446 -0.010972023320638671 0.002572736107030449 0.01726132600997657
 0.002513913955172817 0.01727026214483032 -0.0021788335521966446 -0.010972023320638671 0.008045513095439334 0.03670489845263342 0.9899275286845539 -0.0865754720872285
 -0.0021787297396818916 -0.010972025855553515 0.002572736107030449 0.01726132600997657 0.9899275286845539 -0.0865754720872285 0.008035830163481033 0.03670568883219404
0.1250521050438 0.008592754570377963 0.03880297098595468 0.9892050298806864 -0.09127256195254838 0.002753948428381144 0.01817425282140966 -0.0023856284504182174 -0.011547458503119327
 0.9892050298806864 -0.09127256195254838 0.008581443283755045 0.038803932862853115 -0.002385743066664422 -0.011547455153863989 0.0028191436554203665 0.018164086628295793
 0.002753948428381144 0.01817425282140966 -0.002385743066664422 -0.011547455153863989 0.008592557179605718 0.03880468615383299 0.9892051222974594 -0.09127090258554313
 -0.0023856284504182174 -0.011547458503119327 0.0028191436554203665 0.018164086628295793 0.9892051222974594 -0.09127090258554313 0.008581827980416122 0.038805560353969926
0.131304710296 0.009163528562452663 0.040916639773303974 0.9884521022231443 -0.09598045407022725 0.0030056670214066595 0.019076518583987793 -0.002602680844435811 -0.012121414205130394
 0.9884521022231443 -0.09598045407022725 0.009151056507313463 0.040917702059687304 -0.0026028067656213025 -0.012121409950647422 0.0030775636741096264 0.019065012180215453
 0.0030056670214066595 0.019076518583987793 -0.0026028067656213025 -0.012121409950647422 0.009163310366433208 0.04091844452008277 0.9884522037060002 -0.09597871250201177
 -0.002602680844435811 -0.012121414205130394 0.0030775636741096264 0.019065012180215453 0.9884522037060002 -0.09597871250201177 0.009151480716428762 0.04091940799467394
0.1375573155481 0.009632730841662322 0.04276888746825887 0.9877940092594846 -0.10042522588090654 0.003238443873265674 0.01994995590669149 -0.002799188567867769 -0.012666876897330233
 0.9877940092594846 -0.10042522588090654 0.00961903757861778 0.042770034264504854 -0.002799326733017188 -0.012666871730358102 0.0033172095300637544 0.01993711926745703
 0.003238443873265674 0.01994995590669149 -0.002799326733017188 -0.012666871730358102 0.00963249176732559 0.04277078192588173 0.9877941202123669 -0.10042340222331514
 -0.002799188567867769 -0.012666876897330233 0.0033172095300637544 0.01993711926745703 0.9877941202123669 -0.10042340222331514 0.009619502306550022 0.042771818745418175
0.1438099208003 0.010118607295379925 0.044610430740119764 0.9871124611636384 -0.1048577703460772 0.0034805837858062788 0.020819340996092412 -0.0030035199624404815 -0.013208555127888592
 0.9871124611636384 -0.1048577703460772 0.010103635000345348 0.04461166708300021 -0.003003670945405248 -0.013208548952452293 0.003566517498470552 0.02080507268049909
 0.0034805837858062788 0.020819340996092412 -0.003003670945405248 -0.013208548952452293 0.010118346473331562 0.04461241542146306 0.9871125819937784 -0.10485586469548577
 -0.0030035199624404815 -0.013208555127888592 0.003566517498470552 0.02080507268049909 0.9871125819937784 -0.10485586469548577 0.010104142039398712 0.044613529784299784
0.1500625260525 0.010620972912112982 0.04644108720261693 0.98640764771262 -0.10927794848248712 0.0037319940061190005 0.02168456883402775 -0.0032155834722898172 -0.013746347782299866
 0.98640764771262 -0.10927794848248712 0.01060466362579428 0.04644241841930834 -0.0032157478482525742 -0.013746340498020388 0.0038253927769051725 0.021668763698710316
 0.0037319940061190005 0.02168456883402775 -0.0032157478482525742 -0.013746340498020388 0.010620689486647619 0.046443162643533605 0.9864077788252374 -0.10927596093536165
 -0.0032155834722898172 -0.013746347782299866 0.0038253927769051725 0.021668763698710316 0.9864077788252374 -0.10927596093536165 0.010605214760747335 0.04644435900835241
0.15631513130469998 0.011139641195988701 0.04826067989683838 0.985679759838449 -0.11368562242921268 0.003992580594389634 0.02254553640730071 -0.003435286323390622 -0.014280156048167564
 0.985679759838449 -0.11368562242921268 0.011121936820381784 0.048262111611748475 -0.0034354646688563705 -0.014280147550258693 0.0040937393406955975 0.022528085649555947
