! Created with skrf 1.8.0 (http://scikit-rf.org).
# GHz S RI R 50.0 
!freq ReS11 ImS11 ReS12 ImS12 ReS13 ImS13
! ReS14 ImS14
! ReS21 ImS21 ReS22 ImS22 ReS23 ImS23
! ReS24 ImS24
! ReS31 ImS31 ReS32 ImS32 ReS33 ImS33
! ReS34 ImS34
! ReS41 ImS41 ReS42 ImS42 ReS43 ImS43
! ReS44 ImS44
!
0.0 0.001268568554039 0.0 0.9987314314403 0.0 4.815347056836e-05 0.0 -4.815347024559e-05 5.89709932040991e-21
 0.9987314314403 0.0 0.001268568554036 0.0 -4.815347024577e-05 5.897099320431954e-21 4.815347056691e-05 0.0
 4.815347056836e-05 0.0 -4.815347024577e-05 5.897099320431954e-21 0.001268568549592 0.0 0.9987314314359 0.0
 -4.815347024559e-05 5.89709932040991e-21 4.815347056691e-05 0.0 0.9987314314359 0.0 0.001268568549584 0.0
0.005 0.0013641344073558985 0.0010441904469569497 0.9986106494657961 -0.0026577756912470395 6.622868090988538e-05 0.000495211185940698 -6.456631859021877e-05 -0.00031712445055785086
 0.9986106494657961 -0.0026577756912470395 0.0013641514269467471 0.0010441805317317119 -6.456677849168178e-05 -0.0003171248467199408 6.61104614060344e-05 0.0004952559426182258
 6.622868090988538e-05 0.000495211185940698 -6.456677849168178e-05 -0.0003171248467199408 0.0013641336029770344 0.0010441236957865494 0.9986106491287974 -0.0026578427578065563
 -6.456631859021877e-05 -0.00031712445055785086 6.61104614060344e-05 0.0004952559426182258 0.9986106491287974 -0.0026578427578065563 0.0013641515627196355 0.0010441131546894578
0.006252605252188 0.0013890000014266995 0.0013093457673567083 0.9985790570338717 -0.0033228975290325556 7.129243784792908e-05 0.0006192817177031684 -6.910688072512328e-05 -0.0003968182284768014
 0.9985790570338717 -0.0033228975290325556 0.0013890266061903993 0.0013093332185379503 -6.910759604948465e-05 -0.00039681871799910674 7.11077257869014e-05 0.0006193398201152626
 7.129243784792908e-05 0.0006192817177031684 -6.910759604948465e-05 -0.00039681871799910674 0.0013889988221168449 0.0013092623465714315 0.9985790565853385 -0.0033229813511526144
 -6.910688072512328e-05 -0.0003968182284768014 7.11077257869014e-05 0.0006193398201152626 0.9985790565853385 -0.0033229813511526144 0.00138902689718685 0.0013092490060031617
0.01250521050438 0.0015187426498804422 0.0026461924176837247 0.998413280689203 -0.0066467428927387716 9.980218731278433e-05 0.001239081573248153 -9.436795390766737e-05 -0.0007956440377426101
 0.998413280689203 -0.0066467428927387716 0.0015188488782710955 0.0026461657687773476 -9.437076900094786e-05 -0.0007956449557228486 9.90654671443882e-05 0.0012392207514287205
 9.980218731278433e-05 0.001239081573248153 -9.437076900094786e-05 -0.0007956449557228486 0.001518738499013626 0.002646025903676664 0.9984132794604 -0.006646910300748066
 -9.436795390766737e-05 -0.0007956440377426101 9.90654671443882e-05 0.0012392207514287205 0.9984132794604 -0.006646910300748066 0.0015188506104843033 0.0026459975683412267
0.01875781575657 0.0016580385856938547 0.004002235473593213 0.9982339259170037 -0.00997966014880918 0.00013374242815669988 0.001859796736988915 -0.00012400506560436672 -0.0011959754439432395
 0.9982339259170037 -0.00997966014880918 0.0016582772698488647 0.0040021930624919285 -0.00012401133801812983 -0.0011959767206253373 0.0001320871527334166 0.0018600438005100097
 0.00013374242815669988 0.001859796736988915 -0.00012401133801812983 -0.0011959767206253373 0.0016580296671670771 0.004001986086405435 0.9982339235711707 -0.009979911067111928
 -0.00012400506560436672 -0.0011959754439432395 0.0001320871527334166 0.0018600438005100097 0.9982339235711707 -0.009979911067111928 0.0016582815950607324 0.004001940965097967
0.02501042100875 0.0018071248195431762 0.0053756322295166175 0.9980408104309386 -0.013323305634347436 0.00017317403190834612 0.00248146672463364 -0.00015808514720848596 -0.001597665122503247
 0.9980408104309386 -0.013323305634347436 0.00180754867314092 0.005375572305019976 -0.00015809621668125954 -0.001597666677936262 0.00017023330140668823 0.002481852164602695
 0.00017317403190834612 0.00248146672463364 -0.00015809621668125954 -0.001597666677936262 0.0018071093397287223 0.0053753001949855906 0.9980408066335822 -0.013323640034378869
 -0.00015808514720848596 -0.001597665122503247 0.00017023330140668823 0.002481852164602695 0.9980408066335822 -0.013323640034378869 0.0018075567538244222 0.005375236382179415
0.03126302626094 0.001966228297818077 0.006765455753918584 0.9978337412524212 -0.016678413940763928 0.00021815857007264258 0.003104078976360897 -0.0001966737063702144 -0.0020006147381183958
 0.9978337412524212 -0.016678413940763928 0.0019668899436468233 0.006765376480870062 -0.00019669089788687443 -0.002000616482004609 0.00021356478073014272 0.0031046369868365435
 0.00021815857007264258 0.003104078976360897 -0.00019669089788687443 -0.002000616482004609 0.00196620446301185 0.006765041323687384 0.9978337356684128 -0.016678831821370685
 -0.0001966737063702144 -0.0020006147381183958 0.00021356478073014272 0.0031046369868365435 0.9978337356684128 -0.016678831821370685 0.001966902951555315 0.00676495680432139
0.037515631513130004 0.0021355712587869395 0.008171117846644474 0.9976125201664663 -0.020045374908256093 0.0002687577156784904 0.003727600597054837 -0.0002398352649269984 -0.0024047431860158117
 0.9976125201664663 -0.020045374908256093 0.0021365232468609804 0.008171017308890614 -0.0002398598904152345 -0.0024047450176493718 0.00026214239373611303 0.0037283691142302954
 0.0002687577156784904 0.003727600597054837 -0.0002398598904152345 -0.0024047450176493718 0.0021355372729096734 0.008170621296472008 0.9976125124564262 -0.02004587629765144
 -0.0002398352649269984 -0.0024047431860158117 0.00026214239373611303 0.0037283691142302954 0.9976125124564262 -0.02004587629765144 0.0021365423602953725 0.008170513948858375
0.043768236765320004 0.0023153732978272758 0.009592193430325122 0.9973769458889408 -0.023424409179476642 0.00032503297202518186 0.004351987998950313 -0.00028763352178870586 -0.002809976935509864
 0.9973769458889408 -0.023424409179476642 0.0023166681189164392 0.009592069633015603 -0.0002876668810188928 -0.0028099787438052365 0.0003160266863579061 0.0043530087457923795
 0.00032503297202518186 0.004351987998950313 -0.0002876668810188928 -0.0028099787438052365 0.00231532736691307 0.00959161508184917 0.9973769357139706 -0.023424994114016124
 -0.00028763352178870586 -0.002809976935509864 0.0003160266863579061 0.0043530087457923795 0.9973769357139706 -0.023424994114016124 0.0023166945281172797 0.00959148267935246
0.050020842017509996 0.0025058523462235757 0.01102834799731741 0.9971268151514997 -0.02681564069551982 0.0003870455134310268 0.0049771908813542095 -0.0003401314209696963 -0.0032162460382070073
 0.9971268151514997 -0.02681564069551982 0.002507542443716331 0.011028198868672685 -0.0003401748022783914 -0.0032162477017007333 0.00037527782985436966 0.004978509414658389
 0.0003870455134310268 0.0049771908813542095 -0.0003401748022783914 -0.0032162477017007333 0.002505792674053398 0.011027688204381674 0.997126802166944 -0.026816309233707387
 -0.0003401314209696963 -0.0032162460382070073 0.00037527782985436966 0.004978509414658389 0.997126802166944 -0.026816309233707387 0.0025075773458558817 0.011027528416985085
0.055454545454549996 0.0026802238290762484 0.012288437690293696 0.9968974634290594 -0.029772679228943635 0.00044564285249009355 0.0055211307377836276 -0.0003896187059326555 -0.0035700939430897247
 0.9968974634290594 -0.029772679228943635 0.002682299995188382 0.012288264806773481 -0.00038967183450490416 -0.0035700953740623533 0.0004311737977789396 0.005522748067991011
 0.00044564285249009355 0.0055211307377836276 -0.00038967183450490416 -0.0035700953740623533 0.002680150758161433 0.012287707434617873 0.9968974477216257 -0.02977342048371414
 -0.0003896187059326555 -0.0035700939430897247 0.0004311737977789396 0.005522748067991011 0.9968974477216257 -0.02977342048371414 0.00268234325877293 0.01228752187715848
0.056273447269699996 0.002707225176815965 0.012479301966114062 0.9968619233140505 -0.030219132282011344 0.00045485607810904756 0.005603154186233254 -0.00039739117476558485 -0.0036234821617808573
 0.9968619233140505 -0.030219132282011344 0.002709362957069476 0.012479125358902558 -0.00039744585553189166 -0.0036234835486580585 0.0004399555386855867 0.005604819944772397
 0.00045485607810904756 0.005603154186233254 -0.00039744585553189166 -0.0036234835486580585 0.002707149968925401 0.012478561118833182 0.996861907173366 -0.03021988450090723
 -0.00039739117476558485 -0.0036234821617808573 0.0004399555386855867 0.005604819944772397 0.996861907173366 -0.03021988450090723 0.0027094075601608388 0.012478371514191327
0.06252605252188 0.0029197076913891136 0.013944811112771249 0.9965820647628743 -0.033634905160616665 0.0005285248873692816 0.0062298191608029145 -0.00045947426376824143 -0.004031617518120047
 0.9965820647628743 -0.033634905160616665 0.0029223455336002966 0.013944604805589199 -0.00045954151074914073 -0.00403161848625002 0.0005101190060859853 0.006231885514094805
 0.0005285248873692816 0.0062298191608029145 -0.00045954151074914073 -0.00403161848625002 0.0029196151548646857 0.013943989642306785 0.9965820451155916 -0.03363574115140098
 -0.00045947426376824143 -0.004031617518120047 0.0005101190060859853 0.006231885514094805 0.9965820451155916 -0.03363574115140098 0.0029224010561131526 0.013943767686542138
0.06877865777407 0.0031435150863174887 0.015424654883444943 0.9962870331876996 -0.037062950580355664 0.0006081115779134325 0.006857123997413879 -0.0005264414250748082 -0.00444058421571307
 0.9962870331876996 -0.037062950580355664 0.00314670535194743 0.015424416581672332 -0.000526522494680016 -0.004440584612665182 0.0005858268478847433 0.006859648294741127
 0.0006081115779134325 0.006857123997413879 -0.000526522494680016 -0.004440584612665182 0.0031434034294460862 0.015423753262148766 0.9962870096788884 -0.03706387044863438
 -0.0005264414250748082 -0.00444058421571307 0.0005858268478847433 0.006859648294741127 0.9962870096788884 -0.03706387044863438 0.0031467730222045575 0.01542349632052511
0.07503126302626001 0.003378861943311576 0.01691862900171631 0.9959766217877891 -0.04050323715551244 0.0006936751434828432 0.007485004231802862 -0.0005983526317291087 -0.004850313855212848
 0.9959766217877891 -0.04050323715551244 0.00338265698505644 0.01691835633826472 -0.0005984487702114009 -0.004850313518298672 0.0006671370524019663 0.007488047851326721
 0.0006936751434828432 0.007485004231802862 -0.0005984487702114009 -0.004850313518298672 0.003378729377320622 0.016917647741938116 0.9959765940580709 -0.04050424102282141
 -0.0005983526317291087 -0.004850313855212848 0.0006671370524019663 0.007488047851326721 0.9959765940580709 -0.04050424102282141 0.0033827380428184655 0.016917353079116893
0.08128386827845 0.0036259622775019914 0.01842654052856649 0.9956506234359617 -0.04395571575216033 0.0007852738804587592 0.008113393013328217 -0.0006752670677782299 -0.0052607372546850445
 0.9956506234359617 -0.04395571575216033 0.003630414448748832 0.018426231064438275 -0.0006753795114454373 -0.00526073601097936 0.0007541069329846075 0.008117021411161829
 0.0007852738804587592 0.008113393013328217 -0.0006753795114454373 -0.00526073601097936 0.0036258070165860047 0.018425480183209 0.9956505911208686 -0.04395680375583941
 -0.0006752670677782299 -0.0052607372546850445 0.0007541069329846075 0.008117021411161829 0.9956505911208686 -0.04395680375583941 0.0036305101444754615 0.018425144963506616
0.08753647353064001 0.003885029555753633 0.019948204460590768 0.9953088308159376 -0.04742032283842157 0.0008829653381924517 0.008742221285982428 -0.0007572430986820459 -0.005671784265815678
 0.9953088308159376 -0.04742032283842157 0.003890191219166905 0.01994785568517064 -0.0007573730739875537 -0.005671781932188432 0.0008467930831977274 0.008746504045088085
 0.0008829653381924517 0.008742221285982428 -0.0007573730739875537 -0.005671781932188432 0.0038848498180735374 0.019947065623884954 0.9953087935454888 -0.047421495131140905
 -0.0007572430986820459 -0.005671784265815678 0.0008467930831977274 0.008746504045088085 0.9953087935454888 -0.047421495131140905 0.003890302815078223 0.01994668691108147
0.09378907878283 0.004156276694771047 0.021483441284407576 0.994951036541228 -0.050896982880132634 0.0009868062703230671 0.009371417921898844 -0.0008443382398693297 -0.00608338363937317
 0.994951036541228 -0.050896982880132634 0.004162200231120228 0.02148305061555598 -0.000844486963513974 -0.006083380022525066 0.000945251332673205 0.009376428800804987
 0.0009868062703230671 0.009371417921898844 -0.000844486963513974 -0.006083380022525066 0.004156070702494411 0.021482224595057952 0.9949509939391352 -0.05089823962704322
 -0.0008443382398693297 -0.00608338363937317 0.000945251332673205 0.009376428800804987 0.9949509939391352 -0.05089823962704322 0.004162329000861526 0.02148179935215153
0.100041684035 0.004439916042963004 0.023032075196926537 0.99457703326042 -0.05438561007267844 0.001096852588140488 0.010000909817869032 -0.0009366091227883512 -0.00649546292955747
 0.99457703326042 -0.05438561007267844 0.00444665386062843 0.023031639980756535 -0.0009367778018585125 -0.006495457826039366 0.0010495367039966847 0.010006726799088058
 0.001096852588140488 0.010000909817869032 -0.0009367778018585125 -0.006495457826039366 0.004439682023958292 0.02303078133299712 0.9945769849440903 -0.05438695145682827
 -0.0009366091227883512 -0.00649546292955747 0.0010495367039966847 0.010006726799088058 0.9945769849440903 -0.05438695145682827 0.004446801090139012 0.02303030642159148
0.1059090909091 0.004717540702028461 0.0244973338429237 0.9942111443474838 -0.05767011636769331 0.001205812141028395 0.010591822944174264 -0.0010279524799604138 -0.0068825264696258165
 0.9942111443474838 -0.05767011636769331 0.004725090333299481 0.02449685434593688 -0.001028140974358626 -0.0068825197769901356 0.0011527454351314866 0.01059847109605991
 0.001205812141028395 0.010591822944174264 -0.001028140974358626 -0.0068825197769901356 0.004717278776526877 0.024495968214177884 0.9942110903151179 -0.057671537354041576
 -0.0010279524799604138 -0.0068825264696258165 0.0011527454351314866 0.01059847109605991 0.9942110903151179 -0.057671537354041576 0.00472525606617712 0.024495443748826652
0.1062942892872 0.004736159354109156 0.024593932749571456 0.994186613755401 -0.057886109650899076 0.001213159314730394 0.010630621969473108 -0.0010341114594744384 -0.006907948422617034
 0.994186613755401 -0.057886109650899076 0.004743763897654782 0.024593450260109916 -0.0010343012914553937 -0.0069079416188763424 0.0011597033701314016 0.010637327307564243
 0.001213159314730394 0.010630621969473108 -0.0010343012914553937 -0.0069079416188763424 0.00473589554217562 0.024592562432277577 0.9941865593355597 -0.057887535869748784
 -0.0010341114594744384 -0.006907948422617034 0.0011597033701314016 0.010637327307564243 0.9941865593355597 -0.057887535869748784 0.004743930885471389 0.024592034611822244
0.11254689453939999 0.005045217751625413 0.026168841819395383 0.9937795710328918 -0.06139837887431102 0.001335780539584806 0.011260477528420862 -0.0011369000059795098 -0.007320765084211785
 0.9937795710328918 -0.06139837887431102 0.005053741510912174 0.02616830925787872 -0.0011371121788372974 -0.007320756356609741 0.0012758046117264967 0.011268157797717799
 0.001335780539584806 0.011260477528420862 -0.0011371121788372974 -0.007320756356609741 0.005044922387017015 0.026167395813147944 0.9937795101123383 -0.06139989013991579
 -0.0011369000059795098 -0.007320765084211785 0.0012758046117264967 0.011268157797717799 0.9937795101123383 -0.06139989013991579 0.005053929568066519 0.026166811739899192
0.11879949979160001 0.005367301685946217 0.027756630803583243 0.9933556984110508 -0.06492230779112551 0.0014647693738800238 0.011890397849783218 -0.0012450285244219165 -0.007733836518968012
 0.9933556984110508 -0.06492230779112551 0.005376797205472215 0.027756045297526365 -0.001245264216627008 -0.007733825633821345 0.001397892775015563 0.011899143991622034
 0.0014647693738800238 0.011890397849783218 -0.001245264216627008 -0.007733825633821345 0.005366973016586641 0.02775510991695781 0.9933556305851718 -0.06492390432936597
 -0.0012450285244219165 -0.007733836518968012 0.001397892775015563 0.011899143991622034 0.9933556305851718 -0.06492390432936597 0.005377007656432393 0.027754466142646744
0.1250521050438 0.005702620888185954 0.0293571279773758 0.9929147896040532 -0.06845777984128008 0.0016001779057455406 0.012520302529107265 -0.0013585497444742905 -0.008147084942107776
 0.9929147896040532 -0.06845777984128008 0.0057131407759602555 0.02935648657940381 -0.0013588101250531352 -0.008147071655714135 0.001526019229180862 0.012530209898671011
 0.0016001779057455406 0.012520302529107265 -0.0013588101250531352 -0.008147071655714135 0.005702257169982816 0.029355533062583122 0.9929147144593434 -0.06845946189258448
 -0.0013585497444742905 -0.008147084942107776 0.001526019229180862 0.012530209898671011 0.9929147144593434 -0.06845946189258448 0.005713374958378946 0.029354826032886125
0.131304710296 0.0060513843178467905 0.03097016098437096 0.9924566388029366 -0.07200467232938144 0.0017420571556702284 0.013150109437000679 -0.0014775153238376073 -0.008560431155871991
 0.9924566388029366 -0.07200467232938144 0.006062981255141921 0.03096946067074248 -0.0014778015524183265 -0.0085604152145483 0.0016602343242015066 0.013161277849530775
 0.0017420571556702284 0.013150109437000679 -0.0014778015524183265 -0.0085604152145483 0.006050983816283555 0.03096849293540618 0.9924565559174099 -0.07200644015076116
 -0.0014775153238376073 -0.008560431155871991 0.0016602343242015066 0.013161277849530775 0.9924565559174099 -0.07200644015076116 0.006063240520815477 0.030967718988113874
0.1375573155481 0.006327231284775388 0.03238624233100162 0.9920676306509242 -0.07535348501646141 0.0018710960246524466 0.013758683818707072 -0.0015827154819750507 -0.0089526839871766
 0.9920676306509242 -0.07535348501646141 0.006339963152893589 0.032385494191501246 -0.0015830293919746935 -0.00895266541515509 0.0017814262125465487 0.013771085237784253
 0.0018710960246524466 0.013758683818707072 -0.0015830293919746935 -0.00895266541515509 0.006326792913135645 0.03238450170443028 0.9920675396726577 -0.07535533875746328
 -0.0015827154819750507 -0.0089526839871766 0.0017814262125465487 0.013771085237784253 0.9920675396726577 -0.07535533875746328 0.006340248083019279 0.03238367180485837
0.1438099208003 0.006612562216717041 0.03379596813407047 0.9916653510372477 -0.07869489472979456 0.0020053485982124146 0.014365297217823954 -0.0016921226961843477 -0.009343170494046153
 0.9916653510372477 -0.07869489472979456 0.006626482635532928 0.03379516992897632 -0.0016924655550472757 -0.009343149043445177 0.0019074848631205885 0.014379021659901512
 0.0020053485982124146 0.014365297217823954 -0.0016924655550472757 -0.009343149043445177 0.006612084370870508 0.03379415583231265 0.9916652515454812 -0.07869683464153068
 -0.0016921226961843477 -0.009343170494046153 0.0019074848631205885 0.014379021659901512 0.9916652515454812 -0.07869683464153068 0.006626794461977849 0.033793267138997544
0.1500625260525 0.006907289943973958 0.03519925280379622 0.991249890067665 -0.0820288507873838 0.0021447760382621675 0.014969904813363116 -0.0018056999292039152 -0.0097318490789293
 0.991249890067665 -0.0820288507873838 0.006922452643816794 0.03519840215162891 -0.0018060730034803417 -0.009731824491853745 0.0020383731236365884 0.014985045542615708
 0.0021447760382621675 0.014969904813363116 -0.0018060730034803417 -0.009731824491853745 0.006906771036180543 0.0351973697628469 0.9912497816341836 -0.08203087713282335
 -0.0018056999292039152 -0.0097318490789293 0.0020383731236365884 0.014985045542615708 0.9912497816341836 -0.08203087713282335 0.0069227926023130455 0.03519641927026414
0.15631513130469998 0.007211326837107689 0.036596013514875216 0.9908213381283235 -0.0853553020873651 0.002289339134760006 0.015572462416135125 -0.0019234097702167496 -0.01011867893157345
