! Created with skrf 1.8.0 (http://scikit-rf.org).
# GHz S RI R 50.0 
!freq ReS11 ImS11 ReS12 ImS12 ReS13 ImS13
! ReS14 ImS14
! ReS21 ImS21 ReS22 ImS22 ReS23 ImS23
! ReS24 ImS24
! ReS31 ImS31 ReS32 ImS32 ReS33 ImS33
! ReS34 ImS34
! ReS41 ImS41 ReS42 ImS42 ReS43 ImS43
! ReS44 ImS44
!
0.0 0.00164814404411 0.0 0.9983518559463 0.0 6.417122488661e-05 0.0 -6.417122478081e-05 7.858708502518428e-21
 0.9983518559463 0.0 0.00164814404413 0.0 -6.417122478138e-05 7.858708502588233e-21 6.417122488654e-05 0.0
 6.417122488661e-05 0.0 -6.417122478138e-05 7.858708502588233e-21 0.001648144048923 0.0 0.9983518559511 0.0
 -6.417122478081e-05 7.858708502518428e-21 6.417122488654e-05 0.0 0.9983518559511 0.0 0.001648144048917 0.0
0.005 0.001773680533588944 0.0013400877413921857 0.9981929448816986 -0.0034525520440868976 9.135334029967757e-05 0.0007546515352367853 -8.837050988952116e-05 -0.000465310354503364
 0.9981929448816986 -0.0034525520440868976 0.0017736964968253033 0.0013400783651968744 -8.836761957027143e-05 -0.0004653081084853631 9.12678908813469e-05 0.0007546841410106144
 9.135334029967757e-05 0.0007546515352367853 -8.836761957027143e-05 -0.0004653081084853631 0.0017736825051656024 0.001340153808942149 0.9981929452528023 -0.0034524849962829047
 -8.837050988952116e-05 -0.000465310354503364 9.12678908813469e-05 0.0007546841410106144 0.9981929452528023 -0.0034524849962829047 0.0017736952596319993 0.0013401463856845233
0.006252605252188 0.0018067026789139427 0.0016804042749781595 0.9981508581469706 -0.004316522028570152 9.919024275862252e-05 0.0009436503342913958 -9.525924235149674e-05 -0.0005822440832311052
 0.9981508581469706 -0.004316522028570152 0.0018067276328436667 0.0016803923675572463 -9.525474500738966e-05 -0.0005822413137300012 9.905673725497038e-05 0.0009436926763095236
 9.919024275862252e-05 0.0009436503342913958 -9.525474500738966e-05 -0.0005822413137300012 0.0018067056789927314 0.0016804868716303685 0.9981508586449949 -0.00431643819808946
 -9.525924235149674e-05 -0.0005822440832311052 9.905673725497038e-05 0.0009436926763095236 0.9981508586449949 -0.00431643819808946 0.0018067256160777601 0.0016804774150720738
0.01250521050438 0.001981107435018109 0.003396153344850318 0.9979270041232524 -0.008633776785616047 0.00014450747232492049 0.0018874603257060508 -0.00013464746541886014 -0.0011672860170496983
 0.9979270041232524 -0.008633776785616047 0.001981207084314545 0.003396127630832986 -0.00013462974449490405 -0.001167280896647067 0.0001439751146752765 0.0018875621869791168
 0.00014450747232492049 0.0018874603257060508 -0.00013462974449490405 -0.001167280896647067 0.0019811188706911 0.003396318163895837 0.9979270055654268 -0.00863360937496304
 -0.00013464746541886014 -0.0011672860170496983 0.0001439751146752765 0.0018875621869791168 0.9979270055654268 -0.00863360937496304 0.001981198475379322 0.003396297477389723
0.01875781575657 0.002171760774730981 0.005136359845881604 0.9976800005541693 -0.012962255197209656 0.00020022983262579655 0.0028320968311041474 -0.0001824629654862018 -0.0017542016821387495
 0.9976800005541693 -0.012962255197209656 0.002171984707514763 0.005136318257204019 -0.00018242345119245102 -0.0017541947140378503 0.00019903402701784256 0.0028322789300778825
 0.00020022983262579655 0.0028320968311041474 -0.00018242345119245102 -0.0017541947140378503 0.0021717860546674106 0.005136606604885442 0.9976800033755876 -0.012962004259161226
 -0.0001824629654862018 -0.0017542016821387495 0.00019903402701784256 0.0028322789300778825 0.9976800033755876 -0.012962004259161226 0.00217196492299601 0.005136572835151706
0.02501042100875 0.002379051936620735 0.006898543869125277 0.9974095420221045 -0.017304027665164128 0.0002664660784569158 0.003777592290859919 -0.00023882796081131324 -0.002342693964379144
 0.9974095420221045 -0.017304027665164128 0.0023794496526956866 0.006898484185303135 -0.00023875818740614604 -0.0023426857450073815 0.0002643421894744617 0.0037778787700701397
 0.0002664660784569158 0.003777592290859919 -0.00023875818740614604 -0.0023426857450073815 0.002379096464977878 0.0068988722206055845 0.9974095466637625 -0.0173036932136793
 -0.00023882796081131324 -0.002342693964379144 0.0002643421894744617 0.0037778787700701397 0.9974095466637625 -0.0173036932136793 0.0023794141102901263 0.006898823446840165
0.03126302626094 0.0026033539836744254 0.008681414627794303 0.9971153083690463 -0.02165996238395667 0.0003433253614270974 0.004723885930972251 -0.000303860742983637 -0.0029325515252594764
 0.9971153083690463 -0.02165996238395667 0.0026039749215026023 0.008681334478615473 -0.0003037523312104013 -0.0029325427452932032 0.00034000847589322206 0.004724304376036826
 0.0003433253614270974 0.004723885930972251 -0.0003037523312104013 -0.0029325427452932032 0.0026034231574319174 0.00868182415791818 0.9971153152750611 -0.021659544395111675
 -0.000303860742983637 -0.0029325515252594764 0.00034000847589322206 0.004724304376036826 0.9971153152750611 -0.021659544395111675 0.0026039190334514076 0.0086817583947662
0.037515631513130004 0.0028450315886923883 0.010484119469794271 0.9967969727777471 -0.02603047627041303 0.00043091602450328264 0.005670880007723229 -0.00037767659350490144 -0.003523592570641916
 0.9967969727777471 -0.02603047627041303 0.0028459251438489575 0.010484016335862623 -0.00037752124169062603 -0.0035235840152815986 0.00042614085027989715 0.005671461480240468
 0.00043091602450328264 0.005670880007723229 -0.00037752124169062603 -0.0035235840152815986 0.002845130797560701 0.01048460968814059 0.996796982395918 -0.02602997469185163
 -0.00037767659350490144 -0.003523592570641916 0.00042614085027989715 0.005671461480240468 0.996796982395918 -0.02602997469185163 0.0028458443150406933 0.010484524887238103
0.043768236765320004 0.0031044440346176473 0.01230601534381501 0.9964542050714138 -0.030415763429250363 0.0005293450360867311 0.0066184569193955805 -0.00046038810100296565 -0.004115647755793248
 0.9964542050714138 -0.030415763429250363 0.0031056595741153093 0.012305886556456137 -0.000460177579799107 -0.004115640304833297 0.0005228458591292282 0.00661923599416758
 0.0005293450360867311 0.0066184569193955805 -0.000460177579799107 -0.004115640304833297 0.003104578660980096 0.01230658568207298 0.9964542178540017 -0.030415178180653396
 -0.00046038810100296565 -0.004115647755793248 0.0005228458591292282 0.00661923599416758 0.9964542178540017 -0.030415178180653396 0.00310554920119863 0.012306479733102584
0.050020842017509996 0.0033819466008835363 0.014146574351658316 0.9960866734031562 -0.03481588953130204 0.0006387176449144149 0.007566486278440285 -0.0005521052697503538 -0.004708553134184068
 0.9960866734031562 -0.03481588953130204 0.0033835334756990424 0.014146417092305312 -0.0005518314187969715 -0.004708547762004254 0.000630228317658529 0.007567501082348959
 0.0006387176449144149 0.007566486278440285 -0.0005518314187969715 -0.004708547762004254 0.0033821220185754394 0.014147224155019884 0.9960866898077758 -0.034815220512218956
 -0.0005521052697503538 -0.004708553134184068 0.000630228317658529 0.007567501082348959 0.9960866898077758 -0.034815220512218956 0.0033833889455933855 0.014147094886436081
0.055454545454549996 0.0036380695669823624 0.015760874865272383 0.9957469076408861 -0.038651772240317704 0.0007427335624826452 0.008390611660583242 -0.0006392074707747194 -0.005224370506386092
 0.9957469076408861 -0.038651772240317704 0.0036400192183912686 0.015760690456711593 -0.0006388720090335346 -0.005224367805485552 0.0007322982584467762 0.008391865072342639
 0.0007427335624826452 0.008390611660583242 -0.0006388720090335346 -0.005224367805485552 0.003638284791033323 0.01576159312918505 0.9957469275698645 -0.038651030322332726
 -0.0006392074707747194 -0.005224370506386092 0.0007322982584467762 0.008391865072342639 0.9957469275698645 -0.038651030322332726 0.0036398412507089883 0.01576144178418579
0.056273447269699996 0.0036778912608283 0.016005337381012272 0.9956940452625355 -0.03923083811407397 0.0007591371335375845 0.00851482838948307 -0.0006529355340518883 -0.005302146705615287
 0.9956940452625355 -0.03923083811407397 0.003679898817038859 0.016005148680210277 -0.0006525902597453727 -0.005302144481152881 0.0007483910820675277 0.008516120640929636
 0.0007591371335375845 0.00851482838948307 -0.0006525902597453727 -0.005302144481152881 0.003678112834832571 0.01600606591111457 0.995694065753222 -0.039230085200080006
 -0.0006529355340518883 -0.005302146705615287 0.0007483910820675277 0.008516120640929636 0.995694065753222 -0.039230085200080006 0.0036797155068026563 0.016005911090332017
0.06252605252188 0.003992627044142348 0.017881888637962043 0.9952759881511893 -0.04366053598724534 0.0008907046207484727 0.009463336168271115 -0.0007629837247495804 -0.005896266529222791
 0.9952759881511893 -0.04366053598724534 0.003995104634315248 0.017881665373817694 -0.0007625589988154597 -0.00589626861590389 0.0008774348646611172 0.00946495121671462
 0.0008907046207484727 0.009463336168271115 -0.0007625589988154597 -0.00589626861590389 0.0039929001301357145 0.017882695067548828 0.9952760131997782 -0.043659699034471075
 -0.0007629837247495804 -0.005896266529222791 0.0008774348646611172 0.00946495121671462 0.9952760131997782 -0.043659699034471075 0.003994877910697372 0.01788251240084513
0.06877865777407 0.004326500218083837 0.019775840446708 0.9948321700817349 -0.0481048683765497 0.0010335188912270132 0.01041185629095294 -0.0008823520086570087 -0.00649074961238499
 0.9948321700817349 -0.0481048683765497 0.004329497211175803 0.019775579343157948 -0.0008818398671335453 -0.006490757268061885 0.001017458072272165 0.010413843156278921
 0.0010335188912270132 0.01041185629095294 -0.0008818398671335453 -0.006490757268061885 0.004326830159910497 0.019776723868069234 0.9948322001673023 -0.048103947212464596
 -0.0008823520086570087 -0.00649074961238499 0.001017458072272165 0.010413843156278921 0.9948322001673023 -0.048103947212464596 0.004329222428681925 0.019776511000137355
0.07503126302626001 0.004679854355164957 0.021686823634597226 0.9943622599679659 -0.05256368848918246 0.0011876762410853552 0.011360229936659376 -0.0010111398113012706 -0.0070854312130156465
 0.9943622599679659 -0.05256368848918246 0.00468342014676724 0.021686521259203922 -0.001010532353912545 -0.007085445789884333 0.0011685566586033668 0.01136264134814001
 0.0011876762410853552 0.011360229936659376 -0.001010532353912545 -0.007085445789884333 0.004680246484317002 0.021687783050333923 0.9943622955787429 -0.05256268292108994
 -0.0010111398113012706 -0.0070854312130156465 0.0011685566586033668 0.01136264134814001 0.9943622955787429 -0.05256268292108994 0.0046830926478815555 0.021687537563459088
0.08128386827845 0.005053030334471534 0.023614481131113942 0.9938659279534131 -0.057036823872131395 0.0013532703338027148 0.01230829328667745 -0.001149443728316535 -0.007680144392117697
 0.9938659279534131 -0.057036823872131395 0.005057214357136666 0.023614133892407085 -0.0011487331181729958 -0.007680167336623117 0.0013308239856194156 0.01231118572138757
 0.0013532703338027148 0.01230829328667745 -0.0011487331181729958 -0.007680167336623117 0.005053489969335846 0.023615515449800364 0.9938659695874882 -0.05703573369079577
 -0.001149443728316535 -0.007680144392117697 0.0013308239856194156 0.01231118572138757 0.9938659695874882 -0.05703573369079577 0.005056829471764913 0.023615234862556757
0.08753647353064001 0.00544636629758821 0.02555846354121792 0.9933428456973532 -0.0615240808038963 0.0015303920625830462 0.013255877884228055 -0.0012973574298965015 -0.008274719712886715
 0.9933428456973532 -0.0615240808038963 0.005451218030243277 0.025558067685832922 -0.0012965358932758406 -0.008274752565629014 0.0015043506898809785 0.013259311604855079
 0.0015303920625830462 0.013255877884228055 -0.0012965358932758406 -0.008274752565629014 0.005446898740871554 0.025559571585536255 0.9933428938629622 -0.06152290577478424
 -0.0012973574298965015 -0.008274719712886715 0.0015043506898809785 0.013259311604855079 0.9933428938629622 -0.06152290577478424 0.005450771074472541 0.02555925335123801
0.09378907878283 0.005860197570991738 0.02751842599564823 0.9927926866328545 -0.06602524741711432 0.001719129416915951 0.014202810900352587 -0.001454971559682429 -0.008868985041079773
 0.9927926866328545 -0.06602524741711432 0.005865766549334296 0.02751797760485218 -0.0014540313860985882 -0.008869029436691472 0.001689224553135527 0.014206849992272366
 0.001719129416915951 0.014202810900352587 -0.0014540313860985882 -0.008869029436691472 0.005860808109419321 0.02751960649663033 0.9927927418500537 -0.06602398728548135
 -0.001454971559682429 -0.008868985041079773 0.001689224553135527 0.014206849992272366 0.9927927418500537 -0.06602398728548135 0.005865252825464935 0.027519248001328628
0.100041684035 0.00629485656756787 0.029494025846425614 0.9922151262063654 -0.07054009598426979 0.0019195673527130706 0.015148915343202635 -0.0016223736298517002 -0.00946276540944522
 0.9922151262063654 -0.07054009598426979 0.0063011923935659435 0.029493520832392442 -0.0016213071721584845 -0.009462823076469314 0.001885530375278337 0.015153627750756219
 0.0019195673527130706 0.015148915343202635 -0.0016213071721584845 -0.009462823076469314 0.006295550469865313 0.02949527744435038 0.9922151890075521 -0.0705387504737964
 -0.0016223736298517002 -0.00946276540944522 0.001885530375278337 0.015153627750756219 0.9922151890075521 -0.0705387504737964 0.0063006071892869235 0.029494876004313258
0.1059090909091 0.006721973972725404 0.03136183401506844 0.9916479386229746 -0.07478903081999809 0.0021183715501177087 0.016035819269450812 -0.0017884398547266841 -0.010019365819167214
 0.9916479386229746 -0.07478903081999809 0.006729074584193806 0.03136127199396047 -0.0017872479944617329 -0.010019437595637998 0.0020802126220892535 0.016041228775576417
 0.0021183715501177087 0.016035819269450812 -0.0017872479944617329 -0.010019437595637998 0.00672275087778733 0.03136315101096033 0.9916480090365933 -0.07478760492101828
 -0.0017884398547266841 -0.010019365819167214 0.0020802126220892535 0.016041228775576417 0.9916480090365933 -0.07478760492101828 0.006728418003732284 0.03136270676641039
0.1062942892872 0.006750672670130459 0.03148492093421082 0.991609842103814 -0.0750683846401588 0.0021317876644490652 0.01609401022722484 -0.0017996479133219198 -0.010055882929996792
 0.991609842103814 -0.0750683846401588 0.006757825022005933 0.03148435503578193 -0.0017984475879786832 -0.010055955690752915 0.0020933498494639787 0.01609946778910746
 0.0021317876644490652 0.01609401022722484 -0.0017984475879786832 -0.010055955690752915 0.006751455185602379 0.031486242177338634 0.9916099130343233 -0.07506695345367347
 -0.0017996479133219198 -0.010055882929996792 0.0020933498494639787 0.01609946778910746 0.9916099130343233 -0.07506695345367347 0.0067571636097676505 0.03148579503624432
0.11254689453939999 0.007227972102776689 0.03349076827856812 0.9909765144669092 -0.0796098586901801 0.00235586885898589 0.01703791071379471 -0.001986875334137434 -0.010648156742658017
 0.9909765144669092 -0.0796098586901801 0.0072359907448202405 0.033490137056632945 -0.001985533621526976 -0.010648246513098333 0.0023127614383546906 0.017044189197578018
 0.00235586885898589 0.01703791071379471 -0.001985533621526976 -0.010648246513098333 0.007228848459663472 0.033492157622031976 0.9909765940864026 -0.07960834151038829
 -0.001986875334137434 -0.010648156742658017 0.0023127614383546906 0.017044189197578018 0.9909765940864026 -0.07960834151038829 0.007235248381431418 0.03349166194762796
0.11879949979160001 0.00772707779185479 0.03551122305338719 0.9903148261028364 -0.08416425164266932 0.002591886031092431 0.017980428239128862 -0.0021841333559797704 -0.011239402984637631
 0.9903148261028364 -0.08416425164266932 0.0077360125842236525 0.0355105218857638 -0.002182642800777244 -0.011239511774153343 0.0025438402519124825 0.017987607374699587
 0.002591886031092431 0.017980428239128862 -0.002182642800777244 -0.011239511774153343 0.007728053195835416 0.035512678859015774 0.9903149149858663 -0.08416264813181597
 -0.0021841333559797704 -0.011239402984637631 0.0025438402519124825 0.017987607374699587 0.9903149149858663 -0.08416264813181597 0.007735184510364574 0.035512131739365245
0.1250521050438 0.008248309219468848 0.03754593779531198 0.9896244626888198 -0.08873128601726259 0.0028399107398815906 0.018921370623532663 -0.002391495869905353 -0.011829434786492638
 0.9896244626888198 -0.08873128601726259 0.008258210127984191 0.03754516187124613 -0.0023898490816169483 -0.011829564697764403 0.0027866579258642526 0.018929534135564748
 0.0028399107398815906 0.018921370623532663 -0.0023898490816169483 -0.011829564697764403 0.008249388851935978 0.03754745833337116 0.9896245614259465 -0.08872959581528855
 -0.002391495869905353 -0.011829434786492638 0.0027866579258642526 0.018929534135564748 0.9896245614259465 -0.08872959581528855 0.008257291567383158 0.037546856772644153
0.131304710296 0.008791982270145325 0.03959456177129063 0.9889051129727011 -0.09331067400402397 0.0031000108865405084 0.019860542179007373 -0.002609033081150373 -0.01241806227811875
 0.9889051129727011 -0.09331067400402397 0.00880289937618552 0.03959370608543376 -0.002607222734600699 -0.012418215506911093 0.0030412825015122646 0.01986977781832345
 0.0031000108865405084 0.019860542179007373 -0.002607222734600699 -0.012418215506911093 0.008793171286679027 0.039596145214594994 0.9889052221713646 -0.09330889673408846
 -0.002609033081150373 -0.01241806227811875 0.0030412825015122646 0.01986977781832345 0.9889052221713646 -0.09330889673408846 0.008801885535576637 0.039595486128294145
0.1375573155481 0.009237456836341893 0.04138799911575004 0.9882774744752807 -0.09763324040390649 0.0033409553716718587 0.020770853192809267 -0.0028055897615305086 -0.012978175439667922
 0.9882774744752807 -0.09763324040390649 0.009249442755014131 0.04138707586191055 -0.002803604895365082 -0.012978352265670585 0.003276615300776371 0.020781151233451773
 0.0033409553716718587 0.020770853192809267 -0.002803604895365082 -0.012978352265670585 0.009238759776157634 0.0413896438825558 0.9882775946247364 -0.09763137584126431
 -0.0028055897615305086 -0.012978175439667922 0.003276615300776371 0.020781151233451773 0.9882775946247364 -0.09763137584126431 0.009248329665576684 0.04138894113543791
0.1438099208003 0.009698692467221354 0.043171218282738774 0.987627550148147 -0.10194410125208096 0.0035916345467596955 0.02167706067462424 -0.003009998683943172 -0.013534563476500816
 0.987627550148147 -0.10194410125208096 0.00971179778887078 0.043170223474449446 -0.0030078314122776906 -0.013534766071904453 0.003521438349647838 0.021688501725640377
 0.0035916345467596955 0.02167706067462424 -0.0030078314122776906 -0.013534766071904453 0.009700114338861194 0.043172922496359546 0.9876276818556078 -0.10194214902710122
 -0.003009998683943172 -0.013534563476500816 0.003521438349647838 0.021688501725640377 0.9876276818556078 -0.10194214902710122 0.009710580780606838 0.04317217404761709
0.1500625260525 0.010175515288496003 0.04494404825198666 0.9869555184992344 -0.1062431272634564 0.003851955769793758 0.02257905774937714 -0.00322217040039092 -0.014087126736235273
 0.9869555184992344 -0.1062431272634564 0.010189790720611885 0.04494297767087759 -0.00321981285639872 -0.014087357360789636 0.0037756606663728585 0.022591725348815164
 0.003851955769793758 0.02257905774937714 -0.00321981285639872 -0.014087357360789636 0.010177061068881967 0.044945809962543916 0.9869556623863283 -0.10624108699204453
 -0.00322217040039092 -0.014087126736235273 0.0037756606663728585 0.022591725348815164 0.9869556623863283 -0.10624108699204453 0.01018846511588078 0.04494501361765577
0.15631513130469998 0.010667750048011458 0.04670632312906995 0.9862615591053765 -0.11053019009620135 0.004121825219583981 0.023476739489570717 -0.0034420142840197255 -0.014635767803559052
 0.9862615591053765 -0.11053019009620135 0.010683246417880272 0.04670517231920132 -0.003439458620143185 -0.014636028804158617 0.004039190118447147 0.02349072006989051
