! Created with skrf 1.8.0 (http://scikit-rf.org).
# GHz S RI R 50.0 
!freq ReS11 ImS11 ReS12 ImS12 ReS13 ImS13
! ReS14 ImS14
! ReS21 ImS21 ReS22 ImS22 ReS23 ImS23
! ReS24 ImS24
! ReS31 ImS31 ReS32 ImS32 ReS33 ImS33
! ReS34 ImS34
! ReS41 ImS41 ReS42 ImS42 ReS43 ImS43
! ReS44 ImS44
!
0.0 0.001681388120051 0.0 0.9983186118572 0.0 6.533309277844e-05 0.0 -6.533309233417e-05 8.000996240543978e-21
 0.9983186118572 0.0 0.001681388120043 0.0 -6.533309233466e-05 8.000996240603984e-21 6.533309277866e-05 0.0
 6.533309277844e-05 0.0 -6.533309233466e-05 8.000996240603984e-21 0.001681388131432 0.0 0.9983186118686 0.0
 -6.533309233417e-05 8.000996240543978e-21 6.533309277866e-05 0.0 0.9983186118686 0.0 0.001681388131398 0.0
0.005 0.0018095224473088924 0.0013705330619405876 0.9981564142661262 -0.003521816582237507 9.252710872550274e-05 0.00074770297657797 -8.963145429201081e-05 -0.00046437517396087527
 0.9981564142661262 -0.003521816582237507 0.0018095324312301904 0.0013705272590397955 -8.963311090880468e-05 -0.0004643764924034526 9.245141666728047e-05 0.0007477316845187308
 9.252710872550274e-05 0.00074770297657797 -8.963311090880468e-05 -0.0004643764924034526 0.0018095209959585327 0.0013704666769754769 0.9981564138916099 -0.003521883643364415
 -8.963145429201081e-05 -0.00046437517396087527 9.245141666728047e-05 0.0007477316845187308 0.9981564138916099 -0.003521883643364415 0.0018095331353903219 0.0013704595215791272
0.006252605252188 0.0018432584558913923 0.0017185606698697598 0.998113417107098 -0.004403113060669279 0.00010037829009974693 0.0009349687347882172 -9.655766977300811e-05 -0.000581067522111852
 0.998113417107098 -0.004403113060669279 0.0018432740627712656 0.0017185533286899971 -9.656024722107264e-05 -0.0005810691484281958 0.00010026002740530721 0.0009350060484236768
 0.00010037829009974693 0.0009349687347882172 -9.656024722107264e-05 -0.0005810691484281958 0.001843256271228015 0.0017184777045431863 0.9981134166062419 -0.004403196877201937
 -9.655766977300811e-05 -0.000581067522111852 0.00010026002740530721 0.0009350060484236768 0.9981134166062419 -0.004403196877201937 0.0018432752485644877 0.0017184686610535172
0.01250521050438 0.002021610374505949 0.00347309386458533 0.9978844924490249 -0.00880690347003349 0.00014583522418672775 0.001870144333301777 -0.00013620955802449262 -0.0011648882270877939
 0.9978844924490249 -0.00880690347003349 0.002021672693990399 0.003473078320618311 -0.00013621971092215188 -0.0011648912404156751 0.00014536358401215068 0.0018702344436065954
 0.00014583522418672775 0.001870144333301777 -0.00013621971092215188 -0.0011648912404156751 0.0020216021976081724 0.003472928251167022 0.9978844910019151 -0.008807070858230306
 -0.00013620955802449262 -0.0011648882270877939 0.00014536358401215068 0.0018702344436065954 0.9978844910019151 -0.008807070858230306 0.002021677989231484 0.003472909163521954
0.01875781575657 0.0022168612151788015 0.005252491940632178 0.9976315337189213 -0.013222061601650254 0.00020181256177069794 0.0028061602173997933 -0.00018441741900147404 -0.0017505621216895198
 0.9976315337189213 -0.013222061601650254 0.0022170012526653363 0.00525246730858379 -0.00018444005371900477 -0.00175056623448471 0.00020075299415779158 0.002806321806659366
 0.00020181256177069794 0.0028061602173997933 -0.00018444005371900477 -0.00175056623448471 0.0022168432480461466 0.005252243893372628 0.9976315308860456 -0.013222312456096534
 -0.00018441741900147404 -0.0017505621216895198 0.00020075299415779158 0.002806321806659366 0.9976315308860456 -0.013222312456096534 0.002217013584986787 0.005252213670741634
0.02501042100875 0.002429414260433767 0.007054219566634256 0.9973542240370712 -0.017650691737746766 0.00026842060582809137 0.0037430376658888643 -0.00024130493797624736 -0.002337793680669329
 0.9973542240370712 -0.017650691737746766 0.0024296629655928626 0.007054184950902185 -0.0002413448999381246 -0.0023377985521608837 0.00026653844103490876 0.0037432925227781602
 0.00026842060582809137 0.0037430376658888643 -0.0002413448999381246 -0.0023377985521608837 0.0024293827081870822 0.007053889294543559 0.9973542193820133 -0.01765102599366199
 -0.00024130493797624736 -0.002337793680669329 0.00026653844103490876 0.0037432925227781602 0.9973542193820133 -0.01765102599366199 0.002429685267539956 0.007053846771847437
0.03126302626094 0.002659656045034139 0.008876953658893747 0.9970522314473718 -0.022093672117922205 0.0003457698795830633 0.004680707807112986 -0.00030699177926650506 -0.0029263698354288813
 0.9970522314473718 -0.022093672117922205 0.0026600443327424823 0.008876908157035167 -0.0003070538632102732 -0.0029263750710274627 0.0003428301232755933 0.004681080847032513
 0.0003457698795830633 0.004680707807112986 -0.0003070538632102732 -0.0029263750710274627 0.0026596071106841086 0.008876541397216933 0.9970522245325184 -0.02209408971994541
 -0.00030699177926650506 -0.0029263698354288813 0.0003428301232755933 0.004681080847032513 0.9970522245325184 -0.02209408971994541 0.0026600795387911867 0.008876485338402695
0.037515631513130004 0.0029079643576360456 0.010719817651574717 0.9967252172363305 -0.026551420610758436 0.00043396994349831244 0.005619065862588352 -0.0003815944844654912 -0.0035161057481956958
 0.9967252172363305 -0.026551420610758436 0.002908523123145395 0.010719760356269259 -0.0003816834397384002 -0.0035161108993798274 0.00042973719040584834 0.00561958515958775
 0.00043396994349831244 0.005619065862588352 -0.0003816834397384002 -0.0035161108993798274 0.002907894244028604 0.010719323659437417 0.996725207625087 -0.02655192151594122
 -0.0003815944844654912 -0.0035161057481956958 0.00042973719040584834 0.00561958515958775 0.996725207625087 -0.02655192151594122 0.002908574172021427 0.010719252758635502
0.043768236765320004 0.0031747113192885056 0.012582148470389779 0.9963728393331944 -0.031024127671470503 0.0005331288345343755 0.006557987650072432 -0.00046522677894254746 -0.004106828330321224
 0.9963728393331944 -0.031024127671470503 0.003175471451321818 0.012582078470834115 -0.0004653473125980835 -0.004106832894609358 0.0005273672332316357 0.006558684472314499
 0.0005331288345343755 0.006557987650072432 -0.0004653473125980835 -0.004106832894609358 0.003174616228420786 0.012581573032622445 0.9963728265887186 -0.03102471184795633
 -0.00046522677894254746 -0.004106828330321224 0.0005273672332316357 0.006558684472314499 0.9963728265887186 -0.03102471184795633 0.003175541285503435 0.012581485914733329
0.050020842017509996 0.0034602648055479905 0.014463400202366755 0.9959947540559794 -0.03551185260248589 0.0006433527212103057 0.0074973364083022985 -0.0005579996717702556 -0.004698369443438331
 0.9959947540559794 -0.03551185260248589 0.003461257198297349 0.014463316585239375 -0.0005581564506685579 -0.0046983728644283025 0.0006358259658601706 0.007498245254905311
 0.0006433527212103057 0.0074973364083022985 -0.0005581564506685579 -0.0046983728644283025 0.003460140938941744 0.014462743639916075 0.9959947377416721 -0.03551252001976263
 -0.0005579996717702556 -0.004698369443438331 0.0006358259658601706 0.007498245254905311 0.9959947377416721 -0.03551252001976263 0.0034613487633502796 0.01446263886064765
0.055454545454549996 0.0037239756852303647 0.016113260150562223 0.9956450416014117 -0.03942400031167061 0.000748207615665894 0.008313892507800994 -0.0006461295907456726 -0.005212972018465788
 0.9956450416014117 -0.03942400031167061 0.003725195021860814 0.016113163956020554 -0.0006463216276369729 -0.005212973952171061 0.0007389546316849581 0.008315016164867978
 0.000748207615665894 0.008313892507800994 -0.0006463216276369729 -0.005212973952171061 0.0037238237266248716 0.01611253337929573 0.9956450218301964 -0.039424740042149235
 -0.0006461295907456726 -0.005212972018465788 0.0007389546316849581 0.008315016164867978 0.9956450218301964 -0.039424740042149235 0.003725307866709148 0.016112412024787387
0.056273447269699996 0.003764989159067422 0.0163630968618235 0.9955906171548816 -0.04001457072095773 0.0007647456541807957 0.008436966149208589 -0.000660021463170508 -0.005290562578843637
 0.9955906171548816 -0.04001457072095773 0.0037662447230192475 0.016362998711754718 -0.0006602191152130507 -0.00529056424624019 0.0007552169925566039 0.008438124787523291
 0.0007647456541807957 0.008436966149208589 -0.0006602191152130507 -0.00529056424624019 0.0037648327179967923 0.016362359533573043 0.995590596834072 -0.040015321348639804
 -0.000660021463170508 -0.005290562578843637 0.0007552169925566039 0.008438124787523291 0.995590596834072 -0.040015321348639804 0.003766360968171054 0.016362235579067203
0.06252605252188 0.0040892455583844 0.018280806393734694 0.9951600845154253 -0.04453219929408707 0.0008974093643604129 0.009376723516028198 -0.0007713977044131436 -0.005883241037217894
 0.9951600845154253 -0.04453219929408707 0.004090795231769453 0.018280692793459827 -0.0007716408196096638 -0.005883240286894016 0.0008856416171440282 0.00937817301896339
 0.0008974093643604129 0.009376723516028198 -0.0007716408196096638 -0.005883240286894016 0.004089052744647836 0.018279988688968095 0.9951600597512718 -0.04453303311009939
 -0.0007713977044131436 -0.005883241037217894 0.0008856416171440282 0.00937817301896339 0.9951600597512718 -0.04453303311009939 0.004090939108845535 0.018279843974985385
0.06877865777407 0.004433392196279973 0.020216125198863396 0.9947028126767016 -0.049064612958883314 0.0010414430873724259 0.010316448896252146 -0.0008922311314331821 -0.00647623686030712
 0.9947028126767016 -0.049064612958883314 0.004435266955424012 0.020215995229048492 -0.0008925242624440705 -0.006476232974350635 0.0010271986750526917 0.010318233679450324
 0.0010414430873724259 0.010316448896252146 -0.0008925242624440705 -0.006476232974350635 0.004433159212066336 0.020215227544483887 0.9947027830321468 -0.04906552994281723
 -0.0008922311314331821 -0.00647623686030712 0.0010271986750526917 0.010318233679450324 0.9947027830321468 -0.04906552994281723 0.004435441418681479 0.02021506041534707
0.07503126302626001 0.004797784345966554 0.02216866830730357 0.9942184592420076 -0.053611653500983784 0.0011969434046788451 0.011255977136633013 -0.0010226215805152422 -0.007069380167742506
 0.9942184592420076 -0.053611653500983784 0.004800015216427678 0.022168521045864906 -0.0010229692431321016 -0.007069372374516111 0.0011799843805161464 0.011258144995209088
 0.0011969434046788451 0.011255977136633013 -0.0010229692431321016 -0.007069372374516111 0.004797507394469285 0.022167691169842983 0.9942184242790062 -0.053612653632670926
 -0.0010226215805152422 -0.007069380167742506 0.0011799843805161464 0.011258144995209088 0.9942184242790062 -0.053612653632670926 0.00480022322174312 0.022167499896883512
0.08128386827845 0.005182774355583401 0.02413806286715747 0.9937066832219908 -0.05817313632569072 0.0013640040937647924 0.012195138033984297 -0.0011626658942163754 -0.00766249872540062
 0.9937066832219908 -0.05817313632569072 0.005185392422552593 0.024137897388382887 -0.0011630725676259428 -0.007662486199607269 0.0013440921812597811 0.012197740178852574
 0.0013640040937647924 0.012195138033984297 -0.0011630725676259428 -0.007662486199607269 0.005182449641902476 0.02413700675109913 0.9937066425022542 -0.05817421958758994
 -0.0011626658942163754 -0.00766249872540062 0.0013440921812597811 0.012197740178852574 0.9937066425022542 -0.05817421958758994 0.005185636927470948 0.024136789530827502
0.08753647353064001 0.005588711596466186 0.026123943634963342 0.9931671453363227 -0.06274885493601196 0.0015427159847953094 0.013133756684873094 -0.0013124578197046698 -0.008255417662668577
 0.9931671453363227 -0.06274885493601196 0.005591748015948862 0.026123759008023658 -0.001312927946650393 -0.008255399525407705 0.0015196126190921112 0.013136847778450554
 0.0015427159847953094 0.013133756684873094 -0.001312927946650393 -0.008255399525407705 0.005588335327970009 0.02612280908237805 0.9931670984207109 -0.06275002131397994
 -0.0013124578197046698 -0.008255417662668577 0.0015196126190921112 0.013136847778450554 0.9931670984207109 -0.06275002131397994 0.005592031978939954 0.026122564034232857
0.09378907878283 0.006015942378265377 0.02812594976172227 0.992599508285835 -0.06733858412329939 0.0017331668222659929 0.01407165374873833 -0.0014720879013627607 -0.008847959284052073
 0.992599508285835 -0.06733858412329939 0.006019428387589389 0.02812574504901099 -0.0014726258882577824 -0.008847934602887405 0.001706633194697084 0.01407529194000402
 0.0017331668222659929 0.01407165374873833 -0.0014726258882577824 -0.008847934602887405 0.006015510765207343 0.02812473735358416 0.9925994547342297 -0.06733983360597084
 -0.0014720879013627607 -0.008847959284052073 0.001706633194697084 0.01407529194000402 0.9925994547342297 -0.06733983360597084 0.006019754767168136 0.02812446251735294
0.100041684035 0.006464809840214728 0.03014372244267409 0.9920034370049098 -0.07194208230345468 0.0019354411291793718 0.015008645652750069 -0.0016416433702461527 -0.00943994294725146
 0.9920034370049098 -0.07194208230345468 0.006468776768962639 0.030143496697614493 -0.001642253587092092 -0.009439910736291057 0.001905238234669428 0.015012892611581013
 0.0019354411291793718 0.015008645652750069 -0.001642253587092092 -0.009439910736291057 0.006464319096552117 0.030142432802777574 0.9920033763764026 -0.07194341487884102
 -0.0016416433702461527 -0.00943994294725146 0.001905238234669428 0.015012892611581013 0.9920033763764026 -0.07194341487884102 0.006469148523852871 0.030142126135526172
0.1059090909091 0.006906005442885301 0.03205120823822191 0.9914179304070116 -0.07627427178968385 0.002136079776123931 0.015886922853532954 -0.0018098549228012354 -0.00999478579801642
 0.9914179304070116 -0.07627427178968385 0.0069104522494189136 0.03205096188529792 -0.0018105368618176218 -0.00999474557692588 0.0021022161601624537 0.015891800330076297
 0.002136079776123931 0.015886922853532954 -0.0018105368618176218 -0.00999474557692588 0.006905455771922852 0.03204984672698725 0.9914178627355456 -0.07627568233081321
 -0.0018098549228012354 -0.00999478579801642 0.0021022161601624537 0.015891800330076297 0.9914178627355456 -0.07627568233081321 0.0069108692743479385 0.032049508255033804
0.1062942892872 0.006935653826110735 0.03217690316142652 0.9913785989017854 -0.0765590932679578 0.00214962007369013 0.01594454476478656 -0.0018212080305275158 -0.01003118498121694
 0.9913785989017854 -0.0765590932679578 0.00694013310733587 0.03217665542578929 -0.0018218948109088452 -0.010031144201181789 0.002115508760640045 0.01594946571548952
 0.00214962007369013 0.01594454476478656 -0.0018218948109088452 -0.010031144201181789 0.006935100170206497 0.0321755369524188 0.9913785307543382 -0.07656050892796355
 -0.0018212080305275158 -0.01003118498121694 0.002115508760640045 0.01594946571548952 0.9913785307543382 -0.07656050892796355 0.006940553195452837 0.03217519632510044
0.11254689453939999 0.007428810745343584 0.0342251323495046 0.9907246640866115 -0.08118934752900653 0.0023757813376786294 0.01687915953343981 -0.002010862144020931 -0.01062149864570689
 0.9907246640866115 -0.08118934752900653 0.00743383392626778 0.03422486165049151 -0.0020116297849713514 -0.01062144820399395 0.002337522359973831 0.01688482328747382
 0.0023757813376786294 0.01687915953343981 -0.0020116297849713514 -0.01062144820399395 0.007428190400485801 0.03422369027543041 0.9907245879769487 -0.08119084626737895
 -0.002010862144020931 -0.01062149864570689 0.002337522359973831 0.01688482328747382 0.9907245879769487 -0.08119084626737895 0.00743430530420261 0.034223313469122454
0.11879949979160001 0.007944613423312692 0.03628804835345193 0.9900413055940791 -0.08583256336706645 0.0026139989865067346 0.01781229461811062 -0.0022106823133166377 -0.011210694109184622
 0.9900413055940791 -0.08583256336706645 0.007950212176785725 0.03628775370010241 -0.0022115350751515665 -0.011210632859991057 0.0025713530577146614 0.017818773605913916
 0.0026139989865067346 0.01781229461811062 -0.0022115350751515665 -0.011210632859991057 0.007943922618620725 0.03628653116001289 0.9900412210774302 -0.08583414517964479
 -0.0022106823133166377 -0.011210694109184622 0.0025713530577146614 0.017818773605913916 0.9900412210774302 -0.08583414517964479 0.007950737799240834 0.036286115861550804
0.1250521050438 0.008483390945106794 0.03836528662237448 0.9893281995999859 -0.0904884476679186 0.0028643433405034337 0.018743751004286345 -0.0024207413638725806 -0.011798578450273038
 0.9893281995999859 -0.0904884476679186 0.008489597080330943 0.03836496700175361 -0.0024216834699679027 -0.011798505194664508 0.0028170711897509003 0.018751121306127588
 0.0028643433405034337 0.018743751004286345 -0.0024216834699679027 -0.011798505194664508 0.008482625916267542 0.03836369509945127 0.9893281062304271 -0.09049011255065197
 -0.0024207413638725806 -0.011798578450273038 0.0028170711897509003 0.018751121306127588 0.9893281062304271 -0.09049011255065197 0.008490179899700792 0.03836323889681021
0.131304710296 0.009045468490849333 0.04045647907364527 0.9885850256342905 -0.09515669659204022 0.0031268808473124657 0.019673326111824395 -0.0026411082255182587 -0.012384955675018695
 0.9885850256342905 -0.09515669659204022 0.00905231396516125 0.04045613344631986 -0.0026421438621927447 -0.012384869160998077 0.0030747432770836867 0.019681667487649726
 0.0031268808473124657 0.019673326111824395 -0.0026421438621927447 -0.012384869160998077 0.009044625481136534 0.04045481405111421 0.9885849229640067 -0.09515844454552602
 -0.0026411082255182587 -0.012384955675018695 0.0030747432770836867 0.019681667487649726 0.9885849229640067 -0.09515844454552602 0.009052956930457804 0.040454314428343276
0.1375573155481 0.009507012381127396 0.04228793813207926 0.9879356778240548 -0.09956353158220943 0.0033702441617617655 0.02057383715660245 -0.0028404837268579883 -0.012942624935052521
 0.9879356778240548 -0.09956353158220943 0.009514531985627137 0.04228757309645711 -0.0028416192512559823 -0.012942524983611066 0.0033131266399819524 0.02058314160546581
 0.0033702441617617655 0.02057383715660245 -0.0028416192512559823 -0.012942524983611066 0.009506088441135667 0.04228620011695244 0.9879355654344235 -0.09956536255412056
 -0.0028404837268579883 -0.012942624935052521 0.0033131266399819524 0.02058314160546581 0.9879355654344235 -0.09956536255412056 0.009515237181035347 0.04228566274342957
0.1438099208003 0.009984922704606177 0.044108825179195496 0.9872632163326311 -0.10395827278814514 0.003623422157972755 0.021470130176816253 -0.0030478057840212175 -0.013496463650532295
 0.9872632163326311 -0.10395827278814514 0.009993149023826189 0.04410844000552108 -0.0030490457197952293 -0.013496349017639 0.0035611080767137425 0.02148047095239579
 0.003623422157972755 0.021470130176816253 -0.0030490457197952293 -0.013496349017639 0.009983914232452344 0.044107014984413814 0.9872630937806144 -0.10396018676655415
 -0.0030478057840212175 -0.013496463650532295 0.0035611080767137425 0.02148047095239579 0.9872630937806144 -0.10396018676655415 0.00999391923642913 0.04410643767543253
0.1500625260525 0.010479017106331635 0.04591896105162479 0.986567828247416 -0.108340783500045 0.0038863187628647797 0.02236209462297576 -0.0032629816184037907 -0.014046369181646331
 0.986567828247416 -0.108340783500045 0.010487982878624912 0.04591855491608993 -0.003264330479592617 -0.014046238572610429 0.0038185930195871916 0.02237354763909245
 0.0038863187628647797 0.02236209462297576 -0.003264330479592617 -0.014046238572610429 0.010477920516290198 0.045917079520425785 0.9865676950891218 -0.10834278047261703
 -0.0032629816184037907 -0.014046369181646331 0.0038185930195871916 0.02237354763909245 0.9865676950891218 -0.10834278047261703 0.010488820881883491 0.04591645994177477
0.15631513130469998 0.010989111763453208 0.047718171948435216 0.9858497018008449 -0.11271092810139814 0.004158836658892979 0.023249622008917305 -0.003485917212844203 -0.01459224122869346
 0.9858497018008449 -0.11271092810139814 0.010998849884954988 0.04771774392684419 -0.003487379503714179 -0.014592093298387907 0.0040854856820809506 0.023262265807943938
