! Created with skrf 1.8.0 (http://scikit-rf.org).
# GHz S RI R 50.0 
!freq ReS11 ImS11 ReS12 ImS12 ReS13 ImS13
! ReS14 ImS14
! ReS21 ImS21 ReS22 ImS22 ReS23 ImS23
! ReS24 ImS24
! ReS31 ImS31 ReS32 ImS32 ReS33 ImS33
! ReS34 ImS34
! ReS41 ImS41 ReS42 ImS42 ReS43 ImS43
! ReS44 ImS44
!
0.0 0.001322751916018 0.0 0.9986772480626 0.0 5.035402306419e-05 0.0 -5.035402323063e-05 6.166589337358249e-21
 0.9986772480626 0.0 0.001322751916066 0.0 -5.035402323108e-05 6.1665893374133586e-21 5.035402306442e-05 0.0
 5.035402306419e-05 0.0 -5.035402323108e-05 6.1665893374133586e-21 0.001322751908225 0.0 0.9986772480548 0.0
 -5.035402323063e-05 6.166589337358249e-21 5.035402306442e-05 0.0 0.9986772480548 0.0 0.001322751908239 0.0
0.005 0.001422558999652501 0.0010880917436575342 0.9985511010977777 -0.002771145945360488 6.933498898429055e-05 0.0005215953427595536 -6.764539331146264e-05 -0.0003332804640465397
 0.9985511010977777 -0.002771145945360488 0.0014225495085231857 0.0010880972292266647 -6.764585254016292e-05 -0.00033328075709336286 6.93871639916613e-05 0.000521575403848145
 6.933498898429055e-05 0.0005215953427595536 -6.764585254016292e-05 -0.00033328075709336286 0.0014225587520105304 0.0010880245854374801 0.9985511007635547 -0.0027712130116419823
 -6.764539331146264e-05 -0.0003332804640465397 6.93871639916613e-05 0.000521575403848145 0.9985511007635547 -0.0027712130116419823 0.0014225490926753578 0.001088030259404217
0.006252605252188 0.0014485725901007417 0.0013643921081821211 0.9985180474729596 -0.0034646333963494827 7.464956052454175e-05 0.0006522734788093251 -7.244741625552527e-05 -0.0004170329665185505
 0.9985180474729596 -0.0034646333963494827 0.0014485577545440263 0.0013643991018502176 -7.24481313405859e-05 -0.0004170333266982585 7.473107896983195e-05 0.0006522476210530525
 7.464956052454175e-05 0.0006522734788093251 -7.24481313405859e-05 -0.0004170333266982585 0.0014485722643943078 0.0013643081705017638 0.9985180470113209 -0.0034647172156657383
 -7.244741625552527e-05 -0.0004170329665185505 7.473107896983195e-05 0.0006522476210530525 0.9985180470113209 -0.0034647172156657383 0.0014485571650966539 0.0013643154109953676
0.01250521050438 0.0015845655756491024 0.002757402969308007 0.998344269079659 -0.00693019391926614 0.00010455721076693943 0.0013050696120544916 -9.926410822795678e-05 -0.000836155703313652
 0.998344269079659 -0.00693019391926614 0.0015845063477673512 0.002757418341574627 -9.92669323088772e-05 -0.0008361563566131801 0.00010488227320660365 0.0013050079007477042
 0.00010455721076693943 0.0013050696120544916 -9.92669323088772e-05 -0.0008361563566131801 0.0015845648671491432 0.002757235309932255 0.9983442678192929 -0.006930361320884351
 -9.926410822795678e-05 -0.000836155703313652 0.00010488227320660365 0.0013050079007477042 0.9983442678192929 -0.006930361320884351 0.0015845045721519827 0.002757251291981763
0.01875781575657 0.0017309931908849117 0.004170365522075468 0.9981557214789607 -0.010405144743001029 0.0001401425555080342 0.0019588095721791246 -0.00013087871439758817 -0.001256830857532681
 0.9981557214789607 -0.010405144743001029 0.0017308601230622512 0.0041703907643858605 -0.00013088502075427234 -0.0012568317237526116 0.00014087274117202878 0.0019587002495836544
 0.0001401425555080342 0.0019588095721791246 -0.00013088502075427234 -0.0012568317237526116 0.0017309920399652225 0.0041701142276929165 0.998155719068883 -0.010405395650954302
 -0.00013087871439758817 -0.001256830857532681 0.00014087274117202878 0.0019587002495836544 0.998155719068883 -0.010405395650954302 0.0017308565462243756 0.004170140569773967
0.02501042100875 0.0018881118042154916 0.005601350282640533 0.9979522066567376 -0.013891204746415376 0.00018147161100446666 0.002613534118175193 -0.00016736413165774848 -0.0016788979557332683
 0.9979522066567376 -0.013891204746415376 0.0018878755210918273 0.005601386984505737 -0.00016737528013139677 -0.0016788989402867175 0.0001827685515160492 0.002613363742553904
 0.00018147161100446666 0.002613534118175193 -0.00016737528013139677 -0.0016788989402867175 0.0018881101643099286 0.0056010154226478395 0.9979522027471787 -0.013891539133787573
 -0.00016736413165774848 -0.0016788979557332683 0.0001827685515160492 0.002613363742553904 0.9979522027471787 -0.013891539133787573 0.0018878695261648369 0.005601053852540656
0.03126302626094 0.0020561670194941067 0.007049382390134702 0.9977335153186131 -0.01738913143141163 0.00022861082666344798 0.0032692285591749783 -0.00020879163036109375 -0.0021022484826842404
 0.9977335153186131 -0.01738913143141163 0.0020557982039773547 0.007049432237671109 -0.00020880896975907463 -0.002102249476395336 0.00023063636398080618 0.003268981997470608
 0.00022861082666344798 0.0032692285591749783 -0.00020880896975907463 -0.002102249476395336 0.002056164856087979 0.007048964045511452 0.9977335095596265 -0.01738954929151829
 -0.00020879163036109375 -0.0021022484826842404 0.00023063636398080618 0.003268981997470608 0.9977335095596265 -0.01738954929151829 0.0020557891715515518 0.007049016399153913
0.037515631513130004 0.0022353993349247215 0.008513839911778256 0.9974994326740847 -0.02089932256451332 0.00028162657052584124 0.003925856501258354 -0.0002552313304029808 -0.0025267921304705787
 0.9974994326740847 -0.02089932256451332 0.0022348687192025496 0.008513904687128501 -0.00025525619965390103 -0.002526793009471495 0.0002845428306750359 0.003925516913078514
 0.00028162657052584124 0.003925856501258354 -0.00025525619965390103 -0.002526793009471495 0.0022353966248652526 0.008513338175852682 0.9974994247141645 -0.020899823910247244
 -0.0002552313304029808 -0.0025267921304705787 0.0002845428306750359 0.003925516913078514 0.9974994247141645 -0.020899823910247244 0.0022348560273121876 0.008513406396974491
0.043768236765320004 0.0024260463419159104 0.009994270750185032 0.9972497407602297 -0.024421999209926406 0.0003405848873681172 0.004583370109113973 -0.0003067523791350003 -0.002952446528193121
 0.9972497407602297 -0.024421999209926406 0.002425324700930075 0.009994352331127988 -0.00030678610798120544 -0.0029524471538492905 0.00034455431842998557 0.004582918928003359
 0.0003405848873681172 0.004583370109113973 -0.00030678610798120544 -0.0029524471538492905 0.002426043073349522 0.00999368572363702 0.9972497302456392 -0.024422584078846118
 -0.0003067523791350003 -0.002952446528193121 0.00034455431842998557 0.004582918928003359 0.9972497302456392 -0.024422584078846118 0.0024253077252550668 0.009993771863661167
0.050020842017509996 0.002628343747618422 0.011490316953473747 0.9969842195898071 -0.027957281357736258 0.000405551354611745 0.005241714339657849 -0.0003634230218508597 -0.0033791329991493847
 0.9969842195898071 -0.027957281357736258 0.002627401893902491 0.011490417313234542 -0.00036346693127030193 -0.0033791332180036246 0.00041073674563674135 0.00524113125327948
 0.000405551354611745 0.005241714339657849 -0.00036346693127030193 -0.0033791332180036246 0.0026283399200313683 0.011489648754492742 0.9969842061642612 -0.02795794980194816
 -0.0003634230218508597 -0.0033791329991493847 0.00041073674563674135 0.00524113125327948 0.9969842061642612 -0.02795794980194816 0.002627380008106105 0.011489754972612471
0.055454545454549996 0.002813789918239018 0.012802873281744077 0.9967404464747799 -0.031039830550282598 0.0004669390408791233 0.005814463360066876 -0.00041690596897521926 -0.0037507147728632257
 0.9967404464747799 -0.031039830550282598 0.002812633014806449 0.01280299163750454 -0.00041695979177718473 -0.0037507145020162134 0.00047331361340098403 0.00581374777663083
 0.0004669390408791233 0.005814463360066876 -0.00041695979177718473 -0.0037507145020162134 0.002813785613255511 0.012802132911433351 0.996740430227367 -0.031040571679271264
 -0.00041690596897521926 -0.0037507147728632257 0.00047331361340098403 0.00581374777663083 0.996740430227367 -0.031040571679271264 0.002812606352282646 0.012802258415354569
0.056273447269699996 0.0028425259153200167 0.013001677584932083 0.9967026478198061 -0.03150522499233458 0.00047659098130096246 0.00590082901479318 -0.00042531062393974707 -0.003806774479673098
 0.9967026478198061 -0.03150522499233458 0.0028413346942141094 0.013001798792189134 -0.0004253660263767558 -0.0038067741233917362 0.00048315547010864074 0.005900091944536385
 0.00047659098130096246 0.00590082901479318 -0.0004253660263767558 -0.0038067741233917362 0.0028425215393816858 0.013000926349928998 0.9967026311232398 -0.03150597707796722
 -0.00042531062393974707 -0.003806774479673098 0.00048315547010864074 0.005900091944536385 0.9967026311232398 -0.03150597707796722 0.002841307270382974 0.013001054913256422
0.06252605252188 0.0030688261620446786 0.014528088293624888 0.9964048031787631 -0.035065842460701206 0.0005537681276783046 0.0065606499642821585 -0.0004924816695041763 -0.004235294369104079
 0.9964048031787631 -0.035065842460701206 0.003067356447618067 0.014528232512478782 -0.000492549869025736 -0.0042352932544292956 0.0005618752008059614 0.006559735044643036
 0.0005537681276783046 0.0065606499642821585 -0.000492549869025736 -0.0042352932544292956 0.0030688212606740845 0.014527254174839181 0.9964047828481153 -0.03506667827029426
 -0.0004924816695041763 -0.004235294369104079 0.0005618752008059614 0.006559735044643036 0.9964047828481153 -0.03506667827029426 0.0030673228576667613 0.014527407458686014
0.06877865777407 0.0033074769282751817 0.016069309136485008 0.9960904627687676 -0.03863911459050972 0.0006371464381481008 0.007221109696994695 -0.0005650017439248154 -0.004664615853008879
 0.9960904627687676 -0.03863911459050972 0.0033056996191634927 0.016069478626672167 -0.0005650840362989856 -0.004664613781715132 0.0006469599258258914 0.007219991254854574
 0.0006371464381481008 0.007221109696994695 -0.0005650840362989856 -0.004664613781715132 0.0033074715357519257 0.01606839230578564 0.996090438436259 -0.03864003421927874
 -0.0005650017439248154 -0.004664615853008879 0.0006469599258258914 0.007219991254854574 0.996090438436259 -0.03864003421927874 0.0033056592343005658 0.016068572794062833
0.07503126302626001 0.0035587098688952047 0.017625116867617356 0.9957594032917111 -0.04222499834259199 0.0007267887796844509 0.007882137832746605 -0.0006429355092458847 -0.005094661467592751
 0.9957594032917111 -0.04222499834259199 0.0035565958847745666 0.017625313984757644 -0.0006430331819830873 -0.005094658226441925 0.0007384728468692177 0.00788078836666069
 0.0007267887796844509 0.007882137832746605 -0.0006430331819830873 -0.005094658226441925 0.0035587040324391605 0.01762411751556204 0.9957593745856924 -0.042226001899456654
 -0.0006429355092458847 -0.005094661467592751 0.0007384728468692177 0.00788078836666069 0.9957593745856924 -0.042226001899456654 0.003556548077463918 0.01762432780123056
0.08128386827845 0.003822755899715351 0.01919529978824693 0.9954114012322924 -0.04582343190484626 0.0008227571852823441 0.008543661386869602 -0.0007263466729510379 -0.005525352813337494
 0.9954114012322924 -0.04582343190484626 0.0038202761774264464 0.01919552698418976 -0.0007264610052730955 -0.005525348174045412 0.000836476319591536 0.008542051546394938
 0.0008227571852823441 0.008543661386869602 -0.0007264610052730955 -0.005525348174045412 0.003822749678971627 0.019194218120525356 0.9954113677760532 -0.04582451951604463
 -0.0007263466729510379 -0.005525352813337494 0.000836476319591536 0.008542051546394938 0.9954113677760532 -0.04582451951604463 0.0038202203213211798 0.019194460906162815
0.08753647353064001 0.004099845209995123 0.020779654194499703 0.9950462330106308 -0.04943433819038463 0.0009251127992247463 0.009205604964971671 -0.0008152979533116472 -0.005956610360490686
 0.9950462330106308 -0.04943433819038463 0.004096970700064537 0.020779914017748535 -0.0008154302161272382 -0.005956604079687857 0.0009410317966796092 0.009203703530120462
 0.0009251127992247463 0.009205604964971671 -0.0008154302161272382 -0.005956604079687857 0.0040998386774114106 0.020778490437050948 0.9950461944221795 -0.04943550999430535
 -0.0008152979533116472 -0.005956610360490686 0.0009410317966796092 0.009203703530120462 0.9950461944221795 -0.04943550999430535 0.004096906170754183 0.020778768535511406
0.09378907878283 0.004390207253441275 0.022377981836093734 0.994663675115074 -0.053057627326911654 0.001033915824759976 0.009867890908171181 -0.0009098510413088557 -0.006388353306214562
 0.994663675115074 -0.053057627326911654 0.0043869089164545105 0.022378276932439607 -0.0009100024971434719 -0.006388345125411679 0.0010521997732521118 0.009865664769038975
 0.001033915824759976 0.009867890908171181 -0.0009100024971434719 -0.006388345125411679 0.004390200494611008 0.022376736234128763 0.9946636310064797 -0.05305888347511554
 -0.0009098510413088557 -0.006388353306214562 0.0010521997732521118 0.009865664769038975 0.9946636310064797 -0.05305888347511554 0.004386835092240421 0.022377052569335896
0.100041684035 0.004694070724639406 0.023990088050556663 0.9942635042228034 -0.05669319847331884 0.0011492254725515166 0.010530439395972303 -0.001010066560306389 -0.006820499476364142
 0.9942635042228034 -0.05669319847331884 0.00469031952765127 0.023990421163717468 -0.0010102384632133569 -0.006820489121930159 0.0011700397339146503 0.010527853532508217
 0.0011492254725515166 0.010530439395972303 -0.0010102384632133569 -0.006820489121930159 0.004694063838627903 0.023988760868492928 0.9942634542000734 -0.05669453913062218
 -0.001010066560306389 -0.006820499476364142 0.0011700397339146503 0.010527853532508217 0.9942634542000734 -0.05669453913062218 0.00469023579039113 0.023989118476260313
0.1059090909091 0.004991696785294762 0.025515238725630014 0.9938717687863866 -0.06011586847900022 0.0012634008764307555 0.011152336731693508 -0.0011093111437647974 -0.007226315082982537
 0.9938717687863866 -0.06011586847900022 0.004987494224813403 0.025515610096851035 -0.0011095033669954008 -0.00722630242644246 0.001286740189568328 0.011149379735643084
 0.0012634008764307555 0.011152336731693508 -0.0011095033669954008 -0.00722630242644246 0.0049916898822388025 0.025513835243897345 0.9938717128494953 -0.06011728860372259
 -0.0011093111437647974 -0.007226315082982537 0.001286740189568328 0.011149379735643084 0.9938717128494953 -0.06011728860372259 0.004987400626618476 0.025514234443180836
0.1062942892872 0.0050116635228683575 0.02561578035854717 0.9938454973102462 -0.06034094117753418 0.0012710999095856615 0.011193168527234783 -0.001116004024440938 -0.0072529652514244395
 0.9938454973102462 -0.06034094117753418 0.005007430435941499 0.025616154330963065 -0.0011161976199103563 -0.0072529524345521625 0.001294610099921239 0.011190185989260438
 0.0012710999095856615 0.011193168527234783 -0.0011161976199103563 -0.0072529524345521625 0.005011656622435369 0.025614371876889867 0.9938454409725229 -0.06034236652499143
 -0.001116004024440938 -0.0072529652514244395 0.001294610099921239 0.011190185989260438 0.9938454409725229 -0.06034236652499143 0.005007336171491369 0.02561477390593247
0.11254689453939999 0.005343212708066465 0.027254867388229402 0.9934094317580072 -0.06400073640798531 0.0013995962087517818 0.011855994382245442 -0.001227721795061335 -0.007685665513825235
 0.9934094317580072 -0.06400073640798531 0.005338468700778608 0.027255285161937978 -0.0012279383198914918 -0.0076856499305134815 0.001425968177795548 0.01185257626965884
 0.0013995962087517818 0.011855994382245442 -0.0012279383198914918 -0.0076856499305134815 0.005343205919992416 0.027253377907933692 0.9934093686973752 -0.06400224663862002
 -0.001227721795061335 -0.007685665513825235 0.001425968177795548 0.01185257626965884 0.9934093686973752 -0.06400224663862002 0.005338363299999655 0.02725382762092621
0.11879949979160001 0.005688944449045656 0.028907158035072895 0.9929550854501932 -0.06767245735270544 0.0015347702984871345 0.012518831077060756 -0.0013452770364340643 -0.008118513605260853
 0.9929550854501932 -0.06767245735270544 0.005683660486842792 0.028907622652759268 -0.0013455177186363911 -0.008118494936299741 0.0015641701074792355 0.01251493652037317
 0.0015347702984871345 0.012518831077060756 -0.0013455177186363911 -0.008118494936299741 0.005688937914561901 0.028905587875029174 0.992955015251012 -0.06767405267385643
 -0.0013452770364340643 -0.008118513605260853 0.0015641701074792355 0.01251493652037317 0.992955015251012 -0.06767405267385643 0.005683543346234276 0.028906088649786568
0.1250521050438 0.00604908396686375 0.030572460797485452 0.9924822368707485 -0.07135597004514004 0.0016766769126683834 0.013181590803810865 -0.0014687256701442278 -0.008551421300766086
 0.9924822368707485 -0.07135597004514004 0.006043231007673911 0.030572975403630107 -0.0014689917287899715 -0.00855139921170973 0.0017092708113692024 0.013177176944904338
 0.0016766769126683834 0.013181590803810865 -0.0014689917287899715 -0.00855139921170973 0.006049077841870696 0.03057081029524689 0.992482159109367 -0.07135765067767208
 -0.0014687256701442278 -0.008551421300766086 0.0017092708113692024 0.013177176944904338 0.992482159109367 -0.07135765067767208 0.006043101530100183 0.030571365626091605
0.131304710296 0.0064238554737513385 0.03225058324055492 0.9919906651980465 -0.07505113386519802 0.001825369540264682 0.013844183868863921 -0.0015981223290401914 -0.008984298787338524
 0.9919906651980465 -0.07505113386519802 0.006417404464315806 0.03225115108266997 -0.0015984149741091846 -0.008984272928507129 0.0018613239429066692 0.013839205842038509
 0.001825369540264682 0.013844183868863921 -0.0015984149741091846 -0.008984272928507129 0.006423849929360071 0.03224885275326738 0.9919905794421462 -0.07505290004243605
 -0.0015981223290401914 -0.008984298787338524 0.0018613239429066692 0.013839205842038509 0.9919905794421462 -0.07505290004243605 0.006417262060004692 0.03224946625239928
0.1375573155481 0.0067222292982472755 0.03372356330867145 0.9915714316880105 -0.07853995344173695 0.0019603951743446444 0.014484586959123438 -0.0017129764943039894 -0.009395160067012085
 0.9915714316880105 -0.07853995344173695 0.00671514831170839 0.03372417434610802 -0.0017132973266861112 -0.009395130436048246 0.001999796534409151 0.014479055926036108
 0.0019603951743446444 0.014484586959123438 -0.0017132973266861112 -0.009395130436048246 0.006722223627222449 0.033721753507684124 0.991571337573283 -0.0785418052968501
 -0.0017129764943039894 -0.009395160067012085 0.001999796534409151 0.014479055926036108 0.991571337573283 -0.0785418052968501 0.006714993149801439 0.033722414711197315
0.1438099208003 0.0070309338022355485 0.035189721244726704 0.9911377884543775 -0.08202085054640611 0.002100858540847862 0.015122888094238304 -0.0018324257518841634 -0.009804062789600103
 0.9911377884543775 -0.08202085054640611 0.0070231933079506195 0.03519037781712545 -0.0018327760390826084 -0.00980402904970917 0.0021438590257255555 0.015116763376654033
 0.002100858540847862 0.015122888094238304 -0.0018327760390826084 -0.00980402904970917 0.0070309280378255965 0.035187832546067686 0.9911376855499798 -0.08202278830981656
 -0.0018324257518841634 -0.009804062789600103 0.0021438590257255555 0.015116763376654033 0.9911376855499798 -0.08202278830981656 0.0070230249465804565 0.035188544081874065
0.1500625260525 0.007349872310624574 0.03664896169580904 0.9906898353884576 -0.08549376610045312 0.0022467170938538453 0.015759038967949036 -0.0019564282258794025 -0.010210959785144039
 0.9906898353884576 -0.08549376610045312 0.0073414427441267525 0.03664966626434223 -0.0019568092314331334 -0.010210921586294944 0.002293468095779481 0.015752278412858155
 0.0022467170938538453 0.015759038967949036 -0.0019568092314331334 -0.010210921586294944 0.007349866490024899 0.036646994535235115 0.9906897232564823 -0.08549579000998056
 -0.0019564282258794025 -0.010210959785144039 0.002293468095779481 0.015752278412858155 0.9906897232564823 -0.08549579000998056 0.007341260757456617 0.03664775916157755
0.15631513130469998 0.007678947605244448 0.03810119232308136 0.9902276727315956 -0.08895864071501693 0.0023979278636507497 0.01639299199315601 -0.0020849415979749737 -0.010615804795667668
