! Created with skrf 1.8.0 (http://scikit-rf.org).
# GHz S RI R 50.0 
!freq ReS11 ImS11 ReS12 ImS12 ReS13 ImS13
! ReS14 ImS14
! ReS21 ImS21 ReS22 ImS22 ReS23 ImS23
! ReS24 ImS24
! ReS31 ImS31 ReS32 ImS32 ReS33 ImS33
! ReS34 ImS34
! ReS41 ImS41 ReS42 ImS42 ReS43 ImS43
! ReS44 ImS44
!
0.0 0.001644777694094 0.0 0.998355222294 0.0 6.343711583532e-05 0.0 -6.343711564692e-05 7.768806062414106e-21
 0.998355222294 0.0 0.00164477769407 0.0 -6.343711564593e-05 7.768806062292866e-21 6.3437115835e-05 0.0
 6.343711583532e-05 0.0 -6.343711564593e-05 7.768806062292866e-21 0.001644777700024 0.0 0.9983552223 0.0
 -6.343711564692e-05 7.768806062414106e-21 6.3437115835e-05 0.0 0.9983552223 0.0 0.001644777700055 0.0
0.005 0.0017699254247326916 0.0013485199706708552 0.9981968704052324 -0.0034448760258436605 8.849192401491637e-05 0.0006793248430527932 -8.60935841598135e-05 -0.00042976497751131355
 0.9981968704052324 -0.0034448760258436605 0.0017699162444354247 0.001348525394689645 -8.609469021812723e-05 -0.00042976587664912696 8.853915033980076e-05 0.0006793067865678041
 8.849192401491637e-05 0.0006793248430527932 -8.609469021812723e-05 -0.00042976587664912696 0.0017699249491665084 0.0013485875681592263 0.9981968707617795 -0.0034448089606633273
 -8.60935841598135e-05 -0.00042976497751131355 8.853915033980076e-05 0.0006793067865678041 0.9981968707617795 -0.0034448089606633273 0.0017699174298265515 0.0013485919261467143
0.006252605252188 0.001802841196986695 0.001690926700091818 0.9981549503654641 -0.004306921386178687 9.567816211093942e-05 0.0008494897881003004 -9.252533969070392e-05 -0.0005377519246499824
 0.9981549503654641 -0.004306921386178687 0.0018028268462336513 0.0016909336032877736 -9.252706041527011e-05 -0.0005377530341958115 9.575194780370894e-05 0.0008494663457841477
 9.567816211093942e-05 0.0008494897881003004 -9.252706041527011e-05 -0.0005377530341958115 0.0018028403983362435 0.0016910111870708491 0.9981549508679196 -0.004306837569793561
 -9.252533969070392e-05 -0.0005377519246499824 9.575194780370894e-05 0.0008494663457841477 0.9981549508679196 -0.004306837569793561 0.0018028286448131905 0.0016910167455486819
0.01250521050438 0.0019766596916419178 0.003417015970346977 0.997932088955833 -0.008614523812783933 0.00013703972252614318 0.0016993702432320263 -0.0001292058865641105 -0.0010780331425308029
 0.997932088955833 -0.008614523812783933 0.001976602382035204 0.003417031037309552 -0.00012921266293359294 -0.0010780352036422367 0.0001373339352904937 0.0016993139058179988
 0.00013703972252614318 0.0016993702432320263 -0.00012921266293359294 -0.0010780352036422367 0.0019766559166822057 0.0034171847593334375 0.9979320903848167 -0.00861435641988209
 -0.0001292058865641105 -0.0010780331425308029 0.0001373339352904937 0.0016993139058179988 0.9979320903848167 -0.00861435641988209 0.001976608992568765 0.0034171969974527137
0.01875781575657 0.0021666318565462263 0.005167424518293334 0.9976863472012006 -0.01293326541384169 0.0001876220671770389 0.0025501754673793934 -0.00017359504737024875 -0.0016200795880413142
 0.9976863472012006 -0.01293326541384169 0.002166503065388817 0.0051674491411109035 -0.0001736101520057806 -0.0016200824119648068 0.0001882829202686329 0.0025500748245268702
 0.0001876220671770389 0.0025501754673793934 -0.0001736101520057806 -0.0016200824119648068 0.002166622932636638 0.005167677578139066 0.9976863499882394 -0.012933014542539718
 -0.00017359504737024875 -0.0016200795880413142 0.0001882829202686329 0.0025500748245268702 0.9976863499882394 -0.012933014542539718 0.0021665175072167644 0.005167697694096294
0.02501042100875 0.0023731434919694342 0.006939685929631921 0.9974174222156157 -0.01726521467172065 0.0002475262274762157 0.003401922280833169 -0.0002258050968865328 -0.002163637644190856
 0.9974174222156157 -0.01726521467172065 0.0023729147456498347 0.006939721623048583 -0.00022583176091788186 -0.002163641007983516 0.000248699950205192 0.0034017640307243257
 0.0002475262274762157 0.003401922280833169 -0.00022583176091788186 -0.002163641007983516 0.002373127239756149 0.006940023281883758 0.9974174267910709 -0.01726488037826092
 -0.0002258050968865328 -0.002163637644190856 0.000248699950205192 0.0034017640307243257 0.9974174267910709 -0.01726488037826092 0.0023729400380824005 0.006940052544194785
0.03126302626094 0.002596564478721974 0.008732518747724911 0.9971249963701582 -0.021611242307121435 0.0003168532845818518 0.004254551239109975 -0.00028594496770357726 -0.002708523194050567
 0.9971249963701582 -0.021611242307121435 0.00259620733813205 0.008732567148232484 -0.0002859863876628207 -0.0027085268402320174 0.00031868625941071745 0.004254320177785915
 0.0003168532845818518 0.004254551239109975 -0.0002859863876628207 -0.0027085268402320174 0.002596538709286138 0.00873294045057119 0.9971250031622607 -0.021610824622008088
 -0.00028594496770357726 -0.002708523194050567 0.00031868625941071745 0.004254320177785915 0.9971250031622607 -0.021610824622008088 0.002596246500066547 0.008732980196567439
0.037515631513130004 0.002837256509547549 0.010545078182603976 0.9968087453149289 -0.02597176950642272 0.00039570347448198074 0.005107972454181757 -0.00035412098969392954 -0.003254575818770506
 0.9968087453149289 -0.02597176950642272 0.0028367425604828985 0.01054514104824356 -0.000354180331148071 -0.003254579455259574 0.00039834229810334267 0.005107651456853615
 0.00039570347448198074 0.005107972454181757 -0.000354180331148071 -0.003254579455259574 0.0028372190285823537 0.01054558431105392 0.9968087547544461 -0.025971268454381885
 -0.00035412098969392954 -0.003254575818770506 0.00039834229810334267 0.005107651456853615 0.9968087547544461 -0.025971268454381885 0.0028367986147843716 0.01054563594606321
0.043768236765320004 0.003095576070545161 0.012376728390766362 0.9964683412501234 -0.030346995568214408 0.0004841757509150785 0.005962079530950188 -0.0004304371474332593 -0.0038016448761771697
 0.9964683412501234 -0.030346995568214408 0.0030948769166072275 0.012376807601496048 -0.0004305175470756728 -0.0038016481763135834 0.00048776726292524956 0.005961649530816449
 0.0004841757509150785 0.005962079530950188 -0.0004305175470756728 -0.0038016481763135834 0.0030955246743261367 0.01237731904493848 0.9964683537666924 -0.030346411160059747
 -0.0004304371474332593 -0.0038016448761771697 0.00048776726292524956 0.005961649530816449 0.9964683537666924 -0.030346411160059747 0.003094952886657762 0.01237738404185277
0.050020842017509996 0.0033718758141000316 0.014226948374285175 0.9961034545910855 -0.03473699192901346 0.000582367514492225 0.006816755332726763 -0.0005149951613100436 -0.004349583752077965
 0.9961034545910855 -0.03473699192901346 0.003370963070012989 0.014227045932547285 -0.0005150997283033537 -0.004349586354663721 0.0005870588089421166 0.006816195298735241
 0.000582367514492225 0.006816755332726763 -0.0005150997283033537 -0.004349586354663721 0.003371808291643647 0.01422762367203624 0.9961034706165499 -0.03473632416935833
 -0.0005149951613100436 -0.004349583752077965 0.0005870588089421166 0.006816195298735241 0.9961034706165499 -0.03473632416935833 0.0033710619821373695 0.014227703571026767
0.055454545454549996 0.0036268622958821146 0.01584957400594866 0.9957662175903291 -0.03856402061397502 0.0006756668771661943 0.007559859419787355 -0.0005952493352057788 -0.004826352720878591
 0.9957662175903291 -0.03856402061397502 0.003625740887836998 0.015849689230622976 -0.0005953774087399149 -0.004826354397155762 0.0006814335725830142 0.007559167760031141
 0.0006756668771661943 0.007559859419787355 -0.0005953774087399149 -0.004826354397155762 0.003626778956770548 0.01585032297378982 0.9957662370161262 -0.03856328041555988
 -0.0005952493352057788 -0.004826352720878591 0.0006814335725830142 0.007559167760031141 0.9957662370161262 -0.03856328041555988 0.003625862195694616 0.015850417126139504
0.056273447269699996 0.003666505257263306 0.016095285785359754 0.9957137549646271 -0.03914174828606159 0.0006903744143340564 0.007671874805028205 -0.0006078944906368182 -0.004898247056988214
 0.9957137549646271 -0.03914174828606159 0.0036653505435465953 0.01609540381675069 -0.000608026307582836 -0.00489824856634757 0.0006963128405420532 0.0076711617191741145
 0.0006903744143340564 0.007671874805028205 -0.000608026307582836 -0.00489824856634757 0.0036664193888987064 0.016096045867873464 0.9957137749314056 -0.0391409971678193
 -0.0006078944906368182 -0.004898247056988214 0.0006963128405420532 0.0076711617191741145 0.9957137749314056 -0.0391409971678193 0.0036654754251324215 0.0160961422763233
0.06252605252188 0.003979811144531998 0.017981331540004853 0.9952989118726918 -0.04356119791491089 0.000808290182975818 0.008527306543657054 -0.0007092322992988298 -0.005447489083328332
 0.9952989118726918 -0.04356119791491089 0.003978386082159382 0.017981472294288762 -0.0007093944228297792 -0.005447489069383501 0.0008156233398731317 0.008526415378089751
 0.000808290182975818 0.008527306543657054 -0.0007093944228297792 -0.005447489069383501 0.0039797047030248065 0.017982176562753728 0.9952989362155072 -0.04356036342875187
 -0.0007092322992988298 -0.005447489083328332 0.0008156233398731317 0.008526415378089751 0.9952989362155072 -0.04356036342875187 0.0039785399628952745 0.0179822911552869
0.06877865777407 0.004312137630459618 0.019884704674251935 0.9948585951808903 -0.04799523274995131 0.0009362064935015722 0.009382913728604985 -0.0008191033965105741 -0.005997162902142186
 0.9948585951808903 -0.04799523274995131 0.0043104138360423976 0.01988487052641923 -0.0008192988577338045 -0.00599716090048395 0.0009450822188011227 0.009381817422708476
 0.0009362064935015722 0.009382913728604985 -0.0008192988577338045 -0.00599716090048395 0.004312008380242028 0.019885634817237485 0.994858624336321 -0.04799431487426747
 -0.0008191033965105741 -0.005997162902142186 0.0009450822188011227 0.009381817422708476 0.994858624336321 -0.04799431487426747 0.004310599746814859 0.0198857693359202
0.07503126302626001 0.004663826352833412 0.02180504275576747 0.9943924755021122 -0.05244371291541838 0.001074212826934029 0.010238554727635631 -0.000937600164816639 -0.006547119795874774
 0.9943924755021122 -0.05244371291541838 0.004661775433158353 0.02180523620728918 -0.0009378319695993166 -0.006547115307833947 0.001084779182563193 0.010237224165199366
 0.001074212826934029 0.010238554727635631 -0.0009378319695993166 -0.006547115307833947 0.004663672049516909 0.021806058212991714 0.9943925099085624 -0.05244271162718417
 -0.000937600164816639 -0.006547119795874774 0.001084779182563193 0.010237224165199366 0.9943925099085624 -0.05244271162718417 0.004661996405410828 0.021806214467776273
0.08128386827845 0.005035216436866975 0.023741995496367085 0.9939002245158277 -0.05690647306227868 0.0012223963478434241 0.011094083503875835 -0.0010648124776415154 -0.007097208893189712
 0.9939002245158277 -0.05690647306227868 0.0050328099847998095 0.0237422191766878 -0.0010650836068295652 -0.00709720138592114 0.0012348016028099335 0.011092487490417607
 0.0012223963478434241 0.011094083503875835 -0.0010650836068295652 -0.00709720138592114 0.005035034828119694 0.023743096486568516 0.9939002646144719 -0.05690538832661098
 -0.0010648124776415154 -0.007097208893189712 0.0012348016028099335 0.011092487490417607 0.9939002646144719 -0.05690538832661098 0.005033069050738147 0.023743276355843376
0.08753647353064001 0.00542664445613182 0.02569522035306234 0.9933815152473542 -0.06138332672340701 0.0013808417837380558 0.011949349907561763 -0.0012008276116632955 -0.0076472769258971755
 0.9933815152473542 -0.06138332672340701 0.0054238540454545296 0.025695477021206805 -0.0012011410211881038 -0.007647265832463265 0.0013952343944210518 0.011947455147858868
 0.0013808417837380558 0.011949349907561763 -0.0012011410211881038 -0.007647265832463265 0.005426433281088671 0.025696407109070073 0.993381561482193 -0.06138215850451451
 -0.0012008276116632955 -0.0076472769258971755 0.0013952343944210518 0.011947455147858868 0.993381561482193 -0.06138215850451451 0.005424154237146952 0.02569661254044122
0.09378907878283 0.005838444360640757 0.027664379369749765 0.9928360223195415 -0.06587406943568626 0.0015496313080644623 0.012804199895094301 -0.001345730153915014 -0.008197168065130047
 0.9928360223195415 -0.06587406943568626 0.005835241541489767 0.027664671916103795 -0.001346088774819683 -0.008197152784589065 0.001566159896746489 0.012801970970913283
 0.0015496313080644623 0.012804199895094301 -0.001346088774819683 -0.008197152784589065 0.005838201349937789 0.027665652145897852 0.9928360751374004 -0.06587281768985491
 -0.001345730153915014 -0.008197168065130047 0.001566159896746489 0.012801970970913283 0.9928360751374004 -0.06587281768985491 0.005835585890706372 0.02766588515703319
0.100041684035 0.0062709473824080104 0.029649136880079138 0.9922634221849527 -0.07037848100860786 0.0017288444254850328 0.01365847569747986 -0.001499601905622644 -0.008746723814698142
 0.9922634221849527 -0.07037848100860786 0.00626730367643248 0.02964946832845256 -0.001500008644089208 -0.00874670371219435 0.001747657756942526 0.013655875045704598
 0.0017288444254850328 0.01365847569747986 -0.001500008644089208 -0.00874670371219435 0.0062706702581769 0.02965049595343508 0.9922634820361056 -0.07037714568330307
 -0.001499601905622644 -0.008746723814698142 0.001747657756942526 0.013655875045704598 0.9922634820361056 -0.07037714568330307 0.006267695213889188 0.02965075863323792
0.1059090909091 0.006695927431047676 0.03152550944367661 0.9917011575703297 -0.07461761674052532 0.0019065654517160533 0.014459457029326267 -0.001652221959302074 -0.009261974974923001
 0.9917011575703297 -0.07461761674052532 0.006691844069543673 0.03152588026831411 -0.0016526764719668444 -0.009261949739995397 0.0019276581772483053 0.014456471457729355
 0.0019065654517160533 0.014459457029326267 -0.0016526764719668444 -0.009261949739995397 0.006695616215688017 0.03152694976340913 0.9917012244340762 -0.07461620293604644
 -0.001652221959302074 -0.009261974974923001 0.0019276581772483053 0.014456471457729355 0.9917012244340762 -0.07461620293604644 0.006692282643181937 0.0315272422485632
0.1062942892872 0.0067244819249305116 0.03164915778013665 0.9916633933461726 -0.07489632723099168 0.0019185578580200836 0.014512015959825784 -0.0016625217839737415 -0.009295782940299539
 0.9916633933461726 -0.07489632723099168 0.006720368820837575 0.031649531289892105 -0.0016629795212775313 -0.009295757347159561 0.0019398048150156633 0.014509003850819267
 0.0019185578580200836 0.014512015959825784 -0.0016629795212775313 -0.009295757347159561 0.006724168400874861 0.031650603443800246 0.9916634606842892 -0.07489490827187721
 -0.0016625217839737415 -0.009295782940299539 0.0019398048150156633 0.014509003850819267 0.9916634606842892 -0.07489490827187721 0.006720810575747187 0.031650897953740195
0.11254689453939999 0.007199373439113209 0.03366410621225593 0.9910356165656794 -0.07942736117494642 0.0021188454331232814 0.015364655859302488 -0.0018345657215947909 -0.009844181427259381
 0.9910356165656794 -0.07942736117494642 0.007194762387823616 0.03366452508072406 -0.0018350773140869603 -0.009844149641076301 0.00214267499022126 0.01536119037565899
 0.0021188454331232814 0.015364655859302488 -0.0018350773140869603 -0.009844149641076301 0.007199021220545377 0.03366563878199032 0.9910356918485692 -0.07942585851970255
 -0.0018345657215947909 -0.009844181427259381 0.00214267499022126 0.01536119037565899 0.9910356918485692 -0.07942585851970255 0.00719525738738099 0.033665967357592926
0.11879949979160001 0.007695944289858683 0.035693644541307905 0.9903797750700473 -0.08397132421586774 0.0023297779721701555 0.016216227206477363 -0.002015806564939373 -0.010391752461902748
 0.9903797750700473 -0.08397132421586774 0.007690806700007185 0.03569411220636583 -0.0020163748438723123 -0.010391713746673316 0.002356339168607886 0.01621226422216594
 0.0023297779721701555 0.016216227206477363 -0.0020163748438723123 -0.010391713746673316 0.007695551073553634 0.03569526435327331 0.9903798587594994 -0.08396973779680819
 -0.002015806564939373 -0.010391752461902748 0.002356339168607886 0.01621226422216594 0.9903798587594994 -0.08396973779680819 0.007691357968697831 0.03569562930579424
0.1250521050438 0.00821451361455053 0.0377374325594129 0.9896955547486176 -0.08852794683263754 0.00255142317993613 0.017066558540203152 -0.0022063139716023343 -0.010938326426713241
 0.9896955547486176 -0.08852794683263754 0.008208820847501115 0.03773795260229514 -0.002206941743071046 -0.01093828001292143 0.00258086509121059 0.017062051700115353
 0.00255142317993613 0.017066558540203152 -0.002206941743071046 -0.01093828001292143 0.00821407708884182 0.03773913997166864 0.9896956473108142 -0.08852627657561371
 -0.0022063139716023343 -0.010938326426713241 0.00258086509121059 0.017062051700115353 0.9896956473108142 -0.08852627657561371 0.008209431406668554 0.03773954369011274
0.131304710296 0.008755397174572695 0.03979512684771205 0.9889826443484249 -0.09309694925982712 0.002783845534793846 0.017915475213934495 -0.0024061543068877905 -0.011483730911402578
 0.9889826443484249 -0.09309694925982712 0.008749120540150134 0.03979570299599784 -0.0024068443516686955 -0.01148367599612049 0.0028163172434428918 0.017910375913854797
 0.002783845534793846 0.017915475213934495 -0.0024068443516686955 -0.01148367599612049 0.008754915019540994 0.03979692223964822 0.9889827462543797 -0.09309519508526722
 -0.0024061543068877905 -0.011483730911402578 0.0028163172434428918 0.017910375913854797 0.9889827462543797 -0.09309519508526722 0.00874979340717457 0.03979736719283973
0.1375573155481 0.009198236410719898 0.04159938331181061 0.9883614608567773 -0.09741089739766673 0.002998415809542341 0.01873672778646666 -0.002586668342003455 -0.012001766060678869
 0.9883614608567773 -0.09741089739766673 0.009191346290002057 0.04160000796153107 -0.0025874249396317054 -0.01200170254114099 0.003033994464625371 0.018731041139103306
 0.002998415809542341 0.01873672778646666 -0.0025874249396317054 -0.01200170254114099 0.009197707209631542 0.04160126680596557 0.9883615725309854 -0.09740905929918671
 -0.002586668342003455 -0.012001766060678869 0.003033994464625371 0.018731041139103306 0.9883615725309854 -0.09740905929918671 0.00919208366477871 0.04160174477217183
0.1438099208003 0.009656778403432207 0.043393571022914905 0.9877182184522544 -0.10171331972517597 0.003221623760815543 0.01955430195131032 -0.002774374195712392 -0.012516383048307829
 0.9877182184522544 -0.10171331972517597 0.009649245926809668 0.04339424720092062 -0.002775200359976895 -0.012516310126546285 0.0032604454682874985 0.019547983226265057
 0.003221623760815543 0.01955430195131032 -0.002775200359976895 -0.012516310126546285 0.009656199987482919 0.043395542981968835 0.9877183403622363 -0.10171139763287185
 -0.002774374195712392 -0.012516383048307829 0.0032604454682874985 0.019547983226265057 0.9877183403622363 -0.10171139763287185 0.009650050675734184 0.04339605576042321
0.1500625260525 0.0101308535327063 0.04517752249384601 0.9870530912390929 -0.10600409139789443 0.00345338660003158 0.020368103397055737 -0.0029691906285081835 -0.013027491701937005
 0.9870530912390929 -0.10600409139789443 0.010122649782525975 0.04517825338442462 -0.002970089366804685 -0.013027408547768744 0.0034955866440803903 0.020361106214134794
 0.00345338660003158 0.020368103397055737 -0.002970089366804685 -0.013027408547768744 0.010130223735439354 0.04517958329554357 0.9870532238557078 -0.10600208523926291
 -0.0029691906285081835 -0.013027491701937005 0.0034955866440803903 0.020361106214134794 0.9870532238557078 -0.10600208523926291 0.010123524759373398 0.04518013279428575
0.15631513130469998 0.01062029087679631 0.04695107522898381 0.9863662543136024 -0.11028308839421973 0.0036936205052242738 0.021178039552548523 -0.0031710353481947816 -0.013535003847622589
 0.9863662543136024 -0.11028308839421973 0.010611386885715033 0.04695186417639378 -0.003172009661397995 -0.01353490959875217 0.003739333335644749 0.02117031589840981
