! Created with skrf 1.8.0 (http://scikit-rf.org).
# GHz S RI R 50.0 
!freq ReS11 ImS11 ReS12 ImS12 ReS13 ImS13
! ReS14 ImS14
! ReS21 ImS21 ReS22 ImS22 ReS23 ImS23
! ReS24 ImS24
! ReS31 ImS31 ReS32 ImS32 ReS33 ImS33
! ReS34 ImS34
! ReS41 ImS41 ReS42 ImS42 ReS43 ImS43
! ReS44 ImS44
!
0.0 0.00173037509382 0.0 0.9982696248806 0.0 6.696029994353e-05 0.0 -6.696029958806e-05 8.200271656046551e-21
 0.9982696248806 0.0 0.001730375093817 0.0 -6.696029958822e-05 8.200271656066146e-21 6.69602999433e-05 0.0
 6.696029994353e-05 0.0 -6.696029958822e-05 8.200271656066146e-21 0.001730375098086 0.0 0.9982696248849 0.0
 -6.696029958806e-05 8.200271656046551e-21 6.69602999433e-05 0.0 0.9982696248849 0.0 0.00173037509807 0.0
0.005 0.0018623358044146134 0.0014167973296696538 0.9981026045133906 -0.003623952684047839 9.378965852314824e-05 0.0007270462319354275 -9.119602691433048e-05 -0.0004581033524350794
 0.9981026045133906 -0.003623952684047839 0.0018623150599131704 0.0014168095049792375 -9.119586555492074e-05 -0.0004581033036571483 9.39187838609631e-05 0.000726997075244009
 9.378965852314824e-05 0.0007270462319354275 -9.119586555492074e-05 -0.0004581033036571483 0.0018623358708042832 0.0014168646304477922 0.998102604886519 -0.003623885611481293
 -9.119602691433048e-05 -0.0004581033524350794 9.39187838609631e-05 0.000726997075244009 0.998102604886519 -0.003623885611481293 0.001862315729272273 0.0014168763390260924
0.006252605252188 0.0018971281745375668 0.0017765365327076124 0.9980582699248316 -0.004530797465759696 0.00010152206511324228 0.0009091554413361853 -9.811629981689361e-05 -0.0005732082173677856
 0.9980582699248316 -0.004530797465759696 0.0018970957463731511 0.001776551986471161 -9.811604813145127e-05 -0.0005732081588872157 0.00010172381038134489 0.0009090915697226731
 0.00010152206511324228 0.0009091554413361853 -9.811604813145127e-05 -0.0005732081588872157 0.001897128207038338 0.0017766206469229605 0.9980582704374699 -0.004530713639119882
 -9.811629981689361e-05 -0.0005732082173677856 0.00010172381038134489 0.0009090915697226731 0.9980582704374699 -0.004530713639119882 0.0018970967225252562 0.0017766355027697442
0.01250521050438 0.002081347654270409 0.003589950736307945 0.9978218884308038 -0.00906217864242487 0.00014622323323680973 0.0018186404866439908 -0.0001377973066086081 -0.001149067052025644
 0.9978218884308038 -0.00906217864242487 0.0020812181568354814 0.0035899840216530436 -0.00013779630751981377 -0.0011490669636801797 0.00014702773232437883 0.0018184863776725014
 0.00014622323323680973 0.0018186404866439908 -0.00013779630751981377 -0.0011490669636801797 0.002081347207357773 0.0035901187243819943 0.9978218899144676 -0.009062011224888493
 -0.0001377973066086081 -0.001149067052025644 0.00014702773232437883 0.0018184863776725014 0.9978218899144676 -0.009062011224888493 0.002081221495043684 0.003590150658678484
0.01875781575657 0.0022834728263466057 0.005428812335627346 0.997560160077919 -0.01360512613723948 0.00020117499745731532 0.002729026478816768 -0.0001861326418316187 -0.0017267351405397787
 0.997560160077919 -0.01360512613723948 0.002283181816023169 0.00542886603718808 -0.00018613040391794665 -0.0017267350598651693 0.00020298217597594843 0.0027287501531751005
 0.00020117499745731532 0.002729026478816768 -0.00018613040391794665 -0.0017267350598651693 0.0022834713794568236 0.005429064076370154 0.9975601629978279 -0.013604875177683487
 -0.0001861326418316187 -0.0017267351405397787 0.00020298217597594843 0.0027287501531751005 0.9975601629978279 -0.013604875177683487 0.0022831889079311407 0.005429115489255227
0.02501042100875 0.0025039277766882168 0.007290504680868622 0.9972727509050185 -0.018161794103590378 0.00026648897583871615 0.0036403217921648075 -0.00024324673796058695 -0.0023059260229404406
 0.9972727509050185 -0.018161794103590378 0.0025034109209618512 0.007290581566997402 -0.00024324277253879795 -0.0023059259967133177 0.000269698857638608 0.0036398858240693473
 0.00026648897583871615 0.0036403217921648075 -0.00024324277253879795 -0.0023059259967133177 0.0025039247881891756 0.0072908400485771335 0.9972727557236769 -0.018161459587564297
 -0.00024324673796058695 -0.0023059260229404406 0.000269698857638608 0.0036398858240693473 0.9972727557236769 -0.018161459587564297 0.002503423152596657 0.007290913494490956
0.03126302626094 0.0027431190274894105 0.00917365723540742 0.9969593113528437 -0.022733075725736945 0.0003422765126072273 0.0045524515791990315 -0.0003092600057103602 -0.0028864285437082316
 0.9969593113528437 -0.022733075725736945 0.0027423120678440683 0.00917376025390834 -0.00030925382650484205 -0.0028864286280412908 0.00034728957348263614 0.004551813063025262
 0.0003422765126072273 0.0045524515791990315 -0.00030925382650484205 -0.0028864286280412908 0.0027431139416559443 0.009174076072328343 0.9969593185388539 -0.02273265760292185
 -0.0003092600057103602 -0.0028864285437082316 0.00034728957348263614 0.004551813063025262 0.9969593185388539 -0.02273265760292185 0.0027423308258312986 0.009174174255407366
0.037515631513130004 0.0030014438536982778 0.011077358222453964 0.9966194849376641 -0.027319390511217984 0.0004286477038288318 0.0054653076221224135 -0.0003842896699632887 -0.0034680570401694048
 0.9966194849376641 -0.027319390511217984 0.0030002825796803284 0.011077490498711602 -0.00038428079298156244 -0.0034680573005852547 0.0004358650200507243 0.005464418118182742
 0.0004286477038288318 0.0054653076221224135 -0.00038428079298156244 -0.0034680573005852547 0.0030014360991838917 0.01107786033616611 0.9966194949661719 -0.02731888869796005
 -0.0003842896699632887 -0.0034680570401694048 0.0004358650200507243 0.005464418118182742 0.9966194949661719 -0.02731888869796005 0.0030003092493006947 0.011077986107936925
0.043768236765320004 0.0032792934864434653 0.013000915023366956 0.9962529118086534 -0.031920923821071034 0.0005257109221533556 0.006378763499281173 -0.00046845004611083333 -0.004050636207722506
 0.9962529118086534 -0.031920923821071034 0.0032777137143141185 0.013001079859834138 -0.0004684379896105499 -0.004050636719239078 0.000535534231640527 0.006377568973270851
 0.0005257109221533556 0.006378763499281173 -0.0004684379896105499 -0.004050636719239078 0.00327928247336529 0.0130015001920437 0.9962529251605354 -0.03192033819517237
 -0.00046845004611083333 -0.004050636207722506 0.000535534231640527 0.006377568973270851 0.9962529251605354 -0.03192033819517237 0.0032777496762795484 0.013001656550303008
0.050020842017509996 0.003577054577923559 0.014943755168188334 0.9958592305714009 -0.03653772580751563 0.0006335725133854051 0.007292680857581762 -0.0005618526220417945 -0.004633994860826833
 0.9958592305714009 -0.03653772580751563 0.003574992132751732 0.014943956044288078 -0.0005618369066578808 -0.004633995707996675 0.0006464042299920525 0.007291121617539577
 0.0006335725133854051 0.007292680857581762 -0.0005618369066578808 -0.004633995707996675 0.0035770396985699534 0.014944423122116008 0.995859247735785 -0.036537056226668266
 -0.0005618526220417945 -0.004633994860826833 0.0006464042299920525 0.007291121617539577 0.995859247735785 -0.036537056226668266 0.0035750387626530965 0.01494461321059655
0.055454545454549996 0.003852285929514115 0.016647412245846455 0.9954948135229951 -0.04056223994342089 0.000736158006375798 0.008087163384587943 -0.0006506125464343542 -0.005141452126253817
 0.9954948135229951 -0.04056223994342089 0.0038497519022586803 0.016647647405304528 -0.0006505932639914401 -0.005141453341251609 0.0007519314435284732 0.008085234277743897
 0.000736158006375798 0.008087163384587943 -0.0006505932639914401 -0.005141453341251609 0.0038522671814716024 0.01664815190443902 0.9954948344043191 -0.04056149725405493
 -0.0006506125464343542 -0.005141452126253817 0.0007519314435284732 0.008085234277743897 0.9954948344043191 -0.04056149725405493 0.003849808914251376 0.016648373972105678
0.056273447269699996 0.0038951099394828118 0.01690537771831294 0.9954380793868384 -0.04116975996296 0.0007523365689810275 0.00820691250524656 -0.0006646060530093227 -0.005217962878306504
 0.9954380793868384 -0.04116975996296 0.0038925006371620706 0.01690561829133397 -0.0006645862018536617 -0.00521796415529939 0.0007685797679773184 0.008204923137675596
 0.0007523365689810275 0.00820691250524656 -0.0006645862018536617 -0.00521796415529939 0.003895090566456967 0.016906128162861498 0.9954381008612924 -0.04116900624188449
 -0.0006646060530093227 -0.005217962878306504 0.0007685797679773184 0.008204923137675596 0.9954381008612924 -0.04116900624188449 0.003892559303067352 0.01690635527145904
0.06252605252188 0.0042338389162473915 0.01888532657724957 0.994989096713938 -0.0458169297468789 0.0008821047363504002 0.009121304112853987 -0.0007768161112646316 -0.00580236954662032
 0.994989096713938 -0.0458169297468789 0.004230618547405163 0.018885610683622895 -0.0007767916500291867 -0.005802371357259552 0.0009021631215955236 0.009118813418684186
 0.0008821047363504002 0.009121304112853987 -0.0007767916500291867 -0.005802371357259552 0.004233814402841285 0.018886159168907794 0.99498912300693 -0.04581609168140472
 -0.0007768161112646316 -0.00580236954662032 0.0009021631215955236 0.009118813418684186 0.99498912300693 -0.04581609168140472 0.004230690609601428 0.018886426734621615
0.06877865777407 0.004593617565397281 0.020883174551472514 0.9945119218592481 -0.05047909446958705 0.0010229760508330182 0.010035695245041807 -0.0008985856098788859 -0.0063870425793260575
 0.9945119218592481 -0.05047909446958705 0.0045897218791231716 0.02088350620876497 -0.0008985560670068427 -0.006387045037152275 0.0010472539079451008 0.010032626175924458
 0.0010229760508330182 0.010035695245041807 -0.0008985560670068427 -0.006387045037152275 0.004593587243365712 0.020884088912912647 0.9945119534899187 -0.050478171821750996
 -0.0008985856098788859 -0.0063870425793260575 0.0010472539079451008 0.010032626175924458 0.9945119534899187 -0.050478171821750996 0.004589808686999563 0.020884400521366187
0.07503126302626001 0.004974818715873507 0.022898513271550916 0.9940061954135205 -0.05515607932394273 0.0011750467794342722 0.010949920022445327 -0.0010300143110445162 -0.006971807513808072
 0.9940061954135205 -0.05515607932394273 0.004970183403785277 0.022898896680989017 -0.001029979217887828 -0.006971810742112022 0.001203948919060197 0.0109461896176843
 0.0011750467794342722 0.010949920022445327 -0.001029979217887828 -0.006971810742112022 0.004974781895210889 0.022899508987091807 0.9940062329138214 -0.055155071826702144
 -0.0010300143110445162 -0.006971807513808072 0.001203948919060197 0.0109461896176843 0.9940062329138214 -0.055155071826702144 0.004970286294912118 0.022899868374635195
0.08128386827845 0.00537781195533178 0.024930946480311654 0.9934715596207765 -0.059847682058540005 0.0013384102725067966 0.011863807577647243 -0.0011711988240626606 -0.0075564873218094564
 0.9934715596207765 -0.059847682058540005 0.005372372635918872 0.024931386029907163 -0.0011711577150890825 -0.007556491453674738 0.0013723419653224706 0.011859326901915731
 0.0013384102725067966 0.011863807577647243 -0.0011711577150890825 -0.007556491453674738 0.005377767923219817 0.02493202309454476 0.9934716035360798 -0.05984658941753429
 -0.0011711988240626606 -0.0075564873218094564 0.0013723419653224706 0.011859326901915731 0.9934716035360798 -0.05984658941753429 0.005372492933833462 0.024932434151045017
0.08753647353064001 0.005802963566503805 0.0269800854031101 0.9929076587002981 -0.06455367757815618 0.0015131568204472142 0.012777182382046762 -0.0013222324962222588 -0.008140902157160141
 0.9929076587002981 -0.06455367757815618 0.005796655769383548 0.02698058567149326 -0.0013221849091905491 -0.008140907335497561 0.0015525237256629994 0.01277185646417762
 0.0015131568204472142 0.012777182382046762 -0.0013221849091905491 -0.008140907335497561 0.005802911586082329 0.026981242422893188 0.9929077095906002 -0.06455249946991559
 -0.0013222324962222588 -0.008140902157160141 0.0015525237256629994 0.01277185646417762 0.9929077095906002 -0.06455249946991559 0.005796794781703949 0.02698170919511353
0.09378907878283 0.00625063643007012 0.029045545449605192 0.9923141391403659 -0.06927382122217246 0.0016993735136868482 0.013689864494504484 -0.001483205298861905 -0.00872486919012613
 0.9923141391403659 -0.06927382122217246 0.006243395580330291 0.029046111210385733 -0.001483150774989271 -0.00872487556770497 0.001744581602064718 0.013683592267331299
 0.0016993735136868482 0.013689864494504484 -0.001483150774989271 -0.00872487556770497 0.006250575740066119 0.02904678234202961 0.9923141975822386 -0.06927255729668594
 -0.001483205298861905 -0.00872486919012613 0.001744581602064718 0.013683592267331299 0.9923141975822386 -0.06927255729668594 0.00624355459766065 0.029047309037590407
0.100041684035 0.006721189903440007 0.031126943795174916 0.9916906499718522 -0.07400785117351526 0.0018971441053868049 0.014601669757609454 -0.0016542037096861876 -0.009308202502700183
 0.9916906499718522 -0.07400785117351526 0.006712951306051878 0.031127580022003623 -0.0016541417939251986 -0.009308210242156863 0.0019485995773347565 0.014594343999169564
 0.0018971441053868049 0.014601669757609454 -0.0016541417939251986 -0.009308210242156863 0.006721119716672926 0.03112825998884292 0.9916907165586952 -0.07400650105332174
 -0.0016542037096861876 -0.009308202502700183 0.0019485995773347565 0.014594343999169564 0.9916907165586952 -0.07400650105332174 0.00671313159914906 0.031128850981044728
0.1059090909091 0.007183880992392996 0.03309427004630606 0.991078004304826 -0.07846261891579553 0.002093310532240869 0.015456337199909133 -0.0018238596252425803 -0.009854854205008963
 0.991078004304826 -0.07846261891579553 0.007174647154026929 0.033094977104837005 -0.001823790362546226 -0.009854863379181142 0.0021509980747026034 0.01544791976371861
 0.002093310532240869 0.015456337199909133 -0.001823790362546226 -0.009854863379181142 0.007183801153904447 0.033095660102863224 0.991078079090816 -0.07846118754277696
 -0.0018238596252425803 -0.009854854205008963 0.0021509980747026034 0.01544791976371861 0.991078079090816 -0.07846118754277696 0.007174848548689767 0.03309631556041966
0.1062942892872 0.007214979680665863 0.033223897576867896 0.9910368430262145 -0.0787554902632581 0.0021065488758120554 0.015512409961120572 -0.001835310592791004 -0.00989071302554014
 0.9910368430262145 -0.0787554902632581 0.007205678504317864 0.03322460944928728 -0.001835240833953453 -0.00989072229940784 0.002164658075167104 0.015503917237127204
 0.0021065488758120554 0.015512409961120572 -0.001835240833953453 -0.00989072229940784 0.007214899182985716 0.0332252924638807 0.9910369183697751 -0.07875405354210235
 -0.001835310592791004 -0.00989071302554014 0.002164658075167104 0.015503917237127204 0.9910369183697751 -0.07875405354210235 0.007205881322370953 0.03322595229710058
0.11254689453939999 0.00773235763810991 0.035336022521100276 0.9903523731837104 -0.08351644735439737 0.002327664498039679 0.01642189298353696 -0.0020266050767861633 -0.010472208505684444
 0.9903523731837104 -0.08351644735439737 0.007721928899945606 0.03533681543077375 -0.002026527027828167 -0.010472219496403229 0.002392833822151832 0.016412113591395154
 0.002327664498039679 0.01642189298353696 -0.002026527027828167 -0.010472219496403229 0.007732265987787744 0.035337495455344994 0.9903524579157441 -0.08351492359946476
 -0.0020266050767861633 -0.010472208505684444 0.002392833822151832 0.016412113591395154 0.9903524579157441 -0.08351492359946476 0.007722155469113278 0.03533822885105059
0.11879949979160001 0.008273671670746701 0.0374629318838233 0.9896368986147053 -0.08829041842374924 0.0025605639051830237 0.017329922917231035 -0.002228162431698321 -0.01105249349979523
 0.9896368986147053 -0.08829041842374924 0.008262050220133191 0.037463811441878776 -0.0022280756499118357 -0.011052506399699524 0.0026331997113750037 0.017318730831583064
 0.0025605639051830237 0.017329922917231035 -0.0022280756499118357 -0.011052506399699524 0.008273567997223927 0.03746448218267083 0.9896369933877717 -0.08828880717471103
 -0.002228162431698321 -0.01105249349979523 0.0026331997113750037 0.017318730831583064 0.9896369933877717 -0.08828880717471103 0.008262301741169245 0.03746529404635573
0.1250521050438 0.008839265518777152 0.03960423562173865 0.988890081014655 -0.09307708742430677 0.002805316158656704 0.018236300183664084 -0.0024400539450249803 -0.01163136938659296
 0.988890081014655 -0.09307708742430677 0.00882638602163335 0.03960520766650864 -0.002439957992241004 -0.011631384397921746 0.00288582466750419 0.018223563003572658
 0.002805316158656704 0.018236300183664084 -0.002439957992241004 -0.011631384397921746 0.008839148921663249 0.039605862565558425 0.9888901865035431 -0.09307538819458308
 -0.0024400539450249803 -0.01163136938659296 0.00288582466750419 0.018223563003572658 0.9888901865035431 -0.09307538819458308 0.008826663668045309 0.039606757994273545
0.131304710296 0.009429478588174276 0.04175953973763443 0.9881115858354278 -0.09787612698488836 0.0030619863175867725 0.019140821645895905 -0.002662346797463835 -0.012208634391284664
 0.9881115858354278 -0.09787612698488836 0.009415275511209529 0.04176061034326649 -0.002662241240364838 -0.012208651726165153 0.0031507735131257727 0.01912640054381366
 0.0030619863175867725 0.019140821645895905 -0.002662241240364838 -0.012208651726165153 0.00942934813634887 0.04176124257056466 0.9881117027384861 -0.0978743392616117
 -0.002662346797463835 -0.012208634391284664 0.0031507735131257727 0.01912640054381366 0.9881117027384861 -0.0978743392616117 0.009415580427210026 0.04176222686128233
0.1375573155481 0.009915723281020222 0.04364860736191749 0.9874300700202493 -0.10240718449775703 0.0032995044510429673 0.02001615887603522 -0.002863876644015255 -0.012757062660500196
 0.9874300700202493 -0.10240718449775703 0.009900127544596316 0.04364976158433815 -0.0028637610472279904 -0.012757082361400305 0.003396771794006333 0.02000006489014435
 0.0032995044510429673 0.02001615887603522 -0.0028637610472279904 -0.012757082361400305 0.009915579190799181 0.04365038497927406 0.9874301988798081 -0.10240530796600743
 -0.002863876644015255 -0.012757062660500196 0.003396771794006333 0.02000006489014435 0.9874301988798081 -0.10240530796600743 0.009900459998060978 0.04365144339775431
0.1438099208003 0.010419279570977508 0.04552658096093129 0.9867242067742228 -0.10692558573070664 0.0035465608243410852 0.02088729868576723 -0.0030734155029814247 -0.013301560480707932
 0.9867242067742228 -0.10692558573070664 0.010402224890111382 0.04552782377018885 -0.0030732894392926547 -0.013301582751484112 0.0036526770860014182 0.020869403904615984
 0.0035465608243410852 0.02088729868576723 -0.0030732894392926547 -0.013301582751484112 0.010419121074493718 0.04552843250980448 0.9867243482905433 -0.10692361988618432
 -0.0030734155029814247 -0.013301560480707932 0.0036526770860014182 0.020869403904615984 0.9867243482905433 -0.10692361988618432 0.010402585824761085 0.045529569338429846
0.1500625260525 0.01093995297713083 0.04739326905803564 0.9859941954931565 -0.11143118321460571 0.003803058394926192 0.02175413170433783 -0.003290867408501926 -0.013842022512729047
 0.9859941954931565 -0.11143118321460571 0.010921372872023861 0.04739460573439086 -0.003290730455148075 -0.013842047564812627 0.003918389770923577 0.021734303545800658
 0.003803058394926192 0.02175413170433783 -0.003290730455148075 -0.013842047564812627 0.010939779290097033 0.04739519365026799 0.9859943503863359 -0.1114291275355223
 -0.003290867408501926 -0.013842022512729047 0.003918389770923577 0.021734303545800658 0.9859943503863359 -0.1114291275355223 0.010921763192561726 0.04739641345855472
0.15631513130469998 0.011477547429187262 0.049248485867452015 0.98524023681776 -0.11592383078417448 0.004068898858706124 0.02261655069999839 -0.0035161351014518865 -0.014378345855424982
 0.98524023681776 -0.11592383078417448 0.011457375220026461 0.04924992201071342 -0.0035159868402528547 -0.014378373907746508 0.0041938089247184115 0.02259465196588161
