! Created with skrf 1.8.0 (http://scikit-rf.org).
# GHz S RI R 50.0 
!freq ReS11 ImS11 ReS12 ImS12 ReS13 ImS13
! ReS14 ImS14
! ReS21 ImS21 ReS22 ImS22 ReS23 ImS23
! ReS24 ImS24
! ReS31 ImS31 ReS32 ImS32 ReS33 ImS33
! ReS34 ImS34
! ReS41 ImS41 ReS42 ImS42 ReS43 ImS43
! ReS44 ImS44
!
0.0 0.001594254309344 0.0 0.9984057456576 0.0 6.187419903673e-05 0.0 -6.187419851959e-05 7.57740391668238e-21
 0.9984057456576 0.0 0.001594254309356 0.0 -6.187419851989e-05 7.577403916719119e-21 6.187419903519e-05 0.0
 6.187419903673e-05 0.0 -6.187419851989e-05 7.577403916719119e-21 0.001594254324345 0.0 0.9984057456726 0.0
 -6.187419851959e-05 7.57740391668238e-21 6.187419903519e-05 0.0 0.9984057456726 0.0 0.001594254324345 0.0
0.005 0.0017154957812157208 0.0012986219261498701 0.9982523048877 -0.003339651630778897 8.768929174952412e-05 0.0007148964893527203 -8.488373654448242e-05 -0.00044291822055395747
 0.9982523048877 -0.003339651630778897 0.001715518558289947 0.0012986086573061634 -8.488651224032199e-05 -0.00044292037729310916 8.752992345000153e-05 0.0007149570223819253
 8.768929174952412e-05 0.0007148964893527203 -8.488651224032199e-05 -0.00044292037729310916 0.0017154938789050718 0.0012985558031072312 0.9982523045232223 -0.003339718698418381
 -8.488373654448242e-05 -0.00044291822055395747 8.752992345000153e-05 0.0007149570223819253 0.9982523045232223 -0.003339718698418381 0.0017155197421478592 0.0012985406557312151
0.006252605252188 0.0017473380743212843 0.0016284048000683791 0.9982117384990792 -0.004175376228484969 9.511162088773793e-05 0.0008939470688483097 -9.140717868960948e-05 -0.0005542250484130931
 0.9982117384990792 -0.004175376228484969 0.0017473736792329353 0.0016283879766064442 -9.141149771130688e-05 -0.0005542277079987164 9.486262118813293e-05 0.0008940257077993579
 9.511162088773793e-05 0.0008939470688483097 -9.141149771130688e-05 -0.0005542277079987164 0.001747335171008241 0.0016283221727565569 0.998211737999877 -0.004175460046225564
 -9.140717868960948e-05 -0.0005542250484130931 9.486262118813293e-05 0.0008940257077993579 0.998211737999877 -0.004175460046225564 0.0017473756009472432 0.0016283029919013843
0.01250521050438 0.0019152212467672077 0.003291053146199007 0.997996379346806 -0.008351532613303483 0.00013792409844766163 0.0017881171904325674 -0.0001285652971421452 -0.0011111357667223025
 0.997996379346806 -0.008351532613303483 0.001915363419716811 0.003291017138431818 -0.00012858231566745344 -0.0011111406867741677 0.00013693109110804303 0.0017883065859846533
 0.00013792409844766163 0.0017881171904325674 -0.00012858231566745344 -0.0011111406867741677 0.0019152102287401794 0.0032908882545952273 0.9979963779298964 -0.008351700030229366
 -0.0001285652971421452 -0.0011111357667223025 0.00013693109110804303 0.0017883065859846533 0.9979963779298964 -0.008351700030229366 0.0019153716800944989 0.0032908474118353652
0.01875781575657 0.002098281293494672 0.004977428877991458 0.9977593930553053 -0.012538626958471771 0.00019041077487201948 0.0026831351953525056 -0.0001734661782304689 -0.0016698770010569245
 0.9977593930553053 -0.012538626958471771 0.0020986007669234023 0.004977371219883419 -0.00017350412679168853 -0.0016698837039935202 0.00018817996776110616 0.00268347387053548
 0.00019041077487201948 0.0026831351953525056 -0.00017350412679168853 -0.0016698837039935202 0.0020982569552537027 0.004977182037391474 0.9977593902910955 -0.012538877930321006
 -0.0001734661782304689 -0.0016698770010569245 0.00018817996776110616 0.00268347387053548 0.9977593902910955 -0.012538877930321006 0.0020986197712377468 0.004977116862207895
0.02501042100875 0.002296883819657127 0.0066851464007530725 0.9975004933338901 -0.01673867466999727 0.00025267284821492555 0.003579035506178186 -0.0002262232073733683 -0.0022301774448260196
 0.9975004933338901 -0.01673867466999727 0.002297451191152301 0.006685064548347152 -0.00022629021688738658 -0.002230185366278168 0.0002487102005050843 0.0035795681852433697
 0.00025267284821492555 0.003579035506178186 -0.00022629021688738658 -0.002230185366278168 0.002296840965088397 0.006684818003009326 0.9975004887893542 -0.01673900920061516
 -0.0002262232073733683 -0.0022301774448260196 0.0002487102005050843 0.0035795681852433697 0.9975004887893542 -0.01673900920061516 0.002297485349477099 0.006684725666920386
0.03126302626094 0.0025113792667880042 0.008412970477489935 0.9972193796987083 -0.020952528946907037 0.0003248121118496674 0.00447576590515684 -0.0002869463099721869 -0.0027918457730035004
 0.9972193796987083 -0.020952528946907037 0.0025122650425163573 0.00841286181546281 -0.0002870504286233935 -0.0027918542608120303 0.00031862288631426223 0.004476543552419532
 0.0003248121118496674 0.00447576590515684 -0.0002870504286233935 -0.0027918542608120303 0.0025113127110944107 0.008412560985320975 0.9972193729396912 -0.02095294709438058
 -0.0002869463099721869 -0.0027918457730035004 0.00031862288631426223 0.004476543552419532 0.9972193729396912 -0.02095294709438058 0.002512318775421214 0.008412438508147935
0.037515631513130004 0.0027421103321950482 0.01016008995933474 0.9969157451480265 -0.025180606991509032 0.0004069298060278244 0.005373239866645413 -0.00035574279198853615 -0.0033547183085556385
 0.9969157451480265 -0.025180606991509032 0.0027433849570693415 0.01015995180481328 -0.000355891993788244 -0.003354726622509433 0.00039801837225620463 0.005374319750379025
 0.0004069298060278244 0.005373239866645413 -0.000355891993788244 -0.003354726622509433 0.0027420148984872903 0.010159599927954566 0.9969157357343094 -0.025181108847345358
 -0.00035574279198853615 -0.0033547183085556385 0.00039801837225620463 0.005374319750379025 0.9969157357343094 -0.025181108847345358 0.0027434626943647223 0.010159444180662792
0.043768236765320004 0.0029894148283380337 0.01192589679134073 0.9965892792818444 -0.029423110934162326 0.0004991260775379581 0.006271352494691004 -0.0004327176399239906 -0.0039186430911821914
 0.9965892792818444 -0.029423110934162326 0.002991148711403641 0.011925726396476552 -0.0004329198297677582 -0.003918650402937505 0.0004869958230887986 0.006272798258742629
 0.0004991260775379581 0.006271352494691004 -0.0004329198297677582 -0.003918650402937505 0.0029892853480304 0.011925326872245387 0.9965892667661679 -0.02942369662027481
 -0.0004327176399239906 -0.0039186430911821914 0.0004869958230887986 0.006272798258742629 0.9965892667661679 -0.02942369662027481 0.002991254893540451 0.01192513457843144
0.050020842017509996 0.0032536270089146575 0.013709894677900297 0.9962396698937901 -0.03368011909680225 0.0006014996593157514 0.00716998709430176 -0.0005179736235624706 -0.004483473316928446
 0.9962396698937901 -0.03368011909680225 0.003255890545936464 0.013709689231711248 -0.000518236640482986 -0.0044834787100144526 0.0005856529575667901 0.007171868832834589
 0.0006014996593157514 0.00716998709430176 -0.000518236640482986 -0.0044834787100144526 0.00325345832411781 0.013709245616957053 0.9962396538219644 -0.03368078876835824
 -0.0005179736235624706 -0.004483473316928446 0.0005856529575667901 0.007171868832834589 0.9962396538219644 -0.03368078876835824 0.0032560296266675452 0.013709013353429295
0.055454545454549996 0.0034972239309059767 0.015274681610210686 0.995916810235421 -0.03739136830438603 0.0006988060731066862 0.007951254594504758 -0.0005988671178101059 -0.004974950702249762
 0.995916810235421 -0.03739136830438603 0.003500004928705112 0.015274443372217103 -0.0005991893120008416 -0.0049749536152453215 0.0006793247463222577 0.007953577199913324
 0.0006988060731066862 0.007951254594504758 -0.0005991893120008416 -0.0049749536152453215 0.003497016995498611 0.015273964452078355 0.9959167906974874 -0.03739211111383851
 -0.0005988671178101059 -0.004974950702249762 0.0006793247463222577 0.007953577199913324 0.9959167906974874 -0.03739211111383851 0.003500176226796942 0.015273694559475214
0.056273447269699996 0.0035350782418925755 0.015511654253203546 0.9958666039131926 -0.037951630753358265 0.0007141476407431761 0.00806901840942832 -0.0006116113165758412 -0.0050490641158112215
 0.9958666039131926 -0.037951630753358265 0.0035379418363457615 0.015511410882557319 -0.0006119429358409065 -0.005049066585659202 0.0006940858535064054 0.008071412742914924
 0.0007141476407431761 0.00806901840942832 -0.0006119429358409065 -0.005049066585659202 0.003534865205270247 0.01551092689234373 0.995866583822297 -0.037952384597905585
 -0.0006116113165758412 -0.0050490641158112215 0.0006940858535064054 0.008071412742914924 0.995866583822297 -0.037952384597905585 0.003538118283159015 0.015510651088929408
0.06252605252188 0.003834097365881723 0.01733078843592238 0.9954697680365913 -0.04223759070962325 0.0008371652885549119 0.00896831439921328 -0.0007137290700585355 -0.0056152707961430815
 0.9954697680365913 -0.04223759070962325 0.003837631449743293 0.017330504206051898 -0.0007141370046146922 -0.0056152692501460575 0.0008123887917874003 0.008971304550849317
 0.0008371652885549119 0.00896831439921328 -0.0007141370046146922 -0.0056152692501460575 0.00383383484188934 0.017329983716111236 0.9954697434536501 -0.04223842894489708
 -0.0007137290700585355 -0.0056152707961430815 0.0008123887917874003 0.008971304550849317 0.9954697434536501 -0.04223842894489708 0.0038378497449291405 0.01732966065480841
0.06877865777407 0.004151010868513673 0.019166937735655885 0.9950488491843539 -0.046537903936032854 0.0009706458917133051 0.009867737309112654 -0.0008244229636791658 -0.006181947799333762
 0.9950488491843539 -0.046537903936032854 0.004155285922318438 0.01916660964985013 -0.0008249148651382279 -0.006181941056909841 0.0009406541171317922 0.009871413181119419
 0.0009706458917133051 0.009867737309112654 -0.0008249148651382279 -0.006181941056909841 0.004150693735765859 0.019166056701367926 0.9950488196263302 -0.04653882680630262
 -0.0008244229636791658 -0.006181947799333762 0.0009406541171317922 0.009871413181119419 0.9950488196263302 -0.04653882680630262 0.004155550565000994 0.01916568251476133
0.07503126302626001 0.0044861429651389785 0.02101976095114409 0.9946035348625313 -0.05085244481409879 0.001114680623064789 0.010767144352405379 -0.0009437867399137333 -0.006748948049853483
 0.9946035348625313 -0.05085244481409879 0.004491229537653999 0.02101938594994585 -0.0009443701991010878 -0.006748934842531078 0.0010789721123405029 0.010771602601916537
 0.001114680623064789 0.010767144352405379 -0.0009443701991010878 -0.006748934842531078 0.0044857661162305785 0.02101880474430145 0.9946034998336611 -0.05085345259692995
 -0.0009437867399137333 -0.006748948049853483 0.0010789721123405029 0.010771602601916537 0.9946034998336611 -0.05085345259692995 0.004491545043834642 0.02101837541343401
0.08128386827845 0.004839815609306737 0.022888928965355788 0.9941335134600786 -0.055181063291828716 0.0012693584107943984 0.011666388171762564 -0.001071911728319663 -0.00731612253098863
 0.9941335134600786 -0.055181063291828716 0.004845784337756537 0.022888503925027785 -0.001072594275708528 -0.007316101502490145 0.0012274308790371188 0.011671732286001744
 0.0012693584107943984 0.011666388171762564 -0.001072594275708528 -0.007316101502490145 0.0048393739535335985 0.022887898831460203 0.9941334724521345 -0.05518215629266354
 -0.001071911728319663 -0.00731612253098863 0.0012274308790371188 0.011671732286001744 0.9941334724521345 -0.05518215629266354 0.004846155242056316 0.022887410183007217
0.08753647353064001 0.005212348461323789 0.024774120474408367 0.993638474508684 -0.05952358911176795 0.0014347658151733398 0.012565317168671975 -0.0012088867637631631 -0.00788331999869042
 0.993638474508684 -0.05952358911176795 0.0052192700911958614 0.024773642204749296 -0.0012096758696137377 -0.007883289705035287 0.0013861162224738663 0.012571657539320425
 0.0014347658151733398 0.012565317168671975 -0.0012096758696137377 -0.007883289705035287 0.0052118369257648746 0.024773017761227187 0.9936384269991132 -0.05952476766576765
 -0.0012088867637631631 -0.00788331999869042 0.0013861162224738663 0.012571657539320425 0.9936384269991132 -0.05952476766576765 0.005219700947685348 0.024772465463899163
0.09378907878283 0.005604058827029024 0.026675018930358025 0.9931181089161416 -0.06387983483156347 0.0016109869108992694 0.013463775744006517 -0.0013547980984850915 -0.008450386790447234
 0.9931181089161416 -0.06387983483156347 0.005612004231999336 0.02667448417183387 -0.0013557011728385995 -0.008450345700068045 0.0015551115402787348 0.013471229740547796
 0.0016109869108992694 0.013463775744006517 -0.0013557011728385995 -0.008450345700068045 0.005603472358225437 0.02667384508939338 0.9931180543672298 -0.06388109930281492
 -0.0013547980984850915 -0.008450386790447234 0.0015551115402787348 0.013471229740547796 0.9931180543672298 -0.06388109930281492 0.005612499615428318 0.026673224649800462
0.100041684035 0.006015261574610537 0.02859131030260875 0.9925721091812358 -0.06824959803309151 0.001798103171421681 0.014361604486722745 -0.0015097293115121202 -0.009017166692414275
 0.9925721091812358 -0.06824959803309151 0.00602430177652921 0.028590715722765638 -0.0015107537040819738 -0.009017113186277827 0.0017344977122930368 0.01437029652868425
 0.001798103171421681 0.014361604486722745 -0.0015107537040819738 -0.009017113186277827 0.00601459514004715 0.028590066890303772 0.9925720470385845 -0.06825094881373348
 -0.0015097293115121202 -0.009017166692414275 0.0017344977122930368 0.01437029652868425 0.9925720470385845 -0.06825094881373348 0.0060248662832598585 0.028589373648004318
0.1059090909091 0.006419138103637977 0.030403267207505955 0.9920361600254476 -0.07236225931389817 0.001983671161773728 0.015203403494463225 -0.0016633913263788512 -0.009548627122190284
 0.9920361600254476 -0.07236225931389817 0.0064292703999289606 0.030402613392129373 -0.0016645361937989334 -0.009548560414896852 0.0019123527186749284 0.015213376811383263
 0.001983671161773728 0.015203403494463225 -0.0016645361937989334 -0.009548560414896852 0.00641839207312474 0.03040196001639259 0.9920360902373971 -0.0723636914714417
 -0.0016633913263788512 -0.009548627122190284 0.0019123527186749284 0.015213376811383263 0.9920360902373971 -0.0723636914714417 0.006429903972217657 0.030401194064089733
0.1062942892872 0.006446269035453057 0.03052268140587223 0.9920001695967625 -0.07263266297202163 0.001996193355548741 0.01525864032503918 -0.0016737612149697754 -0.009583500850488133
 0.9920001695967625 -0.07263266297202163 0.006456475224826752 0.030522023595014977 -0.00167491421495252 -0.00958343322223363 0.001924352992409539 0.015268701952942733
 0.001996193355548741 0.01525864032503918 -0.00167491421495252 -0.00958343322223363 0.00644551762563977 0.030521370081624342 0.9920000992888299 -0.07263410048482871
 -0.0016737612149697754 -0.009583500850488133 0.001924352992409539 0.015268701952942733 0.9920000992888299 -0.07263410048482871 0.0064571134740558055 0.030520599203466725
0.11254689453939999 0.006897390892991399 0.03246881861644238 0.9914019864429067 -0.07702880184661813 0.0022053333961069535 0.016154716650826868 -0.0018469717580974318 -0.010149227714788324
 0.9914019864429067 -0.07702880184661813 0.006908834449276103 0.03246809408258976 -0.001848260593860293 -0.010149144170886496 0.0021247529015677807 0.016166286595823778
 0.0022053333961069535 0.016154716650826868 -0.001848260593860293 -0.010149144170886496 0.006896549522807967 0.03246744114546338 0.9914019073790835 -0.0770303265423633
 -0.0018469717580974318 -0.010149227714788324 0.0021247529015677807 0.016166286595823778 0.9914019073790835 -0.0770303265423633 0.006909551083874239 0.032466587619181524
0.11879949979160001 0.007368934062143466 0.03442940688210643 0.9907772581751657 -0.08143777578051792 0.002425596289134503 0.01704966342999209 -0.0020294359303090937 -0.010714183004878301
 0.9907772581751657 -0.08143777578051792 0.007381686574442657 0.034428612045093836 -0.0020308677690527317 -0.010714081664754673 0.002335770120962873 0.017062887682084624
 0.002425596289134503 0.01704966342999209 -0.0020308677690527317 -0.010714081664754673 0.007367997773107181 0.034427965137094695 0.990777169745202 -0.08143938813658831
 -0.0020294359303090937 -0.010714183004878301 0.002335770120962873 0.017062887682084624 0.990777169745202 -0.08143938813658831 0.007382486261908698 0.034427023764186236
0.1250521050438 0.007861202561487425 0.03640412894433671 0.9901256856068332 -0.08585933560100723 0.0026570519846258645 0.017943307298514247 -0.0022212256625848453 -0.011278199696173616
 0.9901256856068332 -0.08585933560100723 0.007875335848833038 0.03640326012923894 -0.0022228076099058483 -0.011278078592453562 0.00255747438652776 0.01795833917317871
 0.0026570519846258645 0.017943307298514247 -0.0022228076099058483 -0.011278078592453562 0.007860166422755251 0.03640262490175837 0.9901255871787235 -0.08586103612534127
 -0.0022212256625848453 -0.011278199696173616 0.00255747438652776 0.01795833917317871 0.9901255871787235 -0.08586103612534127 0.007876223282318098 0.03640159028944755
0.131304710296 0.008374497378213533 0.03839266471850101 0.9894469720877147 -0.090293222467401 0.0028997672777957588 0.018835471652255548 -0.002422409728313288 -0.0118411080195548
 0.9894469720877147 -0.090293222467401 0.008390083510547276 0.03839171814819061 -0.0024241488277182343 -0.011840965098192668 0.002789932383763059 0.018852471855521417
 0.0028997672777957588 0.018835471652255548 -0.0024241488277182343 -0.011840965098192668 0.008373356489515671 0.038391100462525904 0.9894468630076942 -0.0902950116947038
 -0.002422409728313288 -0.0118411080195548 0.002789932383763059 0.018852471855521417 0.9894468630076942 -0.0902950116947038 0.008391063410362021 0.03838996701503794
0.1375573155481 0.008793269463532928 0.04013426020811652 0.9888567166136317 -0.0944786178054382 0.003124337272516158 0.01969988759239083 -0.0026037177766303787 -0.01237657114369782
 0.9888567166136317 -0.0944786178054382 0.00881038665214375 0.04013325374161188 -0.002605624552212652 -0.01237640619008026 0.0030039980914539936 0.01971883511803865
 0.003124337272516158 0.01969988759239083 -0.002605624552212652 -0.01237640619008026 0.008792019492664034 0.0401326375683673 0.9888565963789719 -0.09448049607186759
 -0.0026037177766303787 -0.01237657114369782 0.0030039980914539936 0.01971883511803865 0.9888565963789719 -0.09448049607186759 0.0088114629073846 0.04013142154833636
0.1438099208003 0.009226815933473069 0.041866268728210795 0.9882455900338427 -0.0986530088823416 0.0033579950316296498 0.020560552485304227 -0.0027922765767707134 -0.012908660675067447
 0.9882455900338427 -0.0986530088823416 0.009245537519794117 0.04186519974427171 -0.002794358609283406 -0.012908471662349692 0.0032266922822678495 0.02058159456470764
 0.0033579950316296498 0.020560552485304227 -0.002794358609283406 -0.012908471662349692 0.009225452124461155 0.04186458985934071 0.9882454579891857 -0.09865497671622647
 -0.0027922765767707134 -0.012908660675067447 0.0032266922822678495 0.02058159456470764 0.9882454579891857 -0.09865497671622647 0.009246714740518294 0.041863286798838606
0.1500625260525 0.009674978004149867 0.043588533854040545 0.9876137554134632 -0.10281628029285082 0.0036006574307366436 0.021417369586993067 -0.002988006536770537 -0.013437287465666201
 0.9876137554134632 -0.10281628029285082 0.00969537760034064 0.04358739950729638 -0.002990271389281307 -0.01343707228560251 0.003457934715736504 0.021440658819110902
 0.0036006574307366436 0.021417369586993067 -0.002990271389281307 -0.01343707228560251 0.009673495636291593 0.04358680099776425 0.9876136108841159 -0.1028183382409332
 -0.002988006536770537 -0.013437287465666201 0.003457934715736504 0.021440658819110902 0.9876136108841159 -0.1028183382409332 0.009696660413464214 0.04358540612969819
0.15631513130469998 0.01013759568739663 0.04530090386356001 0.9869613767299653 -0.10696831728926441 0.0038522403176324957 0.022270243845206424 -0.0031908270448059903 -0.013962364316858234
 0.9869613767299653 -0.10696831728926441 0.010159747184248969 0.04529970107347131 -0.0031932822622710165 -0.013962120780155655 0.0036976441691912265 0.022295938138168388
