! Created with skrf 1.8.0 (http://scikit-rf.org).
# GHz S RI R 50.0 
!freq ReS11 ImS11 ReS12 ImS12 ReS13 ImS13
! ReS14 ImS14
! ReS21 ImS21 ReS22 ImS22 ReS23 ImS23
! ReS24 ImS24
! ReS31 ImS31 ReS32 ImS32 ReS33 ImS33
! ReS34 ImS34
! ReS41 ImS41 ReS42 ImS42 ReS43 ImS43
! ReS44 ImS44
!
0.0 0.001473720382453 0.0 0.9985262796175 0.0 5.663416847916e-05 0.0 -5.663416936804e-05 6.935685423893926e-21
 0.9985262796175 0.0 0.001473720382422 0.0 -5.663416936712e-05 6.935685423781259e-21 5.663416847964e-05 0.0
 5.663416847916e-05 0.0 -5.663416936712e-05 6.935685423781259e-21 0.001473720372481 0.0 0.9985262796076 0.0
 -5.663416936804e-05 6.935685423893926e-21 5.663416847964e-05 0.0 0.9985262796076 0.0 0.001473720372492 0.0
0.005 0.0015853877653977321 0.0012075597747344172 0.9983850508965338 -0.003087148620168544 7.894835054748575e-05 0.0006135057120740619 -7.677250423892435e-05 -0.0003869541551338552
 0.9983850508965338 -0.003087148620168544 0.0015853912768208364 0.0012075576922282935 -7.677100542107414e-05 -0.00038695296673957644 7.892037063185288e-05 0.0006135161656664181
 7.894835054748575e-05 0.0006135057120740619 -7.677100542107414e-05 -0.00038695296673957644 0.0015853883773093895 0.0012074921186617795 0.9983850505442967 -0.003087215672144784
 -7.677250423892435e-05 -0.0003869541551338552 7.892037063185288e-05 0.0006135161656664181 0.9983850505442967 -0.003087215672144784 0.0015853899604887207 0.0012074912425505248
0.006252605252188 0.0016146164465953257 0.0015141997638703816 0.9983478628860577 -0.0038596991549768667 8.528422818631849e-05 0.000767188258894642 -8.242825881181733e-05 -0.000484193884109818
 0.9983478628860577 -0.0038596991549768667 0.0016146219363760593 0.0015141971789025548 -8.242592680982521e-05 -0.0004841924179260639 8.524050965598176e-05 0.0007672018620888457
 8.528422818631849e-05 0.000767188258894642 -8.242592680982521e-05 -0.0004841924179260639 0.0016146174796930783 0.0015141151883245312 0.9983478624116174 -0.0038597829698386976
 -8.242825881181733e-05 -0.000484193884109818 8.524050965598176e-05 0.0007672018620888457 0.9983478624116174 -0.0038597829698386976 0.0016146199544185959 0.0015141141211936107
0.01250521050438 0.0017681431738694568 0.003060138607956805 0.998151294924762 -0.007720250992788542 0.00012141246493674161 0.001534791491325342 -0.00011435692556188155 -0.0009707615570814832
 0.998151294924762 -0.007720250992788542 0.0017681651038210138 0.003060133625499469 -0.00011434773862095434 -0.0009707588353154178 0.00012123804967568072 0.0015348244428475895
 0.00012141246493674161 0.001534791491325342 -0.00011434773862095434 -0.0009707588353154178 0.0017681478638258133 0.0030599696395419546 0.9981512935893513 -0.007720418371025118
 -0.00011435692556188155 -0.0009707615570814832 0.00012123804967568072 0.0015348244428475895 0.9981512935893513 -0.007720418371025118 0.0017681577423022325 0.0030599678092985156
0.01875781575657 0.0019346241198880498 0.004628129277100655 0.9979363396055535 -0.011591061753826619 0.00016510128286760788 0.0023033188575150186 -0.00015251564741428826 -0.0014590245034250824
 0.9979363396055535 -0.011591061753826619 0.0019346734125509429 0.004628122085857313 -0.00015249516458785075 -0.0014590207746826265 0.0001647092995922941 0.00230337794790397
 0.00016510128286760788 0.0023033188575150186 -0.00015249516458785075 -0.0014590207746826265 0.0019346350983447918 0.004627875908972144 0.9979363370331001 -0.011591312596447797
 -0.00015251564741428826 -0.0014590245034250824 0.0001647092995922941 0.00230337794790397 0.9979363370331001 -0.011591312596447797 0.0019346572863691799 0.004627873674534079
0.02501042100875 0.0021143739423777528 0.006215993817103521 0.9977027518116554 -0.015474019082009842 0.00021643417342054149 0.003072806889034109 -0.00019699709629556776 -0.0019487718486948477
 0.9977027518116554 -0.015474019082009842 0.002114461508856049 0.006215984614375442 -0.00019696093093777854 -0.0019487674041410528 0.00021573761103216302 0.0030728999271553443
 0.00021643417342054149 0.003072806889034109 -0.00019696093093777854 -0.0019487674041410528 0.002114393833796723 0.006215655995650437 0.9977027476185995 -0.015474353300990326
 -0.00019699709629556776 -0.0019487718486948477 0.00021573761103216302 0.0030728999271553443 0.9977027476185995 -0.015474353300990326 0.0021144332232802005 0.006215653776002506
0.03126302626094 0.00230769424921978 0.007822617469623015 0.9974502734850283 -0.019369938099450614 0.0002754951177482481 0.003843222914185451 -0.00024789151087650183 -0.0024398569287716024
 0.9974502734850283 -0.019369938099450614 0.0023078309964325245 0.007822606463333584 -0.0002478353213013608 -0.002439852102689972 0.0002744067484025376 0.0038433587359974386
 0.0002754951177482481 0.003843222914185451 -0.0002478353213013608 -0.002439852102689972 0.0023077256858488444 0.007822195085630755 0.997450267293853 -0.01937035562663939
 -0.00024789151087650183 -0.0024398569287716024 0.0002744067484025376 0.0038433587359974386 0.997450267293853 -0.01937035562663939 0.002307787159949531 0.00782219336197275
0.037515631513130004 0.002514880228469137 0.009447277952102777 0.9971786404445123 -0.023279232066758773 0.00034236779916499573 0.004614506980994658 -0.00030528733166014787 -0.002932155363985377
 0.9971786404445123 -0.023279232066758773 0.0025150770645067525 0.009447265361827115 -0.0003052068163633987 -0.002932150533937313 0.00034080014330164555 0.0046146954619428
 0.00034236779916499573 0.004614506980994658 -0.0003052068163633987 -0.002932150533937313 0.0025149258440483936 0.00944677084881531 0.9971786318778065 -0.023279732845621556
 -0.00030528733166014787 -0.002932155363985377 0.00034080014330164555 0.0046146954619428 0.9971786318778065 -0.023279732845621556 0.0025150142815183163 0.009446770166125691
0.043768236765320004 0.0027362231977193616 0.011089441362789679 0.9968875851247747 -0.027202116409454042 0.0004171352357946321 0.00538658459679216 -0.0003692714279848915 -0.00342555231609174
 0.9968875851247747 -0.027202116409454042 0.002736491036028011 0.011089427420515026 -0.0003691623227587829 -0.003425547902952875 0.0004150005449970209 0.0053868366653553774
 0.0004171352357946321 0.00538658459679216 -0.0003691623227587829 -0.003425547902952875 0.0027362856296651713 0.011088849352341012 0.9968875738069325 -0.027202700378475397
 -0.0003692714279848915 -0.00342555231609174 0.0004150005449970209 0.0053868366653553774 0.9968875738069325 -0.027202700378475397 0.0027364059087655215 0.011088850320796333
0.050020842017509996 0.002972011796006904 0.01274867782649611 0.9965768379605199 -0.031138693001823387 0.0004998795566884827 0.006159371999670174 -0.0004399291845248421 -0.003919937214752829
 0.9965768379605199 -0.031138693001823387 0.0029723615591886183 0.01274866277714328 -0.00043978726058189555 -0.003919933682707052 0.0004970898060236348 0.006159699651374851
 0.0004998795566884827 0.006159371999670174 -0.00043978726058189555 -0.003919933682707052 0.0029720936831797475 0.012748000681538028 0.9965768235162198 -0.031139360102594278
 -0.0004399291845248421 -0.003919937214752829 0.0004970898060236348 0.006159699651374851 0.9965768235162198 -0.031139360102594278 0.0029722506855200236 0.01274800397779564
0.055454545454549996 0.0031888734636467343 0.014204183665138077 0.9962905868101563 -0.034570841503614544 0.0005783280879700527 0.006831453980804703 -0.0005068179553212774 -0.004350290440999908
 0.9962905868101563 -0.034570841503614544 0.003189303302563196 0.014204167862958743 -0.0005066441031668463 -0.004350288085247131 0.0005748973672177344 0.006831857897838047
 0.0005783280879700527 0.006831453980804703 -0.0005066441031668463 -0.004350288085247131 0.003188974403868167 0.014203432323256292 0.9962905693457412 -0.034571580800274046
 -0.0005068179553212774 -0.004350290440999908 0.0005748973672177344 0.006831857897838047 0.9962905693457412 -0.034571580800274046 0.003189167289966038 0.014203438244472445
0.056273447269699996 0.0032225325971278296 0.014424620098597024 0.9962461281959654 -0.03508899149301554 0.0005906818478566035 0.006932778722066217 -0.0005173445181975851 -0.004415201194162917
 0.9962461281959654 -0.03508899149301554 0.003222975220766021 0.014424604200430562 -0.0005171655808880316 -0.00441519905068483 0.0005871487340342619 0.00693319503374917
 0.0005906818478566035 0.006932778722066217 -0.0005171655808880316 -0.00441519905068483 0.0032226365817813055 0.014423857557685814 0.9962461102518897 -0.035089741664544365
 -0.0005173445181975851 -0.004415201194162917 0.0005871487340342619 0.00693319503374917 0.9962461102518897 -0.035089741664544365 0.0032228351963521362 0.014423863926043423
0.06252605252188 0.0034880704431846394 0.016116940795567372 0.9958951844168655 -0.03905299200850169 0.0006896220260512354 0.007706709027750597 -0.0006015998667914884 -0.004911235659140534
 0.9958951844168655 -0.03905299200850169 0.0034886168794151066 0.016116924320464847 -0.0006013797547441205 -0.0049112354549652355 0.0006852569692577525 0.007707228171895586
 0.0006896220260512354 0.007706709027750597 -0.0006013797547441205 -0.0049112354549652355 0.003488199169696661 0.01611609256078022 0.9958951626013355 -0.03905382518936619
 -0.0006015998667914884 -0.004911235659140534 0.0006852569692577525 0.007707228171895586 0.9958951626013355 -0.03905382518936619 0.003488444296420516 0.016116102814191426
0.06877865777407 0.00376890862430467 0.017825338823924022 0.9955237349333812 -0.043030638656053194 0.0007967787330456189 0.00848106274992559 -0.000692776156012912 -0.00540793145325586
 0.9955237349333812 -0.043030638656053194 0.00376956984495262 0.01782532205758093 -0.0006925107404585397 -0.00540793378234198 0.0007914928815907347 0.008481700009053553
 0.0007967787330456189 0.00848106274992559 -0.0006925107404585397 -0.00540793378234198 0.0037690647384296502 0.017824404558729134 0.9955237088754662 -0.04303155478631344
 -0.000692776156012912 -0.00540793145325586 0.0007914928815907347 0.008481700009053553 0.9955237088754662 -0.04303155478631344 0.003769361292081804 0.017824419579770878
0.07503126302626001 0.00406532896519683 0.019549530776263303 0.9951315080720814 -0.047021848067859535 0.0009122292399910175 0.009255735832124109 -0.0007909527553296551 -0.005905178327582407
 0.9951315080720814 -0.047021848067859535 0.0040661159654508195 0.01954951401822902 -0.0007906379396692433 -0.005905183827075412 0.0009059334768460058 0.00925650761316297
 0.0009122292399910175 0.009255735832124109 -0.0007906379396692433 -0.005905183827075412 0.0040655151140153055 0.019548510114649906 0.9951314774026142 -0.04702284707957177
 -0.0007909527553296551 -0.005905178327582407 0.0009059334768460058 0.00925650761316297 0.9951314774026142 -0.04702284707957177 0.0040658680282100014 0.01954853085634103
0.08128386827845 0.004377611856710265 0.02128924520665246 0.9947182324174326 -0.05102651506689151 0.0010360493576911057 0.010030620690809193 -0.0008962074266055445 -0.006402864591364385
 0.9947182324174326 -0.05102651506689151 0.004378535658660441 0.02128922877031885 -0.0008958391461200531 -0.006402873941554103 0.0010286543086095174 0.010031544539417885
 0.0010360493576911057 0.010030620690809193 -0.0008958391461200531 -0.006402873941554103 0.004377830688339247 0.02128813774172327 0.9947181967683546 -0.05102759689539436
 -0.0008962074266055445 -0.006402864591364385 0.0010286543086095174 0.010031544539417885 0.9947181967683546 -0.05102759689539436 0.004378244919422866 0.021288165228233295
0.08753647353064001 0.004706036249379976 0.023044218669598816 0.9942836370170757 -0.0550445165738051 0.0011683133517389472 0.010805606467296862 -0.001008616266667767 -0.006900876877120944
 0.9942836370170757 -0.0550445165738051 0.004707107905320328 0.023044202882052525 -0.0010081904882958106 -0.006900890801389146 0.0011597293947147212 0.010806701082103852
 0.0011683133517389472 0.010805606467296862 -0.0010081904882958106 -0.006900890801389146 0.0047062904123189656 0.023043023962902285 0.9942835960221174 -0.055045681148038275
 -0.001008616266667767 -0.006900876877120944 0.0011597293947147212 0.010806701082103852 0.9942835960221174 -0.055045681148038275 0.004706770943396019 0.023043059290229075
0.09378907878283 0.0050508796199651 0.024814192889552857 0.9938274515647295 -0.05907571438750243 0.0013090938599156854 0.011580579211202775 -0.0011282536464457802 -0.007399099978077545
 0.9938274515647295 -0.05907571438750243 0.0050521102157817565 0.024814178091347706 -0.001127766368670857 -0.007399119242851021 0.0012992311356248567 0.01158186445800714
 0.0013090938599156854 0.011580579211202775 -0.001127766368670857 -0.007399119242851021 0.005051171762884514 0.024812910464627563 0.993827404859247 -0.0590769616362343
 -0.0011282536464457802 -0.007399099978077545 0.0012992311356248567 0.01158186445800714 0.993827404859247 -0.0590769616362343 0.005051723607791713 0.024812954801106325
0.100041684035 0.005412417919873712 0.0265989126891852 0.993349406567234 -0.06311995721122561 0.0014584618112710175 0.012355422025758041 -0.0012551921473258785 -0.00789741672784754
 0.993349406567234 -0.06311995721122561 0.005413818578724909 0.0265988992339866 -0.0012546394001326953 -0.007897442142541324 0.0014472302344247384 0.012356918951544464
 0.0014584618112710175 0.012355422025758041 -0.0012546394001326953 -0.007897442142541324 0.005412750690840651 0.02659754203499614 0.9933493537879438 -0.06312128705943618
 -0.0012551921473258785 -0.00789741672784754 0.0014472302344247384 0.012356918951544464 0.9933493537879438 -0.06312128705943618 0.005413378898332684 0.0265975966216817
0.1059090909091 0.005767111542424212 0.028286867912880903 0.9928806918130799 -0.06692676951377985 0.0016064995898997902 0.01308230503136008 -0.0013810137826951 -0.008365013160429194
 0.9928806918130799 -0.06692676951377985 0.005768681939971265 0.028286856050899534 -0.0013803960167513638 -0.008365045120570604 0.0015939013680442706 0.01308402080186646
 0.0016064995898997902 0.01308230503136008 -0.0013803960167513638 -0.008365045120570604 0.005767484846157408 0.028285413966817743 0.9928806330055168 -0.06692817680347354
 -0.0013810137826951 -0.008365013160429194 0.0015939013680442706 0.01308402080186646 0.9928806330055168 -0.06692817680347354 0.0057681893385201155 0.028285479366025552
0.1062942892872 0.005790925509093203 0.02839812442614082 0.9928492335004216 -0.06717708217509198 0.0016164863468007779 0.01313001517241914 -0.0013895024948059492 -0.008395707924868922
 0.9928492335004216 -0.06717708217509198 0.0057925073949097895 0.028398112680263474 -0.0013888803396640886 -0.008395740341830486 0.0016037956184291916 0.013131746019309646
 0.0016164863468007779 0.01313001517241914 -0.0013888803396640886 -0.008395740341830486 0.005791301555461756 0.02839666499304197 0.9928491742860176 -0.06717849454772129
 -0.0013895024948059492 -0.008395707924868922 0.0016037956184291916 0.013131746019309646 0.9928491742860176 -0.06717849454772129 0.005792011213536662 0.028396731144031583
0.11254689453939999 0.00618667508050861 0.03021157480349742 0.9923266649582451 -0.07124691598940569 0.001783234740663762 0.013904236162718601 -0.0015312534908709732 -0.008893852273848202
 0.9923266649582451 -0.07124691598940569 0.006188449401344405 0.030211565145405465 -0.0015305580207698015 -0.008893892588291222 0.001768994360900598 0.0139062243817376
 0.001783234740663762 0.013904236162718601 -0.0015305580207698015 -0.008893892588291222 0.006187097047837482 0.030210026009272816 0.9923265989489466 -0.07124841080520307
 -0.0015312534908709732 -0.008893852273848202 0.001768994360900598 0.0139062243817376 0.9923265989489466 -0.07124841080520307 0.006187893287958267 0.03021010511187583
0.11879949979160001 0.006599937574385824 0.032039009939856866 0.9917814347947287 -0.07532927584374673 0.0019587723222019215 0.014677959834719553 -0.0016805119445076077 -0.009391726346966724
 0.9917814347947287 -0.07532927584374673 0.00660191558626517 0.032039002759404786 -0.0016797392840551778 -0.009391775496904089 0.0019428916039225053 0.014680230099477599
 0.0019587723222019215 0.014677959834719553 -0.0016797392840551778 -0.009391775496904089 0.0066004081065766185 0.03203737116292078 0.9917813616327028 -0.07533085302176314
 -0.0016805119445076077 -0.009391726346966724 0.0019428916039225053 0.014680230099477599 0.9917813616327028 -0.07533085302176314 0.00660129610788717 0.032037464677715656
0.1250521050438 0.007030982087498933 0.033880174639507404 0.9912132782637645 -0.07942397011071603 0.0021431623981306865 0.015451058415974203 -0.001837342601500604 -0.009889204562994466
 0.9912132782637645 -0.07942397011071603 0.007033175098111658 0.03388017033718679 -0.0018364889070768959 -0.009889263529159512 0.002125550481141388 0.015453636636080629
 0.0021431623981306865 0.015451058415974203 -0.0018364889070768959 -0.009889263529159512 0.00703150382604009 0.033878445222004304 0.9912131975930925 -0.07942562956705507
 -0.001837342601500604 -0.009889204562994466 0.002125550481141388 0.015453636636080629 0.9912131975930925 -0.07942562956705507 0.00703248881992369 0.0338785546827819
0.131304710296 0.007480075776567965 0.03573481180021858 0.9906219321547424 -0.08353079891761145 0.0023364661751643537 0.016223401584918785 -0.002001808073300298 -0.010386159172477958
 0.9906219321547424 -0.08353079891761145 0.007482495148411941 0.035734810786270464 -0.0020008695330924753 -0.010386228978272929 0.002317032040856761 0.016226314919315466
 0.0023364661751643537 0.016223401584918785 -0.0020008695330924753 -0.010386228978272929 0.007480651359685856 0.035732991048871975 0.9906218436216628 -0.08353254056448356
 -0.002001808073300298 -0.010386159172477958 0.002317032040856761 0.016226314919315466 0.9906218436216628 -0.08353254056448356 0.0074817386342580046 0.03573311806238282
0.1375573155481 0.007842781596543768 0.03736126173367905 0.9901118749667454 -0.08740805075591643 0.0025138793083463134 0.01697068268986591 -0.0021491356192077705 -0.010858283466841494
 0.9901118749667454 -0.08740805075591643 0.007845439016398972 0.03736126180243119 -0.0021481064901433156 -0.010858364161399575 0.002492584601412272 0.016973926156355963
 0.0025138793083463134 0.01697068268986591 -0.0021481064901433156 -0.010858364161399575 0.007843412922098945 0.037359349132325546 0.9901117782197921 -0.08740987449303364
 -0.0021491356192077705 -0.010858283466841494 0.002492584601412272 0.016973926156355963 0.9901117782197921 -0.08740987449303364 0.007844609559708886 0.037359492282857454
0.1438099208003 0.008218201831734414 0.03897945454335434 0.9895839781579595 -0.09127577730844236 0.0026984585402082236 0.017715089684649438 -0.002302358878695961 -0.011327772811036566
 0.9895839781579595 -0.09127577730844236 0.008221108776928646 0.03897945577861158 -0.0023012350470238774 -0.011327865400493266 0.002675221533187382 0.01771868795713064
 0.0026984585402082236 0.017715089684649438 -0.0023012350470238774 -0.011327865400493266 0.008218891398747737 0.03897744938732375 0.9895838728475096 -0.09127768303931823
 -0.002302358878695961 -0.011327772811036566 0.002675221533187382 0.01771868795713064 0.9895838728475096 -0.09127768303931823 0.008220203069873675 0.038977609945990296
0.1500625260525 0.008606208592779285 0.04058926389065109 0.9890383734362973 -0.09513389144504242 0.0028901426111425594 0.018456551737460896 -0.0024614183478799804 -0.011794560092946185
 0.9890383734362973 -0.09513389144504242 0.008609376591722118 0.04058926636426905 -0.002460195707132159 -0.011794665623977893 0.0028648820359023787 0.018460530386113314
 0.0028901426111425594 0.018456551737460896 -0.002460195707132159 -0.011794665623977893 0.008606958888325649 0.04058716544610005 0.9890382592148483 -0.09513587907044736
 -0.0024614183478799804 -0.011794560092946185 0.0028648820359023787 0.018460530386113314 0.9890382592148483 -0.09513587907044736 0.0086083913331351 0.04058734471845966
0.15631513130469998 0.009006673135344864 0.04219056728615834 0.988475193120892 -0.0989823061632501 0.003088869566025289 0.0191949991739857 -0.0026262538165184447 -0.012258579582393264
