! Created with skrf 1.8.0 (http://scikit-rf.org).
# GHz S RI R 50.0 
!freq ReS11 ImS11 ReS12 ImS12 ReS13 ImS13
! ReS14 ImS14
! ReS21 ImS21 ReS22 ImS22 ReS23 ImS23
! ReS24 ImS24
! ReS31 ImS31 ReS32 ImS32 ReS33 ImS33
! ReS34 ImS34
! ReS41 ImS41 ReS42 ImS42 ReS43 ImS43
! ReS44 ImS44
!
0.0 0.001350340349968 0.0 0.99864965965 0.0 5.203650906146e-05 0.0 -5.203650852877e-05 6.372634360856213e-21
 0.99864965965 0.0 0.001350340349963 0.0 -5.20365085282e-05 6.3726343607864076e-21 5.203650906131e-05 0.0
 5.203650906146e-05 0.0 -5.20365085282e-05 6.3726343607864076e-21 0.001350340344279 0.0 0.9986496596443 0.0
 -5.203650852877e-05 6.372634360856213e-21 5.203650906131e-05 0.0 0.9986496596443 0.0 0.001350340344301 0.0
0.005 0.0014524294716309254 0.0010999453333320104 0.9985205794687424 -0.002829464298367411 7.332380955627205e-05 0.0006043697313565941 -7.114060807609291e-05 -0.000374019439751733
 0.9985205794687424 -0.002829464298367411 0.0014524131771060734 0.0010999548296903342 -7.113625660598049e-05 -0.00037401610604835176 7.343400506874646e-05 0.0006043277618962371
 7.332380955627205e-05 0.0006043697313565941 -7.113625660598049e-05 -0.00037401610604835176 0.0014524313098978195 0.0010998769840300038 0.9985205791317122 -0.0028295313592490738
 -7.114060807609291e-05 -0.000374019439751733 7.343400506874646e-05 0.0006043277618962371 0.9985205791317122 -0.0028295313592490738 0.001452410669063664 0.001099889060530368
0.006252605252188 0.001479063158699276 0.0013793025548215784 0.9984867165930269 -0.0035375473114989207 7.930543693748863e-05 0.0007557511851688362 -7.647068598644667e-05 -0.0004680237107655621
 0.9984867165930269 -0.0035375473114989207 0.0014790376878607281 0.0013793146565947625 -7.646391458824833e-05 -0.0004680195994338689 7.947760839251552e-05 0.0007556967271205303
 7.930543693748863e-05 0.0007557511851688362 -7.646391458824833e-05 -0.0004680195994338689 0.0014790660938173552 0.00137921711738021 0.9984867161273329 -0.0035376311379495856
 -7.647068598644667e-05 -0.0004680237107655621 7.947760839251552e-05 0.0007556967271205303 0.9984867161273329 -0.0035376311379495856 0.0014790338282661614 0.00137923244861777
0.01250521050438 0.0016184462777436932 0.002787900981560623 0.9983084490757892 -0.007076064960312368 0.00011308129705204134 0.0015118366088543301 -0.00010637078746892331 -0.0009384409532045043
 0.9983084490757892 -0.007076064960312368 0.0016183445773628093 0.002787927493197033 -0.00010634409944150226 -0.0009384333365789042 0.00011376789845544131 0.0015117063262750324
 0.00011308129705204134 0.0015118366088543301 -0.00010634409944150226 -0.0009384333365789042 0.0016184585844819894 0.0027877303500632136 0.9983084477976245 -0.007076232361445871
 -0.00010637078746892331 -0.0009384409532045043 0.00011376789845544131 0.0015117063262750324 0.9983084477976245 -0.007076232361445871 0.0016183297449877758 0.0027877633934743212
0.01875781575657 0.001768764339042506 0.004216924697408066 0.9981146567048765 -0.010624201443114413 0.0001534381857631448 0.0022688192909746654 -0.0001418228942385374 -0.0014105512477088115
 0.9981146567048765 -0.010624201443114413 0.0017685358236454699 0.0042169680206941606 -0.00014176337406906017 -0.001410540835250867 0.0001549806181723163 0.0022685880286185036
 0.0001534381857631448 0.0022688192909746654 -0.00014176337406906017 -0.001410540835250867 0.0017687924255456475 0.004216668924156997 0.9981146542543604 -0.010624452338383293
 -0.0001418228942385374 -0.0014105512477088115 0.0001549806181723163 0.0022685880286185036 0.9981146542543604 -0.010624452338383293 0.0017685029131643895 0.004216722250608242
0.02501042100875 0.00193028546729361 0.005664393717496132 0.9979051320508869 -0.014183707386566389 0.00020045078495623103 0.0030267614628389223 -0.00018291068328828223 -0.0018841506930798162
 0.9979051320508869 -0.014183707386566389 0.0019298796629052461 0.005664456332451398 -0.00018280556685927365 -0.0018841383108300354 0.00020319063616741894 0.003026400431517595
 0.00020045078495623103 0.0030267614628389223 -0.00018280556685927365 -0.0018841383108300354 0.0019303357395219986 0.005664052789806246 0.997905128071126 -0.01418404174395154
 -0.00018291068328828223 -0.0018841506930798162 0.00020319063616741894 0.003026400431517595 0.997905128071126 -0.01418404174395154 0.0019298215836566028 0.005664129138206618
0.03126302626094 0.0021032665419249263 0.007129304170561219 0.9976796560912295 -0.017755349993481405 0.00025419431482208123 0.0037856525394695324 -0.00022971570499049368 -0.002359104089740214
 0.9976796560912295 -0.017755349993481405 0.002102633059359217 0.0071293886318594055 -0.0002295523531580414 -0.0023590906820505266 0.000258473691496661 0.00378512929682257
 0.00025419431482208123 0.0037856525394695324 -0.0002295523531580414 -0.0023590906820505266 0.002103345404206998 0.0071288780531632585 0.9976796502249619 -0.017755767787343626
 -0.00022971570499049368 -0.002359104089740214 0.000258473691496661 0.00378512929682257 0.9976796502249619 -0.017755767787343626 0.002102542729822158 0.007128980326728701
0.037515631513130004 0.0022879590511314723 0.008611012942209628 0.9974380042074655 -0.021339528345457763 0.0003147438786074608 0.004545453595906264 -0.0002823180213373354 -0.0028353004658525287
 0.9974380042074655 -0.021339528345457763 0.002287047568336119 0.008611121876809288 -0.00028208390634611836 -0.002835287095968442 0.00032090556273216796 0.004544732009334936
 0.0003147438786074608 0.004545453595906264 -0.00028208390634611836 -0.002835287095968442 0.0022880729064035476 0.008610501547769307 0.9974379960955296 -0.021340029585841556
 -0.0002823180213373354 -0.0028353004658525287 0.00032090556273216796 0.004544732009334936 0.9974379960955296 -0.021340029585841556 0.002286917913251129 0.008610632812486876
0.043768236765320004 0.0024846113500664423 0.010109050394240177 0.9971799485846594 -0.02493646062300767 0.0003821741602542875 0.0053061108806171835 -0.0003407964433780363 -0.0033126395581197466
 0.9971799485846594 -0.02493646062300767 0.0024833715985588256 0.010109186499500308 -0.00034047914079630883 -0.003312627408434231 0.0003905616908973496 0.005305151084676279
 0.0003821741602542875 0.0053061108806171835 -0.00034047914079630883 -0.003312627408434231 0.0024847666030501877 0.010108453613909276 0.997179937867084 -0.024937045324688732
 -0.0003407964433780363 -0.0033126395581197466 0.0003905616908973496 0.005305151084676279 0.997179937867084 -0.024937045324688732 0.0024831955499563328 0.010108617097833643
0.050020842017509996 0.0026934697261973665 0.011623042976115508 0.9969052594182863 -0.028546261431698573 0.00045655924532749507 0.006067561402214447 -0.0004052286278801616 -0.0037910262181325943
 0.9969052594182863 -0.028546261431698573 0.002691851478483848 0.011623209018345518 -0.00040481581126825575 -0.0037910165903148737 0.00046751696067845764 0.006066319753591741
 0.00045655924532749507 0.006067561402214447 -0.00040481581126825575 -0.0037910165903148737 0.0026936727830575717 0.01162236066820697 0.996905245733256 -0.028546929625155888
 -0.0004052286278801616 -0.0037910262181325943 0.00046751696067845764 0.006066319753591741 0.996905245733256 -0.028546929625155888 0.002691621974626183 0.011622559761154823
0.055454545454549996 0.0028850769445844583 0.012951459888290232 0.9966528582784118 -0.03169377778676143 0.0005269072863970092 0.006729875343294874 -0.00046611680071710057 -0.0042075373911572775
 0.9966528582784118 -0.03169377778676143 0.0028830890049153946 0.012951654245904113 -0.0004656110423445656 -0.004207531104730852 0.0005403788495612664 0.00672835034364802
 0.0005269072863970092 0.006729875343294874 -0.0004656110423445656 -0.004207531104730852 0.0028853267480010592 0.012950703114653156 0.9966528417183164 -0.031694518572739555
 -0.00046611680071710057 -0.0042075373911572775 0.0005403788495612664 0.00672835034364802 0.9966528417183164 -0.031694518572739555 0.002882807315986125 0.01295093603164228
0.056273447269699996 0.0029147789496664664 0.013152675233269382 0.9966137056091516 -0.03216897973161634 0.0005379724972313101 0.006829735665093081 -0.0004756911097150165 -0.004270367670511627
 0.9966137056091516 -0.03216897973161634 0.0029127320082770365 0.013152874046557126 -0.0004751705470615013 -0.004270361985583869 0.0005518455530004456 0.0068281646964537725
 0.0005379724972313101 0.006829735665093081 -0.0004751705470615013 -0.004270361985583869 0.0029150362176325766 0.013151907226016434 0.9966136885914473 -0.03216973145972544
 -0.0004756911097150165 -0.004270367670511627 0.0005518455530004456 0.0068281646964537725 0.9966136885914473 -0.03216973145972544 0.0029124419925019365 0.013152145479748908
0.06252605252188 0.003148782577582373 0.014697668934307144 0.9963050552135818 -0.03580461964901163 0.0006264864600463535 0.007592559170026247 -0.0005522593025357329 -0.004750572007687266
 0.9963050552135818 -0.03580461964901163 0.0031462567646988507 0.014697903419449026 -0.0005516188537451525 -0.004750571806062058 0.0006436208322274462 0.007590607543248187
 0.0006264864600463535 0.007592559170026247 -0.0005516188537451525 -0.004750571806062058 0.0031491004675443706 0.014696815024326152 0.9963050344963292 -0.035805454968148895
 -0.0005522593025357329 -0.004750572007687266 0.0006436208322274462 0.007590607543248187 0.9963050344963292 -0.035805454968148895 0.0031458991876868194 0.014697096152913775
0.06877865777407 0.003395723125728085 0.016257770602597366 0.9959790757643908 -0.039453152885277336 0.0007221727760946636 0.008355953309661268 -0.0006350074811370852 -0.005231547291738832
 0.9959790757643908 -0.039453152885277336 0.0033926682727116833 0.016258043726475383 -0.0006342350963069544 -0.005231554233239116 0.0007429152527399072 0.00835356576882931
 0.0007221727760946636 0.008355953309661268 -0.0006342350963069544 -0.005231554233239116 0.0033961080508659587 0.016256830558049263 0.995979050976984 -0.03945407186157004
 -0.0006350074811370852 -0.005231547291738832 0.0007429152527399072 0.00835356576882931 0.995979050976984 -0.03945407186157004 0.0033922360907108675 0.01625715843862118
0.07503126302626001 0.0036558421582935157 0.01783274363193388 0.9956355345117993 -0.04311452654395577 0.0008251021115266568 0.009119835936269931 -0.0007240087531059967 -0.005713200986243193
 0.9956355345117993 -0.04311452654395577 0.003652208095683744 0.017833058427022146 -0.0007230924712616105 -0.005713216850103326 0.0008498002765164666 0.009116953260571468
 0.0008251021115266568 0.009119835936269931 -0.0007230924712616105 -0.005713216850103326 0.0036563005351976834 0.017831717192353123 0.9956355052802492 -0.04311552925290889
 -0.0007240087531059967 -0.005713200986243193 0.0008498002765164666 0.009116953260571468 0.9956355052802492 -0.04311552925290889 0.003651694271888909 0.017832095865957426
0.08128386827845 0.003929380329120707 0.019422363032659172 0.9952741986186979 -0.046788668329622723 0.0009353440884019847 0.009884121736686331 -0.0008193350218321323 -0.006195439583340128
 0.9952741986186979 -0.046788668329622723 0.00392511687660648 0.01942272259682193 -0.0008182629700879787 -0.006195466268199706 0.0009643462989103474 0.00988068069339066
 0.0009353440884019847 0.009884121736686331 -0.0008182629700879787 -0.006195466268199706 0.003929918578026216 0.01942124990276651 0.9952741645653072 -0.04678975486176223
 -0.0008193350218321323 -0.006195439583340128 0.0009643462989103474 0.00988068069339066 0.9952741645653072 -0.04678975486176223 0.003924514381503585 0.019421683575692895
0.08753647353064001 0.004216577390427001 0.021026411785461822 0.994894835325935 -0.05047549014173982 0.0010529672185633785 0.010648722497574363 -0.0009210569458900047 -0.00667816834306976
 0.994894835325935 -0.05047549014173982 0.004211634346784681 0.021026819282014764 -0.000919817338913532 -0.006678207866952311 0.0010866225774927624 0.010644655795152237
 0.0010529672185633785 0.010648722497574363 -0.000919817338913532 -0.006678207866952311 0.004217201935238392 0.021025211640661273 0.994894796068761 -0.050476660596540754
 -0.0009210569458900047 -0.00667816834306976 0.0010866225774927624 0.010644655795152237 0.994894796068761 -0.050476660596540754 0.00421093615845135 0.021025704685877663
0.09378907878283 0.004517672177424242 0.022644678255678237 0.9944972120956425 -0.05417489061080223 0.0011780388407995294 0.01141354729257587 -0.0010292438934216862 -0.007161291113462456
 0.9944972120956425 -0.05417489061080223 0.004511999310770088 0.022645136913671454 -0.0010278250331363591 -0.0071613456137310265 0.0012166971652813427 0.01140878353411023
 0.0011780388407995294 0.01141354729257587 -0.0010278250331363591 -0.0071613456137310265 0.004518389446148241 0.022643390739630224 0.9944971672483509 -0.05417614509841122
 -0.0010292438934216862 -0.007161291113462456 0.0012166971652813427 0.01140878353411023 0.9944971672483509 -0.05417614509841122 0.004511198415637245 0.02264394769858972
0.100041684035 0.004832902578828139 0.024276954281753596 0.9940810967437551 -0.057886756963195354 0.0013106250588767621 0.012178502622521245 -0.0011439638945200362 -0.007644710200438572
 0.9940810967437551 -0.057886756963195354 0.004826449616324529 0.02427746739663882 -0.001142354170020621 -0.007644781933745821 0.0013546368448579 0.012172966259338936
 0.0013106250588767621 0.012178502622521245 -0.001142354170020621 -0.007644781933745821 0.004833719003769305 0.024275579005025003 0.9940810459150919 -0.057888095605223476
 -0.0011439638945200362 -0.007644710200438572 0.0013546368448579 0.012172966259338936 0.9940810459150919 -0.057888095605223476 0.004825539009450865 0.02427620458974972
0.1059090909091 0.005141780102757031 0.025821230109280457 0.9936735918278188 -0.061381178177152926 0.0014419353510270977 0.012896365335609164 -0.0012576175709097968 -0.008098528775615592
 0.9936735918278188 -0.061381178177152926 0.005134549335193744 0.025821797383259786 -0.001255818258246137 -0.008098618838915777 0.0014912901363395292 0.012890031515484617
 0.0014419353510270977 0.012896365335609164 -0.001255818258246137 -0.008098618838915777 0.005142695429257273 0.02581977209489435 0.9936735350258398 -0.061382595909343335
 -0.0012576175709097968 -0.008098528775615592 0.0014912901363395292 0.012890031515484617 0.9936735350258398 -0.061382595909343335 0.005133529413161222 0.025820466517089465
0.1062942892872 0.005162505493197716 0.02592303373908261 0.9936462575594749 -0.061610966413782574 0.001450790680241338 0.012943492524035316 -0.001265283591259353 -0.008128326272094671
 0.9936462575594749 -0.061610966413782574 0.0051552221110331906 0.02592360467356679 -0.001263471478808272 -0.008128417614325338 0.0015005070645169468 0.012937103809787784
 0.001450790680241338 0.012943492524035316 -0.001263471478808272 -0.008128417614325338 0.005163427510881189 0.025921570280310627 0.9936462003529855 -0.061612389341510615
 -0.001265283591259353 -0.008128326272094671 0.0015005070645169468 0.012937103809787784 0.9936462003529855 -0.061612389341510615 0.005154194796994154 0.025922269375682587
0.11254689453939999 0.0055067167775487745 0.027582711447265804 0.9931924634208193 -0.06534738721839292 0.0015985991558670487 0.01370841865475128 -0.0013932681857700103 -0.008612038289400074
 0.9931924634208193 -0.06534738721839292 0.005498552590601167 0.027583343632545824 -0.001391242248988944 -0.008612151735575673 0.0016543718750633778 0.01370109359988711
 0.0015985991558670487 0.01370841865475128 -0.001391242248988944 -0.008612151735575673 0.005507750829099065 0.027581159350196525 0.9931923994342352 -0.06534889457497148
 -0.0013932681857700103 -0.008612038289400074 0.0016543718750633778 0.01370109359988711 0.9931923994342352 -0.06534889457497148 0.0054974015841310515 0.027581937016683905
0.11879949979160001 0.005865771188644071 0.029255782309755958 0.9927194839036466 -0.06909587949701386 0.0017541125198252744 0.014473180362421203 -0.001527981387349856 -0.009095743456082477
 0.9927194839036466 -0.06909587949701386 0.005856675740235759 0.029256479246987706 -0.0015257302774876675 -0.009095881620276167 0.0018162938671070208 0.014464830689072226
 0.0017541125198252744 0.014473180362421203 -0.0015257302774876675 -0.009095881620276167 0.005866923719519445 0.02925414108410688 0.9927194127288834 -0.06909747143603928
 -0.001527981387349856 -0.009095743456082477 0.0018162938671070208 0.014464830689072226 0.9927194127288834 -0.06909747143603928 0.0058553940666954555 0.029255002560711497
0.1250521050438 0.006239902317489129 0.030942040637458108 0.9922270893876531 -0.07285629587680345 0.001917391329595361 0.015237674743028388 -0.001669485357960132 -0.009579337182544933
 0.9922270893876531 -0.07285629587680345 0.006229825068888272 0.030942805899591183 -0.001666997814273906 -0.00957950279776251 0.0019863341091293516 0.015228207840431487
 0.001917391329595361 0.015237674743028388 -0.001666997814273906 -0.00957950279776251 0.006241179778026928 0.03094030975896197 0.9922270106100908 -0.07285797256145081
 -0.001669485357960132 -0.009579337182544933 0.0019863341091293516 0.015228207840431487 0.9922270106100908 -0.07285797256145081 0.006228405765347937 0.03094126046649551
0.131304710296 0.006629342520852819 0.03264127960778589 0.9917150511603158 -0.07662848200296045 0.0020884946059838436 0.01600179669195356 -0.0018178406572285086 -0.010062713059951439
 0.9917150511603158 -0.07662848200296045 0.0066182328408403495 0.03264211684177814 -0.0018151055074495839 -0.010062908977994384 0.002164552085398657 0.015991115572456017
 0.0020884946059838436 0.01600179669195356 -0.0018151055074495839 -0.010062908977994384 0.006630751366193568 0.03263945851530387 0.9917149643585582 -0.07663024360818722
 -0.0018178406572285086 -0.010062713059951439 0.002164552085398657 0.015991115572456017 0.9917149643585582 -0.07663024360818722 0.006616668956619131 0.03264050406006151
0.1375573155481 0.0069407257823502 0.03413004836120063 0.9912767699712756 -0.08018894354232493 0.002244237701828687 0.016742136022442972 -0.0019497814867553889 -0.010522535463484885
 0.9912767699712756 -0.08018894354232493 0.006928528051993617 0.03413093872555843 -0.0019467823126587014 -0.010522761622206058 0.002327588112264485 0.016730263691165204
 0.002244237701828687 0.016742136022442972 -0.0019467823126587014 -0.010522761622206058 0.006942271984879937 0.03412813622281633 0.9912766747801004 -0.08019079015618007
 -0.0019497814867553889 -0.010522535463484885 0.002327588112264485 0.016730263691165204 0.9912766747801004 -0.08019079015618007 0.006926813020344252 0.03412926012332636
0.1438099208003 0.007262905102303607 0.03561167068916399 0.9908233711978276 -0.08374111497838639 0.0024062691898570996 0.017480051529828268 -0.002087025744619568 -0.010980099385635437
 0.9908233711978276 -0.08374111497838639 0.0072495677792896104 0.03561261629822822 -0.0020837505556405298 -0.010980358557977658 0.00249723477197513 0.017466900018411304
 0.0024062691898570996 0.017480051529828268 -0.0020837505556405298 -0.010980358557977658 0.007264595037056938 0.03560966691154812 0.9908232671979381 -0.08374304676790019
 -0.002087025744619568 -0.010980099385635437 0.00249723477197513 0.017466900018411304 0.9908232671979381 -0.08374304676790019 0.007247694735365712 0.03561087333935331
0.1500625260525 0.007595776847350451 0.0370860441659838 0.9903549619628383 -0.0872849303426218 0.0025745391751264015 0.0182154864029237 -0.0022295240861421183 -0.011435348638604442
 0.9903549619628383 -0.0872849303426218 0.007581248265469676 0.03708704727655566 -0.0022259609130503835 -0.011435643708222408 0.0026734405756562293 0.018200964539162236
 0.0025745391751264015 0.0182154864029237 -0.0022259609130503835 -0.011435643708222408 0.007597616888391344 0.03708394812750344 0.9903548487292173 -0.0872869474847554
 -0.0022295240861421183 -0.011435348638604442 0.0026734405756562293 0.018200964539162236 0.9903548487292173 -0.0872869474847554 0.007579210360291436 0.03708524148110917
0.15631513130469998 0.007939236759239243 0.03855306956715543 0.9898716498147253 -0.09082032347096762 0.0027489972438474826 0.01894838468504203 -0.0023772266213911973 -0.011888228144429924
