! Created with skrf 1.8.0 (http://scikit-rf.org).
# GHz S RI R 50.0 
!freq ReS11 ImS11 ReS12 ImS12 ReS13 ImS13
! ReS14 ImS14
! ReS21 ImS21 ReS22 ImS22 ReS23 ImS23
! ReS24 ImS24
! ReS31 ImS31 ReS32 ImS32 ReS33 ImS33
! ReS34 ImS34
! ReS41 ImS41 ReS42 ImS42 ReS43 ImS43
! ReS44 ImS44
!
0.0 0.001571088430967 0.0 0.9984289115548 0.0 6.022255202005e-05 0.0 -6.022255193155e-05 7.375135545945796e-21
 0.9984289115548 0.0 0.001571088430916 0.0 -6.022255193098e-05 7.375135545875992e-21 6.022255202012e-05 0.0
 6.022255202005e-05 0.0 -6.022255193098e-05 7.375135545875992e-21 0.001571088438057 0.0 0.998428911562 0.0
 -6.022255193155e-05 7.375135545945796e-21 6.022255202012e-05 0.0 0.998428911562 0.0 0.001571088438032 0.0
0.005 0.0016903532139688582 0.0012930941505866532 0.9982780553789585 -0.003290506548066388 8.314781759433526e-05 0.0006159070646194533 -8.108623145678751e-05 -0.0003948929787063765
 0.9982780553789585 -0.003290506548066388 0.0016903522588294668 0.0012930946400076643 -8.10869166343408e-05 -0.00039489343154771727 8.315948612967556e-05 0.0006159027006791558
 8.314781759433526e-05 0.0006159070646194533 -8.10869166343408e-05 -0.00039489343154771727 0.0016903536104788158 0.0012931611266489855 0.9982780557391865 -0.0032904394918467066
 -8.108623145678751e-05 -0.0003948929787063765 8.315948612967556e-05 0.0006159027006791558 0.9982780557391865 -0.0032904394918467066 0.0016903525764045435 0.0012931617708811273
0.006252605252188 0.0017216546588107644 0.0016214146185471773 0.9982382167945932 -0.004113930918882584 8.968598066536661e-05 0.000770204315803848 -8.697398241139615e-05 -0.0004941145967842668
 0.9982382167945932 -0.004113930918882584 0.0017216531662035248 0.0016214152132985832 -8.697504919452648e-05 -0.0004941151535105118 8.970421253889312e-05 0.0007701986359104514
 8.968598066536661e-05 0.000770204315803848 -8.697504919452648e-05 -0.0004941151535105118 0.0017216552050442003 0.0016214983212241559 0.9982382172836982 -0.004113847106410546
 -8.697398241139615e-05 -0.0004941145967842668 8.970421253889312e-05 0.0007701986359104514 0.9982382172836982 -0.004113847106410546 0.0017216535880196797 0.0016214991232199544
0.01250521050438 0.0018865594099095472 0.003276469511070405 0.9980269755506588 -0.008228596648801795 0.0001271215303280079 0.001540912547446808 -0.00012036484055434877 -0.0009905663127947068
 0.9980269755506588 -0.008228596648801795 0.0018865534584731898 0.003276470521781707 -0.00012036905175911845 -0.0009905673228738318 0.00012719426449546512 0.0015408987665212804
 0.0001271215303280079 0.001540912547446808 -0.00012036905175911845 -0.0009905673228738318 0.0018865610366450886 0.0032766365854134086 0.9980269769439182 -0.00822842923877104
 -0.00012036484055434877 -0.0009905663127947068 0.00012719426449546512 0.0015408987665212804 0.9980269769439182 -0.00822842923877104 0.0018865545719135843 0.0032766381517983422
0.01875781575657 0.002066167198510599 0.004954830540194777 0.9977949218017774 -0.012353997371961654 0.00017261837119589125 0.0023125839033801047 -0.00016049750392141965 -0.0014887030431806406
 0.9977949218017774 -0.012353997371961654 0.002066153843899872 0.0049548317687474865 -0.00016050690496984284 -0.0014887043801979504 0.00017278183267477044 0.002312559134435089
 0.00017261837119589125 0.0023125839033801047 -0.00016050690496984284 -0.0014887043801979504 0.0020661704418122703 0.004955080726863973 0.9977949245104839 -0.012353746455753205
 -0.00016049750392141965 -0.0014887030431806406 0.00017278183267477044 0.002312559134435089 0.9977949245104839 -0.012353746455753205 0.0020661559007040657 0.004955083012948452
0.02501042100875 0.0022608315229045405 0.006654160398823772 0.9975417788228381 -0.01649212533903059 0.00022626639018246376 0.0030852346375085603 -0.00020747124685607747 -0.0019883099150129198
 0.9975417788228381 -0.01649212533903059 0.0022608078369873636 0.006654161625052197 -0.00020748786191900024 -0.0019883114276273432 0.00022655686551617874 0.003085195538383755
 0.00022626639018246376 0.0030852346375085603 -0.00020748786191900024 -0.0019883114276273432 0.0022608369251734843 0.0066544934563063235 0.9975417832615117 -0.016491790937740027
 -0.00020747124685607747 -0.0019883099150129198 0.00022655686551617874 0.003085195538383755 0.9975417832615117 -0.016491790937740027 0.0022608110769279212 0.006654496408402278
0.03126302626094 0.0024708913240893615 0.008373253446084871 0.9972672559118556 -0.02064383000055876 0.0002881556460352993 0.0038588157434936723 -0.0002613826658596074 -0.0024892316187563857
 0.9972672559118556 -0.02064383000055876 0.0024708543916196796 0.008373254426836715 -0.00026140850141810157 -0.002489233130415217 0.00028860951891592857 0.00385875851225357
 0.0002881556460352993 0.0038588157434936723 -0.00026140850141810157 -0.002489233130415217 0.0024708994317372635 0.00837366911233041 0.9972672624970731 -0.020643412102940236
 -0.0002613826658596074 -0.0024892316187563857 0.00028860951891592857 0.00385875851225357 0.9972672624970731 -0.020643412102940236 0.002470859041205322 0.00837367266713681
0.037515631513130004 0.002696678219608271 0.010111321445324124 0.9969710558617952 -0.024809532204587374 0.00035837560888816365 0.004633252183302951 -0.0003223262930216047 -0.0029913331859259228
 0.9969710558617952 -0.024809532204587374 0.0026966251361368585 0.010111321913624698 -0.0003223633396997715 -0.0029913344947343277 0.00035902937818152366 0.004633172551969811
 0.00035837560888816365 0.004633252183302951 -0.0003223633396997715 -0.0029913344947343277 0.0026966895831567364 0.010111819414586512 0.9969710650137986 -0.024809030789865738
 -0.0003223262930216047 -0.0029913331859259228 0.00035902937818152366 0.004633172551969811 0.9969710650137986 -0.024809030789865738 0.0026966314086249083 0.010111823498715459
0.043768236765320004 0.002938519291254746 0.011867776153585984 0.9966528779866092 -0.028989441533310543 0.0004370147908927622 0.005408454820852364 -0.0003903948112863533 -0.0034944880596123476
 0.9966528779866092 -0.028989441533310543 0.002938447160461412 0.011867775817987975 -0.0003904450447530347 -0.0034944889382388915 0.0004379050816372971 0.005408348048542783
 0.0004370147908927622 0.005408454820852364 -0.0003904450447530347 -0.0034944889382388915 0.002938534461571042 0.011868356097343071 0.996652890126977 -0.028988856549699536
 -0.0003903948112863533 -0.0034944880596123476 0.0004379050816372971 0.005408348048542783 0.996652890126977 -0.028988856549699536 0.0029384552533930014 0.011868360627013864
0.050020842017509996 0.003196738375473808 0.013642139521513505 0.996312419653648 -0.033183646027128165 0.0005241605181667544 0.0061843253474322835 -0.0004656791248356237 -0.0039985731747250695
 0.996312419653648 -0.033183646027128165 0.003196644307252308 0.0136421380655588 -0.00046574450639750236 -0.003998573370337284 0.0005253240883568767 0.006184186213200866
 0.0005241605181667544 0.0061843253474322835 -0.00046574450639750236 -0.003998573370337284 0.0031967579054340304 0.013642801074822646 0.9963124352086331 -0.03318297740529601
 -0.0004656791248356237 -0.0039985731747250695 0.0005253240883568767 0.006184186213200866 0.9963124352086331 -0.03318297740529601 0.003196654404475385 0.013642805955558253
0.055454545454549996 0.0034346890964571785 0.015198337942790822 0.9959982207605108 -0.03684015589057486 0.0006068679584156889 0.006859041299667678 -0.0005370328516650037 -0.004437299143273509
 0.9959982207605108 -0.03684015589057486 0.0034345736198942095 0.015198335236352799 -0.0005371129793056719 -0.004437298520141089 0.0006082989752759701 0.006858869423568272
 0.0006068679584156889 0.006859041299667678 -0.0005371129793056719 -0.004437298520141089 0.0034347128645944983 0.015199070091730797 0.9959982396327145 -0.036839414515185374
 -0.0005370328516650037 -0.004437299143273509 0.0006082989752759701 0.006858869423568272 0.9959982396327145 -0.036839414515185374 0.0034345855967968675 0.015199075192355185
0.056273447269699996 0.0034716567291349473 0.015433999572589209 0.9959493771947998 -0.0373921562310396 0.0006198987643505336 0.006960758702541657 -0.0005482683650507677 -0.004503466545736358
 0.9959493771947998 -0.0373921562310396 0.003471537837234401 0.015433996654256547 -0.0005483508419979398 -0.004503465779938796 0.0006213725092954379 0.006960581498069672
 0.0006198987643505336 0.006960758702541657 -0.0005483508419979398 -0.004503465779938796 0.0034716811722665143 0.015434742331580239 0.9959493965953006 -0.03739140388614313
 -0.0005482683650507677 -0.004503466545736358 0.0006213725092954379 0.006960581498069672 0.9959493965953006 -0.03739140388614313 0.0034715501078761766 0.015434747457995418
0.06252605252188 0.0037635933802221415 0.017242986175227484 0.9955634465070604 -0.04161492935082855 0.0007243140148926245 0.007737644406260497 -0.0006382498633107096 -0.005009045946585785
 0.9955634465070604 -0.04161492935082855 0.0037634467803351985 0.017242981426466332 -0.0006383513690687056 -0.0050090439153635 0.0007261349702324026 0.007737422928338094
 0.0007243140148926245 0.007737644406260497 -0.0006383513690687056 -0.0050090439153635 0.0037636232896688412 0.01724380970085101 0.9955634701889947 -0.041614093178538196
 -0.0006382498633107096 -0.005009045946585785 0.0007261349702324026 0.007737422928338094 0.9955634701889947 -0.041614093178538196 0.0037634613784807516 0.01724381495645788
0.06877865777407 0.004072865311242567 0.019068756582119765 0.9951543234897668 -0.04585188364605535 0.0008374891481580227 0.008514867355877111 -0.0007357091050638921 -0.0055151881303589405
 0.9951543234897668 -0.04585188364605535 0.0040726881187039135 0.01906874960845214 -0.0007358315592698821 -0.005515184504036575 0.0008396944916814496 0.008514594898805154
 0.0008374891481580227 0.008514867355877111 -0.0007358315592698821 -0.005515184504036575 0.00407290123872616 0.019069660395904495 0.9951543518947628 -0.04585096352646906
 -0.0007357091050638921 -0.0055151881303589405 0.0008396944916814496 0.008514594898805154 0.9951543518947628 -0.04585096352646906 0.004072705182721064 0.019069665652942398
0.07503126302626001 0.004399787541038672 0.02091098627480754 0.9947217043836841 -0.05010290752225221 0.0009595053265235573 0.009292308338833724 -0.000840729671946292 -0.0060217683370633575
 0.9947217043836841 -0.05010290752225221 0.004399576868718954 0.020910976654917635 -0.0008408749804233917 -0.006021762760258437 0.0009621323794290052 0.009291977686741528
 0.0009595053265235573 0.009292308338833724 -0.0008408749804233917 -0.006021762760258437 0.004399830036202994 0.02091196986082638 0.9947217379596945 -0.050101903317708085
 -0.000840729671946292 -0.0060217683370633575 0.0009621323794290052 0.009291977686741528 0.9947217379596945 -0.050101903317708085 0.0043995965212475525 0.02091197498015579
0.08128386827845 0.004744673144500099 0.02276936285931279 0.9942652860526395 -0.05436786557718737 0.0010904418942314083 0.010069844373975553 -0.0009533931757593058 -0.0065286599777649
 0.9942652860526395 -0.05436786557718737 0.00474442610051022 0.02276935014477403 -0.0009535632304304674 -0.0065286520693605965 0.0010935281214301058 0.010069447793006128
 0.0010904418942314083 0.010069844373975553 -0.0009535632304304674 -0.0065286520693605965 0.004744722753942819 0.02277042566426778 0.9942653252551019 -0.054366777131945404
 -0.0009533931757593058 -0.0065286599777649 0.0010935281214301058 0.010069447793006128 0.9942653252551019 -0.054366777131945404 0.004744448448044913 0.022770430495286043
0.08753647353064001 0.005107833230435583 0.024643581857522547 0.9937847662272741 -0.058646602756712206 0.0012303762781182997 0.010847348957995369 -0.0010737791877216416 -0.007035734418300554
 0.9937847662272741 -0.058646602756712206 0.00510754691607082 0.02464356557239752 -0.001073975866518831 -0.007035723771401165 0.0012339592883740186 0.010846878188501784
 0.0012303762781182997 0.010847348957995369 -0.001073975866518831 -0.007035723771401165 0.005107890496259545 0.024644723287447913 0.9937848115184722 -0.05864542990010369
 -0.0010737791877216416 -0.007035734418300554 0.0012339592883740186 0.010846878188501784 0.9937848115184722 -0.05864542990010369 0.005107572047756236 0.024644727668038685
0.09378907878283 0.005489576889270792 0.026533343693734942 0.9932798437215066 -0.06293894732115103 0.0013793838921157058 0.011624692244650446 -0.0012019651629635076 -0.007542860835257591
 0.9932798437215066 -0.06293894732115103 0.0054892483965616225 0.026533323334492643 -0.0012021903296354792 -0.007542847017182146 0.0013835014375232573 0.011624138493206084
 0.0013793838921157058 0.011624692244650446 -0.0012021903296354792 -0.007542847017182146 0.005489642348613272 0.026534563115624275 0.9932798955723809 -0.06293768986580255
 -0.0012019651629635076 -0.007542860835257591 0.0013835014375232573 0.011624138493206084 0.9932798955723809 -0.06293768986580255 0.005489276384569504 0.02653456687218103
0.100041684035 0.005890211120527245 0.02843835149130894 0.9927502186331417 -0.06724471300757161 0.0015375380423888058 0.012401741184806745 -0.0013380263628750162 -0.008049906116275998
 0.9927502186331417 -0.06724471300757161 0.005889837530094994 0.02843832652651258 -0.0013382818668228233 -0.008049888668528413 0.0015422280177859176 0.012401095116237734
 0.0015375380423888058 0.012401741184806745 -0.0013382818668228233 -0.008049888668528413 0.005890285304572025 0.028439648230030024 0.9927502775237173 -0.06724337075239488
 -0.0013380263628750162 -0.008049906116275998 0.0015422280177859176 0.012401095116237734 0.9927502775237173 -0.06724337075239488 0.0058898684289387165 0.028439651177440663
0.1059090909091 0.006283616184097934 0.030239601755332482 0.9922304890775517 -0.07129724653669348 0.0016943309814463742 0.013130530262402544 -0.0014729328450519105 -0.008525519899186306
 0.9922304890775517 -0.07129724653669348 0.00628319760671048 0.030239571960442458 -0.0014732184863271653 -0.008525498605379107 0.0016995927128038335 0.013129788584117598
 0.0016943309814463742 0.013130530262402544 -0.0014732184863271653 -0.008525498605379107 0.0062836990319746905 0.030240970402257834 0.9922305550191065 -0.07129582450460673
 -0.0014729328450519105 -0.008525519899186306 0.0016995927128038335 0.013129788584117598 0.9922305550191065 -0.07129582450460673 0.006283231270467938 0.030240972411856828
0.1062942892872 0.006310040745631826 0.03035830941283009 0.9921955925332844 -0.07156370065478958 0.001704909834437576 0.013178359638597573 -0.0014820357747614603 -0.008556734793421407
 0.9921955925332844 -0.07156370065478958 0.006309619124153508 0.030358279283066097 -0.001482323450786529 -0.008556713231686493 0.0017102102763045034 0.01317761136794133
 0.001704909834437576 0.013178359638597573 -0.001482323450786529 -0.008556713231686493 0.006310124178217446 0.03035968275886181 0.9921956589530107 -0.07156227337719823
 -0.0014820357747614603 -0.008556734793421407 0.0017102102763045034 0.01317761136794133 0.9921956589530107 -0.07156227337719823 0.0063096529701634 0.030359684700622187
0.11254689453939999 0.006749368307268506 0.03229292139972464 0.9916156686450923 -0.07589569943532694 0.0018815680806598103 0.01395440846871393 -0.001634064030004065 -0.009063209000963586
 0.9916156686450923 -0.07589569943532694 0.006748895705216624 0.03229288551749181 -0.001634385698138886 -0.009063182815096025 0.0018875171657680473 0.013953547553080795
 0.0018815680806598103 0.01395440846871393 -0.001634385698138886 -0.009063182815096025 0.006749461504361685 0.032294370599259214 0.9916157430938116 -0.07589418690110533
 -0.001634064030004065 -0.009063209000963586 0.0018875171657680473 0.013953547553080795 0.9916157430938116 -0.07589418690110533 0.006748932515921688 0.03229437132760762
0.11879949979160001 0.0072084939605024925 0.03424189018521966 0.9910101520184409 -0.08024048782073519 0.0020675792084853153 0.014729745622134813 -0.0017941793209230571 -0.009569188450106488
 0.9910101520184409 -0.08024048782073519 0.007207967409874014 0.03424184793490904 -0.001794536786107008 -0.009569157104146781 0.0020742152526282568 0.014728761052533651
 0.0020675792084853153 0.014729745622134813 -0.001794536786107008 -0.009569157104146781 0.0072085974286064764 0.03424341444611929 0.9910102350067165 -0.08023888977812259
 -0.0017941793209230571 -0.009569188450106488 0.0020742152526282568 0.014728761052533651 0.9910102350067165 -0.08023888977812259 0.007208007183714356 0.034243413742139565
0.1250521050438 0.007687715356263719 0.0362049165234012 0.9903787496982567 -0.08459783433754063 0.002263007169479158 0.015504226202443254 -0.0019624473164270473 -0.010074530418818067
 0.9903787496982567 -0.08459783433754063 0.007687131867654313 0.03620486726137035 -0.0019628423682687387 -0.01007449335099416 0.0022703686255083465 0.015503106395599603
 0.002263007169479158 0.015504226202443254 -0.0019628423682687387 -0.01007449335099416 0.007687829591786393 0.03620651501370271 0.9903788417485961 -0.084596150518848
 -0.0019624473164270473 -0.010074530418818067 0.0022703686255083465 0.015503106395599603 0.9903788417485961 -0.084596150518848 0.007687174583467572 0.03620651264759881
0.131304710296 0.008187327518656277 0.03818169856850275 0.9897211708922813 -0.08896749818025448 0.002467913348365305 0.016277702536499322 -0.002138931077094046 -0.010579089752990158
 0.9897211708922813 -0.08896749818025448 0.008186684079254197 0.038181641623099026 -0.002139365489644346 -0.010579046375733715 0.0024760388042253216 0.01627643532658241
 0.002467913348365305 0.016277702536499322 -0.002139365489644346 -0.010579046375733715 0.00818745300663664 0.038183370416761446 0.9897212725390948 -0.08896572830158309
 -0.002138931077094046 -0.010579089752990158 0.0024760388042253216 0.01627643532658241 0.9897212725390948 -0.08896572830158309 0.008186729695378247 0.03818336614814546
0.1375573155481 0.008593895522954255 0.039916480848293835 0.9891509016047155 -0.09309365716761552 0.0026564693086365285 0.017025173992681136 -0.0022977956756847395 -0.011057889623485107
 0.9891509016047155 -0.09309365716761552 0.008593187381698968 0.03991641717732123 -0.002298271866732056 -0.01105783986398872 0.002665375608125961 0.017023760952482175
 0.0026564693086365285 0.017025173992681136 -0.002298271866732056 -0.01105783986398872 0.008594031856093835 0.039918225781982515 0.9891510132919406 -0.09309180107181263
 -0.0022977956756847395 -0.011057889623485107 0.002665375608125961 0.017023760952482175 0.9891510132919406 -0.09309180107181263 0.008593236907829139 0.03991821999861208
0.1438099208003 0.009014827763520828 0.0416420547656519 0.9885605000066165 -0.09720924032583435 0.0028526164331053048 0.017769472864614763 -0.0024629910749988126 -0.01153374944168815
 0.9885605000066165 -0.09720924032583435 0.009014051570299489 0.04164198388506566 -0.002463510912331168 -0.011533692725894138 0.002862338428977164 0.017767902851559048
 0.0028526164331053048 0.017769472864614763 -0.002463510912331168 -0.011533692725894138 0.009014975249684209 0.041643871935152274 0.9885606222678639 -0.09720729773885468
 -0.0024629910749988126 -0.01153374944168815 0.002862338428977164 0.017767902851559048 0.9885606222678639 -0.09720729773885468 0.00901410512666691 0.04164386448424002
0.1500625260525 0.009449974920976777 0.04335827271030454 0.9879501195745326 -0.10131414145164067 0.003056285048455327 0.018510519366612427 -0.0026344491958214043 -0.01200659330511448
 0.9879501195745326 -0.10131414145164067 0.009449127284735187 0.043358194125929866 -0.0026350145401096924 -0.012006529036270398 0.0030668574729720353 0.01850878081238757
 0.003056285048455327 0.018510519366612427 -0.0026350145401096924 -0.012006529036270398 0.009450133846362275 0.04336016123702086 0.9879502529535368 -0.10131211208679938
 -0.0026344491958214043 -0.01200659330511448 0.0030668574729720353 0.01850878081238757 0.9879502529535368 -0.10131211208679938 0.00944918498440402 0.043360151965134756
0.15631513130469998 0.0098991866077215 0.04506499149941216 0.9873199145732364 -0.10540825479511082 0.003267404646518719 0.01924823511828838 -0.002812101113127805 -0.012476346933677643
