! Created with skrf 1.8.0 (http://scikit-rf.org).
# GHz S RI R 50.0 
!freq ReS11 ImS11 ReS12 ImS12 ReS13 ImS13
! ReS14 ImS14
! ReS21 ImS21 ReS22 ImS22 ReS23 ImS23
! ReS24 ImS24
! ReS31 ImS31 ReS32 ImS32 ReS33 ImS33
! ReS34 ImS34
! ReS41 ImS41 ReS42 ImS42 ReS43 ImS43
! ReS44 ImS44
!
0.0 0.001433082289736 0.0 0.9985669177056 0.0 5.527888523892e-05 0.0 -5.527888463476e-05 6.769710912839464e-21
 0.9985669177056 0.0 0.001433082289764 0.0 -5.527888463379e-05 6.7697109127206725e-21 5.527888523972e-05 0.0
 5.527888523892e-05 0.0 -5.527888463379e-05 6.7697109127206725e-21 0.00143308228128 0.0 0.9985669176972 0.0
 -5.527888463476e-05 6.769710912839464e-21 5.527888523972e-05 0.0 0.9985669176972 0.0 0.001433082281354 0.0
0.005 0.0015416259846282058 0.0011690857661605311 0.998429642017388 -0.0030025139222307415 7.77630943756898e-05 0.0006301098175831204 -7.546366794559725e-05 -0.00039188641058038353
 0.998429642017388 -0.0030025139222307415 0.001541618380970101 0.0011690902847065782 -7.546019619362572e-05 -0.0003918838612030015 7.780419236935097e-05 0.0006300939554251968
 7.77630943756898e-05 0.0006301098175831204 -7.546019619362572e-05 -0.0003918838612030015 0.0015416275252388128 0.0011691521980519304 0.9984296423669666 -0.0030024468572766036
 -7.546366794559725e-05 -0.00039188641058038353 7.780419236935097e-05 0.0006300939554251968 0.9984296423669666 -0.0030024468572766036 0.0015416175362049365 0.0011691579801208203
0.006252605252188 0.0015700079597841716 0.0014659846255796441 0.9983935357979595 -0.0037538920228527197 8.412720778100229e-05 0.0007879391195205339 -8.112439666320416e-05 -0.0004903747149903391
 0.9983935357979595 -0.0037538920228527197 0.0015699960739656192 0.0014659904457494236 -8.111899336212004e-05 -0.0004903715736125492 8.41914172948948e-05 0.0007879185651765974
 8.412720778100229e-05 0.0007879391195205339 -8.111899336212004e-05 -0.0004903715736125492 0.0015700102896589443 0.001466067661976949 0.9983935362665176 -0.0037538082020624314
 -8.112439666320416e-05 -0.0004903747149903391 8.41914172948948e-05 0.0007879185651765974 0.9983935362665176 -0.0037538082020624314 0.001569994675960576 0.0014660750449839402
0.01250521050438 0.0017189174102799102 0.002962937091777978 0.9982029206104368 -0.007508694072501169 0.00012031018920739594 0.0015762158883211679 -0.00011303763898243224 -0.0009832037119913806
 0.9982029206104368 -0.007508694072501169 0.001718869945152989 0.002962950468850217 -0.00011301633274273386 -0.0009831979251575332 0.00012056616919600463 0.001576166950266983
 0.00012031018920739594 0.0015762158883211679 -0.00011301633274273386 -0.0009831979251575332 0.0017189261506531856 0.0029631029730916893 0.9982029219296129 -0.007508526676481588
 -0.00011303763898243224 -0.0009832037119913806 0.00012056616919600463 0.001576166950266983 0.9982029219296129 -0.007508526676481588 0.0017188638190187857 0.0029631193226430682
0.01875781575657 0.0018801181923096206 0.004481434102829245 0.9979948477396781 -0.011273567087722721 0.00016390930119744581 0.0023653949683705012 -0.00015111346232773347 -0.0014777604101528382
 0.9979948477396781 -0.011273567087722721 0.0018800115245588185 0.0044814568743769285 -0.0001510659308056538 -0.0014777525672091498 0.00016448416427333157 0.0023653083223646484
 0.00016390930119744581 0.0023653949683705012 -0.0001510659308056538 -0.0014777525672091498 0.0018801373885921392 0.004481682753734265 0.9979948502832842 -0.01127331620232181
 -0.00015111346232773347 -0.0014777604101528382 0.00016448416427333157 0.0023653083223646484 0.9979948502832842 -0.01127331620232181 0.0018799973540968844 0.0044817097958742376
0.02501042100875 0.0020539097275415405 0.006019361565988195 0.997769084422998 -0.015050354168899107 0.00021500695424144032 0.0031555283250113155 -0.00019544388677843357 -0.00197382606635179
 0.997769084422998 -0.015050354168899107 0.0020537202796990536 0.006019395667491443 -0.00019535992454574943 -0.0019738168602538735 0.0002160277681066242 0.0031553932204062673
 0.00021500695424144032 0.0031555283250113155 -0.00019535992454574943 -0.0019738168602538735 0.0020539434063485094 0.00601969291113059 0.9977690885667794 -0.015050019838626283
 -0.00019544388677843357 -0.00197382606635179 0.0002160277681066242 0.0031553932204062673 0.9977690885667794 -0.015050019838626283 0.0020536947656921278 0.006019732506791223
0.03126302626094 0.0022405789896260166 0.007575640414080443 0.9975253854126321 -0.018839854721397695 0.0002736861035181408 0.00394659312440283 -0.000246118490978527 -0.0024712519278488887
 0.9975253854126321 -0.018839854721397695 0.0022402832200779633 0.007575687878847118 -0.00024598798928484575 -0.0024712421565508966 0.000275280017820618 0.003946397379380986
 0.0002736861035181408 0.00394659312440283 -0.00024598798928484575 -0.0024712421565508966 0.0022406311608221805 0.00757605435770665 0.9975253915347312 -0.018839436969909182
 -0.000246118490978527 -0.0024712519278488887 0.000275280017820618 0.003946397379380986 0.9975253915347312 -0.018839436969909182 0.002240243077934842 0.007576108502098305
0.037515631513130004 0.002440406858851909 0.009149573795119713 0.9972634995060167 -0.02264247720803639 0.00034002947580859727 0.004738537227040913 -0.0003032250927750776 -0.0029699137400285257
 0.9972634995060167 -0.02264247720803639 0.002439981256012812 0.009149636754361014 -0.00030303802937073484 -0.0029699043069960867 0.0003423237811024997 0.004738267216280349
 0.00034002947580859727 0.004738537227040913 -0.00030303802937073484 -0.0029699043069960867 0.002440481513656814 0.009150070213622097 0.9972635079840475 -0.02264197604527889
 -0.0003032250927750776 -0.0029699137400285257 0.0003423237811024997 0.004738267216280349 0.9972635079840475 -0.02264197604527889 0.0024399232106554138 0.009150141036482687
0.043768236765320004 0.002653670583312751 0.010740648425705311 0.9969831721805902 -0.026458437730002903 0.00041411921253794494 0.0055312930231834175 -0.00036684999625687765 -0.0034696979073977658
 0.9969831721805902 -0.026458437730002903 0.002653091660746751 0.010740729108678525 -0.00036659642930989797 -0.003469689821869403 0.000417241369808071 0.005530933663180721
 0.00041411921253794494 0.0055312930231834175 -0.00036659642930989797 -0.003469689821869403 0.002653771696391967 0.010741227167453593 0.9969831833936238 -0.026457853152169593
 -0.00036684999625687765 -0.0034696979073977658 0.000417241369808071 0.005530933663180721 0.9969831833936238 -0.026457853152169593 0.002653012447273226 0.010741316933450925
0.050020842017509996 0.0028806449274377164 0.012348452479697666 0.9966841469194752 -0.030287842070601322 0.0004960366559557288 0.006324783149150321 -0.000437078087783999 -0.003970495773778698
 0.9966841469194752 -0.030287842070601322 0.0028798892203725415 0.012348553213910296 -0.00043674815207025937 -0.003970490150945323 0.0005001143111204213 0.006324317882501291
 0.0004960366559557288 0.006324783149150321 -0.00043674815207025937 -0.003970490150945323 0.002880776457050042 0.012349113363301197 0.9966841612476627 -0.030287174061455487
 -0.000437078087783999 -0.003970495773778698 0.0005001143111204213 0.006324317882501291 0.9966841612476627 -0.030287174061455487 0.0028797855827554083 0.012349224472585065
0.055454545454549996 0.003089239179795118 0.013758995830440025 0.9964088997445333 -0.03362665753278808 0.0005736449151139572 0.007014881132821165 -0.0005035359057908182 -0.004406444794990522
 0.9964088997445333 -0.03362665753278808 0.003088310799667519 0.013759115956498503 -0.0005031316491689986 -0.004406442300362976 0.000578656738420166 0.007014309226617964
 0.0005736449151139572 0.007014881132821165 -0.0005031316491689986 -0.004406442300362976 0.00308940034534845 0.013759727925398067 0.9964089170908601 -0.03362591699813873
 -0.0005035359057908182 -0.004406444794990522 0.000578656738420166 0.007014309226617964 0.9964089170908601 -0.03362591699813873 0.003088183299414845 0.013759859637652737
0.056273447269699996 0.003121602765614505 0.013972635296871556 0.9963661659837982 -0.034130725919475746 0.0005858621997974598 0.00711892328362093 -0.000513992863605403 -0.004472200824070681
 0.9963661659837982 -0.034130725919475746 0.0031206468275329236 0.013972758508349975 -0.0005135767680290564 -0.004472198885194082 0.0005910231886449641 0.007118334062898814
 0.0005858621997974598 0.00711892328362093 -0.0005135767680290564 -0.004472198885194082 0.0031217686551322913 0.013973378107928466 0.9963661838102051 -0.03412997445320661
 -0.000513992863605403 -0.004472200824070681 0.0005910231886449641 0.007118334062898814 0.9963661838102051 -0.03412997445320661 0.003120515518767085 0.013973513096888424
0.06252605252188 0.0033768154077309584 0.015612885225366817 0.9960289709210448 -0.03798707696467411 0.0006836751712191432 0.007913623691064643 -0.0005976764230311743 -0.004974707141260527
 0.9960289709210448 -0.03798707696467411 0.0033756358072674422 0.015613033438978465 -0.0005971644489625272 -0.004974710213766786 0.0006900475183924591 0.007912890962455116
 0.0006836751712191432 0.007913623691064643 -0.0005971644489625272 -0.004974710213766786 0.0033770195841973994 0.015613709718463573 0.9960289926300183 -0.037986242003552655
 -0.0005976764230311743 -0.004974707141260527 0.0006900475183924591 0.007912890962455116 0.9960289926300183 -0.037986242003552655 0.0033754735870447313 0.01561387126057854
0.06877865777407 0.003646552772487744 0.01726891641683257 0.9956723029229619 -0.04185684803456701 0.0007895537300754642 0.008708790138387358 -0.0006882094419654428 -0.005477908492954819
 0.9956723029229619 -0.04185684803456701 0.0036451260907065606 0.01726909225671071 -0.0006875919421105818 -0.005477918010516003 0.0007972656437704515 0.008707892825272942
 0.0007895537300754642 0.008708790138387358 -0.0006875919421105818 -0.005477918010516003 0.0036467991482644164 0.017269822308929966 0.9956723289023839 -0.04185592953515855
 -0.0006882094419654428 -0.005477908492954819 0.0007972656437704515 0.008707892825272942 0.9956723289023839 -0.04185592953515855 0.003644929726575974 0.017270013215611876
0.07503126302626001 0.003931083478723993 0.018940460440813645 0.995295903105962 -0.045739965423383044 0.0009035747789042399 0.009504324478431926 -0.0007856711336674387 -0.00598169775411689
 0.995295903105962 -0.045739965423383044 0.003929386306147767 0.01894066663079157 -0.0007849385314566535 -0.005981715256702467 0.0009127546423803913 0.009503239964979957
 0.0009035747789042399 0.009504324478431926 -0.0007849385314566535 -0.005981715256702467 0.003931375950368389 0.018941447417412893 0.9952959337458629 -0.04573896332992638
 -0.0007856711336674387 -0.00598169775411689 0.0009127546423803913 0.009503239964979957 0.9952959337458629 -0.04573896332992638 0.0039291525712044 0.018941670639152145
0.08128386827845 0.004230674878340496 0.020627260719901147 0.9948995127349919 -0.04963633439922358 0.0010258138784923652 0.010300125039062483 -0.0008901392022714378 -0.006485966527439554
 0.9948995127349919 -0.04963633439922358 0.004228683812429657 0.020627500084165 -0.0008892819914536349 -0.006485993661370712 0.001036590239107066 0.010298829153893786
 0.0010258138784923652 0.010300125039062483 -0.0008892819914536349 -0.006485993661370712 0.004231017327237181 0.02062832842957715 0.9948995484290095 -0.049635248648788086
 -0.0008901392022714378 -0.006485966527439554 0.001036590239107066 0.010298829153893786 0.9948995484290095 -0.049635248648788086 0.004228409485713604 0.020628587056960992
0.08753647353064001 0.0045455930546764774 0.022329068674265096 0.9944828734167196 -0.0535458430061782 0.001156345167908544 0.011096086896914235 -0.0010016897901538664 -0.006990604882460478
 0.9944828734167196 -0.0535458430061782 0.004543284696901126 0.022329344137981894 -0.001000698534709373 -0.006990643400426427 0.001168846724157455 0.0110945538969251
 0.001156345167908544 0.011096086896914235 -0.001000698534709373 -0.006990643400426427 0.004545989346879241 0.022330216729614986 0.9944829145617038 -0.05354467352729018
 -0.0010016897901538664 -0.006990604882460478 0.001168846724157455 0.0110945538969251 0.9944829145617038 -0.05354467352729018 0.004542966562339679 0.02233051399468811
0.09378907878283 0.0048761027958379695 0.02404564096594211 0.9940457272700749 -0.057468364770656255 0.001295241286896182 0.011892102073867214 -0.0011203974215034567 -0.0074955011754969745
 0.9940457272700749 -0.057468364770656255 0.004873453749361654 0.02404595555595846 -0.0011192627556958915 -0.007495552936567698 0.0013095968739410102 0.011890304628151589
 0.001295241286896182 0.011892102073867214 -0.0011192627556958915 -0.007495552936567698 0.004876556781672501 0.024046868943505134 0.9940457742666623 -0.05746711148294759
 -0.0011203974215034567 -0.0074955011754969745 0.0013095968739410102 0.011890304628151589 0.9940457742666623 -0.05746711148294759 0.004873088594950484 0.024047208221063213
0.100041684035 0.005222467549091151 0.025776737474797622 0.9935878170809843 -0.06140376067978365 0.0014425733001270245 0.012688059684680562 -0.001246334942834098 -0.008000541922098328
 0.9935878170809843 -0.06140376067978365 0.005219454415695308 0.025777094320582627 -0.0012450475714045985 -0.008000608891725937 0.0014589118737962528 0.012685968858675059
 0.0014425733001270245 0.012688059684680562 -0.0012450475714045985 -0.008000608891725937 0.0052229830634495985 0.02577804491534693 0.9935878703340926 -0.061402423493437296
 -0.001246334942834098 -0.008000541922098328 0.0014589118737962528 0.012685968858675059 0.9935878703340926 -0.061402423493437296 0.00521903903345665 0.02577842972439888
0.1059090909091 0.005562147542149683 0.02741418516750426 0.9931390038571616 -0.06510828767857221 0.0015885629765971163 0.013434827902003227 -0.0013711528195216496 -0.008474497686689062
 0.9931390038571616 -0.06510828767857221 0.005558771468335506 0.027414584604240785 -0.0013697137592518617 -0.008474580810226577 0.001606879749213176 0.01343243401179489
 0.0015885629765971163 0.013434827902003227 -0.0013697137592518617 -0.008474580810226577 0.0055627242686643605 0.0274155667229868 0.9931390633536364 -0.06510687167487218
 -0.0013711528195216496 -0.008474497686689062 0.001606879749213176 0.01343243401179489 0.9931390633536364 -0.06510687167487218 0.005558306037946861 0.027415997588926523
0.1062942892872 0.005584949362841885 0.02752211979026235 0.9931088864477382 -0.0653518806482705 0.0015984106222660017 0.01348384605535882 -0.0013795734613420165 -0.008505611702456912
 0.9931088864477382 -0.0653518806482705 0.005581548740814481 0.02752252212477294 -0.0013781241598891628 -0.00850569595244346 0.001616861241915886 0.013481431295210648
 0.0015984106222660017 0.01348384605535882 -0.0013781241598891628 -0.00850569595244346 0.0055855302251283205 0.02752350619519397 0.9931089463665276 -0.06535045946714782
 -0.0013795734613420165 -0.008505611702456912 0.001616861241915886 0.013481431295210648 0.9931089463665276 -0.06535045946714782 0.0055810799259566075 0.02752394020060579
0.11254689453939999 0.005963808818514991 0.029281550036464658 0.9926086799181764 -0.06931256465616512 0.0017628209441133184 0.014279344813868595 -0.0015201822812627688 -0.00901059309845363
 0.9926086799181764 -0.06931256465616512 0.005959997299504364 0.029282001197285516 -0.0015185618966374128 -0.009010696806917542 0.0017835127544046328 0.014276573931009168
 0.0017628209441133184 0.014279344813868595 -0.0015185618966374128 -0.009010696806917542 0.005964458832445806 0.0292830148731529 0.9926087469170628 -0.06931105937219678
 -0.0015201822812627688 -0.00901059309845363 0.0017835127544046328 0.014276573931009168 0.9926087469170628 -0.06931105937219678 0.005959471850166588 0.02928350188724446
0.11879949979160001 0.0063593049540939615 0.031054789979550197 0.9920869431224009 -0.07328564360895917 0.0019358701592120653 0.015074436968581004 -0.0016682288386791159 -0.009515366646869867
 0.9920869431224009 -0.07328564360895917 0.006355059120817797 0.031055293409957007 -0.001666428289588874 -0.009515492098170906 0.001958932370917384 0.015071276124529926
 0.0019358701592120653 0.015074436968581004 -0.001666428289588874 -0.009515492098170906 0.0063600279072488115 0.031056332672828164 0.9920870176202696 -0.0732840541102102
 -0.0016682288386791159 -0.009515366646869867 0.001958932370917384 0.015071276124529926 0.9920870176202696 -0.0732840541102102 0.006354473836593519 0.031056876657343364
0.1250521050438 0.006771695181052161 0.032841600304110666 0.9915434228999174 -0.07727094003302828 0.0021176222905679334 0.015869000973149052 -0.0018237786354986121 -0.01001981081021315
 0.9915434228999174 -0.07727094003302828 0.0067669916043998305 0.03284215955443027 -0.001821788912997919 -0.010019960394892332 0.002143184160628286 0.015865414664645545
 0.0021176222905679334 0.015869000973149052 -0.001821788912997919 -0.010019960394892332 0.006772494844828751 0.03284322024417524 0.9915435053213405 -0.07726926619553874
 -0.0018237786354986121 -0.01001981081021315 0.002143184160628286 0.015865414664645545 0.9915435053213405 -0.07726926619553874 0.006766343286852673 0.032843825312066734
0.131304710296 0.007201235196973347 0.03464174004475576 0.9909778674263452 -0.08126826862075089 0.0023081394180606606 0.01666291278684775 -0.001986895172005586 -0.010523801956258176
 0.9909778674263452 -0.08126826862075089 0.007196050433394238 0.03464235877373677 -0.0019847073402713164 -0.010523978170912423 0.002336330228521223 0.01665886383124971
 0.0023081394180606606 0.01666291278684775 -0.0019847073402713164 -0.010523978170912423 0.007202115326632065 0.03464343658105814 0.9909779582017256 -0.08126651031430925
 -0.001986895172005586 -0.010523801956258176 0.002336330228521223 0.01665886383124971 0.9909779582017256 -0.08126651031430925 0.007195335884851735 0.03464410699874802
0.1375573155481 0.007547192539857599 0.036219188022107544 0.9904910483486683 -0.08504155499665321 0.0024825585935844274 0.017431877297581104 -0.0021326942098691755 -0.011003084882479445
 0.9904910483486683 -0.08504155499665321 0.0075415020362019905 0.03621985284002124 -0.0021302954197942267 -0.011003287818641013 0.002513451140853084 0.017427372919355193
 0.0024825585935844274 0.017431877297581104 -0.0021302954197942267 -0.011003287818641013 0.007548158070326408 0.03622095977257452 0.9904911478577738 -0.08503971216455694
 -0.0021326942098691755 -0.011003084882479445 0.002513451140853084 0.017427372919355193 0.9904911478577738 -0.08503971216455694 0.007540716971086764 0.0362216843441145
0.1438099208003 0.007905233047230542 0.03778873086940622 0.9899872751731027 -0.08880570750344585 0.0026640281752719607 0.018198069320229285 -0.002284344335648693 -0.011479803924185345
 0.9899872751731027 -0.08880570750344585 0.007899013197544928 0.03778944415606392 -0.0022817250511046553 -0.011480036015973806 0.0026977415541980456 0.01819307554614941
 0.0026640281752719607 0.018198069320229285 -0.0022817250511046553 -0.011480036015973806 0.007906287925391916 0.03779057707592034 0.9899873838440808 -0.0888037800225477
 -0.002284344335648693 -0.011479803924185345 0.0026977415541980456 0.01819307554614941 0.9899873838440808 -0.0888037800225477 0.007898154221888214 0.0377913589810243
0.1500625260525 0.008275236635295741 0.03935024981694299 0.9894666717156732 -0.09256064566604127 0.0028524896237246684 0.018961421624935405 -0.002441788155524165 -0.011953893939731465
 0.9894666717156732 -0.09256064566604127 0.008268463817360263 0.03935101407143694 -0.002438938863113524 -0.011954157718201183 0.0028891422976981907 0.01895590323670792
 0.0028524896237246684 0.018961421624935405 -0.002438938863113524 -0.011954157718201183 0.008276384806984477 0.03935216969127168 0.9894667899811039 -0.09255863340523685
 -0.002441788155524165 -0.011953893939731465 0.0028891422976981907 0.01895590323670792 0.9894667899811039 -0.09255863340523685 0.00826752752492965 0.039353012267655835
0.15631513130469998 0.008657082436000833 0.040903629740386326 0.9889293623480071 -0.09630628902971385 0.003047883754513655 0.019721868050035247 -0.0026049676077297755 -0.01242529111169231
