! Created with skrf 1.8.0 (http://scikit-rf.org).
# GHz S RI R 50.0 
!freq ReS11 ImS11 ReS12 ImS12 ReS13 ImS13
! ReS14 ImS14
! ReS21 ImS21 ReS22 ImS22 ReS23 ImS23
! ReS24 ImS24
! ReS31 ImS31 ReS32 ImS32 ReS33 ImS33
! ReS34 ImS34
! ReS41 ImS41 ReS42 ImS42 ReS43 ImS43
! ReS44 ImS44
!
0.0 0.001943611767832 0.0 0.9980563882293 0.0 7.590831508087e-05 0.0 -7.590831463681e-05 9.296087454863956e-21
 0.9980563882293 0.0 0.001943611767824 0.0 -7.590831463652e-05 9.29608745482844e-21 7.590831508064e-05 0.0
 7.590831508087e-05 0.0 -7.590831463652e-05 9.29608745482844e-21 0.0019436117593 0.0 0.9980563882208 0.0
 -7.590831463681e-05 9.296087454863956e-21 7.590831508064e-05 0.0 0.9980563882208 0.0 0.001943611759308 0.0
0.005 0.002092695100517009 0.0015835537264062608 0.9978675381386422 -0.004070107515345202 0.00010786361671878068 0.0008673322103591057 -0.0001045918756069869 -0.000538692484897856
 0.9978675381386422 -0.004070107515345202 0.0020926500098948156 0.0015835800234951399 -0.00010458817971618637 -0.0005386896254152744 0.00010815838736924953 0.0008672197653704211
 0.00010786361671878068 0.0008673322103591057 -0.00010458817971618637 -0.0005386896254152744 0.0020926967282955816 0.0015834854555257154 0.9978675377443273 -0.004070174572106897
 -0.0001045918756069869 -0.000538692484897856 0.00010815838736924953 0.0008672197653704211 0.9978675377443273 -0.004070174572106897 0.002092647610228268 0.0015835141974555654
0.006252605252188 0.002132239032996684 0.0019856338731105857 0.9978170693318026 -0.005088561214950903 0.00011719973678316765 0.0010845445029564018 -0.00011290346792358363 -0.0006740415688290098
 0.9978170693318026 -0.005088561214950903 0.0021321685481484713 0.0019856672800774374 -0.00011289771707666992 -0.0006740380445581447 0.0001176602794389937 0.0010843983273037569
 0.00011719973678316765 0.0010845445029564018 -0.00011289771707666992 -0.0006740380445581447 0.002132241652934706 0.0019855485286619625 0.9978170687899972 -0.0050886450436003275
 -0.00011290346792358363 -0.0006740415688290098 0.0001176602794389937 0.0010843983273037569 0.9978170687899972 -0.0050886450436003275 0.0021321648715410487 0.001985585003813765
0.01250521050438 0.0023429887552050923 0.004012387769680905 0.9975460489741163 -0.01017741011873965 0.00017183353151100413 0.0021691599152204124 -0.00016120532075568277 -0.0013510756046011714
 0.9975460489741163 -0.01017741011873965 0.00234270730385168 0.004012459969260455 -0.0001611826611080978 -0.0013510691153370909 0.00017366988843906482 0.0021688059593124418
 0.00017183353151100413 0.0021691599152204124 -0.0001611826611080978 -0.0013510691153370909 0.002342999783498757 0.0040122173508397915 0.9975460473637494 -0.010177577554842937
 -0.00016120532075568277 -0.0013510756046011714 0.00017366988843906482 0.0021688059593124418 0.9975460473637494 -0.010177577554842937 0.0023426931765657493 0.004012295852429312
0.01875781575657 0.0025764094229720693 0.006067348200705555 0.9972429280352211 -0.015278824378700631 0.00023995175925124222 0.0032545373012502956 -0.00022098126072640897 -0.0020300112371997832
 0.9972429280352211 -0.015278824378700631 0.0025757769693337644 0.006067464935550019 -0.00022093073636112468 -0.002030002473674693 0.00024407648040588198 0.003253899651305598
 0.00023995175925124222 0.0032545373012502956 -0.00022093073636112468 -0.002030002473674693 0.002576434649567241 0.006067092839975719 0.9972429248298761 -0.015279075404881767
 -0.00022098126072640897 -0.0020300112371997832 0.00024407648040588198 0.003253899651305598 0.9972429248298761 -0.015279075404881767 0.0025757456447876516 0.006067219407203578
0.02501042100875 0.0028330275056365583 0.008147506880072033 0.9969072895946228 -0.020395155540289447 0.0003216962182822863 0.0043406569518582416 -0.0002923907513341324 -0.002710456492842388
 0.9969072895946228 -0.020395155540289447 0.002831904264075674 0.008147674201726051 -0.0002923015419548206 -0.0027104462879940466 0.0003290218014810107 0.004339645762224566
 0.0003216962182822863 0.0043406569518582416 -0.0002923015419548206 -0.0027104462879940466 0.002833072729508423 0.00814716670145546 0.9969072842639302 -0.020395490216733276
 -0.0002923907513341324 -0.002710456492842388 0.0003290218014810107 0.004339645762224566 0.9969072842639302 -0.020395490216733276 0.002831849013972488 0.008147347808099411
0.03126302626094 0.0031133471148744206 0.010251254094537829 0.996538699236458 -0.025527335664096547 0.00041720737327224694 0.005427393449204009 -0.000375586927730938 -0.0033921135792952255
 0.996538699236458 -0.025527335664096547 0.0031115934564936703 0.010251478354121804 -0.00037544832673160836 -0.0033921029093910123 0.00042864703772030663 0.005425904855448231
 0.00041720737327224694 0.005427393449204009 -0.00037544832673160836 -0.0033921029093910123 0.0031134181432606665 0.010250829247554908 0.9965386912391494 -0.025527754094492684
 -0.000375586927730938 -0.0033921135792952255 0.00042864703772030663 0.005425904855448231 0.9965386912391494 -0.025527754094492684 0.003111507565243691 0.010251071793440569
0.037515631513130004 0.003417859865048038 0.012377493697969153 0.9961367154805433 -0.030675762300235044 0.0005266230757740086 0.006514578586755322 -0.00047071770894851464 -0.004074716080965163
 0.9961367154805433 -0.030675762300235044 0.0034153362492962834 0.012377781542379658 -0.0004705191125343207 -0.004074706065820011 0.0005430910662127988 0.006512494570235026
 0.0005266230757740086 0.006514578586755322 -0.0004705191125343207 -0.004074706065820011 0.0034179625211552527 0.012376984333473035 0.9961367042662418 -0.030676264655372484
 -0.00047071770894851464 -0.004074716080965163 0.0005430910662127988 0.006512494570235026 0.9961367042662418 -0.030676264655372484 0.0034152130190866297 0.012377295642200453
0.043768236765320004 0.0037470486485238906 0.01452537376091433 0.9957008941201384 -0.03584056779671961 0.0006500779173559956 0.00760202051928502 -0.0005779261455015587 -0.004758009908483841
 0.9957008941201384 -0.03584056779671961 0.003743615564218454 0.014525732132026948 -0.0005776570463859864 -0.004758001811429334 0.0006724896061352306 0.007599208757138599
 0.0006500779173559956 0.00760202051928502 -0.0005776570463859864 -0.004758001811429334 0.003747188771864861 0.014524780058952896 0.9957008791262577 -0.03584115428600313
 -0.0005779261455015587 -0.004758009908483841 0.0006724896061352306 0.007599208757138599 0.9957008791262577 -0.03584115428600313 0.0037434483149755993 0.014525167878883666
0.050020842017509996 0.004101389331931099 0.0166941753112781 0.9952307904861722 -0.04102173052013678 0.0007877028017559511 0.008689511707442577 -0.0006973504995686265 -0.005441745457430164
 0.9952307904861722 -0.04102173052013678 0.004096907244142733 0.016694611447154416 -0.0006970004832965715 -0.005441740685190499 0.0008169746831164708 0.008685825417295396
 0.0007877028017559511 0.008689511707442577 -0.0006970004832965715 -0.005441740685190499 0.004101572782251285 0.016693497469244728 0.9952307711363504 -0.04102240140257459
 -0.0006973504995686265 -0.005441745457430164 0.0008169746831164708 0.008685825417295396 0.9952307711363504 -0.04102240140257459 0.004096689316166962 0.01669396997665833
0.055454545454549996 0.0044301134592827675 0.018595421479180085 0.9947940701169244 -0.045537509875379543 0.0009189094551706983 0.009634444430575942 -0.00081115845669899 -0.006036097788289701
 0.9947940701169244 -0.045537509875379543 0.004424606378827389 0.01859593130575934 -0.0008107297334040012 -0.006036097159090836 0.0009548881750665492 0.00962986759596611
 0.0009189094551706983 0.009634444430575942 -0.0008107297334040012 -0.006036097159090836 0.004430339337143359 0.01859467069366251 0.9947940465010703 -0.04553825434317071
 -0.00081115845669899 -0.006036097788289701 0.0009548881750665492 0.00962986759596611 0.9947940465010703 -0.04553825434317071 0.004424339018042573 0.018595223773574397
0.056273447269699996 0.004481351583588624 0.01888325772520593 0.9947259608446977 -0.0462191294347583 0.000939624613625401 0.00977683284517344 -0.0008291242063448014 -0.0061256737934298
 0.9947259608446977 -0.0462191294347583 0.004475680881843937 0.018883779163513952 -0.0008286829488612353 -0.0061256738959543 0.000976674231786569 0.009772110628464229
 0.000939624613625401 0.00977683284517344 -0.0008286829488612353 -0.0061256738959543 0.004481584241412395 0.018882495961290144 0.9947259365461625 -0.046219885014535056
 -0.0008291242063448014 -0.0061256737934298 0.000976674231786569 0.009772110628464229 0.9947259365461625 -0.046219885014535056 0.004475405637187906 0.018883061765795656
0.06252605252188 0.004887399259569969 0.021092028723475226 0.9941859633609552 -0.051432574088521726 0.001105965936290181 0.010863755044848666 -0.0009733757736143833 -0.006809544591291414
 0.9941859633609552 -0.051432574088521726 0.0048804002083542445 0.02109264330683531 -0.0009728330399020799 -0.00680955126156658 0.0011517117694996388 0.010857820730612887
 0.001105965936290181 0.010863755044848666 -0.0009728330399020799 -0.00680955126156658 0.004887687030511899 0.021091183277126543 0.9941859335039566 -0.051433414713471765
 -0.0009733757736143833 -0.006809544591291414 0.0011517117694996388 0.010857820730612887 0.9941859335039566 -0.051433414713471765 0.00488006103516262 0.021091851428972488
0.06877865777407 0.0053199905578241264 0.023319926507122626 0.9936103588357635 -0.05666182247370408 0.0012868447968125696 0.011950041168032742 -0.0011302286468768056 -0.007493104941558207
 0.9936103588357635 -0.05666182247370408 0.00531152324705508 0.023320642390388648 -0.0011295742901839966 -0.007493120015385859 0.0013422061094165135 0.0119427036582996
 0.0012868447968125696 0.011950041168032742 -0.0011295742901839966 -0.007493120015385859 0.005320339372212574 0.023318997634103545 0.9936103227897406 -0.05666274853898437
 -0.0011302286468768056 -0.007493104941558207 0.0013422061094165135 0.0119427036582996 0.9936103227897406 -0.05666274853898437 0.005311113559924032 0.02331977763353129
0.07503126302626001 0.005779578023866128 0.02556640845270736 0.9929987113000985 -0.061906592343227 0.0014823744268761896 0.01303544670408844 -0.001299801053834268 -0.008176098622980493
 0.9929987113000985 -0.061906592343227 0.005769502320424618 0.02556723411226034 -0.0012990250153796527 -0.008176124078743355 0.0015482710974167066 0.013026499821676946
 0.0014823744268761896 0.01303544670408844 -0.0012990250153796527 -0.008176124078743355 0.0057799938404023985 0.02556539642586749 0.9929986684131052 -0.06190760428916606
 -0.001299801053834268 -0.008176098622980493 0.0015482710974167066 0.013026499821676946 0.9929986684131052 -0.06190760428916606 0.00576901556472152 0.025566298234511717
0.08128386827845 0.006266608472637648 0.027830943602473825 0.9923505885302993 -0.06716656874822156 0.0016926630349438528 0.014119720378291538 -0.0014822058351169128 -0.00885826566002196
 0.9923505885302993 -0.06716656874822156 0.006254783971570545 0.027831887847592385 -0.0014812981441571847 -0.008858303618422774 0.0017700153647260022 0.014108942717554727
 0.0016926630349438528 0.014119720378291538 -0.0014812981441571847 -0.008858303618422774 0.006267097279620437 0.027829848715362298 0.9923505381258697 -0.06716766705523748
 -0.0014822058351169128 -0.00885826566002196 0.0017700153647260022 0.014108942717554727 0.9923505381258697 -0.06716766705523748 0.0062542136254243345 0.02783088276965332
0.08753647353064001 0.006781522846981864 0.030113007506500977 0.9916655625043971 -0.07244140924071991 0.0019178135846284715 0.015202604612581126 -0.0016775502671524383 -0.00953934204248466
 0.9916655625043971 -0.07244140924071991 0.006767808822460402 0.03011407949290971 -0.0016765010412228415 -0.00953939476626935 0.0020075420906257905 0.015189759393597157
 0.0019178135846284715 0.015202604612581126 -0.0016765010412228415 -0.00953939476626935 0.006782090664690428 0.03011183006449655 0.9916655038806386 -0.07244259443655482
 -0.0016775502671524383 -0.00953934204248466 0.0020075420906257905 0.015189759393597157 0.9916655038806386 -0.07244259443655482 0.006767148400616661 0.030113007291227845
0.09378907878283 0.007324756037215985 0.032412078545976164 0.9909432098246664 -0.07773074761265851 0.002157923579408509 0.016283835880361124 -0.0018859358783848033 -0.010219059566428467
 0.9909432098246664 -0.07773074761265851 0.007309011394111842 0.03241328779144639 -0.001884735323872865 -0.010219129460077867 0.0022609487735745924 0.016268670806883826
 0.002157923579408509 0.016283835880361124 -0.001884735323872865 -0.010219129460077867 0.007325408919271507 0.03241081887138955 0.9909431422510453 -0.0777320202654946
 -0.0018859358783848033 -0.010219059566428467 0.0022609487735745924 0.016268670806883826 0.9909431422510453 -0.0777320202654946 0.007308254450082805 0.03241215070542771
0.100041684035 0.007896736670300717 0.03472763526958976 0.9901831121123762 -0.08303419664009593 0.002413084850731539 0.017363145002920334 -0.002107458262692515 -0.010897145748874033
 0.9901831121123762 -0.08303419664009593 0.007878819894931072 0.034728991671816443 -0.0021060966754602884 -0.010897235358277213 0.0025303270075047505 0.0173453921245134
 0.002413084850731539 0.017363145002920334 -0.0021060966754602884 -0.010897235358277213 0.007897480706053867 0.0347262936988013 0.9901830348283266 -0.08303555735941566
 -0.002107458262692515 -0.010897145748874033 0.0025303270075047505 0.0173453921245134 0.9901830348283266 -0.08303555735941566 0.007877960024823773 0.034727792103048986
0.1059090909091 0.008460001432110592 0.03691506712121207 0.989435144382608 -0.08802339297117452 0.002666292254821134 0.018373969447366013 -0.002327361057330608 -0.011531727519492415
 0.989435144382608 -0.08802339297117452 0.008439917220141951 0.03691657097242977 -0.002325839612598865 -0.011531838071114586 0.0027977120777702164 0.018353530428559847
 0.002666292254821134 0.018373969447366013 -0.002325839612598865 -0.011531838071114586 0.008460836577289764 0.036913649013023644 0.9894350572658441 -0.08802483692593259
 -0.002327361057330608 -0.011531727519492415 0.0027977120777702164 0.018353530428559847 0.9894350572658441 -0.08802483692593259 0.008438954981160207 0.036915315095725654
0.1062942892872 0.008497886878033763 0.037059154415938995 0.989384856384856 -0.08835135015962158 0.002683383350237525 0.018440257402457784 -0.0023422068899874283 -0.011573323801716918
 0.989384856384856 -0.08835135015962158 0.008477655989236003 0.0370606682727516 -0.0023406746561936637 -0.011573435813786469 0.0028157622637122815 0.018419632981005764
 0.002683383350237525 0.018440257402457784 -0.0023406746561936637 -0.011573435813786469 0.008498728194120023 0.03705773129462391 0.989384768597573 -0.08835279959903397
 -0.0023422068899874283 -0.011573323801716918 0.0028157622637122815 0.018419632981005764 0.989384768597573 -0.08835279959903397 0.008476686834772592 0.03705940878225559
0.11254689453939999 0.009128622048928253 0.0394061094200209 0.9885480354192888 -0.09368178468009644 0.0029688989448442334 0.019514893334049613 -0.0025902649160337195 -0.012247312642591464
 0.9885480354192888 -0.09368178468009644 0.009105934549200917 0.039407791451859533 -0.0025885525131247463 -0.01224744988490359 0.0031173336764106583 0.01949109771505149
 0.0029688989448442334 0.019514893334049613 -0.0025885525131247463 -0.01224744988490359 0.009129566811242886 0.03940460510357264 0.9885479363012551 -0.09368332353454929
 -0.0025902649160337195 -0.012247312642591464 0.0031173336764106583 0.01949109771505149 0.9885479363012551 -0.09368332353454929 0.00910484980078786 0.03940647476254503
0.11879949979160001 0.009789350568637589 0.041767969275756024 0.9876722481055228 -0.09902506065737447 0.0032697052150926532 0.020586768095816083 -0.002851708992151913 -0.012918826943632878
 0.9876722481055228 -0.09902506065737447 0.009764063394583597 0.04176983065062403 -0.002849806989765103 -0.012918992384025762 0.003435113832481691 0.020559485584585032
 0.0032697052150926532 0.020586768095816083 -0.002849806989765103 -0.012918992384025762 0.00979040498389181 0.04176638412801686 0.9876721367925199 -0.09902668966209152
 -0.002851708992151913 -0.012918826943632878 0.003435113832481691 0.020559485584585032 0.9876721367925199 -0.09902668966209152 0.009762856795073858 0.04176845964801626
0.1250521050438 0.010480473550332029 0.04414419766868172 0.9867570997909149 -0.10438072351864086 0.0035858692565103384 0.021655592233476295 -0.003126609075290067 -0.013587577202129553
 0.9867570997909149 -0.10438072351864086 0.010452443023935824 0.04414625002942837 -0.0031245081364002715 -0.013587773948209326 0.00376916856480254 0.02162449097662749
 0.0035858692565103384 0.021655592233476295 -0.0031245081364002715 -0.013587773948209326 0.010481643868220066 0.044142532060507236 0.9867569753801466 -0.10438244344803699
 -0.003126609075290067 -0.013587577202129553 0.00376916856480254 0.02162449097662749 0.9867569753801466 -0.10438244344803699 0.010451108371700447 0.04414482776238833
0.131304710296 0.011202384558802823 0.046534252303735306 0.9858022026194824 -0.10974830451167157 0.003917451484185857 0.022721071735529133 -0.003415028239237631 -0.014253269836764332
 0.9858022026194824 -0.10974830451167157 0.011171466338534978 0.046536507797961486 -0.003412719121375708 -0.014253501135447674 0.0041195567495342054 0.022685803607858213
 0.003917451484185857 0.022721071735529133 -0.003412719121375708 -0.014253501135447674 0.011203677073395564 0.046532506610110595 0.9858020641669671 -0.1097501161794964
 -0.003415028239237631 -0.014253269836764332 0.0041195567495342054 0.022685803607858213 0.9858020641669671 -0.1097501161794964 0.011169997491077607 0.046535037477633046
0.1375573155481 0.011805221346616886 0.04862606093604341 0.9849575210453716 -0.11481553733532134 0.0042262418684570965 0.023753324396976954 -0.0036785434526373107 -0.014886244213186994
 0.9849575210453716 -0.11481553733532134 0.011771259367370113 0.048628482731085866 -0.0036760122079332654 -0.014886510852930862 0.004447613184395708 0.023713894469662666
 0.0042262418684570965 0.023753324396976954 -0.0036760122079332654 -0.014886510852930862 0.011806641331564345 0.04862423551122759 0.9849573678572495 -0.11481744125946385
 -0.0036785434526373107 -0.014886244213186994 0.004447613184395708 0.023713894469662666 0.9849573678572495 -0.11481744125946385 0.011769650772028425 0.048626967159515866
0.1438099208003 0.012429647393262622 0.05070386309518339 0.9840823202222144 -0.11986691411522232 0.004547351341541093 0.02477972130089201 -0.003952446364600349 -0.015513690767568136
 0.9840823202222144 -0.11986691411522232 0.01239249472390655 0.050706460941472624 -0.003949683040810097 -0.015513995998007919 0.00478881993129498 0.02473580667938982
 0.004547351341541093 0.02477972130089201 -0.003949683040810097 -0.015513995998007919 0.012431201026465085 0.05070195837821139 0.9840821513468724 -0.11986891109553816
 -0.003952446364600349 -0.015513690767568136 0.00478881993129498 0.02473580667938982 0.9840821513468724 -0.11986891109553816 0.012390740425397912 0.05070490343564379
0.1500625260525 0.013075393290263032 0.05276739750322171 0.9831768756250318 -0.12490222010895016 0.004880635384575498 0.025800104978968355 -0.004236592871220125 -0.016135457138629173
 0.9831768756250318 -0.12490222010895016 0.013034902334636956 0.052770181892278965 -0.004233587550813937 -0.01613580434028933 0.005143025825357226 0.02575137096150421
 0.004880635384575498 0.025800104978968355 -0.004233587550813937 -0.01613580434028933 0.013077086782226494 0.05276541394635152 0.9831766900761943 -0.1249043109705896
 -0.004236592871220125 -0.016135457138629173 0.005143025825357226 0.02575137096150421 0.9831766900761943 -0.1249043109705896 0.013032996440850778 0.05276858590054528
0.15631513130469998 0.013742187117166963 0.05481641078290406 0.9822414648022186 -0.12992124352137605 0.005225947446342189 0.02681432150103299 -0.004530836780309444 -0.016751394920413134
 0.9822414648022186 -0.12992124352137605 0.013698209598288094 0.0548193929790965 -0.0045275795811813985 -0.016751787603950217 0.0055100775468555204 0.02676042172908541
