! Created with skrf 1.8.0 (http://scikit-rf.org).
# GHz S RI R 50.0 
!freq ReS11 ImS11 ReS12 ImS12 ReS13 ImS13
! ReS14 ImS14
! ReS21 ImS21 ReS22 ImS22 ReS23 ImS23
! ReS24 ImS24
! ReS31 ImS31 ReS32 ImS32 ReS33 ImS33
! ReS34 ImS34
! ReS41 ImS41 ReS42 ImS42 ReS43 ImS43
! ReS44 ImS44
!
0.0 0.001245468147701 0.0 0.9987545318395 0.0 4.723703970793e-05 0.0 -4.723703954182e-05 5.784868927608682e-21
 0.9987545318395 0.0 0.001245468147696 0.0 -4.723703954144e-05 5.784868927562146e-21 4.723703970836e-05 0.0
 4.723703970793e-05 0.0 -4.723703954144e-05 5.784868927562146e-21 0.001245468154077 0.0 0.9987545318459 0.0
 -4.723703954182e-05 5.784868927608682e-21 4.723703970836e-05 0.0 0.9987545318459 0.0 0.001245468154098 0.0
0.005 0.001339240436203577 0.0010250580155763292 0.9986360251851681 -0.0026094628391305726 6.494905006401458e-05 0.00048667216934239525 -6.332884261417432e-05 -0.00031149704356960153
 0.9986360251851681 -0.0026094628391305726 0.0013392548915572436 0.0010250496339809063 -6.33306083977358e-05 -0.00031149842194849655 6.485727292073394e-05 0.00048670709010536454
 6.494905006401458e-05 0.00048667216934239525 -6.33306083977358e-05 -0.00031149842194849655 0.0013392390745233127 0.0010249915908612539 0.9986360248520401 -0.0026095298974478536
 -6.332884261417432e-05 -0.00031149704356960153 6.485727292073394e-05 0.00048670709010536454 0.9986360248520401 -0.0026095298974478536 0.0013392555904314003 0.001024981944559526
0.006252605252188 0.0013636236051386265 0.001285357972614204 0.9986050507954664 -0.0032624966345330578 6.989946078232453e-05 0.0006086040449068036 -6.77735575888744e-05 -0.00038977774122736985
 0.9986050507954664 -0.0032624966345330578 0.0013636462006968056 0.0012853473018114715 -6.777630516541454e-05 -0.00038977944186877354 6.975606555341041e-05 0.0006086493442568839
 6.989946078232453e-05 0.0006086040449068036 -6.777630516541454e-05 -0.00038977944186877354 0.0013636215455941447 0.0012852749541655965 0.9986050503441326 -0.003262580449920327
 -6.77735575888744e-05 -0.00038977774122736985 6.975606555341041e-05 0.0006086493442568839 0.9986050503441326 -0.003262580449920327 0.0013636473628672562 0.0012852626951860137
0.01250521050438 0.001490756562150431 0.002597742506194381 0.9984426498786712 -0.006525950404706988 9.770871471700659e-05 0.0012177263608282706 -9.246293431474472e-05 -0.00078153782282186
 0.9984426498786712 -0.006525950404706988 0.0014908467767112258 0.002597719214063946 -9.247376111793148e-05 -0.000781540982912817 9.713684943757936e-05 0.0012178345233951901
 9.770871471700659e-05 0.0012177263608282706 -9.247376111793148e-05 -0.000781540982912817 0.0014907489227459793 0.0025975767697220876 0.9984426486644323 -0.006526117800786558
 -9.246293431474472e-05 -0.00078153782282186 9.713684943757936e-05 0.0012178345233951901 0.9984426486644323 -0.006526117800786558 0.0014908520115658234 0.002597550212788109
0.01875781575657 0.0016271007017859994 0.0039290026654873285 0.9982671587689462 -0.00979834105641074 0.00013072257349269731 0.0018277606212064876 -0.00012137129939919286 -0.0011747876627932472
 0.9982671587689462 -0.00979834105641074 0.0016273033991372017 0.003928964676347982 -0.00012139544266216171 -0.0011747920033025514 0.0001294378453961604 0.0018279521406844535
 0.00013072257349269731 0.0018277606212064876 -0.00012139544266216171 -0.0011747920033025514 0.0016270839451265032 0.003928754414451137 0.9982671564566968 -0.009798591941532389
 -0.00012137129939919286 -0.0011747876627932472 0.0001294378453961604 0.0018279521406844535 0.9982671564566968 -0.009798591941532389 0.0016273155912188463 0.00392871134666998
0.02501042100875 0.0017728849889908102 0.005277332212449144 0.9980784016498595 -0.013081298004210087 0.0001689998411601561 0.002438748256526831 -0.0001545634190027949 -0.001569384075634977
 0.9980784016498595 -0.013081298004210087 0.0017732449290892968 0.0052772773396729524 -0.00015460605383554895 -0.0015693892742615525 0.00016671766749836096 0.002439046425981267
 0.0001689998411601561 0.002438748256526831 -0.00015460605383554895 -0.0015693892742615525 0.0017728555934950875 0.005277001636801049 0.9980783979173272 -0.013081632345007116
 -0.0001545634190027949 -0.001569384075634977 0.00016671766749836096 0.002439046425981267 0.9980783979173272 -0.013081632345007116 0.001773266978193836 0.005276939688479709
0.03126302626094 0.0019283286437120715 0.0066418241572346794 0.9978761922839197 -0.016375545755515072 0.00021259999718093643 0.003050679467141669 -0.000192102702094443 -0.00196523218240894
 0.9978761922839197 -0.016375545755515072 0.0019288905047509493 0.0066417501062532806 -0.00019216895240603928 -0.001965237872872376 0.00020903532562095513 0.003051110392721454
 0.00021259999718093643 0.003050679467141669 -0.00019216895240603928 -0.001965237872872376 0.0019282830839287214 0.006641411492511296 0.9978761868031685 -0.01637596351800591
 -0.000192102702094443 -0.00196523218240894 0.00020903532562095513 0.003051110392721454 0.9978761868031685 -0.01637596351800591 0.0019289253086913628 0.006641328140119783
0.037515631513130004 0.0020936463321331996 0.008021904212161092 0.9976603392974428 -0.019681470409696703 0.00026158263677285987 0.0036635244801590102 -0.00023405162592532054 -0.0023622541365096016
 0.9976603392974428 -0.019681470409696703 0.002094454724482264 0.008021808582040142 -0.0002341465700792003 -0.002362259908313632 0.000256449811673023 0.0036641171093583363
 0.00026158263677285987 0.0036635244801590102 -0.0002341465700792003 -0.002362259908313632 0.0020935810867998943 0.008021409709417197 0.9976603317426783 -0.019681971589724855
 -0.00023405162592532054 -0.0023622541365096016 0.000256449811673023 0.0036641171093583363 0.9976603317426783 -0.019681971589724855 0.0020945051884722963 0.008021302276773548
0.043768236765320004 0.0022690501939336815 0.009417158369677192 0.9974306483031782 -0.02299929202684382 0.0003160072124615187 0.004277243053360297 -0.00028047189984006993 -0.002760379606098188
 0.9974306483031782 -0.02299929202684382 0.0022701496700960723 0.009417038654400845 -0.0002806005740153633 -0.0027603850044382286 0.00030901990341964194 0.004278029207885065
 0.0003160072124615187 0.004277243053360297 -0.0002806005740153633 -0.0027603850044382286 0.0022689617408775263 0.009416582316673425 0.9974306383461647 -0.02299987662933379
 -0.00028047189984006993 -0.002760379606098188 0.00030901990341964194 0.004278029207885065 0.9974306383461647 -0.02299987662933379 0.0022702187026983345 0.009416447975654515
0.050020842017509996 0.002454750788547335 0.010827261636455286 0.9971869229452077 -0.02632913583849245 0.00037593288699944237 0.004891788395785591 -0.00033142453089966264 -0.003159541841296754
 0.9971869229452077 -0.02632913583849245 0.0024561858523866366 0.010827115225800455 -0.00033159193140092313 -0.003159546367019068 0.00036680405010494903 0.0048928028063692
 0.00037593288699944237 0.004891788395785591 -0.00033159193140092313 -0.003159546367019068 0.0024546356070023765 0.01082660435900932 0.997186910256824 -0.02632980387660139
 -0.00033142453089966264 -0.003159541841296754 0.00036680405010494903 0.0048928028063692 0.997186910256824 -0.02632980387660139 0.0024562763675683363 0.010826440129878545
0.055454545454549996 0.0026246551527415547 0.012064531999122472 0.9969635670687581 -0.029232686341079922 0.0004325233355344121 0.0054264785165174315 -0.00037943161104118147 -0.0035072173212304858
 0.9969635670687581 -0.029232686341079922 0.0026264179626920925 0.012064360189245654 -0.00037963669367241425 -0.003507220648789187 0.0004212997626967987 0.00542772178032697
 0.0004325233355344121 0.0054264785165174315 -0.00037963669367241425 -0.003507220648789187 0.002624513884396692 0.012063804422642418 0.9969635517377312 -0.029233426911360785
 -0.00037943161104118147 -0.0035072173212304858 0.0004212997626967987 0.00542772178032697 0.9969635517377312 -0.029233426911360785 0.0026265295171794506 0.012063611682301894
0.056273447269699996 0.002650957595075939 0.012251943069501399 0.9969289654990009 -0.0296710671557779 0.00044141843286842064 0.005507109086090956 -0.0003869698482258728 -0.00355967574482261
 0.9969289654990009 -0.0296710671557779 0.002652772709051793 0.012251767249868649 -0.0003871809329863235 -0.003559678854405704 0.0004298602917156646 0.005508389428259189
 0.00044141843286842064 0.005507109086090956 -0.0003871809329863235 -0.003559678854405704 0.0026508121646706476 0.012251204922830963 0.9969289497479253 -0.02967181865998351
 -0.0003869698482258728 -0.00355967574482261 0.0004298602917156646 0.005508389428259189 0.9969289497479253 -0.02967181865998351 0.0026528876256304203 0.012251007674390803
0.06252605252188 0.0028578792916534226 0.01369096654247048 0.996656577253286 -0.0330251105477476 0.0005125221564728314 0.006123150127145252 -0.0004471675049056551 -0.00396071680760678
 0.996656577253286 -0.0330251105477476 0.0028601188838224237 0.013690758497413693 -0.00044742719459244787 -0.003960717913155754 0.0004982461959378696 0.006124737057501355
 0.0005125221564728314 0.006123150127145252 -0.00044742719459244787 -0.003960717913155754 0.0028577000938204136 0.013690147923248797 0.9966565581070193 -0.03302594555429976
 -0.0004471675049056551 -0.00396071680760678 0.0004982461959378696 0.006124737057501355 0.9966565581070193 -0.03302594555429976 0.0028602611269597303 0.013689914372764352
0.06877865777407 0.003075723918319546 0.015144119278870504 0.9963695587776461 -0.036391261253632935 0.0005893018349255754 0.006739853571511933 -0.0005120764680212081 -0.004362600474875815
 0.9963695587776461 -0.036391261253632935 0.0030784323891822015 0.015143876089574685 -0.0005123896468436087 -0.004362598944130069 0.0005720188041031379 0.006741790764267435
 0.0005893018349255754 0.006739853571511933 -0.0005123896468436087 -0.004362598944130069 0.0030755074352727505 0.01514322062124824 0.9963695359010462 -0.036392179809043385
 -0.0005120764680212081 -0.004362600474875815 0.0005720188041031379 0.006741790764267435 0.9963695359010462 -0.036392179809043385 0.003078604889134659 0.015142947334184463
0.07503126302626001 0.003304698967696809 0.01661120458489359 0.996067710120018 -0.039769492396654574 0.0006718146617257354 0.007357158916492005 -0.000581755000151627 -0.004765261744077213
 0.996067710120018 -0.039769492396654574 0.0033079206964359326 0.016610923230458038 -0.0005821265164451675 -0.004765256900415635 0.0006512345831882124 0.007359493100125105
 0.0006718146617257354 0.007357158916492005 -0.0005821265164451675 -0.004765256900415635 0.003304441683538479 0.016610226364102143 0.9960676831754657 -0.03977049455454759
 -0.000581755000151627 -0.004765261744077213 0.0006512345831882124 0.007359493100125105 0.9960676831754657 -0.03977049455454759 0.0033081263895100087 0.016609909753830226
0.08128386827845 0.0035450114345953088 0.018092037012135145 0.9957508309647805 -0.04315975976923313 0.0007601171963162293 0.007975003365430161 -0.0006562606364217453 -0.005168634898047665
 0.9957508309647805 -0.04315975976923313 0.0035487907853454692 0.01809171436972654 -0.0006566953030455131 -0.005168626020506658 0.0007359493808204143 0.007977784359325231
 0.0007601171963162293 0.007975003365430161 -0.0006566953030455131 -0.005168626020506658 0.003544709835498963 0.018090979741047373 0.995750799612097 -0.04316084559424131
 -0.0006562606364217453 -0.005168634898047665 0.0007359493808204143 0.007977784359325231 0.995750799612097 -0.04316084559424131 0.003549032614098936 0.01809061606822552
0.08753647353064001 0.0037968678349402114 0.01958643900652119 0.9954187207626994 -0.046562005133463015 0.0008542653173943336 0.008593322009084107 -0.000735650157573947 -0.005572653319670183
 0.9954187207626994 -0.046562005133463015 0.003801249163144976 0.019586071851328143 -0.0007361527522514692 -0.005572639642959831 0.0008262183824134393 0.008596602760106388
 0.0008542653173943336 0.008593322009084107 -0.0007361527522514692 -0.005572639642959831 0.0037965184092771513 0.019585303238971633 0.9954186846586106 -0.04656317469841441
 -0.000735650157573947 -0.005572653319670183 0.0008262183824134393 0.008596602760106388 0.9954186846586106 -0.04656317469841441 0.003801530075887562 0.019584888610932372
0.09378907878283 0.0040604742062072055 0.021094238515536507 0.9950711788439114 -0.04997615856505952 0.0009543141778525559 0.009212047955203544 -0.0008199795607222471 -0.005977249359948398
 0.9950711788439114 -0.04997615856505952 0.00406550186452926 0.021093823520667274 -0.0008205548262088136 -0.0059772300744786785 0.0009220960695472706 0.009215884574142071
 0.0009543141778525559 0.009212047955203544 -0.0008205548262088136 -0.0059772300744786785 0.004060073445497362 0.021093024844984806 0.9950711376422283 -0.04997741195277183
 -0.0008199795607222471 -0.005977249359948398 0.0009220960695472706 0.009215884574142071 0.9950711376422283 -0.04997741195277183 0.004065824816297798 0.02109255521481334
0.100041684035 0.0043360360936775645 0.0226152672284755 0.994708004519581 -0.053402140165947534 0.001060318161308891 0.009831112422757892 -0.000909304027887021 -0.0063823542431182675
 0.994708004519581 -0.053402140165947534 0.004341754438416533 0.02261480096457407 -0.0009099566721253966 -0.006382328495027398 0.001023636179229306 0.00983556422059054
 0.001060318161308891 0.009831112422757892 -0.0009099566721253966 -0.006382328495027398 0.004335580492378935 0.022613976294101886 0.9947079578701514 -0.053403477463542764
 -0.000909304027887021 -0.0063823542431182675 0.001023636179229306 0.00983556422059054 0.9947079578701514 -0.053403477463542764 0.00434212239014804 0.022613447459689878
0.1059090909091 0.004605677752880364 0.02405447537005084 0.994352807726906 -0.0566277393027169 0.001165255506867133 0.010412283783401456 -0.0009977169336127256 -0.0067629026810383805
 0.994352807726906 -0.0566277393027169 0.004612084583612419 0.024053957784948534 -0.0009984464404499732 -0.006762870052470482 0.0011241178928546392 0.010417369686419924
 0.001165255506867133 0.010412283783401456 -0.0009984464404499732 -0.006762870052470482 0.004605167504770097 0.024053112546315893 0.9943527556436872 -0.05662915543176473
 -0.0009977169336127256 -0.0067629026810383805 0.0011241178928546392 0.010417369686419924 0.9943527556436872 -0.05662915543176473 0.004612497462015018 0.02405252419395637
0.1062942892872 0.004623758525405445 0.024149359259571058 0.9943289971729211 -0.05683986133581397 0.0011723308391954677 0.010450444813848783 -0.0010036778932403375 -0.006787897995803269
 0.9943289971729211 -0.05683986133581397 0.004630211922426995 0.024148838194353903 -0.0010044125893898324 -0.006787864886985817 0.0011308916635281887 0.010455574337792827
 0.0011723308391954677 0.010450444813848783 -0.0010044125893898324 -0.006787864886985817 0.004623244581951501 0.024147991738623586 0.9943289447221941 -0.056841282642792784
 -0.0010036778932403375 -0.006787897995803269 0.0011308916635281887 0.010455574337792827 0.9943289447221941 -0.056841282642792784 0.0046306278419867486 0.02414739934147859
0.11254689453939999 0.004923845980455272 0.02569635013013899 0.9939339563464132 -0.06028922574665395 0.0012904049287453482 0.011069972770152151 -0.0011031546087749893 -0.007193809393462498
 0.9939339563464132 -0.06028922574665395 0.0049310788115796275 0.02569577062772277 -0.0011039759952756515 -0.007193767981610151 0.0012439146496265208 0.011075845839420052
 0.0012904049287453482 0.011069972770152151 -0.0011039759952756515 -0.007193767981610151 0.004923270197323846 0.025694906742824406 0.9939338977364183 -0.060290731170470076
 -0.0011031546087749893 -0.007193809393462498 0.0012439146496265208 0.011075845839420052 0.9939338977364183 -0.060290731170470076 0.004931545672995753 0.02569424626672581
0.11879949979160001 0.00523650235023101 0.027256075974185976 0.9935226818235863 -0.06375013009585431 0.0014145922510782956 0.01168962221740777 -0.0012077867092836877 -0.00760001592056329
 0.9935226818235863 -0.06375013009585431 0.005244559019260712 0.027255434294297175 -0.0012086993897662045 -0.007599965219209033 0.0013627563997573114 0.01169630795874299
 0.0014145922510782956 0.01168962221740777 -0.0012086993897662045 -0.007599965219209033 0.005235861234777259 0.027254557484789728 0.9935226166924527 -0.06375171975120929
 -0.0012077867092836877 -0.00760001592056329 0.0013627563997573114 0.01169630795874299 0.9935226166924527 -0.06375171975120929 0.005245079803633453 0.02725382425428441
0.1250521050438 0.005561930895449199 0.02882837291717485 0.9930949737089113 -0.0672224646883405 0.0015449436895402537 0.012309317402033912 -0.0013176257761475273 -0.008006443740593318
 0.9930949737089113 -0.0672224646883405 0.0055708558346802654 0.028827665214057947 -0.0013186343194285122 -0.00800638271915313 0.0014874672714724777 0.012316888284861278
 0.0015449436895402537 0.012309317402033912 -0.0013186343194285122 -0.00800638271915313 0.005561220960180454 0.02882678013142991 0.9930949016897482 -0.0672241387001554
 -0.0013176257761475273 -0.008006443740593318 0.0014874672714724777 0.012316888284861278 0.9930949016897482 -0.0672241387001554 0.005571433529512229 0.028825969310123024
0.131304710296 0.005900334198200791 0.030413076563692337 0.9926506325032527 -0.07070611391186721 0.0016815091481980117 0.012928980922330365 -0.0014327224006471608 -0.008413017673412421
 0.9926506325032527 -0.07070611391186721 0.005910171874536618 0.030412298884941163 -0.001433831340583394 -0.008412945257246127 0.0016180966775506931 0.012937512793579173
 0.0016815091481980117 0.012928980922330365 -0.001433831340583394 -0.008412945257246127 0.005899551961564347 0.030411410333319705 0.9926505532245801 -0.07070787241118906
 -0.0014327224006471608 -0.008413017673412421 0.0016180966775506931 0.012937512793579173 0.9926505532245801 -0.07070787241118906 0.005910809474424072 0.030410516922011466
0.1375573155481 0.006167324453753548 0.03180428464242413 0.992274069158672 -0.07399516766922898 0.0018054611293971219 0.013527769763626935 -0.0015343236054613583 -0.008798852432742704
 0.992274069158672 -0.07399516766922898 0.006178123454652713 0.031803451672205565 -0.0015355396632899408 -0.008798768709408716 0.0017359643157116038 0.013537240528911648
 0.0018054611293971219 0.013527769763626935 -0.0015355396632899408 -0.008798768709408716 0.006166466979615918 0.031802545683453975 0.9922739822923263 -0.07399701071963952
 -0.0015343236054613583 -0.008798852432742704 0.0017359643157116038 0.013537240528911648 0.9922739822923263 -0.07399701071963952 0.006178823332164869 0.03180158347297785
0.1438099208003 0.006443469744713521 0.03318932579376577 0.9918847024037356 -0.07727703010116362 0.001934417756817244 0.014124687766581098 -0.00163998790067778 -0.009182993960752022
 0.9918847024037356 -0.07727703010116362 0.0064552752409445515 0.033188434841352664 -0.0016413159543057086 -0.009182897889943531 0.0018585670868004555 0.014135165834907419
 0.001934417756817244 0.014124687766581098 -0.0016413159543057086 -0.009182897889943531 0.006442533658380521 0.03318751497573063 0.9918846075800503 -0.0772789578300115
 -0.00163998790067778 -0.009182993960752022 0.0018585670868004555 0.014135165834907419 0.9918846075800503 -0.0772789578300115 0.006456040287348818 0.03318648021203493
0.1500625260525 0.006728686749730785 0.03456811825192788 0.9914826184290363 -0.08055165382505916 0.002068342284814431 0.014719692794724813 -0.0017496800725788429 -0.009565402769514588
 0.9914826184290363 -0.08055165382505916 0.006741543976743539 0.0345671664789136 -0.0017511249928819882 -0.00956529326944098 0.001985869495047878 0.014731249050194893
 0.002068342284814431 0.014719692794724813 -0.0017511249928819882 -0.00956529326944098 0.006727668688142157 0.03456623647853114 0.9914825152742988 -0.0805536663653549
 -0.0017496800725788429 -0.009565402769514588 0.001985869495047878 0.014731249050194893 0.9914825152742988 -0.0805536663653549 0.006742377082421158 0.034565125217511865
0.15631513130469998 0.007022891720832956 0.035940582917155794 0.9910679036794788 -0.08381899099575148 0.0022071976252072754 0.015312743294574091 -0.0018633645599828287 -0.009946040114676459
