! Created with skrf 1.8.0 (http://scikit-rf.org).
# GHz S RI R 50.0 
!freq ReS11 ImS11 ReS12 ImS12 ReS13 ImS13
! ReS14 ImS14
! ReS21 ImS21 ReS22 ImS22 ReS23 ImS23
! ReS24 ImS24
! ReS31 ImS31 ReS32 ImS32 ReS33 ImS33
! ReS34 ImS34
! ReS41 ImS41 ReS42 ImS42 ReS43 ImS43
! ReS44 ImS44
!
0.0 0.001500664821431 0.0 0.9984993351786 0.0 5.778460703905e-05 0.0 -5.778460721748e-05 7.076573426887392e-21
 0.9984993351786 0.0 0.001500664821426 0.0 -5.778460721647e-05 7.076573426763704e-21 5.778460703962e-05 0.0
 5.778460703905e-05 0.0 -5.778460721647e-05 7.076573426763704e-21 0.001500664801508 0.0 0.9984993351587 0.0
 -5.778460721748e-05 7.076573426887392e-21 5.778460703962e-05 0.0 0.9984993351587 0.0 0.001500664801549 0.0
0.005 0.001614470674903891 0.0012283106457948796 0.9983553912820338 -0.0031435741719981754 8.075409599446173e-05 0.0006335970481055125 -7.850949182180128e-05 -0.0003982510037259982
 0.9983553912820338 -0.0031435741719981754 0.0016144632508023954 0.0012283149509595289 -7.850831433479897e-05 -0.0003982500552782597 8.080201456377948e-05 0.0006335787647150087
 8.075409599446173e-05 0.0006335970481055125 -7.850831433479897e-05 -0.0003982500552782597 0.001614471153913119 0.0012282430643597091 0.9983553909250819 -0.003143641229976269
 -7.850949182180128e-05 -0.0003982510037259982 8.080201456377948e-05 0.0006335787647150087 0.9983553909250819 -0.003143641229976269 0.0016144620674658674 0.0012282484258507784
0.006252605252188 0.001644283784186864 0.0015402226071562157 0.9983174546089711 -0.003930241985120329 8.727986669335297e-05 0.0007923079785882585 -8.434203961725193e-05 -0.0004983299834350054
 0.9983174546089711 -0.003930241985120329 0.0016442721793632075 0.001540228092938295 -8.434020768981712e-05 -0.0004983288130098606 8.735473476367443e-05 0.0007922842474218256
 8.727986669335297e-05 0.0007923079785882585 -8.434020768981712e-05 -0.0004983288130098606 0.0016442846127164487 0.001540138130836585 0.9983174541301738 -0.003930325806298919
 -8.434203961725193e-05 -0.0004983299834350054 8.735473476367443e-05 0.0007922842474218256 0.9983174541301738 -0.003930325806298919 0.0016442704085352507 0.0015401449476580376
0.01250521050438 0.0018010241691229392 0.003112741877330352 0.998116736001036 -0.007861321168977154 0.00012451183915774454 0.001585007421090156 -0.00011733382687828008 -0.000999095463367081
 0.998116736001036 -0.007861321168977154 0.0018009778375912857 0.003112753897186345 -0.0001173266115200847 -0.0009990932877548416 0.00012481038745876998 0.0015849505094820123
 0.00012451183915774454 0.001585007421090156 -0.0001173266115200847 -0.0009990932877548416 0.0018010280370308618 0.003112573157062798 0.9981167346380638 -0.007861488592921828
 -0.00011733382687828008 -0.000999095463367081 0.00012481038745876998 0.0015849505094820123 0.9981167346380638 -0.007861488592921828 0.0018009713125990917 0.00311258796075382
0.01875781575657 0.001971221091312177 0.004707686471566847 0.9978969347703761 -0.011802811834453522 0.0001695666745435659 0.0023786307263802225 -0.0001568598649192691 -0.0015015842281255205
 0.9978969347703761 -0.011802811834453522 0.001971116995123021 0.004707706135467098 -0.00015684378000921316 -0.0015015812423187745 0.0001702373127629032 0.002378529364708543
 0.0001695666745435659 0.0023786307263802225 -0.00015684378000921316 -0.0015015812423187745 0.0019712302255319994 0.004707433637081657 0.9978969321270724 -0.01180306279604283
 -0.0001568598649192691 -0.0015015842281255205 0.0001702373127629032 0.002378529364708543 0.9978969321270724 -0.01180306279604283 0.0019711027496669433 0.004707457707970661
0.02501042100875 0.0021552001951626494 0.006322832790316623 0.9976577968817275 -0.01575663071225954 0.00022253132318848806 0.0031732153487030565 -0.00020301697231290332 -0.0020055736415158765
 0.9976577968817275 -0.01575663071225954 0.002155015350952795 0.006322861262743315 -0.0002029885751305087 -0.00200557007390588 0.00022372250996298903 0.0031730565139539307
 0.00022253132318848806 0.0031732153487030565 -0.0002029885751305087 -0.00200557007390588 0.0021552168252745875 0.006322495952272348 0.9976577925529442 -0.015756965217299856
 -0.00020301697231290332 -0.0020055736415158765 0.00022372250996298903 0.0031730565139539307 0.9976577925529442 -0.015756965217299856 0.002154990415942207 0.006322530671828687
0.03126302626094 0.0023532736448822213 0.007957039850313824 0.9973990550783897 -0.019723602068733664 0.00028349309701757014 0.003968726248138714 -0.0002558993347224253 -0.0025109082451884733
 0.9973990550783897 -0.019723602068733664 0.002352985111341588 0.007957078348686397 -0.000255855218533139 -0.002510904357987161 0.0002853534806722441 0.003968495154343018
 0.00028349309701757014 0.003968726248138714 -0.000255855218533139 -0.002510904357987161 0.0023533000142171244 0.007956619130651075 0.9973990486588185 -0.019724020163795875
 -0.0002558993347224253 -0.0025109082451884733 0.0002853534806722441 0.003968495154343018 0.9973990486588185 -0.019724020163795875 0.0023529465241303657 0.007956665980124004
0.037515631513130004 0.0025657469174479282 0.009609566209910004 0.9971204358818819 -0.02370414071932899 0.0003525388887016158 0.004765099791119071 -0.00031559918155025667 -0.003017455863053332
 0.9971204358818819 -0.02370414071932899 0.002565331787091084 0.0096096160036466 -0.0003155359718043541 -0.0030174519523865078 0.0003552173716327843 0.004764779871875168
 0.0003525388887016158 0.004765099791119071 -0.0003155359718043541 -0.0030174519523865078 0.002565785280067169 0.009609061752450401 0.9971204269599243 -0.023704642481140053
 -0.00031559918155025667 -0.003017455863053332 0.0003552173716327843 0.004764779871875168 0.9971204269599243 -0.023704642481140053 0.002565276587541677 0.009609122312566235
0.043768236765320004 0.002792921421497707 0.011279862104738267 0.996821662415178 -0.027698459823284647 0.0004297548067531166 0.005562257089485018 -0.00038220702460707074 -0.0035250942628361507
 0.996821662415178 -0.027698459823284647 0.002792356814072717 0.01127992451462021 -0.00038212137663096456 -0.0035250906587600745 0.0004334005769012343 0.0055618299779878365
 0.0004297548067531166 0.005562257089485018 -0.00038212137663096456 -0.0035250906587600745 0.0027929740439821805 0.011279274076858534 0.9968216505739206 -0.02769904535701261
 -0.00038220702460707074 -0.0035250942628361507 0.0004334005769012343 0.0055618299779878365 0.9968216505739206 -0.02769904535701261 0.002792282046221381 0.011279350027826254
0.050020842017509996 0.003035095714791803 0.01296748354163089 0.9965024558294324 -0.03170665671831343 0.0005152259515186863 0.006360109516783501 -0.0004558117466122087 -0.004033705640991455
 0.9965024558294324 -0.03170665671831343 0.0030343587716671456 0.012967559939323164 -0.0004557003441680246 -0.004033702707463394 0.0005199884966030553 0.00635955502484132
 0.0005152259515186863 0.006360109516783501 -0.0004557003441680246 -0.004033702707463394 0.0030351648781775926 0.012966812132745005 0.996502440645475 -0.03170732615905477
 -0.0004558117466122087 -0.004033705640991455 0.0005199884966030553 0.00635955502484132 0.996502440645475 -0.03170732615905477 0.003034261485105743 0.012966905254505084
0.055454545454549996 0.003257964377498704 0.014447851611095866 0.9962082440135813 -0.03520119145491393 0.0005962724379089309 0.007053957831651062 -0.0005255266224458049 -0.00447640435574704
 0.9962082440135813 -0.03520119145491393 0.0032570591178825935 0.014447941317863216 -0.0005253901666736754 -0.004476402326826197 0.0006021271321521092 0.007053274816229715
 0.0005962724379089309 0.007053957831651062 -0.0005253901666736754 -0.004476402326826197 0.003258049779506262 0.014447107912560488 0.9962082255755117 -0.03520193394614282
 -0.0005255266224458049 -0.00447640435574704 0.0006021271321521092 0.007053274816229715 0.9962082255755117 -0.03520193394614282 0.00325693987084239 0.014447217479604849
0.056273447269699996 0.0032925661340933777 0.014672050135757314 0.9961625361435797 -0.03572875501300576 0.0006090362561397721 0.0071585614100866035 -0.0005365006198837999 -0.00454317392433246
 0.9961625361435797 -0.03572875501300576 0.0032916340125231885 0.014672141943517347 -0.000536360174099517 -0.004543172059177647 0.0006150653672304805 0.00715785750664655
 0.0006090362561397721 0.0071585614100866035 -0.000536360174099517 -0.004543172059177647 0.003292654134762757 0.014671295555864184 0.9961625171869514 -0.03572950852702798
 -0.0005365006198837999 -0.00454317392433246 0.0006150653672304805 0.00715785750664655 0.9961625171869514 -0.03572950852702798 0.0032915112637811597 0.014671407728550905
0.06252605252188 0.003565627132898375 0.016393221914601862 0.9958016227976352 -0.03976472771457915 0.0007112683575977923 0.007957511560575335 -0.0006243592910973674 -0.005053383285896849
 0.9958016227976352 -0.03976472771457915 0.003564477001558469 0.016393330605050573 -0.0006241865397996749 -0.005053382920763114 0.0007187141261533368 0.007956634350055483
 0.0007112683575977923 0.007957511560575335 -0.0006241865397996749 -0.005053382920763114 0.0035657362821794715 0.016392384402881086 0.9958015996292839 -0.039765565490614795
 -0.0006243592910973674 -0.005053383285896849 0.0007187141261533368 0.007956634350055483 0.9958015996292839 -0.039765565490614795 0.003564325853552096 0.016392517607351397
0.06877865777407 0.003854571459226727 0.018130685509770827 0.995419435047955 -0.04381451097206474 0.0008220034870795494 0.008756854098941893 -0.0007194717445242859 -0.005564217269456988
 0.995419435047955 -0.04381451097206474 0.0038531804929420772 0.018130812605921014 -0.0007192634517332031 -0.005564218869766601 0.0008310162966790228 0.008755777799497606
 0.0008220034870795494 0.008756854098941893 -0.0007192634517332031 -0.005564218869766601 0.003854704086254879 0.018129765326972802 0.9954194072204111 -0.0438154332286614
 -0.0007194717445242859 -0.005564217269456988 0.0008310162966790228 0.008755777799497606 0.9954194072204111 -0.0438154332286614 0.0038529980180182916 0.01812992164555665
0.07503126302626001 0.00415969024378892 0.019884145387162676 0.9950156922771914 -0.04787801278472208 0.0009413213688685482 0.00955647906372384 -0.0008219202541204547 -0.006075558234828164
 0.9950156922771914 -0.04787801278472208 0.00415803561899319 0.019884292462497264 -0.0008216732096691727 -0.006075562299725657 0.0009520518836933725 0.009555175985561113
 0.0009413213688685482 0.00955647906372384 -0.0008216732096691727 -0.006075562299725657 0.0041598486949999194 0.01988314282034721 0.9950156593327647 -0.04787901976537314
 -0.0008219202541204547 -0.006075558234828164 0.0009520518836933725 0.009555175985561113 0.9950156593327647 -0.04787901976537314 0.004157818898884032 0.0198833244377064
0.08128386827845 0.004481273026295421 0.021653318021057653 0.9945901142454082 -0.051955118770820284 0.0010693001263392375 0.010356272780702332 -0.0009317853268520364 -0.006587286996105961
 0.9945901142454082 -0.051955118770820284 0.004479331916236094 0.02165348669974517 -0.0009314963461479079 -0.006587294058395889 0.0010818992766429686 0.010354713304486375
 0.0010693001263392375 0.010356272780702332 -0.0009314963461479079 -0.006587294058395889 0.004481459666771811 0.02165223337864631 0.9945900757152956 -0.05195621074843931
 -0.0009317853268520364 -0.006587286996105961 0.0010818992766429686 0.010354713304486375 0.9945900757152956 -0.05195621074843931 0.004479078043700684 0.0216524425827753
0.08753647353064001 0.004819607744263498 0.02343792785685615 0.9941424213073772 -0.0560456961519601 0.0012060161916453269 0.01115611813063575 -0.0010491456405815748 -0.007099282575686042
 0.9941424213073772 -0.0560456961519601 0.004817357314391095 0.023438119814182957 -0.0010488115644733866 -0.007099293201781587 0.0012206351569326189 0.011154270686069376
 0.0012060161916453269 0.01115611813063575 -0.0010488115644733866 -0.007099293201781587 0.004819824958706268 0.023436761471352586 0.9941423767108917 -0.05604687342594792
 -0.0010491456405815748 -0.007099282575686042 0.0012206351569326189 0.011154270686069376 0.9941423767108917 -0.05604687342594792 0.004817063394271078 0.023437000654764333
0.09378907878283 0.00517498069379168 0.02523770443230597 0.993672334605014 -0.06014959658382842 0.0013515442182468714 0.011955894744381848 -0.0011740779776315733 -0.007611422035206077
 0.993672334605014 -0.06014959658382842 0.005172398096703825 0.025237921395195113 -0.0011736956722759931 -0.007611436825057786 0.0013683344085735965 0.01195372578898494
 0.0013515442182468714 0.011955894744381848 -0.0011736956722759931 -0.007611436825057786 0.005175230887454207 0.025236456663845344 0.993672283448536 -0.06015085947603066
 -0.0011740779776315733 -0.007611422035206077 0.0013683344085735965 0.01195372578898494 0.993672283448536 -0.06015085947603066 0.005172061247608985 0.025236728324885088
0.100041684035 0.005547676472212726 0.027052380271303612 0.9931795762451753 -0.06426665821910793 0.001505956994745518 0.01275547915124871 -0.0013066571556297755 -0.008123580357730217
 0.9931795762451753 -0.06426665821910793 0.005544738843439767 0.027052624019021258 -0.0013062235124584537 -0.008123599944765582 0.0015250700305148187 0.012752953149346135
 0.001505956994745518 0.01275547915124871 -0.0013062235124584537 -0.008123599944765582 0.005547962071770453 0.02705105150039406 0.9931795180211763 -0.0642680070807059
 -0.0013066571556297755 -0.008123580357730217 0.0015250700305148187 0.012752953149346135 0.9931795180211763 -0.0642680070807059 0.0055443561989086156 0.027051358244661566
0.1059090909091 0.005913418816681689 0.028768574754179398 0.9926963086121683 -0.0681418992023031 0.001659000718846863 0.013505516896281985 -0.0014380882301928868 -0.008604090516871839
 0.9926963086121683 -0.0681418992023031 0.005910127213416377 0.0287688453022348 -0.001437603607226197 -0.008604115211409951 0.0016804315639864101 0.013502621731047363
 0.001659000718846863 0.013505516896281985 -0.001437603607226197 -0.008604115211409951 0.005913739867829491 0.028767170339117444 0.992696243281261 -0.06814332907824519
 -0.0014380882301928868 -0.008604090516871839 0.0016804315639864101 0.013502621731047363 0.992696243281261 -0.06814332907824519 0.005909699002247776 0.02876751247204753
0.1062942892872 0.005937977905587998 0.02888168928999327 0.9926638694644659 -0.06839670726339941 0.0016693253603347748 0.013554744897597176 -0.0014469559557463675 -0.008635630364202802
 0.9926638694644659 -0.06839670726339941 0.005934662358256793 0.028881961655008656 -0.0014464678914626688 -0.008635655415254063 0.0016909130504855587 0.013551824299562995
 0.0016693253603347748 0.013554744897597176 -0.0014464678914626688 -0.008635655415254063 0.005938301360083411 0.02888027992150731 0.9926638036505725 -0.06839814247033196
 -0.0014469559557463675 -0.008635630364202802 0.0016909130504855587 0.013551824299562995 0.9926638036505725 -0.06839814247033196 0.0059342310681455455 0.028880624463536973
0.11254689453939999 0.006346165965085307 0.030725365590631323 0.9921249387877801 -0.07253955914855612 0.0018417181207499157 0.014353562642201612 -0.0015950450492629878 -0.009147442657773857
 0.9921249387877801 -0.07253955914855612 0.006342449585566467 0.03072566845964573 -0.0015944995058757782 -0.00914747387300444 0.0018659324398086028 0.01435020786406971
 0.0018417181207499157 0.014353562642201612 -0.0015944995058757782 -0.00914747387300444 0.0063465297469244815 0.030723876051266356 0.9921248648457449 -0.07254108110354861
 -0.0015950450492629878 -0.009147442657773857 0.0018659324398086028 0.01435020786406971 0.9921248648457449 -0.07254108110354861 0.006341966817563573 0.030724261216269907
0.11879949979160001 0.006772519675591732 0.03258314251467808 0.9915625101795791 -0.07669501945236547 0.0020232019649094705 0.01515180023757715 -0.001750992922696703 -0.009658885587068029
 0.9915625101795791 -0.07669501945236547 0.0067683795182387554 0.032583477829837545 -0.001750386867544962 -0.009658923699895225 0.0020501950288172553 0.015147969640842111
 0.0020232019649094705 0.01515180023757715 -0.001750386867544962 -0.009658923699895225 0.006772926281265302 0.03258157325267079 0.9915624275544827 -0.07669662858464188
 -0.001750992922696703 -0.009658885587068029 0.0020501950288172553 0.015147969640842111 0.9915624275544827 -0.07669662858464188 0.006767842459361545 0.03258200197852051
0.1250521050438 0.007217316016250575 0.034454751897447254 0.990976311192432 -0.08086288462243313 0.0022138413819756866 0.015949322801808254 -0.0019148658016985211 -0.01016982522369126
 0.990976311192432 -0.08086288462243313 0.007212729098959065 0.034455121657644854 -0.0019141962275858965 -0.010169871000700274 0.0022437654229401026 0.01594497267365992
 0.0022138413819756866 0.015949322801808254 -0.0019141962275858965 -0.010169871000700274 0.007217767967642833 0.034453103384600454 0.9909762193110888 -0.08086458138485791
 -0.0019148658016985211 -0.01016982522369126 0.0022437654229401026 0.01594497267365992 0.9909762193110888 -0.08086458138485791 0.007212134957045377 0.03445357872393874
0.131304710296 0.0076808298168691575 0.036339923479237236 0.9903660711114947 -0.08504294254914993 0.0024136985786789764 0.016745992782510367 -0.002086727574197914 -0.010680125352641796
 0.9903660711114947 -0.08504294254914993 0.007675773116037417 0.036340329741723826 -0.002085991499490624 -0.010680179593519221 0.002446705919017809 0.016741077316374406
 0.0024136985786789764 0.016745992782510367 -0.002085991499490624 -0.010680179593519221 0.007681329661882346 0.03633819620650275 0.9903659693821418 -0.08504472742209829
 -0.002086727574197914 -0.010680125352641796 0.002446705919017809 0.016741077316374406 0.9903659693821418 -0.08504472742209829 0.007675119120991189 0.03633872132904485
0.1375573155481 0.008056173603854758 0.0379927547730195 0.989838722556369 -0.08898923019200776 0.002597128585985805 0.017517024554073824 -0.0022409010785658795 -0.011165043861707385
 0.989838722556369 -0.08898923019200776 0.008050621553985709 0.03799318952834543 -0.002240093962508245 -0.011165106611755028 0.002633296851697045 0.017511551309013017
 0.002597128585985805 0.017517024554073824 -0.002240093962508245 -0.011165106611755028 0.008056722998012212 0.03799094935375897 0.9898386105188999 -0.08899110347556236
 -0.0022409010785658795 -0.011165043861707385 0.002633296851697045 0.017511551309013017 0.9898386105188999 -0.08899110347556236 0.008049905600677896 0.03799151685422959
0.1438099208003 0.008444702870147746 0.039637046245607724 0.9892928810656764 -0.09292567806253811 0.002787958393938193 0.01828504738655397 -0.0024012429400911504 -0.011647178107989781
 0.9892928810656764 -0.09292567806253811 0.008438631987581128 0.03963751090275421 -0.002400361557193912 -0.011647250155193519 0.0028274265316688154 0.01827897448805773
 0.002787958393938193 0.01828504738655397 -0.002400361557193912 -0.011647250155193519 0.008445304238269174 0.039635163233493725 0.9892927581275762 -0.0929276402295559
 -0.0024012429400911504 -0.011647178107989781 0.0028274265316688154 0.01827897448805773 0.9892927581275762 -0.0929276402295559 0.008437851457858633 0.039635775611339456
0.1500625260525 0.008846283379169735 0.04127266521680535 0.9887286848843934 -0.09685219317926376 0.002986123182454265 0.019049986725435182 -0.002567689631366916 -0.012126456533537595
 0.9887286848843934 -0.09685219317926376 0.00883967012250095 0.04127316127248371 -0.002566730761938177 -0.01212653869759326 0.003029029359809302 0.019043270765940562
 0.002986123182454265 0.019049986725435182 -0.002566730761938177 -0.01212653869759326 0.008846939161208761 0.04127070518670665 0.9887285504368488 -0.0968542447214082
 -0.002567689631366916 -0.012126456533537595 0.003029029359809302 0.019043270765940562 0.9887285504368488 -0.0968542447214082 0.008838822427297268 0.041271365072117795
0.15631513130469998 0.0092607799717002 0.04289948302724108 0.988146272928688 -0.10076868279326094 0.003191557380030972 0.019811769263998007 -0.0027401768555466235 -0.012602809074499809
 0.988146272928688 -0.10076868279326094 0.009253600739570732 0.04290001206841451 -0.0027391372857565274 -0.012602902206708093 0.0032380389742147886 0.01980436531804627
