! Created with skrf 1.8.0 (http://scikit-rf.org).
# GHz S RI R 50.0 
!freq ReS11 ImS11 ReS12 ImS12 ReS13 ImS13
! ReS14 ImS14
! ReS21 ImS21 ReS22 ImS22 ReS23 ImS23
! ReS24 ImS24
! ReS31 ImS31 ReS32 ImS32 ReS33 ImS33
! ReS34 ImS34
! ReS41 ImS41 ReS42 ImS42 ReS43 ImS43
! ReS44 ImS44
!
0.0 0.001561827918533 0.0 0.9984381720651 0.0 5.996088189077e-05 0.0 -5.996088198534e-05 7.343090219739883e-21
 0.9984381720651 0.0 0.001561827918531 0.0 -5.996088198507e-05 7.343090219706817e-21 5.996088189087e-05 0.0
 5.996088189077e-05 0.0 -5.996088198507e-05 7.343090219706817e-21 0.001561827926695 0.0 0.9984381720733 0.0
 -5.996088198534e-05 7.343090219739883e-21 5.996088189087e-05 0.0 0.9984381720733 0.0 0.001561827926706 0.0
0.005 0.0016803788216881753 0.0012834722670965071 0.9982882054016256 -0.003271257431909001 8.313300740278125e-05 0.0006254818180598374 -8.095191290596522e-05 -0.0003987397243060377
 0.9982882054016256 -0.003271257431909001 0.0016803924540806047 0.0012834642618243125 -8.09521259383812e-05 -0.0003987398215428507 8.30585940553473e-05 0.0006255102773905877
 8.313300740278125e-05 0.0006254818180598374 -8.09521259383812e-05 -0.0003987398215428507 0.001680379419377979 0.0012835391297890324 0.998288205759362 -0.00327119037459319
 -8.095191290596522e-05 -0.0003987397243060377 8.30585940553473e-05 0.0006255102773905877 0.998288205759362 -0.00327119037459319 0.0016803925676589578 0.0012835315107212798
0.006252605252188 0.0017114832564185279 0.0016093601975341858 0.9982486110458164 -0.004089866939467256 8.975289359102387e-05 0.0007821710782759132 -8.687522371472201e-05 -0.0004989312554988405
 0.9982486110458164 -0.004089866939467256 0.0017115045662808408 0.001609349989500902 -8.687555572549767e-05 -0.0004989313739550819 8.963663116081226e-05 0.0007822080130844492
 8.975289359102387e-05 0.0007821710782759132 -8.687555572549767e-05 -0.0004989313739550819 0.0017114841265892125 0.0016094437639013498 0.9982486115406191 -0.004089783121721727
 -8.687522371472201e-05 -0.0004989312554988405 8.963663116081226e-05 0.0007822080130844492 0.9982486115406191 -0.004089783121721727 0.001711504678878796 0.001609434051622063
0.01250521050438 0.00187529438108002 0.0032521968887786424 0.9980387182554094 -0.008180488352137324 0.00012771521464145154 0.0015648012752774519 -0.00012046575461163204 -0.001000238993756429
 0.9980387182554094 -0.008180488352137324 0.0018753794746234637 0.0032521744204530066 -0.00012046706947490642 -0.0010002391959603439 0.00012725163252110837 0.0015648898528574607
 0.00012771521464145154 0.0015648012752774519 -0.00012046706947490642 -0.0010002391959603439 0.001875297271637351 0.0032523636905700563 0.998038719640902 -0.00818032095196006
 -0.00012046575461163204 -0.001000238993756429 0.00012725163252110837 0.0015648898528574607 0.998038719640902 -0.00818032095196006 0.0018753793242741593 0.0032523423515635175
0.01875781575657 0.0020536221373006268 0.004918234944991177 0.9978082303986301 -0.012281809771776146 0.0001739368590326856 0.0023483708683111927 -0.0001608354946939304 -0.001503247717823471
 0.9978082303986301 -0.012281809771776146 0.0020538133534815993 0.004918197980525743 -0.0001608384358102003 -0.0015032479599727166 0.00017289558084980364 0.002348528732920491
 0.0001739368590326856 0.0023483708683111927 -0.0001608384358102003 -0.0015032479599727166 0.002053628221097282 0.00491848475715815 0.9978082330891364 -0.012281558880472908
 -0.0001608354946939304 -0.001503247717823471 0.00017289558084980364 0.002348528732920491 0.9978082330891364 -0.012281558880472908 0.002053812573194309 0.004918449715636723
0.02501042100875 0.002246816535284659 0.006605151471752388 0.9975568736583087 -0.016395813547381462 0.00022850803654195876 0.003132898982655805 -0.00020808428751117216 -0.0020077374114630666
 0.9975568736583087 -0.016395813547381462 0.002247156130259305 0.006605097603504264 -0.00020808949346690415 -0.002007737640176265 0.00022665866722770296 0.003133146607236548
 0.00022850803654195876 0.003132898982655805 -0.00020808949346690415 -0.002007737640176265 0.0022468269840978405 0.006605484081384106 0.9975568780634346 -0.016395479205712743
 -0.00020808428751117216 -0.0020077374114630666 0.00022665866722770296 0.003133146607236548 0.9975568780634346 -0.016395479205712743 0.0022471543373944244 0.006605433112210784
0.03126302626094 0.002455213146448721 0.008311748991079464 0.9972843603427457 -0.020523345634440155 0.0002915193033868077 0.003918336880202198 -0.00026230924938527183 -0.0025135502077003264
 0.9972843603427457 -0.020523345634440155 0.0024557433144802485 0.008311675641292593 -0.0002623173547343233 -0.0025135503599097234 0.00028863121496037195 0.0039186975804243376
 0.0002915193033868077 0.003918336880202198 -0.0002623173547343233 -0.0025135503599097234 0.0024552291350861777 0.00831216416550053 0.997284366872311 -0.02052292786419425
 -0.00026230924938527183 -0.0025135502077003264 0.00028863121496037195 0.0039186975804243376 0.997284366872311 -0.02052292786419425 0.00245574011524416 0.008312094896139325
0.037515631513130004 0.002679140279908721 0.010037245125000753 0.9969903962921973 -0.02466482584840487 0.00036306070408837924 0.00470460880873762 -0.00032360541150449224 -0.00302054953829062
 0.9969903962921973 -0.02466482584840487 0.0026799031665837103 0.010037149546200452 -0.0003236170471285384 -0.0030205495411608227 0.00035890294134824716 0.004705108769555545
 0.00036306070408837924 0.00470460880873762 -0.0003236170471285384 -0.0030205495411608227 0.002679162987446139 0.01003774261292003 0.99699040535842 -0.024664324650816458
 -0.00032360541150449224 -0.00302054953829062 0.00035890294134824716 0.004705108769555545 0.99699040535842 -0.024664324650816458 0.0026798981575497337 0.010037652524275149
0.043768236765320004 0.0029189217556922684 0.011781056442675004 0.9966746838851034 -0.028820463944762 0.0004432213663674846 0.00549162442145662 -0.0003920659417694605 -0.0035286077158348398
 0.9966746838851034 -0.028820463944762 0.0029199594676437754 0.011780935717706867 -0.0003920817349913688 -0.003528607486715038 0.0004375626038922519 0.00549229272753605
 0.0004432213663674846 0.00549162442145662 -0.0003920817349913688 -0.003528607486715038 0.0029189523618686768 0.011781635968774422 0.9966746958997764 -0.028819879305630968
 -0.0003920659417694605 -0.0035286077158348398 0.0004375626038922519 0.00549229272753605 0.9966746958997764 -0.028819879305630968 0.0029199522329992904 0.011781522395427537
0.050020842017509996 0.003174878187906462 0.013542709127454852 0.9963369235581867 -0.03299034887738793 0.0005320892512288621 0.006279283916413534 -0.00046778222151365787 -0.004037600798806752
 0.9963369235581867 -0.03299034887738793 0.003176232801313737 0.013542560169083062 -0.00046780279613136663 -0.004037600245163147 0.0005246977777032708 0.006280152584103937
 0.0005320892512288621 0.006279283916413534 -0.00046780279613136663 -0.004037600245163147 0.003174917875467296 0.013543370388050636 0.9963369389363677 -0.03298968077096899
 -0.00046778222151365787 -0.004037600798806752 0.0005246977777032708 0.006280152584103937 0.9963369389363677 -0.03298968077096899 0.003176222915824337 0.013543230518383097
0.055454545454549996 0.0034106952106144695 0.015087809982102646 0.996025260542318 -0.0366256861225775 0.000616456772402621 0.006964224035569266 -0.0005395441539546633 -0.004480595172971629
 0.996025260542318 -0.0366256861225775 0.003412359374075176 0.015087633848298207 -0.0005395693876470926 -0.004480594254449417 0.0006073710432041204 0.006965295126173378
 0.000616456772402621 0.006964224035569266 -0.0005395693876470926 -0.004480594254449417 0.003410743751625388 0.015088542000267317 0.9960252791822883 -0.036624945453962124
 -0.0005395441539546633 -0.004480595172971629 0.0006073710432041204 0.006965295126173378 0.9960252791822883 -0.036624945453962124 0.0034123468309392143 0.015088376881152924
0.056273447269699996 0.0034473276431813246 0.015321795124791314 0.995976814706295 -0.03717449257707382 0.0006297509752678589 0.007067480545235212 -0.000550843853550575 -0.004547406090756984
 0.995976814706295 -0.03717449257707382 0.0034490412113025565 0.015321614675111997 -0.0005508698298651044 -0.004547405110127492 0.0006203946941561554 0.0070685845551601584
 0.0006297509752678589 0.007067480545235212 -0.0005508698298651044 -0.004547405110127492 0.003447377596118377 0.015322537784281321 0.9959768338654235 -0.037173740969326144
 -0.000550843853550575 -0.004547406090756984 0.0006203946941561554 0.0070685845551601584 0.9959768338654235 -0.037173740969326144 0.0034490282388086875 0.015322368660175473
0.06252605252188 0.003736585992195077 0.017117948033805713 0.9955940562791333 -0.04137285398947416 0.000736291666787548 0.007856102011796536 -0.0006413386372328491 -0.005057900753427328
 0.9955940562791333 -0.04137285398947416 0.003738700552345844 0.01711773266333023 -0.0006413706319600336 -0.005057899233373255 0.0007247381081169971 0.007857479341628565
 0.000736291666787548 0.007856102011796536 -0.0006413706319600336 -0.005057899233373255 0.003736647395279486 0.017118771731793814 0.9955940796395211 -0.041372018830520156
 -0.0006413386372328491 -0.005057900753427328 0.0007247381081169971 0.007857479341628565 0.9955940796395211 -0.041372018830520156 0.003738684046221011 0.01711857024813767
0.06877865777407 0.004042967090888394 0.018930828744121064 0.9951883472118547 -0.045585353371373705 0.0008517948416025064 0.008645031294595375 -0.000739352523837875 -0.005568961000365855
 0.9951883472118547 -0.045585353371373705 0.004045524670664452 0.01893057485082985 -0.0007393911500276101 -0.005568958818428326 0.0008378111811474794 0.008646722951818593
 0.0008517948416025064 0.008645031294595375 -0.0007393911500276101 -0.005568958818428326 0.004043041129135164 0.01893173308965627 0.9951883751973314 -0.045584434601029955
 -0.000739352523837875 -0.005568961000365855 0.0008378111811474794 0.008646722951818593 0.9951883751973314 -0.045584434601029955 0.004045504173858397 0.01893149599364949
0.07503126302626001 0.004366782864137796 0.02076011631734091 0.9947593867620899 -0.04981188134707062 0.0009763422908674013 0.009434147181083046 -0.0008449695589063916 -0.006080461583084465
 0.9947593867620899 -0.04981188134707062 0.004369825487894306 0.020759820125289822 -0.000845015425796977 -0.006080458606748014 0.0009596953755245433 0.00943619723549512
 0.0009763422908674013 0.009434147181083046 -0.000845015425796977 -0.006080458606748014 0.004366870721596427 0.020761100883789307 0.9947594198001666 -0.049810878899669335
 -0.0008449695589063916 -0.006080461583084465 0.0009596953755245433 0.00943619723549512 0.9947594198001666 -0.049810878899669335 0.004369800532744247 0.02076082477391452
0.08128386827845 0.00470834332587835 0.02260550192459997 0.9943068747877366 -0.054052304913284194 0.001110013974922534 0.010223324626030759 -0.0009582718179374437 -0.0065922754578310065
 0.9943068747877366 -0.054052304913284194 0.004711913020931056 0.022605159482448435 -0.0009583255308998982 -0.006592271544484692 0.0010904703522625254 0.010225780241946808
 0.001110013974922534 0.010223324626030759 -0.0009583255308998982 -0.006592271544484692 0.004708446185212373 0.022606566261375343 0.994306913309977 -0.054051218705642425
 -0.0009582718179374437 -0.0065922754578310065 0.0010904703522625254 0.010225780241946808 0.994306913309977 -0.054051218705642425 0.00471188312882631 0.022606247586279524
0.08753647353064001 0.005067956557267842 0.024466684659101876 0.9938305119860733 -0.05830647157469552 0.0012528879228245408 0.011012435004108654 -0.0010793393351955511 -0.00710427356300665
 0.9938305119860733 -0.05830647157469552 0.005072095360130504 0.02446629183829804 -0.0010794014955725771 -0.007104268559918002 0.00123021387455464 0.011015346472136483
 0.0012528879228245408 0.011012435004108654 -0.0010794014955725771 -0.007104268559918002 0.00506807559918123 0.024467828280576177 0.9938305564286808 -0.05830530151702679
 -0.0010793393351955511 -0.00710427356300665 0.00123021387455464 0.011015346472136483 0.9938305564286808 -0.05830530151702679 0.00507206004190241 0.02446746333751052
0.09378907878283 0.005445928657611808 0.026343368545681558 0.9933300001095793 -0.06257421228787181 0.0014050401341014018 0.011801346296155793 -0.001208250029411794 -0.007616324667894297
 0.9933300001095793 -0.06257421228787181 0.005450678619683324 0.026342921038519044 -0.0012083212343059143 -0.00761631841218453 0.0013790017125774978 0.011804767064503377
 0.0014050401341014018 0.011801346296155793 -0.0012083212343059143 -0.00761631841218453 0.005446065059401629 0.026344590931792897 0.9933300509134917 -0.06257295828287733
 -0.001208250029411794 -0.007616324667894297 0.0013790017125774978 0.011804767064503377 0.9933300509134917 -0.06257295828287733 0.00545063737539664 0.026344175865009083
0.100041684035 0.005842563672522066 0.028235260336604215 0.9928050421625557 -0.06685534362485115 0.0015665444828172749 0.01258992323731029 -0.0013450796261610743 -0.008128295264704048
 0.9928050421625557 -0.06685534362485115 0.00584796686647726 0.028234753653909744 -0.0013451604683974512 -0.00812828758331676 0.0015369075500938946 0.012593909942493663
 0.0015665444828172749 0.01258992323731029 -0.0013451604683974512 -0.00812828758331676 0.005842718607848677 0.02823656094147471 0.9928050997741882 -0.06685400555897088
 -0.0013450796261610743 -0.008128295264704048 0.0015369075500938946 0.012593909942493663 0.9928050997741882 -0.06685400555897088 0.005847919184856492 0.028236091740184627
0.1059090909091 0.006232006246024546 0.030024171287444706 0.992289928077312 -0.0708847353165545 0.0017266687087265666 0.013329491726689879 -0.0014807473062653388 -0.008608531162776264
 0.992289928077312 -0.0708847353165545 0.006238060717240826 0.03002360482815833 -0.0014808377272320437 -0.008608521977077545 0.0016934418759021793 0.013334063880519016
 0.0017266687087265666 0.013329491726689879 -0.0014808377272320437 -0.008608521977077545 0.0062321796365191985 0.03002554476232367 0.9922899924883974 -0.07088331826109136
 -0.0014807473062653388 -0.008608531162776264 0.0016934418759021793 0.013334063880519016 0.9922899924883974 -0.07088331826109136 0.006238006520689595 0.03002502097372231
0.1062942892872 0.006258163508256236 0.030142067878007713 0.9922553425876288 -0.07114966937219287 0.001737472623104877 0.013378027429815203 -0.0014899015780761823 -0.008640049501160518
 0.9922553425876288 -0.07114966937219287 0.006264262033578769 0.030141497346708804 -0.0014899926459127797 -0.00864004021085807 0.001704002892341413 0.01338263992686604
 0.001737472623104877 0.013378027429815203 -0.0014899926459127797 -0.00864004021085807 0.006258338146171801 0.030143446118407843 0.992255407459064 -0.07114824712700517
 -0.0014899015780761823 -0.008640049501160518 0.001704002892341413 0.01338263992686604 0.992255407459064 -0.07114824712700517 0.006264207393027614 0.03014291861454918
0.11254689453939999 0.006693027833667661 0.032063498843328944 0.9916806074423267 -0.07545698176954323 0.0019178938955920284 0.014165517439904903 -0.001642786983141374 -0.009151449134446207
 0.9916806074423267 -0.07545698176954323 0.006699863822979803 0.032062859603631574 -0.0016428888601806287 -0.00915143804178916 0.0018803569746949874 0.01417081883182728
 0.0019178938955920284 0.014165517439904903 -0.0016428888601806287 -0.00915143804178916 0.00669322333785017 0.03206495410425872 0.9916806800321635 -0.0754554752160211
 -0.001642786983141374 -0.009151449134446207 0.0018803569746949874 0.01417081883182728 0.9916806800321635 -0.0754554752160211 0.006699801690704756 0.032064363970020784
0.11879949979160001 0.007147453973144922 0.03399925975754889 0.9910805445709591 -0.07977706246364685 0.0021078752346418623 0.014952248882522227 -0.00180380450193442 -0.009662353502855513
 0.9910805445709591 -0.07977706246364685 0.007155069598185642 0.03399854675987439 -0.0018039177669467066 -0.00966234040419355 0.0020660366716212914 0.014958305549111373
 0.0021078752346418623 0.014952248882522227 -0.0018039177669467066 -0.00966234040419355 0.007147671500726005 0.0340007913925802 0.9910806253437598 -0.07977547146167975
 -0.00180380450193442 -0.009662353502855513 0.0020660366716212914 0.014958305549111373 0.9910806253437598 -0.07977547146167975 0.007154999429939841 0.03400013413756857
0.1250521050438 0.0076217367920387085 0.035949055229605655 0.9904548637706877 -0.08410968326105682 0.0023074810763167183 0.015738074494975288 -0.0019730202735261902 -0.010172619513996827
 0.9904548637706877 -0.08410968326105682 0.007630174269352789 0.03594826323132462 -0.0019731455001855357 -0.010172604195476862 0.0022611064064187478 0.01574495612090718
 0.0023074810763167183 0.015738074494975288 -0.0019731455001855357 -0.010172604195476862 0.007621977493060207 0.03595066256051916 0.9904549531986695 -0.08410800765986357
 -0.0019730202735261902 -0.010172619513996827 0.0022611064064187478 0.01574495612090718 0.9904549531986695 -0.08410800765986357 0.00763009551020671 0.035949933528672325
0.131304710296 0.00811616857635526 0.03791258733903918 0.9898032769560936 -0.08845460673362991 0.002516773266674244 0.01652284420595426 -0.0021504978307201805 -0.010682101643502393
 0.9898032769560936 -0.08845460673362991 0.008125470173525766 0.037911710900853005 -0.0021506355875639395 -0.010682083881063563 0.002465628061131556 0.016530623808092997
 0.002516773266674244 0.01652284420595426 -0.0021506355875639395 -0.010682083881063563 0.008116433593082882 0.0379142696516928 0.9898033755184896 -0.0884528463757262
 -0.0021504978307201805 -0.010682101643502393 0.002465628061131556 0.016530623808092997 0.9898033755184896 -0.0884528463757262 0.00812538225706088 0.037913464017921956
0.1375573155481 0.008518185351274696 0.03963525853589192 0.9892383963698789 -0.09255717871893351 0.002709644617193515 0.017281547689872463 -0.002310190841811717 -0.011165765026585476
 0.9892383963698789 -0.09255717871893351 0.008528395532322484 0.03963431117667364 -0.0023103417796534287 -0.011165744789548534 0.0026536070960126983 0.01729021512192953
 0.002709644617193515 0.017281547689872463 -0.0023103417796534287 -0.011165744789548534 0.008518474954627432 0.03963701563381075 0.9892385044845561 -0.09255533353427867
 -0.002310190841811717 -0.011165765026585476 0.0026536070960126983 0.01729021512192953 0.9892385044845561 -0.09255533353427867 0.00852829887366792 0.039636146650149674
0.1438099208003 0.0089343865427421 0.04134880367805449 0.9886535914487087 -0.09664926182812607 0.0029102954322186496 0.018037024779157557 -0.002476253051021522 -0.01164648156817023
 0.9886535914487087 -0.09664926182812607 0.008945547949001582 0.041347781189415074 -0.0024764177458704555 -0.011646458640813527 0.0028491515706023838 0.01804664699223494
 0.0029102954322186496 0.018037024779157557 -0.0024764177458704555 -0.011646458640813527 0.008934701705871628 0.04135063487664917 0.9886537095926354 -0.09664733166695107
 -0.002476253051021522 -0.01164648156817023 0.0028491515706023838 0.01804664699223494 0.9886537095926354 -0.09664733166695107 0.00894544214419662 0.0413496988674725
0.1500625260525 0.009364624555708074 0.0430530770723128 0.9880490139001438 -0.10073075135673693 0.003118655131368178 0.018789193873643868 -0.0026486162634139975 -0.012124175087484994
 0.9880490139001438 -0.10073075135673693 0.009376779883871212 0.043051975026114714 -0.0026487952873174825 -0.012124149245887802 0.003052192242155697 0.018799840258588357
 0.003118655131368178 0.018789193873643868 -0.0026487952873174825 -0.012124149245887802 0.009364966233913112 0.04305498166336133 0.9880491425563797 -0.10072873606249341
 -0.0026486162634139975 -0.012124175087484994 0.003052192242155697 0.018799840258588357 0.9880491425563797 -0.10072873606249341 0.009376664530164227 0.04305397475076279
0.15631513130469998 0.009808750740357041 0.04474793740397024 0.9874248162095802 -0.10480154303575848 0.0033346522867709104 0.019537974789859823 -0.00282721143693184 -0.012598771028370575
 0.9874248162095802 -0.10480154303575848 0.009821942744017903 0.04474675114906207 -0.002827405357899867 -0.012598742040488477 0.00326265904238631 0.019549717150450917
