! Created with skrf 1.8.0 (http://scikit-rf.org).
# GHz S RI R 50.0 
!freq ReS11 ImS11 ReS12 ImS12 ReS13 ImS13
! ReS14 ImS14
! ReS21 ImS21 ReS22 ImS22 ReS23 ImS23
! ReS24 ImS24
! ReS31 ImS31 ReS32 ImS32 ReS33 ImS33
! ReS34 ImS34
! ReS41 ImS41 ReS42 ImS42 ReS43 ImS43
! ReS44 ImS44
!
0.0 0.001759611588483 0.0 0.9982403883966 0.0 6.832909962996e-05 0.0 -6.832909947425e-05 8.367901295976136e-21
 0.9982403883966 0.0 0.001759611588498 0.0 -6.832909947475e-05 8.367901296037368e-21 6.832909962995e-05 0.0
 6.832909962996e-05 0.0 -6.832909947475e-05 8.367901296037368e-21 0.001759611576064 0.0 0.9982403883842 0.0
 -6.832909947425e-05 8.367901295976136e-21 6.832909962995e-05 0.0 0.9982403883842 0.0 0.001759611576053 0.0
0.005 0.0018939437538870209 0.0014370830699717214 0.9980703371382157 -0.003685223084150328 9.632475370303437e-05 0.0007637728571117659 -9.352173191277162e-05 -0.0004773488282810162
 0.9980703371382157 -0.003685223084150328 0.001893917564287864 0.0014370983056868206 -9.352397686830011e-05 -0.0004773504390045796 9.648855668763115e-05 0.0007637105127864964
 9.632475370303437e-05 0.0007637728571117659 -9.352397686830011e-05 -0.0004773504390045796 0.0018939427834535824 0.0014370162970819295 0.9980703367544248 -0.003685290138418649
 -9.352173191277162e-05 -0.0004773488282810162 9.648855668763115e-05 0.0007637105127864964 0.9980703367544248 -0.003685290138418649 0.0018939177765910876 0.0014370309793566404
0.006252605252188 0.0019293923029333549 0.0018019852866588682 0.9980251524268925 -0.0046073966746936895 0.000104412008453805 0.000955068999143341 -0.0001007339235984808 -0.0005972925988250532
 0.9980251524268925 -0.0046073966746936895 0.001929351364021576 0.0018020045979318608 -0.00010073741781584263 -0.0005972945817394316 0.00010466793381727019 0.0009549879813458335
 0.000104412008453805 0.000955068999143341 -0.00010073741781584263 -0.0005972945817394316 0.0019293908791864483 0.0018019018100303087 0.9980251519194127 -0.004607480498802577
 -0.0001007339235984808 -0.0005972925988250532 0.00010466793381727019 0.0009549879813458335 0.9980251519194127 -0.004607480498802577 0.0019293517879068538 0.0018019204469284203
0.01250521050438 0.0021172651878754375 0.003641461675644358 0.997783978941858 -0.009215355424284442 0.00015126236422165418 0.0019103837170816403 -0.00014218797055100033 -0.0011973474193346417
 0.997783978941858 -0.009215355424284442 0.0021171017219349946 0.0036415029896405813 -0.00014220175132605118 -0.0011973510458012512 0.00015228291703898143 0.0019101880893462896
 0.00015126236422165418 0.0019103837170816403 -0.00014220175132605118 -0.0011973510458012512 0.002117260043585154 0.003641294941870053 0.9977839774421936 -0.009215522843309178
 -0.00014218797055100033 -0.0011973474193346417 0.00015228291703898143 0.0019101880893462896 0.9977839774421936 -0.009215522843309178 0.0021171039352511655 0.00364133507540585
0.01875781575657 0.0023236843667801214 0.005506791744699128 0.9975165369092202 -0.0138350402503725 0.00020899713898047117 0.0028665643693489376 -0.00019282822284948033 -0.001799252068885951
 0.9975165369092202 -0.0138350402503725 0.0023233170567943887 0.005506857972225345 -0.00019285896821326297 -0.0017992569213466023 0.00021128964593465622 0.0028662133062639776
 0.00020899713898047117 0.0028665643693489376 -0.00019285896821326297 -0.0017992569213466023 0.0023236732559870324 0.005506541888995767 0.9975165339568685 -0.013835291202085515
 -0.00019282822284948033 -0.001799252068885951 0.00021128964593465622 0.0028662133062639776 0.9975165339568685 -0.013835291202085515 0.0023233224386444594 0.005506606581965018
0.02501042100875 0.0025490878631612775 0.007395304473666401 0.9972224811125193 -0.01846863311529204 0.0002777337127679448 0.0038236204740324585 -0.0002527861460977018 -0.0024026961408673978
 0.9972224811125193 -0.01846863311529204 0.002548435550938966 0.007395398713959238 -0.00025284045786912824 -0.002402701717205374 0.0002818056188236227 0.0038230661268227684
 0.0002777337127679448 0.0038236204740324585 -0.00025284045786912824 -0.002402701717205374 0.0025490685509320502 0.007394971647872909 0.9972224762337656 -0.01846896760227253
 -0.0002527861460977018 -0.0024026961408673978 0.0002818056188236227 0.0038230661268227684 0.9972224762337656 -0.01846896760227253 0.0025484454623637405 0.007395064138092711
0.03126302626094 0.0027938954879712704 0.009305596292371413 0.9969014504725731 -0.023117032868843975 0.0003575890819106381 0.004781471292800595 -0.0003221887498723994 -0.0030074509531144602
 0.9969014504725731 -0.023117032868843975 0.0027928771231753736 0.009305721827249307 -0.00032227316609365525 -0.0030074566658519278 0.0003639483946317795 0.004780658745588416
 0.0003575890819106381 0.004781471292800595 -0.00032227316609365525 -0.0030074566658519278 0.0027938657648248215 0.009305180688030483 0.9969014431944332 -0.023117450935589454
 -0.0003221887498723994 -0.0030074509531144602 0.0003639483946317795 0.004780658745588416 0.9969014431944332 -0.023117450935589454 0.0027928929251506565 0.009305304382671195
0.037515631513130004 0.003058517370119546 0.011236730071795415 0.9965530769639299 -0.02778065619975094 0.00044867881066303 0.005739999917486841 -0.00040115950380226027 -0.0036133155112229435
 0.9965530769639299 -0.02778065619975094 0.003057051975377268 0.011236890362849838 -0.0004012805049617645 -0.0036133206872214357 0.00045783428549155494 0.005738867117298558
 0.00044867881066303 0.005739999917486841 -0.0004012805049617645 -0.0036133206872214357 0.0030584750443794204 0.011236231935392986 0.9965530668056318 -0.027781157917517733
 -0.00040115950380226027 -0.0036133155112229435 0.00045783428549155494 0.005738867117298558 0.9965530668056318 -0.027781157917517733 0.003057075022826809 0.01123639040833896
0.043768236765320004 0.00334335723175214 0.013187991378499646 0.9961769892724762 -0.03245968131325376 0.0005511165192803523 0.006699069725848914 -0.0004898186400904556 -0.004220100093344862
 0.9961769892724762 -0.03245968131325376 0.0033413638727824452 0.013188190066062816 -0.0004899826524587205 -0.004220103973670715 0.0005635777331587267 0.006697547404611057
 0.0005511165192803523 0.006699069725848914 -0.0004899826524587205 -0.004220103973670715 0.0033433001334226384 0.013187411005527611 0.9961769757481463 -0.032460266786381406
 -0.0004898186400904556 -0.004220100093344862 0.0005635777331587267 0.006697547404611057 0.9961769757481463 -0.032460266786381406 0.0033413955210949303 0.013187607996178597
0.050020842017509996 0.0036488138924491162 0.01515878772349298 0.9957728146854615 -0.03715414861470473 0.0006650135532229843 0.007658531199970426 -0.0005882832455642565 -0.004827619474289325
 0.9957728146854615 -0.03715414861470473 0.0036462116522026754 0.01515902862649434 -0.0005884966433403932 -0.004827621214125748 0.0006812909189428216 0.007656542793414861
 0.0006650135532229843 0.007658531199970426 -0.0005884966433403932 -0.004827621214125748 0.0036487398719938216 0.015158125470979847 0.9957727973011804 -0.03715481796825006
 -0.0005882832455642565 -0.004827619474289325 0.0006812909189428216 0.007656542793414861 0.9957727973011804 -0.03715481796825006 0.003646253256586201 0.015158364884053714
0.055454545454549996 0.003931314961652753 0.016886929204075543 0.995398475048218 -0.04124628825187532 0.0007733844863468335 0.008492527033864765 -0.0006819037787164998 -0.005356026055497653
 0.995398475048218 -0.04124628825187532 0.0039281178654649 0.01688721003437168 -0.0006821652309463933 -0.005356025182357632 0.0007933933545674382 0.00849006567713838
 0.0007733844863468335 0.008492527033864765 -0.0006821652309463933 -0.005356025182357632 0.003931224506920324 0.01688619611819861 0.9953984539026624 -0.04124703063314582
 -0.0006819037787164998 -0.005356026055497653 0.0007933933545674382 0.00849006567713838 0.9953984539026624 -0.04124703063314582 0.0039281692251932855 0.016886475697607924
0.056273447269699996 0.003975282014917502 0.017148599143608462 0.9953401802265908 -0.041864010064798306 0.0007904787375263673 0.008618225270294277 -0.0006966672544611117 -0.005435689629332419
 0.9953401802265908 -0.041864010064798306 0.003971989968952222 0.017148886260453147 -0.0006969363609064111 -0.005435688297941406 0.0008110834821534571 0.008615686835860979
 0.0007904787375263673 0.008618225270294277 -0.0006969363609064111 -0.005435688297941406 0.003975188945162226 0.017147855415268254 0.995340158481201 -0.04186476345960638
 -0.0006966672544611117 -0.005435689629332419 0.0008110834821534571 0.008615686835860979 0.995340158481201 -0.04186476345960638 0.003972042888132149 0.017148141321415594
0.06252605252188 0.004323152486057575 0.019156951005793527 0.9948787134321446 -0.04658915631848754 0.0009276181700893951 0.009577985176543572 -0.0008150813940498758 -0.006044125928153505
 0.9948787134321446 -0.04658915631848754 0.004319089678610705 0.019157288516118448 -0.0008154124821405353 -0.006044120508852691 0.0009530622891180886 0.009574805311166924
 0.0009276181700893951 0.009577985176543572 -0.0008154124821405353 -0.006044120508852691 0.004323038261451144 0.0191561262650646 0.9948786868145031 -0.04658999393846328
 -0.0008150813940498758 -0.006044125928153505 0.0009530622891180886 0.009574805311166924 0.9948786868145031 -0.04658999393846328 0.004319155275408771 0.01915646290235315
0.06877865777407 0.004692812589353956 0.02118339783314139 0.9943880429231947 -0.05132943285042576 0.0010765350392042702 0.010537637582408972 -0.0009436331004465958 -0.006652742082781079
 0.9943880429231947 -0.05132943285042576 0.00468789801040489 0.02118379010037774 -0.0009440323932091742 -0.006652731472934149 0.0011073312334941936 0.010533717340810687
 0.0010765350392042702 0.010537637582408972 -0.0009440323932091742 -0.006652731472934149 0.004692675127565356 0.021182492598470087 0.9943880109120252 -0.051330354907335014
 -0.0009436331004465958 -0.006652742082781079 0.0011073312334941936 0.010533717340810687 0.9943880109120252 -0.051330354907335014 0.004687977654000848 0.021182884374700107
0.07503126302626001 0.005084646059684259 0.023227513032870812 0.9938677988650783 -0.056084650187321214 0.0012373294526222484 0.011497003305481075 -0.0010824264189294545 -0.007261349488672357
 0.9938677988650783 -0.056084650187321214 0.0050787986220619166 0.02322796460761977 -0.00108290008938859 -0.007261332499703029 0.0012739910527069596 0.011492236119328219
 0.0012373294526222484 0.011497003305481075 -0.00108290008938859 -0.007261332499703029 0.005084483301633999 0.02322652788221871 0.993867760927826 -0.0560856569163991
 -0.0010824264189294545 -0.007261349488672357 0.0012739910527069596 0.011492236119328219 0.993867760927826 -0.0560856569163991 0.005078893689670889 0.023226979377986325
0.08128386827845 0.005499033060451746 0.02528888208494224 0.9933176133546683 -0.060854590689186666 0.0014100982768795605 0.012455897807071164 -0.0012315618915753324 -0.00786975681471674
 0.9933176133546683 -0.060854590689186666 0.00549217157698996 0.02528939770936131 -0.0012321160625950226 -0.007869732172147523 0.0014531391563794985 0.012450169405276148
 0.0014100982768795605 0.012455897807071164 -0.0012321160625950226 -0.007869732172147523 0.005498842971681646 0.025287817654331957 0.9933175689463877 -0.060855682350762066
 -0.0012315618915753324 -0.00786975681471674 0.0014531391563794985 0.012450169405276148 0.9933175689463877 -0.060855682350762066 0.00549228345603012 0.02528833362699243
0.08753647353064001 0.005936350111142328 0.02736709783216712 0.9927371207617964 -0.06563901323963231 0.0015949349803908144 0.013414131556961665 -0.0013911364385364073 -0.008477769727364646
 0.9927371207617964 -0.06563901323963231 0.005928393271841629 0.02736768244513784 -0.0013917771824540957 -0.008477736070866429 0.001644869461537713 0.013407319887417293
 0.0015949349803908144 0.013414131556961665 -0.0013917771824540957 -0.008477736070866429 0.005936130681880575 0.027365954811441745 0.9927370693238269 -0.0656401901232902
 -0.0013911364385364073 -0.008477769727364646 0.001644869461537713 0.013407319887417293 0.9927370693238269 -0.0656401901232902 0.005928523361237365 0.027366540199969844
0.09378907878283 0.006396969978444305 0.029461757127942488 0.9921259580395718 -0.07043765658888201 0.0017919294817816936 0.014371510303609903 -0.0015612432329583908 -0.009085190718725733
 0.9921259580395718 -0.07043765658888201 0.006387836328216891 0.02946241587115468 -0.0015619765711662947 -0.009085146602184806 0.0018492722334691439 0.014363485456407933
 0.0017919294817816936 0.014371510303609903 -0.0015619765711662947 -0.009085146602184806 0.00639671922501089 0.029460536267396538 0.9921258989984703 -0.07043891900686058
 -0.0015612432329583908 -0.009085190718725733 0.0018492722334691439 0.014363485456407933 0.9921258989984703 -0.07043891900686058 0.006387986040368108 0.029461196198031888
0.100041684035 0.0068812615435539255 0.03157245838474003 0.9914837650135913 -0.07525024180731117 0.0020011679997148503 0.015327835293569885 -0.0017419715731757336 -0.009691818995031192
 0.9914837650135913 -0.07525024180731117 0.0068708694590638945 0.03157319660971135 -0.0017428034755119313 -0.009691762886642377 0.0020664339297206415 0.015318459425923164
 0.0020011679997148503 0.015327835293569885 -0.0017428034755119313 -0.009691762886642377 0.0068809775086261776 0.031571160493485906 0.9914836977802041 -0.07525159009601276
 -0.0017419715731757336 -0.009691818995031192 0.0020664339297206415 0.015318459425923164 0.9914836977802041 -0.07525159009601276 0.006871040221505775 0.031571900286353004
0.1059090909091 0.0073575720151168155 0.0335673596742449 0.9908525951733207 -0.07977876019675802 0.0022087253818171035 0.016224105645547736 -0.0019213021626089794 -0.010260172520579635
 0.9908525951733207 -0.07977876019675802 0.007345924618269741 0.033568177545535996 -0.0019222319399286657 -0.010260103689722236 0.002281894790160874 0.016213329491172726
 0.0022087253818171035 0.016224105645547736 -0.0019222319399286657 -0.010260103689722236 0.007357254993743943 0.033565990283582016 0.9908525197015742 -0.0797801893959841
 -0.0019213021626089794 -0.010260172520579635 0.002281894790160874 0.016213329491172726 0.9908525197015742 -0.0797801893959841 0.007346116448181825 0.033566810036566676
0.1062942892872 0.007389589649391312 0.03369879974788349 0.9908101846563377 -0.0800764741250199 0.002222732905806029 0.0162829034528525 -0.0019334067515873567 -0.010297450412938199
 0.9908101846563377 -0.0800764741250199 0.007377857316375192 0.03369962302402076 -0.0019343431356908505 -0.010297380695335267 0.002296437047074496 0.016272030715943575
 0.002222732905806029 0.0162829034528525 -0.0019343431356908505 -0.010297380695335267 0.007389270403489761 0.03369742569123935 0.9908101086247443 -0.08007790864757068
 -0.0019334067515873567 -0.010297450412938199 0.002296437047074496 0.016272030715943575 0.9908101086247443 -0.08007790864757068 0.007378050574203406 0.033698250867850076
0.11254689453939999 0.007922314935192534 0.0358403777007946 0.9901048633512557 -0.08491604435177662 0.002456702578607277 0.017236507542881276 -0.002135629922048004 -0.010901877451258138
 0.9901048633512557 -0.08491604435177662 0.007909160325676684 0.03584129182434262 -0.00213667665261979 -0.010901792421627034 0.002539359970949442 0.017223984010624388
 0.002456702578607277 0.017236507542881276 -0.00213667665261979 -0.010901792421627034 0.007921958577058371 0.03583892840379646 0.9901047778971875 -0.08491756549416563
 -0.002135629922048004 -0.010901877451258138 0.002539359970949442 0.017223984010624388 0.9901047778971875 -0.08491756549416563 0.007909377542731138 0.03583984469560105
0.11879949979160001 0.008479793658878554 0.037996785996560214 0.9893674511482103 -0.08976862998254247 0.0027031512593946026 0.018188436302739856 -0.0023487179658783124 -0.011504889206429062
 0.9893674511482103 -0.08976862998254247 0.008465134508171131 0.03799779700059793 -0.002349880853999113 -0.011504787076678819 0.0027952768266422583 0.018174099902708272
 0.0027031512593946026 0.018188436302739856 -0.002349880853999113 -0.011504787076678819 0.008479398316699154 0.037995262442393006 0.9893673556282871 -0.08977023815500124
 -0.0023487179658783124 -0.011504889206429062 0.0027952768266422583 0.018174099902708272 0.9893673556282871 -0.08977023815500124 0.00846537716909049 0.03799627580022283
0.1250521050438 0.009062377511599235 0.04016761482226089 0.9885976020132716 -0.09463389608264604 0.0029621489094406217 0.0191384745790604 -0.002572743357331495 -0.012106271410774411
 0.9885976020132716 -0.09463389608264604 0.009046131295184164 0.040168728987812145 -0.0025740281595089116 -0.01210615030775777 0.0030642573322988975 0.019122155025553395
 0.0029621489094406217 0.0191384745790604 -0.0025740281595089116 -0.01210615030775777 0.009061941343665595 0.04016601805067256 0.9885974957638014 -0.09463559172091845
 -0.002572743357331495 -0.012106271410774411 0.0030642573322988975 0.019122155025553395 0.9885974957638014 -0.09463559172091845 0.009046400907414657 0.040167134655203565
0.131304710296 0.009670413425184411 0.04235245014195981 0.9877949740746848 -0.09951149600690404 0.0032337610684247645 0.02008640345139938 -0.002807774028691047 -0.012705806465467418
 0.9877949740746848 -0.09951149600690404 0.009652497335974227 0.042353674009979886 -0.0028091864460901197 -0.012705664431143036 0.0033463666535514763 0.020067922180915288
 0.0032337610684247645 0.02008640345139938 -0.0028091864460901197 -0.012705664431143036 0.009669934621025325 0.042350781252460536 0.9877948564103172 -0.09951327956859836
 -0.002807774028691047 -0.012705806465467418 0.0033463666535514763 0.020067922180915288 0.9877948564103172 -0.09951327956859836 0.009652795431452435 0.04235200752574282
0.1375573155481 0.010172471322976051 0.044266345712825624 0.9870910719840325 -0.1041163577465849 0.00348539269025776 0.021004313452690732 -0.0030210920212304705 -0.013275709756262927
 0.9870910719840325 -0.1041163577465849 0.010152795577285571 0.04426766176392311 -0.0030226402509444944 -0.013275546429686919 0.0036087498831955498 0.020983683112802447
 0.00348539269025776 0.021004313452690732 -0.0030226402509444944 -0.013275546429686919 0.010171946742871566 0.044264606397049454 0.9870909423643842 -0.10411822950882375
 -0.0030210920212304705 -0.013275709756262927 0.0036087498831955498 0.020983683112802447 0.9870909423643842 -0.10411822950882375 0.010153124762113837 0.044265923247104495
0.1438099208003 0.01069241618328958 0.046168745762258864 0.986361980119993 -0.10870811746685527 0.0037471241112238636 0.021917729421382058 -0.003242883360425236 -0.013841407020494103
 0.986361980119993 -0.10870811746685527 0.01067089653455718 0.04617015938395841 -0.003244573473648218 -0.013841220466502565 0.0038816998507847427 0.02189478537298255
 0.0037471241112238636 0.021917729421382058 -0.003244573473648218 -0.013841220466502565 0.010691843819549497 0.04616693725257434 0.986361837858722 -0.10871007787757668
 -0.003242883360425236 -0.013841407020494103 0.0038816998507847427 0.02189478537298255 0.986361837858722 -0.10871007787757668 0.010671258571876252 0.04616834977641018
0.1500625260525 0.011230043386142684 0.048059449282926936 0.9856079082710106 -0.11328661835399562 0.004018850362302982 0.0228265333881627 -0.003473044116914386 -0.014402784669490066
 0.9856079082710106 -0.11328661835399562 0.011206595284196237 0.04806096623539977 -0.00347488216174973 -0.01440257287606162 0.004165108248609195 0.02280110498354421
 0.004018850362302982 0.0228265333881627 -0.00347488216174973 -0.01440257287606162 0.011229421244839794 0.04805757286253901 0.9856077526632967 -0.1132886678779783
 -0.003473044116914386 -0.014402784669490066 0.004165108248609195 0.02280110498354421 0.9856077526632967 -0.1132886678779783 0.011206991974061368 0.048059086509405075
0.15631513130469998 0.011785146593993968 0.049938261254753355 0.984829067588965 -0.11785170511795269 0.004300465085841686 0.023730609734435092 -0.003711468938020369 -0.014959731794784391
 0.984829067588965 -0.11785170511795269 0.011759685177374402 0.04993988768448781 -0.003713460938988131 -0.014959492673583324 0.004458865322351849 0.02370252038886167
