! Created with skrf 1.8.0 (http://scikit-rf.org).
# GHz S RI R 50.0 
!freq ReS11 ImS11 ReS12 ImS12 ReS13 ImS13
! ReS14 ImS14
! ReS21 ImS21 ReS22 ImS22 ReS23 ImS23
! ReS24 ImS24
! ReS31 ImS31 ReS32 ImS32 ReS33 ImS33
! ReS34 ImS34
! ReS41 ImS41 ReS42 ImS42 ReS43 ImS43
! ReS44 ImS44
!
0.0 0.001530831697466 0.0 0.9984691682917 0.0 5.941570007605e-05 0.0 -5.941569930511e-05 7.276324597310459e-21
 0.9984691682917 0.0 0.001530831697409 0.0 -5.941569930375e-05 7.276324597143906e-21 5.9415700076e-05 0.0
 5.941570007605e-05 0.0 -5.941569930375e-05 7.276324597143906e-21 0.001530831697877 0.0 0.9984691682922 0.0
 -5.941569930511e-05 7.276324597310459e-21 5.9415700076e-05 0.0 0.9984691682922 0.0 0.001530831697894 0.0
0.005 0.001647100137247539 0.0012450694808314507 0.9983220548806825 -0.003207177588864477 8.433633299739036e-05 0.0006983937326325758 -8.164107115479572e-05 -0.00043073663902823807
 0.9983220548806825 -0.003207177588864477 0.001647103074401891 0.001245067679016358 -8.164467676115186e-05 -0.0004307392817198927 8.430960627766583e-05 0.0006984038811248329
 8.433633299739036e-05 0.0006983937326325758 -8.164467676115186e-05 -0.0004307392817198927 0.0016470992637212943 0.0012451371922223553 0.9983220552389364 -0.003207110522449497
 -8.164107115479572e-05 -0.00043073663902823807 8.430960627766583e-05 0.0006984038811248329 0.9983220552389364 -0.003207110522449497 0.0016471046572100684 0.0012451340931313158
0.006252605252188 0.0016775857660330706 0.0015612697330834255 0.998283236543794 -0.004009760874217817 9.145523203770852e-05 0.0008733105268954338 -8.791851302042292e-05 -0.0005389882082867321
 0.998283236543794 -0.004009760874217817 0.0016775903581582425 0.0015612674305634695 -8.792412466799864e-05 -0.0005389914640924169 9.141347355505751e-05 0.000873323709071172
 9.145523203770852e-05 0.0008733105268954338 -8.792412466799864e-05 -0.0005389914640924169 0.0016775843264178784 0.0015613543588487155 0.9982832370293153 -0.004009677042351326
 -8.791851302042292e-05 -0.0005389882082867321 9.141347355505751e-05 0.000873323709071172 0.9982832370293153 -0.004009677042351326 0.0016775927572009687 0.0015613504523609779
0.01250521050438 0.0018380218846659271 0.003155525924309583 0.9980775875161202 -0.008020372197207202 0.0001322758009245356 0.0017468500128981076 -0.0001235489258494848 -0.0010806360797354626
 0.9980775875161202 -0.008020372197207202 0.001838040234959771 0.0031555208237453183 -0.0001235710536058595 -0.0010806420687338517 0.0001321092639644113 0.0017468817271800328
 0.0001322758009245356 0.0017468500128981076 -0.0001235710536058595 -0.0010806420687338517 0.0018380155826276483 0.0031556947842324113 0.9980775888943986 -0.00802020478537191
 -0.0001235489258494848 -0.0010806360797354626 0.0001321092639644113 0.0017468817271800328 0.9980775888943986 -0.00802020478537191 0.0018380492404844863 0.0031556866383504975
0.01875781575657 0.0020124896305535 0.0047726788249558404 0.9978519662381652 -0.012041603660830182 0.00018197109031811248 0.002621252635896737 -0.00016641770150287277 -0.00162410422312621
 0.9978519662381652 -0.012041603660830182 0.002012530892177405 0.004772670426163931 -0.00016646706506379932 -0.001624112318252449 0.00018159695160821878 0.0026213092645733984
 0.00018197109031811248 0.002621252635896737 -0.00016646706506379932 -0.001624112318252449 0.002012475064288906 0.0047729316846668035 0.9978519689178634 -0.012041352726598157
 -0.00016641770150287277 -0.00162410422312621 0.00018159695160821878 0.0026213092645733984 0.9978519689178634 -0.012041352726598157 0.0020125506822046796 0.004772918918985092
0.02501042100875 0.002201328285883229 0.0064104492194698905 0.997606107753066 -0.016075403889745397 0.00024063626984034141 0.0034965662892375666 -0.00021663175456211297 -0.0021691335332324584
 0.997606107753066 -0.016075403889745397 0.002201401610367265 0.006410437020685292 -0.00021671895150950505 -0.002169142992517638 0.00023997165762975502 0.003496655212604972
 0.00024063626984034141 0.0034965662892375666 -0.00021671895150950505 -0.002169142992517638 0.002201302064432278 0.006410785851710887 0.9976061121421325 -0.016075069443965636
 -0.00021663175456211297 -0.0021691335332324584 0.00023997165762975502 0.003496655212604972 0.9976061121421325 -0.016075069443965636 0.0022014363360857436 0.006410768046089788
0.03126302626094 0.0024048630503879335 0.00806766330031987 0.9973397335695905 -0.020122605537802513 0.00030836707423813304 0.00437275309729108 -0.0002742948430006981 -0.002715544669800354
 0.9973397335695905 -0.020122605537802513 0.002404977592363829 0.008067646798926452 -0.00027443036948936596 -0.002715554634929477 0.0003073289933679668 0.004372882699684157
 0.00030836707423813304 0.00437275309729108 -0.00027443036948936596 -0.002715554634929477 0.0024048217942066047 0.008068083472121838 0.9973397400801105 -0.020122187556940566
 -0.0002742948430006981 -0.002715544669800354 0.0003073289933679668 0.004372882699684157 0.9973397400801105 -0.020122187556940566 0.002405031384782238 0.008068060167930463
0.037515631513130004 0.0026234120464968206 0.009743555071377247 0.9970525588918263 -0.02418362282489201 0.0003852588041316063 0.005249741427129033 -0.00033950838934301207 -0.0032631860485167344
 0.9970525588918263 -0.02418362282489201 0.002623576967439263 0.009743533764643965 -0.00033970265065837635 -0.003263195544352339 0.00038376410305079075 0.005249921107135544
 0.0003852588041316063 0.005249741427129033 -0.00033970265065837635 -0.003263195544352339 0.0026233523852983794 0.009744058531754397 0.99705256794042 -0.02418312126317431
 -0.00033950838934301207 -0.0032631860485167344 0.00038376410305079075 0.005249921107135544 0.99705256794042 -0.02418312126317431 0.0026236539376333656 0.009744029232315769
0.043768236765320004 0.0028572890233334964 0.011437554029531635 0.9967442955502004 -0.028258663786923183 0.00047140586134009077 0.006127441706321379 -0.00041237177479892773 -0.003811918026067867
 0.9967442955502004 -0.028258663786923183 0.0028575134950113044 0.011437527414996825 -0.00041263509153509386 -0.003811925960371062 0.0004693712172165555 0.006127681888262816
 0.00047140586134009077 0.006127441706321379 -0.00041263509153509386 -0.003811925960371062 0.0028572075913192584 0.01143814051799475 0.9967443075556149 -0.028258078567770115
 -0.00041237177479892773 -0.003811918026067867 0.0004693712172165555 0.006127681888262816 0.9967443075556149 -0.028258078567770115 0.002857617730906027 0.011438104688775085
0.050020842017509996 0.0031068046102731314 0.013149197449095693 0.996414653483897 -0.03234781792135667 0.0005669014709045042 0.007005752958564768 -0.000492982448039389 -0.0043616063694879486
 0.996414653483897 -0.03234781792135667 0.003107097817042912 0.013149165025054137 -0.0004933250598004695 -0.004361611532766396 0.0005642433844474479 0.007006065104436606
 0.0005669014709045042 0.007005752958564768 -0.0004933250598004695 -0.004361611532766396 0.003106698047291132 0.013149866683379844 0.9964146688708774 -0.032347148949709977
 -0.000492982448039389 -0.0043616063694879486 0.0005642433844474479 0.007006065104436606 0.9964146688708774 -0.032347148949709977 0.0031072333872388847 0.013149823751910206
0.055454545454549996 0.0033365810639741206 0.014650686630557937 0.9961105963523166 -0.03591289066005899 0.0006575535902821129 0.007769443618727885 -0.0005694015628234227 -0.004839976324992102
 0.9961105963523166 -0.03591289066005899 0.003336941474388018 0.014650648751294383 -0.0005698213391639577 -0.004839978006769411 0.000654285764850697 0.007769828427078448
 0.0006575535902821129 0.007769443618727885 -0.0005698213391639577 -0.004839978006769411 0.003336449934772887 0.01465142753341686 0.9961106150270015 -0.03591214880734793
 -0.0005694015628234227 -0.004839976324992102 0.000654285764850697 0.007769828427078448 0.9961106150270015 -0.03591214880734793 0.003337107562726625 0.014651377935272065
0.056273447269699996 0.003372266960722108 0.014878087304436328 0.9960633416181337 -0.03645109919586509 0.0006718374839813993 0.007884566014148466 -0.0005814359527128505 -0.004912119053828814
 0.9960633416181337 -0.03645109919586509 0.0033726381024613114 0.014878048570304588 -0.0005818680206208954 -0.004912120119234772 0.0006684722795260379 0.007884962635833942
 0.0006718374839813993 0.007884566014148466 -0.0005818680206208954 -0.004912120119234772 0.003372131909681504 0.014878838986066727 0.9960633608168806 -0.03645034635268508
 -0.0005814359527128505 -0.004912119053828814 0.0006684722795260379 0.007884962635833942 0.9960633608168806 -0.03645034635268508 0.0033728090544414046 0.01487878834166404
0.06252605252188 0.003653982094860831 0.016623866600402257 0.9956900684439398 -0.04056846965216069 0.0007863042229936153 0.008763765271998552 -0.0006778259110567464 -0.005463324512165957
 0.9956900684439398 -0.04056846965216069 0.003654440389722487 0.016623821056863674 -0.0006783575193807107 -0.005463320035413901 0.0007821480529972449 0.008764259943458318
 0.0007863042229936153 0.008763765271998552 -0.0006783575193807107 -0.005463320035413901 0.003653815201468911 0.016624700411423013 0.9956900918915172 -0.040567632797764215
 -0.0006778259110567464 -0.005463324512165957 0.0007821480529972449 0.008764259943458318 0.9956900918915172 -0.040567632797764215 0.0036546507503853187 0.016624641404938634
0.06877865777407 0.003952254079494561 0.018386205261320558 0.9952945424385541 -0.04469985345477638 0.0009103903483150177 0.00964322975681802 -0.0007822439850138454 -0.00601509059468405
 0.9952945424385541 -0.04469985345477638 0.003952808766435261 0.01838615241055703 -0.0007828851421108858 -0.006015079013984299 0.0009053592003141847 0.009643837126304275
 0.0009103903483150177 0.00964322975681802 -0.0007828851421108858 -0.006015079013984299 0.003952051989726323 0.018387120868644184 0.995294570578657 -0.044698932424764255
 -0.0007822439850138454 -0.00601509059468405 0.0009053592003141847 0.009643837126304275 0.995294570578657 -0.044698932424764255 0.003953062540833146 0.01838705281195108
0.07503126302626001 0.004267385109705274 0.020164791179824667 0.9948764723910786 -0.04884514578468284 0.0010441827389672594 0.010522833793191966 -0.0008947798217150896 -0.00656728391533525
 0.9948764723910786 -0.04884514578468284 0.004268045450984492 0.02016473052558881 -0.0008955404605801875 -0.006567263551366985 0.0010381924444935894 0.01052356959538406
 0.0010441827389672594 0.010522833793191966 -0.0008955404605801875 -0.006567263551366985 0.004267144469154045 0.020165788228017824 0.9948765056757226 -0.04884414039737347
 -0.0008947798217150896 -0.00656728391533525 0.0010381924444935894 0.01052356959538406 0.9948765056757226 -0.04884414039737347 0.00426834662259001 0.020165710393457974
0.08128386827845 0.004599675530218319 0.021959324267740308 0.9944355676727893 -0.05300421873555644 0.0011877663812483233 0.011402447457599382 -0.0010155209895018325 -0.007119769425381384
 0.9944355676727893 -0.05300421873555644 0.004600450814079808 0.021959255315308412 -0.0010164109680080113 -0.00711973848126877 0.0011807326264636057 0.011403328525623922
 0.0011877663812483233 0.011402447457599382 -0.0010164109680080113 -0.00711973848126877 0.004599392982598132 0.021960402382934976 0.994435606562342 -0.0530031287882237
 -0.0010155209895018325 -0.007119769425381384 0.0011807326264636057 0.011403328525623922 0.994435606562342 -0.0530031287882237 0.00460080334398436 0.0219603140026033
0.08753647353064001 0.004949423816000613 0.02376951233975854 0.993971538468575 -0.057176925382194696 0.0013412242626070423 0.012281936898785034 -0.0011445529073310819 -0.0076724101235113125
 0.993971538468575 -0.057176925382194696 0.0049503233593759305 0.02376943459588961 -0.0011455820082100616 -0.007672366684828597 0.0013330626003368333 0.012282981176036985
 0.0013412242626070423 0.012281936898785034 -0.0011455820082100616 -0.007672366684828597 0.004949096002242054 0.023770671132973577 0.9939715834331105 -0.05717575064830379
 -0.0011445529073310819 -0.0076724101235113125 0.0013330626003368333 0.012282981176036985 0.9939715834331105 -0.05717575064830379 0.004950731186075031 0.02377057139793046
0.09378907878283 0.005316926525283562 0.025595068179852576 0.9934840959856048 -0.06136310267207707 0.0015046372693843842 0.013161164570014488 -0.001281958769283495 -0.00822506685919483
 0.9934840959856048 -0.06136310267207707 0.005317959676300409 0.025594981152532833 -0.0012831366998660308 -0.008225008893983345 0.0014952631319659325 0.013162391121895597
 0.0015046372693843842 0.013161164570014488 -0.0012831366998660308 -0.008225008893983345 0.005316550081823054 0.025596307239400058 0.9934841475051693 -0.06136184290907966
 -0.001281958769283495 -0.00822506685919483 0.0014952631319659325 0.013162391121895597 0.9934841475051693 -0.06136184290907966 0.00531842671502557 0.025596195298742047
0.100041684035 0.005702478232077105 0.0274357073813803 0.9929729526435589 -0.0655625735485323 0.0016780840863427696 0.01403998941137129 -0.0014278194658383602 -0.008777598191244103
 0.9929729526435589 -0.0655625735485323 0.005703654372875715 0.027435610579576743 -0.0014291558577659504 -0.008777523550050762 0.001667412799516625 0.014041418436787025
 0.0016780840863427696 0.01403998941137129 -0.0014291558577659504 -0.008777523550050762 0.00570204979005963 0.027437026280783303 0.9929730112094779 -0.06556122849045239
 -0.0014278194658383602 -0.008777598191244103 0.001667412799516625 0.014041418436787025 0.9929730112094779 -0.06556122849045239 0.005704184514746696 0.02743690124060775
0.1059090909091 0.006080953572186809 0.02917641791061944 0.9924714882083565 -0.0695152532969759 0.0018500392411370085 0.014864178327337281 -0.0015724538015219167 -0.009295848105405548
 0.9924714882083565 -0.0695152532969759 0.006082272459390709 0.029176311490375983 -0.0015739475845600332 -0.009295755756060314 0.0018380736250500247 0.014865816743001678
 0.0018500392411370085 0.014864178327337281 -0.0015739475845600332 -0.009295755756060314 0.006080473264988703 0.029177811326796775 0.9924715538436426 -0.06951382793958562
 -0.0015724538015219167 -0.009295848105405548 0.0018380736250500247 0.014865816743001678 0.9924715538436426 -0.06951382793958562 0.006082865334010897 0.02917767314180169
0.1062942892872 0.006106371443654124 0.0292911467377267 0.9924378222544383 -0.06977514852948408 0.0018616410985803332 0.014918266987458973 -0.0015822135018257178 -0.009329860296422049
 0.9924378222544383 -0.06977514852948408 0.006107699993161366 0.029291039670913198 -0.001583717910479242 -0.009329766712364296 0.001849587896453852 0.014919919830097939
 0.0018616410985803332 0.014918266987458973 -0.001583717910479242 -0.009329766712364296 0.006105887627404606 0.029292545032211785 0.9924378883695821 -0.06977371789092697
 -0.0015822135018257178 -0.009329860296422049 0.001849587896453852 0.014919919830097939 0.9924378883695821 -0.06977371789092697 0.0061082971049094765 0.02929240595445257
0.11254689453939999 0.006528896507229154 0.031161103004744086 0.9918784201931279 -0.07400062692052464 0.0020553822940770957 0.015795849607492227 -0.0017452169131241286 -0.009881706901122897
 0.9918784201931279 -0.07400062692052464 0.006530386923740535 0.031160985182500225 -0.001746898817047341 -0.009881591989982407 0.0020418623343787332 0.015797748766907902
 0.0020553822940770957 0.015795849607492227 -0.001746898817047341 -0.009881591989982407 0.006528353933229092 0.03116258023330564 0.9918784943731127 -0.07399911039512067
 -0.0017452169131241286 -0.009881706901122897 0.0020418623343787332 0.015797748766907902 0.9918784943731127 -0.07399911039512067 0.00653105484684563 0.03116242613445693
0.11879949979160001 0.006970341507244048 0.03304529194609642 0.9912944635625774 -0.07823879775129133 0.0022593791673853523 0.01667258642138083 -0.0019169031811366538 -0.01043298924274118
 0.9912944635625774 -0.07823879775129133 0.006972003291429507 0.03304516287738709 -0.001918771981342649 -0.010432850503044948 0.0022443075478122366 0.016674755563823602
 0.0022593791673853523 0.01667258642138083 -0.001918771981342649 -0.010432850503044948 0.0069697367829885375 0.033046847630161594 0.9912945463364253 -0.07823719501367195
 -0.0019169031811366538 -0.01043298924274118 0.0022443075478122366 0.016674755563823602 0.9912945463364253 -0.07823719501367195 0.006972745841526125 0.03304667747983699
0.1250521050438 0.0074309921562110215 0.03494342757523534 0.9906856713545523 -0.082489440521909 0.0024737006240507517 0.017548323508391438 -0.002097343146386401 -0.01098355604419858
 0.9906856713545523 -0.082489440521909 0.007432834853602296 0.034943286767804074 -0.0020994081654957994 -0.010983390857393685 0.0024569923989246545 0.017550787477388995
 0.0024737006240507517 0.017548323508391438 -0.0020994081654957994 -0.010983390857393685 0.007430321878468633 0.034945061220027406 0.9906857632653376 -0.08248775122699693
 -0.002097343146386401 -0.01098355604419858 0.0024569923989246545 0.017550787477388995 0.9906857632653376 -0.08248775122699693 0.007433655819713613 0.0349448739394328
0.131304710296 0.007911131678980552 0.036855221553618915 0.9900517646068059 -0.08675232579965252 0.0026984128854064984 0.018422903956233676 -0.002286604921017242 -0.011533253503914417
 0.9900517646068059 -0.08675232579965252 0.007913164882964932 0.03685506851305563 -0.00228887540251135 -0.011533059134505745 0.0026799830830606317 0.01842568878288245
 0.0026984128854064984 0.018422903956233676 -0.00228887540251135 -0.011533059134505745 0.00791039243311867 0.036856932650739006 0.9900518662129201 -0.08675054958083457
 -0.002286604921017242 -0.011533253503914417 0.0026799830830606317 0.01842568878288245 0.9900518662129201 -0.08675054958083457 0.007914068026892457 0.03685672711098401
0.1375573155481 0.00830113394393277 0.0385293124317139 0.9895024167914638 -0.09077603140633704 0.002905434346973447 0.019270562435700373 -0.0024566329206152883 -0.012056321343752641
 0.9895024167914638 -0.09077603140633704 0.00830336655366363 0.03852915110608563 -0.0024591221906117462 -0.01205609756452936 0.0028852418380341045 0.01927366400126241
 0.002905434346973447 0.019270562435700373 -0.0024591221906117462 -0.01205609756452936 0.008300321215781496 0.03853110140073812 0.9895025285425542 -0.09077416804471296
 -0.0024566329206152883 -0.012056321343752641 0.0028852418380341045 0.01927366400126241 0.9895025285425542 -0.09077416804471296 0.008304356927702688 0.038530879268801575
0.1438099208003 0.008704845081097968 0.04019448132393889 0.9889337514489848 -0.09478946810704898 0.003120831080452568 0.020114828822680186 -0.002633475622690233 -0.012576294505822708
 0.9889337514489848 -0.09478946810704898 0.008707286599830158 0.0401943115163562 -0.0026361935465333925 -0.012576038637318657 0.003098798777019151 0.0201182708986362
 0.003120831080452568 0.020114828822680186 -0.0026361935465333925 -0.012576038637318657 0.008703955238685387 0.04019634771816207 0.9889338739031636 -0.09478751724217815
 -0.002633475622690233 -0.012576294505822708 0.003098798777019151 0.0201182708986362 0.9889338739031636 -0.09478751724217815 0.008708368161889002 0.04019610796334304
0.1500625260525 0.009122121882772675 0.04185058682406182 0.9883459159728177 -0.09879253433263732 0.003344529159987115 0.020955617538643286 -0.0028170612788011415 -0.013093092064601948
 0.9883459159728177 -0.09879253433263732 0.009124781844619522 0.041850408315767466 -0.002820017695324523 -0.013092801320559747 0.003320580457087952 0.020959424757105473
 0.003344529159987115 0.020955617538643286 -0.002820017695324523 -0.013092801320559747 0.009121151269225181 0.04185253018039948 0.9883460497003751 -0.09879049559353764
 -0.0028170612788011415 -0.013093092064601948 0.003320580457087952 0.020959424757105473 0.9883460497003751 -0.09879049559353764 0.00912595854163299 0.04185227170897741
0.15631513130469998 0.009552820106235137 0.04349749179532523 0.9877390585278992 -0.10278512891663294 0.0035764537799975057 0.021792844448547344 -0.0030073172484127424 -0.013606634819929337
 0.9877390585278992 -0.10278512891663294 0.00955570807638523 0.0434973043442773 -0.0030105219692404296 -0.013606306307954334 0.003550512563259618 0.021797042292657633
