! Created with skrf 1.8.0 (http://scikit-rf.org).
# GHz S RI R 50.0 
!freq ReS11 ImS11 ReS12 ImS12 ReS13 ImS13
! ReS14 ImS14
! ReS21 ImS21 ReS22 ImS22 ReS23 ImS23
! ReS24 ImS24
! ReS31 ImS31 ReS32 ImS32 ReS33 ImS33
! ReS34 ImS34
! ReS41 ImS41 ReS42 ImS42 ReS43 ImS43
! ReS44 ImS44
!
0.0 0.001882268034573 0.0 0.9981177319512 0.0 7.316344833104e-05 0.0 -7.316344819808e-05 8.959938265036186e-21
 0.9981177319512 0.0 0.00188226803455 0.0 -7.316344819769e-05 8.959938264988425e-21 7.316344833117e-05 0.0
 7.316344833104e-05 0.0 -7.316344819769e-05 8.959938264988425e-21 0.001882268041663 0.0 0.9981177319583 0.0
 -7.316344819808e-05 8.959938265036186e-21 7.316344833117e-05 0.0 0.9981177319583 0.0 0.00188226804166 0.0
0.005 0.002026338731432437 0.0015387716745572475 0.9979352518771256 -0.0039416341003002675 0.00010323820259048989 0.0008057957425835292 -0.00010012055394246998 -0.0005056282317228989
 0.9979352518771256 -0.0039416341003002675 0.0020263618532177403 0.0015387580909741853 -0.00010012079014118943 -0.0005056283290144479 0.00010309867102039563 0.000805848997364516
 0.00010323820259048989 0.0008057957425835292 -0.00010012079014118943 -0.0005056283290144479 0.002026339418725088 0.001538838492339298 0.997935252269917 -0.003941567035304655
 -0.00010012055394246998 -0.0005056282317228989 0.00010309867102039563 0.000805848997364516 0.997935252269917 -0.003941567035304655 0.0020263619360045572 0.0015388253874790224
0.006252605252188 0.0020644767439274812 0.001929467954075424 0.9978865840734997 -0.004927949009848889 0.00011203624980933662 0.0010076111720374729 -0.00010789388284383672 -0.0006326671837053739
 0.9978865840734997 -0.004927949009848889 0.0020645128880357458 0.0019294506893750298 -0.00010789425103712954 -0.0006326673017180705 0.00011181824888590487 0.0010076803828693891
 0.00011203624980933662 0.0010076111720374729 -0.00010789425103712954 -0.0006326673017180705 0.0020644777438732997 0.0019295514497026994 0.9978865846129338 -0.00492786518971942
 -0.00010789388284383672 -0.0006326671837053739 0.00011181824888590487 0.0010076803828693891 0.9978865846129338 -0.00492786518971942 0.002064512942070923 0.0019295347994355509
0.01250521050438 0.0022672956389645183 0.0038988170484904835 0.9976257926461232 -0.009856265928873455 0.00016357675282800948 0.002015398425814735 -0.0001528691742826222 -0.0012681616398068237
 0.9976257926461232 -0.009856265928873455 0.0022674399740532074 0.003898779621295801 -0.0001528706332703022 -0.0012681618345747943 0.00016270750528449564 0.0020155657522067257
 0.00016357675282800948 0.002015398425814735 -0.0001528706332703022 -0.0012681618345747943 0.0022672990532661137 0.003898983624344434 0.9976257942194156 -0.009856098493958201
 -0.0001528691742826222 -0.0012681616398068237 0.00016270750528449564 0.0020155657522067257 0.9976257942194156 -0.009856098493958201 0.002267439592765068 0.003898947597654488
0.01875781575657 0.0024912403726582754 0.0058955694268562845 0.9973349823312447 -0.01479685511009794 0.00022791388346440048 0.0030239727076120035 -0.00020824210920568532 -0.001905511762138653
 0.9973349823312447 -0.01479685511009794 0.0024915647251941967 0.0058955086789383776 -0.00020824537367485665 -0.0019055119795395844 0.0002259614412777528 0.0030242736225032
 0.00022791388346440048 0.0030239727076120035 -0.00020824537367485665 -0.0019055119795395844 0.00249124762984597 0.005895818703928718 0.9973349854517053 -0.014796604088297962
 -0.00020824210920568532 -0.001905511762138653 0.0002259614412777528 0.0030242736225032 0.9973349854517053 -0.014796604088297962 0.002491563417344024 0.005895760347772416
0.02501042100875 0.0027368066402485894 0.007916834693129343 0.9970137612012834 -0.019752014459225614 0.00030517813952499526 0.004033310208992398 -0.00027415877133108417 -0.002544370475047319
 0.9970137612012834 -0.019752014459225614 0.0027373827119538444 0.007916747229803225 -0.0002741645506362895 -0.0025443706476273526 0.0003017105871448008 0.004033786569784683
 0.00030517813952499526 0.004033310208992398 -0.0002741645506362895 -0.0025443706476273526 0.0027368191629029734 0.007917166222671567 0.9970137663848955 -0.019751679807093754
 -0.00027415877133108417 -0.002544370475047319 0.0003017105871448008 0.004033786569784683 0.9970137663848955 -0.019751679807093754 0.002737379964380969 0.007917082380796466
0.03126302626094 0.003004469269950595 0.009961076715766555 0.9966617203264712 -0.024722668648351147 0.0003954995000449288 0.005043292676421968 -0.0003507598396882408 -0.003184474899360662
 0.9966617203264712 -0.024722668648351147 0.0030053686805448553 0.009960958909610445 -0.0003507688386220749 -0.003184474946181188 0.00039008458877258333 0.00504399276224506
 0.0003954995000449288 0.005043292676421968 -0.0003507688386220749 -0.003184474946181188 0.003004488471502112 0.009961489965449554 0.996661728092195 -0.02472225026432331
 -0.0003507598396882408 -0.003184474899360662 0.00039008458877258333 0.00504399276224506 0.996661728092195 -0.02472225026432331 0.003005363955164755 0.009961377282805097
0.037515631513130004 0.0032946916306779016 0.012027257049904294 0.9962784436631702 -0.029709225651703093 0.0004990060024933614 0.006053763576830482 -0.0004381815610648658 -0.003825590241330797
 0.9962784436631702 -0.029709225651703093 0.003295985948181419 0.012027105041974111 -0.0004381944800616393 -0.0038255900678931423 0.000491211008122996 0.006054742148749529
 0.0004990060024933614 0.006053763576830482 -0.0004381944800616393 -0.0038255900678931423 0.003294718918549888 0.012027751404110701 0.9962784545405075 -0.02970872337525112
 -0.0004381815610648658 -0.003825590241330797 0.000491211008122996 0.006054742148749529 0.9962784545405075 -0.02970872337525112 0.0032959786862708836 0.01202760632845238
0.043768236765320004 0.003607929243272018 0.014114574286901197 0.9958635121507925 -0.03471183734141294 0.0006158230414754312 0.007064545196510832 -0.0005365560630299233 -0.004467492757440621
 0.9958635121507925 -0.03471183734141294 0.0036096900085230655 0.014114383986500374 -0.000536573598238676 -0.0044674922556083236 0.0006052147171909327 0.007065863564507211
 0.0006158230414754312 0.007064545196510832 -0.000536573598238676 -0.0044674922556083236 0.0036079660159657905 0.014115149021708682 0.9958635266807383 -0.03471125097770602
 -0.0005365560630299233 -0.004467492757440621 0.0006052147171909327 0.007065863564507211 0.9958635266807383 -0.03471125097770602 0.0036096796285984573 0.01411496780388993
0.050020842017509996 0.003944631420820451 0.016222356316012775 0.9954165058442471 -0.039730507172437875 0.0007460729258337171 0.008075445719712361 -0.0006460114280054236 -0.005109962748467818
 0.9954165058442471 -0.039730507172437875 0.003946930169802837 0.01622212339945689 -0.0006460342712010807 -0.005109961796393746 0.0007322175068140794 0.008077171812028414
 0.0007460729258337171 0.008075445719712361 -0.0006460342712010807 -0.005109961796393746 0.003944679064770202 0.01622301061252399 0.9954165245807397 -0.03972983647848867
 -0.0006460114280054236 -0.005109962748467818 0.0007322175068140794 0.008077171812028414 0.9954165245807397 -0.03972983647848867 0.003946916065581061 0.01622278930580891
0.055454545454549996 0.00425663679953773 0.018070238731767586 0.9950016693056272 -0.04410485473272267 0.000870265562919588 0.008953888496170995 -0.0007502268876935295 -0.005668579368270204
 0.9950016693056272 -0.04410485473272267 0.00425946118042491 0.0180699650866918 -0.0007502549020437499 -0.005668577915273657 0.0008532356741435201 0.008956029272041246
 0.000870265562919588 0.008953888496170995 -0.0007502549020437499 -0.005668577915273657 0.004256695005919213 0.0180709614250845 0.9950016921591016 -0.04410411052419528
 -0.0007502268876935295 -0.005668579368270204 0.0008532356741435201 0.008956029272041246 0.9950016921591016 -0.04410411052419528 0.004259443326913387 0.01807070192011626
0.056273447269699996 0.004305242066846696 0.01835000748095422 0.9949370052101766 -0.04476514297923227 0.0008898745468732306 0.009086262739311771 -0.0007666716643112739 -0.005752781131494847
 0.9949370052101766 -0.04476514297923227 0.004308150351370791 0.018349727389579105 -0.0007667005028198903 -0.0057527795935616854 0.0008723377857242647 0.009088471172407464
 0.0008898745468732306 0.009086262739311771 -0.0007667005028198903 -0.0057527795935616854 0.004305301954364554 0.018350740419122078 0.994937028722101 -0.044764387669782225
 -0.0007666716643112739 -0.005752781131494847 0.0008723377857242647 0.009088471172407464 0.994937028722101 -0.044764387669782225 0.004308131890350019 0.018350474877706968
0.06252605252188 0.004690200067777751 0.020496979533183485 0.9944245920248326 -0.049815585985623335 0.0010473431054767012 0.010096785186291396 -0.0008986566211101308 -0.006395727604030989
 0.9944245920248326 -0.049815585985623335 0.004693789475507706 0.02049664747041179 -0.0008986921375821582 -0.006395725330807581 0.001025690329072301 0.010099557334398922
 0.0010473431054767012 0.010096785186291396 -0.0008986921375821582 -0.006395725330807581 0.004690273552937942 0.020497790091064703 0.9944246208966403 -0.04981474573378091
 -0.0008986566211101308 -0.006395727604030989 0.001025690329072301 0.010099557334398922 0.9944246208966403 -0.04981474573378091 0.004693765996307363 0.02049747596747891
0.06877865777407 0.0050999394538758765 0.022662754322757207 0.9938788500455837 -0.05488162808839322 0.0012185898694418665 0.011106794521169043 -0.0010420818746844217 -0.007038579557577709
 0.9938788500455837 -0.05488162808839322 0.005104281627527762 0.022662365250511837 -0.0010421247468974815 -0.007038576385774101 0.001192386050530768 0.011110218585116545
 0.0012185898694418665 0.011106794521169043 -0.0010421247468974815 -0.007038576385774101 0.005100027871501786 0.022663641379860332 0.9938788848806274 -0.05488070252216842
 -0.0010420818746844217 -0.007038579557577709 0.001192386050530768 0.011110218585116545 0.9938788848806274 -0.05488070252216842 0.005104252439914068 0.022663274121866216
0.07503126302626001 0.005534889428609182 0.024846832850210325 0.9932993655574625 -0.059963022792829404 0.0014037219512207425 0.012116065505176252 -0.0011970585947099145 -0.007681111423505457
 0.9932993655574625 -0.059963022792829404 0.005540056085356629 0.024846381484290622 -0.0011971094953621578 -0.007681107175933151 0.001372531791495058 0.012120236579848166
 0.0014037219512207425 0.012116065505176252 -0.0011971094953621578 -0.007681107175933151 0.005534994090384096 0.024847795182940693 0.9932994069790411 -0.0599620114997349
 -0.0011970585947099145 -0.007681111423505457 0.001372531791495058 0.012120236579848166 0.9932994069790411 -0.0599620114997349 0.005540020467342849 0.02484737002935253
0.08128386827845 0.0059954743114841 0.027048727987051813 0.9926857278378474 -0.06505949249281727 0.0016028420971589583 0.0131243667398538 -0.001363693399238932 -0.008323094262738083
 0.9926857278378474 -0.06505949249281727 0.006001537261805291 0.027048208791803884 -0.0013637529957001423 -0.0083230887482816 0.0015662301196484928 0.01312938688032204
 0.0016028420971589583 0.0131243667398538 -0.0013637529957001423 -0.0083230887482816 0.005995596503654421 0.02704976427113623 0.9926857764911936 -0.06505839501759231
 -0.001363693399238932 -0.008323094262738083 0.0015662301196484928 0.01312938688032204 0.9926857764911936 -0.06505839501759231 0.006001494458427129 0.027049276246910704
0.08753647353064001 0.006482113424577223 0.029267959462240926 0.9920375295706904 -0.07017073349944866 0.001816048485429822 0.014131461064539528 -0.0015420882015273656 -0.008964295510266274
 0.9920375295706904 -0.07017073349944866 0.006489144591339074 0.029267366644296404 -0.00154215715558029 -0.008964288523867726 0.0017735791342174344 0.014137439350392448
 0.001816048485429822 0.014131461064539528 -0.00154215715558029 -0.008964288523867726 0.006482254405040187 0.029269068272149725 0.9920375861249983 -0.0701695493450505
 -0.0015420882015273656 -0.008964295510266274 0.0017735791342174344 0.014137439350392448 0.9920375861249983 -0.0701695493450505 0.006489093812920855 0.02926851218239905
0.09378907878283 0.006995220940148506 0.03150405029916434 0.9913543672253231 -0.07529641963383311 0.002043434529772624 0.015137105869111909 -0.0017323400515469923 -0.009604478817311914
 0.9913543672253231 -0.07529641963383311 0.007003292377449646 0.031503377800299444 -0.0017324190190986593 -0.009604470139956679 0.0019946722761698186 0.015144158466956093
 0.002043434529772624 0.015137105869111909 -0.0017324190190986593 -0.009604470139956679 0.006995381935519296 0.03150523010595138 0.9913544323756484 -0.0752951482639454
 -0.0017323400515469923 -0.009604478817311914 0.0019946722761698186 0.015144158466956093 0.9913544323756484 -0.0752951482639454 0.007003232798081696 0.03150460052922637
0.100041684035 0.007535205700403523 0.03375652421704129 0.9906358414119064 -0.08043620487059834 0.0022850886876517886 0.016141053348873623 -0.0019345409740685387 -0.010243403964485979
 0.9906358414119064 -0.08043620487059834 0.0075443896120697745 0.03375576570622585 -0.0019346306048670537 -0.01024339336320874 0.002229598141725801 0.016149303572807628
 0.0022850886876517886 0.016141053348873623 -0.0019346306048670537 -0.01024339336320874 0.007535387903208948 0.033757773392022114 0.9906359158811634 -0.08043484570660613
 -0.0019345409740685387 -0.010243403964485979 0.002229598141725801 0.016149303572807628 0.9906359158811634 -0.08043484570660613 0.007544320367708532 0.033757064672643736
0.1059090909091 0.008066728025165632 0.03588470696726563 0.9899290666174054 -0.08527184724227753 0.002524906459766955 0.017081382766334224 -0.0021352300656938966 -0.010841605752201213
 0.9899290666174054 -0.08527184724227753 0.008077021695001633 0.0358838617343722 -0.0021353302880328827 -0.01084159312121681 0.002462706369027244 0.017090875406300415
 0.002524906459766955 0.017081382766334224 -0.0021353302880328827 -0.01084159312121681 0.008066931180110638 0.035886019662651945 0.9899291505149745 -0.08527040513371578
 -0.0021352300656938966 -0.010841605752201213 0.002462706369027244 0.017090875406300415 0.9899291505149745 -0.08527040513371578 0.008076942559355111 0.03588523131611499
0.1062942892872 0.00810247101552404 0.03602490369590057 0.9898815572196574 -0.0855897253338284 0.00254109427215304 0.017143050721222776 -0.0021487778040636734 -0.010880826826548588
 0.9898815572196574 -0.0855897253338284 0.00811283977451023 0.0360240525601922 -0.002148878741440504 -0.010880814054420124 0.0024784402996055298 0.017152629091113734
 0.00254109427215304 0.017143050721222776 -0.002148878741440504 -0.010880814054420124 0.008102675580893155 0.036026220505393065 0.9898816417601335 -0.08558827776081387
 -0.0021487778040636734 -0.010880826826548588 0.0024784402996055298 0.017152629091113734 0.9898816417601335 -0.08558827776081387 0.008112759960930482 0.0360254267446225
0.11254689453939999 0.00869741444777856 0.03830870851574165 0.9890911245420619 -0.09075660083456927 0.0028115292668633857 0.018142840423920333 -0.0023751320211891714 -0.011516499369014683
 0.9890911245420619 -0.09075660083456927 0.008709040614376646 0.03830775785045353 -0.002375244901718753 -0.011516484165194572 0.0027412771100027043 0.018153884721429023
 0.0028115292668633857 0.018142840423920333 -0.002375244901718753 -0.011516484165194572 0.008697642490679745 0.03831009112907808 0.9890912199377867 -0.0907550641942297
 -0.0023751320211891714 -0.011516499369014683 0.0027412771100027043 0.018153884721429023 0.9890912199377867 -0.0907550641942297 0.008708949285748517 0.038309206175573006
0.11879949979160001 0.009320427582606695 0.04060745464083126 0.9882641583938954 -0.09593643607982799 0.003096466143857603 0.019140160292522027 -0.0026136795832674012 -0.012150169679444224
 0.9882641583938954 -0.09593643607982799 0.009333383923507254 0.04060639723855624 -0.0026138050364720587 -0.012150151769165387 0.003018181546706102 0.019152815614658657
 0.003096466143857603 0.019140160292522027 -0.0026138050364720587 -0.012150151769165387 0.009320680175034277 0.04060890112488884 0.9882642654628961 -0.09593480967703377
 -0.0026136795832674012 -0.012150169679444224 0.003018181546706102 0.019152815614658657 0.9882642654628961 -0.09593480967703377 0.009333280090860112 0.04060791856396425
0.1250521050438 0.009971895791521362 0.0429206533554054 0.9874002792205228 -0.10112882164687849 0.003395971683881994 0.02013474373322358 -0.002864490760083092 -0.012781582016934427
 0.9874002792205228 -0.10112882164687849 0.009986255298309309 0.04291948169413094 -0.002864629408145663 -0.012781561111571454 0.0033092210212080217 0.02014916254337775
 0.003395971683881994 0.02013474373322358 -0.002864629408145663 -0.012781561111571454 0.009972173959159133 0.04292216167790078 0.987400398816209 -0.10112710474753117
 -0.002864490760083092 -0.012781582016934427 0.0033092210212080217 0.02014916254337775 0.987400398816209 -0.10112710474753117 0.009986137927173813 0.04292107481983373
0.131304710296 0.010652197987242321 0.04524781059032612 0.9864991132016141 -0.106333334783525 0.0037101067996074427 0.021126319889701164 -0.0031276299676497666 -0.013410476881631352
 0.9864991132016141 -0.106333334783525 0.010668033895180517 0.045246516820522206 -0.003127782425086341 -0.01341045267873695 0.003614457209262947 0.021142662066030608
 0.0037101067996074427 0.021126319889701164 -0.003127782425086341 -0.01341045267873695 0.010652502706392232 0.045249378619831165 0.986499246214856 -0.10633152661598767
 -0.0031276299676497666 -0.013410476881631352 0.003614457209262947 0.021142662066030608 0.986499246214856 -0.10633152661598767 0.010667901904109486 0.04524818048709534
0.1375573155481 0.011217694441450356 0.0472862290498904 0.9857043848312609 -0.11124714293212945 0.004003191029841333 0.022086139367618 -0.00336753323167718 -0.014008057509952411
 0.9857043848312609 -0.11124714293212945 0.01123508423375958 0.047284831223327065 -0.0033677001909966173 -0.014008029938259047 0.0038984240860749607 0.02210439967606703
 0.004003191029841333 0.022086139367618 -0.0033677001909966173 -0.014008029938259047 0.01121802579289287 0.04728785541177095 0.9857045319203422 -0.11124524300513632
 -0.00336753323167718 -0.014008057509952411 0.0038984240860749607 0.02210439967606703 0.9857045319203422 -0.11124524300513632 0.011234937838621782 0.047286563815095335
0.1438099208003 0.01180340330134624 0.04931157707469628 0.9848810179090891 -0.1161461135600911 0.004308023212431909 0.023040516145169703 -0.0036169107557874162 -0.01460070343228952
 0.9848810179090891 -0.1161461135600911 0.011822421115678872 0.04931006869649368 -0.0036170928350392016 -0.014600672198618932 0.004193745730149818 0.023060842599129168
 0.004308023212431909 0.023040516145169703 -0.0036170928350392016 -0.014600672198618932 0.011803762028311708 0.04931325960827384 0.9848811799715081 -0.11614412111381948
 -0.0036169107557874162 -0.01460070343228952 0.004193745730149818 0.023060842599129168 0.9848811799715081 -0.11614412111381948 0.011822259401692676 0.049311868821437226
0.1500625260525 0.012409079444778788 0.051323616426026966 0.984029262902608 -0.12103005395999213 0.0046244722439669015 0.023989303013593585 -0.003875636356786156 -0.01518827983371155
 0.984029262902608 -0.12103005395999213 0.01242979965390417 0.05132199059102894 -0.0038758341677793584 -0.015188244633971693 0.004500294215221586 0.02401184900281907
 0.0046244722439669015 0.023989303013593585 -0.0038758341677793584 -0.015188244633971693 0.012409466231940716 0.051325352888477 0.9840294408680491 -0.12102796821095885
 -0.003875636356786156 -0.01518827983371155 0.004500294215221586 0.02401184900281907 0.9840294408680491 -0.12102796821095885 0.012429621675681601 0.05132385679993926
0.15631513130469998 0.013034475547469077 0.053322116036216526 0.9831493720640989 -0.1258987737938709 0.0049524051901196344 0.024932355879418347 -0.0041435820565054885 -0.015770655283860964
 0.9831493720640989 -0.1258987737938709 0.013056972764407293 0.05332036541641057 -0.004143796204523793 -0.01577061580327813 0.0048179398442686535 0.024957280098637086
