! Created with skrf 1.8.0 (http://scikit-rf.org).
# GHz S RI R 50.0 
!freq ReS11 ImS11 ReS12 ImS12 ReS13 ImS13
! ReS14 ImS14
! ReS21 ImS21 ReS22 ImS22 ReS23 ImS23
! ReS24 ImS24
! ReS31 ImS31 ReS32 ImS32 ReS33 ImS33
! ReS34 ImS34
! ReS41 ImS41 ReS42 ImS42 ReS43 ImS43
! ReS44 ImS44
!
0.0 0.001491427290114 0.0 0.9985085727098 0.0 5.737979568505e-05 0.0 -5.737979657391e-05 7.026998420996515e-21
 0.9985085727098 0.0 0.001491427290141 0.0 -5.737979657416e-05 7.026998421027131e-21 5.737979568671e-05 0.0
 5.737979568505e-05 0.0 -5.737979657416e-05 7.026998421027131e-21 0.001491427281594 0.0 0.9985085727013 0.0
 -5.737979657391e-05 7.026998420996515e-21 5.737979568671e-05 0.0 0.9985085727013 0.0 0.001491427281605 0.0
0.005 0.00160449520458057 0.0012213925294080519 0.9983655638168777 -0.003124218582750467 8.010239086424977e-05 0.0006254206524781309 -7.787886547262734e-05 -0.0003937772167341668
 0.9983655638168777 -0.003124218582750467 0.0016044959503167461 0.0012213920816551388 -7.787557487385212e-05 -0.0003937746798788783 8.009962008978725e-05 0.0006254215613216114
 8.010239086424977e-05 0.0006254206524781309 -7.787557487385212e-05 -0.0003937746798788783 0.0016044966054955614 0.0012213244262480644 0.9983655634741396 -0.0031242856370274057
 -7.787886547262734e-05 -0.0003937772167341668 8.009962008978725e-05 0.0006254215613216114 0.9983655634741396 -0.0031242856370274057 0.0016044938659037621 0.0012213260770805386
0.006252605252188 0.0016341058707530483 0.0015315459671070696 0.9983278852657698 -0.003906043710339443 8.655977840263622e-05 0.0007820853160010514 -8.364379561943784e-05 -0.0004927315452572747
 0.9983278852657698 -0.003906043710339443 0.0016341070371393113 0.0015315454544329048 -8.363867522349193e-05 -0.0004927284169535034 8.655544762378502e-05 0.0007820865192126322
 8.655977840263622e-05 0.0007820853160010514 -8.363867522349193e-05 -0.0004927284169535034 0.0016341081227922965 0.0015314608352476702 0.9983278847916218 -0.00390612752787037
 -8.364379561943784e-05 -0.0004927315452572747 8.655544762378502e-05 0.0007820865192126322 0.9983278847916218 -0.00390612752787037 0.001634103840205863 0.0015314629533510525
0.01250521050438 0.0017897287787376078 0.0030951957317398764 0.9981285993337266 -0.00781292913931846 0.00012341058417149117 0.0015645716399841068 -0.00011623114433180244 -0.0009878727327089754
 0.9981285993337266 -0.00781292913931846 0.0017897334427899123 0.0030951951759176674 -0.00011621096564264012 -0.0009878669438788683 0.00012339326134275794 0.0015645747522026652
 0.00012341058417149117 0.0015645716399841068 -0.00011621096564264012 -0.0009878669438788683 0.0017897383247138963 0.003095025667119033 0.9981285979881341 -0.007813096531754396
 -0.00011623114433180244 -0.0009878727327089754 0.00012339326134275794 0.0015645747522026652 0.9981285979881341 -0.007813096531754396 0.0017897212206564393 0.0030950304784480975
0.01875781575657 0.0019586271451107378 0.00468114147709335 0.9979104732614964 -0.011730172802058157 0.00016801690997398025 0.0023479808407962928 -0.00015524001392082864 -0.0014847256973764319
 0.9979104732614964 -0.011730172802058157 0.001958637637415154 0.004681141349189306 -0.00015519501483165956 -0.0014847178035555472 0.0001679778736565563 0.0023479866724639186
 0.00016801690997398025 0.0023479808407962928 -0.00015519501483165956 -0.0014847178035555472 0.0019586490276837193 0.004680886499349911 0.9979104706585941 -0.011730423670733896
 -0.00015524001392082864 -0.0014847256973764319 0.0001679778736565563 0.0023479866724639186 0.9979104706585941 -0.011730423670733896 0.0019586105866393746 0.004680894670690819
0.02501042100875 0.0021411228098284865 0.006287175425477461 0.9976732560981976 -0.015659681540806113 0.00022046446261431892 0.0031323495109039034 -0.000200765625997038 -0.001983072639111685
 0.9976732560981976 -0.015659681540806113 0.0021411414657038527 0.006287176201964623 -0.00020068616076370296 -0.00198306329344963 0.00022039491699561484 0.0031323589812199326
 0.00022046446261431892 0.0031323495109039034 -0.00020068616076370296 -0.00198306329344963 0.0021411620657425857 0.0062868354841713395 0.997673251849386 -0.015660015824111476
 -0.000200765625997038 -0.001983072639111685 0.00022039491699561484 0.0031323589812199326 0.997673251849386 -0.015660015824111476 0.0021410937864032534 0.006286847773170862
0.03126302626094 0.002337524287435808 0.007912165722062004 0.9974166837721448 -0.01960227660994207 0.00028083939014349744 0.003917643174990835 -0.000252900658251603 -0.0024827616315108254
 0.9974166837721448 -0.01960227660994207 0.002337553449484219 0.007912167885688187 -0.0002527771775895272 -0.0024827515860332714 0.00028073046125589316 0.003917657314566976
 0.00028083939014349744 0.003917643174990835 -0.0002527771775895272 -0.0024827515860332714 0.0023375859548756 0.007911740710451254 0.9974166774906416 -0.01960269426974908
 -0.000252900658251603 -0.0024827616315108254 0.00028073046125589316 0.003917657314566976 0.9974166774906416 -0.01960269426974908 0.0023374793476684157 0.007911757966415706
0.037515631513130004 0.002548133496520275 0.009555377628431127 0.9971404860181962 -0.023558372421915504 0.0003492274852334203 0.004703799324535184 -0.0003117358988047905 -0.0029836635879544765
 0.9971404860181962 -0.023558372421915504 0.0025481755162457542 0.009555381668440558 -0.00031155893970893515 -0.002983653693922199 0.00034907021981125995 0.004703819277928141
 0.0003492274852334203 0.004703799324535184 -0.00031155893970893515 -0.002983653693922199 0.002548222611552222 0.009554867397793779 0.9971404773143867 -0.023558873428947164
 -0.0003117358988047905 -0.0029836635879544765 0.00034907021981125995 0.004703819277928141 0.9971404773143867 -0.023558873428947164 0.002548069198064941 0.009554890562868281
0.043768236765320004 0.0027732483556321295 0.01121626694551947 0.9968443891732651 -0.027528183055187064 0.00042571381123107665 0.005490740494197099 -0.0003773604802289206 -0.0034856591838445168
 0.9968443891732651 -0.027528183055187064 0.002773305594483996 0.011216273357690753 -0.00037712065988779647 -0.0034856503918951455 0.00042549917647601433 0.005490767522288827
 0.00042571381123107665 0.005490740494197099 -0.00037712065988779647 -0.0034856503918951455 0.002773369957868919 0.01121567130560285 0.9968443776593093 -0.02752876738817547
 -0.0003773604802289206 -0.0034856591838445168 0.00042549917647601433 0.005490767522288827 0.9968443776593093 -0.02752876738817547 0.0027731612709995983 0.011215701415780719
0.050020842017509996 0.003013163995822894 0.012894394647889575 0.9965281175903258 -0.0315118075485955 0.0005103824767899219 0.006278379666683286 -0.0004498619643307563 -0.003988633451402095
 0.9965281175903258 -0.0315118075485955 0.0030132388263907762 0.012894403934443409 -0.0004495499763079816 -0.003988626811594439 0.0005101013607681138 0.0062784151490702855
 0.0005103824767899219 0.006278379666683286 -0.0004495499763079816 -0.003988626811594439 0.0030133231263422444 0.012893713369801843 0.9965281028775821 -0.031512475190999804
 -0.0004498619643307563 -0.003988633451402095 0.0005101013607681138 0.0062784151490702855 0.9965281028775821 -0.031512475190999804 0.003013050710422423 0.01289375155610387
0.055454545454549996 0.0032339055813472265 0.014366445192316862 0.9962366686865374 -0.034984937922033534 0.0005906716588651676 0.0069633560425946634 -0.0005185196767492792 -0.004426440152006581
 0.9962366686865374 -0.034984937922033534 0.003233997635934696 0.014366457389618344 -0.0005181374721844226 -0.004426436312474501 0.000590325307779141 0.0069634000863919125
 0.0005906716588651676 0.0069633560425946634 -0.0005181374721844226 -0.004426436312474501 0.0032341014204665492 0.014365689272149726 0.9962366508775312 -0.03498567795675543
 -0.0005185196767492792 -0.004426440152006581 0.000590325307779141 0.0069634000863919125 0.9962366508775312 -0.03498567795675543 0.0032337667647603188 0.014365735469948007
0.056273447269699996 0.0032681733823525486 0.014589384979595447 0.9961913944663691 -0.035509271735192804 0.0006033164738140594 0.007066622927366603 -0.0005293263624839474 -0.004492473127064433
 0.9961913944663691 -0.035509271735192804 0.0032682681894521635 0.014589397649133319 -0.0005289329740924749 -0.0044924697888848895 0.0006029596863168149 0.007066668364714721
 0.0006033164738140594 0.007066622927366603 -0.0005289329740924749 -0.0044924697888848895 0.003268375083937368 0.014588617789799327 0.9961913761650831 -0.03551002268073879
 -0.0005293263624839474 -0.004492473127064433 0.0006029596863168149 0.007066668364714721 0.9961913761650831 -0.03551002268073879 0.003268030495791279 0.014588665279302816
0.06252605252188 0.0035385676514274405 0.016300902413798214 0.9958339423870481 -0.03952055121430742 0.0007045975506382915 0.007855370921141427 -0.0006158381192897486 -0.004997065199607089
 0.9958339423870481 -0.03952055121430742 0.0035386848328371103 0.01630091898105411 -0.0006153541698172641 -0.004997066411952716 0.0007041558242206234 0.00785542793751515
 0.0007045975506382915 0.007855370921141427 -0.0006153541698172641 -0.004997066411952716 0.0035388169693927446 0.016300049001754524 0.9958339201070835 -0.039521385458826455
 -0.0006158381192897486 -0.004997065199607089 0.0007041558242206234 0.00785542793751515 0.9958339201070835 -0.039521385458826455 0.0035383917790851767 0.01630010711869274
0.06877865777407 0.0038246362899616746 0.01802863791963341 0.9954554837195843 -0.043545585019399244 0.0008143061013124262 0.008644519722048948 -0.0007094800785763908 -0.005502296048842262
 0.9954554837195843 -0.043545585019399244 0.003824778257425543 0.01802865890529597 -0.0007088964781055325 -0.005502303159980407 0.000813770092535496 0.008644590067249526
 0.0008143061013124262 0.008644519722048948 -0.0007088964781055325 -0.005502303159980407 0.003824938271005208 0.018027697931345166 0.9954554570690017 -0.04354650256683039
 -0.0007094800785763908 -0.005502296048842262 0.000813770092535496 0.008644590067249526 0.9954554570690017 -0.04354650256683039 0.003824424062795337 0.018027768098195437
0.07503126302626001 0.004126667221557164 0.019772300248129447 0.995055740914106 -0.04758428427046712 0.0009325210669214643 0.009433961386914828 -0.0008103334359354623 -0.006008050903944737
 0.995055740914106 -0.04758428427046712 0.004126836401559845 0.019772326178611632 -0.0008096411645238338 -0.0060080653614682554 0.0009318813576677143 0.009434046938790972
 0.0009325210669214643 0.009433961386914828 -0.0008096411645238338 -0.0060080653614682554 0.004127026915081487 0.019771273291801006 0.9950557095002145 -0.04758528512658935
 -0.0008103334359354623 -0.006008050903944737 0.0009318813576677143 0.009434046938790972 0.9950557095002145 -0.04758528512658935 0.00412641528861482 0.01977135703029924
0.08128386827845 0.004444946835959885 0.021531610147162376 0.9946344367529415 -0.051636537901275356 0.0010593198420859272 0.010223584330874643 -0.0009184776844261402 -0.0065142134837146886
 0.9946344367529415 -0.051636537901275356 0.0044451456709411535 0.021531641554233642 -0.0009176677916349586 -0.0065142368344834325 0.0010585669412595602 0.010223687097610434
 0.0010593198420859272 0.010223584330874643 -0.0009176677916349586 -0.0065142368344834325 0.004445369293569828 0.021530495787177008 0.9946344001816622 -0.05163762207929869
 -0.0009184776844261402 -0.0065142134837146886 0.0010585669412595602 0.010223687097610434 0.9946344001816622 -0.05163762207929869 0.004444651865205879 0.021530594719313376
0.08753647353064001 0.00477975997959891 0.02330629634411394 0.9941912945632 -0.05570221662319333 0.00119477818666779 0.011013273584449468 -0.0010339905541005957 -0.007020665759300879
 0.9941912945632 -0.05570221662319333 0.004779990928145344 0.023306333764663456 -0.0010330541586858176 -0.007020699649371298 0.0011939025315698614 0.011013395706851474
 0.00119477818666779 0.011013273584449468 -0.0010330541586858176 -0.007020699649371298 0.004780250254780685 0.02330509410670984 0.9941912524389801 -0.055703384137531675
 -0.0010339905541005957 -0.007020665759300879 0.0011939025315698614 0.011013395706851474 0.9941912524389801 -0.055703384137531675 0.004779418658621009 0.02330520995578512
0.09378907878283 0.00513138991817034 0.025096092691179028 0.9937260384061787 -0.05978117573092952 0.0013389701394889084 0.011802910987056584 -0.0011569479477541963 -0.007527287784599112
 0.9937260384061787 -0.05978117573092952 0.005131655456432178 0.025096136666838905 -0.001155876237589447 -0.00752733395914248 0.0013379620977077658 0.01180305474081192
 0.0013389701394889084 0.011802910987056584 -0.001155876237589447 -0.00752733395914248 0.0051319530658565805 0.025094802059311864 0.993725990331088 -0.059782426601715434
 -0.0011569479477541963 -0.007527287784599112 0.0013379620977077658 0.01180305474081192 0.993725990331088 -0.059782426601715434 0.00513099895553358 0.02509493665084248
0.100041684035 0.005500118280943004 0.026900736062068404 0.9932383932501575 -0.06387325716153835 0.001491967933906099 0.012592375333494315 -0.0012874238739835303 -0.008033957578002664
 0.9932383932501575 -0.06387325716153835 0.005500420903232709 0.026900787138857615 -0.00128620810614835 -0.008034017881200416 0.0014908178050851786 0.012592543131420202
 0.001491967933906099 0.012592375333494315 -0.00128620810614835 -0.008034017881200416 0.005500759358293406 0.02689935647547657 0.9932383388249211 -0.06387459141407441
 -0.0012874238739835303 -0.008033957578002664 0.0014908178050851786 0.012592543131420202 0.9932383388249211 -0.06387459141407441 0.005499674407941513 0.026899511738218675
0.1059090909091 0.005861930946469103 0.02860747254574984 0.9927601833878693 -0.06772502499455084 0.001643611640563916 0.013332935952284174 -0.0014167639173926821 -0.008509346371409644
 0.9927601833878693 -0.06772502499455084 0.005862270653542746 0.028607530786378642 -0.0014154050768733465 -0.008509421698232699 0.0016423192968502082 0.013333128631651085
 0.001643611640563916 0.013332935952284174 -0.0014154050768733465 -0.008509421698232699 0.00586264975334282 0.02860600894009889 0.9927601226385858 -0.06772643751558938
 -0.0014167639173926821 -0.008509346371409644 0.0016423192968502082 0.013333128631651085 0.9927601226385858 -0.06772643751558938 0.005861434471100334 0.02860618544744347
0.1062942892872 0.005886224991293099 0.028719964774030594 0.9927280851332678 -0.06797829103308234 0.0016538419154436485 0.013381542483369832 -0.0014254903770656825 -0.008540551045597373
 0.9927280851332678 -0.06797829103308234 0.005886567210840924 0.028720023501991515 -0.0014241218779667121 -0.0085406274205503 0.0016525399331133884 0.01338173687763879
 0.0016538419154436485 0.013381542483369832 -0.0014241218779667121 -0.0085406274205503 0.005886949056946488 0.028718495631841447 0.9927280239563847 -0.06797970869469432
 -0.0014254903770656825 -0.008540551045597373 0.0016525399331133884 0.01338173687763879 0.9927280239563847 -0.06797970869469432 0.005885724962994046 0.028718673598608347
0.11254689453939999 0.0062899881856550675 0.030553517387567508 0.9921948413182998 -0.07209609681089184 0.0018246604590404579 0.014170285458823862 -0.0015712174661707396 -0.009046941920507463
 0.9921948413182998 -0.07209609681089184 0.006290372535599236 0.03055358432026836 -0.0015696876318334126 -0.009047036409094949 0.001823196792588937 0.014170509143155341
 0.0018246604590404579 0.014170285458823862 -0.0015696876318334126 -0.009047036409094949 0.006290800299389969 0.03055195804482403 0.9921947729856929 -0.0720975979137905
 -0.0015712174661707396 -0.009046941920507463 0.001823196792588937 0.014170509143155341 0.9921947729856929 -0.0720975979137905 0.006289428782161318 0.030552160853430335
0.11879949979160001 0.006711684124049835 0.03240113176282091 0.9916383904403846 -0.0762264842221857 0.0020044898877413174 0.014958474522037328 -0.0017246730424019937 -0.009553001727121972
 0.9916383904403846 -0.0762264842221857 0.006712113157960817 0.032401207456980316 -0.0017229733388199105 -0.009553116469877825 0.002002854644408723 0.014958730333927054
 0.0020044898877413174 0.014958474522037328 -0.0017229733388199105 -0.009553116469877825 0.006712589346908142 0.03239948152967557 0.9916383145458948 -0.07622806880370624
 -0.0017246730424019937 -0.009553001727121972 0.002002854644408723 0.014958730333927054 0.9916383145458948 -0.07622806880370624 0.006711062151870844 0.03239971142379265
0.1250521050438 0.00715158709400084 0.03426254432096785 0.9910584626528472 -0.08036925397145149 0.0021933943913273715 0.01574597724559899 -0.0018859228251249163 -0.010058599757166093
 0.9910584626528472 -0.08036925397145149 0.0071520633872076906 0.03426262933592021 -0.0018840447887276963 -0.010058736993114496 0.002191577618413044 0.015746268168417316
 0.0021933943913273715 0.01574597724559899 -0.0018840447887276963 -0.010058736993114496 0.0071525904878615085 0.0342608024648773 0.9910583787872618 -0.08037092207127741
 -0.0018859228251249163 -0.010058599757166093 0.002191577618413044 0.015746268168417316 0.9910583787872618 -0.08037092207127741 0.0071508993876404515 0.03426106179486189
0.131304710296 0.0076099693089763274 0.03613748945319665 0.9904547897682522 -0.08452419831371155 0.0023914359458829257 0.01653265857138494 -0.002055030276986804 -0.010563603062045962
 0.9904547897682522 -0.08452419831371155 0.007610495458973181 0.03613758435041026 -0.0020529655150321943 -0.010563765128544029 0.0023894276328021956 0.016532987736530603
 0.0023914359458829257 0.01653265857138494 -0.0020529655150321943 -0.010563765128544029 0.0076110759364210355 0.03613565519499911 0.9904546975197756 -0.08452594997720819
 -0.002055030276986804 -0.010563603062045962 0.0023894276328021956 0.016532987736530603 0.9904546975197756 -0.08452594997720819 0.007609212732260706 0.036135946418647064
0.1375573155481 0.00798078398995867 0.03778153828603912 0.9899334620729218 -0.0884468319831179 0.0025732773051201077 0.01729392472426345 -0.002206669960050935 -0.011043433571841718
 0.9899334620729218 -0.0884468319831179 0.007981361992228729 0.03778163836545531 -0.0022044060303273425 -0.011043620613811008 0.0025710777243962224 0.017294291482729176
 0.0025732773051201077 0.01729392472426345 -0.0022044060303273425 -0.011043620613811008 0.007981998288338833 0.03777961079402501 0.9899333610625941 -0.08844866720228477
 -0.002206669960050935 -0.011043433571841718 0.0025710777243962224 0.017294291482729176 0.9899333610625941 -0.08844866720228477 0.007979955367429386 0.03777993111576758
0.1438099208003 0.008364614527108776 0.03941714700966885 0.9893938684051333 -0.09235973727633402 0.002762461047270532 0.01805222831440023 -0.0023643777192104394 -0.011520537114837555
 0.9893938684051333 -0.09235973727633402 0.008365246906873397 0.03941725236667718 -0.002361905601548775 -0.011520751427143143 0.0027600619600722577 0.018052635441674788
 0.002762461047270532 0.01805222831440023 -0.002361905601548775 -0.011520751427143143 0.008365941447106081 0.03941512547619416 0.9893937582242879 -0.09236165608690715
 -0.0023643777192104394 -0.011520537114837555 0.0027600619600722577 0.018052635441674788 0.9893937582242879 -0.09236165608690715 0.008363710760388523 0.03941547694688925
0.1500625260525 0.008761328933490731 0.04104418519571823 0.9888361446623689 -0.09626282331658288 0.0029589236113820683 0.018807496033233534 -0.002528091602628698 -0.011994843839891465
 0.9888361446623689 -0.09626282331658288 0.008762018230381257 0.04104429592794852 -0.0025254022960678156 -0.011995087809470083 0.0029563168429170158 0.018807946399745114
 0.0029589236113820683 0.018807496033233534 -0.0025254022960678156 -0.011995087809470083 0.008762773418890596 0.041042068777401894 0.9888360249001535 -0.09626482575781851
 -0.002528091602628698 -0.011994843839891465 0.0029563168429170158 0.018807946399745114 0.9888360249001535 -0.09626482575781851 0.008760346951288609 0.04104245352991184
0.15631513130469998 0.009170794323432504 0.04266252637363868 0.9882604273905186 -0.10015599942212805 0.0031626007063223533 0.019559655786148784 -0.002697748914526326 -0.012466285345837982
