! Created with skrf 1.8.0 (http://scikit-rf.org).
# GHz S RI R 50.0 
!freq ReS11 ImS11 ReS12 ImS12 ReS13 ImS13
! ReS14 ImS14
! ReS21 ImS21 ReS22 ImS22 ReS23 ImS23
! ReS24 ImS24
! ReS31 ImS31 ReS32 ImS32 ReS33 ImS33
! ReS34 ImS34
! ReS41 ImS41 ReS42 ImS42 ReS43 ImS43
! ReS44 ImS44
!
0.0 0.001206666949657 0.0 0.9987933330503 0.0 4.60102945584e-05 0.0 -4.601029402468e-05 5.634635930515295e-21
 0.9987933330503 0.0 0.00120666694964 0.0 -4.601029402433e-05 5.6346359304724325e-21 4.601029455642e-05 0.0
 4.60102945584e-05 0.0 -4.601029402433e-05 5.6346359304724325e-21 0.001206666935977 0.0 0.9987933330367 0.0
 -4.601029402468e-05 5.634635930515295e-21 4.601029455642e-05 0.0 0.9987933330367 0.0 0.001206666935982 0.0
0.005 0.0012974941447868634 0.0009870813536052314 0.9986785364942514 -0.0025286416319682398 6.415049920815458e-05 0.0005108854914127693 -6.231340220712558e-05 -0.0003201320458200868
 0.9986785364942514 -0.0025286416319682398 0.001297510291433668 0.0009870719688448823 -6.231497767592732e-05 -0.0003201332826918407 6.403776445825104e-05 0.0005109281850315896
 6.415049920815458e-05 0.0005108854914127693 -6.231497767592732e-05 -0.0003201332826918407 0.0012974928734213926 0.000987014881705334 0.998678536162371 -0.002528708685070391
 -6.231340220712558e-05 -0.0003201320458200868 6.403776445825104e-05 0.0005109281850315896 0.998678536162371 -0.002528708685070391 0.0012975109019844652 0.000987004336836563
0.006252605252188 0.00132108643674974 0.0012377695855438691 0.9986485641192656 -0.00316145598239061 6.921723869492435e-05 0.0006388661515719618 -6.681175057178607e-05 -0.0004005930379948914
 0.9986485641192656 -0.00316145598239061 0.0013211116767976351 0.001237757693171014 -6.68142019691343e-05 -0.00040059456427252513 6.904109602258636e-05 0.0006389215601468742
 6.921723869492435e-05 0.0006388661515719618 -6.68142019691343e-05 -0.00040059456427252513 0.0013210845259323273 0.0012376864989025254 0.9986485636772161 -0.003161539800260153
 -6.681175057178607e-05 -0.0004005930379948914 6.904109602258636e-05 0.0006389215601468742 0.9986485636772161 -0.003161539800260153 0.0013211127084101627 0.0012376731493111439
0.01250521050438 0.0014439487369320896 0.002501828262247428 0.9984916037644272 -0.006323914550053365 9.766126055809122e-05 0.0012781435145096933 -9.177314331438891e-05 -0.0008032750832526716
 0.9984916037644272 -0.006323914550053365 0.00144404951644295 0.0025018028702694867 -9.178280238965606e-05 -0.0008032779224768511 9.695871798343845e-05 0.0012782760227725816
 9.766126055809122e-05 0.0012781435145096933 -9.178280238965606e-05 -0.0008032779224768511 0.0014439416700604937 0.0025016623896940327 0.9984916025662072 -0.0063240819470401395
 -9.177314331438891e-05 -0.0008032750832526716 9.695871798343845e-05 0.0012782760227725816 0.9984916025662072 -0.0063240819470401395 0.001444054208931179 0.0025016339988910676
0.01875781575657 0.00157547457754199 0.0037842725520133994 0.9983222911234465 -0.0094951203493783 0.00013139969705180135 0.001918291968299986 -0.00012096103858375202 -0.0012074893660714162
 0.9983222911234465 -0.0094951203493783 0.0015757010223561092 0.0037842319738083663 -0.00012098257712154016 -0.0012074932729911338 0.0001298212089170937 0.0019185267552868728
 0.00013139969705180135 0.001918291968299986 -0.00012098257712154016 -0.0012074932729911338 0.0015754591113899795 0.0037840240836075015 0.9983222888514948 -0.009495371238440208
 -0.00012096103858375202 -0.0012074893660714162 0.0001298212089170937 0.0019185267552868728 0.9983222888514948 -0.009495371238440208 0.0015757119998164814 0.0037839788384260355
0.02501042100875 0.0017158805657175966 0.005083354022301863 0.9981404604193264 -0.012676657783191499 0.00017049117094526377 0.0025593678072938094 -0.00015444052714528434 -0.0016130799409173934
 0.9981404604193264 -0.012676657783191499 0.0017162826929028364 0.005083296511636883 -0.0001544785613828256 -0.0016130846334924422 0.00016768684703631948 0.002559733389475582
 0.00017049117094526377 0.0025593678072938094 -0.0001544785613828256 -0.0016130846334924422 0.0017158534623440773 0.005083023148236335 0.9981404567592848 -0.012676992117135827
 -0.00015444052714528434 -0.0016130799409173934 0.00016768684703631948 0.002559733389475582 0.9981404567592848 -0.012676992117135827 0.0017163025851056602 0.005082959136147252
0.03126302626094 0.0018653739876336162 0.006398196730300421 0.9979459358487563 -0.015869233545158765 0.00021499514692570798 0.003201368820220176 -0.0001922752577429754 -0.0020199465172136464
 0.9979459358487563 -0.015869233545158765 0.001866001731665028 0.006398120485976534 -0.00019233435818009605 -0.0020199516759533765 0.00021061441343590086 0.00320189707000408
 0.00021499514692570798 0.003201368820220176 -0.00019233435818009605 -0.0020199516759533765 0.0018653320054826505 0.006397783658931571 0.9979459304812561 -0.015869651298713067
 -0.0001922752577429754 -0.0020199465172136464 0.00021061441343590086 0.00320189707000408 0.9979459304812561 -0.015869651298713067 0.0018660331675947916 0.00639769887279831
0.037515631513130004 0.0020241578072462156 0.007728247615511584 0.9977385366637707 -0.01907322618337196 0.0002649712986514197 0.003844270133007338 -0.00023452792356288128 -0.002428008597614609
 0.9977385366637707 -0.01907322618337196 0.002025061037154647 0.007728150784288749 -0.00023461262005370853 -0.00242801386538109 0.0002586627357560829 0.0038449963141158456
 0.0002649712986514197 0.003844270133007338 -0.00023461262005370853 -0.00242801386538109 0.00202409770924493 0.007727752581612375 0.9977385292729036 -0.01907372734532829
 -0.00023452792356288128 -0.002428008597614609 0.0002586627357560829 0.0038449963141158456 0.9977385292729036 -0.01907372734532829 0.00202510665416665 0.007727644922147472
0.043768236765320004 0.002192432609769181 0.009073109232303062 0.9975180792017532 -0.022288853318139203 0.00032047922525026525 0.004488035119043438 -0.0002812604476923794 -0.0028371945532984304
 0.9975180792017532 -0.022288853318139203 0.0021936611419181716 0.009072989911183183 -0.00028137523253837776 -0.0028371995352128275 0.0003118904802183213 0.0044889979272499155
 0.00032047922525026525 0.004488035119043438 -0.00028137523253837776 -0.0028371995352128275 0.0021923511566886407 0.009072532497331158 0.9975180694682235 -0.02228943789151765
 -0.0002812604476923794 -0.0028371945532984304 0.0003118904802183213 0.0044889979272499155 0.9975180694682235 -0.02228943789151765 0.0021937235796603734 0.009072399774940499
0.050020842017509996 0.0023703975098929827 0.010432470631023245 0.9972843778830986 -0.02551624070939327 0.0003815782909551926 0.005132619887670011 -0.00033253406205301827 -0.0032474371226342475
 0.9972843778830986 -0.02551624070939327 0.002372001119299217 0.010432326868987998 -0.00033268339204658363 -0.003247441386036664 0.00037035603072172477 0.005133861493690245
 0.0003815782909551926 0.005132619887670011 -0.00033268339204658363 -0.003247441386036664 0.0023702914638007847 0.010431812487862456 0.9972843654872083 -0.025516908707064388
 -0.00033253406205301827 -0.0032474371226342475 0.00037035603072172477 0.005133861493690245 0.9972843654872083 -0.025516908707064388 0.0023720830233968713 0.010431652423819862
0.055454545454549996 0.002533077837272181 0.011625370862216032 0.997070383574325 -0.028330542624578448 0.00043926176909777205 0.0056934114334295845 -0.00038082736695848327 -0.0036047578474604296
 0.997070383574325 -0.028330542624578448 0.002535047798918835 0.011625204239767813 -0.0003810103106793362 -0.003604761105727696 0.000425463175363808 0.0056949323029403
 0.00043926176909777205 0.0056934114334295845 -0.0003810103106793362 -0.003604761105727696 0.0025329477900044245 0.011624642235585032 0.9970703686042964 -0.028331283138502746
 -0.00038082736695848327 -0.0036047578474604296 0.000425463175363808 0.0056949323029403 0.9970703686042964 -0.028331283138502746 0.0025351487726865555 0.011624456491812284
0.056273447269699996 0.00255825063072311 0.011806073435749864 0.9970372457804688 -0.0287554561266591 0.0004483275187702984 0.005777975489396719 -0.0003884093389277264 -0.0036586711942235323
 0.9970372457804688 -0.0287554561266591 0.002560279060915674 0.011805903235425156 -0.0003885976367517757 -0.003658674268660057 0.0004341174063256894 0.005779541582970368
 0.0004483275187702984 0.005777975489396719 -0.0003885976367517757 -0.003658674268660057 0.0025581167541328348 0.011805334211046126 0.9970372304013099 -0.028756207569506552
 -0.0003884093389277264 -0.0036586711942235323 0.0004341174063256894 0.005779541582970368 0.9970372304013099 -0.028756207569506552 0.002560383082333958 0.011805144438574357
0.06252605252188 0.0027561893774989024 0.013193693188642002 0.9967764949857589 -0.03200652795298766 0.0005207855108229333 0.006424049126051074 -0.0004489461987261623 -0.0040708325862423315
 0.9967764949857589 -0.03200652795298766 0.002758692349958577 0.013193494507556244 -0.0004491778540045312 -0.004070833963453515 0.0005032321972636639 0.006425988960576509
 0.0005207855108229333 0.006424049126051074 -0.0004491778540045312 -0.004070833963453515 0.0027560244332790283 0.013192873237731165 0.996776476300306 -0.032007362875413836
 -0.0004489461987261623 -0.0040708325862423315 0.0005032321972636639 0.006425988960576509 0.996776476300306 -0.032007362875413836 0.002758821144736959 0.013192651302712103
0.06877865777407 0.0029644105921490796 0.014595128226008296 0.996501936859465 -0.03526945625775669 0.0005990103842884042 0.007070784867118166 -0.0005142039036468733 -0.004483857320810076
 0.996501936859465 -0.03526945625775669 0.0029674378150567437 0.014594898977784198 -0.0005144832736639002 -0.004483856454735805 0.0005777575115725295 0.00707315130458606
 0.0005990103842884042 0.007070784867118166 -0.0005144832736639002 -0.004483856454735805 0.002964211344122755 0.014594227941727527 0.9965019145429728 -0.035270374699339836
 -0.0005142039036468733 -0.004483857320810076 0.0005777575115725295 0.00707315130458606 0.9965019145429728 -0.035270374699339836 0.0029675940449511913 0.014593971303231652
0.07503126302626001 0.0031831106443470044 0.01601019262727562 0.996213382218118 -0.038544219797517494 0.0006830597158874268 0.007718124104160697 -0.0005842410429399256 -0.004897681161582076
 0.996213382218118 -0.038544219797517494 0.003186711821251183 0.01600993068257116 -0.0005845724532053423 -0.0048976774683683975 0.0006577499278231074 0.007720973660245693
 0.0006830597158874268 0.007718124104160697 -0.0005845724532053423 -0.0048976774683683975 0.003182873857464997 0.01600921243692363 0.9962133559436014 -0.03854522180644899
 -0.0005842410429399256 -0.004897681161582076 0.0006577499278231074 0.007720973660245693 0.9962133559436014 -0.03854522180644899 0.003186898153689748 0.01600891846760355
0.08128386827845 0.0034124854806910515 0.017438711527299526 0.9959106414830178 -0.04183078065476512 0.0007729904923565126 0.008366005848469537 -0.0006591155123786709 -0.005312239309528547
 0.9959106414830178 -0.04183078065476512 0.003416710319358064 0.017438414714494574 -0.0006595032570643285 -0.005312232167534551 0.0007432654514915301 0.008369398737589361
 0.0007729904923565126 0.008366005848469537 -0.0006595032570643285 -0.005312232167534551 0.003412207921443316 0.017437651891937432 0.995910610921173 -0.04183186628901541
 -0.0006591155123786709 -0.005312239309528547 0.0007432654514915301 0.008369398737589361 0.995910610921173 -0.04183186628901541 0.0034169294274947314 0.01743731787804572
0.08753647353064001 0.0036527306457221184 0.018880517861737358 0.9955935248008869 -0.04512908744486806 0.0008688590634619356 0.009014366942525333 -0.0007388844906347276 -0.005727466186305819
 0.9955935248008869 -0.04512908744486806 0.003657628866387714 0.018880183967498066 -0.0007393328328407164 -0.005727454936118235 0.0008343594731518248 0.009018367122850096
 0.0008688590634619356 0.009014366942525333 -0.0007393328328407164 -0.005727454936118235 0.0036524090825330703 0.018879379279428673 0.9955934896196731 -0.04513025676938377
 -0.0007388844906347276 -0.005727466186305819 0.0008343594731518248 0.009018367122850096 0.9955934896196731 -0.04513025676938377 0.0036578834294383935 0.018879002420826116
0.09378907878283 0.00390404128530404 0.0203354500515153 0.9952618421499367 -0.04843907758544873 0.0009707210984405865 0.009663142204357945 -0.0008236044119683993 -0.006143295286254057
 0.9952618421499367 -0.04843907758544873 0.003909662629253709 0.020335076821129176 -0.0008241175839738644 -0.0061432792307059446 0.0009310867286341269 0.009667817422668095
 0.0009707210984405865 0.009663142204357945 -0.0008241175839738644 -0.0061432792307059446 0.0039036724885673363 0.020334233056027214 0.9952618020143865 -0.048440330673847135
 -0.0008236044119683993 -0.006143295286254057 0.0009310867286341269 0.009667817422668095 0.9952618020143865 -0.048440330673847135 0.003909955332053253 0.020333810465883194
0.100041684035 0.004166612135011005 0.021803350295682748 0.9949154034323303 -0.05176067895884096 0.0010786315430735625 0.010312264537597503 -0.0009133309374541063 -0.006559659064265919
 0.9949154034323303 -0.05176067895884096 0.004173006373079327 0.02180293543314438 -0.0009139131408421668 -0.006559637468452659 0.0010335012598109822 0.010317686373922866
 0.0010786315430735625 0.010312264537597503 -0.0009139131408421668 -0.006559637468452659 0.004166192877961945 0.021802055458684456 0.9949153580043125 -0.05176201589163417
 -0.0009133309374541063 -0.006559659064265919 0.0010335012598109822 0.010317686373922866 0.9949153580043125 -0.05176201589163417 0.004173339906734359 0.021801584162968846
0.1059090909091 0.0044234211570427714 0.02319247491442418 0.9945767176321011 -0.05488813831024882 0.0011854432858793254 0.0109216512783363 -0.0010021320930369254 -0.0069507974424033074
 0.9945767176321011 -0.05488813831024882 0.004430585974201661 0.02319201885951695 -0.0010027828691095682 -0.006950769945661883 0.0011348264463885698 0.010927842291363954
 0.0011854432858793254 0.0109216512783363 -0.0010027828691095682 -0.006950769945661883 0.004422951616442681 0.023191107583545558 0.9945766669273854 -0.05488955400341892
 -0.0010021320930369254 -0.0069507974424033074 0.0011348264463885698 0.010927842291363954 0.9945766669273854 -0.05488955400341892 0.004430960276234202 0.02319058779967677
0.1062942892872 0.004440637500059724 0.023284063289252158 0.9945540185602328 -0.055093811151246126 0.001192644578525878 0.010961665011263166 -0.0010081189240915835 -0.006976488855479046
 0.9945540185602328 -0.055093811151246126 0.004447854441286135 0.0232836044572172 -0.0010087743298730664 -0.006976460946789161 0.0011416563760014565 0.010967908923301052
 0.001192644578525878 0.010961665011263166 -0.0010087743298730664 -0.006976460946789161 0.004440164559220952 0.023282691217903387 0.9945539674985899 -0.05509523201866183
 -0.0010081189240915835 -0.006976488855479046 0.0011416563760014565 0.010967908923301052 0.9945539674985899 -0.05509523201866183 0.00444823150310539 0.02328216815469694
0.11254689453939999 0.004726311227764332 0.024777435237898004 0.9941774975354528 -0.058438386396805195 0.0013128135800733291 0.011611272925889468 -0.0011080223930876067 -0.007393714810371007
 0.9941774975354528 -0.058438386396805195 0.004734400727806385 0.024776930057321973 -0.0011087551416977366 -0.00739367977851148 0.0012556046156385946 0.0116184182931288
 0.0013128135800733291 0.011611272925889468 -0.0011087551416977366 -0.00739367977851148 0.004725781382691479 0.024775986579317337 0.9941774404949977 -0.058439891294665626
 -0.0011080223930876067 -0.007393714810371007 0.0012556046156385946 0.0116184182931288 0.9941774404949977 -0.058439891294665626 0.004734824020960213 0.024775408597876716
0.11879949979160001 0.005023826672354563 0.026283313096270286 0.9937856505243897 -0.06179431029969916 0.0014391910769946058 0.012261015860765154 -0.0012130944964878622 -0.007811265850359073
 0.9937856505243897 -0.06179431029969916 0.005032838642513161 0.026282759145890663 -0.0012139086978698007 -0.0078112228473785775 0.0013753977082614074 0.012269146028238687
 0.0014391910769946058 0.012261015860765154 -0.0012139086978698007 -0.0078112228473785775 0.005023236707073923 0.026281788533591033 0.9937855871562462 -0.06179589933377669
 -0.0012130944964878622 -0.007811265850359073 0.0013753977082614074 0.012269146028238687 0.9937855871562462 -0.06179589933377669 0.005033310876566795 0.026281152393220295
0.1250521050438 0.005333376657663817 0.02780154394982117 0.9933782879312388 -0.06516148241484197 0.0015718287122912945 0.012910819716047026 -0.0013233874832976763 -0.008229069630327237
 0.9933782879312388 -0.06516148241484197 0.005343361073414439 0.0278009387653453 -0.0013242872168206066 -0.00822901777066193 0.001501086536439881 0.01292002203778549
 0.0015718287122912945 0.012910819716047026 -0.0013242872168206066 -0.00822901777066193 0.005332723360399821 0.027799944206730945 0.9933782178823648 -0.0651631556966879
 -0.0013233874832976763 -0.008229069630327237 0.001501086536439881 0.01292002203778549 0.9933782178823648 -0.0651631556966879 0.005343884964073685 0.027799246575359527
0.131304710296 0.00565515343413681 0.029331974535105033 0.9929552204680097 -0.06853979669183376 0.00171077720259863 0.013560608746655824 -0.0014389526647894352 -0.008647052511145953
 0.9929552204680097 -0.06853979669183376 0.005666160344101002 0.02933131560818643 -0.0014399419792230001 -0.008646990871656412 0.0016327210974862343 0.013570974628682893
 0.00171077720259863 0.013560608746655824 -0.0014399419792230001 -0.008646990871656412 0.0056544335983189425 0.029330300371416568 0.9929551433811759 -0.06854155434354559
 -0.0014389526647894352 -0.008647052511145953 0.0016327210974862343 0.013570974628682893 0.9929551433811759 -0.06854155434354559 0.0056667386135583605 0.02932953782399694
0.1375573155481 0.005908100447614555 0.030674079349428722 0.9925975255443358 -0.07172872139160852 0.0018368128967747308 0.014189507096071483 -0.0015406625537988227 -0.009044285780069123
 0.9925975255443358 -0.07172872139160852 0.0059201844566278755 0.0306733791547731 -0.0015417474619627025 -0.00904421447113265 0.0017512672635687585 0.014201007501615641
 0.0018368128967747308 0.014189507096071483 -0.0015417474619627025 -0.00904421447113265 0.005907311414029171 0.030672331384987383 0.9925974411018648 -0.07173056346921433
 -0.0015406625537988227 -0.009044285780069123 0.0017512672635687585 0.014201007501615641 0.9925974411018648 -0.07173056346921433 0.0059208192094360205 0.03067151565653388
0.1438099208003 0.006169668612008676 0.03201028724192054 0.992227740694758 -0.07491075768944369 0.0019679495842939566 0.01481654671283434 -0.0016464534846365813 -0.009439852636517025
 0.992227740694758 -0.07491075768944369 0.006182880597086597 0.03200954419973752 -0.0016476383454319579 -0.009439770767822863 0.0018745826216169945 0.014829263751060995
 0.0019679495842939566 0.01481654671283434 -0.0016476383454319579 -0.009439770767822863 0.006168807280174465 0.03200846625172442 0.9922276485412214 -0.07491268430877927
 -0.0016464534846365813 -0.009439852636517025 0.0018745826216169945 0.014829263751060995 0.9922276485412214 -0.07491268430877927 0.0061835744519298285 0.03200759483839403
0.1500625260525 0.006439779973226455 0.03334052173546628 0.9918459466198329 -0.07808586245016488 0.0021041511159825333 0.015441686196099666 -0.0017562909999180461 -0.009833714249456301
 0.9918459466198329 -0.07808586245016488 0.006454170915808324 0.03333973415784618 -0.001757580166682447 -0.009833620895250472 0.002002632551666803 0.015455704927362148
 0.0021041511159825333 0.015441686196099666 -0.001757580166682447 -0.009833620895250472 0.0064388432539517464 0.03333862852437517 0.9918458463962173 -0.07808787373253596
 -0.0017562909999180461 -0.009833714249456301 0.002002632551666803 0.015455704927362148 0.9918458463962173 -0.07808787373253596 0.006454926490285076 0.033337698777877046
0.15631513130469998 0.006718356187525152 0.034664708881965704 0.9914522242479566 -0.08125399203144446 0.002245381016508114 0.01606488469154478 -0.0018701403095556359 -0.010225832516708987
