! Created with skrf 1.8.0 (http://scikit-rf.org).
# GHz S RI R 50.0 
!freq ReS11 ImS11 ReS12 ImS12 ReS13 ImS13
! ReS14 ImS14
! ReS21 ImS21 ReS22 ImS22 ReS23 ImS23
! ReS24 ImS24
! ReS31 ImS31 ReS32 ImS32 ReS33 ImS33
! ReS34 ImS34
! ReS41 ImS41 ReS42 ImS42 ReS43 ImS43
! ReS44 ImS44
!
0.0 0.001458797241134 0.0 0.9985412027589 0.0 5.605499860085e-05 0.0 -5.605499839546e-05 6.86475743612101e-21
 0.9985412027589 0.0 0.001458797241087 0.0 -5.605499839436e-05 6.8647574359863e-21 5.605499859976e-05 0.0
 5.605499860085e-05 0.0 -5.605499839436e-05 6.8647574359863e-21 0.001458797238084 0.0 0.9985412027559 0.0
 -5.605499839546e-05 6.86475743612101e-21 5.605499859976e-05 0.0 0.9985412027559 0.0 0.001458797238096 0.0
0.005 0.001569306870286599 0.0011949742444828694 0.9984014556502955 -0.0030559583111567598 7.810898751772584e-05 0.000609569847113687 -7.600952245036284e-05 -0.00038405099052201525
 0.9984014556502955 -0.0030559583111567598 0.0015692907292165865 0.0011949836869263708 -7.601115285985844e-05 -0.0003840522775110273 7.821697318400525e-05 0.0006095289901322739
 7.810898751772584e-05 0.000609569847113687 -7.601115285985844e-05 -0.0003840522775110273 0.001569305508488205 0.00119490780791718 0.9984014553058015 -0.003056025381108836
 -7.600952245036284e-05 -0.00038405099052201525 7.821697318400525e-05 0.0006095289901322739 0.9984014553058015 -0.003056025381108836 0.0015692914031822463 0.0011949159835172058
0.006252605252188 0.001598223431213232 0.00149842179156632 0.9983646747530199 -0.00382070562281077 8.43460319142541e-05 0.0007622673460976378 -8.160821492779329e-05 -0.0004805624252808059
 0.9983646747530199 -0.00382070562281077 0.0015981981989429855 0.0014984337147611738 -8.16107517077916e-05 -0.00048056401301925923 8.451475316090513e-05 0.0007622142679334407
 8.43460319142541e-05 0.0007622673460976378 -8.16107517077916e-05 -0.00048056401301925923 0.0015982213693159725 0.0014983387654909953 0.9983646742817289 -0.0038207894455105497
 -8.160821492779329e-05 -0.0004805624252808059 8.451475316090513e-05 0.0007622142679334407 0.9983646742817289 -0.0038207894455105497 0.001598199320302642 0.001498349095616738
0.01250521050438 0.0017500573955757316 0.003028283723277407 0.9981703561840453 -0.007642277462915914 0.00011977927176818553 0.0015249600205372055 -0.00011318546417762355 -0.0009634908791304631
 0.9981703561840453 -0.007642277462915914 0.0017499566354202219 0.003028308775358275 -0.0001131954584417922 -0.0009634938257235479 0.0001204521996990701 0.0015248323162077725
 0.00011977927176818553 0.0015249600205372055 -0.0001131954584417922 -0.0009634938257235479 0.0017500497121285927 0.0030281179891557676 0.9981703548574704 -0.007642444849492286
 -0.00011318546417762355 -0.0009634908791304631 0.0001204521996990701 0.0015248323162077725 0.9981703548574704 -0.007642444849492286 0.001749961674708051 0.0030281397414624617
0.01875781575657 0.0019146164178961366 0.004579998307738982 0.997958015437989 -0.011474029847006045 0.0001624362056559181 0.002288590633664003 -0.00015088079583834796 -0.0014481102968372317
 0.997958015437989 -0.011474029847006045 0.0019143899944006326 0.004580037794673879 -0.00015090307948316278 -0.0014481143323638215 0.0001639481166952499 0.002288362760292081
 0.0001624362056559181 0.002288590633664003 -0.00015090307948316278 -0.0014481143323638215 0.001914599561772623 0.004579750046424134 0.9979580128770226 -0.011474280706281247
 -0.00015088079583834796 -0.0014481102968372317 0.0001639481166952499 0.002288362760292081 0.9979580128770226 -0.011474280706281247 0.0019144017507386343 0.004579784357652076
0.02501042100875 0.0020922092284344977 0.006151412040143707 0.9977274121476412 -0.015317834105205019 0.0002123987843059495 0.003053200170137793 -0.00019478550622176508 -0.0019342123044384383
 0.9977274121476412 -0.015317834105205019 0.002091807099750798 0.006151467346525533 -0.00019482485241969716 -0.0019342171129665665 0.0002150847374234141 0.0030528427240593204
 0.0002123987843059495 0.003053200170137793 -0.00019482485241969716 -0.0019342171129665665 0.002092179650086171 0.006151081439532894 0.9977274079745503 -0.015318168368210929
 -0.00019478550622176508 -0.0019342123044384383 0.0002150847374234141 0.0030528427240593204 0.9977274079745503 -0.015318168368210929 0.0020918283750174034 0.0061511294721573505
0.03126302626094 0.0022831317700442257 0.007741424006265374 0.9974782931809517 -0.01917449992150738 0.0002697492839949724 0.0038187606414533076 -0.00024498850079826567 -0.002421652652955103
 0.9974782931809517 -0.01917449992150738 0.002282503959024858 0.0077414965904072245 -0.00024504963405541094 -0.002421657871927447 0.000273944929931518 0.0038182403329673244
 0.0002697492839949724 0.0038187606414533076 -0.00024504963405541094 -0.002421657871927447 0.0022830859190025037 0.0077410112645778465 0.9974782870182686 -0.019174917538473182
 -0.00024498850079826567 -0.002421652652955103 0.000273944929931518 0.0038182403329673244 0.9974782870182686 -0.019174917538473182 0.002282537558183708 0.007741074201641758
0.037515631513130004 0.0024876737046866455 0.009349321927505878 0.9972103993351311 -0.023044439227975836 0.00033456962957278047 0.004585216917292293 -0.0003015769331145578 -0.0029103093926924908
 0.9972103993351311 -0.023044439227975836 0.002486770279862243 0.00934941331872806 -0.00030166453450064783 -0.0029103146127544255 0.0003406113515824177 0.004584496529205123
 0.00033456962957278047 0.004585216917292293 -0.00030166453450064783 -0.0029103146127544255 0.002487608028916782 0.009348827263767715 0.9972103908051688 -0.023044940158247477
 -0.0003015769331145578 -0.0029103093926924908 0.0003406113515824177 0.004584496529205123 0.9972103908051688 -0.023044940158247477 0.0024868190110345196 0.009348906305689603
0.043768236765320004 0.0027061209357051087 0.010974580087722676 0.9969234680435151 -0.02692786820968463 0.0004069410763401363 0.005352499448640763 -0.0003646364339216504 -0.003400070148759613
 0.9969234680435151 -0.02692786820968463 0.002704891996020223 0.0109746918845726 -0.00036475514420013005 -0.0034000749137225814 0.0004151660590615186 0.005351537789697319
 0.0004069410763401363 0.005352499448640763 -0.00036475514420013005 -0.0034000749137225814 0.002706031882421563 0.01097400374505298 0.9969234567693288 -0.026928452418949277
 -0.0003646364339216504 -0.003400070148759613 0.0004151660590615186 0.005351537789697319 0.9969234567693288 -0.026928452418949277 0.002704958671591536 0.010974100107034748
0.050020842017509996 0.00293875677801921 0.012616775860678343 0.9966172347318785 -0.030824890707288853 0.00048694401690179453 0.00612052951577563 -0.00043425119639869063 -0.00389082687122575
 0.9966172347318785 -0.030824890707288853 0.0029371524391903136 0.01261690972971589 -0.00043440561800801543 -0.0038908306780474464 0.0004976902770335754 0.006119281372061257
 0.00048694401690179453 0.00612052951577563 -0.00043440561800801543 -0.0038908306780474464 0.0029386407922865196 0.012616118108895142 0.9966172203361844 -0.03082555816538121
 -0.00043425119639869063 -0.00389082687122575 0.0004976902770335754 0.006119281372061257 0.9966172203361844 -0.03082555816538121 0.0029372398748582287 0.012616233019090466
0.055454545454549996 0.0031526658037965708 0.014057368037042748 0.9963352267031139 -0.03422258747026289 0.000562728387987606 0.0067885118860711155 -0.0005001365336639315 -0.004318035604117261
 0.9963352267031139 -0.03422258747026289 0.0031506947235080685 0.014057522493143295 -0.0005003256985690748 -0.004318038133382293 0.0005759408776819533 0.006786974897665102
 0.000562728387987606 0.0067885118860711155 -0.0005003256985690748 -0.004318038133382293 0.003152523525746475 0.014056639778229374 0.9963352092888418 -0.034223327253218694
 -0.0005001365336639315 -0.004318035604117261 0.0005759408776819533 0.006786974897665102 0.9963352092888418 -0.034223327253218694 0.0031508024906337683 0.014056771813599689
0.056273447269699996 0.0031858625654900452 0.014275548698302568 0.9962914336157821 -0.03473553915919187 0.0005746578413449837 0.006889221807054722 -0.0005105039984675431 -0.004382473256034729
 0.9962914336157821 -0.03473553915919187 0.003183832947915349 0.014275706373283974 -0.0005106986969671233 -0.004382475554842642 0.000588264235318015 0.0068876378923825865
 0.0005746578413449837 0.006889221807054722 -0.0005106986969671233 -0.004382475554842642 0.0031857160921911413 0.014274809833137423 0.9962914157220085 -0.034736289841527934
 -0.0005105039984675431 -0.004382473256034729 0.000588264235318015 0.0068876378923825865 0.9962914157220085 -0.034736289841527934 0.00318394396398189 0.014274944530992501
0.06252605252188 0.0034477179809056435 0.01595057760099908 0.995945798221735 -0.0386597970638789 0.0006701608259871027 0.007658485832195219 -0.0005934761909174954 -0.004874903333799629
 0.995945798221735 -0.0386597970638789 0.0034452131977684825 0.015950760882389486 -0.0005937156959236378 -0.004874903527913278 0.0006869670425447975 0.007656512738083992
 0.0006701608259871027 0.007658485832195219 -0.0005937156959236378 -0.004874903527913278 0.00344753746277398 0.015949757951854243 0.995945776452493 -0.038660630944089044
 -0.0005934761909174954 -0.004874903333799629 0.0006869670425447975 0.007656512738083992 0.995945776452493 -0.038660630944089044 0.0034453506172762317 0.015949913686876118
0.06877865777407 0.003724601233076807 0.017641567692185937 0.9955800617604453 -0.04259761234031943 0.000773530036028079 0.00842822677027672 -0.0006832476677437634 -0.005368010626690411
 0.9955800617604453 -0.04259761234031943 0.0037215713789404384 0.017641778447048177 -0.0006835364735772778 -0.005368008072653036 0.0007938765780490304 0.008425806915840772
 0.000773530036028079 0.00842822677027672 -0.0006835364735772778 -0.005368008072653036 0.0037243831123518266 0.01764066761212419 0.9955800357384842 -0.04259852940087292
 -0.0006832476677437634 -0.005368010626690411 0.0007938765780490304 0.008425806915840772 0.9955800357384842 -0.04259852940087292 0.0037217380290871923 0.01764084564294531
0.07503126302626001 0.004016789145961301 0.019348241685801758 0.9951939574138992 -0.04654890579868664 0.0008848412376410495 0.009198346004530473 -0.0007798968240666525 -0.005861687621697463
 0.9951939574138992 -0.04654890579868664 0.004013184285755192 0.019348481848021473 -0.0007802393903094074 -0.0058616816293089805 0.0009090693958946277 0.009195417586476498
 0.0008848412376410495 0.009198346004530473 -0.0007802393903094074 -0.0058616816293089805 0.004016529864298064 0.019347261562294542 0.9951939267619331 -0.04654990602059184
 -0.0007798968240666525 -0.005861687621697463 0.0009090693958946277 0.009195417586476498 0.9951939267619331 -0.04654990602059184 0.004013382996920602 0.01934746315620725
0.08128386827845 0.004324557190880814 0.021070334227213057 0.9947872185694749 -0.050513576741120975 0.001004168815159879 0.00996874148181611 -0.0008835005066211114 -0.006355825422565668
 0.9947872185694749 -0.050513576741120975 0.0043203273485092186 0.021070605798067483 -0.0008839012584190166 -0.006355815254930712 0.0010326206358931402 0.009965238424665767
 0.001004168815159879 0.00996874148181611 -0.0008839012584190166 -0.006355815254930712 0.004324253189270088 0.02106927447832616 0.994787182909471 -0.05051466010830608
 -0.0008835005066211114 -0.006355825422565668 0.0010326206358931402 0.009965238424665767 0.994787182909471 -0.05051466010830608 0.004320560953824199 0.021069500910968025
0.08753647353064001 0.004648179482049061 0.022807587968615657 0.9943595790204174 -0.05449150683186926 0.0011315856912280913 0.01073930796541285 -0.0009941339592133642 -0.006850313511977327
 0.9943595790204174 -0.05449150683186926 0.004643274629556155 0.0228078930176324 -0.0009945972874627008 -0.006850298385547046 0.0011646039388624142 0.010735159872009068
 0.0011315856912280913 0.01073930796541285 -0.0009945972874627008 -0.006850298385547046 0.004647827201218349 0.022806449042513978 0.9943595379738858 -0.05449267333219179
 -0.0009941339592133642 -0.006850313511977327 0.0011646039388624142 0.010735159872009068 0.9943595379738858 -0.05449267333219179 0.004643545965047111 0.022806701597970658
0.09378907878283 0.004987928746316218 0.024559750763468707 0.9939107731431508 -0.05848256285224797 0.001267163249624292 0.011509937218327979 -0.001111870763965351 -0.007345039586807531
 0.9939107731431508 -0.05848256285224797 0.004982298792607117 0.024560091429698915 -0.0011124010254660278 -0.007345018671431114 0.0013050913649525929 0.011505069320861648
 0.001267163249624292 0.011509937218327979 -0.0011124010254660278 -0.007345018671431114 0.0049875246274180395 0.024558533144035295 0.9939107263312755 -0.05848381247237397
 -0.001111870763965351 -0.007345039586807531 0.0013050913649525929 0.011505069320861648 0.9939107263312755 -0.05848381247237397 0.00498261069706724 0.02455881311530388
0.100041684035 0.005344076273981982 0.026326573622419008 0.9934405360597304 -0.062486598698481756 0.0014109712591219284 0.01228051814097541 -0.001236782779785311 -0.007839889442887634
 0.9934405360597304 -0.062486598698481756 0.005337671053890763 0.026326952115985718 -0.0012373842973370426 -0.007839861861857988 0.0014541533141601702 0.012274851252445765
 0.0014109712591219284 0.01228051814097541 -0.0012373842973370426 -0.007839861861857988 0.005343616758662144 0.026325277825343656 0.9934404831028061 -0.06248793142829839
 -0.001236782779785311 -0.007839889442887634 0.0014541533141601702 0.012274851252445765 0.9934404831028061 -0.06248793142829839 0.005338026368024444 0.026325586515177128
0.1059090909091 0.005693437343748373 0.027997662261572322 0.9929795418225327 -0.06625562653490777 0.001553465994226512 0.013003481267386126 -0.0013605876769147175 -0.00830426265315143
 0.9929795418225327 -0.06625562653490777 0.005686258917817673 0.02799807832720965 -0.001361259961917939 -0.008304227978337707 0.0016018917638158216 0.012996988612078958
 0.001553465994226512 0.013003481267386126 -0.001361259961917939 -0.008304227978337707 0.005692922609424772 0.027996293602725177 0.992979482753033 -0.06625703724615259
 -0.0013605876769147175 -0.00830426265315143 0.0016018917638158216 0.012996988612078958 0.992979482753033 -0.06625703724615259 0.005686657552788833 0.027996630436432145
0.1062942892872 0.005716891857129408 0.028107809158374613 0.9929486037893388 -0.06650345689472434 0.0015630777985348504 0.013050936879759133 -0.0013689400786086015 -0.008334746892779755
 0.9929486037893388 -0.06650345689472434 0.005709661119995033 0.028108227762470194 -0.0013696171409538656 -0.00833471172289568 0.0016118584480389578 0.013044387346023785
 0.0015630777985348504 0.013050936879759133 -0.0013696171409538656 -0.00833471172289568 0.005716373388101459 0.028106435733027745 0.9929485443068052 -0.06650487272598483
 -0.0013689400786086015 -0.008334746892779755 0.0016118584480389578 0.013044387346023785 0.9929485443068052 -0.06650487272598483 0.00571006268665965 0.028106774455108372
0.11254689453939999 0.006106643715529351 0.029903210411164758 0.9924347133910146 -0.07053296973111994 0.0017235491820103567 0.013821076914263387 -0.0015084108799174934 -0.008829493708911257
 0.9924347133910146 -0.07053296973111994 0.0060985371140602875 0.029903671484355163 -0.0015091677416928725 -0.00882944998054379 0.0017782736124545247 0.013813556566650663
 0.0017235491820103567 0.013821076914263387 -0.0015091677416928725 -0.00882944998054379 0.006106062736901395 0.02990175994148548 0.9924346470019533 -0.070534468657045
 -0.0015084108799174934 -0.008829493708911257 0.0017782736124545247 0.013813556566650663 0.9924346470019533 -0.070534468657045 0.006098987778003943 0.029902130021961106
0.11879949979160001 0.0065135984169803094 0.03171252992476969 0.9918986031041346 -0.07457496015405052 0.0018924498850224419 0.014590819133244053 -0.0016552614839219514 -0.009324009582018341
 0.9918986031041346 -0.07457496015405052 0.0065045654956979925 0.03171303590374782 -0.001656102365599975 -0.009323956279176227 0.0019534637606292557 0.014582235241938604
 0.0018924498850224419 0.014590819133244053 -0.001656102365599975 -0.009323956279176227 0.006512951374562624 0.03171100302819061 0.9918985294261256 -0.07457654217087126
 -0.0016552614839219514 -0.009324009582018341 0.0019534637606292557 0.014582235241938604 0.9918985294261256 -0.07457654217087126 0.006505068102698983 0.031711405807723185
0.1250521050438 0.006938020788291421 0.033535519020338224 0.9913400124806054 -0.07862924246541773 0.0020698424706181435 0.01536004189448639 -0.0018095562033090095 -0.009818172100043232
 0.9913400124806054 -0.07862924246541773 0.006928010972308443 0.03353607242300544 -0.0018104852910808674 -0.009818108160439121 0.002137491877413376 0.015350297122547015
 0.0020698424706181435 0.01536004189448639 -0.0018104852910808674 -0.009818108160439121 0.006937304130335595 0.03353391635279904 0.9913399311306336 -0.07863090756789508
 -0.0018095562033090095 -0.009818172100043232 0.002137491877413376 0.015350297122547015 0.9913399311306336 -0.07863090756789508 0.00692856836941491 0.03353435318881438
0.131304710296 0.007380173823372301 0.035371927218991996 0.9907586825183597 -0.08269562287733778 0.002255787515527267 0.01612862108471698 -0.0019713572945943367 -0.010311856731138026
 0.9907586825183597 -0.08269562287733778 0.0073691364067109 0.035372530647975874 -0.0019723787401455563 -0.01031178104628922 0.0023304189030367954 0.01611761344289538
 0.002255787515527267 0.01612862108471698 -0.0019723787401455563 -0.01031178104628922 0.007379384000886738 0.035370249468175866 0.990758593112138 -0.08269737106597264
 -0.0019713572945943367 -0.010311856731138026 0.0023304189030367954 0.01611761344289538 0.990758593112138 -0.08269737106597264 0.007369751441725199 0.035370721737750604
0.1375573155481 0.007736978501657035 0.03698233455653805 0.9902577344342867 -0.08653462831865838 0.0024258720707784035 0.01687232642262188 -0.0021161638341045527 -0.010780908133691884
 0.9902577344342867 -0.08653462831865838 0.007724859135602125 0.036982980421970214 -0.002117283872431387 -0.01078082065915955 0.0025076497883357272 0.0168600749353648
 0.0024258720707784035 0.01687232642262188 -0.002117283872431387 -0.01078082065915955 0.007736112660439195 0.03698058219293806 0.9902576366091862 -0.08653645955373154
 -0.0021161638341045527 -0.010780908133691884 0.0025076497883357272 0.0168600749353648 0.9902576366091862 -0.08653645955373154 0.007725533918529288 0.036981081443187826
0.1438099208003 0.008106283789381812 0.038584627816802004 0.9897392923446646 -0.09036426825854907 0.002602811917421907 0.01761327532644707 -0.0022667668373360724 -0.01124738162779306
 0.9897392923446646 -0.09036426825854907 0.008093031034012479 0.038585318296573315 -0.0022679899458475632 -0.01124728127518214 0.0026920500090467907 0.01759968713441517
 0.002602811917421907 0.01761327532644707 -0.0022679899458475632 -0.01124728127518214 0.008105338509022501 0.03858280152288452 0.9897391857197766 -0.09036618253075741
 -0.0022667668373360724 -0.01124738162779306 0.0026920500090467907 0.01759968713441517 0.9897391857197766 -0.09036618253075741 0.008093768279458466 0.03858332870974656
0.1500625260525 0.00848796509340306 0.04017868375909243 0.9892034847053035 -0.09418445842321525 0.0027865484432410114 0.018351400840406946 -0.0024231083198973033 -0.011711211780337507
 0.9892034847053035 -0.09418445842321525 0.008473527363577002 0.04017942118225356 -0.0024244389680336065 -0.01171109741743557 0.0028835591872056854 0.018336379707386195
 0.0027865484432410114 0.018351400840406946 -0.0024244389680336065 -0.01171109741743557 0.008486936964051645 0.04017678424316569 0.9892033688992853 -0.09418645572347106
 -0.0024231083198973033 -0.011711211780337507 0.0028835591872056854 0.018336379707386195 0.9892033688992853 -0.09418645572347106 0.008474329778066158 0.040177340425844005
0.15631513130469998 0.00888189700011359 0.04176438290100513 0.9886504405565413 -0.09799511462088532 0.0029770223792672788 0.019086637103611533 -0.0025851296146209516 -0.01217233449955492
