! Created with skrf 1.8.0 (http://scikit-rf.org).
# GHz S RI R 50.0 
!freq ReS11 ImS11 ReS12 ImS12 ReS13 ImS13
! ReS14 ImS14
! ReS21 ImS21 ReS22 ImS22 ReS23 ImS23
! ReS24 ImS24
! ReS31 ImS31 ReS32 ImS32 ReS33 ImS33
! ReS34 ImS34
! ReS41 ImS41 ReS42 ImS42 ReS43 ImS43
! ReS44 ImS44
!
0.0 0.00143647945717 0.0 0.9985635205254 0.0 5.498014217314e-05 0.0 -5.498014202868e-05 6.733125495208983e-21
 0.9985635205254 0.0 0.001436479457172 0.0 -5.498014202893e-05 6.733125495239599e-21 5.498014217308e-05 0.0
 5.498014217314e-05 0.0 -5.498014202893e-05 6.733125495239599e-21 0.001436479453796 0.0 0.9985635205221 0.0
 -5.498014202868e-05 6.733125495208983e-21 5.498014217308e-05 0.0 0.9985635205221 0.0 0.001436479453782 0.0
0.005 0.001545201813744069 0.0011799870074660605 0.9984260598650957 -0.003009157301521939 7.604785546918856e-05 0.0005779079105352892 -7.415337959929135e-05 -0.00036764325671091095
 0.9984260598650957 -0.003009157301521939 0.001545179668798958 0.001179999987490813 -7.415528092076484e-05 -0.000367644744882772 7.618649412325e-05 0.0005778553170602104
 7.604785546918856e-05 0.0005779079105352892 -7.415528092076484e-05 -0.000367644744882772 0.0015452010361289164 0.0011800547576463723 0.9984260602193925 -0.0030090902460876727
 -7.415337959929135e-05 -0.00036764325671091095 7.618649412325e-05 0.0005778553170602104 0.9984260602193925 -0.0030090902460876727 0.0015451811504454758 0.0011800663448875348
0.006252605252188 0.0015736326894808179 0.0014796161728143301 0.9983899097430129 -0.0037621941951916176 8.198626552606245e-05 0.0007226852344125759 -7.952036507156644e-05 -0.0004600278926337537
 0.9983899097430129 -0.0037621941951916176 0.001573598072113442 0.0014796326096995088 -7.952332348979289e-05 -0.0004600297283590626 8.220287890770459e-05 0.0007226169360626059
 8.198626552606245e-05 0.0007226852344125759 -7.952332348979289e-05 -0.0004600297283590626 0.0015736313931823895 0.0014797008665447834 0.9983899102164755 -0.003762110372698057
 -7.952036507156644e-05 -0.0004600278926337537 8.220287890770459e-05 0.0007226169360626059 0.9983899102164755 -0.003762110372698057 0.0015736003082372058 0.001479715553452026
0.01250521050438 0.0017228110331806892 0.002990184701461988 0.9981990900167957 -0.007525253188034756 0.00011561839494940025 0.001445864190141113 -0.00010972318685365567 -0.0009223132761777137
 0.9981990900167957 -0.007525253188034756 0.0017226727977373965 0.002990219719143725 -0.00010973484350833873 -0.0009223166805916355 0.00011648229184790626 0.0014457001543649204
 0.00011561839494940025 0.001445864190141113 -0.00010973484350833873 -0.0009223166805916355 0.001722805277341824 0.0029903538691369315 0.9981990913350728 -0.007525085789437234
 -0.00010972318685365567 -0.0009223132761777137 0.00011648229184790626 0.0014457001543649204 0.9981990913350728 -0.007525085789437234 0.0017226811586941516 0.0029903852770514975
0.01875781575657 0.0018843219729032098 0.004522274102248216 0.9979908368803654 -0.011298349058393022 0.00015595395401176186 0.002170002868718078 -0.0001456771500324758 -0.0013862400255370963
 0.9979908368803654 -0.011298349058393022 0.0018840113406489284 0.0045223300391522125 -0.00014570314206294375 -0.0013862446837294392 0.0001578948252142424 0.0021697106003580914
 0.00015595395401176186 0.002170002868718078 -0.00014570314206294375 -0.0013862446837294392 0.0018843086050670472 0.00452252769291907 0.9979908394239255 -0.011298098162987297
 -0.0001456771500324758 -0.0013862400255370963 0.0001578948252142424 0.0021697106003580914 0.9979908394239255 -0.011298098162987297 0.0018840297163119934 0.004522577989897941
0.02501042100875 0.0020584649193752854 0.006073769612761066 0.9977649174691642 -0.015083328598764099 0.00020307053932888452 0.0028951376315427702 -0.0001874683652553947 -0.0018516170460705318
 0.9977649174691642 -0.015083328598764099 0.0020579132438396154 0.006073848974667525 -0.000187514261855259 -0.0018516225894634382 0.00020651838191928457 0.002894679759594094
 0.00020307053932888452 0.0028951376315427702 -0.000187514261855259 -0.0018516225894634382 0.002058440779139266 0.006074107613367437 0.9977649216136236 -0.015082994247997783
 -0.0001874683652553947 -0.0018516170460705318 0.00020651838191928457 0.002894679759594094 0.9977649216136236 -0.015082994247997783 0.0020579455157712905 0.006074179077277936
0.03126302626094 0.0022455268772745614 0.007643592592007267 0.9975210863978291 -0.01888099386955494 0.0002570459747801719 0.0036212419884110204 -0.0002351807946714831 -0.0023183115933859064
 0.9975210863978291 -0.01888099386955494 0.0022446656077141406 0.0076436980465410635 -0.00023525210884120528 -0.0023183175990221278 0.00026243149444863404 0.0036205762364322643
 0.0002570459747801719 0.0036212419884110204 -0.00023525210884120528 -0.0023183175990221278 0.0022454888011005356 0.007644015016405593 0.9975210925209472 -0.018880576077879394
 -0.0002351807946714831 -0.0023183115933859064 0.00026243149444863404 0.0036205762364322643 0.9975210925209472 -0.018880576077879394 0.002244715656207281 0.007644110029264024
0.037515631513130004 0.0024457888054686904 0.009231047050457452 0.997259092296165 -0.02269175560849201 0.00031795774204018484 0.0043482646946388145 -0.00028889681910808243 -0.0027862111825343564
 0.997259092296165 -0.02269175560849201 0.0024445494623970884 0.009231181424356654 -0.00028899901361099955 -0.002786217172861962 0.00032571253749291034 0.004347343829729894
 0.00031795774204018484 0.0043482646946388145 -0.00028899901361099955 -0.002786217172861962 0.0024457336255393207 0.009231553927886625 0.9972591007781114 -0.022691254374974042
 -0.00028889681910808243 -0.0027862111825343564 0.00032571253749291034 0.004347343829729894 0.9972591007781114 -0.022691254374974042 0.0024446211669856286 0.009231674972569794
0.043768236765320004 0.0026595280777411533 0.010835620781602943 0.9969786804440446 -0.026515832031683777 0.0003858827052647206 0.005076141331897378 -0.0003486974458137479 -0.0032552120049181127
 0.9969786804440446 -0.026515832031683777 0.0026578422343805333 0.010835787058958348 -0.0003488359368259974 -0.0032552174477241563 0.00039643935936964293 0.005074913106970786
 0.0003858827052647206 0.005076141331897378 -0.0003488359368259974 -0.0032552174477241563 0.0026594526189944808 0.010836212157597735 0.9969786916648337 -0.026515247339194366
 -0.0003486974458137479 -0.0032552120049181127 0.00039643935936964293 0.005074913106970786 0.9969786916648337 -0.026515247339194366 0.0026579394709524222 0.010836361815393759
0.050020842017509996 0.002887019628707524 0.012456903180337733 0.9966795940908203 -0.030353330945642312 0.00046089694219021764 0.005804799094137373 -0.000414662385603507 -0.003725214139105403
 0.9966795940908203 -0.030353330945642312 0.0028848188950148248 0.012457104501557997 -0.0004148425449922289 -0.0037252184474902295 0.0004746890642281837 0.005803206187435825
 0.00046089694219021764 0.005804799094137373 -0.0004148425449922289 -0.0037252184474902295 0.00288692071042742 0.012457579115570822 0.9966796084331706 -0.03035266276228887
 -0.000414662385603507 -0.003725214139105403 0.0004746890642281837 0.005803206187435825 0.9966796084331706 -0.03035266276228887 0.002884945537974364 0.01245776006435173
0.055454545454549996 0.003096097348914593 0.013879143785987424 0.9964043126482713 -0.03369916505322241 0.0005319023496473634 0.0064385980218327095 -0.00047705503996361336 -0.0041343970061691205
 0.9964043126482713 -0.03369916505322241 0.003093393636433159 0.013879378232751339 -0.0004772757398740131 -0.004134399809614072 0.0005488591416014883 0.0064366376556077185
 0.0005319023496473634 0.0064385980218327095 -0.0004772757398740131 -0.004134399809614072 0.0030959754560571182 0.013879893260148948 0.9964043300166218 -0.03369842428314745
 -0.00047705503996361336 -0.0041343970061691205 0.0005488591416014883 0.0064366376556077185 0.9964043300166218 -0.03369842428314745 0.0030935489793685756 0.013880103650478183
0.056273447269699996 0.003128536549536979 0.014094544903967778 0.9963615752279078 -0.03420429001745039 0.0005430756229989428 0.006534159127763673 -0.00048687007096376853 -0.004196119208574493
 0.9963615752279078 -0.03420429001745039 0.003125752557609344 0.014094784565200276 -0.00048709722791977314 -0.00419612174097069 0.000560537860686639 0.006532139081053793
 0.0005430756229989428 0.006534159127763673 -0.00048709722791977314 -0.00419612174097069 0.0031284109853137996 0.014095305467060514 0.9963615930776615 -0.03420353830388342
 -0.00048687007096376853 -0.004196119208574493 0.000560537860686639 0.006532139081053793 0.9963615930776615 -0.03420353830388342 0.003125912479374721 0.014095520479899332
0.06252605252188 0.003384350413494084 0.015748235681486547 0.9960243650940999 -0.03806869889801047 0.0006324929102231753 0.007264137823125616 -0.0005653976459927684 -0.004667829090156267
 0.9960243650940999 -0.03806869889801047 0.003380914803863739 0.015748517134472555 -0.000565677088101725 -0.004667829150335379 0.0006540609425484324 0.007261622979365165
 0.0006324929102231753 0.007264137823125616 -0.000565677088101725 -0.004667829150335379 0.0033841950098456373 0.015749080958785206 0.9960243868394325 -0.038067863597975475
 -0.0005653976459927684 -0.004667829090156267 0.0006540609425484324 0.007261622979365165 0.9960243868394325 -0.038067863597975475 0.0033811118735354037 0.0157493329030058
0.06877865777407 0.0036547314517225873 0.017417691106233108 0.9956677045330088 -0.0419465123644478 0.0007292218726349449 0.007994647581605672 -0.0006503209380728415 -0.005140245149402007
 0.9956677045330088 -0.0419465123644478 0.003650575860253474 0.017418017958527543 -0.000650657912102191 -0.005140241986512147 0.0007553323887699962 0.007991565022392127
 0.0007292218726349449 0.007994647581605672 -0.000650657912102191 -0.005140241986512147 0.0036545430088998536 0.017418621194515215 0.9956677305660081 -0.04194559341225692
 -0.0006503209380728415 -0.005140245149402007 0.0007553323887699962 0.007991565022392127 0.9956677305660081 -0.04194559341225692 0.003650813944003157 0.017418913031058244
0.07503126302626001 0.003939948644067832 0.019102644235071214 0.995291334270036 -0.04583765865857995 0.0008333344061501006 0.008725597304006745 -0.0007417144192857538 -0.005613267757433043
 0.995291334270036 -0.04583765865857995 0.003935004689235484 0.019103020250630307 -0.0007421141317195957 -0.005613260566025571 0.0008644250739570627 0.008721868787153603
 0.0008333344061501006 0.008725597304006745 -0.0007421141317195957 -0.005613260566025571 0.003939723954852175 0.019103659245369217 0.9952913649857367 -0.045836655975596906
 -0.0007417144192857538 -0.005613267757433043 0.0008644250739570627 0.008721868787153603 0.9952913649857367 -0.045836655975596906 0.003935287648762855 0.019103994028597433
0.08128386827845 0.004240269754632276 0.020802840019481548 0.9948949951359423 -0.04974204499673749 0.0009449011590235132 0.009456892716642766 -0.000839651160813144 -0.006086795973078155
 0.9948949951359423 -0.04974204499673749 0.004234469024790363 0.020803269119766824 -0.0008401187782259156 -0.006086783893154451 0.000981410585744434 0.009452434614008859
 0.0009449011590235132 0.009456892716642766 -0.0008401187782259156 -0.006086783893154451 0.004240005604976716 0.02080394007250098 0.9948950309337086 -0.049740958496281226
 -0.000839651160813144 -0.006086795973078155 0.000981410585744434 0.009452434614008859 0.9948950309337086 -0.049740958496281226 0.004234800717366324 0.020804320950389307
0.08753647353064001 0.004555961330634766 0.022518031437953712 0.9944784282569671 -0.05365956138171954 0.0010639914597057952 0.010188436599488301 -0.0009442027827163029 -0.0065607273261633625
 0.9944784282569671 -0.05365956138171954 0.004549235371470452 0.022518517703214672 -0.0009447434319962764 -0.00656070944321056 0.0011063591461215677 0.010183159835184342
 0.0010639914597057952 0.010188436599488301 -0.0009447434319962764 -0.00656070944321056 0.004555654499457541 0.02251921666956654 0.9944784695407272 -0.05365839096381787
 -0.0009442027827163029 -0.0065607273261633625 0.0011063591461215677 0.010183159835184342 0.9944784695407272 -0.05365839096381787 0.004549619649278799 0.022519646884228924
0.09378907878283 0.004887288677333587 0.02424797674030842 0.9940413752247365 -0.05759008330635213 0.0011906732467732994 0.010920128951908189 -0.0010554393997747416 -0.007034957666449055
 0.9940413752247365 -0.05759008330635213 0.0048795689795075045 0.024248524411416693 -0.0010560581682647395 -0.007034933011497558 0.0012393395359845873 0.010913938941034734
 0.0011906732467732994 0.010920128951908189 -0.0010560581682647395 -0.007034933011497558 0.004886935936187009 0.02424924729963133 0.9940414224030848 -0.057588828859977
 -0.0010554393997747416 -0.007034957666449055 0.0012393395359845873 0.010913938941034734 0.9940414224030848 -0.057588828859977 0.004880009688660913 0.024249730188289464
0.100041684035 0.005234515814349046 0.025992437427065408 0.9935835782492791 -0.061533473725819035 0.0013250129996060732 0.011651867117559101 -0.001173429565048779 -0.007509381056859607
 0.9935835782492791 -0.061533473725819035 0.005225733800778541 0.02599305090770063 -0.001174131500580099 -0.007509348606533539 0.0013804190212680016 0.011644663705546218
 0.0013250129996060732 0.011651867117559101 -0.001174131500580099 -0.007509348606533539 0.005234113927334203 0.025993793474976233 0.9935836317360589 -0.061532135130786814
 -0.001173429565048779 -0.007509381056859607 0.0013804190212680016 0.011644663705546218 0.9935836317360589 -0.061532135130786814 0.0052262347806666274 0.025994332471315496
0.1059090909091 0.005575046347617836 0.027642419405380658 0.9931348889872658 -0.06524549935560747 0.0014580993233597075 0.01233847375192629 -0.0012903527430746342 -0.007954656664837875
 0.9931348889872658 -0.06524549935560747 0.0055652050219750894 0.027643098793697182 -0.0012911372777846112 -0.007954615920221612 0.001520231719725626 0.012330223266800338
 0.0014580993233597075 0.01233847375192629 -0.0012911372777846112 -0.007954615920221612 0.005574595393076235 0.02764385583416787 0.9931349487753833 -0.06524408167667368
 -0.0012903527430746342 -0.007954656664837875 0.001520231719725626 0.012330223266800338 0.9931349487753833 -0.06524408167667368 0.005565766045145279 0.0276444506920206
0.1062942892872 0.005597905418686774 0.0277511767215496 0.9931047803024693 -0.06548958454139578 0.001467075670095882 0.012383545881817065 -0.0012982402110561413 -0.00798388969771301
 0.9931047803024693 -0.06548958454139578 0.005587992431993474 0.027751860580821266 -0.00129903032192732 -0.007983848374294942 0.0015296632805788686 0.012375223284405022
 0.001467075670095882 0.012383545881817065 -0.00129903032192732 -0.007983848374294942 0.005597451142707267 0.02775261843314255 0.9931048405172832 -0.0654881616662178
 -0.0012982402110561413 -0.00798388969771301 0.0015296632805788686 0.012375223284405022 0.9931048405172832 -0.0654881616662178 0.005588557514863967 0.02775321706911344
0.11254689453939999 0.005977718757995203 0.029523958411299372 0.99260472525417 -0.06945825771893947 0.0016169246145083507 0.013115057550279299 -0.0014299365895788746 -0.008458373873438898
 0.99260472525417 -0.06945825771893947 0.005966606047946994 0.02952471738675398 -0.0014308198444745975 -0.008458322544935844 0.0016871363335505289 0.013105504294293354
 0.0016169246145083507 0.013115057550279299 -0.0014308198444745975 -0.008458322544935844 0.005977208842051411 0.02952548597638833 0.9926047926224973 -0.06945675042065613
 -0.0014299365895788746 -0.008458373873438898 0.0016871363335505289 0.013105504294293354 0.9926047926224973 -0.06945675042065613 0.005967239057486133 0.029526147884424515
0.11879949979160001 0.006374215615414151 0.03131054593650457 0.9920831580025595 -0.07343932616460362 0.001774621525836457 0.013846292014784904 -0.001568582209942874 -0.008932721915536453
 0.9920831580025595 -0.07343932616460362 0.006361834326272605 0.0313113849376181 -0.0015695635378275435 -0.00893265939575375 0.0018529004699006145 0.013835390879712401
 0.001774621525836457 0.013846292014784904 -0.0015695635378275435 -0.00893265939575375 0.006373646801120862 0.0313121595573156 0.9920832329563579 -0.07343773429159822
 -0.001568582209942874 -0.008932721915536453 0.0018529004699006145 0.013835390879712401 0.9920832329563579 -0.07343773429159822 0.0063625390772157515 0.03131288847299138
0.1250521050438 0.0067876542084964265 0.033110701674211575 0.9915398246012378 -0.07743261440949373 0.001940226366190522 0.014577136809878476 -0.001714238776416899 -0.00940682017885483
 0.9915398246012378 -0.07743261440949373 0.006773935365829144 0.033111625786353696 -0.0017153230663081588 -0.00940674522748714 0.0020270161788566187 0.01456476477033424
 0.001940226366190522 0.014577136809878476 -0.0017153230663081588 -0.00940674522748714 0.006787023229630472 0.03311240157020528 0.9915399075793665 -0.07743093779692205
 -0.001714238776416899 -0.00940682017885483 0.0020270161788566187 0.01456476477033424 0.9915399075793665 -0.07743093779692205 0.006774715663206261 0.03311320133536203
0.131304710296 0.007218291102386583 0.0349241863655467 0.9909744723832877 -0.08143793915556082 0.0021137972991924865 0.015307477163375606 -0.0018669661246554687 -0.009880553027676832
 0.9909744723832877 -0.08143793915556082 0.007203165600787994 0.034925200854311035 -0.001868158225514904 -0.009880464350380442 0.002209542078907979 0.015293505332471868
 0.0021137972991924865 0.015307477163375606 -0.001868158225514904 -0.009880464350380442 0.0072175946850099254 0.03492597276805753 0.9909745638317616 -0.0814361776312907
 -0.0018669661246554687 -0.009880553027676832 0.002209542078907979 0.015293505332471868 0.9909745638317616 -0.0814361776312907 0.007204025238687624 0.03492684733443012
0.1375573155481 0.007565042141627554 0.036515375838312075 0.9904882260760431 -0.0852196231482852 0.0022721562389598545 0.016013642763631254 -0.002003473641740476 -0.010330338751612248
 0.9904882260760431 -0.0852196231482852 0.007548436369632382 0.03651646711267644 -0.0020047807961202906 -0.01033023630361881 0.002377071491237161 0.015998096305471842
 0.0022721562389598545 0.016013642763631254 -0.0020047807961202906 -0.01033023630361881 0.007564277742793122 0.03651724891667157 0.9904883263815042 -0.0852177766275032
 -0.002003473641740476 -0.010330338751612248 0.002377071491237161 0.015998096305471842 0.9904883263815042 -0.0852177766275032 0.007549378516138569 0.03651818365445788
0.1438099208003 0.00792392835603248 0.03809869486521642 0.9899850388204967 -0.08899221362739329 0.0024368853307171904 0.016717236446117167 -0.00214543874183317 -0.010777705059228128
 0.9899850388204967 -0.08899221362739329 0.00790577235203558 0.038099867177434396 -0.0021468661721723214 -0.010777587571459368 0.002551374458583722 0.016699998044631653
 0.0024368853307171904 0.016717236446117167 -0.0021468661721723214 -0.010777587571459368 0.007923092823338501 0.038100654844097394 0.9899851484271944 -0.08899028194249183
 -0.00214543874183317 -0.010777705059228128 0.002551374458583722 0.016699998044631653 0.9899851484271944 -0.08899028194249183 0.007906800673432657 0.038101652681344765
0.1500625260525 0.008294830590081778 0.03967402561810577 0.9894650335305746 -0.09275563139805795 0.002607930344036503 0.0174181964600799 -0.0022928075276345858 -0.011222591260542444
 0.9894650335305746 -0.09275563139805795 0.0082750542434919 0.039675283469562846 -0.0022943604467400383 -0.011222457412920814 0.0027323945301522766 0.017399144530750147
 0.002607930344036503 0.0174181964600799 -0.0022943604467400383 -0.011222457412920814 0.008293920772224916 0.03967607272934616 0.9894651528884132 -0.0927536143768751
 -0.0022928075276345858 -0.011222591260542444 0.0027323945301522766 0.017399144530750147 0.9894651528884132 -0.0927536143768751 0.008276172388255365 0.039677136790796555
0.15631513130469998 0.008677628928969987 0.04124125387885218 0.9889283336521781 -0.09650979726070028 0.0027852364502366114 0.01811646205872226 -0.0024455254780724506 -0.011664937894434938
