! Created with skrf 1.8.0 (http://scikit-rf.org).
# GHz S RI R 50.0 
!freq ReS11 ImS11 ReS12 ImS12 ReS13 ImS13
! ReS14 ImS14
! ReS21 ImS21 ReS22 ImS22 ReS23 ImS23
! ReS24 ImS24
! ReS31 ImS31 ReS32 ImS32 ReS33 ImS33
! ReS34 ImS34
! ReS41 ImS41 ReS42 ImS42 ReS43 ImS43
! ReS44 ImS44
!
0.0 0.001962230881534 0.0 0.9980377691096 0.0 7.635604206885e-05 0.0 -7.635604063604e-05 9.350918076049161e-21
 0.9980377691096 0.0 0.001962230881531 0.0 -7.635604063577e-05 9.350918076016097e-21 7.63560420674e-05 0.0
 7.635604206885e-05 0.0 -7.635604063577e-05 9.350918076016097e-21 0.001962230880195 0.0 0.9980377691083 0.0
 -7.635604063604e-05 9.350918076049161e-21 7.63560420674e-05 0.0 0.9980377691083 0.0 0.001962230880201 0.0
0.005 0.0021126909298067797 0.001604291076118807 0.9978471295321438 -0.004108777207759821 0.0001079240958573689 0.0008383246320298964 -0.00010458261434074478 -0.0005264597454915865
 0.9978471295321438 -0.004108777207759821 0.00211274032809761 0.0016042621634759962 -0.00010457975974572613 -0.0005264575197600856 0.00010762592026963644 0.0008384383971084438
 0.0001079240958573689 0.0008383246320298964 -0.00010457975974572613 -0.0005264575197600856 0.0021126929716170613 0.0016043571168327733 0.9978471299245728 -0.004108710147494997
 -0.00010458261434074478 -0.0005264597454915865 0.00010762592026963644 0.0008384383971084438 0.9978471299245728 -0.004108710147494997 0.0021127390631963884 0.0016043302372973944
0.006252605252188 0.002152603154509988 0.002011608698289657 0.9977961620982932 -0.005136901756414992 0.00011722632116581195 0.0010482810435069598 -0.00011276132212356856 -0.0006587265942413996
 0.9977961620982932 -0.005136901756414992 0.0021526803736914616 0.0020115719952626585 -0.00011275688047610776 -0.0006587238507760641 0.0001167604593471116 0.0010484289415065864
 0.00011722632116581195 0.0010482810435069598 -0.00011275688047610776 -0.0006587238507760641 0.0021526062723766642 0.0020116912371537722 0.997796162637633 -0.005136817933342749
 -0.00011276132212356856 -0.0006587265942413996 0.0001167604593471116 0.0010484289415065864 0.997796162637633 -0.005136817933342749 0.0021526783216022265 0.002011657088882444
0.01250521050438 0.0023653352427306503 0.004064648365824644 0.997522348651588 -0.010274031725851862 0.00017206596647313292 0.002096674453403063 -0.00016028836672083772 -0.0013203342624977473
 0.997522348651588 -0.010274031725851862 0.0023656435936042436 0.004064569238472796 -0.00016027086734869008 -0.0013203292079532146 0.00017020841626968718 0.002097032694425558
 0.00017206596647313292 0.002096674453403063 -0.00016027086734869008 -0.0013203292079532146 0.0023653471459125887 0.004064813065519196 0.9975223502545773 -0.010273864319541467
 -0.00016028836672083772 -0.0013203342624977473 0.00017020841626968718 0.002097032694425558 0.9975223502545773 -0.010273864319541467 0.002365634838416524 0.004064739221051619
0.01875781575657 0.002600984852704457 0.006146088124206906 0.9972159232132392 -0.01542377412868256 0.0002410126735560253 0.003145793238121661 -0.00021910138786610897 -0.0019837997705987637
 0.9972159232132392 -0.01542377412868256 0.002601677765161414 0.006145960298230722 -0.00021906237182756853 -0.001983792939565559 0.0002368403921237785 0.003146438880331709
 0.0002410126735560253 0.003145793238121661 -0.00021906237182756853 -0.001983792939565559 0.002601011188816998 0.006146334662953624 0.997215926399084 -0.01542352321376622
 -0.00021910138786610897 -0.0019837997705987637 0.0002368403921237785 0.003146438880331709 0.997215926399084 -0.01542352321376622 0.002601657653691163 0.006146215135474035
0.02501042100875 0.0028600869675561072 0.008252890227063102 0.9968764620298889 -0.020588498642180306 0.00032420626111256343 0.00419559181817377 -0.0002893569891801689 -0.0026487470805623735
 0.9968764620298889 -0.020588498642180306 0.002861317600619408 0.008252706928199125 -0.0002892881029999544 -0.002648739118169759 0.00031679629724359535 0.004196616150274633
 0.00032420626111256343 0.00419559181817377 -0.0002892881029999544 -0.002648739118169759 0.002860133373540334 0.008253218229261535 0.9968764673170993 -0.020588164239971726
 -0.0002893569891801689 -0.0026487470805623735 0.00031679629724359535 0.004196616150274633 0.9968764673170993 -0.020588164239971726 0.002861281474174518 0.008253046641988147
0.03126302626094 0.0031431537953616035 0.010383427826587016 0.9965035236454292 -0.02576914268330759 0.0004217858365554819 0.005245926231629192 -0.0003712056213713706 -0.003314887027490563
 0.9965035236454292 -0.02576914268330759 0.0031450751338646175 0.010383181789246897 -0.0003710986000379643 -0.003314878690285152 0.0004102145564424786 0.0052474348603324256
 0.0004217858365554819 0.005245926231629192 -0.0003710986000379643 -0.003314878690285152 0.003143225903299287 0.010383836841031972 0.9965035315575904 -0.025768724783072953
 -0.0003712056213713706 -0.003314887027490563 0.0004102145564424786 0.0052474348603324256 0.9965035315575904 -0.025768724783072953 0.003145018330010641 0.010383606436338389
0.037515631513130004 0.0034506847899683454 0.01253659205687086 0.9960966594792354 -0.03096610429891921 0.0005338881267305766 0.006296612369659441 -0.00046479261377673344 -0.0039819591511472295
 0.9960966594792354 -0.03096610429891921 0.0034534497135543527 0.012536275526207081 -0.00046463927215185534 -0.00398195130721286 0.000517230915282991 0.006298725356147722
 0.0005338881267305766 0.006296612369659441 -0.00046463927215185534 -0.00398195130721286 0.0034507882232638967 0.01253708154838613 0.9960966705418168 -0.03096560286528046
 -0.00046479261377673344 -0.0039819591511472295 0.000517230915282991 0.006298725356147722 0.9960966705418168 -0.03096560286528046 0.0034533675618149086 0.01253678519131421
0.043768236765320004 0.003783170471458746 0.014711520334316164 0.9956554182116752 -0.0361795138248513 0.0006606466613976445 0.00734744371714105 -0.0005702584895961302 -0.004649714041335762
 0.9956554182116752 -0.0361795138248513 0.003786931812500507 0.014711125065315404 -0.0005700507175454778 -0.004649707670276016 0.0006379778278181009 0.0073502957281893775
 0.0006606466613976445 0.00734744371714105 -0.0005700507175454778 -0.004649707670276016 0.003783310846680984 0.01471208967962217 0.9956554329558434 -0.036178928801011506
 -0.0005702584895961302 -0.004649714041335762 0.0006379778278181009 0.0073502957281893775 0.9956554329558434 -0.036178928801011506 0.003786819635741984 0.014711719858285996
0.050020842017509996 0.004141094154219655 0.0169074840774529 0.9951793480859754 -0.04140934612803026 0.0008021912522328327 0.00839819871702008 -0.0006877390315957577 -0.00531790607284543
 0.9951793480859754 -0.04140934612803026 0.0041460047504274095 0.016907001331623137 -0.0006874687910514182 -0.005317902265669528 0.0007725840452896329 0.008401939181185397
 0.0008021912522328327 0.00839819871702008 -0.0006874687910514182 -0.005317902265669528 0.004141277078980359 0.016908132559860605 0.9951793670481492 -0.04140867744009644
 -0.0006877390315957577 -0.00531790607284543 0.0007725840452896329 0.008401939181185397 0.9951793670481492 -0.04140867744009644 0.004145857862648689 0.0169076813837647
0.055454545454549996 0.004473170020190534 0.01883242054947521 0.9947369932891709 -0.045967470573127674 0.0009373036162322181 0.00931109395365448 -0.0007996924187613834 -0.005898749684424093
 0.9947369932891709 -0.045967470573127674 0.004479203517550634 0.01883185429965184 -0.0007993614177917112 -0.005898749077804532 0.0009009133543612463 0.009315739448013336
 0.0009373036162322181 0.00931109395365448 -0.0007993614177917112 -0.005898749077804532 0.004473394467807957 0.018833137152961664 0.9947370163568671 -0.045966729101472266
 -0.0007996924187613834 -0.005898749684424093 0.0009009133543612463 0.009315739448013336 0.9947370163568671 -0.045966729101472266 0.0044790226524333 0.01883260857216938
0.056273447269699996 0.004524932781139947 0.01912383362250786 0.9946679983240874 -0.04665547566162503 0.0009586476071226184 0.00944864439608233 -0.0008173652325527744 -0.005986289892141794
 0.9946679983240874 -0.04665547566162503 0.00453114552423923 0.019123254162542878 -0.0008170245555649587 -0.005986289851139528 0.0009211742968240499 0.009453437661169052
 0.0009586476071226184 0.00944864439608233 -0.0008170245555649587 -0.005986289851139528 0.0045251638526723455 0.019124560437874957 0.9946680220462883 -0.046654723211763775
 -0.0008173652325527744 -0.005986289892141794 0.0009211742968240499 0.009453437661169052 0.9946680220462883 -0.046654723211763775 0.004530959230557103 0.019124019634087473
0.06252605252188 0.004935157315298166 0.02135996795883676 0.9941209201065353 -0.05191770671282377 0.001130137007726021 0.01049853841040864 -0.0009592631911678185 -0.00665461849816571
 0.9941209201065353 -0.05191770671282377 0.0049428251990295815 0.021359282041213002 -0.0009588441787530549 -0.0066546235367471555 0.0010838690126893156 0.010504563900159474
 0.001130137007726021 0.01049853841040864 -0.0009588441787530549 -0.0066546235367471555 0.004935442119212127 0.02136077221014557 0.9941209491382187 -0.05191687038379194
 -0.0009592631911678185 -0.00665461849816571 0.0010838690126893156 0.010504563900159474 0.9941209491382187 -0.05191687038379194 0.004942594795476651 0.021360133117463414
0.06877865777407 0.005372232891240017 0.023615316704294405 0.9935376673197878 -0.05719579142481098 0.001316776028087528 0.011547630275770097 -0.001113553972779558 -0.007322642152355891
 0.9935376673197878 -0.05719579142481098 0.005381509057868011 0.023614514069989934 -0.0011130487943756735 -0.007322653694886806 0.0012607840744634714 0.011555082644733245
 0.001316776028087528 0.011547630275770097 -0.0011130487943756735 -0.007322653694886806 0.005372577001210385 0.023616197395069392 0.993537702218784 -0.057194871085679375
 -0.001113553972779558 -0.007322642152355891 0.0012607840744634714 0.011555082644733245 0.993537702218784 -0.057194871085679375 0.005381229831415644 0.023615450956357444
0.07503126302626001 0.005836618823071962 0.025889328691360902 0.9929177971649037 -0.0624894412236869 0.0015186762735168039 0.012595662194249537 -0.0012803534524350015 -0.007990107707252777
 0.9929177971649037 -0.0624894412236869 0.005847656609609662 0.025888398554450385 -0.0012797543455835684 -0.007990127288876969 0.0014520305790503116 0.012604751479932333
 0.0015186762735168039 0.012595662194249537 -0.0012797543455835684 -0.007990127288876969 0.005837027797568547 0.025890284736705252 0.9929178384974047 -0.06248843671804071
 -0.0012803534524350015 -0.007990107707252777 0.0014520305790503116 0.012604751479932333 0.9929178384974047 -0.06248843671804071 0.005847323836406841 0.025889421489071536
0.08128386827845 0.006328768518652303 0.028181464416147304 0.992260870679127 -0.0677983343992297 0.001735944135932688 0.013642369628740433 -0.0014597721440169028 -0.008656758202173343
 0.992260870679127 -0.0677983343992297 0.006341721501967204 0.02818039545048343 -0.0014590714142624058 -0.008656787468623004 0.001657714613547646 0.013653321400483542
 0.001735944135932688 0.013642369628740433 -0.0014590714142624058 -0.008656787468623004 0.006329247900326306 0.028182494628106368 0.9922609190212395 -0.06779724555909944
 -0.0014597721440169028 -0.008656758202173343 0.001657714613547646 0.013653321400483542 0.9922609190212395 -0.06779724555909944 0.006341330448942162 0.02818150469105526
0.08753647353064001 0.006849129335311312 0.03049119081035607 0.9915664532034376 -0.07312212137993424 0.0019686805584236376 0.014687481736343527 -0.0016519150221579748 -0.009322332615528766
 0.9915664532034376 -0.07312212137993424 0.006864151378230827 0.03048997113399484 -0.0016511050432985203 -0.00932237332291563 0.0018779370358012978 0.01470053724045915
 0.0019686805584236376 0.014687481736343527 -0.0016511050432985203 -0.00932237332291563 0.006849684648653349 0.030492293906471676 0.9915665091417625 -0.07312094801660671
 -0.0016519150221579748 -0.009322332615528766 0.0018779370358012978 0.01470053724045915 0.9915665091417625 -0.07312094801660671 0.006863697301632198 0.030491166967974593
0.09378907878283 0.007398142393152974 0.03281797755074077 0.9908341148125601 -0.07846042848891396 0.0022169808076598326 0.015730721712602258 -0.0018568813381372434 -0.009986565721864663
 0.9908341148125601 -0.07846042848891396 0.00741538769007559 0.03281659470832871 -0.0018559545526200636 -0.00998661973645245 0.0021127932610423583 0.015746138013392846
 0.0022169808076598326 0.015730721712602258 -0.0018559545526200636 -0.00998661973645245 0.007398779143290581 0.032819152151079514 0.9908341789452174 -0.07845917039525589
 -0.0018568813381372434 -0.009986565721864663 0.0021127932610423583 0.015746138013392846 0.9908341789452174 -0.07845917039525589 0.007414865835553428 0.03281787745146968
0.100041684035 0.007976242358860098 0.035161294370327625 0.9900634307185012 -0.08381286071627414 0.0024809342518916934 0.016771807075879136 -0.002074764433139558 -0.01064918802473301
 0.9900634307185012 -0.08381286071627414 0.007995865480791432 0.03515973531328032 -0.0020737133524046537 -0.010649257322699139 0.002362373051439738 0.016789857192147987
 0.0024809342518916934 0.016771807075879136 -0.0020737133524046537 -0.010649257322699139 0.007976966029337933 0.03516253899372815 0.9900635036560118 -0.08381151767004422
 -0.002074764433139558 -0.01064918802473301 0.002362373051439738 0.016789857192147987 0.9900635036560118 -0.08381151767004422 0.00799527108352637 0.03516110530737452
0.1059090909091 0.008545563412646217 0.037374808536961596 0.989304976890207 -0.08884802854569467 0.0027429372145532007 0.01774653927668206 -0.002291050073523056 -0.01126927993704829
 0.989304976890207 -0.08884802854569467 0.008567558827007132 0.03737307170577853 -0.002289875606232082 -0.01126936547185051 0.0026100429524824427 0.01776732358489045
 0.0027429372145532007 0.01774653927668206 -0.002289875606232082 -0.01126936547185051 0.00854637361496598 0.03737611743415374 0.9893050586573896 -0.08884660556272034
 -0.002291050073523056 -0.01126927993704829 0.0026100429524824427 0.01776732358489045 0.9893050586573896 -0.08884660556272034 0.008566892013126371 0.03737452391275187
0.1062942892872 0.0085838572072326 0.03752060906181881 0.9892539816554241 -0.08917900381867841 0.002760624143573579 0.017810449919556742 -0.0023056515489708863 -0.011309925737840953
 0.9892539816554241 -0.08917900381867841 0.008606013147167815 0.037518860126170894 -0.0023044687541449354 -0.011310012405032089 0.002626760309813407 0.017831422956255213
 0.002760624143573579 0.017810449919556742 -0.0023044687541449354 -0.011310012405032089 0.008584673258137832 0.037521922128351363 0.9892540640218637 -0.08917757557967315
 -0.0023056515489708863 -0.011309925737840953 0.002626760309813407 0.017831422956255213 0.9892540640218637 -0.08917757557967315 0.008605341431816542 0.03752031774291677
0.11254689453939999 0.009221407967067927 0.03989538597719884 0.9884053542517909 -0.09455842594203738 0.003056127406559418 0.01884635713732052 -0.002549623637979716 -0.01196850080933785
 0.9884053542517909 -0.09455842594203738 0.00924625218563963 0.039893432859248415 -0.002548301780533638 -0.011968607040975281 0.0029060328762841856 0.01887055841223842
 0.003056127406559418 0.01884635713732052 -0.002548301780533638 -0.011968607040975281 0.009222321833266474 0.03989676580726181 0.9884054466853069 -0.09455691225256344
 -0.002549623637979716 -0.01196850080933785 0.0029060328762841856 0.01887055841223842 0.9884054466853069 -0.09455691225256344 0.009245498365767766 0.03989497850093093
0.11879949979160001 0.009889308454545715 0.04228508488407707 0.9875171413909055 -0.09995067890750968 0.003367514426689418 0.01987923063665402 -0.0028067551732323197 -0.012624630974424768
 0.9875171413909055 -0.09995067890750968 0.00991699692495581 0.04228291261360178 -0.0028052869756599987 -0.012624759074804082 0.0032002623278055845 0.01990698180161626
 0.003367514426689418 0.01987923063665402 -0.0028052869756599987 -0.012624759074804082 0.009890325543261526 0.04228652969607073 0.9875172445447632 -0.09994907949452349
 -0.0028067551732323197 -0.012624630974424768 0.0032002623278055845 0.01990698180161626 0.9875172445447632 -0.09994907949452349 0.009916156203157396 0.04228454671209068
0.1250521050438 0.010587964997185869 0.04468916009148146 0.9865889425638368 -0.10535529924797392 0.00369484884637543 0.020908767541255497 -0.0030771139590682127 -0.013278029835428416
 0.9865889425638368 -0.10535529924797392 0.010618654250241586 0.044686753002582756 -0.0030754922157428073 -0.01327818221765054 0.003509513780819582 0.020940406697732998
 0.00369484884637543 0.020908767541255497 -0.0030754922157428073 -0.01327818221765054 0.010589090686308153 0.04469066800439678 0.9865890571073387 -0.10535361382027321
 -0.0030771139590682127 -0.013278029835428416 0.003509513780819582 0.020940406697732998 0.9865890571073387 -0.10535361382027321 0.010617721818213681 0.04468847602333106
0.131304710296 0.011317776150997837 0.047107059776946444 0.9856203642156645 -0.11077180906401798 0.00403818736282763 0.021934660392736286 -0.0033607609431430484 -0.013928406959266117
 0.9856203642156645 -0.11077180906401798 0.011351623319951465 0.04710440147641978 -0.0033589785211775437 -0.013928586144816135 0.0038338456972051276 0.021970542201582493
 0.00403818736282763 0.021934660392736286 -0.0033589785211775437 -0.013928586144816135 0.01131901578692103 0.04710862880589692 0.9856204908353527 -0.11077003731662753
 -0.0033607609431430484 -0.013928406959266117 0.0038338456972051276 0.021970542201582493 0.9856204908353527 -0.11077003731662753 0.011350594358483389 0.04710621391535489
0.1375573155481 0.01192695325250246 0.04922459189625549 0.9847632884351772 -0.11588586778199059 0.0043596432825746545 0.0229275981880409 -0.0036200519998191823 -0.014546314363176256
 0.9847632884351772 -0.11588586778199059 0.011964126024140173 0.04922171655999461 -0.0036180980811863737 -0.014546520991646392 0.004135830484398662 0.022967719438483074
 0.0043596432825746545 0.0229275981880409 -0.0036180980811863737 -0.014546520991646392 0.011928311410164576 0.049226220464843325 0.9847634276977374 -0.1158840095635668
 -0.0036200519998191823 -0.014546314363176256 0.004135830484398662 0.022967719438483074 0.9847634276977374 -0.1158840095635668 0.011962996697342508 0.049223618760458665
0.1438099208003 0.012557936402229568 0.051327937182627965 0.9838752104496912 -0.12098386594292017 0.00469396447571347 0.023914425452152006 -0.0038895442564399895 -0.015158748521667618
 0.9838752104496912 -0.12098386594292017 0.012598594203497281 0.05132483078500919 -0.0038874111505719706 -0.015158985122276572 0.0044498419637282885 0.023959115287388432
 0.00469396447571347 0.023914425452152006 -0.0038874111505719706 -0.015158985122276572 0.012559418247364942 0.051329623277379395 0.983875363040507 -0.12098192096268548
 -0.0038895442564399895 -0.015158748521667618 0.0044498419637282885 0.023959115287388432 0.983875363040507 -0.12098192096268548 0.012597359853170337 0.05132682322497661
0.1500625260525 0.013210450886872584 0.05341683059130083 0.9829564103482686 -0.12606558485787642 0.00504100085738394 0.024894974760846237 -0.0041690947407621 -0.015765559012532935
 0.9829564103482686 -0.12606558485787642 0.01325475373718386 0.053413478188976786 -0.004166774782997707 -0.015765828216983652 0.004775736954405996 0.02494457433446098
 0.00504100085738394 0.024894974760846237 -0.004166774782997707 -0.015765828216983652 0.013212061546788343 0.053418572120674725 0.9829565769666743 -0.12606355281599588
 -0.0041690947407621 -0.015765559012532935 0.004775736954405996 0.02494457433446098 0.9829565769666743 -0.12606355281599588 0.013253409705820953 0.05341556136725326
0.15631513130469998 0.013884219425766151 0.05549101513741346 0.9820071703219764 -0.1311308088635071 0.005400600195690499 0.02586908238274234 -0.004458558407632124 -0.016366599341738976
 0.9820071703219764 -0.1311308088635071 0.01393232795020946 0.05548740083882602 -0.004456043959846635 -0.016366903883685294 0.005113370258653748 0.025923944701182026
