! Created with skrf 1.8.0 (http://scikit-rf.org).
# GHz S RI R 50.0 
!freq ReS11 ImS11 ReS12 ImS12 ReS13 ImS13
! ReS14 ImS14
! ReS21 ImS21 ReS22 ImS22 ReS23 ImS23
! ReS24 ImS24
! ReS31 ImS31 ReS32 ImS32 ReS33 ImS33
! ReS34 ImS34
! ReS41 ImS41 ReS42 ImS42 ReS43 ImS43
! ReS44 ImS44
!
0.0 0.00150173908834 0.0 0.9984982609031 0.0 5.776897130771e-05 0.0 -5.776897148482e-05 7.074658601891953e-21
 0.9984982609031 0.0 0.001501739088337 0.0 -5.776897148439e-05 7.074658601839293e-21 5.776897130623e-05 0.0
 5.776897130771e-05 0.0 -5.776897148439e-05 7.074658601839293e-21 0.001501739092591 0.0 0.9984982609074 0.0
 -5.776897148482e-05 7.074658601891953e-21 5.776897130623e-05 0.0 0.9984982609074 0.0 0.001501739092607 0.0
0.005 0.0016156030115019966 0.001230294543344904 0.9983542305549563 -0.003145758484567616 8.064927066224267e-05 0.0006267771433190136 -7.836523438500886e-05 -0.00039514407857820357
 0.9983542305549563 -0.003145758484567616 0.0016156226330247248 0.0012302831402847168 -7.836640082509438e-05 -0.00039514501818789776 8.052531184189629e-05 0.000626824350792006
 8.064927066224267e-05 0.0006267771433190136 -7.836640082509438e-05 -0.00039514501818789776 0.001615601837714345 0.0012302280128167584 0.9983542302051579 -0.0031458255423893644
 -7.836523438500886e-05 -0.00039514407857820357 8.052531184189629e-05 0.000626824350792006 0.9983542302051579 -0.0031458255423893644 0.0016156231119941493 0.0012302155588713771
0.006252605252188 0.0016454277935661259 0.001542705236656714 0.9983162710385171 -0.003932972334405548 8.717228442434237e-05 0.0007837813275305658 -8.416014844078754e-05 -0.000494440758684071
 0.9983162710385171 -0.003932972334405548 0.001645458464918575 0.001542690737647741 -8.416196317200299e-05 -0.0004944419181919262 8.697860994592007e-05 0.0007838426141927423
 8.717228442434237e-05 0.0007837813275305658 -8.416196317200299e-05 -0.0004944419181919262 0.0016454260270506208 0.0015426220867924278 0.9983162705604098 -0.003933056150588298
 -8.416014844078754e-05 -0.000494440758684071 8.697860994592007e-05 0.0007838426141927423 0.9983162705604098 -0.003933056150588298 0.0016454592828820988 0.0015426062635479235
0.01250521050438 0.00180220924397298 0.00311771928248349 0.9981154310679948 -0.007866775257817104 0.00012450695273307202 0.0015679570647387907 -0.00011693136026172694 -0.0009912915410212587
 0.9981154310679948 -0.007866775257817104 0.0018023317059857374 0.0031176878143420405 -0.00011693850792056955 -0.0009912936962749581 0.00012373461732086561 0.001568104168673456
 0.00012450695273307202 0.0015679570647387907 -0.00011693850792056955 -0.0009912936962749581 0.001802202738017644 0.0031175533050459216 0.9981154297115745 -0.007866942660423941
 -0.00011693136026172694 -0.0009912915410212587 0.00012373461732086561 0.001568104168673456 0.9981154297115745 -0.007866942660423941 0.0018023355331317928 0.0031175190663198164
0.01875781575657 0.001972418983767808 0.004715165682418302 0.9978954962271316 -0.011810988401196331 0.0001698578857254345 0.0023530430101003047 -0.0001561817435042903 -0.0014898547776016954
 0.9978954962271316 -0.011810988401196331 0.00197269414412848 0.004715114604624803 -0.00015619767753485218 -0.0014898577352465945 0.00016812290292305443 0.0023533051741279802
 0.0001698578857254345 0.0023530430101003047 -0.00015619767753485218 -0.0014898577352465945 0.0019724047785342393 0.004714917118417749 0.9978954936013388 -0.011811239297716604
 -0.0001561817435042903 -0.0014898547776016954 0.00016812290292305443 0.0023533051741279802 0.9978954936013388 -0.011811239297716604 0.0019727031835455296 0.004714861653082177
0.02501042100875 0.0021563830025948553 0.006332819855236595 0.9976562122550449 -0.015767529691582134 0.00022331155704138732 0.0031390711484157847 -0.00020200739183681514 -0.00198991150299856
 0.9976562122550449 -0.015767529691582134 0.0021568716362797558 0.006332746377223455 -0.00020203552275475047 -0.0019899150364795838 0.00022022978288853447 0.0031394821581352686
 0.00022331155704138732 0.0031390711484157847 -0.00020203552275475047 -0.0019899150364795838 0.00215635813534505 0.0063324889459061414 0.9976562079641096 -0.015767864044401177
 -0.00020200739183681514 -0.00198991150299856 0.00022022978288853447 0.0031394821581352686 0.9976562079641096 -0.015767864044401177 0.0021568880927801807 0.006332409246352547
0.03126302626094 0.002354413787066195 0.007969540422241597 0.9973973116618686 -0.01973722399876496 0.00028495502410202434 0.003926002545942758 -0.0002545018030618894 -0.002491308374196902
 0.9973973116618686 -0.01973722399876496 0.002355176569122167 0.007969441607754538 -0.0002545455057951116 -0.0024913122233502965 0.0002801417982027466 0.003926600755128121
 0.00028495502410202434 0.003926002545942758 -0.0002545455057951116 -0.0024913122233502965 0.0023543752971941444 0.007969127430979698 0.9973973053107299 -0.019737641803606976
 -0.0002545018030618894 -0.002491308374196902 0.0002801417982027466 0.003926600755128121 0.9973973053107299 -0.019737641803606976 0.002355202655994545 0.007969020297086706
0.037515631513130004 0.0025668171227008546 0.009624585758194231 0.9971185207288851 -0.02372048652425645 0.00035487503265395354 0.004713770239403796 -0.0003137565379645014 -0.0029939147720793252
 0.9971185207288851 -0.02372048652425645 0.002567914650474341 0.009624458527463088 -0.00031381915568362307 -0.002993918643025545 0.0003479450166469634 0.004714598615424055
 0.00035487503265395354 0.004713770239403796 -0.00031381915568362307 -0.002993918643025545 0.00256676204837921 0.009624090995600243 0.9971185119188163 -0.023720987785615197
 -0.0003137565379645014 -0.0029939147720793252 0.0003479450166469634 0.004714598615424055 0.9971185119188163 -0.023720987785615197 0.0025679525864039042 0.009623953036506653
0.043768236765320004 0.0027938947148616017 0.011297406017929244 0.9968195623319067 -0.02771753070538492 0.00043315759773370947 0.0055022922750855765 -0.00037986145699957 -0.003497609758411982
 0.9968195623319067 -0.02771753070538492 0.002795387525455794 0.011297247149153688 -0.00037994630339145826 -0.0034976133235266648 0.0004237246979446296 0.005503398450544185
 0.00043315759773370947 0.0055022922750855765 -0.00037994630339145826 -0.0034976133235266648 0.002793820095886938 0.011296829836202513 0.996819550662926 -0.027718115442584793
 -0.00037986145699957 -0.003497609758411982 0.0004237246979446296 0.005503398450544185 0.996819550662926 -0.027718115442584793 0.002795439537498288 0.011296657471218165
0.050020842017509996 0.003035945411337366 0.012987557192120754 0.9965001573694866 -0.03172845408813272 0.0005198877526204787 0.006291477102618597 -0.00045290480666246297 -0.004002276681370534
 0.9965001573694866 -0.03172845408813272 0.0030378939965830447 0.01298736332242987 -0.00045301516741295223 -0.004002279579318014 0.000507565087297145 0.006292913429525611
 0.0005198877526204787 0.006291477102618597 -0.00045301516741295223 -0.004002279579318014 0.003035848289191817 0.012986899981537077 0.9965001424396314 -0.0317291223394082
 -0.00045290480666246297 -0.004002276681370534 0.000507565087297145 0.006292913429525611 0.9965001424396314 -0.0317291223394082 0.0030379623201344315 0.012986689440268175
0.055454545454549996 0.003258685213690492 0.014470128047139569 0.9962057620389667 -0.03522535951182749 0.0006021845351675405 0.006977764537702299 -0.000522083881747723 -0.004441547532706364
 0.9962057620389667 -0.03522535951182749 0.00326107898302256 0.014469900920287193 -0.0005222190626687574 -0.004441549531239209 0.0005870357643770414 0.006979533999398959
 0.0006021845351675405 0.006977764537702299 -0.0005222190626687574 -0.004441549531239209 0.0032585661343256865 0.014469400774210482 0.9962057439465852 -0.03522610037782901
 -0.000522083881747723 -0.004441547532706364 0.0005870357643770414 0.006979533999398959 0.9962057439465852 -0.03522610037782901 0.0032611633034094934 0.014469153847252695
0.056273447269699996 0.0032932658329838074 0.014694658902360729 0.9961600256043287 -0.035753280461530756 0.000615149373745507 0.007081226213514543 -0.0005329732365407124 -0.004507800539561399
 0.9961600256043287 -0.035753280461530756 0.0032957306533939173 0.014694426528260071 -0.0005331123703822122 -0.004507802375303919 0.0005995492676681006 0.007083049818604877
 0.000615149373745507 0.007081226213514543 -0.0005331123703822122 -0.004507802375303919 0.0032931432506850015 0.014693921100794248 0.9961600070082278 -0.03575403227502084
 -0.0005329732365407124 -0.004507800539561399 0.0005995492676681006 0.007083049818604877 0.9961600070082278 -0.03575403227502084 0.003295817531539245 0.014693668423129027
0.06252605252188 0.003566150710160886 0.016418371219219827 0.9957988862130523 -0.039791982971397286 0.0007190250410577192 0.007871435596439996 -0.0006201517841109152 -0.005014066532782625
 0.9957988862130523 -0.039791982971397286 0.0035691922081095002 0.016418096696659803 -0.0006203229235500878 -0.005014066877621993 0.000699759037474146 0.007873708436906789
 0.0007190250410577192 0.007871435596439996 -0.0006203229235500878 -0.005014066877621993 0.0035659997135032537 0.016417553308202548 0.9957988635423535 -0.039792818409576325
 -0.0006201517841109152 -0.005014066532782625 0.000699759037474146 0.007873708436906789 0.9957988635423535 -0.039792818409576325 0.0035692998923729006 0.01641725434363438
0.06877865777407 0.0038548930649666704 0.018158380824656963 0.995416458186277 -0.0438444978926711 0.0008315959203712403 0.008661996605197184 -0.0007145238380151803 -0.005520959203775099
 0.995416458186277 -0.0438444978926711 0.0038585716772042756 0.018158060368835417 -0.0007147301898232859 -0.0055209575953908034 0.0008082748058722428 0.008664785524488825
 0.0008315959203712403 0.008661996605197184 -0.0007147301898232859 -0.0055209575953908034 0.0038547107026088746 0.0181574833292189 0.9954164310283506 -0.043845417033022596
 -0.0007145238380151803 -0.005520959203775099 0.0008082748058722428 0.008664785524488825 0.9954164310283506 -0.043845417033022596 0.0038587024273544174 0.018157133735889428
0.07503126302626001 0.004159784295940704 0.01991439224266037 0.9950124606343433 -0.0479107333374532 0.0009529416570743493 0.009452796513830736 -0.0008161710900942533 -0.0060283618967464404
 0.9950124606343433 -0.0479107333374532 0.004164160466040312 0.019914021927312318 -0.0008164158357175298 -0.006028357839231663 0.000925175495798304 0.009456173297268201
 0.0009529416570743493 0.009452796513830736 -0.0008164158357175298 -0.006028357839231663 0.004159567620864614 0.019913415736450037 0.9950124285727353 -0.047911736267771836
 -0.0008161710900942533 -0.0060283618967464404 0.000925175495798304 0.009456173297268201 0.9950124285727353 -0.047911736267771836 0.004164316550652392 0.019913010979909468
0.08128386827845 0.0044811142063297576 0.02168612201408668 0.9945866130407085 -0.05199057502276109 0.0010831402778003828 0.010243718887326546 -0.0009251734790122015 -0.006536156404389457
 0.9945866130407085 -0.05199057502276109 0.004486248397346873 0.02168569777039431 -0.0009254597748422246 -0.006536149368295704 0.0010505384528741199 0.010247760317321624
 0.0010831402778003828 0.010243718887326546 -0.0009254597748422246 -0.006536149368295704 0.004480860276078865 0.021685067119363115 0.9945865756539167 -0.051991661841652756
 -0.0009251734790122015 -0.006536156404389457 0.0010505384528741199 0.010247760317321624 0.9945865756539167 -0.051991661841652756 0.004486432093319105 0.021684602470745034
0.08753647353064001 0.004819170993049097 0.023473294658192354 0.9941386354782947 -0.056083890256045224 0.0012222680968033517 0.011034643844815464 -0.0010416091283434279 -0.007044222726565119
 0.9941386354782947 -0.056083890256045224 0.004825123699107066 0.023472812273412996 -0.001041940105860586 -0.007044212148943716 0.0011844393578631163 0.011039431755634632
 0.0012222680968033517 0.011034643844815464 -0.001041940105860586 -0.007044212148943716 0.004818876870733268 0.023472162044041713 0.9941385923402448 -0.0560850610750651
 -0.0010416091283434279 -0.007044222726565119 0.0011844393578631163 0.011039431755634632 0.9941385923402448 -0.0560850610750651 0.004825337292370936 0.02347163257802173
0.09378907878283 0.005174241207502381 0.025275639789521482 0.993668248803351 -0.06019053077014442 0.0013703996256607847 0.01182544824925819 -0.0011655542805690247 -0.007552438906917487
 0.993668248803351 -0.06019053077014442 0.0051810729665975105 0.02527509490509461 -0.0011659330465030933 -0.007552424191364533 0.0013269521412287175 0.01183106958115675
 0.0013703996256607847 0.01182544824925819 -0.0011659330465030933 -0.007552424191364533 0.005173903962441845 0.025274430173570735 0.9936681994817307 -0.060191785712543945
 -0.0011655542805690247 -0.007552438906917487 0.0013269521412287175 0.01183106958115675 0.9936681994817307 -0.060191785712543945 0.0051813187516244336 0.02527383076586905
0.100041684035 0.005546609697653556 0.02709289000879773 0.9931751748307447 -0.06431033478900855 0.0015276074850560772 0.012616005854816969 -0.0012970832281356819 -0.008060680916233883
 0.9931751748307447 -0.06431033478900855 0.005554381103684345 0.027092278118044103 -0.0012975128645167948 -0.008060661432940642 0.0014781488992268534 0.012622552707428247
 0.0015276074850560772 0.012616005854816969 -0.0012975128645167948 -0.008060661432940642 0.005546226406807892 0.027091604158225414 0.9931751188878298 -0.06431167398902812
 -0.0012970832281356819 -0.008060680916233883 0.0014781488992268534 0.012622552707428247 0.9931751188878298 -0.06431167398902812 0.0055546613842499945 0.02709092948264291
0.1059090909091 0.00591202280588402 0.028811505644485896 0.9926915965409461 -0.06818815135529634 0.0016834481640198675 0.013357520772499428 -0.0014274709791875437 -0.008537523253772267
 0.9926915965409461 -0.06818815135529634 0.005920731140866065 0.028810826642372448 -0.0014279511331731526 -0.008537498693937913 0.0016279915395269197 0.013365024533991453
 0.0016834481640198675 0.013357520772499428 -0.0014279511331731526 -0.008537498693937913 0.0059115936543839565 0.028810148996914763 0.9926915339803846 -0.06818956975514816
 -0.0014274709791875437 -0.008537523253772267 0.0016279915395269197 0.013365024533991453 0.9926915339803846 -0.06818956975514816 0.005921045894854224 0.02880939866358477
0.1062942892872 0.005936559536369964 0.02892477931442784 0.9926591365015707 -0.06844312857801436 0.0016939623179708934 0.013406187422739715 -0.0014362682423690785 -0.008568822571862561
 0.9926591365015707 -0.06844312857801436 0.005945331251334076 0.02892409575990873 -0.0014367518065386115 -0.008568797657661121 0.0016380998107119425 0.013413757107793745
 0.0016939623179708934 0.013406187422739715 -0.0014367518065386115 -0.008568797657661121 0.005936127284521202 0.02892341804466933 0.9926590734927966 -0.06844455218257994
 -0.0014362682423690785 -0.008568822571862561 0.0016380998107119425 0.013413757107793745 0.9926590734927966 -0.06844455218257994 0.005945648340051966 0.0289226625698367
0.11254689453939999 0.006344371937319125 0.030771041887091614 0.9921198580393285 -0.07258872762661414 0.0018695327040095433 0.01419586081581871 -0.0015831795003228458 -0.0090767354832712
 0.9921198580393285 -0.07258872762661414 0.006354204703868864 0.030770281857416086 -0.0015837200249570452 -0.009076704441691326 0.0018068730549865855 0.014204555908941987
 0.0018695327040095433 0.01419586081581871 -0.0015837200249570452 -0.009076704441691326 0.006343887818491581 0.030769606063677436 0.9921197875132697 -0.07259023579369657
 -0.0015831795003228458 -0.0090767354832712 0.0018068730549865855 0.014204555908941987 0.9921197875132697 -0.07259023579369657 0.006354560922514838 0.030768764049218633
0.11879949979160001 0.006770326163516206 0.03263141114981625 0.9915570651025859 -0.07674693756072859 0.0020543850747216773 0.014984891077944568 -0.001737885010224635 -0.0095842890173448
 0.9915570651025859 -0.07674693756072859 0.006781280817440305 0.0326305696760431 -0.001738485503276896 -0.009584251118666178 0.001984534729992462 0.014994819469567046
 0.0020543850747216773 0.014984891077944568 -0.001738485503276896 -0.009584251118666178 0.006769787281772679 0.03262990168858746 0.9915569866005265 -0.07674853045953371
 -0.001737885010224635 -0.0095842890173448 0.001984534729992462 0.014994819469567046 0.9915569866005265 -0.07674853045953371 0.006781678497045984 0.03262896718094049
0.1250521050438 0.00721469942845788 0.03450561902229995 0.9909704849329645 -0.08091755486690887 0.0022485836291335883 0.01577314050676313 -0.00190045053607167 -0.010091350275393408
 0.9909704849329645 -0.08091755486690887 0.007226836911045914 0.034504690973851365 -0.0019011139806980148 -0.0100913047567048 0.002171148770558733 0.01578441545200674
 0.0022485836291335883 0.01577314050676313 -0.0019011139806980148 -0.0100913047567048 0.007214102898918063 0.034504036888856164 0.9909703979883184 -0.08091923267858737
 -0.00190045053607167 -0.010091350275393408 0.002171148770558733 0.01578441545200674 0.9909703979883184 -0.08091923267858737 0.007227278391832407 0.034503003716615036
0.131304710296 0.007677766791707401 0.036393395323886565 0.9903598464995848 -0.08510036747337657 0.0024521902498666572 0.016560468716422434 -0.002070939521124837 -0.010597784085066812
 0.9903598464995848 -0.08510036747337657 0.007691148162302974 0.0363923754040482 -0.002071668875608583 -0.010597730150329828 0.0023667768673227593 0.016573208884033692
 0.0024521902498666572 0.016560468716422434 -0.002071668875608583 -0.010597730150329828 0.0076771097414159726 0.03639174153510969 0.9903597506374713 -0.08510213038973324
 -0.002070939521124837 -0.010597784085066812 0.0023667768673227593 0.016573208884033692 0.9903597506374713 -0.08510213038973324 0.007691635794109646 0.03639060330384231
0.1375573155481 0.008052532597263302 0.03804878080896169 0.9898321865868913 -0.08904937219195391 0.0026396289517794875 0.01732226739675281 -0.0022238774948271805 -0.011078928448172437
 0.9898321865868913 -0.08904937219195391 0.008067224530716453 0.038047686839761605 -0.0022246772627773507 -0.011078866048620097 0.0025460393769207047 0.017336453133021786
 0.0026396289517794875 0.01732226739675281 -0.0022246772627773507 -0.011078866048620097 0.008051812872505035 0.038047056048367944 0.9898320813988767 -0.08905122030852625
 -0.0022238774948271805 -0.011078928448172437 0.0025460393769207047 0.017336453133021786 0.9898320813988767 -0.08905122030852625 0.00806775982576668 0.038045829990803956
0.1438099208003 0.008440455775755204 0.03969562822842936 0.989286020564052 -0.09298853634574682 0.0028346465409029523 0.018081002430037196 -0.002382931181444174 -0.01155730739682002
 0.989286020564052 -0.09298853634574682 0.008456520368938384 0.03969445632922223 -0.002383804563688336 -0.011557235747388126 0.0027325219809521775 0.018096742155961406
 0.0028346465409029523 0.018081002430037196 -0.002383804563688336 -0.011557235747388126 0.008439670650526702 0.039693833515993836 0.9892859055772332 -0.0929904698477195
 -0.002382931181444174 -0.01155730739682002 0.0027325219809521775 0.018096742155961406 0.9892859055772332 -0.0929904698477195 0.008457105538117423 0.03969251467834633
0.1500625260525 0.008841401984182333 0.04133380507719374 0.9887214866721097 -0.0969177670224208 0.0030371772102042605 0.018836597034726826 -0.0025480375005999564 -0.012032849967028088
 0.9887214866721097 -0.0969177670224208 0.008858901483857791 0.041332551130191734 -0.00254898769265884 -0.012032768250801027 0.0029261609639499226 0.018854003123205704
 0.0030371772102042605 0.018836597034726826 -0.00254898769265884 -0.012032768250801027 0.008840548752509461 0.04133194147304878 0.9887213614065925 -0.09691978610107986
 -0.0025480375005999564 -0.012032849967028088 0.0029261609639499226 0.018854003123205704 0.9887213614065925 -0.09691978610107986 0.008859538737112716 0.041330524623479095
0.15631513130469998 0.009255235956071212 0.0429631828744988 0.9881387238210275 -0.10083697153961094 0.0032471543843284162 0.019588975700087323 -0.002719132608214442 -0.012505486675348766
