! Created with skrf 1.8.0 (http://scikit-rf.org).
# GHz S RI R 50.0 
!freq ReS11 ImS11 ReS12 ImS12 ReS13 ImS13
! ReS14 ImS14
! ReS21 ImS21 ReS22 ImS22 ReS23 ImS23
! ReS24 ImS24
! ReS31 ImS31 ReS32 ImS32 ReS33 ImS33
! ReS34 ImS34
! ReS41 ImS41 ReS42 ImS42 ReS43 ImS43
! ReS44 ImS44
!
0.0 0.001528681997066 0.0 0.9984713179944 0.0 5.891928353815e-05 0.0 -5.891928389348e-05 7.215531242820449e-21
 0.9984713179944 0.0 0.001528681997028 0.0 -5.891928389246e-05 7.215531242695534e-21 5.89192835373e-05 0.0
 5.891928353815e-05 0.0 -5.891928389246e-05 7.215531242695534e-21 0.001528681995622 0.0 0.998471317993 0.0
 -5.891928389348e-05 7.215531242820449e-21 5.89192835373e-05 0.0 0.998471317993 0.0 0.001528681995635 0.0
0.005 0.0016446850469041276 0.0012510417294794654 0.9983245685886358 -0.0032021791833866716 8.247300866290067e-05 0.0006468606304353155 -8.010282405201194e-05 -0.0004064382639631941
 0.9983245685886358 -0.0032021791833866716 0.001644697560797357 0.001251034460243912 -8.010647153468055e-05 -0.00040644107079438214 8.239331216859688e-05 0.0006468911167724408
 8.247300866290067e-05 0.0006468606304353155 -8.010647153468055e-05 -0.00040644107079438214 0.001644682782698359 0.0012509758181709352 0.9983245682271458 -0.003202246239794465
 -8.010282405201194e-05 -0.0004064382639631941 8.239331216859688e-05 0.0006468911167724408 0.9983245682271458 -0.003202246239794465 0.0016446991062985558 0.0012509662617476384
0.006252605252188 0.0016750946990916856 0.0015687233586040052 0.9982858581395083 -0.004003508955091585 8.919613966865857e-05 0.0008088908715035207 -8.607496357184318e-05 -0.0005085734842407949
 0.9982858581395083 -0.004003508955091585 0.0016751142595629199 0.0015687140643240538 -8.608063932238293e-05 -0.0005085769451804975 8.907162285639561e-05 0.0008089304314909923
 8.919613966865857e-05 0.0008088908715035207 -8.608063932238293e-05 -0.0005085769451804975 0.0016750912384097232 0.001568640975502864 0.9982858576535542 -0.004003592774886392
 -8.607496357184318e-05 -0.0005085734842407949 8.907162285639561e-05 0.0008089304314909923 0.9982858576535542 -0.004003592774886392 0.0016751167550502469 0.0015686288147585216
0.01250521050438 0.0018350938605853429 0.0031703119108643743 0.9980808484088912 -0.008007831479766482 0.00012771946802966652 0.0016181488846605822 -0.00011991310335030997 -0.001019618141863813
 0.9980808484088912 -0.008007831479766482 0.0018351719561656942 0.003170291231671 -0.00011993547090433553 -0.0010196245421008286 0.0001272229721585193 0.0016182436795429106
 0.00012771946802966652 0.0016181488846605822 -0.00011993547090433553 -0.0010196245421008286 0.0018350806119174494 0.003170147462812273 0.9980808470414734 -0.008007998881561285
 -0.00011991310335030997 -0.001019618141863813 0.0001272229721585193 0.0016182436795429106 0.9980808470414734 -0.008007998881561285 0.0018351825006544373 0.003170120942856981
0.01875781575657 0.002009026817541005 0.004794704887355056 0.9978560354351476 -0.012022714967005214 0.00017457788917423238 0.002428312477016349 -0.0001605373959603771 -0.0015324026455968667
 0.9978560354351476 -0.012022714967005214 0.0020092022849280754 0.004794670614071078 -0.00016058727650028565 -0.0015324113632634595 0.0001734626792141772 0.002428481261594122
 0.00017457788917423238 0.002428312477016349 -0.00016058727650028565 -0.0015324113632634595 0.0020089974581453318 0.004794458623375031 0.9978560327785623 -0.012022965858697674
 -0.0001605373959603771 -0.0015324026455968667 0.0001734626792141772 0.002428481261594122 0.9978560327785623 -0.012022965858697674 0.002009226408789205 0.004794415327480158
0.02501042100875 0.002197230730476687 0.006439631768443478 0.9976111558923064 -0.01605010619171392 0.00022986144702065496 0.0032394139950702432 -0.00020804819733235988 -0.0020466961841659774
 0.9976111558923064 -0.01605010619171392 0.0021975423164922593 0.006439581583140718 -0.00020813628294734124 -0.0020467064862638444 0.00022788076257389394 0.0032396784879409482
 0.00022986144702065496 0.0032394139950702432 -0.00020813628294734124 -0.0020467064862638444 0.002197178954178771 0.006439303957561597 0.9976111515462843 -0.016050440535297295
 -0.00020804819733235988 -0.0020466961841659774 0.00022788076257389394 0.0032396784879409482 0.9976111515462843 -0.016050440535297295 0.002197585554805411 0.006439241265861067
0.03126302626094 0.002400028815234329 0.008103924661956 0.9973459329481018 -0.020090838905251686 0.00029366068519964784 0.004051411563630035 -0.0002625430587377297 -0.0025623365385674473
 0.9973459329481018 -0.020090838905251686 0.0024005151967245552 0.008103856139944604 -0.00026267993442603566 -0.0025623475795903097 0.00029056750843739086 0.004051796461719236
 0.00029366068519964784 0.004051411563630035 -0.00026267993442603566 -0.0025623475795903097 0.0023999483224603014 0.008103515632338682 0.9973459265114777 -0.020091256677856256
 -0.0002625430587377297 -0.0025623365385674473 0.00029056750843739086 0.004051796461719236 0.9973459265114777 -0.020091256677856256 0.002400583084653929 0.008103430723840468
0.037515631513130004 0.00261773730534115 0.009786822509475117 0.9970600834420117 -0.024145329567866858 0.00036606573507784045 0.004864233950625076 -0.00032411742856047423 -0.003079185213158431
 0.9970600834420117 -0.024145329567866858 0.0026184371024366216 0.009786733120601842 -0.000324313583429434 -0.0030791960347031693 0.0003616126871345008 0.004864766957214374
 0.00036606573507784045 0.004864233950625076 -0.000324313583429434 -0.0030791960347031693 0.002617621801137003 0.009786332640382162 0.9970600745113373 -0.024145830770612244
 -0.00032411742856047423 -0.003079185213158431 0.0003616126871345008 0.004864766957214374 0.9970600745113373 -0.024145830770612244 0.0026185351758270894 0.009786222493180638
0.043768236765320004 0.0028506681475829417 0.011487759305688442 0.9967533207992786 -0.02821378905932248 0.00044716588746993886 0.005677794215355584 -0.0003928649024443168 -0.0035971137869833065
 0.9967533207992786 -0.02821378905932248 0.002851619934612435 0.01148764641508506 -0.00039313073642574146 -0.003597123317598177 0.000441105179958517 0.005678506072253537
 0.00044716588746993886 0.005677794215355584 -0.00039313073642574146 -0.003597123317598177 0.0028505113414476414 0.011487189043370072 0.9967533089684799 -0.028214373702094342
 -0.0003928649024443168 -0.0035971137869833065 0.000441105179958517 0.005678506072253537 0.9967533089684799 -0.028214373702094342 0.0028517537305675906 0.011487050434287474
0.050020842017509996 0.0030991302519909063 0.013206276609315705 0.9964253565031211 -0.03229631009581288 0.0005370493338198692 0.0064919953462950816 -0.00046887731420568244 -0.004115998278461401
 0.9964253565031211 -0.03229631009581288 0.0031003725665654435 0.013206137477921745 -0.00046922314222421163 -0.004116005333599057 0.0005291327493999025 0.0064929198677043595
 0.0005370493338198692 0.0064919953462950816 -0.00046922314222421163 -0.004116005333599057 0.003098925859462327 0.013205626459566307 0.9964253413652275 -0.03229697820562898
 -0.00046887731420568244 -0.004115998278461401 0.0005291327493999025 0.0064929198677043595 0.9964253413652275 -0.03229697820562898 0.0031005476264340938 0.01320545596336355
0.055454545454549996 0.0033279027429562232 0.01471369072304158 0.9961229023618229 -0.03585557923361354 0.000622361414765704 0.007200000392204723 -0.0005409044327815286 -0.004567605953736703
 0.9961229023618229 -0.03585557923361354 0.003329428810125763 0.014713526482451547 -0.0005413280912056684 -0.0045676098077686205 0.0006126300996341602 0.007201139598977099
 0.000622361414765704 0.007200000392204723 -0.0005413280912056684 -0.0045676098077686205 0.0033276518963769024 0.014712971613932816 0.9961228840170112 -0.03585631990641726
 -0.0005409044327815286 -0.004567605953736703 0.0006126300996341602 0.007201139598977099 0.9961228840170112 -0.03585631990641726 0.003329644231580174 0.014712770467493924
0.056273447269699996 0.0033634301334856064 0.014941980584124905 0.9960759009622948 -0.03639291011796361 0.000635802984835037 0.007306733019731485 -0.0005522447524426387 -0.004635716392593944
 0.9960759009622948 -0.03639291011796361 0.003365001485247104 0.01494181236897407 -0.0005526808073038107 -0.004635719674605775 0.0006257818755102698 0.007307907126825664
 0.000635802984835037 0.007306733019731485 -0.0005526808073038107 -0.004635719674605775 0.003363171874957208 0.014941251122172068 0.996075882107345 -0.036393661729873295
 -0.0005522447524426387 -0.004635716392593944 0.0006257818755102698 0.007307907126825664 0.996075882107345 -0.036393661729873295 0.003365223352893531 0.014941045110571361
0.06252605252188 0.0036438722558106732 0.01669451838650897 0.9957046640853469 -0.04050355483507745 0.000743512324498987 0.00812189713163185 -0.0006430555429419575 -0.005156145998668439
 0.9957046640853469 -0.04050355483507745 0.003645811134039118 0.016694318140817104 -0.0006435919772149772 -0.0051561440968328895 0.0007311376213455657 0.008123360887396326
 0.000743512324498987 0.00812189713163185 -0.0006435919772149772 -0.0051561440968328895 0.0036435538580916063 0.016693710250752915 0.9957046411009307 -0.040504389999318505
 -0.0006430555429419575 -0.005156145998668439 0.0007311376213455657 0.008123360887396326 0.9957046411009307 -0.040504389999318505 0.0036460853578644294 0.016693464891057507
0.06877865777407 0.0039407592126414915 0.018463564082208166 0.995311355694904 -0.044628172243476545 0.0008602612859439282 0.00893737270227815 -0.0007413962087179164 -0.005677164239259137
 0.995311355694904 -0.044628172243476545 0.003943104094488658 0.01846332875516448 -0.0007420430960117863 -0.0056771556298238855 0.0008452835173666651 0.008939169346322369
 0.0008602612859439282 0.00893737270227815 -0.0007420430960117863 -0.0056771556298238855 0.0039403744077967755 0.018462677983123694 0.9953113281648398 -0.04462909101743323
 -0.0007413962087179164 -0.005677164239259137 0.0008452835173666651 0.008939169346322369 0.9953113281648398 -0.04462909101743323 0.00394343622606776 0.018462389236627717
0.07503126302626001 0.004254391810956825 0.020248809725566343 0.9948956858491983 -0.04876666148669893 0.0009861321396449985 0.009753040457540333 -0.0008473514172669345 -0.0061986469668232225
 0.9948956858491983 -0.04876666148669893 0.004257181168781751 0.020248536161928374 -0.0008481187531124736 -0.006198630013058016 0.0009683014555497854 0.009755216440760536
 0.0009861321396449985 0.009753040457540333 -0.0008481187531124736 -0.006198630013058016 0.004253934338437512 0.020247846441565753 0.9948956533539458 -0.04876766393983566
 -0.0008473514172669345 -0.0061986469668232225 0.0009683014555497854 0.009755216440760536 0.9948956533539458 -0.04876766393983566 0.004257576764240422 0.020247510061762966
0.08128386827845 0.004585069095166608 0.02204995942107489 0.9944573651067807 -0.05291889873779114 0.0011212053887577197 0.010568777223103233 -0.0009610039196321769 -0.006720468371839584
 0.9944573651067807 -0.05291889873779114 0.0045883414041710145 0.022049644360514556 -0.0009619016219297241 -0.0067204413241065825 0.0011002715896595572 0.010571382242026167
 0.0011212053887577197 0.010568777223103233 -0.0009619016219297241 -0.0067204413241065825 0.004584532701508846 0.02204891980085454 0.9944573272228899 -0.052919984950225755
 -0.0009610039196321769 -0.006720468371839584 0.0011002715896595572 0.010571382242026167 0.9944573272228899 -0.052919984950225755 0.004588806023962601 0.022048531331291626
0.08753647353064001 0.004933088330594427 0.023866725217376906 0.9939961047555081 -0.057084741254070176 0.0012655596698379434 0.01138445619649572 -0.0010824344830599336 -0.00724250073777148
 0.9939961047555081 -0.057084741254070176 0.004936882076324217 0.023866365293570977 -0.001083472392375454 -0.007242461733610361 0.0012412722398019874 0.01138754322724092
 0.0012655596698379434 0.01138445619649572 -0.001083472392375454 -0.007242461733610361 0.0049324667703266245 0.023865610181557587 0.9939960610549673 -0.05708591131568821
 -0.0010824344830599336 -0.00724250073777148 0.0012412722398019874 0.01138754322724092 0.9939960610549673 -0.05708591131568821 0.00493742128515528 0.023865164953521457
0.09378907878283 0.0052987449585534955 0.02569882417077586 0.9935116170154176 -0.06126403026766046 0.0014192716563869703 0.01219994715150374 -0.0012117218198278554 -0.0077646142683926
 0.9935116170154176 -0.06126403026766046 0.005303098644475866 0.0256984159101904 -0.0012129096994167514 -0.007764561332610946 0.0013913797993068172 0.012203572483322727
 0.0014192716563869703 0.01219994715150374 -0.0012129096994167514 -0.007764561332610946 0.005298031994991802 0.0256976347114998 0.9935115670654902 -0.06126528427933564
 -0.0012117218198278554 -0.0077646142683926 0.0013913797993068172 0.012203572483322727 0.9935115670654902 -0.06126528427933564 0.005303718011653038 0.025697127841413384
0.100041684035 0.005682332532248749 0.027545976202259997 0.9930036152264825 -0.06545659308781283 0.0015824159649785237 0.013015116593610696 -0.0013489425125589622 -0.008286676969035352
 0.9930036152264825 -0.06545659308781283 0.005687284687366716 0.027545516022733862 -0.0013502900482757698 -0.008286608013825037 0.0015506686435295353 0.013019339861868238
 0.0015824159649785237 0.013015116593610696 -0.0013502900482757698 -0.008286608013825037 0.005681521938064123 0.02754471338729806 0.9930035585890185 -0.06545793115804753
 -0.0013489425125589622 -0.008286676969035352 0.0015506686435295353 0.013019339861868238 0.9930035585890185 -0.06545793115804753 0.005687989786424241 0.02754413977377522
0.1059090909091 0.006058856552503946 0.02929277468759249 0.9925052694422543 -0.06940277633046599 0.0017441527692780097 0.013779652566217056 -0.0014849911618391844 -0.008776411633530608
 0.9925052694422543 -0.06940277633046599 0.006064405378462628 0.029292262431411135 -0.0014864972579090698 -0.008776325646736187 0.0017085590093320444 0.013784494181262189
 0.0017441527692780097 0.013779652566217056 -0.0014864972579090698 -0.008776325646736187 0.0060579486879967625 0.029291444070501445 0.992505206125895 -0.06940419339100835
 -0.0014849911618391844 -0.008776411633530608 0.0017085590093320444 0.013784494181262189 0.992505206125895 -0.06940419339100835 0.006065196001097233 0.02929080298895454
0.1062942892872 0.006084142637127353 0.029407902481520976 0.9924718140240304 -0.06966224468195802 0.0017550650624885054 0.013829827882151185 -0.001494170937493572 -0.008808554566201594
 0.9924718140240304 -0.06966224468195802 0.006089731823517351 0.029407386690500133 -0.0014956877375527887 -0.00880846739126119 0.0017192110396209693 0.013834712100714314
 0.0017550650624885054 0.013829827882151185 -0.0014956877375527887 -0.00880846739126119 0.006083228195564872 0.029406567450146217 0.9924717502554702 -0.06966366693179162
 -0.001494170937493572 -0.008808554566201594 0.0017192110396209693 0.013834712100714314 0.9924717502554702 -0.06966366693179162 0.006090528232720507 0.029405921770899898
0.11254689453939999 0.00650446480078734 0.03128432419286968 0.991915929506011 -0.07388078888060814 0.0019372891746818333 0.014643941332376842 -0.0016474791857049994 -0.009330110452271537
 0.991915929506011 -0.07388078888060814 0.00651072962099857 0.03128374898543745 -0.0016491747803042058 -0.009330002744952586 0.0018970770571863536 0.014649552925462044
 0.0019372891746818333 0.014643941332376842 -0.0016491747803042058 -0.009330002744952586 0.006503440306205081 0.03128291816128739 0.9919158581568895 -0.07388229543900297
 -0.0016474791857049994 -0.009330110452271537 0.0018970770571863536 0.014649552925462044 0.9919158581568895 -0.07388229543900297 0.006511622923174047 0.0312821948696096
0.11879949979160001 0.006943586392799088 0.033174961576585775 0.9913356793948642 -0.07811201931316106 0.0021291561955809287 0.015457314302548073 -0.001808936982734298 -0.009851205650662146
 0.9913356793948642 -0.07811201931316106 0.006950565497868685 0.03317432303305251 -0.0018108208236445717 -0.009851074986125155 0.002084334479827672 0.015463723135809517
 0.0021291561955809287 0.015457314302548073 -0.0018108208236445717 -0.009851074986125155 0.006942445651702149 0.033173485835192064 0.9913356000090943 -0.07811361032024614
 -0.001808936982734298 -0.009851205650662146 0.002084334479827672 0.015463723135809517 0.9913356000090943 -0.07811361032024614 0.006951561280133407 0.03317267915626689
0.1250521050438 0.007401792518707142 0.0350795331790808 0.9907307831943235 -0.08235572014067181 0.0023307315973661352 0.016269801270011812 -0.0019786116073997008 -0.01037169879716608
 0.9907307831943235 -0.08235572014067181 0.007409524615597405 0.035078827262458555 -0.0019806930674341706 -0.010371542638558929 0.0022810487166626627 0.016277080680983297
 0.0023307315973661352 0.016269801270011812 -0.0019806930674341706 -0.010371542638558929 0.007400529350618898 0.03507798909393555 0.9907306953089258 -0.08235739574716258
 -0.0019786116073997008 -0.01037169879716608 0.0022810487166626627 0.016277080680983297 0.9907306953089258 -0.08235739574716258 0.007410628469673979 0.035077093020749975
0.131304710296 0.007879365907222331 0.036997755239329806 0.9901009623433906 -0.08661166665914695 0.0025420783409330224 0.01708125390107484 -0.0021565678094352305 -0.010891446133048528
 0.9901009623433906 -0.08661166665914695 0.007887889766619804 0.03699697779231595 -0.002158856181834176 -0.010891261831697979 0.0024872827146351357 0.01708948072882671
 0.0025420783409330224 0.01708125390107484 -0.002158856181834176 -0.010891261831697979 0.007877974145925937 0.03699614425648911 0.9901008654886131 -0.08661342702257259
 -0.0021565678094352305 -0.010891446133048528 0.0024872827146351357 0.01708948072882671 0.9901008654886131 -0.08661342702257259 0.00788910728875483 0.03699515254549864
0.1375573155481 0.008266840429723577 0.03867943764217847 0.9895557273442382 -0.0906296180928611 0.002736745048643272 0.017866608618790202 -0.0023164167354880723 -0.011385355885784628
 0.9895557273442382 -0.0906296180928611 0.008276198803058887 0.038678604768573197 -0.002318925798929804 -0.011385143228032165 0.002676705590762197 0.017875771075011093
 0.002736745048643272 0.017866608618790202 -0.002318925798929804 -0.011385143228032165 0.008265314439577658 0.0386777611589645 0.9895556211098033 -0.09063146328290946
 -0.0023164167354880723 -0.011385355885784628 0.002676705590762197 0.017875771075011093 0.9895556211098033 -0.09063146328290946 0.008277534951032645 0.0386766877723822
0.1438099208003 0.008667944675960208 0.040352293201691744 0.9889913215404326 -0.09463740836214782 0.002939277399321748 0.018648751086810172 -0.002482656321641828 -0.01187634917190194
 0.9889913215404326 -0.09463740836214782 0.008678177041095548 0.04035140211107142 -0.0024853960628097326 -0.011876105552494267 0.002873764286879988 0.0186589195238139
 0.002939277399321748 0.018648751086810172 -0.0024853960628097326 -0.011876105552494267 0.008666278404743726 0.040350552708413034 0.9889912054586597 -0.09463933853031031
 -0.002482656321641828 -0.01187634917190194 0.002873764286879988 0.0186589195238139 0.9889912054586597 -0.09463933853031031 0.008679637302365512 0.040349392700160455
0.1500625260525 0.009082537738574058 0.04201618289497424 0.9884078898975547 -0.09863493851838609 0.0031496057101599033 0.019427600336121426 -0.0026552193864781007 -0.012364350540254372
 0.9884078898975547 -0.09863493851838609 0.00909368366088831 0.042015230630154395 -0.0026581997697675756 -0.012364073249291046 0.003078390501923654 0.01943884767150891
 0.0031496057101599033 0.019427600336121426 -0.0026581997697675756 -0.012364073249291046 0.009080725153382065 0.042014379942285414 0.9884077634947486 -0.09863695382140766
 -0.0026552193864781007 -0.012364350540254372 0.003078390501923654 0.01943884767150891 0.9884077634947486 -0.09863695382140766 0.009095273519848807 0.042013128111569015
0.15631513130469998 0.00951047771524171 0.043670971901690184 0.9878055781126669 -0.10262210995384483 0.0033676594706716135 0.020203076765931905 -0.002834037920822299 -0.01284928613545296
