! Created with skrf 1.8.0 (http://scikit-rf.org).
# GHz S RI R 50.0 
!freq ReS11 ImS11 ReS12 ImS12 ReS13 ImS13
! ReS14 ImS14
! ReS21 ImS21 ReS22 ImS22 ReS23 ImS23
! ReS24 ImS24
! ReS31 ImS31 ReS32 ImS32 ReS33 ImS33
! ReS34 ImS34
! ReS41 ImS41 ReS42 ImS42 ReS43 ImS43
! ReS44 ImS44
!
0.0 0.001471125356519 0.0 0.9985288746208 0.0 5.671341626903e-05 0.0 -5.671341653635e-05 6.94539040299516e-21
 0.9985288746208 0.0 0.001471125356531 0.0 -5.671341653622e-05 6.94539040297924e-21 5.671341627056e-05 0.0
 5.671341626903e-05 0.0 -5.671341653622e-05 6.94539040297924e-21 0.001471125366464 0.0 0.9985288746307 0.0
 -5.671341653635e-05 6.94539040299516e-21 5.671341627056e-05 0.0 0.9985288746307 0.0 0.001471125366488 0.0
0.005 0.001582635319925553 0.00120200786130146 0.9983878397195738 -0.003081915988287556 7.954110651911389e-05 0.0006350353716450368 -7.726153404538833e-05 -0.00039685713669787375
 0.9983878397195738 -0.003081915988287556 0.0015826265767480653 0.0012020129440232657 -7.725748949969391e-05 -0.0003968540320126654 7.960264376750763e-05 0.0006350118734003184
 7.954110651911389e-05 0.0006350353716450368 -7.725748949969391e-05 -0.0003968540320126654 0.001582637036058575 0.001201939567351057 0.9983878393690573 -0.003081983050409427
 -7.726153404538833e-05 -0.00039685713669787375 7.960264376750763e-05 0.0006350118734003184 0.9983878393690573 -0.003081983050409427 0.0015826241630085857 0.0012019471159321552
0.006252605252188 0.0016118237152689453 0.0015072540735498598 0.9983507020180395 -0.0038531587817234613 8.601448953442827e-05 0.0007941018667114877 -8.303640826844654e-05 -0.0004965902569345039
 0.9983507020180395 -0.0038531587817234613 0.0016118100486870043 0.001507260573197815 -8.303011456679137e-05 -0.0004965864285723991 8.611063537556543e-05 0.0007940713734840894
 8.601448953442827e-05 0.0007941018667114877 -8.303011456679137e-05 -0.0004965864285723991 0.001611826474323858 0.001507168711390033 0.9983507015461278 -0.0038532426021903906
 -8.303640826844654e-05 -0.0004965902569345039 8.611063537556543e-05 0.0007940713734840894 0.9983507015461278 -0.0038532426021903906 0.0016118063512689392 0.001507178299562669
0.01250521050438 0.0017651440841215456 0.0030462294804603244 0.9981543959012583 -0.007707190009649126 0.00012288320521026088 0.0015885644814973314 -0.00011565927394514249 -0.0009956349694298754
 0.9981543959012583 -0.007707190009649126 0.0017650895189542167 0.003046243941969937 -0.00011563446999113874 -0.0009956278864074151 0.00012326659608547698 0.001588491434192496
 0.00012288320521026088 0.0015885644814973314 -0.00011563446999113874 -0.0009956278864074151 0.0017651556522705488 0.0030460589737416255 0.9981543945621074 -0.007707357405286032
 -0.00011565927394514249 -0.0009956349694298754 0.00012326659608547698 0.001588491434192496 0.9981543945621074 -0.007707357405286032 0.0017650752973176797 0.0030460797076856277
0.01875781575657 0.001931409458439388 0.004607250181844293 0.9979397205542206 -0.011571487836494244 0.0001674038670526728 0.002383939448719346 -0.00015467997539001758 -0.0014964091499579542
 0.9979397205542206 -0.011571487836494244 0.001931286858118139 0.004607274126990986 -0.000154624659670045 -0.0014963994923864192 0.00016826507692069216 0.0023838094923855344
 0.0001674038670526728 0.002383939448719346 -0.000154624659670045 -0.0014963994923864192 0.0019314358858758798 0.004606994561469434 0.9979397179669456 -0.011571738717953623
 -0.00015467997539001758 -0.0014964091499579542 0.00016826507692069216 0.0023838094923855344 0.9979397179669456 -0.011571738717953623 0.0019312553180186062 0.0046070281603663435
0.02501042100875 0.0021109339654265926 0.006188140409130888 0.9977064313128803 -0.015447936853866534 0.00021966157289595334 0.003180271003658674 -0.00020019348039895663 -0.0019986899916486518
 0.9977064313128803 -0.015447936853866534 0.002110716255440989 0.006188175412053932 -0.00020009579363516148 -0.0019986785581786555 0.00022119123331536687 0.0031800675768767785
 0.00021966157289595334 0.003180271003658674 -0.00020009579363516148 -0.0019986785581786555 0.0021109812933908954 0.006187799631239955 0.9977064270919334 -0.015448271178947311
 -0.00020019348039895663 -0.0019986899916486518 0.00022119123331536687 0.0031800675768767785 0.9977064270919334 -0.015448271178947311 0.002110660608161862 0.0061878479627464275
0.03126302626094 0.0023040186974954903 0.007787786261641804 0.9974542706119696 -0.019337350459279316 0.00027974183004921335 0.003977529210525647 -0.0002522921883944404 -0.0025023237351506993
 0.9974542706119696 -0.019337350459279316 0.0023036788507569163 0.007787833947109643 -0.0002521403890293249 -0.0025023114445089645 0.00028213081340596895 0.003977233533747238
 0.00027974183004921335 0.003977529210525647 -0.0002521403890293249 -0.0025023114445089645 0.002304092964663197 0.0077873602502714365 0.9974542643708005 -0.019337768190448187
 -0.0002522921883944404 -0.0025023237351506993 0.00028213081340596895 0.003977233533747238 0.9974542643708005 -0.019337768190448187 0.002303592314371706 0.00778742532880582
0.037515631513130004 0.002510958319880428 0.009405465853143875 0.9971829747856916 -0.02324014064997031 0.0003477297879179616 0.004775654971785651 -0.0003110666078811764 -0.003007180663764563
 0.9971829747856916 -0.02324014064997031 0.0025104693470389687 0.009405527895303353 -0.0003108490596333949 -0.0030071685552556866 0.0003511692919067791 0.004775246025412864
 0.0003477297879179616 0.004775654971785651 -0.0003108490596333949 -0.0030071685552556866 0.0025110655644237172 0.009404954470554953 0.9971829661367675 -0.02324064178376752
 -0.0003110666078811764 -0.003007180663764563 0.0003511692919067791 0.004775246025412864 0.9971829661367675 -0.02324064178376752 0.0025103451452588763 0.009405038456921939
0.043768236765320004 0.0027320436163038204 0.011040645440040877 0.9968922768053056 -0.027156521826913686 0.00042370987691620597 0.005574573710602809 -0.0003766056015909688 -0.0035131414202908655
 0.9968922768053056 -0.027156521826913686 0.002731378557462967 0.01104072356153081 -0.0003763107659985112 -0.0035131306539805786 0.0004283914666558988 0.005574028209859708
 0.00042370987691620597 0.005574573710602809 -0.0003763107659985112 -0.0035131306539805786 0.0027321898786320784 0.011040048520650995 0.9968922653615346 -0.027157106359627484
 -0.0003766056015909688 -0.0035131414202908655 0.0004283914666558988 0.005574028209859708 0.9968922653615346 -0.027157106359627484 0.0027312099212328366 0.011040153722347812
0.050020842017509996 0.002967562683468074 0.012692895177457348 0.9965819076679627 -0.031086594969382892 0.000507765590100488 0.006374201023114499 -0.000448996478196569 -0.004020091354315368
 0.9965819076679627 -0.031086594969382892 0.0029666946013574354 0.012692991148592353 -0.00044861290988058275 -0.004020083211111827 0.0005138812181562468 0.006373493391544781
 0.000507765590100488 0.006374201023114499 -0.00044861290988058275 -0.004020083211111827 0.0029677540036897663 0.012692212511131241 0.9965818930394373 -0.031087262913296217
 -0.000448996478196569 -0.004020091354315368 0.0005138812181562468 0.006373493391544781 0.9965818930394373 -0.031087262913296217 0.0029664747651789837 0.012692341382863345
0.055454545454549996 0.003184180058779895 0.014142326938068517 0.9962960022884676 -0.03451309091981991 0.0005874349727059544 0.007069605951194317 -0.0005175375675798432 -0.004461361983374807
 0.9962960022884676 -0.03451309091981991 0.0031831136794716283 0.01414243989533373 -0.0005170676626409278 -0.004461357253861148 0.0005949530183643744 0.007068734851576966
 0.0005874349727059544 0.007069605951194317 -0.0005170676626409278 -0.004461357253861148 0.003184415442860032 0.01414156955534907 0.9962959845749216 -0.03451383136699484
 -0.0005175375675798432 -0.004461361983374807 0.0005949530183643744 0.007068734851576966 0.9962959845749216 -0.03451383136699484 0.0031828438593693767 0.014141721105457613
0.056273447269699996 0.0032178015392635827 0.014361847763265755 0.9962515972019638 -0.03503038892211291 0.0005999793288022527 0.0071744454517137565 -0.0005283250146216493 -0.004527917750476334
 0.9962515972019638 -0.03503038892211291 0.0032167035125137897 0.014361963401382294 -0.0005278413580477863 -0.004527913632160037 0.0006077213416516849 0.00717354779405405
 0.0005999793288022527 0.0071744454517137565 -0.0005278413580477863 -0.004527913632160037 0.0032180439599536165 0.014361079103694468 0.9962515789979837 -0.03503114029653706
 -0.0005283250146216493 -0.004527917750476334 0.0006077213416516849 0.00717354779405405 0.9962515789979837 -0.03503114029653706 0.0032164257171850502 0.014361234248099725
0.06252605252188 0.003483044456625569 0.016047175707669045 0.9959010746011293 -0.03898788305902084 0.0007004322784568153 0.00797521001000902 -0.0006146754442373412 -0.005036508307801423
 0.9959010746011293 -0.03898788305902084 0.0034816895735958623 0.01604731287677629 -0.0006140804315345593 -0.005036509737030217 0.0007099934142385802 0.007974092084771586
 0.0007004322784568153 0.00797521001000902 -0.0006140804315345593 -0.005036509737030217 0.003483344021136013 0.016046320769544768 0.9959010524276635 -0.038988717892684904
 -0.0006146754442373412 -0.005036508307801423 0.0007099934142385802 0.007974092084771586 0.9959010524276635 -0.038988717892684904 0.003481347064408282 0.01604650493817471
0.06877865777407 0.0037635741406925943 0.01774857777756888 0.9955300688053174 -0.04295902077506027 0.0008092043026553861 0.008776393092474601 -0.0007081304241801789 -0.005545750237580641
 0.9955300688053174 -0.04295902077506027 0.003761935493157368 0.017748738387996277 -0.0007074128736377042 -0.00554575885786661 0.0008207776825801914 0.008775022284418546
 0.0008092043026553861 0.008776393092474601 -0.0007074128736377042 -0.00554575885786661 0.003763936895322474 0.017747636234704284 0.9955300422671746 -0.042959939107348015
 -0.0007081304241801789 -0.005545750237580641 0.0008207776825801914 0.008775022284418546 0.9955300422671746 -0.042959939107348015 0.0037615215222122455 0.01774785232917428
0.07503126302626001 0.00405967181702672 0.01946577040045924 0.9951383087957903 -0.04694371802178703 0.0009263738466784012 0.00957788905367326 -0.0008087709909049014 -0.006055529695128647
 0.9951383087957903 -0.04694371802178703 0.0040577224941941645 0.01946595640873699 -0.0008079198059938079 -0.006055547270807123 0.0009401529616494008 0.00957623034629012
 0.0009263738466784012 0.00957788905367326 -0.0008079198059938079 -0.006055547270807123 0.004060103809680662 0.01946474188856577 0.9951382774946824 -0.04694471989942032
 -0.0008087709909049014 -0.006055529695128647 0.0009401529616494008 0.00957623034629012 0.9951382774946824 -0.04694471989942032 0.0040572303191957785 0.0194649929619314
0.08128386827845 0.004371617261125317 0.021198481946410823 0.9947255238351359 -0.050941868968766686 0.0010520178474058696 0.010379588596067147 -0.0009166765071637158 -0.006565731406656528
 0.9947255238351359 -0.050941868968766686 0.004369330343775057 0.02119869535534369 -0.0009156806758907159 -0.006565759822843025 0.0010681965414525247 0.010377604544191758
 0.0010520178474058696 0.010379588596067147 -0.0009156806758907159 -0.006565759822843025 0.004372124542036184 0.021197366061087193 0.9947254873698713 -0.05094295444712134
 -0.0009166765071637158 -0.006565731406656528 0.0010681965414525247 0.010377604544191758 0.9947254873698713 -0.05094295444712134 0.004368753229196927 0.02119765531930788
0.08753647353064001 0.004699688791614248 0.022946448775308853 0.9942914436737641 -0.05495334990357748 0.0011862116472013595 0.011181379043022865 -0.0010319246037051343 -0.0070762384148355655
 0.9942914436737641 -0.05495334990357748 0.004697037345688332 0.022946691634187694 -0.001030773198203381 -0.007076279677362282 0.0012049840976479152 0.011179029745574205
 0.0011862116472013595 0.011181379043022865 -0.001030773198203381 -0.007076279677362282 0.004700277413124751 0.022945245074188294 0.9942914016398343 -0.05495451904405377
 -0.0010319246037051343 -0.0070762384148355655 0.0012049840976479152 0.011179029745574205 0.9942914016398343 -0.05495451904405377 0.0046963685636176 0.022945575877806188
0.09378907878283 0.005044163237002735 0.024709412410926012 0.9938357987329097 -0.058978022009411116 0.001329028910230765 0.011983144536220397 -0.001154591116724814 -0.00758693190394597
 0.9938357987329097 -0.058978022009411116 0.005041120307646282 0.024709686815960193 -0.001153273293195632 -0.007586988139286702 0.0013505896054953263 0.011980387609201528
 0.001329028910230765 0.011983144536220397 -0.001153273293195632 -0.007586988139286702 0.0050448392535111485 0.024708120409530597 0.9938357507224717 -0.05897927488284285
 -0.001154591116724814 -0.00758693190394597 0.0013505896054953263 0.011980387609201528 0.9938357507224717 -0.05897927488284285 0.00504035313771093 0.024708496275638838
0.100041684035 0.005405315882641478 0.026487117470274824 0.9933583202720463 -0.06301573339185493 0.001480541540454409 0.012784766186884408 -0.0012847500222660957 -0.00809769107535903
 0.9933583202720463 -0.06301573339185493 0.005401854488464238 0.026487425565144853 -0.001283255021015117 -0.008097764530537158 0.0015050852561074995 0.012781556736593067
 0.001480541540454409 0.012784766186884408 -0.001283255021015117 -0.008097764530537158 0.005406085350786636 0.026485736644035127 0.9933582658731188 -0.06301707007586387
 -0.0012847500222660957 -0.00809769107535903 0.0015050852561074995 0.012781556736593067 0.9933582658731188 -0.06301707007586387 0.0054009822187177 0.026486161248267595
0.1059090909091 0.0057596317865963 0.028168486141456617 0.9928901615149597 -0.06681641089518515 0.0016306908507109908 0.013536763799537513 -0.001413768804109049 -0.008576934699671098
 0.9928901615149597 -0.06681641089518515 0.005755753138556476 0.02816882784339623 -0.0014120978295647183 -0.008577026464785233 0.0016582111935547798 0.013533086614976058
 0.0016306908507109908 0.013536763799537513 -0.0014120978295647183 -0.008577026464785233 0.005760494459219089 0.028167021447370693 0.992890100742843 -0.06681782630496727
 -0.001413768804109049 -0.008576934699671098 0.0016582111935547798 0.013533086614976058 0.992890100742843 -0.06681782630496727 0.005754776147728208 0.02816749527337781
0.1062942892872 0.005783420405611033 0.028279310105413933 0.9928587405452269 -0.06706632059790915 0.0016408196011133494 0.013586122193891747 -0.001422473368348101 -0.008608393060358347
 0.9928587405452269 -0.06706632059790915 0.005779513531759086 0.0282796540821779 -0.0014207905139115775 -0.008608486102850088 0.001668541373615062 0.01358241279048469
 0.0016408196011133494 0.013586122193891747 -0.0014207905139115775 -0.008608486102850088 0.005784289383906238 0.02827783988572107 0.9928586793418386 -0.06706774118022622
 -0.001422473368348101 -0.008608393060358347 0.001668541373615062 0.01358241279048469 0.9928586793418386 -0.06706774118022622 0.005778529459743358 0.0282783170645786
0.11254689453939999 0.006178748797116828 0.030085736813099406 0.9923367929502316 -0.07112960977210322 0.0018099312344045618 0.014387087938424498 -0.0015678312052859876 -0.009118912860890234
 0.9923367929502316 -0.07112960977210322 0.006174369389738694 0.03008611891306585 -0.0015659499067990537 -0.009119027978494995 0.0018410263336873052 0.014382828589767648
 0.0018099312344045618 0.014387087938424498 -0.0015659499067990537 -0.009119027978494995 0.0061797233462367925 0.030084176590444805 0.9923367245221137 -0.07113111434670698
 -0.0015678312052859876 -0.009118912860890234 0.0018410263336873052 0.014382828589767648 0.9923367245221137 -0.07113111434670698 0.006173266822974105 0.03008471034374509
0.11879949979160001 0.006591571278457663 0.031906143509358 0.9917922121717275 -0.07520541755262275 0.001987942582100994 0.015187536065382198 -0.001720891514530779 -0.009629123307861644
 0.9917922121717275 -0.07520541755262275 0.006586692237993178 0.031906566024422364 -0.0017188012661042836 -0.009629263108571123 0.0020226064825921227 0.015182674191245001
 0.001987942582100994 0.015187536065382198 -0.0017188012661042836 -0.009629263108571123 0.0065926574603159495 0.0319044926315946 0.9917921360933091 -0.07520700622083176
 -0.001720891514530779 -0.009629123307861644 0.0020226064825921227 0.015182674191245001 0.9917921360933091 -0.07520700622083176 0.006585464494329626 0.0319050871251501
0.1250521050438 0.0070221562080925535 0.03374027479945853 0.9912247343198306 -0.07929355177741693 0.002174917706441566 0.015987336553915144 -0.0018817201363606928 -0.010138895035012257
 0.9912247343198306 -0.07929355177741693 0.007016750383291414 0.0337407400734274 -0.0018794105176368652 -0.010139062246845017 0.0022133460567203235 0.01598181696061056
 0.002174917706441566 0.015987336553915144 -0.0018794105176368652 -0.010139062246845017 0.007023360086977265 0.033738532569830254 0.9912246501609999 -0.07929522464915649
 -0.0018817201363606928 -0.010138895035012257 0.0022133460567203235 0.01598181696061056 0.9912246501609999 -0.07929522464915649 0.007015390792668136 0.03373919213832831
0.131304710296 0.007470769986278355 0.03558787339098045 0.9906340970675549 -0.08339381205239615 0.0023709185114054927 0.016786356778913138 -0.002050380696775794 -0.010648096466406942
 0.9906340970675549 -0.08339381205239615 0.007464810167408216 0.03558838382132144 -0.0020478413734013362 -0.010648293937238837 0.0024133071025233465 0.01678012163428904
 0.0023709185114054927 0.016786356778913138 -0.0020478413734013362 -0.010648293937238837 0.007472097627486546 0.03558603906963708 0.9906340043924918 -0.08339556924385376
 -0.002050380696775794 -0.010648096466406942 0.0024133071025233465 0.01678012163428904 0.9906340043924918 -0.08339556924385376 0.007463312071837823 0.035586768219822366
0.1375573155481 0.007833232112350942 0.03720729662888851 0.9901245236262084 -0.087264497872785 0.002550568331882517 0.01755998162834084 -0.0022014551964430556 -0.011132163122613456
 0.9901245236262084 -0.087264497872785 0.007826688147967146 0.03720784028908519 -0.002198670900827143 -0.011132390994637791 0.002597017854394722 0.017553041199178627
 0.002550568331882517 0.01755998162834084 -0.002198670900827143 -0.011132390994637791 0.007834689016122678 0.037205369307320386 0.9901244220474907 -0.08726633942759934
 -0.0022014551964430556 -0.011132163122613456 0.002597017854394722 0.017553041199178627 0.9901244220474907 -0.08726633942759934 0.007825045367553617 0.03720615842828852
0.1438099208003 0.008208395480166292 0.038818458872884605 0.9895971339782358 -0.09112565025164106 0.002737467768170547 0.018330681577068016 -0.002358581410611817 -0.011613526740525704
 0.9895971339782358 -0.09112565025164106 0.00820123962173702 0.03881903718153925 -0.002355541043412727 -0.011613787805087454 0.0027881570178373742 0.018322983051882763
 0.002737467768170547 0.018330681577068016 -0.002355541043412727 -0.011613787805087454 0.008209987612145019 0.038816437776136525 0.9895970230627806 -0.09112757627889453
 -0.002358581410611817 -0.011613526740525704 0.0027881570178373742 0.018322983051882763 0.9895970230627806 -0.09112757627889453 0.008199445601120852 0.03881729048016713
0.1500625260525 0.00859613204065103 0.04042123362663551 0.9890520601276969 -0.09497718162955389 0.002931554328009621 0.019098384623009515 -0.00252169807298549 -0.012092118081741666
 0.9890520601276969 -0.09497718162955389 0.00858833646402437 0.040421848097248296 -0.0025183905578139995 -0.012092415242179194 0.0029866611346113583 0.019089873255438965
 0.002931554328009621 0.019098384623009515 -0.0025183905578139995 -0.012092415242179194 0.008597865361213894 0.04041911794579779 0.989051939437732 -0.09497919224408832
 -0.00252169807298549 -0.012092118081741666 0.0029866611346113583 0.019089873255438965 0.989051939437732 -0.09497919224408832 0.008586384664897997 0.04042003802969613
0.15631513130469998 0.008996312881624294 0.04201549824796053 0.9884894347017635 -0.09881900459268406 0.003132764803394211 0.01986301994360316 -0.0026907431834892297 -0.012567869340859192
