! Created with skrf 1.8.0 (http://scikit-rf.org).
# GHz S RI R 50.0 
!freq ReS11 ImS11 ReS12 ImS12 ReS13 ImS13
! ReS14 ImS14
! ReS21 ImS21 ReS22 ImS22 ReS23 ImS23
! ReS24 ImS24
! ReS31 ImS31 ReS32 ImS32 ReS33 ImS33
! ReS34 ImS34
! ReS41 ImS41 ReS42 ImS42 ReS43 ImS43
! ReS44 ImS44
!
0.0 0.00187797934527 0.0 0.9981220206547 0.0 7.333627011409e-05 0.0 -7.333626967029e-05 8.981102791312777e-21
 0.9981220206547 0.0 0.00187797934523 0.0 -7.333626966987e-05 8.981102791261343e-21 7.333627011426e-05 0.0
 7.333627011409e-05 0.0 -7.333626966987e-05 8.981102791261343e-21 0.001877979339572 0.0 0.998122020649 0.0
 -7.333626967029e-05 8.981102791312777e-21 7.333627011426e-05 0.0 0.998122020649 0.0 0.001877979339559 0.0
0.005 0.0020217813596645692 0.0015288300341839138 0.9979398459053634 -0.003933035498179893 0.00010454121186261114 0.000846489987112735 -0.00010109801315345307 -0.0005243954408712199
 0.9979398459053634 -0.003933035498179893 0.00202181504995686 0.001528810292951428 -0.00010109623890918471 -0.0005243940255900626 0.00010433755769559171 0.0008465676367857843
 0.00010454121186261114 0.000846489987112735 -0.00010109623890918471 -0.0005243940255900626 0.0020217829154284632 0.0015288963585879554 0.997939846295078 -0.0039329684325981
 -0.00010109801315345307 -0.0005243954408712199 0.00010433755769559171 0.0008465676367857843 0.997939846295078 -0.0039329684325981 0.0020218142644379254 0.00152887809114835
0.006252605252188 0.002059845424616125 0.0019170320982515574 0.997891256476946 -0.004917201826255049 0.00011368788392231163 0.0010584788312214906 -0.00010911231110330252 -0.0006561586650440607
 0.997891256476946 -0.004917201826255049 0.0020598980895351745 0.0019170070438528951 -0.00010910955068834441 -0.0006561569196280971 0.00011336969825299341 0.001058579757221071
 0.00011368788392231163 0.0010584788312214906 -0.00010910955068834441 -0.0006561569196280971 0.002059847779298657 0.001917114978891412 0.9978912570086652 -0.004917118008141777
 -0.00010911231110330252 -0.0006561586650440607 0.00011336969825299341 0.001058579757221071 0.9978912570086652 -0.004917118008141777 0.0020598967833941073 0.0019170917803773943
0.01250521050438 0.0022622551787682063 0.0038739260302566936 0.9976308679390392 -0.009834808911422476 0.00016736230555147987 0.002116998501640191 -0.0001555289491749789 -0.0013152874203535574
 0.9976308679390392 -0.009834808911422476 0.0022624654870231466 0.0038738721008669576 -0.00015551807640679384 -0.0013152841926644117 0.00016609355300754535 0.002117242602124081
 0.00016736230555147987 0.002116998501640191 -0.00015551807640679384 -0.0013152841926644117 0.0022622640265271884 0.003874091418235517 0.9976308695039163 -0.009834641497352374
 -0.0001555289491749789 -0.0013152874203535574 0.00016609355300754535 0.002117242602124081 0.9976308695039163 -0.009834641497352374 0.002262459701571361 0.003874041363633146
0.01875781575657 0.0024857234153443713 0.005858220585643895 0.9973404804909191 -0.014764706021368184 0.00023449214661621506 0.003176244722964098 -0.00021274504712331772 -0.001976325250435622
 0.9973404804909191 -0.014764706021368184 0.002486196025665716 0.005858133648010061 -0.0002127208091645757 -0.001976320861914515 0.0002316422823624674 0.0031766838103529727
 0.00023449214661621506 0.003176244722964098 -0.0002127208091645757 -0.001976320861914515 0.0024857428824320207 0.005858468151723007 0.9973404835889823 -0.014764455079538583
 -0.00021274504712331772 -0.001976325250435622 0.0002316422823624674 0.0031766838103529727 0.9973404835889823 -0.014764455079538583 0.0024861825817776447 0.0058583873509067365
0.02501042100875 0.002730744941977658 0.0078670278930183 0.9970197030836839 -0.019709185562698187 0.0003152121944314445 0.004236203005893198 -0.0002809122431268265 -0.0026389007822077595
 0.9970197030836839 -0.019709185562698187 0.0027315843373483563 0.007866903537820488 -0.0002808694534548267 -0.002638895617879768 0.00031015066128606923 0.00423689819404328
 0.0003152121944314445 0.004236203005893198 -0.0002808694534548267 -0.002638895617879768 0.0027307791494102073 0.007867357263044545 0.9970197082182815 -0.019708851097471326
 -0.0002809122431268265 -0.0026389007822077595 0.00031015066128606923 0.00423689819404328 0.9970197082182815 -0.019708851097471326 0.002731560048581354 0.007867241627271853
0.03126302626094 0.0029977936518896884 0.009898812340549012 0.9966681277450103 -0.02466916868830345 0.0004096569134983849 0.005296754953531392 -0.0003601764278681256 -0.003302735926116498
 0.9966681277450103 -0.02466916868830345 0.002999104205118078 0.009898645888758835 -0.00036010995529795034 -0.0033027304351407887 0.00040175260220520737 0.005297776715037598
 0.0004096569134983849 0.005296754953531392 -0.00036010995529795034 -0.0033027304351407887 0.0029978467131503727 0.009899223072517511 0.9966681354216249 -0.02466875066263984
 -0.0003601764278681256 -0.003302735926116498 0.00040175260220520737 0.005297776715037598 0.9966681354216249 -0.02466875066263984 0.0029990658737158483 0.009899068321220462
0.037515631513130004 0.0032873319165241245 0.011952535253561524 0.9962853394539254 -0.02964506058233244 0.0005179588520838367 0.006357740246734967 -0.00045067882236504296 -0.003967583944392967
 0.9962853394539254 -0.02964506058233244 0.003289217937474517 0.011952321758418937 -0.00045058358555310373 -0.003967578640167942 0.0005065798858096444 0.006359168503518028
 0.0005179588520838367 0.006357740246734967 -0.00045058358555310373 -0.003967578640167942 0.0032874079398645586 0.011953026820926494 0.9962853501841902 -0.02964455893385241
 -0.00045067882236504296 -0.003967583944392967 0.0005065798858096444 0.006359168503518028 0.9962853501841902 -0.02964455893385241 0.0032891623558060235 0.011952828484568013
0.043768236765320004 0.003599814197927398 0.014027394600503545 0.995870920241128 -0.03463701070402758 0.0006402478687991704 0.007418975515894462 -0.0005525563282717229 -0.004633210645143515
 0.995870920241128 -0.03463701070402758 0.0036023799724711415 0.014027128847338166 -0.0005524272924350981 -0.004633206105263508 0.0006247615267848345 0.007420899739781806
 0.0006402478687991704 0.007418975515894462 -0.0005524272924350981 -0.004633206105263508 0.0035999172833843535 0.014027966396040554 0.9958709345420095 -0.034636425340310126
 -0.0005525563282717229 -0.004633210645143515 0.0006247615267848345 0.007420899739781806 0.9958709345420095 -0.034636425340310126 0.0036023039204821587 0.014027719817141505
0.050020842017509996 0.003935688677933532 0.016122717455801187 0.9954244513134837 -0.03964502027596109 0.0007766506496829225 0.008480262156597218 -0.0006659416180656878 -0.005299386642491725
 0.9954244513134837 -0.03964502027596109 0.00393903850354867 0.016122393960592177 -0.0006657737928929568 -0.005299383508688853 0.0007564233655943882 0.008482781473561535
 0.0007766506496829225 0.008480262156597218 -0.0006657737928929568 -0.005299383508688853 0.003935822917303645 0.01612336878138665 0.9954244697099919 -0.03964435108409765
 -0.0006659416180656878 -0.005299386642491725 0.0007564233655943882 0.008482781473561535 0.9954244697099919 -0.03964435108409765 0.003938938749556652 0.016123069114041152
0.055454545454549996 0.0042469150644208805 0.017959770684570657 0.9950101030891341 -0.04401010318432486 0.0009067466443747057 0.009402431290350741 -0.0007739224454872871 -0.005878582526805409
 0.9950101030891341 -0.04401010318432486 0.004251030990261619 0.017959392344651565 -0.000773716891980904 -0.005878581185841803 0.0008818841798893885 0.009405555840772737
 0.0009067466443747057 0.009402431290350741 -0.000773716891980904 -0.005878581185841803 0.00424707969119476 0.01796049049810497 0.995010125476227 -0.044009361023690206
 -0.0007739224454872871 -0.005878582526805409 0.0008818841798893885 0.009405555840772737 0.995010125476227 -0.044009361023690206 0.004250908002701777 0.017960140612131335
0.056273447269699996 0.004295398063022137 0.018237907202676117 0.994945514360466 -0.04466899503949587 0.0009272903501693652 0.00954139019401502 -0.0007909631132286035 -0.005965883578692374
 0.994945514360466 -0.04466899503949587 0.0042996362817548026 0.018237520209059357 -0.0007907515515378368 -0.0059658825567533704 0.0009016877552679094 0.009544613489460582
 0.0009272903501693652 0.00954139019401502 -0.0007907515515378368 -0.0059658825567533704 0.004295567536225613 0.018238637282196577 0.9949455373843468 -0.0446682418725386
 -0.0007909631132286035 -0.005965883578692374 0.0009016877552679094 0.009544613489460582 0.9949455373843468 -0.0446682418725386 0.004299509579679259 0.0182382794902586
0.06252605252188 0.0046793799682946806 0.02037241455514781 0.9944336924469367 -0.049708774200959274 0.001092286303771458 0.010602140422118897 -0.0009277449006902999 -0.006632472082781059
 0.9944336924469367 -0.049708774200959274 0.004684610999557363 0.02037195803028935 -0.0009274846975794888 -0.006632473942461551 0.0010606733011382478 0.010606186445920214
 0.001092286303771458 0.010602140422118897 -0.0009274846975794888 -0.006632473942461551 0.00467958874350952 0.020373222521134084 0.9944337206396927 -0.04970793689065048
 -0.0009277449006902999 -0.006632472082781059 0.0010606733011382478 0.010606186445920214 0.9944337206396927 -0.04970793689065048 0.004684454089632337 0.020372801375128338
0.06877865777407 0.0050880670803978 0.022525720267708528 0.9938885706898123 -0.05476414770184289 0.001271753764486096 0.011662285707711747 -0.0010764066188140877 -0.007298920576364606
 0.9938885706898123 -0.05476414770184289 0.005094395452105036 0.022525187896788864 -0.0010760929110539912 -0.007298926151288787 0.001233494624690458 0.011667283178262076
 0.001271753764486096 0.011662285707711747 -0.0010760929110539912 -0.007298926151288787 0.005088319211983281 0.02252660516249153 0.9938886046033943 -0.05476322605687941
 -0.0010764066188140877 -0.007298920576364606 0.001233494624690458 0.011667283178262076 0.9938886046033943 -0.05476322605687941 0.005094205060274053 0.02252611523531199
0.07503126302626001 0.0055218871837306085 0.02469732420014702 0.9933097368048255 -0.05983486714689816 0.0014658036726898015 0.012721591841974321 -0.0012370633210657801 -0.007964994544290819
 0.9933097368048255 -0.05983486714689816 0.005529417563643722 0.024696709379725713 -0.0012366912866953277 -0.007965004731861635 0.001420262146027438 0.012727679548736137
 0.0014658036726898015 0.012721591841974321 -0.0012366912866953277 -0.007965004731861635 0.005522186709628662 0.024698284980191595 0.9933097770023518 -0.05983386094818451
 -0.0012370633210657801 -0.007964994544290819 0.001420262146027438 0.012727679548736137 0.9933097770023518 -0.05983386094818451 0.0055291904004806875 0.024697720641390423
0.08128386827845 0.00598126310198795 0.026886738068123785 0.9926967815731443 -0.06492065306011657 0.001674542433866844 0.013779818129842056 -0.0014098253275924588 -0.008630456080342632
 0.9926967815731443 -0.06492065306011657 0.005990100328722078 0.026886033898029675 -0.0014093901857967477 -0.008630471841630816 0.001621081875917246 0.013787145033964446
 0.001674542433866844 0.013779818129842056 -0.0014093901857967477 -0.008630471841630816 0.005981614042394135 0.02688777359621747 0.9926968286299552 -0.06491956206809504
 -0.0014098253275924588 -0.008630456080342632 0.001621081875917246 0.013787145033964446 0.9926968286299552 -0.06491956206809504 0.005989833088983686 0.026887129005080918
0.08753647353064001 0.006466612583044782 0.029093480426050766 0.992049299256656 -0.07002119992288389 0.0018980717066745057 0.014836717829145274 -0.0015947980684780157 -0.009295063596192556
 0.992049299256656 -0.07002119992288389 0.006476861697143262 0.02909267970006443 -0.0015942950794893018 -0.00929508595583678 0.001836055214567777 0.014845443161950241
 0.0018980717066745057 0.014836717829145274 -0.0015942950794893018 -0.00929508595583678 0.006467018938268024 0.029094589475895438 0.9920493537616416 -0.07002002387272804
 -0.0015947980684780157 -0.009295063596192556 0.001836055214567777 0.014845443161950241 0.9920493537616416 -0.07002002387272804 0.006476551059342691 0.029093858573100005
0.09378907878283 0.006978348145055116 0.03131707311819393 0.9913668879781533 -0.07513617975905675 0.002136488198406416 0.01589203848658345 -0.0017920819204225078 -0.009958571647025375
 0.9913668879781533 -0.07513617975905675 0.006990114419929655 0.031316168313282364 -0.0017915063855526167 -0.009958601693122762 0.0020652787562699167 0.015902331845512884
 0.002136488198406416 0.01589203848658345 -0.0017915063855526167 -0.009958601693122762 0.006978813893813579 0.0313182543704563 0.9913669505351766 -0.0751349183642726
 -0.0017920819204225078 -0.009958571647025375 0.0020652787562699167 0.015902331845512884 0.9913669505351766 -0.0751349183642726 0.006989757046052231 0.03131743086834108
0.100041684035 0.007516876895100628 0.03355703868629393 0.990649150078644 -0.08026524477878816 0.0023898834646497815 0.01694552221701903 -0.002001772040338692 -0.01062073082737199
 0.990649150078644 -0.08026524477878816 0.007530265867895728 0.03355602195050374 -0.0020011193021589636 -0.010620769711334634 0.0023088440970707854 0.01695756365900269
 0.0023898834646497815 0.01694552221701903 -0.0020011193021589636 -0.010620769711334634 0.007517405991794922 0.0335582907311592 0.990649221306677 -0.08026389772856805
 -0.002001772040338692 -0.01062073082737199 0.0023088440970707854 0.01695756365900269 0.990649221306677 -0.08026389772856805 0.007529858401933205 0.03355736810261738
0.1059090909091 0.008046954842059861 0.03567347335397637 0.989943149779028 -0.08509081316160083 0.0026413679417148597 0.017932200010647506 -0.0022099073786454636 -0.011240644522007764
 0.989943149779028 -0.08509081316160083 0.008061962791720712 0.03567234413669913 -0.002209177994290394 -0.011240692802907815 0.002550525086732553 0.017946054999691884
 0.0026413679417148597 0.017932200010647506 -0.002209177994290394 -0.011240692802907815 0.008047546957755504 0.03567479046593123 0.9899432297225832 -0.08508938542988793
 -0.0022099073786454636 -0.011240644522007764 0.002550525086732553 0.017946054999691884 0.9899432297225832 -0.08508938542988793 0.008061505252160898 0.03567376865701296
0.1062942892872 0.008082600325713821 0.03581289844028804 0.989895692455143 -0.08540802937540852 0.002658343713727695 0.0179969059357075 -0.002223958195808665 -0.011281287727851712
 0.989895692455143 -0.08540802937540852 0.008097717828268597 0.035811761579104665 -0.002223223638209268 -0.011281336664339054 0.0025668376464475775 0.018010886067611028
 0.002658343713727695 0.0179969059357075 -0.002223223638209268 -0.011281336664339054 0.008083196699054116 0.035814219776607016 0.9898957729908913 -0.08540659633543647
 -0.002223958195808665 -0.011281287727851712 0.0025668376464475775 0.018010886067611028 0.9898957729908913 -0.08540659633543647 0.008097256897186022 0.03581319124239463
0.11254689453939999 0.008675914098365597 0.03808417100816804 0.989106126889312 -0.09056415165926263 0.0029419496141038955 0.0190459215715252 -0.002458724594468393 -0.011939984925011533
 0.989106126889312 -0.09056415165926263 0.008692866288461634 0.03808290546949697 -0.002457903643023715 -0.011940045191740974 0.0028393404408304933 0.01906204163755778
 0.0029419496141038955 0.0190459215715252 -0.002457903643023715 -0.011940045191740974 0.008676581648522154 0.038085560040416515 0.9891062173869138 -0.09056263227473794
 -0.002458724594468393 -0.011939984925011533 0.0028393404408304933 0.01906204163755778 0.9891062173869138 -0.09056263227473794 0.008692348499981175 0.038084418555100204
0.11879949979160001 0.00929720781321007 0.040370371220983796 0.9882800703635891 -0.09573321467318176 0.0032407761050813077 0.020092296257705554 -0.002706149712531746 -0.012596561007665938
 0.9882800703635891 -0.09573321467318176 0.009316101205245085 0.04036896807856267 -0.00270523783470797 -0.012596633945322332 0.0031264279604547784 0.020110768223617737
 0.0032407761050813077 0.020092296257705554 -0.00270523783470797 -0.012596633945322332 0.009297950409862449 0.04037182626153458 0.9882801714964411 -0.09573160856678228
 -0.002706149712531746 -0.012596561007665938 0.0031264279604547784 0.020110768223617737 0.9882801714964411 -0.09573160856678228 0.009315523148548315 0.040370564497752275
0.1250521050438 0.009946864771079676 0.04267100925155543 0.9874171453717692 -0.10091480737112025 0.0035548922104235 0.0211357525149098 -0.002966306123341936 -0.013250750625307409
 0.9874171453717692 -0.10091480737112025 0.009967806267108578 0.04266945918686246 -0.0029652988288413687 -0.01325083763736844 0.003428169948274486 0.02115679914882565
 0.0035548922104235 0.0211357525149098 -0.0029652988288413687 -0.01325083763736844 0.009947686251420321 0.04267252852177581 0.9874172578338022 -0.10091311414203352
 -0.002966306123341936 -0.013250750625307409 0.003428169948274486 0.02115679914882565 0.9874172578338022 -0.10091311414203352 0.00996716451208972 0.04267113885302832
0.131304710296 0.010625261727999309 0.044985589952787806 0.9865169802232922 -0.10610850541443828 0.003884360855000335 0.022176008426387537 -0.003239260326462921 -0.013902284558771455
 0.9865169802232922 -0.10610850541443828 0.010648358648720392 0.044983883235308254 -0.003238153167622084 -0.013902387111383302 0.0037446302315363588 0.022199863376000536
 0.003884360855000335 0.022176008426387537 -0.003238153167622084 -0.013902387111383302 0.010626165894196562 0.0449871715794932 0.9865171047297565 -0.10610672464231699
 -0.003239260326462921 -0.013902284558771455 0.0037446302315363588 0.022199863376000536 0.9865171047297565 -0.10610672464231699 0.010647649745307028 0.0449856460612614
0.1375573155481 0.011189199583520534 0.04701133770194664 0.9857228577820117 -0.11101140112761433 0.004192099103261212 0.023183942278634004 -0.0034881003723551537 -0.014521961415956073
 0.9857228577820117 -0.11101140112761433 0.011214565700092346 0.04700949869063624 -0.0034868865426836617 -0.014522079831000779 0.004039042367136181 0.023210597544755445
 0.004192099103261212 0.023183942278634004 -0.0034868865426836617 -0.014522079831000779 0.011190189435239617 0.047012980299233016 0.9857229949039469 -0.11100953256973234
 -0.0034881003723551537 -0.014521961415956073 0.004039042367136181 0.023210597544755445 0.9857229949039469 -0.11100953256973234 0.011213787255167708 0.04701134437553423
0.1438099208003 0.011773266413261365 0.04902399215260391 0.9849001328009979 -0.11589942924381837 0.004512198181827952 0.024186211080283314 -0.003746784364325554 -0.01513653429100341
 0.9849001328009979 -0.11589942924381837 0.011801010497936672 0.049022012822549345 -0.0037454590532765056 -0.015136670037441326 0.004345239332848929 0.02421588291744841
 0.004512198181827952 0.024186211080283314 -0.0037454590532765056 -0.015136670037441326 0.011774345559091372 0.04902569382281815 0.984900283254708 -0.11589747249113636
 -0.003746784364325554 -0.01513653429100341 0.004345239332848929 0.02421588291744841 0.984900283254708 -0.11589747249113636 0.011800159223743726 0.0490239412234133
0.1500625260525 0.012377216030309777 0.05102331443806329 0.9840490568005579 -0.12077239590961553 0.0048445217513686445 0.02518266113653607 -0.00401518157471063 -0.015745863065141672
 0.9840490568005579 -0.12077239590961553 0.012407447262019424 0.051021186218377076 -0.004013739984580017 -0.015746017671858622 0.004663089262096732 0.025215573690963663
 0.0048445217513686445 0.02518266113653607 -0.004013739984580017 -0.015746017671858622 0.012378388035930289 0.051025073211492376 0.9840492213202848 -0.12077035053938448
 -0.00401518157471063 -0.015745863065141672 0.004663089262096732 0.025215573690963663 0.9840492213202848 -0.12077035053938448 0.012406519863831187 0.051023197187017276
0.15631513130469998 0.013000800012233292 0.05300907290834032 0.9831698831180633 -0.12563010968836208 0.0051889315693631165 0.026173141982225194 -0.004293159411669127 -0.016349811136666708
 0.9831698831180633 -0.12563010968836208 0.013033627987030392 0.05300678666227928 -0.00429159675773093 -0.01634998619230726 0.004992458467051092 0.026209527192009013
