! Created with skrf 1.8.0 (http://scikit-rf.org).
# GHz S RI R 50.0 
!freq ReS11 ImS11 ReS12 ImS12 ReS13 ImS13
! ReS14 ImS14
! ReS21 ImS21 ReS22 ImS22 ReS23 ImS23
! ReS24 ImS24
! ReS31 ImS31 ReS32 ImS32 ReS33 ImS33
! ReS34 ImS34
! ReS41 ImS41 ReS42 ImS42 ReS43 ImS43
! ReS44 ImS44
!
0.0 0.001283983607324 0.0 0.9987160163927 0.0 4.903975452874e-05 0.0 -4.90397549174e-05 6.005637889056458e-21
 0.9987160163927 0.0 0.001283983607328 0.0 -4.903975491748e-05 6.005637889066256e-21 4.9039754529e-05 0.0
 4.903975452874e-05 0.0 -4.903975491748e-05 6.005637889066256e-21 0.001283983591514 0.0 0.9987160163769 0.0
 -4.90397549174e-05 6.005637889056458e-21 4.9039754529e-05 0.0 0.9987160163769 0.0 0.001283983591514 0.0
0.005 0.001380815821827613 0.0010518205446189215 0.9985936209352233 -0.002690305959284414 6.81779227859206e-05 0.000534830972393615 -6.632719026965254e-05 -0.00033677195886128955
 0.9985936209352233 -0.002690305959284414 0.0013808146118731788 0.0010518212542220996 -6.633001032211806e-05 -0.00033677413470497994 6.817826183670753e-05 0.0005348308749640331
 6.81779227859206e-05 0.000534830972393615 -6.633001032211806e-05 -0.00033677413470497994 0.001380813984625297 0.0010517543864811683 0.9985936205930597 -0.0026903730173390775
 -6.632719026965254e-05 -0.00033677195886128955 6.817826183670753e-05 0.0005348308749640331 0.9985936205930597 -0.0026903730173390775 0.001380815765783665 0.0010517532962147757
0.006252605252188 0.001406026109338051 0.0013189350766677759 0.9985615860750613 -0.003363569077281868 7.353521103895722e-05 0.000668812491245104 -7.112076209594399e-05 -0.00042140982739007456
 0.9985615860750613 -0.003363569077281868 0.0014060242176817234 0.0013189359556343614 -7.112515031546588e-05 -0.0004214125113102933 7.353574110499747e-05 0.0006688123605714517
 7.353521103895722e-05 0.000668812491245104 -7.112515031546588e-05 -0.0004214125113102933 0.001406023326272321 0.0013188523856766535 0.9985615856293197 -0.003363652896311097
 -7.112076209594399e-05 -0.00042140982739007456 7.353574110499747e-05 0.0006688123605714517 0.9985615856293197 -0.003363652896311097 0.0014060261109797702 0.0013188510087494693
0.01250521050438 0.001537656358208981 0.0026657405089205513 0.998393370443613 -0.006728107156172043 0.00010367537009752943 0.0013380665840230072 -9.785018650727197e-05 -0.0008449742956916112
 0.998393370443613 -0.006728107156172043 0.0015376488024257944 0.0026657421942135285 -9.786748055752553e-05 -0.0008449792750920281 0.00010367749405021792 0.0013380662304896328
 0.00010367537009752943 0.0013380665840230072 -9.786748055752553e-05 -0.0008449792750920281 0.0015376457865797688 0.0026655754145741696 0.9983933692091445 -0.0067282745494227246
 -9.785018650727197e-05 -0.0008449742956916112 0.00010367749405021792 0.0013380662304896328 0.9983933692091445 -0.0067282745494227246 0.001537656912434462 0.0026655725064373666
0.01875781575657 0.0016791227770856878 0.0040320002747350646 0.9982111882662764 -0.01010184107995671 0.00013952425921353746 0.002008228124554878 -0.00012930189950041565 -0.001270114717208993
 0.9982111882662764 -0.01010184107995671 0.0016791057938105923 0.004032002717543606 -0.00012934046753698401 -0.0012701215405438472 0.00013952905433956667 0.0020082274445333143
 0.00013952425921353746 0.002008228124554878 -0.00012934046753698401 -0.0012701215405438472 0.00167909943512398 0.004031752959067707 0.9982111859134194 -0.010102091944476971
 -0.00012930189950041565 -0.001270114717208993 0.00013952905433956667 0.0020082274445333143 0.9982111859134194 -0.010102091944476971 0.0016791244479039315 0.004031748321240087
0.02501042100875 0.0018306684989642646 0.005415844446706826 0.9980148523094546 -0.013486445389088855 0.00018114670799088887 0.002679348432919675 -0.00016554798735998071 -0.0016966635764171776
 0.9980148523094546 -0.013486445389088855 0.0018306383288827013 0.005415847619680338 -0.00016561609926315913 -0.0016966717204378817 0.0001811552665371019 0.002679347310285402
 0.00018114670799088887 0.002679348432919675 -0.00016561609926315913 -0.0016966717204378817 0.001830627406520258 0.005415515085358176 0.9980148485056382 -0.013486779662389424
 -0.00016554798735998071 -0.0016966635764171776 0.0001811552665371019 0.002679347310285402 0.9980148485056382 -0.013486779662389424 0.0018306718481888168 0.005415508477377611
0.03126302626094 0.001992526364519881 0.006816330722540067 0.9978041644721104 -0.016882660758097717 0.000228608163062733 0.003351418580475674 -0.00020665887661229797 -0.002124510247279175
 0.9978041644721104 -0.016882660758097717 0.001992479250013679 0.006816334619733736 -0.00020676472116672366 -0.002124519115904569 0.0002286215931291861 0.0033514168860836117
 0.000228608163062733 0.003351418580475674 -0.00020676472116672366 -0.002124519115904569 0.0019924625426772156 0.0068159195154691155 0.9978041588836203 -0.016883078387646577
 -0.00020665887661229797 -0.002124510247279175 0.0002286215931291861 0.0033514168860836117 0.9978041588836203 -0.016883078387646577 0.001992531953814357 0.006815910654650798
0.037515631513130004 0.002164924366043028 0.008232859853892133 0.9975789213416378 -0.020290878516703647 0.00028197409970190677 0.0040244061839034406 -0.0002527038506237113 -0.002553564189525728
 0.9975789213416378 -0.020290878516703647 0.0021648565504143475 0.008232864490788758 -0.00025285554446482014 -0.002553573113445362 0.0002819935257688679 0.004024403775135826
 0.00028197409970190677 0.0040244061839034406 -0.00025285554446482014 -0.002553573113445362 0.002164832840169005 0.00823236702044362 0.9975789136378735 -0.02029137946511297
 -0.0002527038506237113 -0.002553564189525728 0.0002819935257688679 0.004024403775135826 0.9975789136378735 -0.02029137946511297 0.002164932760798877 0.008232355581587223
0.043768236765320004 0.002348087762552084 0.009664997750771573 0.9973389164216748 -0.02371131848913503 0.0003413097508744977 0.004698266596803863 -0.00030375124530513 -0.0029837437461785947
 0.9973389164216748 -0.02371131848913503 0.0023479954892529522 0.009665003164604589 -0.0003039568382534899 -0.002983751982704512 0.0003413363144436083 0.004698263317093778
 0.0003413097508744977 0.004698266596803863 -0.0003039568382534899 -0.002983751982704512 0.002347963557301371 0.009664423543501005 0.9973389062702918 -0.02371190272091944
 -0.00030375124530513 -0.0029837437461785947 0.0003413363144436083 0.004698263317093778 0.9973389062702918 -0.02371190272091944 0.002348099527427578 0.00966440915829398
0.050020842017509996 0.002542240063299989 0.011112401969347496 0.9970839412282897 -0.0271441024482511 0.00040667994972777306 0.005372947522872934 -0.0003598685295009754 -0.0034149715197927927
 0.9970839412282897 -0.0271441024482511 0.002542119575607054 0.01111240821931276 -0.00036013600805445223 -0.003414978252766798 0.00040671480978386705 0.005372943201254484
 0.00040667994972777306 0.005372947522872934 -0.00036013600805445223 -0.003414978252766798 0.002542078205014854 0.011111746667889442 0.997083928298251 -0.027144769936433805
 -0.0003598685295009754 -0.0034149715197927927 0.00040671480978386705 0.005372943201254484 0.997083928298251 -0.027144769936433805 0.0025422557649907177 0.011111728924395665
0.055454545454549996 0.00272006129039205 0.012382414403346307 0.9968500394258462 -0.030137368121058432 0.00046843939618748166 0.0059598873622995225 -0.0004128052900984889 -0.003790514206650414
 0.9968500394258462 -0.030137368121058432 0.0027199132321396053 0.012382421445351947 -0.0004131329877813451 -0.0037905189130806494 0.0004684824214029026 0.005959881984848496
 0.00046843939618748166 0.0059598873622995225 -0.0004131329877813451 -0.0037905189130806494 0.002719862671311908 0.012381688882532074 0.9968500238115786 -0.030138107940888562
 -0.0004128052900984889 -0.003790514206650414 0.0004684824214029026 0.005959881984848496 0.9968500238115786 -0.030138107940888562 0.0027200808736287355 0.012381667851700083
0.056273447269699996 0.0027476035493797834 0.012574785615410328 0.9968137859282867 -0.030589290153658865 0.0004781490214906273 0.006048391283393687 -0.0004211223342364687 -0.0038471720953561187
 0.9968137859282867 -0.030589290153658865 0.0027474510899712073 0.012574792783027509 -0.0004214596239910993 -0.0038471764351095143 0.0004781933551009774 0.006048385734028816
 0.0004781490214906273 0.006048391283393687 -0.0004214596239910993 -0.0038471764351095143 0.002747399064674434 0.012574049534403062 0.9968137698880402 -0.030590040872424406
 -0.0004211223342364687 -0.0038471720953561187 0.0004781933551009774 0.006048385734028816 0.9968137698880402 -0.030590040872424406 0.002747623754965218 0.01257402797645476
0.06252605252188 0.0029643995617775636 0.014051897512970578 0.9965282397441968 -0.034046899125379226 0.0005557807016323288 0.006724536052494637 -0.0004875784544984772 -0.0042802707967227365
 0.9965282397441968 -0.034046899125379226 0.002964211372651446 0.014051905702393968 -0.00048799342184794605 -0.004280271780050592 0.0005558357043528695 0.006724529074199157
 0.0005557807016323288 0.006724536052494637 -0.00048799342184794605 -0.004280271780050592 0.0029641474775959895 0.01405108099799903 0.9965282202619808 -0.03404773305461669
 -0.0004875784544984772 -0.0042802707967227365 0.0005558357043528695 0.006724529074199157 0.9965282202619808 -0.03404773305461669 0.0029644248387356653 0.014051055124642591
0.06877865777407 0.0031928486671228156 0.01554351036630338 0.9962270912405307 -0.03751691642513852 0.0006396380655573032 0.007401316600557239 -0.0005593018380254643 -0.004714192936459584
 0.9962270912405307 -0.03751691642513852 0.003192620989391259 0.015543519704607578 -0.0005598022913807516 -0.004714189526609113 0.0006397049519720258 0.007401307976299827
 0.0006396380655573032 0.007401316600557239 -0.0005598022913807516 -0.004714189526609113 0.003192544011083591 0.01554261380353108 0.9962270679848155 -0.03751783354148255
 -0.0005593018380254643 -0.004714192936459584 0.0006397049519720258 0.007401307976299827 0.9962270679848155 -0.03751783354148255 0.003192879583575915 0.01554258306842881
0.07503126302626001 0.0034331707487227137 0.01704941327213211 0.9959101285368686 -0.040999306089013435 0.0007297834676449716 0.008078664758862424 -0.0006363565636065204 -0.0051488633461017775
 0.9959101285368686 -0.040999306089013435 0.00343289982237768 0.017049423909724887 -0.0006369502542297762 -0.005148854432776547 0.0007298634719326889 0.008078654255271132
 0.0007297834676449716 0.008078664758862424 -0.0006369502542297762 -0.005148854432776547 0.003432808549252835 0.017048437076832686 0.9959101011759957 -0.04100030637780848
 -0.0006363565636065204 -0.0051488633461017775 0.0007298634719326889 0.008078654255271132 0.9959101011759957 -0.04100030637780848 0.003433207873479106 0.01704840088762496
0.08128386827845 0.0036855850541137746 0.018569406711436545 0.9955771394796934 -0.04449401408207359 0.0008262784853010382 0.00875650972742063 -0.0007188058132731987 -0.00558420606506564
 0.9955771394796934 -0.04449401408207359 0.0036852671179203075 0.018569418822430035 -0.0007195004359410709 -0.005584190464431927 0.0008263728615746332 0.008756497094265755
 0.0008262784853010382 0.00875650972742063 -0.0007195004359410709 -0.005584190464431927 0.0036851603402992456 0.01856835133896367 0.9955771076818039 -0.0444950975270741
 -0.0007188058132731987 -0.00558420606506564 0.0008263728615746332 0.008756497094265755 0.9955771076818039 -0.0444950975270741 0.003685628955808666 0.018568309056702214
0.08753647353064001 0.003950310209751148 0.020103299108577343 0.9952279117841735 -0.04800097168771354 0.000929183864951814 0.009434778293604597 -0.0008067118412391623 -0.006020144120639396
 0.9952279117841735 -0.04800097168771354 0.003949941501403227 0.020103312891079587 -0.0008075150346551717 -0.006020120575334418 0.0009292938878978862 0.009434763263273417
 0.000929183864951814 0.009434778293604597 -0.0008075150346551717 -0.006020120575334418 0.0039498180113275196 0.020102165049380723 0.9952278752168586 -0.04800213827654572
 -0.0008067118412391623 -0.006020144120639396 0.0009292938878978862 0.009434763263273417 0.9952278752168586 -0.04800213827654572 0.003950361456806073 0.020102115987945587
0.09378907878283 0.004227564216630691 0.02165090435348065 0.9948622331581343 -0.05152009793585359 0.0010385594714007829 0.010113394982202739 -0.0009001359386195676 -0.006456599378538489
 0.9948622331581343 -0.05152009793585359 0.004227140972507576 0.02165092002998115 -0.0009010552856685499 -0.006456566557700553 0.0010386864367593778 0.010113377269149475
 0.0010385594714007829 0.010113394982202739 -0.0009010552856685499 -0.006456566557700553 0.0042269995645279725 0.021649692137559264 0.9948621914886727 -0.05152134765618633
 -0.0009001359386195676 -0.006456599378538489 0.0010386864367593778 0.010113377269149475 0.9948621914886727 -0.05152134765618633 0.0042276233774121 0.021649635562999682
0.100041684035 0.004517564430667807 0.02321203999249345 0.9944798914134939 -0.055051301364561524 0.0011544642375007112 0.010792282171284045 -0.0009991383967422592 -0.00689349242971567
 0.9944798914134939 -0.055051301364561524 0.004517082885788002 0.023212057810258185 -0.0010001814246390563 -0.006893448929015543 0.00115460946251193 0.010792261471489303
 0.0011544642375007112 0.010792282171284045 -0.0010001814246390563 -0.006893448929015543 0.0045169223570502934 0.023210750188621426 0.9944798443087706 -0.05505263420548759
 -0.0009991383967422592 -0.00689349242971567 0.00115460946251193 0.010792261471489303 0.9944798443087706 -0.05505263420548759 0.004517632073048986 0.023210685318586978
0.1059090909091 0.0048014844343704415 0.024689145445371836 0.9941057604821768 -0.05837585578476268 0.0012692184019550408 0.011429520856617581 -0.0010971679560854274 -0.007303796462720281
 0.9941057604821768 -0.05837585578476268 0.004800944755089492 0.024689165519741034 -0.0010983338417322546 -0.007303741597462948 0.0012693819793341903 0.011429497060608149
 0.0012692184019550408 0.011429520856617581 -0.0010983338417322546 -0.007303741597462948 0.004800765192019605 0.02468778338295921 0.9941057079735339 -0.05837726661966935
 -0.0010971679560854274 -0.007303796462720281 0.0012693819793341903 0.011429497060608149 0.9941057079735339 -0.05837726661966935 0.004801560551568621 0.024687709973363618
0.1062942892872 0.004820527531869537 0.024786525865419434 0.9940806745686128 -0.05859448133787342 0.0012769561152945232 0.011471360177469695 -0.0011037784679610112 -0.007330742509875418
 0.9940806745686128 -0.05859448133787342 0.0048199839199974575 0.0247865460968213 -0.001104952648322172 -0.007330686851547848 0.0012771209392151406 0.011471336167856285
 0.0012769561152945232 0.011471360177469695 -0.001104952648322172 -0.007330686851547848 0.00481980307040102 0.024785159079487383 0.9940806216949664 -0.05859589729208603
 -0.0011037784679610112 -0.007330742509875418 0.0012771209392151406 0.011471336167856285 0.9940806216949664 -0.05859589729208603 0.00482060422292812 0.02478508508268315
0.11254689453939999 0.005136669485566087 0.0263741830582023 0.9936643709448372 -0.06214952905035698 0.001406092027265248 0.012150547322831811 -0.0012141143255047413 -0.0077682674395600365
 0.9936643709448372 -0.06214952905035698 0.005136060039095534 0.026374206001118908 -0.0012154270742902042 -0.007768198072458775 0.0014062778119184375 0.012150519660687316
 0.001406092027265248 0.012150547322831811 -0.0012154270742902042 -0.007768198072458775 0.005135857671711337 0.026372739936430287 0.9936643119680644 -0.06215102811161556
 -0.0012141143255047413 -0.0077682674395600365 0.0014062778119184375 0.012150519660687316 0.9936643119680644 -0.06215102811161556 0.00513675579159486 0.026372655931906484
0.11879949979160001 0.005466205496575309 0.02797483308784033 0.9932307692577399 -0.0657163283018899 0.0015419278180464331 0.012829759991062013 -0.0013302030219989646 -0.008205983577243794
 0.9932307692577399 -0.0657163283018899 0.0054655264467013236 0.027974859065997552 -0.0013316616994110933 -0.008205898876895453 0.0015421359483260935 0.012829728313444156
 0.0015419278180464331 0.012829759991062013 -0.0013316616994110933 -0.008205898876895453 0.005465301367861526 0.027973314317701836 0.9932307038427131 -0.06571791046449757
 -0.0013302030219989646 -0.008205983577243794 0.0015421359483260935 0.012829728313444156 0.9932307038427131 -0.06571791046449757 0.0054663019829127475 0.02797321937437732
0.1250521050438 0.005809349958853738 0.0295882972548664 0.9927796587055864 -0.0692947561072771 0.0016845182064657192 0.013508912672128831 -0.0014521004468343625 -0.00864380578619267
 0.9927796587055864 -0.0692947561072771 0.0058085975354350405 0.029588326618222655 -0.0014537123571782625 -0.008643704054858623 0.0016847500907916806 0.013508876595245897
 0.0016845182064657192 0.013508912672128831 -0.0014537123571782625 -0.008643704054858623 0.005808348555286912 0.029586703564621227 0.9927795865166604 -0.06929642136729534
 -0.0014521004468343625 -0.00864380578619267 0.0016847500907916806 0.013508876595245897 0.9927795865166604 -0.06929642136729534 0.005809457189449394 0.029586596700638793
0.131304710296 0.00616631640020991 0.03121439612628453 0.9923108290559398 -0.07288468317839583 0.0018339167374813567 0.014187917998688897 -0.0015798612828624584 -0.009081647411999245
 0.9923108290559398 -0.07288468317839583 0.006165486831833151 0.031214429251437126 -0.0015816336742944716 -0.009081526878756751 0.0018341738083559353 0.014187877117266864
 0.0018339167374813567 0.014187917998688897 -0.0015816336742944716 -0.009081526878756751 0.006165212764561374 0.031212728284314057 0.9923107497568414 -0.07288643153481147
 -0.0015798612828624584 -0.009081647411999245 0.0018341738083559353 0.014187877117266864 0.9923107497568414 -0.07288643153481147 0.006166434937735208 0.03121260846644318
0.1375573155481 0.00644946225306378 0.032640672731968134 0.9919119503383054 -0.0762736307129258 0.0019695878962498635 0.014844891194443634 -0.0016929499998032886 -0.009497632181909223
 0.9919119503383054 -0.0762736307129258 0.006448552042947352 0.03264071111241871 -0.001694893549185427 -0.00949749295082124 0.0019698699572264365 0.014844845583615675
 0.0019695878962498635 0.014844891194443634 -0.001694893549185427 -0.00949749295082124 0.006448251930400144 0.03263893152011125 0.9919118636091648 -0.07627546213306817
 -0.0016929499998032886 -0.009497632181909223 0.0019698699572264365 0.014844845583615675 0.9919118636091648 -0.07627546213306817 0.006449592399616348 0.032638798746613594
0.1438099208003 0.006742360156173687 0.03406042930656368 0.9914994335807035 -0.07965499026904806 0.002110735841886373 0.015499790956267804 -0.001810572912930077 -0.009911714801259432
 0.9914994335807035 -0.07965499026904806 0.006741365579796179 0.034060473434395035 -0.001812695405760819 -0.009911555155798925 0.002111044065343449 0.01549974025555796
 0.002110735841886373 0.015499790956267804 -0.001812695405760819 -0.009911555155798925 0.006741038283322593 0.03405861551608677 0.9914993390874905 -0.0796569047444727
 -0.001810572912930077 -0.009911714801259432 0.002111044065343449 0.01549974025555796 0.9914993390874905 -0.0796569047444727 0.006742502423551897 0.03405846881752516
0.1500625260525 0.0070449196009239705 0.03547357674449138 0.99107337239457 -0.08302870790410483 0.0022573190942933767 0.01615256988717204 -0.0019326896407669564 -0.010323849639059027
 0.99107337239457 -0.08302870790410483 0.007043836935436573 0.03547362713197602 -0.0019349988502403062 -0.010323667794225005 0.0022576546568155256 0.01615251372164246
 0.0022573190942933767 0.01615256988717204 -0.0019349988502403062 -0.010323667794225005 0.007043481322860786 0.0354716911971379 0.9910732698033139 -0.0830307054272458
 -0.0019326896407669564 -0.010323849639059027 0.0022576546568155256 0.01615251372164246 0.9910732698033139 -0.0830307054272458 0.007045074495999841 0.03547152956513904
0.15631513130469998 0.0073570495837686 0.03688002879641649 0.9906338607048247 -0.08639472930077921 0.0024092957686804167 0.016803181266164403 -0.0020592593835471935 -0.010733991940839242
