! Created with skrf 1.8.0 (http://scikit-rf.org).
# GHz S RI R 50.0 
!freq ReS11 ImS11 ReS12 ImS12 ReS13 ImS13
! ReS14 ImS14
! ReS21 ImS21 ReS22 ImS22 ReS23 ImS23
! ReS24 ImS24
! ReS31 ImS31 ReS32 ImS32 ReS33 ImS33
! ReS34 ImS34
! ReS41 ImS41 ReS42 ImS42 ReS43 ImS43
! ReS44 ImS44
!
0.0 0.001353639573822 0.0 0.9986463604178 0.0 5.178225247926e-05 0.0 -5.178225248378e-05 6.3414969756901256e-21
 0.9986463604178 0.0 0.001353639573863 0.0 -5.178225248527e-05 6.3414969758725984e-21 5.178225247871e-05 0.0
 5.178225247926e-05 0.0 -5.178225248527e-05 6.3414969758725984e-21 0.00135363957803 0.0 0.998646360422 0.0
 -5.178225248378e-05 6.3414969756901256e-21 5.178225247871e-05 0.0 0.998646360422 0.0 0.001353639577996 0.0
0.005 0.0014558937177545758 0.0011098048595911039 0.9985170879880277 -0.002836022211149452 7.191657941998128e-05 0.000558061061585046 -6.999977213033794e-05 -0.00035254728054445923
 0.9985170879880277 -0.002836022211149452 0.001455893498135151 0.0011098049352570632 -6.999724103037867e-05 -0.0003525453202895111 7.192980875212737e-05 0.0005580560797506026
 7.191657941998128e-05 0.000558061061585046 -6.999724103037867e-05 -0.0003525453202895111 0.0014558954456482239 0.001109871081244957 0.9985170883322981 -0.002835955149079538
 -6.999977213033794e-05 -0.00035254728054445923 7.192980875212737e-05 0.0005580560797506026 0.9985170883322981 -0.002835955149079538 0.0014558924559095133 0.0011098728356837226
0.006252605252188 0.0014825680309818858 0.001391632426025177 0.9984831785400773 -0.0035457430035210308 7.757824285773728e-05 0.0006978621841603638 -7.507468991430045e-05 -0.00044114526688871457
 0.9984831785400773 -0.0035457430035210308 0.0014825676879692054 0.001391632523222704 -7.507075137757687e-05 -0.00044114284897398443 7.759891321681589e-05 0.0006978557112899793
 7.757824285773728e-05 0.0006978621841603638 -7.507075137757687e-05 -0.00044114284897398443 0.0014825706530126133 0.001391715196223505 0.9984831789990497 -0.0035456591781196914
 -7.507468991430045e-05 -0.00044114526688871457 7.759891321681589e-05 0.0006978557112899793 0.9984831789990497 -0.0035456591781196914 0.0014825659792692997 0.0013917173990760623
0.01250521050438 0.0016221497783585807 0.0028125543365735287 0.9983046880498853 -0.0070924159076535065 0.00010956864860929337 0.001396177531717556 -0.0001035009812064649 -0.0008845072458686452
 0.9983046880498853 -0.0070924159076535065 0.0016221484158221104 0.002812554543003019 -0.00010348546039440924 -0.0008845027620719591 0.0001096510997813683 0.0013961619624936097
 0.00010956864860929337 0.001396177531717556 -0.00010348546039440924 -0.0008845027620719591 0.0016221596958551276 0.002812719551264523 0.9983046893262899 -0.007092248517524382
 -0.0001035009812064649 -0.0008845072458686452 0.0001096510997813683 0.0013961619624936097 0.9983046893262899 -0.007092248517524382 0.0016221410302533215 0.0028127240627059628
0.01875781575657 0.0017726596542391028 0.004253885805258267 0.9981106884228875 -0.010648679048874692 0.00014782367891381023 0.002095418782750501 -0.00013714190749216675 -0.0013294833309142797
 0.9981106884228875 -0.010648679048874692 0.0017726566065147937 0.00425388610014183 -0.0001371072956357779 -0.001329477193311626 0.00014800895107893613 0.0020953910363651494
 0.00014782367891381023 0.002095418782750501 -0.0001371072956357779 -0.001329477193311626 0.0017726815210488713 0.004254133278546527 0.9981106908656044 -0.010648428162846712
 -0.00013714190749216675 -0.0013294833309142797 0.00014800895107893613 0.0020953910363651494 0.9981106908656044 -0.010648428162846712 0.0017726395728623542 0.004254140238785108
0.02501042100875 0.001934365957850351 0.005713645738909671 0.9979009720517096 -0.014216286692901755 0.0001924143264964292 0.0027956317056450704 -0.00017607621235113887 -0.0017758940015110427
 0.9979009720517096 -0.014216286692901755 0.0019343605693857599 0.005713646068085397 -0.0001760150897016922 -0.0017758866899233357 0.00019274351296995652 0.002795588259320017
 0.0001924143264964292 0.0027956317056450704 -0.0001760150897016922 -0.0017758866899233357 0.001934404428721627 0.005713975242854273 0.9979009760155766 -0.014215952371645486
 -0.00017607621235113887 -0.0017758940015110427 0.00019274351296995652 0.002795588259320017 0.9979009760155766 -0.014215952371645486 0.0019343299222496864 0.0057139848220610625
0.03126302626094 0.0021075257542783887 0.0071908303368980525 0.9976753197031667 -0.017796008542579848 0.00024341213094061862 0.003496799846549136 -0.00022038077138650562 -0.0022236180884062356
 0.9976753197031667 -0.017796008542579848 0.0021075173782982653 0.007190830612148936 -0.00022028579178014164 -0.0022236101513835676 0.00024392641838116594 0.0034967367321464397
 0.00024341213094061862 0.003496799846549136 -0.00022028579178014164 -0.0022236101513835676 0.0021075854805501144 0.0071912416298608684 0.9976753255426172 -0.017795590810008106
 -0.00022038077138650562 -0.0022236180884062356 0.00024392641838116594 0.0034967367321464397 0.9976753255426172 -0.017795590810008106 0.002107469149578818 0.007191254027675311
0.037515631513130004 0.002292390738015276 0.008684797012979174 0.9974335065174136 -0.021388245761550042 0.00030088855046675917 0.004198882402763449 -0.00027013113454365866 -0.002672554894297441
 0.9974335065174136 -0.021388245761550042 0.0022923787352691 0.008684797111270643 -0.00026999501739663825 -0.002672546949448617 0.00030162923924267703 0.004198795201398042
 0.00030088855046675917 0.004198882402763449 -0.00026999501739663825 -0.002672546949448617 0.002292476368234943 0.00868528980696177 0.9974335145869242 -0.02138774463711146
 -0.00027013113454365866 -0.002672554894297441 0.00030162923924267703 0.004198795201398042 0.9974335145869242 -0.02138774463711146 0.00229230895334764 0.008685305252132222
0.043768236765320004 0.0024892094975316604 0.010195076888517764 0.9971753044094522 -0.024993218419611017 0.0003649146687457689 0.00490182575030819 -0.00032540172905563206 -0.0031226126577273486
 0.9971753044094522 -0.024993218419611017 0.0024891932351351394 0.010195076651168625 -0.0003252172546290166 -0.003122605391831756 0.0003659231842897768 0.004901709586296735
 0.0003649146687457689 0.00490182575030819 -0.0003252172546290166 -0.003122605391831756 0.002489325679749178 0.010195650864104362 0.9971753150654676 -0.024992633902743085
 -0.00032540172905563206 -0.0031226126577273486 0.0003659231842897768 0.004901709586296735 0.9971753150654676 -0.024992633902743085 0.0024890979257508536 0.01019566961464135
0.050020842017509996 0.0026982285812398015 0.011721297311453254 0.996900483273286 -0.02861104291018983 0.00043556102432871477 0.00560556819458227 -0.0003862659369690918 -0.00357370379397215
 0.996900483273286 -0.02861104291018983 0.002698207431394596 0.01172129654341118 -0.0003860259432616687 -0.003573697963038661 0.00043687892410987643 0.005605417729144511
 0.00043556102432871477 0.00560556819458227 -0.0003860259432616687 -0.003573697963038661 0.0026983799603478124 0.011721952103854924 0.9969004968719722 -0.028610374993694787
 -0.0003862659369690918 -0.00357370379397215 0.00043687892410987643 0.005605417729144511 0.9969004968719722 -0.028610374993694787 0.0026980826145675276 0.011721974447012845
0.055454545454549996 0.0028899710107152094 0.013060329515880863 0.996647978975932 -0.03176551986962345 0.000502385575445539 0.006217738409721716 -0.00044375770174135657 -0.003966488273104467
 0.996647978975932 -0.03176551986962345 0.0028899451063145467 0.013060328099430422 -0.0004434636868936582 -0.003966484356954359 0.0005040061950042902 0.006217553434998477
 0.000502385575445539 0.006217738409721716 -0.0004434636868936582 -0.003966484356954359 0.002890156748798735 0.013061054213116282 0.996647995422802 -0.03176477946078235
 -0.00044375770174135657 -0.003966488273104467 0.0005040061950042902 0.006217553434998477 0.996647995422802 -0.03176477946078235 0.002889791411890307 0.01306107993452784
0.056273447269699996 0.002919693047909081 0.013263143824174983 0.9966088116737037 -0.03224176991885321 0.0005128974903667854 0.0063100422975148895 -0.00045279612054859275 -0.004025742560650243
 0.9966088116737037 -0.03224176991885321 0.0029196663861798754 0.013263142293262633 -0.0004524935011540722 -0.004025738989939194 0.0005145664680691732 0.006309851722259954
 0.0005128974903667854 0.0063100422975148895 -0.0004524935011540722 -0.004025738989939194 0.0029198842681645546 0.013263879026847279 0.9966088285733204 -0.03224101858465855
 -0.00045279612054859275 -0.004025742560650243 0.0005145664680691732 0.006309851722259954 0.9966088285733204 -0.03224101858465855 0.002919508078545808 0.01326390527935169
0.06252605252188 0.0031538467740558586 0.014820339252272332 0.9963000572968018 -0.035885405271931514 0.0005969931805823031 0.007015176163573439 -0.000525063619670575 -0.004478643766115763
 0.9963000572968018 -0.035885405271931514 0.003153813978390639 0.014820336688422352 -0.0005246913223658136 -0.004478643350127243 0.000599055068513274 0.0070149391938904146
 0.0005969931805823031 0.007015176163573439 -0.0005246913223658136 -0.004478643350127243 0.003154082478280371 0.014821154410315373 0.9963000778576726 -0.035884570497097694
 -0.000525063619670575 -0.004478643766115763 0.000599055068513274 0.0070149391938904146 0.9963000778576726 -0.035884570497097694 0.0031536181917505017 0.014821184918567008
0.06877865777407 0.0034009326267522458 0.0163926312344553 0.9959739872695609 -0.039541922345643854 0.0006879163704203279 0.007720894194731483 -0.0006031387326119012 -0.004932322010836583
 0.9959739872695609 -0.039541922345643854 0.003400893075767752 0.01639262732903234 -0.0006026897582754784 -0.004932325713301759 0.0006904131407183013 0.007720604063107242
 0.0006879163704203279 0.007720894194731483 -0.0006026897582754784 -0.004932325713301759 0.0034012174549815292 0.016393525850779356 0.995974011852838 -0.039541004095559266
 -0.0006031387326119012 -0.004932322010836583 0.0006904131407183013 0.007720604063107242 0.995974011852838 -0.039541004095559266 0.00340065581608294 0.01639356099112432
0.07503126302626001 0.003661192553366185 0.017979784320584367 0.9956303683977284 -0.04321126990890042 0.0007857344259112253 0.008427117576604469 -0.0006870906877491682 -0.005386691199759153
 0.9956303683977284 -0.04321126990890042 0.0036611456248348364 0.01797977872570713 -0.0006865580896260766 -0.005386700053627082 0.0007887081906818109 0.008426767025878726
 0.0007857344259112253 0.008427117576604469 -0.0006865580896260766 -0.005386700053627082 0.0036615311445811287 0.017980757848503826 0.99563039736799 -0.0432102681441132
 -0.0006870906877491682 -0.005386691199759153 0.0007887081906818109 0.008426767025878726 0.99563039736799 -0.0432102681441132 0.003660862893989894 0.017980798027501826
0.08128386827845 0.00393486762558328 0.019581574706038992 0.9952689673617553 -0.04689337733229722 0.0008905137380707947 0.009133764597857311 -0.00077698760814284 -0.005841664223731051
 0.9952689673617553 -0.04689337733229722 0.003934812694972593 0.019581567033885236 -0.0007763644913565113 -0.00584167933112601 0.0008940067491927813 0.009133345874417833
 0.0008905137380707947 0.009133764597857311 -0.0007763644913565113 -0.00584167933112601 0.003935264615824803 0.019582626552442074 0.9952690010854727 -0.04689229200471797
 -0.00077698760814284 -0.005841664223731051 0.0008940067491927813 0.009133345874417833 0.9952690010854727 -0.04689229200471797 0.0039344804890315095 0.019582672207198587
0.08753647353064001 0.004222198048154744 0.0211977865909941 0.9948895508797413 -0.05058815817448796 0.0010023196604083526 0.00984075087419668 -0.0008728964721797942 -0.006297152738714158
 0.9948895508797413 -0.05058815817448796 0.00422213448712936 0.021197776413206592 -0.0008721759934267351 -0.00629717527090702 0.0010063743083279747 0.00984025572115409
 0.0010023196604083526 0.00984075087419668 -0.0008721759934267351 -0.00629717527090702 0.004222658070975075 0.021198916116967885 0.9948895897259888 -0.05058698922611534
 -0.0008728964721797942 -0.006297152738714158 0.0010063743083279747 0.00984025572115409 0.9948895897259888 -0.05058698922611534 0.0042217487967205975 0.021198967715515497
0.09378907878283 0.004523423145604946 0.022828209585621137 0.9944918858499435 -0.054295512725324145 0.0011212164486010497 0.01054798950769538 -0.0009748830704805775 -0.0067530670122172365
 0.9944918858499435 -0.054295512725324145 0.004523350320130437 0.02282819643270041 -0.0009740584377911676 -0.006753098209576517 0.0011258752610551388 0.01054740915803598
 0.0011212164486010497 0.01054798950769538 -0.0009740584377911676 -0.006753098209576517 0.00452395083115142 0.022829416099821646 0.9944919301908296 -0.05429426009434896
 -0.0009748830704805775 -0.0067530670122172365 0.0011258752610551388 0.01054740915803598 0.9944919301908296 -0.05429426009434896 0.004522907130300371 0.02282947414147327
0.100041684035 0.004838781332512603 0.024472636790578196 0.9940757394808324 -0.0580153298766589 0.0012472672014631574 0.011255391208799124 -0.001083011960654633 -0.00720931580966968
 0.9940757394808324 -0.0580153298766589 0.0048386986012947854 0.024472620151288614 -0.0010820764333467968 -0.0072093569816064 0.0012525728415254405 0.011254716378508136
 0.0012472672014631574 0.011255391208799124 -0.0010820764333467968 -0.0072093569816064 0.004839381307661511 0.02447391955301571 0.9940757896918269 -0.058013993493071944
 -0.001083011960654633 -0.00720931580966968 0.0012525728415254405 0.011254716378508136 0.9940757896918269 -0.058013993493071944 0.004838193891707448 0.024473984568829318
0.1059090909091 0.005147776976087224 0.02602831149291763 0.9936682146862834 -0.06151721056921636 0.001372114057234754 0.011919279425131383 -0.0011901221861634656 -0.007637678503982191
 0.9936682146862834 -0.06151721056921636 0.005147684358311464 0.026028291079436206 -0.0011890765111609468 -0.007637730288346095 0.0013780655967913274 0.01191850702446058
 0.001372114057234754 0.011919279425131383 -0.0011890765111609468 -0.007637730288346095 0.005148448991757276 0.026029665087841984 0.9936682707500797 -0.061515795523242225
 -0.0011901221861634656 -0.007637678503982191 0.0013780655967913274 0.01191850702446058 0.9936682707500797 -0.061515795523242225 0.00514711825707848 0.0260297371598667
0.1062942892872 0.005168510072515211 0.026130863366199724 0.9936408794112684 -0.06174748850731481 0.001380533802872672 0.011962864385075917 -0.0011973464198229609 -0.007665806316745248
 0.9936408794112684 -0.06174748850731481 0.0051684167853812924 0.02613084268705899 -0.0011962933085323862 -0.007665858841652256 0.0013865290669212273 0.011962085266219828
 0.001380533802872672 0.011962864385075917 -0.0011962933085323862 -0.007665858841652256 0.005169186960008075 0.02613222158610204 0.9936409358711441 -0.06174606829446758
 -0.0011973464198229609 -0.007665806316745248 0.0013865290669212273 0.011962085266219828 0.9936409358711441 -0.06174606829446758 0.00516784652966543 0.02613229413935754
0.11254689453939999 0.005512845826845909 0.02780268543141857 0.9931870738232108 -0.06549185854147897 0.001521076864171379 0.012670315217009885 -0.0013179483958527883 -0.00812244407741284
 0.9931870738232108 -0.06549185854147897 0.005512741322912553 0.027802660116168533 -0.0013167710625870584 -0.008122509402593946 0.0015278046795292493 0.012669421470838963
 0.001521076864171379 0.012670315217009885 -0.0013167710625870584 -0.008122509402593946 0.0055136042451545365 0.02780411826929621 0.9931871369146333 -0.0654903544134204
 -0.0013179483958527883 -0.00812244407741284 0.0015278046795292493 0.012669421470838963 0.9931871369146333 -0.0654903544134204 0.005512101489127295 0.0278041989559628
0.11879949979160001 0.005872023997054977 0.029487899205128947 0.992714091550438 -0.06924830176782791 0.0016689556670317664 0.013377647716145165 -0.0014448784572743394 -0.008579132952501923
 0.992714091550438 -0.06924830176782791 0.005871907602797106 0.02948786861428857 -0.0014435703155571277 -0.008579212594091666 0.0016764590890939995 0.013376628466192211
 0.0016689556670317664 0.013377647716145165 -0.0014435703155571277 -0.008579212594091666 0.005872868559342453 0.02948940576864512 0.9927141616597661 -0.06924671363296829
 -0.0014448784572743394 -0.008579132952501923 0.0016764590890939995 0.013376628466192211 0.9927141616597661 -0.06924671363296829 0.0058711941530137 0.029489495217917185
0.1250521050438 0.006246278860884143 0.0311863003255385 0.9922217021832973 -0.07301667248409752 0.001824228106446494 0.01408476377506889 -0.0015781957419670296 -0.009035775089349983
 0.9922217021832973 -0.07301667248409752 0.00624614988838089 0.031186263775985396 -0.0015767502570595768 -0.009035870632224783 0.0018325503158761218 0.014083607600192198
 0.001824228106446494 0.01408476377506889 -0.0015767502570595768 -0.009035870632224783 0.006247214175182587 0.031187879669702236 0.9922217797014442 -0.07301500024440259
 -0.0015781957419670296 -0.009035775089349983 0.0018325503158761218 0.014083607600192198 0.9922217797014442 -0.07301500024440259 0.006245358779034582 0.031187978544589018
0.131304710296 0.006635843504271459 0.03289768330669281 0.9917096761713683 -0.07679681800788753 0.00198695063382228 0.014791563211851627 -0.0017179579051884034 -0.009492270900012537
 0.9917096761713683 -0.07679681800788753 0.006635701249454905 0.032897640071236876 -0.0017163685943396708 -0.009492383997690932 0.001996134933478569 0.014790258139336307
 0.00198695063382228 0.014791563211851627 -0.0017163685943396708 -0.009492383997690932 0.006636874172305094 0.032899334434811286 0.9917097614935277 -0.07679506155740856
 -0.0017179579051884034 -0.009492270900012537 0.001996134933478569 0.014790258139336307 0.9917097614935277 -0.07679506155740856 0.006634828430693626 0.032899443432747345
0.1375573155481 0.006947011612317102 0.034398894120937856 0.9912717529037078 -0.08036555256961295 0.002135244391707759 0.015475303130005726 -0.0018422794643654131 -0.0099258973521188
 0.9912717529037078 -0.08036555256961295 0.0069468539768891245 0.034398842988019686 -0.0018405367330497152 -0.009926027979808407 0.002145310887249883 0.015473851886651926
 0.002135244391707759 0.015475303130005726 -0.0018405367330497152 -0.009926027979808407 0.006948141692133571 0.03440061611561371 0.9912718463833277 -0.0803637118665063
 -0.0018422794643654131 -0.0099258973521188 0.002145310887249883 0.015473851886651926 0.9912718463833277 -0.0803637118665063 0.006945896018888707 0.034400735399445485
0.1438099208003 0.007268977136842805 0.035892986346569664 0.9908187180253731 -0.08392603032444623 0.002289524703153271 0.016156731558417393 -0.0019715834680919136 -0.010357388794606896
 0.9908187180253731 -0.08392603032444623 0.007268803153836263 0.03589292657138036 -0.001969680347587718 -0.010357538563105057 0.0023005126724146077 0.016155123286061276
 0.002289524703153271 0.016156731558417393 -0.001969680347587718 -0.010357538563105057 0.00727021112418209 0.03589477818298638 0.9908188200555479 -0.08392410526961114
 -0.0019715834680919136 -0.010357388794606896 0.0023005126724146077 0.016155123286061276 0.9908188200555479 -0.08392410526961114 0.007267756110494126 0.03589490847142605
0.1500625260525 0.00760163708614378 0.037379858358671386 0.9903506778951505 -0.08747818641211397 0.002449744174159899 0.016835794271276728 -0.0021058236148290446 -0.010786692824455766
 0.9903506778951505 -0.08747818641211397 0.007601445759077848 0.03737978917260011 -0.0021037531487161937 -0.01078686340891057 0.002461692742449259 0.016834017708779236
 0.002449744174159899 0.016835794271276728 -0.0021037531487161937 -0.01078686340891057 0.007602979464985293 0.03738171897288094 0.9903507888725035 -0.08747617690049991
 -0.0021058236148290446 -0.010786692824455766 0.002461692742449259 0.016834017708779236 0.9903507888725035 -0.08747617690049991 0.0076003056857376705 0.03738186102034226
0.15631513130469998 0.007944887861122105 0.038859411718141425 0.9898677392758558 -0.09102195574494786 0.0026158549219754547 0.01751243786231491 -0.002244953098743084 -0.011213758064624822
