! Created with skrf 1.8.0 (http://scikit-rf.org).
# GHz S RI R 50.0 
!freq ReS11 ImS11 ReS12 ImS12 ReS13 ImS13
! ReS14 ImS14
! ReS21 ImS21 ReS22 ImS22 ReS23 ImS23
! ReS24 ImS24
! ReS31 ImS31 ReS32 ImS32 ReS33 ImS33
! ReS34 ImS34
! ReS41 ImS41 ReS42 ImS42 ReS43 ImS43
! ReS44 ImS44
!
0.0 0.001168114791929 0.0 0.9988318851932 0.0 4.404545003567e-05 0.0 -4.404544998025e-05 5.394011933531801e-21
 0.9988318851932 0.0 0.001168114791933 0.0 -4.404544998087e-05 5.3940119336077295e-21 4.404545003646e-05 0.0
 4.404545003567e-05 0.0 -4.404544998087e-05 5.3940119336077295e-21 0.001168114799396 0.0 0.9988318852006 0.0
 -4.404544998025e-05 5.394011933531801e-21 4.404545003646e-05 0.0 0.9988318852006 0.0 0.001168114799369 0.0
0.005 0.0012558757619410888 0.0009631897684021511 0.9987210180591819 -0.0024476122035086046 6.012226146791839e-05 0.00044297120386379234 -5.8780037951176926e-05 -0.00028556162470138425
 0.9987210180591819 -0.0024476122035086046 0.0012558675930622318 0.0009631944972215467 -5.877868199328866e-05 -0.00028556055865109774 6.018814454676282e-05 0.0004429463394489858
 6.012226146791839e-05 0.00044297120386379234 -5.877868199328866e-05 -0.00028556055865109774 0.001255876918513681 0.0009632563128698666 0.998721018379433 -0.0024475451411390416
 -5.8780037951176926e-05 -0.00028556162470138425 6.018814454676282e-05 0.0004429463394489858 0.998721018379433 -0.0024475451411390416 0.0012558670774130976 0.0009632620786166026
0.006252605252188 0.0012786480889814863 0.0012077782271673625 0.9986921140961725 -0.0030601487078588687 6.456618353134319e-05 0.0005539639654371335 -6.282650439438752e-05 -0.00035732469069364
 0.9986921140961725 -0.0030601487078588687 0.0012786353197611498 0.0012077841977100024 -6.282439456491052e-05 -0.0003573233751137944 6.466912387469479e-05 0.0005539316858513841
 6.456618353134319e-05 0.0005539639654371335 -6.282439456491052e-05 -0.0003573233751137944 0.001278649824910945 0.0012078613954566333 0.9986921145245038 -0.003060064889012343
 -6.282650439438752e-05 -0.00035732469069364 6.466912387469479e-05 0.0005539316858513841 0.9986921145245038 -0.003060064889012343 0.0012786344410044166 0.00120786866936004
0.01250521050438 0.0013971012484983731 0.002440961805748778 0.9985409947071252 -0.0061212649871500695 8.926453589585993e-05 0.0011084882425001139 -8.517533419133336e-05 -0.0007164846631495884
 0.9985409947071252 -0.0061212649871500695 0.0013970502677874944 0.0024409743351869045 -8.516702100451056e-05 -0.0007164822146110203 8.967514464232088e-05 0.0011084109728104936
 8.926453589585993e-05 0.0011084882425001139 -8.516702100451056e-05 -0.0007164822146110203 0.0013971076439838277 0.0024411278542473777 0.9985409958764165 -0.006121097602526251
 -8.517533419133336e-05 -0.0007164846631495884 8.967514464232088e-05 0.0011084109728104936 0.9985409958764165 -0.006121097602526251 0.0013970462128605067 0.0024411430742342743
0.01875781575657 0.0015236803959317062 0.0036919164482729825 0.9983783768173511 -0.00919084129181534 0.00011819129058172485 0.0016639258467223835 -0.00011114896409608282 -0.0010770491631089609
 0.9983783768173511 -0.00919084129181534 0.001523565859143003 0.0036919361543359666 -0.00011113042676803572 -0.0010770457908964963 0.00011911393333290931 0.0016637888965890402
 0.00011819129058172485 0.0016639258467223835 -0.00011113042676803572 -0.0010770457908964963 0.001523694354134221 0.0036921652317139816 0.9983783790220074 -0.009190590439095125
 -0.00011114896409608282 -0.0010770491631089609 0.00011911393333290931 0.0016637888965890402 0.9983783790220074 -0.009190590439095125 0.001523556315137011 0.003692189137930733
0.02501042100875 0.0016585881531745712 0.004958957828874384 0.9982041057978267 -0.01227041547809147 0.00015139737109661947 0.002220319313751986 -0.00014080347435063752 -0.0014388955127680497
 0.9982041057978267 -0.01227041547809147 0.0016583847808498997 0.004958985347582315 -0.00014077073987110204 -0.0014388914570594242 0.00015303666404530743 0.002220106097101221
 0.00015139737109661947 0.002220319313751986 -0.00014077073987110204 -0.0014388914570594242 0.001658612584347476 0.004959289214306164 0.9982041093380543 -0.012270081231241504
 -0.00014080347435063752 -0.0014388955127680497 0.00015303666404530743 0.002220106097101221 0.9982041093380543 -0.012270081231241504 0.0016583674405061812 0.004959322601262336
0.03126302626094 0.0018020183647993952 0.006241245235995878 0.9980180174282444 -0.015360677120139235 0.000188934117248042 0.002777666133947694 -0.00017419387429405624 -0.0018019437213362803
 0.9980180174282444 -0.015360677120139235 0.0018017009293462853 0.006241281218483741 -0.00017414300898890134 -0.0018019392537490032 0.0001914951254523927 0.0027773581576162436
 0.000188934117248042 0.002777666133947694 -0.00017414300898890134 -0.0018019392537490032 0.001802056180460781 0.00624165908921679 0.9980180226033167 -0.015360259542855295
 -0.00017419387429405624 -0.0018019437213362803 0.0001914951254523927 0.0027773581576162436 0.9980180226033167 -0.015360259542855295 0.0018016734828967705 0.006241702802777364
0.037515631513130004 0.001954160859617681 0.007538250255058871 0.9978199427366018 -0.01846199878472699 0.00023085292520591682 0.0033359463195794872 -0.00021137446283517184 -0.0021661289125640237
 0.9978199427366018 -0.01846199878472699 0.0019537041764517396 0.007538295365639655 -0.0002113015679535233 -0.0021661243363453207 0.00023454125864324983 0.0033355231624038074
 0.00023085292520591682 0.0033359463195794872 -0.0002113015679535233 -0.0021661243363453207 0.001954214973013284 0.00753874644420688 0.9978199498447502 -0.018461497926668152
 -0.00021137446283517184 -0.0021661289125640237 0.00023454125864324983 0.0033355231624038074 0.9978199498447502 -0.018461497926668152 0.0019536643113760824 0.0075388013798504865
0.043768236765320004 0.0021152032939548726 0.008849595114411048 0.9976097099191343 -0.0215745976380995 0.00027720508499295163 0.003895130781745905 -0.0002523989627351725 -0.0025313929378291693
 0.9976097099191343 -0.0215745976380995 0.0021145822148986824 0.008849650028865176 -0.0002523001718244488 -0.002531388587927324 0.0002822269509245506 0.003894570070705908
 0.00027720508499295163 0.003895130781745905 -0.0002523001718244488 -0.002531388587927324 0.0021152766198200344 0.008850173494450896 0.9976097192565498 -0.021574013550120553
 -0.0002523989627351725 -0.0025313929378291693 0.0002822269509245506 0.003894570070705908 0.9976097192565498 -0.021574013550120553 0.002114527614791602 0.008850240596095033
0.050020842017509996 0.0022853320189465164 0.010174985840741488 0.9973871452843859 -0.024698602241600604 0.0003280416820868846 0.0044551847864145845 -0.0002973205799906522 -0.002897680909178708
 0.9973871452843859 -0.024698602241600604 0.0022845214261906096 0.010175051244951978 -0.00029719205708437563 -0.002897677152279692 0.0003346039147041647 0.0044544621714602
 0.0003280416820868846 0.0044551847864145845 -0.00029719205708437563 -0.002897677152279692 0.0022854274756530842 0.010175646257585666 0.9973871571474512 -0.024697934971349936
 -0.0002973205799906522 -0.002897680909178708 0.0003346039147041647 0.0044544621714602 0.9973871571474512 -0.024697934971349936 0.0022844497730981532 0.010175726516586919
0.055454545454549996 0.0024407023045418244 0.011338007895463385 0.9971835790105045 -0.02742277725933972 0.0003759016101343123 0.004942564898854523 -0.0003395647125001299 -0.0032167863828362476
 0.9971835790105045 -0.02742277725933972 0.0024397066396179743 0.011338082979453185 -0.0003394072590863117 -0.0032167834637238718 0.00038397094153059104 0.004941680254429256
 0.0003759016101343123 0.004942564898854523 -0.0003394072590863117 -0.0032167834637238718 0.002440819365394858 0.011338739467273772 0.9971835933082321 -0.02742203774244735
 -0.0003395647125001299 -0.0032167863828362476 0.00038397094153059104 0.004941680254429256 0.9971835933082321 -0.02742203774244735 0.0024396182818927684 0.011338832001829266
0.056273447269699996 0.002464732539554067 0.011514179477028593 0.997152073790647 -0.027834085284285878 0.00038341353190768753 0.005016069649413976 -0.0003461920252150944 -0.003264939493471533
 0.997152073790647 -0.027834085284285878 0.0024637073405624804 0.011514256065648279 -0.0003460299636440786 -0.0032649367280087375 0.00039172360800715565 0.005015158777683369
 0.00038341353190768753 0.005016069649413976 -0.0003460299636440786 -0.0032649367280087375 0.0024648530478667357 0.011514921761571387 0.9971520884747462 -0.027833334881823425
 -0.0003461920252150944 -0.003264939493471533 0.00039172360800715565 0.005015158777683369 0.9971520884747462 -0.027833334881823425 0.0024636163132826447 0.011515016216005768
0.06252605252188 0.0026535897752420186 0.012866966047291761 0.9969043193869724 -0.03098108156872792 0.0004433711281098902 0.005577743660928575 -0.0003990655179078522 -0.003633115977583826
 0.9969043193869724 -0.03098108156872792 0.0026523248975421406 0.012867054522644857 -0.00039886613936596316 -0.0036331146337444443 0.0004536371741011667 0.00557661615055473
 0.0004433711281098902 0.005577743660928575 -0.00039886613936596316 -0.0036331146337444443 0.0026537382589760855 0.01286779002047461 0.9969043371866442 -0.030980248081226635
 -0.0003990655179078522 -0.003633115977583826 0.0004536371741011667 0.00557661615055473 0.9969043371866442 -0.030980248081226635 0.0026522121727213226 0.012867899754427753
0.06877865777407 0.0028520882111459644 0.01423315780859375 0.9966437052455643 -0.0341395987101878 0.0005079645996090923 0.006140162635757955 -0.00045599277996218604 -0.004002157708546424
 0.9966437052455643 -0.0341395987101878 0.0028505585979135568 0.014233258879567801 -0.0004557523339183748 -0.004002158248269225 0.0005203953921371546 0.006138788049508711
 0.0005079645996090923 0.006140162635757955 -0.0004557523339183748 -0.004002158248269225 0.002852267597388841 0.014234063276664917 0.9966437264546011 -0.03413868218630242
 -0.00045599277996218604 -0.004002157708546424 0.0005203953921371546 0.006138788049508711 0.9966437264546011 -0.03413868218630242 0.0028504218497839885 0.014234189419769784
0.07503126302626001 0.0030604119893542143 0.015612582432884966 0.9963700539356893 -0.03730962390661195 0.0005772436718737915 0.006703280263540502 -0.0005170250234084845 -0.004372011734631706
 0.9963700539356893 -0.03730962390661195 0.0030585925944775286 0.015612696814019299 -0.0005167397865921327 -0.004372014651600254 0.0005920486336694266 0.006701626082311038
 0.0005772436718737915 0.006703280263540502 -0.0005167397865921327 -0.004372014651600254 0.003060625207773417 0.015613569188632041 0.9963700788467859 -0.03730862439494494
 -0.0005170250234084845 -0.004372011734631706 0.0005920486336694266 0.006701626082311038 0.9963700788467859 -0.03730862439494494 0.0030584294945216976 0.0156137129155764
0.08128386827845 0.0032787449579768186 0.01700507847036642 0.9960831875577307 -0.04049112842793473 0.0006512576317922512 0.0072670483343048355 -0.0005822129328794696 -0.004742624572052626
 0.9960831875577307 -0.04049112842793473 0.003276610741437849 0.017005206880968075 -0.000581879208893229 -0.004742630391683266 0.0006686468244663502 0.0072650799306000135
 0.0006512576317922512 0.0072670483343048355 -0.000581879208893229 -0.004742630391683266 0.003278994941511761 0.017006146292436183 0.9960832164628771 -0.04049004597737293
 -0.0005822129328794696 -0.004742624572052626 0.0006686468244663502 0.0072650799306000135 0.9960832164628771 -0.04049004597737293 0.003276418959511008 0.017006308822671838
0.08753647353064001 0.003507270695944333 0.018410492213343177 0.995782927853931 -0.04368407070598489 0.0007300552937535322 0.007831416899665149 -0.0006516066461665238 -0.005113942037089446
 0.995782927853931 -0.04368407070598489 0.003504796619243659 0.01841063537677175 -0.0006512207652426961 -0.00511395131652121 0.0007502394073156068 0.007829097511048894
 0.0007300552937535322 0.007831416899665149 -0.0006512207652426961 -0.00511395131652121 0.0035075603804071596 0.018411640862247555 0.9957829610441523 -0.04368290536937421
 -0.0006516066461665238 -0.005113942037089446 0.0007502394073156068 0.007829097511048894 0.9957829610441523 -0.04368290536937421 0.0035045738231511904 0.018411823459792653
0.09378907878283 0.0037461725204147815 0.01982867544414978 0.9954690963040186 -0.04688839854137018 0.0008136849672578402 0.008396334382530382 -0.000725255731893896 -0.005485909130783743
 0.9954690963040186 -0.04688839854137018 0.0037433335418912105 0.019828834087119378 -0.000724814050691091 -0.005485922458858669 0.0008368753075900593 0.008393625085136787
 0.0008136849672578402 0.008396334382530382 -0.000724814050691091 -0.005485922458858669 0.0037465048446064654 0.01982990466623504 0.9954691340694276 -0.04688715037122526
 -0.000725255731893896 -0.005485909130783743 0.0008368753075900593 0.008393625085136787 0.9954691340694276 -0.04688715037122526 0.003743077397850803 0.01983010863950809
0.100041684035 0.0039956334803959315 0.02125948379443551 0.9951415142075818 -0.05010405070026175 0.0009021944250668784 0.008961747659791871 -0.0008032091657217159 -0.005858469951820733
 0.9951415142075818 -0.05010405070026175 0.003992404550734798 0.021259658646518294 -0.0008027080671974086 -0.005858487949068149 0.0009286028996601859 0.008958607341892936
 0.0009021944250668784 0.008961747659791871 -0.0008027080671974086 -0.005858487949068149 0.003996011385997284 0.02126079332005217 0.9951415568374085 -0.05010271975025659
 -0.0008032091657217159 -0.005858469951820733 0.0009286028996601859 0.008958607341892936 0.9951415568374085 -0.05010271975025659 0.003992112723486521 0.021261020021891015
0.1059090909091 0.004239492360869275 0.02261350177227057 0.9948214479093226 -0.0531318371107079 0.000989731330412667 0.009492730345980067 -0.0008803180375481743 -0.006208568111842206
 0.9948214479093226 -0.0531318371107079 0.004235874710338069 0.02261369250051531 -0.0008797579158479021 -0.006208591083182717 0.0010193529316829008 0.009489146198311146
 0.000989731330412667 0.009492730345980067 -0.0008797579158479021 -0.006208591083182717 0.004239915717733069 0.022614886393380412 0.9948214953658867 -0.053130428531425654
 -0.0008803180375481743 -0.006208568111842206 0.0010193529316829008 0.009489146198311146 0.9948214953658867 -0.053130428531425654 0.004235547273226294 0.022615135693591443
0.1062942892872 0.004255836342188881 0.02270277550186792 0.994800002761225 -0.05333095811503606 0.0009956308717945879 0.009527602123456366 -0.0008855153056079558 -0.00623156763217442
 0.994800002761225 -0.05333095811503606 0.00425219239966911 0.02270296729499 -0.0008849511989169077 -0.006231590950786589 0.001025469973313687 0.009523987459106069
 0.0009956308717945879 0.009527602123456366 -0.0008849511989169077 -0.006231590950786589 0.004256262773756865 0.022704165043799344 0.994800050543537 -0.053329544441182354
 -0.0008855153056079558 -0.00623156763217442 0.001025469973313687 0.009523987459106069 0.994800050543537 -0.053329544441182354 0.0042518625527854376 0.022704415871530638
0.11254689453939999 0.0045269635671950845 0.02415841046024837 0.994444383128123 -0.05656904479281196 0.0010940409127178459 0.01009384172754732 -0.000972221865533822 -0.00660514428821357
 0.994444383128123 -0.05656904479281196 0.0045228795328135256 0.024158619928382946 -0.0009715911859838988 -0.0066051736120181235 0.0011275237015340642 0.010089707150365633
 0.0010940409127178459 0.01009384172754732 -0.0009715911859838988 -0.0066051736120181235 0.004527441471961725 0.02415987971394043 0.9944444363501234 -0.056567548452924304
 -0.000972221865533822 -0.00660514428821357 0.0011275237015340642 0.010089707150365633 0.9944444363501234 -0.056567548452924304 0.004522509328872526 0.024160156109606416
0.11879949979160001 0.0048091972847506435 0.025626249472454378 0.9940744765058014 -0.05981822852256821 0.0011974705227352864 0.010660409024999965 -0.001063375888604537 -0.006979140983099401
 0.9940744765058014 -0.05981822852256821 0.0048046480575719445 0.025626477351420186 -0.0010626750976334238 -0.006979177027536314 0.0012348106080586037 0.010655706702072254
 0.0011974705227352864 0.010660409024999965 -0.0010626750976334238 -0.006979177027536314 0.004809729612540697 0.025627798116705746 0.9940745354534578 -0.059816649575310854
 -0.001063375888604537 -0.006979140983099401 0.0012348106080586037 0.010655706702072254 0.9940745354534578 -0.059816649575310854 0.00480423515846353 0.02562810156731204
0.1250521050438 0.005102719259929621 0.027106153664782903 0.9936901041890973 -0.06307842142258559 0.0013059650153075197 0.01122724519787151 -0.0011590237193327883 -0.007353497697246956
 0.9936901041890973 -0.06307842142258559 0.005097679712346818 0.02710640069208025 -0.0011582493045335365 -0.007353541209333779 0.001347376535173926 0.011221925003770755
 0.0013059650153075197 0.01122724519787151 -0.0011582493045335365 -0.007353541209333779 0.005103308963199093 0.02710778136013936 0.993690169147458 -0.06307675992855895
 -0.0011590237193327883 -0.007353497697246956 0.001347376535173926 0.011221925003770755 0.993690169147458 -0.06307675992855895 0.005097221779483321 0.027108113398142047
0.131304710296 0.00540771085856724 0.02859798401017221 0.9932910876326403 -0.06634953038015554 0.0014195690113823775 0.011794290080829295 -0.0012592109753228448 -0.007728153306759078
 0.9932910876326403 -0.06634953038015554 0.0054021558313285265 0.02859825092504455 -0.0012583594504774229 -0.007728205065053533 0.0014652666115101535 0.011788299571907208
 0.0014195690113823775 0.011794290080829295 -0.0012583594504774229 -0.007728205065053533 0.005408360892138432 0.02859969039874762 0.9932911588854036 -0.06634778640185855
 -0.0012592109753228448 -0.007728153306759078 0.0014652666115101535 0.011788299571907208 0.9932911588854036 -0.06634778640185855 0.005401650525840165 0.028600052602546337
0.1375573155481 0.005646270676757788 0.029908193240758482 0.9929553508647443 -0.06943799649149895 0.0015215312686493571 0.012341897702596553 -0.0013471315794584442 -0.008083502719495626
 0.9929553508647443 -0.06943799649149895 0.0056401713974596505 0.029908475292748395 -0.0013461977649398679 -0.008083562615665882 0.0015716153360064837 0.012335254728731008
 0.0015215312686493571 0.012341897702596553 -0.0013461977649398679 -0.008083562615665882 0.0056469834244815545 0.02990997807815363 0.9929554286943445 -0.06943617009843547
 -0.0013471315794584442 -0.008083502719495626 0.0015716153360064837 0.012335254728731008 0.9929554286943445 -0.06943617009843547 0.005639616958871298 0.029910366333139676
0.1438099208003 0.005892939468830522 0.031212852057432263 0.9926083397269216 -0.07251996704519781 0.001627581235665255 0.012887975380748772 -0.0014385616278452542 -0.008437417547729278
 0.9926083397269216 -0.07251996704519781 0.005886270130042745 0.031213149717864756 -0.0014375417697537526 -0.008437486331330032 0.0016822464278499543 0.01288063296429961
 0.001627581235665255 0.012887975380748772 -0.0014375417697537526 -0.008437486331330032 0.005893717785929752 0.031214714994169626 0.9926084244149277 -0.07251805830426247
 -0.0014385616278452542 -0.008437417547729278 0.0016822464278499543 0.01288063296429961 0.9926084244149277 -0.07251805830426247 0.005885664324835915 0.031215130615642624
0.1500625260525 0.006147646211441535 0.032511890882530495 0.9922501278721284 -0.07559540515061275 0.0017376897198438479 0.013432490931106546 -0.0015334722372649396 -0.008789865712639079
 0.9922501278721284 -0.07559540515061275 0.00614038094260174 0.03251220466607099 -0.0015323625862751007 -0.008789944163029586 0.0017971298419857396 0.013424400407963038
 0.0017376897198438479 0.013432490931106546 -0.0015323625862751007 -0.008789944163029586 0.006148492948838053 0.032513831555240576 0.9922502196985834 -0.07559341413193676
 -0.0015334722372649396 -0.008789865712639079 0.0017971298419857396 0.013424400407963038 0.9922502196985834 -0.07559341413193676 0.0061397215442197456 0.03251427593506935
0.15631513130469998 0.006410319558753275 0.03380524248221374 0.9918807891264556 -0.07866427333651418 0.0018518272814170987 0.013975412600545986 -0.0016318342620846428 -0.009140815722272263
