! Created with skrf 1.8.0 (http://scikit-rf.org).
# GHz S RI R 50.0 
!freq ReS11 ImS11 ReS12 ImS12 ReS13 ImS13
! ReS14 ImS14
! ReS21 ImS21 ReS22 ImS22 ReS23 ImS23
! ReS24 ImS24
! ReS31 ImS31 ReS32 ImS32 ReS33 ImS33
! ReS34 ImS34
! ReS41 ImS41 ReS42 ImS42 ReS43 ImS43
! ReS44 ImS44
!
0.0 0.001310878157064 0.0 0.9986891218287 0.0 5.006226259457e-05 0.0 -5.006226238419e-05 6.1308589386873224e-21
 0.9986891218287 0.0 0.001310878157042 0.0 -5.006226238354e-05 6.1308589386077206e-21 5.006226259504e-05 0.0
 5.006226259457e-05 0.0 -5.006226238354e-05 6.1308589386077206e-21 0.001310878164151 0.0 0.9986891218358 0.0
 -5.006226238419e-05 6.1308589386873224e-21 5.006226259504e-05 0.0 0.9986891218358 0.0 0.001310878164165 0.0
0.005 0.0014098037379785152 0.0010748445257929239 0.9985640863957997 -0.0027465716219877436 6.940265321366054e-05 0.0005393305525489666 -6.762132260739946e-05 -0.0003407571809721204
 0.9985640863957997 -0.0027465716219877436 0.001409783021524256 0.001074856660248181 -6.76195762010569e-05 -0.00034075592047010133 6.953469930689558e-05 0.0005392803836611488
 6.940265321366054e-05 0.0005393305525489666 -6.76195762010569e-05 -0.00034075592047010133 0.001409804550787114 0.0010749113554875192 0.9985640867351372 -0.0027465045659177943
 -6.762132260739946e-05 -0.0003407571809721204 6.953469930689558e-05 0.0005392803836611488 0.9985640867351372 -0.0027465045659177943 0.0014097828852338578 0.0010749239409242732
0.006252605252188 0.0014355814349574776 0.001347798317154802 0.9985313332865536 -0.0034339120230728413 7.48071700478374e-05 0.0006744425368161767 -7.249848087676966e-05 -0.00042639395161112644
 0.9985313332865536 -0.0034339120230728413 0.0014355490510731233 0.0013478137344487128 -7.249576263938084e-05 -0.00042639239862499455 7.501348306482933e-05 0.0006743774292694251
 7.48071700478374e-05 0.0006744425368161767 -7.249576263938084e-05 -0.00042639239862499455 0.0014355826281795211 0.0013478818644997654 0.998531333740121 -0.0034338281984100504
 -7.249848087676966e-05 -0.00042639395161112644 7.501348306482933e-05 0.0006743774292694251 0.998531333740121 -0.0034338281984100504 0.0014355487615166865 0.0013478978323713448
0.01250521050438 0.0015703051903627177 0.002724007681731177 0.9983591884185257 -0.006868775286172555 0.00010516380702064494 0.0013493558634822351 -9.973907580285584e-05 -0.0008549495622865704
 0.9983591884185257 -0.006868775286172555 0.0015701758757277631 0.002724041022787116 -9.972835480627916e-05 -0.0008549467025643646 0.0001059866107443864 0.0013492000529316652
 0.00010516380702064494 0.0013493558634822351 -9.972835480627916e-05 -0.0008549467025643646 0.0015703093855599258 0.002724174572811546 0.9983591896695209 -0.006868607888470767
 -9.973907580285584e-05 -0.0008549495622865704 0.0001059866107443864 0.0013492000529316652 0.9983591896695209 -0.006868607888470767 0.0015701741659141482 0.002724208888099533
0.01875781575657 0.001715307711187594 0.004120034165063991 0.9981724987420466 -0.010312983435726833 0.00014119868340075297 0.00202520231691465 -0.0001318599753465808 -0.0012850883663327766
 0.9981724987420466 -0.010312983435726833 0.0017150171264028128 0.004120088102173655 -0.00013183605441463968 -0.0012850844896665889 0.00014304720572325347 0.002024925789154163
 0.00014119868340075297 0.00202520231691465 -0.00013183605441463968 -0.0012850844896665889 0.0017153166975293595 0.004120284337514031 0.9981725011308842 -0.010312732553617296
 -0.0001318599753465808 -0.0012850883663327766 0.00014304720572325347 0.002024925789154163 0.9981725011308842 -0.010312732553617296 0.001715012875578162 0.0041203395578631565
0.02501042100875 0.0018708415484858176 0.005533965390331148 0.9979710693340262 -0.013768241991028362 0.0001829784899956021 0.002702031871962689 -0.00016893528234418974 -0.0017166406409237533
 0.9979710693340262 -0.013768241991028362 0.0018703254811266638 0.005534042739536637 -0.00016889302156183802 -0.0017166360857399005 0.00018626225235067768 0.0027016003748267826
 0.0001829784899956021 0.002702031871962689 -0.00016889302156183802 -0.0017166360857399005 0.0018708571035208983 0.005534298796942385 0.9979710732035711 -0.013767907677212988
 -0.00016893528234418974 -0.0017166406409237533 0.00018626225235067768 0.0027016003748267826 0.9979710732035711 -0.013767907677212988 0.001870317580694592 0.005534377633800301
0.03126302626094 0.002037148633414696 0.0069648356893572 0.9977546941184581 -0.01723530314666634 0.0002305703052678286 0.0033798345150188665 -0.00021103739871812402 -0.002149493136815765
 0.9977546941184581 -0.01723530314666634 0.002036342965532385 0.006964939405732512 -0.00021097170538127207 -0.002149488290908345 0.00023569951863575115 0.0033792095352355284
 0.0002305703052678286 0.0033798345150188665 -0.00021097170538127207 -0.002149488290908345 0.002037172521327563 0.006965252284166731 0.9977546998113852 -0.01723488543191671
 -0.00021103739871812402 -0.002149493136815765 0.00023569951863575115 0.0033792095352355284 0.9977546998113852 -0.01723488543191671 0.0020363303148594187 0.0069653575976692085
0.037515631513130004 0.0022144658674471372 0.00841202942786741 0.9975231615832988 -0.020714562394330116 0.0002840411060919105 0.004058576844873591 -0.0002582375352909904 -0.0025835524794850097
 0.9975231615832988 -0.020714562394330116 0.0022133065548879632 0.008412162603032864 -0.00025814335877890986 -0.002583547780308561 0.0002914268582895207 0.004057715564223191
 0.0002840411060919105 0.004058576844873591 -0.00025814335877890986 -0.002583547780308561 0.0022144998391689166 0.00841252915667682 0.997523169441412 -0.02071406129686512
 -0.0002582375352909904 -0.0025835524794850097 0.0002914268582895207 0.004057715564223191 0.997523169441412 -0.02071406129686512 0.002213288060012311 0.008412663953048346
0.043768236765320004 0.002403027290902105 0.009875099429973146 0.9972762570713483 -0.02420624003964205 0.0003434575341260487 0.004738213200974775 -0.0003106059066706864 -0.003018734033992901
 0.9972762570713483 -0.02420624003964205 0.0024014503470590263 0.00987526529034775 -0.0003104782353833126 -0.0030187299688187344 0.00035351188801327634 0.004737068445944039
 0.0003434575341260487 0.004738213200974775 -0.0003104782353833126 -0.0030187299688187344 0.002403073085753289 0.009875682226125622 0.9972762674375226 -0.024205655569276757
 -0.0003106059066706864 -0.003018734033992901 0.00035351188801327634 0.004737068445944039 0.9972762674375226 -0.024205655569276757 0.002401424921628241 0.009875849655859798
0.050020842017509996 0.0026030650967501213 0.011353691925717068 0.9970137639179599 -0.02771045619397719 0.0004088857591947403 0.00541869025225478 -0.0003682118074498749 -0.0034549573076127
 0.9970137639179599 -0.02771045619397719 0.0026010065792919502 0.011353893831222563 -0.000368045666922856 -0.003454954413647013 0.0004220218036495069 0.005417210440927335
 0.0004088857591947403 0.00541869025225478 -0.000368045666922856 -0.003454954413647013 0.002603124443138148 0.011354357715689399 0.9970137771368667 -0.027709788346325082
 -0.0003682118074498749 -0.0034549573076127 0.0004220218036495069 0.005417210440927335 0.9970137771368667 -0.027709788346325082 0.0026009731440017865 0.011354561072294028
0.055454545454549996 0.00278640357822597 0.012651007948523762 0.9967728202374389 -0.03076595422041419 0.00047067814739289757 0.006010682661316891 -0.0004225797416151096 -0.0038348334770731693
 0.9967728202374389 -0.03076595422041419 0.002783874654847272 0.01265124400995504 -0.00042237615811621025 -0.003834832076051618 0.00048682856742186456 0.00600886632037076
 0.00047067814739289757 0.006010682661316891 -0.00042237615811621025 -0.003834832076051618 0.00278647609565972 0.012651745789399137 0.9967728362155233 -0.030765213908942452
 -0.0004225797416151096 -0.0038348334770731693 0.00048682856742186456 0.00600886632037076 0.9967728362155233 -0.030765213908942452 0.0027838333866483174 0.012651983152637282
0.056273447269699996 0.002814810164919601 0.01284750972717022 0.9967354641110521 -0.031227267537692876 0.0004803913811726442 0.006099949251259852 -0.0004311236393325879 -0.0038921436874410496
 0.9967354641110521 -0.031227267537692876 0.0028122061634696513 0.012847751170269083 -0.0004309140908975748 -0.0038921425519161325 0.0004970232540979011 0.006098078338887524
 0.0004803913811726442 0.006099949251259852 -0.0004309140908975748 -0.0038921425519161325 0.0028148847792020325 0.012848258420574955 0.9967354805275835 -0.03122651630409851
 -0.0004311236393325879 -0.0038921436874410496 0.0004970232540979011 0.006098078338887524 0.9967354805275835 -0.03122651630409851 0.002812163644760213 0.012848501139641085
0.06252605252188 0.0030384923557191163 0.0143562919724612 0.9964411387111601 -0.0347566875160002 0.000558039353622875 0.006781927266691462 -0.0004994089106491376 -0.00433021520073141
 0.9964411387111601 -0.0347566875160002 0.003035278980642671 0.014356576577573768 -0.0004991510505928179 -0.00433021646097906 0.0005785822462615367 0.0067796046905404155
 0.000558039353622875 0.006781927266691462 -0.0004991510505928179 -0.00433021646097906 0.0030385839434095186 0.01435712346514039 0.9964411586724305 -0.03475585288025606
 -0.0004994089106491376 -0.00433021520073141 0.0005785822462615367 0.0067796046905404155 0.9964411586724305 -0.03475585288025606 0.0030352263110668292 0.014357409123758644
0.06877865777407 0.003274340679116639 0.01587980204856283 0.9961305681511915 -0.03829869835766422 0.0006418939173548587 0.00746455791936428 -0.0005731342219180485 -0.004769093773253536
 0.9961305681511915 -0.03829869835766422 0.0032704540507073605 0.015880133571600213 -0.00057282318089999 -0.00476909811676978 0.0006667640657364324 0.0074617185432584365
 0.0006418939173548587 0.00746455791936428 -0.00057282318089999 -0.00476909811676978 0.003274450934117218 0.015880716221937104 0.9961305920051485 -0.03829778029648098
 -0.0005731342219180485 -0.004769093773253536 0.0006667640657364324 0.0074617185432584365 0.9961305920051485 -0.03829778029648098 0.003270390167678767 0.01588104853840806
0.07503126302626001 0.0035225833848913234 0.017417819937481042 0.9958035324576328 -0.041853258671583085 0.0007320185412501678 0.008147771845009033 -0.0006523652413889585 -0.005208700762540443
 0.9958035324576328 -0.041853258671583085 0.0035179596228584113 0.017418202265799054 -0.0006519961840694952 -0.0052087089270467166 0.0007616332079301187 0.008144345903778098
 0.0007320185412501678 0.008147771845009033 -0.0006519961840694952 -0.0052087089270467166 0.003522713990277861 0.0174188166576253 0.9958035605543406 -0.04185225715544264
 -0.0006523652413889585 -0.005208700762540443 0.0007616332079301187 0.008144345903778098 0.9958035605543406 -0.04185225715544264 0.003517883468958454 0.01741919949138341
0.08128386827845 0.003783448009392262 0.018970137116262522 0.9954598114316242 -0.045420308491672605 0.0008284758665010641 0.008831497004662856 -0.0007371666748513316 -0.005648956645447456
 0.9954598114316242 -0.045420308491672605 0.003778023222424689 0.01897057426882442 -0.0007367347996281479 -0.005648969418943804 0.0008632533149876515 0.008827410048630753
 0.0008284758665010641 0.008831497004662856 -0.0007367347996281479 -0.005648969418943804 0.0037836006367870816 0.018971216238619682 0.9954598441230951 -0.0454192234798915
 -0.0007371666748513316 -0.005648956645447456 0.0008632533149876515 0.008827410048630753 0.9954598441230951 -0.0454192234798915 0.003777933744690843 0.018971653590536663
0.08753647353064001 0.004057161387889772 0.02053655304047455 0.9950991847982038 -0.048999772740325166 0.0009313276531887306 0.00951565889773092 -0.00082760223123836 -0.006089780805030999
 0.9950991847982038 -0.048999772740325166 0.004050871663557391 0.020537049168243667 -0.0008271027702205227 -0.006089799025830679 0.0009716871164189066 0.009510831737407077
 0.0009313276531887306 0.00951565889773092 -0.0008271027702205227 -0.006089799025830679 0.0040573376979459955 0.020537714398551787 0.9950992224386241 -0.04899860419220379
 -0.00082760223123836 -0.006089780805030999 0.0009716871164189066 0.009510831737407077 0.9950992224386241 -0.04899860419220379 0.00405076781282604 0.02053821041147034
0.09378907878283 0.0043439496473241974 0.022116872612265158 0.9947214323371495 -0.05259156370937922 0.001040634728700297 0.010200180715273989 -0.0009237345849581594 -0.006531091379337654
 0.9947214323371495 -0.05259156370937922 0.0043367310416841135 0.022117431998913605 -0.0009231628038919168 -0.0065311159361107285 0.0010869963725320376 0.010194529366276706
 0.001040634728700297 0.010200180715273989 -0.0009231628038919168 -0.0065311159361107285 0.004344151289583008 0.02211811602803698 0.9947214752831464 -0.05259031157373275
 -0.0009237345849581594 -0.006531091379337654 0.0010869963725320376 0.010194529366276706 0.9947214752831464 -0.05259031157373275 0.004336611772630055 0.022118674987540977
0.100041684035 0.004644038183248603 0.023710904338771023 0.9943263340015464 -0.05619558285330318 0.0011564569367492929 0.01088498345432356 -0.0010256253359155517 -0.006972805151346774
 0.9943263340015464 -0.05619558285330318 0.004635826710710546 0.023711531401746685 -0.0010249765342867252 -0.0069728369831446296 0.0012092418195935345 0.010878419082641843
 0.0011564569367492929 0.01088498345432356 -0.0010249765342867252 -0.0069728369831446296 0.004644266796124117 0.02371222961574124 0.9943263826121718 -0.056194247075199655
 -0.0010256253359155517 -0.006972805151346774 0.0012092418195935345 0.010878419082641843 0.9943263826121718 -0.056194247075199655 0.004635690981116623 0.023712855951362896
0.1059090909091 0.004937936009393877 0.02521903646167665 0.9939396044684827 -0.05958859784398563 0.0012711216365655312 0.011527781462409018 -0.0011265300909974606 -0.0073875979937461245
 0.9939396044684827 -0.05958859784398563 0.004928734596335777 0.025219731169567407 -0.0011258047688268884 -0.007387637551337036 0.001330317752042426 0.011520275154512104
 0.0012711216365655312 0.011527781462409018 -0.0011258047688268884 -0.007387637551337036 0.004938191411675817 0.025220438365034698 0.9939396587243383 -0.059587183519389075
 -0.0011265300909974606 -0.0073875979937461245 0.001330317752042426 0.011520275154512104 0.9939396587243383 -0.059587183519389075 0.004928582475063696 0.025221132084027473
0.1062942892872 0.004957651625014017 0.02531845893412934 0.9939136700256821 -0.059811722141231136 0.0012788530871679132 0.01156998600344289 -0.001133334967911878 -0.007414837469964037
 0.9939136700256821 -0.059811722141231136 0.004948383248113167 0.025319158225884056 -0.0011326044790566847 -0.00741487756623913 0.0013384831156655007 0.01156241487113309
 0.0012788530871679132 0.01156998600344289 -0.0011326044790566847 -0.00741487756623913 0.004957908835821572 0.025319865861720445 0.9939137246632528 -0.05981030265746382
 -0.001133334967911878 -0.007414837469964037 0.0013384831156655007 0.01156241487113309 0.9939137246632528 -0.05981030265746382 0.004948230018621378 0.025320564148299654
0.11254689453939999 0.005285013792976644 0.026939348256230858 0.9934832210280069 -0.0634398650767727 0.0014078809059826004 0.012255105211595372 -0.0012469228053028328 -0.007857102190059247
 0.9934832210280069 -0.0634398650767727 0.0052746244117229 0.026940124465875116 -0.0012461059965548304 -0.007857151590684182 0.0014747787877262583 0.012246428622877404
 0.0014078809059826004 0.012255105211595372 -0.0012461059965548304 -0.007857151590684182 0.005285301217857773 0.026940836605686233 0.9934832820577782 -0.06343836181990811
 -0.0012469228053028328 -0.007857102190059247 0.0014747787877262583 0.012246428622877404 0.9934832820577782 -0.06343836181990811 0.005274452645635053 0.026941611565122568
0.11879949979160001 0.005626347648567556 0.028573384473092812 0.9930347681088929 -0.0670798874911369 0.0015435969855667735 0.012940255943233876 -0.0013664469686268856 -0.00829951162870087
 0.9930347681088929 -0.0670798874911369 0.005614773090370566 0.02857424242829262 -0.0013655392416102652 -0.008299571423960213 0.0016181861789104374 0.012930370191159953
 0.0015435969855667735 0.012940255943233876 -0.0013655392416102652 -0.008299571423960213 0.005626666892249995 0.028574954000049474 0.9930348358991211 -0.06707830038672322
 -0.0013664469686268856 -0.00829951162870087 0.0016181861789104374 0.012930370191159953 0.9930348358991211 -0.06707830038672322 0.005614581752447363 0.02857581050340248
0.1250521050438 0.005981875238742546 0.030220379402222924 0.9925680929443483 -0.07073165816588672 0.0016860567349672362 0.013625351123072355 -0.0014919643291743695 -0.008741976534201817
 0.9925680929443483 -0.07073165816588672 0.005969051247643835 0.030221324071422435 -0.001490961119981841 -0.008742047864801972 0.0017687613963257855 0.013614147436692044
 0.0016860567349672362 0.013625351123072355 -0.001490961119981841 -0.008742047864801972 0.005982227894774941 0.030222029846129376 0.9925681678671695 -0.07072998713297682
 -0.0014919643291743695 -0.008741976534201817 0.0017687613963257855 0.013614147436692044 0.9925681678671695 -0.07072998713297682 0.005968839304667044 0.03022297291596942
0.131304710296 0.006351817636498547 0.03188014398200943 0.992082977879178 -0.07439503932681671 0.0018353143302335688 0.014310301776552854 -0.0016235304626948882 -0.009184406062010106
 0.992082977879178 -0.07439503932681671 0.006337679862895969 0.031881180477025546 -0.001622427242246791 -0.009184490119047792 0.0019265592587768342 0.014297666268744406
 0.0018353143302335688 0.014310301776552854 -0.001622427242246791 -0.009184490119047792 0.00635220528708937 0.03188187506431173 0.9920830603100891 -0.07439328427965566
 -0.0016235304626948882 -0.009184406062010106 0.0019265592587768342 0.014297666268744406 0.9920830603100891 -0.07439328427965566 0.006337446282476886 0.03188290987746771
0.1375573155481 0.006646202632736534 0.03333617056381588 0.9916694266809125 -0.07785348600996896 0.0019705571613730386 0.01497288210668705 -0.0017402292003079719 -0.009604656702451586
 0.9916694266809125 -0.07785348600996896 0.006630682476588322 0.033337280731181786 -0.0017390195505350842 -0.009604753456856104 0.0020705523164716642 0.014958844003647572
 0.0019705571613730386 0.01497288210668705 -0.0017390195505350842 -0.009604753456856104 0.006646627816952649 0.03333798149754229 0.9916695169591337 -0.0778516469169635
 -0.0017402292003079719 -0.009604656702451586 0.0020705523164716642 0.014958844003647572 0.9916695169591337 -0.0778516469169635 0.006630425337248015 0.033339091075552545
0.1438099208003 0.006950766689085812 0.03478545336507948 0.9912416833713238 -0.08130409711148441 0.002111242784355161 0.01563336503667667 -0.001861605430213163 -0.01002292934833104
 0.9912416833713238 -0.08130409711148441 0.006933799032218788 0.03478664081425759 -0.001860284531432034 -0.01002303995253015 0.002220374976688755 0.015617821291273837
 0.002111242784355161 0.01563336503667667 -0.001860284531432034 -0.01002303995253015 0.006951231146823627 0.03478734380352349 0.9912417818701516 -0.08130217389115847
 -0.001861605430213163 -0.01002292934833104 0.002220374976688755 0.015617821291273837 0.9912417818701516 -0.08130217389115847 0.006933517142168129 0.034788531945535564
0.1500625260525 0.007265414780775672 0.036227898591651625 0.9907998462168734 -0.0847468147661465 0.0022573287685309813 0.01629170284356451 -0.0019876168653459644 -0.010439176177869268
 0.9907998462168734 -0.0847468147661465 0.00724693439083815 0.03622916713808858 -0.001986179908300358 -0.010439301830038284 0.0023759829187479367 0.01627454666979654
 0.0022573287685309813 0.01629170284356451 -0.001986179908300358 -0.010439301830038284 0.007265920252689166 0.036229868172381025 0.9907999533125851 -0.08474480733386588
 -0.0019876168653459644 -0.010439176177869268 0.0023759829187479367 0.01627454666979654 0.9907999533125851 -0.08474480733386588 0.007246626548709135 0.036231138895181154
0.15631513130469998 0.00759005135088724 0.037663415419448065 0.9903440138283179 -0.08818158078797146 0.002408772263520905 0.01694784851145145 -0.0021182207728385927 -0.010853350292490559
