! Created with skrf 1.8.0 (http://scikit-rf.org).
# GHz S RI R 50.0 
!freq ReS11 ImS11 ReS12 ImS12 ReS13 ImS13
! ReS14 ImS14
! ReS21 ImS21 ReS22 ImS22 ReS23 ImS23
! ReS24 ImS24
! ReS31 ImS31 ReS32 ImS32 ReS33 ImS33
! ReS34 ImS34
! ReS41 ImS41 ReS42 ImS42 ReS43 ImS43
! ReS44 ImS44
!
0.0 0.001848572157222 0.0 0.9981514278427 0.0 7.180387950473e-05 0.0 -7.18038787925e-05 8.793439032959964e-21
 0.9981514278427 0.0 0.001848572157242 0.0 -7.180387879396e-05 8.793439033138763e-21 7.180387950285e-05 0.0
 7.180387950473e-05 0.0 -7.180387879396e-05 8.793439033138763e-21 0.001848572152996 0.0 0.9981514278384 0.0
 -7.18038787925e-05 8.793439032959964e-21 7.180387950285e-05 0.0 0.9981514278384 0.0 0.00184857215294 0.0
0.005 0.001989949123756382 0.0015114188358878583 0.9979723816097912 -0.0038711816521389652 0.00010122866385810122 0.000790340896944928 -9.819627787414078e-05 -0.0004960359516351746
 0.9979723816097912 -0.0038711816521389652 0.0019899705526659883 0.0015114062607376364 -9.819283342688161e-05 -0.0004960332867876902 0.00010110969918120658 0.0007903862996440054
 0.00010122866385810122 0.000790340896944928 -9.819283342688161e-05 -0.0004960332867876902 0.0019899513899896554 0.0015114847457995855 0.9979723819944026 -0.003871114596295836
 -9.819627787414078e-05 -0.0004960359516351746 0.00010110969918120658 0.0007903862996440054 0.9979723819944026 -0.003871114596295836 0.001989969050531492 0.0015114744592900338
0.006252605252188 0.0020273397359245023 0.0018951746730420376 0.9979246790001828 -0.004839872919958954 0.00010981512063837318 0.000988288320721316 -0.00010579139493675685 -0.0006206668525324049
 0.9979246790001828 -0.004839872919958954 0.0020273732338530683 0.0018951587090898136 -0.00010578603532846446 -0.0006206635677559372 0.00010962925271601588 0.000988347320426895
 0.00010981512063837318 0.000988288320721316 -0.00010578603532846446 -0.0006206635677559372 0.0020273431994616634 0.0018952570463237014 0.9979246795220696 -0.004839789106727129
 -0.00010579139493675685 -0.0006206668525324049 0.00010962925271601588 0.000988347320426895 0.9979246795220696 -0.004839789106727129 0.002027370805737985 0.0018952439547061395
0.01250521050438 0.002225986113398676 0.003829571437502335 0.9976693393449545 -0.009680167382256204 0.00016000576248140837 0.0019767788204026774 -0.00014965480109731377 -0.0012441305113741494
 0.9976693393449545 -0.009680167382256204 0.0022261198790375744 0.003829537005050771 -0.0001496336824904331 -0.001244124456689273 0.00015926463461418054 0.001976921360681331
 0.00016000576248140837 0.0019767788204026774 -0.0001496336824904331 -0.001244124456689273 0.0022259994047498797 0.0038297358473133956 0.9976693408857511 -0.00967999998545545
 -0.00014965480109731377 -0.0012441305113741494 0.00015926463461418054 0.001976921360681331 0.9976693408857511 -0.00967999998545545 0.002226109632064084 0.0038297073145222293
0.01875781575657 0.002445009649285741 0.0057909451939095295 0.9973850460067374 -0.01453258442318454 0.00022250076855509358 0.00296607725044632 -0.00020354179179128123 -0.0018694444534085766
 0.9973850460067374 -0.01453258442318454 0.0024453102443864148 0.005790889519356119 -0.00020349470227288478 -0.0018694362601042879 0.00022083608309013178 0.002966333377069991
 0.00022250076855509358 0.00296607725044632 -0.00020349470227288478 -0.0018694362601042879 0.0024450391021740665 0.005791191348256817 0.9973850490487122 -0.01453233353784801
 -0.00020354179179128123 -0.0018694444534085766 0.00022083608309013178 0.002966333377069991 0.9973850490487122 -0.01453233353784801 0.0024452867814632865 0.005791144875440633
0.02501042100875 0.002684889838974541 0.007776466943670067 0.9970714201982152 -0.01939939095787644 0.0002974266399912849 0.003956167370876147 -0.00026759378857887516 -0.0024962744345999634
 0.9970714201982152 -0.01939939095787644 0.0026854237060779038 0.007776387007415398 -0.00026751064164010275 -0.00249626486051462 0.0002944701100421745 0.003956572477332452
 0.0002974266399912849 0.003956167370876147 -0.00026751064164010275 -0.00249626486051462 0.0026849417786343997 0.00777679451877906 0.9970714252241156 -0.019399056623347653
 -0.00026759378857887516 -0.0024962744345999634 0.0002944701100421745 0.003956572477332452 0.9970714252241156 -0.019399056623347653 0.0026853816307795884 0.007776727475596303
0.03126302626094 0.0029460860597504772 0.009784638070516589 0.9967280664186303 -0.024281505509606983 0.000384909491981306 0.004946940552851607 -0.00034194713917409374 -0.0031243688742746793
 0.9967280664186303 -0.024281505509606983 0.002946919560907225 0.009784530610026152 -0.00034181795317164693 -0.003124358804872849 0.00038029252543862686 0.004947535411665386
 0.000384909491981306 0.004946940552851607 -0.00034181795317164693 -0.003124358804872849 0.0029461668099346893 0.009785046674638892 0.9967280739173996 -0.024281087745066033
 -0.00034194713917409374 -0.0031243688742746793 0.00038029252543862686 0.004947535411665386 0.9967280739173996 -0.024281087745066033 0.0029468534799443054 0.009784956303158015
0.037515631513130004 0.0032290467551095805 0.011814449042867116 0.9963545820869073 -0.02917933946038494 0.0004850737015095142 0.0059382508015718505 -0.00042673405400505483 -0.0037535038794051993
 0.9963545820869073 -0.02917933946038494 0.0032302461985212866 0.01181431055339811 -0.00042654894183671356 -0.0037534943280513452 0.0004784272747832063 0.005939081615266956
 0.0004850737015095142 0.0059382508015718505 -0.00042654894183671356 -0.0037534943280513452 0.003229162631764386 0.011814938216262932 0.9963545925472579 -0.02917883826410566
 -0.00042673405400505483 -0.0037535038794051993 0.0004784272747832063 0.005939081615266956 0.9963545925472579 -0.02917883826410566 0.0032301507135891853 0.011814821632725543
0.043768236765320004 0.0035342129439026753 0.013865123423695124 0.9959505615038 -0.03409305298181563 0.0005980412394561388 0.006929931518364067 -0.0005220829135533005 -0.004383466536841289
 0.9959505615038 -0.03409305298181563 0.003535844605323496 0.01386495015760117 -0.0005218320766922527 -0.004383458644803226 0.0005889958530366169 0.006931049976250636
 0.0005980412394561388 0.006929931518364067 -0.0005218320766922527 -0.004383458644803226 0.003534370257204423 0.013865692628040398 0.9959505754168974 -0.03409246834078939
 -0.0005220829135533005 -0.004383466536841289 0.0005889958530366169 0.006931049976250636 0.9959505754168974 -0.03409246834078939 0.0035357143145102357 0.013865546823780354
0.050020842017509996 0.0038620198233580883 0.015936012079650484 0.9955155979140214 -0.03902266076724588 0.0007239312530938765 0.00792180243062669 -0.0006281183432849379 -0.005014048045395366
 0.9955155979140214 -0.03902266076724588 0.0038641499649108278 0.01593580004495336 -0.0006277920681448926 -0.005014043081781071 0.0007121169302897726 0.007923265767706406
 0.0007239312530938765 0.00792180243062669 -0.0006277920681448926 -0.005014043081781071 0.003862224876700198 0.0159366606997804 0.9955156157730899 -0.039021992654354416
 -0.0006281183432849379 -0.005014048045395366 0.0007121169302897726 0.007923265767706406 0.9955156157730899 -0.039021992654354416 0.003863979461223605 0.01593648254142317
0.055454545454549996 0.004165615150712088 0.017751646616570912 0.9951121560940144 -0.04331948787152504 0.0008439183022819338 0.008783775029559465 -0.0007290390997394289 -0.005562383497396069
 0.9951121560940144 -0.04331948787152504 0.004168232302187895 0.01775139745741618 -0.000728639441991651 -0.005562382208551188 0.0008293968722517406 0.008785588910781681
 0.0008439183022819338 0.008783775029559465 -0.000728639441991651 -0.005562382208551188 0.004165866805745909 0.017752363694457953 0.995112177785805 -0.043318747183005275
 -0.0007290390997394289 -0.005562383497396069 0.0008293968722517406 0.008785588910781681 0.995112177785805 -0.043318747183005275 0.004168022458090167 0.017752154777435553
0.056273447269699996 0.004212897556435505 0.01802654126221743 0.9950492847590823 -0.04396808389783428 0.0008628597520979577 0.008913673028430824 -0.0007449611912338988 -0.005645040350237275
 0.9950492847590823 -0.04396808389783428 0.004215592444197332 0.018026286220434996 -0.0007445498467912146 -0.005645039711887989 0.0008479060650891097 0.008915544084913771
 0.0008628597520979577 0.008913673028430824 -0.0007445498467912146 -0.005645039711887989 0.004213156646893864 0.01802726860849724 0.9950493070612895 -0.04396733226848518
 -0.0007449611912338988 -0.005645040350237275 0.0008479060650891097 0.008915544084913771 0.9950493070612895 -0.04396733226848518 0.004215376316742333 0.018027054837378292
0.06252605252188 0.004587271660057675 0.020136184089263452 0.9945512165376202 -0.04892917831698802 0.0010149393527048845 0.009905344452312196 -0.0008727284506318578 -0.006276234335940059
 0.9945512165376202 -0.04892917831698802 0.004590597580581862 0.020135881552518442 -0.0008722224869693854 -0.006276239547301695 0.0009964754656872482 0.009907691732960163
 0.0010149393527048845 0.009905344452312196 -0.0008722224869693854 -0.006276239547301695 0.004587591077182302 0.02013698938389237 0.9945512437840427 -0.0489283431219174
 -0.0008727284506318578 -0.006276234335940059 0.0009964754656872482 0.009907691732960163 0.9945512437840427 -0.0489283431219174 0.004590330413935168 0.02013673661487546
0.06877865777407 0.004985563172964192 0.02226444352898007 0.9940209894505653 -0.053905751812910956 0.0011802790497908364 0.010896610653176375 -0.0010115331549803716 -0.006907418757823581
 0.9940209894505653 -0.053905751812910956 0.004989586449508086 0.022264088756454036 -0.001010923102441652 -0.00690743147079888 0.0011579337752413278 0.010899508386052494
 0.0011802790497908364 0.010896610653176375 -0.001010923102441652 -0.00690743147079888 0.004985949197248887 0.022265325916830413 0.9940210221461675 -0.05390483298625628
 -0.0010115331549803716 -0.006907418757823581 0.0011579337752413278 0.010899508386052494 0.9940210221461675 -0.05390483298625628 0.00498926282290064 0.022265030636469483
0.07503126302626001 0.00540818869049642 0.024410841649769317 0.9934582019195031 -0.058897574746604404 0.0013589840080026584 0.011887259140770847 -0.0011614842544542905 -0.007538379595665001
 0.9934582019195031 -0.058897574746604404 0.005412975699015635 0.02441042964342948 -0.0011607607232311907 -0.007538401589444974 0.001332385872574976 0.011890787335083955
 0.0013589840080026584 0.011887259140770847 -0.0011607607232311907 -0.007538401589444974 0.005408647593827321 0.024411800191398207 0.9934582405748487 -0.05889657221198303
 -0.0011614842544542905 -0.007538379595665001 0.001332385872574976 0.011890787335083955 0.9934582405748487 -0.05889657221198303 0.005412590187438481 0.02441145875542501
0.08128386827845 0.005855560320127278 0.026574912469383833 0.9928624550310258 -0.06390438719299577 0.001551155364339662 0.012877071507988487 -0.0013226864808707625 -0.00816889964275858
 0.9928624550310258 -0.06390438719299577 0.005861177504807841 0.026574437969131635 -0.0013218401608419874 -0.008168932823648552 0.0015199326823757146 0.01288131601081697
 0.001551155364339662 0.012877071507988487 -0.0013218401608419874 -0.008168932823648552 0.00585609836294948 0.026575946138233237 0.9928625001612015 -0.0639033008653732
 -0.0013226864808707625 -0.00816889964275858 0.0015199326823757146 0.01288131601081697 0.9928625001612015 -0.0639033008653732 0.005860724677785606 0.026575554768304612
0.08753647353064001 0.006328085578817371 0.028756197014202033 0.9922333529274792 -0.06892590388494091 0.0017568900385289772 0.01386582381389853 -0.0014952402047453777 -0.008798758247919678
 0.9922333529274792 -0.06892590388494091 0.006334599467511266 0.02875565449219169 -0.0014942618656288067 -0.008798804649143985 0.0017206709919962268 0.013870876365615974
 0.0017568900385289772 0.01386582381389853 -0.0014942618656288067 -0.008798804649143985 0.006328709010527773 0.028757304701174425 0.9922334050540833 -0.06892473366520066
 -0.0014952402047453777 -0.008798758247919678 0.0017206709919962268 0.013870876365615974 0.9922334050540833 -0.06892473366520066 0.006334073890459741 0.02875685948099526
0.09378907878283 0.006826167255002114 0.03095423982446219 0.9915705031673531 -0.07396181772478853 0.0019762805490121213 0.014853286880697083 -0.0016792412870976665 -0.009427731155363706
 0.9915705031673531 -0.07396181772478853 0.006833644474926068 0.03095362347881407 -0.0016781217787850368 -0.009427792936845153 0.0019346932727059107 0.014859245168961928
 0.0019762805490121213 0.014853286880697083 -0.0016781217787850368 -0.009427792936845153 0.006826882312088333 0.03095542033134867 0.9915705628183905 -0.07396056350541791
 -0.0016792412870976665 -0.009427731155363706 0.0019346932727059107 0.014859245168961928 0.9915705628183905 -0.07396056350541791 0.006833040708492839 0.03095491720197298
0.100041684035 0.007350203241520445 0.033168586386882096 0.990873517060488 -0.07901180238248535 0.002209414832829569 0.015839226535180672 -0.0018747809278593134 -0.010055590412103169
 0.990873517060488 -0.07901180238248535 0.007358710534476225 0.03316789013456424 -0.0018735111808486733 -0.010055669860239914 0.002162087504292273 0.015846194247317105
 0.002209414832829569 0.015839226535180672 -0.0018735111808486733 -0.010055669860239914 0.007351016145867055 0.03316983842936867 0.9908735847704766 -0.07901046404377299
 -0.0018747809278593134 -0.010055590412103169 0.002162087504292273 0.015846194247317105 0.9908735847704766 -0.07901046404377299 0.007358023134643817 0.033169273183807024
0.1059090909091 0.007865910575892955 0.035260938151268184 0.9901880802220538 -0.0837631687488361 0.002440760600381426 0.016762827999435737 -0.0020688453487112003 -0.010643550534675169
 0.9901880802220538 -0.0837631687488361 0.007875445299696164 0.03526016112526124 -0.002067426442407216 -0.010643648752957247 0.0023877087939028533 0.016770842640385534
 0.002440760600381426 0.016762827999435737 -0.002067426442407216 -0.010643648752957247 0.007866820944942779 0.03526225607360256 0.9901881559878974 -0.08376175135658921
 -0.0020688453487112003 -0.010643550534675169 0.0023877087939028533 0.016770842640385534 0.9901881559878974 -0.08376175135658921 0.007874674463968199 0.03526162857511839
0.1062942892872 0.007900586348946364 0.03539878123501692 0.9901420099871641 -0.08407551424037217 0.0024563760688312186 0.016823403815887105 -0.0020819455116174897 -0.010682104321974471
 0.9901420099871641 -0.08407551424037217 0.00791019058684203 0.035397998704002474 -0.0020805165376888896 -0.01068220384935182 0.002402937002466952 0.01683149068966068
 0.0024563760688312186 0.016823403815887105 -0.0020805165376888896 -0.01068220384935182 0.007901503307395015 0.03540010343871029 0.9901420862986501 -0.08407409165363468
 -0.0020819455116174897 -0.010682104321974471 0.002402937002466952 0.01683149068966068 0.9901420862986501 -0.08407409165363468 0.007909414105510892 0.03539947171576881
0.11254689453939999 0.008477704104092819 0.03764436649927875 0.9893756017064694 -0.08915259390311443 0.002717242504095035 0.01780557515498953 -0.0023008164518482387 -0.011307037437329191
 0.9893756017064694 -0.08915259390311443 0.008488472304084 0.037643491020007754 -0.0022992193446725404 -0.01130715958250175 0.002657320248845665 0.017814897027469627
 0.002717242504095035 0.01780557515498953 -0.0022992193446725404 -0.01130715958250175 0.00847873130661303 0.03764575739976411 0.9893756871699189 -0.0891510869298993
 -0.0023008164518482387 -0.011307037437329191 0.002657320248845665 0.017814897027469627 0.9893756871699189 -0.0891510869298993 0.008487601289087238 0.03764505467711155
0.11879949979160001 0.009081938536860772 0.03990488080660619 0.9885739166543721 -0.0942426673729821 0.002992087281988952 0.01878549254479087 -0.0025314700346746317 -0.011930150578736224
 0.9885739166543721 -0.0942426673729821 0.009093937876644682 0.03990390540253038 -0.002529695970733242 -0.011930298005853598 0.00292531072256119 0.018796171399452957
 0.002992087281988952 0.01878549254479087 -0.002529695970733242 -0.011930298005853598 0.00908308215498554 0.03990633885256118 0.9885740118288707 -0.09424107586127874
 -0.0025314700346746317 -0.011930150578736224 0.00292531072256119 0.018796171399452957 0.9885740118288707 -0.09424107586127874 0.009092966871946415 0.039905560438881056
0.1250521050438 0.009713665957481151 0.04217985842344305 0.987736584236257 -0.09934534699735607 0.0032809782731444315 0.019762903698695544 -0.00277397726219422 -0.012551200872905937
 0.987736584236257 -0.09934534699735607 0.009726963790766891 0.04217877580080986 -0.0027720175015390194 -0.012551376371458844 0.0032069767344994867 0.0197750677103965
 0.0032809782731444315 0.019762903698695544 -0.0027720175015390194 -0.012551376371458844 0.009714932143277817 0.04218138196964384 0.9877366896898994 -0.09934367078792412
 -0.00277397726219422 -0.012551200872905937 0.0032069767344994867 0.0197750677103965 0.9877366896898994 -0.09934367078792412 0.009725887336738657 0.04218052299609908
0.131304710296 0.01037325672785463 0.04446882858210547 0.98686323911306 -0.10446023224827163 0.0035839779088486586 0.02073755220082523 -0.003028403695933978 -0.013169941814782466
 0.98686323911306 -0.10446023224827163 0.010387920598923793 0.044467631119029294 -0.003026249583192915 -0.0131701482992167 0.003502381263347328 0.020751335778859164
 0.0035839779088486586 0.02073755220082523 -0.003026249583192915 -0.0131701482992167 0.010374651611867758 0.04447041589284582 0.9868633554239526 -0.10445847117077223
 -0.003028403695933978 -0.013169941814782466 0.003502381263347328 0.020751335778859164 0.9868633554239526 -0.10445847117077223 0.010386733232746415 0.044469471303606366
0.1375573155481 0.010920458259412867 0.046474000729313035 0.9860942143266284 -0.10928940557846376 0.003866343967014036 0.021680984331822497 -0.0032601100035381863 -0.013757884610478003
 0.9860942143266284 -0.10928940557846376 0.010936559462724286 0.04647270289189562 -0.003257748521966776 -0.013758122705392204 0.0037769652528853647 0.021696381804826376
 0.003866343967014036 0.021680984331822497 -0.003257748521966776 -0.013758122705392204 0.010921987272625874 0.046475650323075775 0.9860943419944174 -0.10928755957225064
 -0.0032601100035381863 -0.013757884610478003 0.0037769652528853647 0.021696381804826376 0.9860943419944174 -0.10928755957225064 0.010935256563049394 0.04647463682692687
0.1438099208003 0.011487200472374798 0.04846655749838003 0.9852975251111501 -0.11410424168361347 0.00416004075566905 0.02261923677608912 -0.0035009823517872813 -0.014341118316357617
 0.9852975251111501 -0.11410424168361347 0.01150480732740119 0.0484651527998042 -0.0034984041832667352 -0.014341390930735661 0.004062543602910688 0.022636372476752067
 0.00416004075566905 0.02261923677608912 -0.0034984041832667352 -0.014341390930735661 0.011488869592589698 0.04846826760838738 0.9852976647107377 -0.11410231059151414
 -0.0035009823517872813 -0.014341118316357617 0.004062543602910688 0.022636372476752067 0.9852976647107377 -0.11410231059151414 0.011503383577814925 0.04846718132603268
0.1500625260525 0.01207325007253126 0.050446271518695546 0.9844734099864748 -0.118904558364564 0.004464944696617372 0.02355217020048368 -0.003750901545743213 -0.014919514676113623
 0.9844734099864748 -0.118904558364564 0.012092431086848123 0.050444753087377496 -0.003748097401156522 -0.014919824836444004 0.004358995352155492 0.0235711729881651
 0.004464944696617372 0.02355217020048368 -0.003748097401156522 -0.014919824836444004 0.012075065249890621 0.050448040307093336 0.9844735621003867 -0.118902542025351
 -0.003750901545743213 -0.014919514676113623 0.004358995352155492 0.0235711729881651 0.9844735621003867 -0.118902542025351 0.012090881176990089 0.050446877079893475
0.15631513130469998 0.012678371707268597 0.05241292224196254 0.9836221091292509 -0.12369017553140073 0.004780930508320246 0.024479648162832497 -0.004009746712126907 -0.015492948592201877
 0.9836221091292509 -0.12369017553140073 0.012699195580856533 0.05241128281146038 -0.00400670733202026 -0.01549329944189374 0.0046661978845983 0.024500651365479097
