! Created with skrf 1.8.0 (http://scikit-rf.org).
# GHz S RI R 50.0 
!freq ReS11 ImS11 ReS12 ImS12 ReS13 ImS13
! ReS14 ImS14
! ReS21 ImS21 ReS22 ImS22 ReS23 ImS23
! ReS24 ImS24
! ReS31 ImS31 ReS32 ImS32 ReS33 ImS33
! ReS34 ImS34
! ReS41 ImS41 ReS42 ImS42 ReS43 ImS43
! ReS44 ImS44
!
0.0 0.001369364108768 0.0 0.9986306358912 0.0 5.23929446586e-05 0.0 -5.239294501315e-05 6.4162852408257425e-21
 0.9986306358912 0.0 0.001369364108756 0.0 -5.239294501328e-05 6.416285240841663e-21 5.239294465736e-05 0.0
 5.23929446586e-05 0.0 -5.239294501328e-05 6.416285240841663e-21 0.001369364094553 0.0 0.998630635877 0.0
 -5.239294501315e-05 6.4162852408257425e-21 5.239294465736e-05 0.0 0.998630635877 0.0 0.001369364094533 0.0
0.005 0.0014728480785392419 0.0011230595861866093 0.9984998105684845 -0.002868891480167933 7.269385399561826e-05 0.0005622852004909969 -7.080033592082691e-05 -0.00035562356683923387
 0.9984998105684845 -0.002868891480167933 0.001472837542107545 0.001123065673694715 -7.079812607904894e-05 -0.0003556218479532776 7.277436671540308e-05 0.0005622547043366392
 7.269385399561826e-05 0.0005622852004909969 -7.079812607904894e-05 -0.0003556218479532776 0.0014728496748309611 0.0011231258764810251 0.9984998109159383 -0.00286882442762962
 -7.080033592082691e-05 -0.00035562356683923387 7.277436671540308e-05 0.0005622547043366392 0.9984998109159383 -0.00286882442762962 0.0014728366397580963 0.0011231334887137148
0.006252605252188 0.0014998567188536298 0.001408249541369985 0.9984654769254743 -0.0035868358535580958 7.839885992956274e-05 0.0007031455416539932 -7.593303320377753e-05 -0.0004449934157686454
 0.9984654769254743 -0.0035868358535580958 0.0014998402488998642 0.0014082572535498734 -7.592959463712312e-05 -0.0004449912954715297 7.852465632027112e-05 0.000703105942064933
 7.839885992956274e-05 0.0007031455416539932 -7.592959463712312e-05 -0.0004449912954715297 0.001499859133941593 0.001408332397010917 0.9984654773879551 -0.003586752041165312
 -7.593303320377753e-05 -0.0004449934157686454 7.852465632027112e-05 0.000703105942064933 0.9984654773879551 -0.003586752041165312 0.0014998387574370884 0.001408342022924881
0.01250521050438 0.0016412667977376667 0.002846105541687798 0.9982846564164146 -0.00717459062132364 0.00011061604043240193 0.0014067550518789382 -0.00010470952530602365 -0.0008922131320753011
 0.9982846564164146 -0.00717459062132364 0.0016412010405337412 0.0028461219851896326 -0.00010469597548781299 -0.0008922091991437265 0.00011111776117429765 0.0014066600223939056
 0.00011061604043240193 0.0014067550518789382 -0.00010469597548781299 -0.0008922091991437265 0.0016412758793865046 0.00284627097064765 0.9982846576964378 -0.007174423228964002
 -0.00010470952530602365 -0.0008922131320753011 0.00011111776117429765 0.0014066600223939056 0.9982846576964378 -0.007174423228964002 0.0016411945127857144 0.0028462913400775103
0.01875781575657 0.0017938752129862986 0.004304583427429577 0.9980879693693046 -0.01077202197381362 0.0001491162028443077 0.002111301401745735 -0.00013880467662925162 -0.001341053042549699
 0.9980879693693046 -0.01077202197381362 0.0017937274709456344 0.004304609662577899 -0.00013877446123386508 -0.0013410476574819343 0.00015024344071194097 0.0021111323046755265
 0.0001491162028443077 0.002111301401745735 -0.00013877446123386508 -0.0013410476574819343 0.0017938952037762496 0.0043048312376665196 0.9980879718200286 -0.010771771111550494
 -0.00013880467662925162 -0.001341053042549699 0.00015024344071194097 0.0021111323046755265 0.9980879718200286 -0.010771771111550494 0.0017937123662022274 0.004304863571734962
0.02501042100875 0.0019579560365886733 0.005781676846292858 0.9978752034795821 -0.014380901884835423 0.00019397152549111674 0.0028168292893310572 -0.00017829863473500378 -0.0017913311586664974
 0.9978752034795821 -0.014380901884835423 0.001957693688906144 0.005781713961722598 -0.00017824527755308476 -0.0017913247415293973 0.00019597408686661762 0.002816564783467435
 0.00019397152549111674 0.0028168292893310572 -0.00017824527755308476 -0.0017913247415293973 0.0019579911829088327 0.005782006852149925 0.9978752074599194 -0.014380567625921131
 -0.00017829863473500378 -0.0017913311586664974 0.00019597408686661762 0.002816564783467435 0.9978752074599194 -0.014380567625921131 0.001957666473096643 0.005782052459095656
0.03126302626094 0.002133771897261687 0.007276367919102663 0.9976461346514696 -0.018002006341728653 0.00024525461226592473 0.0035233209478717754 -0.0002232696203906191 -0.0022429239674301663
 0.9976461346514696 -0.018002006341728653 0.002133362381523511 0.007276417028315292 -0.00022318670974483425 -0.0022429169987182034 0.0002483827544035225 0.0035229369717455095
 0.00024525461226592473 0.0035233209478717754 -0.00022318670974483425 -0.0022429169987182034 0.0021338264385976037 0.0072767799357076135 0.997646140513732 -0.01800158872802805
 -0.0002232696203906191 -0.0022429239674301663 0.0002483827544035225 0.0035229369717455095 0.997646140513732 -0.01800158872802805 0.0021333195133856533 0.007276840207508679
0.037515631513130004 0.0023215799279522388 0.008788004075843162 0.99740053308999 -0.021635738453349932 0.0003030379000722332 0.0042307341701249895 -0.0002737944833530276 -0.002695728406567591
 0.99740053308999 -0.021635738453349932 0.002320990727657078 0.008788066314827309 -0.0002736756651337553 -0.002695721427467176 0.0003075424426367046 0.004230203913008436
 0.0003030379000722332 0.0042307341701249895 -0.0002736756651337553 -0.002695721427467176 0.0023216581043819322 0.008788497880530885 0.9974005411868285 -0.021635237533551753
 -0.0002737944833530276 -0.002695728406567591 0.0003075424426367046 0.004230203913008436 0.9974005411868285 -0.021635237533551753 0.002320928664588967 0.008788574291145664
0.043768236765320004 0.0025216340718634874 0.010316108361876826 0.9971381657515559 -0.025282318081088457 0.0003673933910397953 0.0049390138383123 -0.0003299488986040156 -0.003149650328157798
 0.9971381657515559 -0.025282318081088457 0.0025208327060377727 0.010316184887329839 -0.0003297878720499055 -0.0031496439406595938 0.0003735257732000225 0.004938307707329969
 0.0003673933910397953 0.0049390138383123 -0.0003297878720499055 -0.0031496439406595938 0.002521740124934417 0.010316683715468724 0.9971381764363807 -0.025281733888922513
 -0.0003299488986040156 -0.003149650328157798 0.0003735257732000225 0.004938307707329969 0.9971381764363807 -0.025281733888922513 0.002520747904483361 0.010316777819683058
0.050020842017509996 0.0027341861609197545 0.011860301083276062 0.9968587975673893 -0.02894186012878563 0.0004383924853265411 0.005648096704085432 -0.00039180744794261094 -0.003604599711593079
 0.9968587975673893 -0.02894186012878563 0.0027331401754621103 0.011860393071089631 -0.0003915979629531309 -0.0036045945785257573 0.0004464047950259528 0.005647182289732807
 0.0004383924853265411 0.005648096704085432 -0.0003915979629531309 -0.0036045945785257573 0.002734324332074925 0.011860957715735988 0.9968588111927322 -0.02894119269689912
 -0.00039180744794261094 -0.003604599711593079 0.0004464047950259528 0.005647182289732807 0.9968588111927322 -0.02894119269689912 0.0027330290886219714 0.011861071148516597
0.055454545454549996 0.0029292446417546556 0.013215066841695856 0.9966020278200604 -0.032132678928608764 0.0005055431837286234 0.006264909990139598 -0.0004502539757742473 -0.004000730391685704
 0.9966020278200604 -0.032132678928608764 0.0029279597320762225 0.013215173235649256 -0.00044999734098721 -0.004000726934312933 0.0005153944465130118 0.006263786036623951
 0.0005055431837286234 0.006264909990139598 -0.00044999734098721 -0.004000726934312933 0.002929414169594963 0.013215793863752682 0.9966020442871372 -0.032131939185077146
 -0.0004502539757742473 -0.004000730391685704 0.0005153944465130118 0.006263786036623951 0.9966020442871372 -0.032131939185077146 0.0029278229204796934 0.01321592548333915
0.056273447269699996 0.0029594864767534626 0.01342026132849307 0.9965621921520563 -0.032614412956412236 0.0005161058663035071 0.0063579137221303665 -0.0004594436430072609 -0.004060488323890632
 0.9965621921520563 -0.032614412956412236 0.0029581634358572147 0.01342036997242701 -0.0004591794982427962 -0.0040604851689328295 0.0005262508519981383 0.006356755762926677
 0.0005161058663035071 0.0063579137221303665 -0.0004591794982427962 -0.0040604851689328295 0.0029596610080860966 0.013420998938023634 0.9965622090704074 -0.032613662316738526
 -0.0004594436430072609 -0.004060488323890632 0.0005262508519981383 0.006356755762926677 0.9965622090704074 -0.032613662316738526 0.0029580225147062215 0.013421133414017714
0.06252605252188 0.003197784060425505 0.014995705810527038 0.9962481122637868 -0.03629997947436193 0.0006006034082598631 0.007068391332386107 -0.0005329299211625782 -0.004517228432984648
 0.9962481122637868 -0.03629997947436193 0.0031961515388139595 0.014995832321159416 -0.0005326049627753967 -0.004517228040662368 0.0006131344797008541 0.007066951679170462
 0.0006006034082598631 0.007068391332386107 -0.0005326049627753967 -0.004517228040662368 0.003197999194576156 0.014996524068515206 0.9962481328275291 -0.036299145652586406
 -0.0005329299211625782 -0.004517228432984648 0.0006131344797008541 0.007066951679170462 0.9962481328275291 -0.036299145652586406 0.0031959772317160717 0.014996681381792195
0.06877865777407 0.0034493268840685067 0.016586376266863188 0.9959163201287244 -0.03999852968159818 0.0006919540984232103 0.0077794522237216125 -0.0006123376243688301 -0.004974732041598413
 0.9959163201287244 -0.03999852968159818 0.0034473524593460437 0.016586521870648734 -0.0006119457450708654 -0.004974735257265902 0.0007071253194390835 0.007777689803757394
 0.0006919540984232103 0.0077794522237216125 -0.0006119457450708654 -0.004974735257265902 0.0034495868645969684 0.01658727481081075 0.9959163446902812 -0.03999761270374978
 -0.0006123376243688301 -0.004974732041598413 0.0007071253194390835 0.007777689803757394 0.9959163446902812 -0.03999761270374978 0.0034471412126727964 0.016587456834870316
0.07503126302626001 0.0037143619449336745 0.018192031450656135 0.9955665776901188 -0.04371000861485004 0.0007902259656397394 0.008491015819902152 -0.0006977369690662924 -0.005432910401048797
 0.9955665776901188 -0.04371000861485004 0.0037120131898481816 0.018192197389267802 -0.0006972721074664419 -0.005432918130879924 0.0008082920409506148 0.008488886600938644
 0.0007902259656397394 0.008491015819902152 -0.0006972721074664419 -0.005432918130879924 0.003714671015329802 0.018193009886933852 0.9955666066016063 -0.04370900850398314
 -0.0006977369690662924 -0.005432910401048797 0.0008082920409506148 0.008488886600938644 0.9955666066016063 -0.04370900850398314 0.0037117614472839486 0.018193218574843274
0.08128386827845 0.003993135304422698 0.01981244181648491 0.9951986468058431 -0.04743434160544536 0.0008954860142242853 0.00920299860189849 -0.0007891970087867599 -0.005891673691151037
 0.9951986468058431 -0.04743434160544536 0.003990379779229808 0.019812629346316547 -0.0007886531489324536 -0.005891686902096612 0.0009167022720076163 0.009200455556276866
 0.0008954860142242853 0.00920299860189849 -0.0007886531489324536 -0.005891686902096612 0.003993497708519642 0.01981349971758763 0.9951986804196201 -0.047433258383859395
 -0.0007891970087867599 -0.005891673691151037 0.0009167022720076163 0.009200455556276866 0.9951986804196201 -0.047433258383859395 0.003990083982678859 0.01981373710240627
0.08753647353064001 0.0042858920964080555 0.021447385833736718 0.9948122894170796 -0.051171437911448736 0.0010078001605621073 0.009915314329843649 -0.0008867855926587459 -0.00635093080297954
 0.9948122894170796 -0.051171437911448736 0.004282697341245748 0.02144759622557474 -0.0008861567637481346 -0.0063509505227394856 0.0010324225310488092 0.009912307398757836
 0.0010078001605621073 0.009915314329843649 -0.0008861567637481346 -0.0063509505227394856 0.004286312078200796 0.02144852273923169 0.9948123280857455 -0.05117027159914619
 -0.0008867855926587459 -0.00635093080297954 0.0010324225310488092 0.009912307398757836 0.9948123280857455 -0.05117027159914619 0.004282353930844626 0.021448790934564376
0.09378907878283 0.004592876511851249 0.023096647359630122 0.994407267696825 -0.0549211932927159 0.001127233171614047 0.010627874207836266 -0.0009905693202306777 -0.0068105891814774135
 0.994407267696825 -0.0549211932927159 0.004589210039154282 0.023096881898565062 -0.0009898495964302397 -0.0068106164984639405 0.0011555181629775049 0.010624350265745085
 0.001127233171614047 0.010627874207836266 -0.0009898495964302397 -0.0068106164984639405 0.004593358315083857 0.02309786277390495 0.9944073117732655 -0.05491994390911801
 -0.0009905693202306777 -0.0068105891814774135 0.0011555181629775049 0.010624350265745085 0.9944073117732655 -0.05491994390911801 0.004588815453386264 0.023098163974681174
0.100041684035 0.004914331766800594 0.02476001370238668 0.9939833441834499 -0.05868349189898676 0.0012538486047815871 0.011340587002006557 -0.001100613493880541 -0.0072705547175360595
 0.9939833441834499 -0.05868349189898676 0.00491016105368523 0.02476027368793471 -0.0010997969942620012 -0.007270590780817112 0.0012860532762098897 0.011336489821322118
 0.0012538486047815871 0.011340587002006557 -0.0010997969942620012 -0.007270590780817112 0.004914879634822829 0.02476130709522864 0.9939833940208144 -0.05868215946184294
 -0.001100613493880541 -0.0072705547175360595 0.0012860532762098897 0.011336489821322118 0.9939833940208144 -0.05868215946184294 0.004909711729566394 0.02476164357871323
0.1059090909091 0.005229360259141761 0.02633354706611169 0.9935681348575514 -0.06222530586486045 0.0013792515958366309 0.012009448116782262 -0.0012096290751364219 -0.0077023776766751186
 0.9935681348575514 -0.06222530586486045 0.005224686752115274 0.02633383212567036 -0.0012087164529980716 -0.007702423046485609 0.0014153687291163352 0.01200475907997625
 0.0013792515958366309 0.012009448116782262 -0.0012087164529980716 -0.007702423046485609 0.005229973980394397 0.026334913119462715 0.9935681904224101 -0.062223895506036596
 -0.0012096290751364219 -0.0077023776766751186 0.0014153687291163352 0.01200475907997625 0.9935681904224101 -0.062223895506036596 0.005224182820426917 0.026335284857573957
0.1062942892872 0.005250500058003755 0.026437274171395065 0.9935402819048972 -0.062458207674062176 0.0013877087483263185 0.01205335913650131 -0.001216982069314537 -0.007730731665037938
 0.9935402819048972 -0.062458207674062176 0.005245792538161638 0.02643756091786379 -0.0012160629578085117 -0.007730777684293548 0.0014240906810257634 0.012048629352464094
 0.0013877087483263185 0.01205335913650131 -0.0012160629578085117 -0.007730777684293548 0.0052511182332953005 0.02643864497600457 0.9935403378566344 -0.06245679220090415
 -0.001216982069314537 -0.007730731665037938 0.0014240906810257634 0.012048629352464094 0.9935403378566344 -0.06245679220090415 0.005245284911712228 0.026439019103006677
0.11254689453939999 0.00560162250920241 0.028128218963633694 0.9930778444960374 -0.06624520542710062 0.001528874562024335 0.012766094764319396 -0.0013397376046994241 -0.00819102258592726
 0.9930778444960374 -0.06624520542710062 0.005596345565515377 0.028128533800599393 -0.0013387100902160487 -0.0081910798313832 0.0015696918282770416 0.012760669840289783
 0.001528874562024335 0.012766094764319396 -0.0013387100902160487 -0.0081910798313832 0.005602315233117056 0.0281296665787978 0.9930779069157866 -0.06624370693245674
 -0.0013397376046994241 -0.00819102258592726 0.0015696918282770416 0.012760669840289783 0.9930779069157866 -0.06624370693245674 0.005595776071556745 0.028130080795087286
0.11879949979160001 0.005967939110418498 0.029832638296916465 0.9925957963108101 -0.07004434166040346 0.0016774056188535234 0.013478695831174536 -0.0014689412080333957 -0.00865132830530127
 0.9925957963108101 -0.07004434166040346 0.005962060066680488 0.029832982570083596 -0.0014677995445381918 -0.008651398107661483 0.0017229167490446355 0.013472510024196777
 0.0016774056188535234 0.013478695831174536 -0.0014677995445381918 -0.008651398107661483 0.005968710622999108 0.02983416208279194 0.9925958655529835 -0.07004276015953578
 -0.0014689412080333957 -0.00865132830530127 0.0017229167490446355 0.013472510024196777 0.9925958655529835 -0.07004276015953578 0.005961425139577394 0.029834618920803316
0.1250521050438 0.0063496886510438335 0.03155032172221569 0.9920939025317439 -0.07385546522176809 0.0018333600460767048 0.014191062124371209 -0.0016046524838784822 -0.009111547884556292
 0.9920939025317439 -0.07385546522176809 0.006343174763947463 0.031550696794445436 -0.0016033909705659702 -0.009111631634927668 0.001883823994386037 0.014184046451130328
 0.0018333600460767048 0.014191062124371209 -0.0016033909705659702 -0.009111631634927668 0.006350543190612532 0.03155192100205673 0.9920939789510863 -0.07385380072837294
 -0.0016046524838784822 -0.009111547884556292 0.001883823994386037 0.014184046451130328 0.9920939789510863 -0.07385380072837294 0.00634247083778728 0.03155242308274156
0.131304710296 0.006747108648205036 0.0332810575718439 0.9915719292755906 -0.07767841782455107 0.0019967944667980513 0.014903091319088409 -0.001746929479048985 -0.00957157860026019
 0.9915719292755906 -0.07767841782455107 0.006739927099392841 0.03328146482440949 -0.0017455424605492974 -0.009571677750072722 0.0020524705752683835 0.014895173522288035
 0.0019967944667980513 0.014903091319088409 -0.0017455424605492974 -0.009571677750072722 0.006748050450778364 0.033282731631746165 0.9915720132274197 -0.0776766703505234
 -0.001746929479048985 -0.00957157860026019 0.0020524705752683835 0.014895173522288035 0.9915720132274197 -0.0776766703505234 0.006739150608068483 0.03328328166673094
0.1375573155481 0.007065107153412051 0.03479931086882612 0.9911250039368783 -0.08128762602328399 0.002145609701496432 0.015591833599831698 -0.0018736101903027277 -0.010008527011999616
 0.9911250039368783 -0.08128762602328399 0.007057221011678493 0.03479974206829982 -0.001872089271272016 -0.010008641552559617 0.002206622820023405 0.015583030052965284
 0.002145609701496432 0.015591833599831698 -0.001872089271272016 -0.010008641552559617 0.007066139855132389 0.034801059096981876 0.9911250957599674 -0.08128579561142639
 -0.0018736101903027277 -0.010008527011999616 0.002206622820023405 0.015583030052965284 0.9911250957599674 -0.08128579561142639 0.007056369023308441 0.0348016500398834
0.1438099208003 0.007394161533890366 0.03631030594214472 0.9906626269619019 -0.0848884213729145 0.0023004223657890855 0.016278227514926098 -0.002005365333451969 -0.010443284800445454
 0.9906626269619019 -0.0848884213729145 0.007385537209952834 0.03631076193838908 -0.0020037044301536608 -0.010443416147747278 0.002367008049882716 0.0162684726706547
 0.0023004223657890855 0.016278227514926098 -0.0020037044301536608 -0.010443416147747278 0.007395289260250866 0.0363121276173718 0.9906627270084969 -0.08488650804252826
 -0.002005365333451969 -0.010443284800445454 0.002367008049882716 0.0162684726706547 0.9906627270084969 -0.08488650804252826 0.007384606273671794 0.03631276167336555
0.1500625260525 0.0077341658495561506 0.037813938184055505 0.9901849077688849 -0.0884807363799581 0.002461184025732868 0.01696221785363006 -0.0021421471302940486 -0.01087579793161677
 0.9901849077688849 -0.0884807363799581 0.007724769649593777 0.03781441990304023 -0.0021403401694372218 -0.010875947558386646 0.0025335766369882703 0.01695144377941086
 0.002461184025732868 0.01696221785363006 -0.0021403401694372218 -0.010875947558386646 0.007735392717047393 0.03781583255736471 0.9901850163913977 -0.08847874015046162
 -0.0021421471302940486 -0.01087579793161677 0.0025335766369882703 0.01695144377941086 0.9901850163913977 -0.08847874015046162 0.00772375632219463 0.03781651206193524
0.15631513130469998 0.008085013525782975 0.03931010624791417 0.9896919562037488 -0.09206450336531061 0.002627845740021499 0.017643750254962957 -0.0022839072744892507 -0.011306013437024436
