! Created with skrf 1.8.0 (http://scikit-rf.org).
# GHz S RI R 50.0 
!freq ReS11 ImS11 ReS12 ImS12 ReS13 ImS13
! ReS14 ImS14
! ReS21 ImS21 ReS22 ImS22 ReS23 ImS23
! ReS24 ImS24
! ReS31 ImS31 ReS32 ImS32 ReS33 ImS33
! ReS34 ImS34
! ReS41 ImS41 ReS42 ImS42 ReS43 ImS43
! ReS44 ImS44
!
0.0 0.001541815320638 0.0 0.9984581846793 0.0 5.963505306232e-05 0.0 -5.963505256299e-05 7.303187623824986e-21
 0.9984581846793 0.0 0.001541815320652 0.0 -5.963505256317e-05 7.30318762384703e-21 5.9635053063e-05 0.0
 5.963505306232e-05 0.0 -5.963505256317e-05 7.30318762384703e-21 0.001541815306703 0.0 0.9984581846654 0.0
 -5.963505256299e-05 7.303187623824986e-21 5.9635053063e-05 0.0 0.9984581846654 0.0 0.001541815306706 0.0
0.005 0.001658893339006234 0.001258259047539269 0.9983100524401037 -0.0032298455884901284 8.40522920130904e-05 0.0006757737720531582 -8.148935161909887e-05 -0.00042091112159766157
 0.9983100524401037 -0.0032298455884901284 0.00165890874685877 0.0012582500879022088 -8.149006266979079e-05 -0.0004209117229032073 8.395211289070846e-05 0.0006758118880222771
 8.40522920130904e-05 0.0006757737720531582 -8.149006266979079e-05 -0.0004209117229032073 0.001658892330271893 0.0012581924203702733 0.9983100520689798 -0.003229912636359531
 -8.148935161909887e-05 -0.00042091112159766157 8.395211289070846e-05 0.0006758118880222771 0.9983100520689798 -0.003229912636359531 0.0016589090163254194 0.0012581826208696338
0.006252605252188 0.00168959704150309 0.0015777879051743521 0.998270956921959 -0.004038098324628712 9.10365222300967e-05 0.0008450353230489663 -8.766125249459507e-05 -0.0005266873389524235
 0.998270956921959 -0.004038098324628712 0.0016896211264698499 0.0015777765289544472 -8.766235851109883e-05 -0.0005266880815241004 9.08800011819136e-05 0.0008450848202434845
 9.10365222300967e-05 0.0008450353230489663 -8.766235851109883e-05 -0.0005266880815241004 0.0016895955586282174 0.0015777046212397039 0.9982709564362088 -0.004038182141125503
 -8.766125249459507e-05 -0.0005266873389524235 9.08800011819136e-05 0.0008450848202434845 0.9982709564362088 -0.004038182141125503 0.0016896216425836212 0.0015776921836275586
0.01250521050438 0.001851214822810838 0.0031887413491808354 0.9980637916602128 -0.008077016180177157 0.00013113278705944816 0.0016903659033144197 -0.0001226885166101546 -0.0010559453439738823
 0.9980637916602128 -0.008077016180177157 0.001851310989638999 0.0031887168264388937 -0.00012269287005906414 -0.0010559467304708007 0.00013050860223560824 0.0016904848759385007
 0.00013113278705944816 0.0016903659033144197 -0.00012269287005906414 -0.0010559467304708007 0.0018512094606719005 0.003188575097737445 0.9980637902857113 -0.008077183576609586
 -0.0001226885166101546 -0.0010559453439738823 0.00013050860223560824 0.0016904848759385007 0.9980637902857113 -0.008077183576609586 0.0018513136236615734 0.003188548322830013
0.01875781575657 0.00202702235265297 0.00482270421768708 0.9978364309314208 -0.012126586036058205 0.0001800159576579335 0.00253657610345015 -0.00016482527575886348 -0.001586985742914889
 0.9978364309314208 -0.012126586036058205 0.0020272384341810004 0.004822664672186833 -0.00016483497681698184 -0.0015869876575336926 0.00017861376020632765 0.002536788430939254
 0.0001800159576579335 0.00253657610345015 -0.00016483497681698184 -0.0015869876575336926 0.0020270107107572145 0.00482245521514328 0.9978364282612571 -0.012126836911592847
 -0.00016482527575886348 -0.001586985742914889 0.00017861376020632765 0.002536788430939254 0.9978364282612571 -0.012126836911592847 0.0020272447881121754 0.004822412056830612
0.02501042100875 0.0022173628045864748 0.006477381605822168 0.9975886065938879 -0.016188768460423077 0.0002377798056924729 0.003383703313831948 -0.0002141763283696752 -0.0021195613593144873
 0.9975886065938879 -0.016188768460423077 0.0022177465332737607 0.006477325072586756 -0.00021419344981912956 -0.002119563666854668 0.00023528911208890466 0.0033840366431876
 0.0002377798056924729 0.003383703313831948 -0.00021419344981912956 -0.002119563666854668 0.002217342484443179 0.006477050056180569 0.9975886022251599 -0.01618910276190722
 -0.0002141763283696752 -0.0021195613593144873 0.00023528911208890466 0.0033840366431876 0.9975886022251599 -0.01618910276190722 0.0022177582191976455 0.006476988340344263
0.03126302626094 0.002422565131863523 0.008151591166117196 0.9973200368535892 -0.02026440074841424 0.0003045186787112217 0.0042317047574395176 -0.00027084344620771227 -0.002653499247653954
 0.9973200368535892 -0.02026440074841424 0.0024231641668895467 0.008151515595249995 -0.0002708700381233554 -0.0026535017932800106 0.0003006285852513636 0.004232190525189618
 0.0003045186787112217 0.0042317047574395176 -0.0002708700381233554 -0.0026535017932800106 0.0024225337338647872 0.008151177289293158 0.9973200303838543 -0.020264818442416
 -0.00027084344620771227 -0.002653499247653954 0.0003006285852513636 0.004232190525189618 0.9973200303838543 -0.020264818442416 0.002423182805036791 0.0081510947172658
0.037515631513130004 0.002642951138265582 0.009844560965535147 0.9970304335591128 -0.02435389900496118 0.00038032649620421693 0.005080505999186816 -0.00033492613901593227 -0.0031886521811985654
 0.9970304335591128 -0.02435389900496118 0.0026438130843278213 0.009844464224310408 -0.0003349642312135421 -0.003188654790398461 0.00037472555237404306 0.005081179469317162
 0.00038032649620421693 0.005080505999186816 -0.0003349642312135421 -0.003188654790398461 0.0026429062584360052 0.009844065002765709 0.9970304245835601 -0.024354400072762638
 -0.00033492613901593227 -0.0031886521811985654 0.00037472555237404306 0.005081179469317162 0.9970304245835601 -0.024354400072762638 0.002643840299980859 0.009843959152957148
0.043768236765320004 0.00287883820109768 0.011555715801081006 0.9967195051534353 -0.028457471759681885 0.00046529628378921074 0.005930015693314228 -0.0004065219243039609 -0.0037248839058691553
 0.9967195051534353 -0.028457471759681885 0.002880010623772874 0.011555595675172455 -0.00040657352781315394 -0.003724886384462424 0.0004576724337525969 0.005930916000119946
 0.00046529628378921074 0.005930015693314228 -0.00040657352781315394 -0.003724886384462424 0.002878777434287866 0.011555138025083874 0.9967194932672421 -0.028458056187506804
 -0.0004065219243039609 -0.0037248839058691553 0.0004576724337525969 0.005930916000119946 0.9967194932672421 -0.028458056187506804 0.0028800480505042267 0.011555006353743366
0.050020842017509996 0.0031305405413930344 0.013284588899840251 0.996386958175424 -0.03257520819525503 0.0005595198927789237 0.006780131682200505 -0.00048572642580964597 -0.004262063045834939
 0.996386958175424 -0.03257520819525503 0.0031320709803458174 0.013284443094332708 -0.0004857935339169839 -0.004262065180018987 0.000549560452526522 0.006781301875169303
 0.0005595198927789237 0.006780131682200505 -0.0004857935339169839 -0.004262065180018987 0.0031304614808787892 0.013283929605054817 0.996386942972881 -0.03257587598465056
 -0.00048572642580964597 -0.004262063045834939 0.000549560452526522 0.006781301875169303 0.996386942972881 -0.03257587598465056 0.003132120258882587 0.013283769446512463
0.055454545454549996 0.003362363589238035 0.01480110827404783 0.9960801791553343 -0.0361651601897551 0.0006489886064674206 0.007519315365902364 -0.0005608096042604811 -0.004729556840921159
 0.9960801791553343 -0.0361651601897551 0.003364243752542849 0.014800938226072225 -0.0005608917918340178 -0.004729558486949028 0.000636745041453886 0.0075207581346694455
 0.0006489886064674206 0.007519315365902364 -0.0005608917918340178 -0.004729558486949028 0.0033622666754439764 0.01480037840434996 0.9960801607401613 -0.036165900424823136
 -0.0005608096042604811 -0.004729556840921159 0.000636745041453886 0.0075207581346694455 0.9960801607401613 -0.036165900424823136 0.0033643046689458707 0.014800191229947586
0.056273447269699996 0.0033983698706588406 0.015030778564885067 0.9960324981429247 -0.036707121431688805 0.0006630878025621198 0.007630743981751728 -0.0005726333938549866 -0.004800060126242377
 0.9960324981429247 -0.036707121431688805 0.003400305852077478 0.01503060470459567 -0.0005727179827320291 -0.004800061682623476 0.0006504794594006644 0.0076322310712377325
 0.0006630878025621198 0.007630743981751728 -0.0005727179827320291 -0.004800061682623476 0.0033982701082802902 0.015030038079933451 0.9960324792167895 -0.03670787258734339
 -0.0005726333938549866 -0.004800060126242377 0.0006504794594006644 0.0076322310712377325 0.9960324792167895 -0.03670787258734339 0.003400368630563005 0.015029846646483236
0.06252605252188 0.003682635737499976 0.01679392435604629 0.9956558301389835 -0.04085317227814749 0.000776088964266234 0.00848173643532425 -0.0006673346865425005 -0.005338745931352138
 0.9956558301389835 -0.04085317227814749 0.0036850247859641456 0.016793719985709152 -0.0006674387158071314 -0.00533874665698958 0.000760517790240415 0.008483591438553888
 0.000776088964266234 0.00848173643532425 -0.0006674387158071314 -0.00533874665698958 0.0036825128642636457 0.016793103038218144 0.9956558070806486 -0.040854006813924454
 -0.0006673346865425005 -0.005338745931352138 0.000760517790240415 0.008483591438553888 0.9956558070806486 -0.040854006813924454 0.003685102719699733 0.016792877419615486
0.06877865777407 0.003983645708096792 0.018573692880098372 0.9952566592368375 -0.04501328337942557 0.000898610667348114 0.009332987692806433 -0.0007699202279857044 -0.005877990541932913
 0.9952566592368375 -0.04501328337942557 0.003986535358073193 0.018573455464067547 -0.000770045641045552 -0.005877990164389125 0.0008797621431894902 0.009335265679817874
 0.000898610667348114 0.009332987692806433 -0.000770045641045552 -0.005877990164389125 0.003983497314230542 0.018572791118867057 0.9952566316353918 -0.04501420131528088
 -0.0007699202279857044 -0.005877990541932913 0.0008797621431894902 0.009335265679817874 0.9952566316353918 -0.04501420131528088 0.003986630109252905 0.01857252828149174
0.07503126302626001 0.004301705447587392 0.02036976878593211 0.9948346908285087 -0.049187348161748856 0.0010307384195924747 0.010184371844324903 -0.0008804779528272615 -0.006417662722588204
 0.9948346908285087 -0.049187348161748856 0.0043051432547789445 0.020369495707577123 -0.0008806266771920131 -0.006417660949969566 0.0010082974661934662 0.010187131983688334
 0.0010307384195924747 0.010184371844324903 -0.0008806266771920131 -0.006417660949969566 0.0043015291237893175 0.020368786999245984 0.9948346582715064 -0.049188349527921435
 -0.0008804779528272615 -0.006417662722588204 0.0010082974661934662 0.010187131983688334 0.9948346582715064 -0.049188349527921435 0.004305256492948344 0.020368483784819404
0.08128386827845 0.004637118741715118 0.02218184877164445 0.9943896308986058 -0.05337523677164512 0.001172555835551457 0.011035758839197607 -0.0009990937414694687 -0.006957629528649006
 0.9943896308986058 -0.05337523677164512 0.004641152294099753 0.02218153733237039 -0.0009992676889186444 -0.006957626049655252 0.0011462068515889056 0.011039064443362579
 0.001172555835551457 0.011035758839197607 -0.0009992676889186444 -0.006957626049655252 0.004636912078950217 0.022180787416730817 0.9943895929710354 -0.05337632159818153
 -0.0009990937414694687 -0.006957629528649006 0.0011462068515889056 0.011039064443362579 0.9943895929710354 -0.05337632159818153 0.004641285695727591 0.022180440540813535
0.08753647353064001 0.004990187476739671 0.02400963744962108 0.9939211862592965 -0.05757680016195377 0.0013241445301142882 0.011887014790266402 -0.0011258513493464237 -0.007497756032696465
 0.9939211862592965 -0.05757680016195377 0.004994864406407897 0.024009284867455075 -0.0011260524161841477 -0.00749775051665623 0.001293571434297441 0.011890933360363785
 0.0013241445301142882 0.011887014790266402 -0.0011260524161841477 -0.00749775051665623 0.004989948067209884 0.024008497010655036 0.9939211425435309 -0.057577968491435885
 -0.0011258513493464237 -0.007497756032696465 0.001293571434297441 0.011890933360363785 0.9939211425435309 -0.057577968491435885 0.004995019654494943 0.024008103060669105
0.09378907878283 0.005361211590670614 0.02585284437802147 0.9934290647603218 -0.06179187301688606 0.001485584016373698 0.012738002188013263 -0.001260832330941733 -0.008037905146330767
 0.9934290647603218 -0.06179187301688606 0.005366579584580626 0.025852447785947915 -0.001261062398088266 -0.008037897243253532 0.001450470293839924 0.012742605458196731
 0.001485584016373698 0.012738002188013263 -0.001261062398088266 -0.008037897243253532 0.005360937028453094 0.025851625377501596 0.993429014835671 -0.061793124893462247
 -0.001260832330941733 -0.008037905146330767 0.001450470293839924 0.012742605458196731 0.993429014835671 -0.061793124893462247 0.0053667583688840935 0.0258511808104605
0.100041684035 0.005750489004832779 0.0277111819058821 0.9929129754824215 -0.06602027586940223 0.0016569516047904497 0.01358858007350554 -0.0014041159614090494 -0.00857793748856633
 0.9929129754824215 -0.06602027586940223 0.005756595816312827 0.027710738349639365 -0.0014043768944272822 -0.00857792682919123 0.0016169803573799026 0.013593944054491386
 0.0016569516047904497 0.01358858007350554 -0.0014043768944272822 -0.00857792682919123 0.0057501768860555285 0.02770988489720654 0.9929129189254765 -0.06602161134655575
 -0.0014041159614090494 -0.00857793748856633 0.0016169803573799026 0.013593944054491386 0.9929129189254765 -0.06602161134655575 0.005756799833310766 0.027709386036918242
0.1059090909091 0.00613264928916054 0.02946854047178653 0.9924066240944114 -0.07000013606878962 0.0018268582589913407 0.014386256280507142 -0.0015461921652662961 -0.009084468116260533
 0.9924066240944114 -0.07000013606878962 0.0061394929025236815 0.02946805007788043 -0.0015464837458098188 -0.009084454517415266 0.0017820402290701597 0.014392407086041033
 0.0018268582589913407 0.014386256280507142 -0.0015464837458098188 -0.009084454517415266 0.006132299744208228 0.02946717079570931 0.9924065609254693 -0.07000155004932593
 -0.0015461921652662961 -0.009084468116260533 0.0017820402290701597 0.014392407086041033 0.9924065609254693 -0.07000155004932593 0.006139722146472237 0.029466617522274797
0.1062942892872 0.0061583155399151795 0.02958436353848194 0.9923726289195961 -0.07026181670421891 0.0018383223053859059 0.014438604170250184 -0.0015557791547886602 -0.009117711300550935
 0.9923726289195961 -0.07026181670421891 0.006165208999751559 0.029583869974082272 -0.0015560728040464136 -0.009117697496381331 0.0017931763042832777 0.014444809192238613
 0.0018383223053859059 0.014438604170250184 -0.0015560728040464136 -0.009117697496381331 0.00615796346392694 0.0295829891104596 0.9923725653033479 -0.0702632358406047
 -0.0015557791547886602 -0.009117711300550935 0.0017931763042832777 0.014444809192238613 0.9923725653033479 -0.0702632358406047 0.006165439952383807 0.02958243214456727
0.11254689453939999 0.006584984820619486 0.031472102696957945 0.9918077371518159 -0.07451629217287115 0.0020297687302099168 0.01528792699584461 -0.0017158963807931916 -0.009657082386128274
 0.9918077371518159 -0.07451629217287115 0.006592712848988266 0.03147155598763029 -0.0017162245814875716 -0.009657065029484052 0.001979130471775169 0.015295057750575663
 0.0020297687302099168 0.01528792699584461 -0.0017162245814875716 -0.009657065029484052 0.006584590390494551 0.03147065147456875 0.9918076660457873 -0.07451779503186533
 -0.0017158963807931916 -0.009657082386128274 0.001979130471775169 0.015295057750575663 0.9918076660457873 -0.07451779503186533 0.00659297244652318 0.0314700324509396
0.11879949979160001 0.007030788171696274 0.03337411175498323 0.9912180140124967 -0.07878348853803012 0.0022313609970380293 0.01613639795539395 -0.0018845395798721654 -0.010195904076222872
 0.9912180140124967 -0.07878348853803012 0.007039398789360195 0.033373508667889885 -0.0018849041520615168 -0.010195882740272097 0.0021749127612843396 0.016144543537441363
 0.0022313609970380293 0.01613639795539395 -0.0018849041520615168 -0.010195882740272097 0.007030348994601331 0.03337258439789974 0.9912179349821076 -0.07878507518946772
 -0.0018845395798721654 -0.010195904076222872 0.0021749127612843396 0.016144543537441363 0.9912179349821076 -0.07878507518946772 0.007039688747032299 0.03337189922078581
0.1250521050438 0.007496014506337886 0.03529010127991501 0.9906031752515756 -0.08306318241996338 0.0024431666339851067 0.01698386342650444 -0.0020617780772022544 -0.010734027207438369
 0.9906031752515756 -0.08306318241996338 0.007505555846138409 0.03528943848224161 -0.002062180825791182 -0.010734001446272358 0.002380590544998489 0.016993117373567884
 0.0024431666339851067 0.01698386342650444 -0.002062180825791182 -0.010734001446272358 0.00749552819453209 0.03528849848249259 0.990603087858286 -0.08306485294053563
 -0.0020617780772022544 -0.010734027207438369 0.002380590544998489 0.016993117373567884 0.990603087858286 -0.08306485294053563 0.007505877885422511 0.035287742908125926
0.131304710296 0.007980950208876646 0.0372197794224336 0.9899629386950748 -0.0873551414014504 0.002665250484453074 0.017830166834082787 -0.002247678495645995 -0.011271300116663082
 0.9899629386950748 -0.0873551414014504 0.007991470527436585 0.03721905347714757 -0.0022481212104246205 -0.011271269465306306 0.002596228573188824 0.01784062716642374
 0.002665250484453074 0.017830166834082787 -0.0022481212104246205 -0.011271269465306306 0.007980414380423342 0.0372181019159337 0.9899628424960328 -0.0873568958726248
 -0.002247678495645995 -0.011271300116663082 0.002596228573188824 0.01784062716642374 0.9899628424960328 -0.0873568958726248 0.007991826375762456 0.03721727154774743
0.1375573155481 0.008374930761830993 0.03891057694346727 0.9894080143804465 -0.09140674035412104 0.002870079303238451 0.018649805253977324 -0.0024147927368463975 -0.011782183255960496
 0.9894080143804465 -0.09140674035412104 0.008386482815332063 0.03890980091548601 -0.0024152782264434515 -0.011782147683752136 0.0027944537830260604 0.018661457171171215
 0.002870079303238451 0.018649805253977324 -0.0024152782264434515 -0.011782147683752136 0.008374343835816662 0.038908825073356655 0.9894079089756647 -0.09140857879224389
 -0.0024147927368463975 -0.011782183255960496 0.0027944537830260604 0.018661457171171215 0.9894079089756647 -0.09140857879224389 0.00838687331889252 0.03890793266635425
0.1438099208003 0.00878277359702302 0.040592377429733054 0.9888335560148215 -0.09544798856971255 0.0030831934615090885 0.019466068477332826 -0.0025885949391990354 -0.012290010014202702
 0.9888335560148215 -0.09544798856971255 0.008795406511615783 0.04059154884466652 -0.0025891251549996007 -0.012289969059771193 0.0030006751699699673 0.01947900163059085
 0.0030831934615090885 0.019466068477332826 -0.0025891251549996007 -0.012289969059771193 0.00878213334350427 0.04059055190981916 0.9888334409643865 -0.09544991104572535
 -0.0025885949391990354 -0.012290010014202702 0.0030006751699699673 0.01947900163059085 0.9888334409643865 -0.09544991104572535 0.008795833246036572 0.04058959407525447
0.1500625260525 0.009204333803871331 0.04226503793671317 0.9882397126218927 -0.09947878328412654 0.0033045193557798766 0.020278870923966158 -0.0027690142561496555 -0.012794700696538657
 0.9882397126218927 -0.09947878328412654 0.009218096852727575 0.04226415414954402 -0.002769591147276101 -0.01279465387961686 0.0032148208946968953 0.02029317822750691
 0.0033045193557798766 0.020278870923966158 -0.002769591147276101 -0.01279465387961686 0.00920363800794643 0.04226313950288758 0.9882395874825053 -0.09948078987613107
 -0.0027690142561496555 -0.012794700696538657 0.0032148208946968953 0.02029317822750691 0.9882395874825053 -0.09948078987613107 0.009218561388459494 0.04226211264733455
0.15631513130469998 0.00963946542674922 0.043928419832485084 0.9876266340014436 -0.10349902215118377 0.0035339825007940297 0.021088128466003997 -0.0029559789593136456 -0.013296177306990434
 0.9876266340014436 -0.10349902215118377 0.009654408033784747 0.043927478021537215 -0.0029566044725594745 -0.013296124128473596 0.003436818263951955 0.0211039060619686
