! Created with skrf 1.8.0 (http://scikit-rf.org).
# GHz S RI R 50.0 
!freq ReS11 ImS11 ReS12 ImS12 ReS13 ImS13
! ReS14 ImS14
! ReS21 ImS21 ReS22 ImS22 ReS23 ImS23
! ReS24 ImS24
! ReS31 ImS31 ReS32 ImS32 ReS33 ImS33
! ReS34 ImS34
! ReS41 ImS41 ReS42 ImS42 ReS43 ImS43
! ReS44 ImS44
!
0.0 0.001058401648603 0.0 0.9989415983443 0.0 3.983511603525e-05 0.0 -3.983511676845e-05 4.878394824414335e-21
 0.9989415983443 0.0 0.001058401648592 0.0 -3.98351167681e-05 4.878394824371472e-21 3.983511603579e-05 0.0
 3.983511603525e-05 0.0 -3.98351167681e-05 4.878394824371472e-21 0.001058401647874 0.0 0.9989415983436 0.0
 -3.983511676845e-05 4.878394824414335e-21 3.983511603579e-05 0.0 0.9989415983436 0.0 0.001058401647874 0.0
0.005 0.0011377188824930671 0.0008696435535237315 0.9988414098396965 -0.00221820443274677 5.4767142916208855e-05 0.0004200588161893838 -5.3414383857474134e-05 -0.0002671165301262264
 0.9988414098396965 -0.00221820443274677 0.0011377187458091193 0.0008696436279605723 -5.341307360606329e-05 -0.00026711550082969126 5.477430632281699e-05 0.0004200561249345152
 5.4767142916208855e-05 0.0004200588161893838 -5.341307360606329e-05 -0.00026711550082969126 0.0011377193592306352 0.0008695760030626567 0.9988414095222682 -0.002218271492865273
 -5.3414383857474134e-05 -0.0002671165301262264 5.477430632281699e-05 0.0004200561249345152 0.9988414095222682 -0.002218271492865273 0.0011377176350084255 0.0008695770582016169
0.006252605252188 0.0011582345085015934 0.0010905014567136216 0.9988153807031571 -0.00277334060642291 5.887210921903378e-05 0.0005253034478945352 -5.711849089972669e-05 -0.00033425246874349736
 0.9988153807031571 -0.00277334060642291 0.0011582342948577517 0.0010905015495917517 -5.711645216256752e-05 -0.00033425119835441187 5.888330208276896e-05 0.0005252999526271616
 5.887210921903378e-05 0.0005253034478945352 -5.711645216256752e-05 -0.00033425119835441187 0.0011582353321750703 0.0010904170169640326 0.998815380285105 -0.002773424430281198
 -5.711849089972669e-05 -0.00033425246874349736 5.888330208276896e-05 0.0005252999526271616 0.998815380285105 -0.002773424430281198 0.0011582326363612711 0.001090418341845375
0.01250521050438 0.0012645625709965152 0.0022041555875890245 0.998679818674484 -0.005547677352122899 8.156284629786035e-05 0.0010510923214978032 -7.743795922422904e-05 -0.00067027833475212
 0.998679818674484 -0.005547677352122899 0.0012645617198954312 0.002204155766020913 -7.742992588401359e-05 -0.0006702759674062931 8.160749932168749e-05 0.0010510839490855271
 8.156284629786035e-05 0.0010510923214978032 -7.742992588401359e-05 -0.0006702759674062931 0.0012645664214069674 0.002203986925485108 0.9986798175620792 -0.005547844748332343
 -7.743795922422904e-05 -0.00067027833475212 8.160749932168749e-05 0.0010510839490855271 0.9986798175620792 -0.005547844748332343 0.001264555649899218 0.0022039896395833623
0.01875781575657 0.001377556601209203 0.0033340483576484317 0.9985347879970018 -0.008329816319364936 0.00010795057980341644 0.0015777305211925146 -0.00010084252649113387 -0.0010076522404090925
 0.9985347879970018 -0.008329816319364936 0.001377554693779307 0.003334048601606566 -0.00010082461258677855 -0.001007648972281091 0.00010805093167395573 0.001577715694324668
 0.00010795057980341644 0.0015777305211925146 -0.00010082461258677855 -0.001007648972281091 0.0013775656801827952 0.003333795525985645 0.9985347859148268 -0.008330067186546797
 -0.00010084252649113387 -0.0010076522404090925 0.00010805093167395573 0.001577715694324668 0.9985347859148268 -0.008330067186546797 0.0013775414633227056 0.003333799713622313
0.02501042100875 0.0014973852703156322 0.004478662692289387 0.9983801613934801 -0.011121163137195847 0.00013807896141673824 0.0021052694656630982 -0.00012738047076952996 -0.0013462594655080406
 0.9983801613934801 -0.011121163137195847 0.0014973818919041698 0.004478662968472046 -0.00012734883612379688 -0.0013462555196226095 0.00013825728746169478 0.0021052464201939793
 0.00013807896141673824 0.0021052694656630982 -0.00012734883612379688 -0.0013462555196226095 0.0014974017833502989 0.004478325686616772 0.9983801580689263 -0.011121497417960393
 -0.00012738047076952996 -0.0013462594655080406 0.00013825728746169478 0.0021052464201939793 0.9983801580689263 -0.011121497417960393 0.001497358754669866 0.00447833144925443
0.03126302626094 0.0016242096830953049 0.0056372470244904485 0.9982158031567007 -0.013922354410975704 0.0001719922012382585 0.00263371544946912 -0.0001570991634227554 -0.0016860285707471264
 0.9982158031567007 -0.013922354410975704 0.0016242044226602676 0.005637247285868047 -0.00015705000542759565 -0.001686024197526015 0.0001722708342482015 0.002633682233231863
 0.0001719922012382585 0.00263371544946912 -0.00015705000542759565 -0.001686024197526015 0.001624235837288903 0.00563682582219048 0.9982157983167573 -0.013922772052905829
 -0.0001570991634227554 -0.0016860285707471264 0.0001722708342482015 0.002633682233231863 0.9982157983167573 -0.013922772052905829 0.0016241686309555138 0.005636833278009678
0.037515631513130004 0.0017581875528368716 0.006809333421438661 0.9980415733762892 -0.016733739561636485 0.0002097346952185976 0.0031630574088931393 -0.0001900454105560141 -0.0020269036224862267
 0.9980415733762892 -0.016733739561636485 0.0017581800025606316 0.006809333606989431 -0.00018997495992416807 -0.0020268990999568384 0.00021013603546544371 0.0031630118796317796
 0.0002097346952185976 0.0031630574088931393 -0.00018997495992416807 -0.0020268990999568384 0.0017582255575911115 0.006808827968690421 0.9980415667476831 -0.016734240530313544
 -0.0001900454105560141 -0.0020269036224862267 0.00021013603546544371 0.0031630118796317796 0.9980415667476831 -0.016734240530313544 0.0017581288068255153 0.006808837252508212
0.043768236765320004 0.0018994748155126044 0.007994590936019876 0.9978573296049286 -0.019555527436392727 0.0002513508592494766 0.0036932753677418675 -0.00022626558549979181 -0.0023688357361373175
 0.9978573296049286 -0.019555527436392727 0.0018994645701382355 0.007994590970376251 -0.0002261701036111434 -0.0023688313700094207 0.00025189737974625685 0.0036932151907254265
 0.0002513508592494766 0.0036932753677418675 -0.0002261701036111434 -0.0023688313700094207 0.0018995268839114194 0.00799400116353852 0.9978573209155791 -0.019556111699563925
 -0.00022626558549979181 -0.0023688357361373175 0.00025189737974625685 0.0036932151907254265 0.9978573209155791 -0.019556111699563925 0.0018993952202703264 0.007994012426780396
0.050020842017509996 0.0020482263889360507 0.00919276500916014 0.9976629276715552 -0.022387846867047825 0.00029688503521976394 0.004224343919895931 -0.0002658056878455773 -0.002711779582495379
 0.9976629276715552 -0.022387846867047825 0.0020482130456456814 0.009192764802229697 -0.00026568146505226995 -0.002711775706206511 0.0002975992846365629 0.004224266565422995
 0.00029688503521976394 0.004224343919895931 -0.00026568146505226995 -0.002711775706206511 0.0020482947372797715 0.009192090831436643 0.9976629166493002 -0.02238851439525826
 -0.0002658056878455773 -0.002711779582495379 0.0002975992846365629 0.004224266565422995 0.9976629166493002 -0.02238851439525826 0.0020481227897652565 0.009192104242234994
0.055454545454549996 0.002183677799943121 0.010244342095889895 0.997485623904939 -0.024857833098008986 0.00033967185579913614 0.004686526815082727 -0.0003028988856555366 -0.0030105960286674026
 0.997485623904939 -0.024857833098008986 0.002183661438610786 0.010244341594492093 -0.0003027466950129108 -0.0030105928704106085 0.00034055023879022637 0.004686432325127172
 0.00033967185579913614 0.004686526815082727 -0.0003027466950129108 -0.0030105928704106085 0.0021837620978080808 0.010243594480933049 0.9974856106338273 -0.024858572968645583
 -0.0003028988856555366 -0.0030105960286674026 0.00034055023879022637 0.004686432325127172 0.9974856106338273 -0.024858572968645583 0.0021835507780730056 0.010243609907620469
0.056273447269699996 0.0022045965792705092 0.01040364773001158 0.9974582221408329 -0.02523077636985267 0.00034638142972483714 0.0047562339282778 -0.00030871136905593683 -0.0030556916778255376
 0.9974582221408329 -0.02523077636985267 0.0022045797369326823 0.010403647176714081 -0.0003085547234384301 -0.0030556886525659726 0.0003472860337529114 0.0047561366691442515
 0.00034638142972483714 0.0047562339282778 -0.0003085547234384301 -0.0030556886525659726 0.002204683426286983 0.010402889040693026 0.9974582085129586 -0.02523152714088952
 -0.00030871136905593683 -0.0030556916778255376 0.0003472860337529114 0.0047561366691442515 0.9974582085129586 -0.02523152714088952 0.002204465820774546 0.010402904783985324
0.06252605252188 0.0023687393102360256 0.011627061475684429 0.9972430665984178 -0.02808436046573736 0.0003998840686210124 0.005288913467081149 -0.0003550279413249606 -0.003400529431075586
 0.9972430665984178 -0.02808436046573736 0.002368718569114653 0.011627060455629478 -0.00035483521779612 -0.0034005276458054477 0.0004010017304248908 0.005288793375988694
 0.0003998840686210124 0.005288913467081149 -0.00035483521779612 -0.0034005276458054477 0.0023688468779918207 0.01162621815411586 0.9972430500925445 -0.02808519445799811
 -0.0003550279413249606 -0.003400529431075586 0.0004010017304248908 0.005288793375988694 0.9972430500925445 -0.02808519445799811 0.0023685782368910667 0.011626236431753239
0.06877865777407 0.0025408082621303364 0.012862849170481928 0.9970173138463272 -0.03094861938122245 0.0004574367595613241 0.005822348371595043 -0.0004048003777789885 -0.003746250583974689
 0.9970173138463272 -0.03094861938122245 0.002540783223194387 0.012862847547680339 -0.0004045679474059269 -0.0037462504554272675 0.0004587902595352434 0.005822202318567397
 0.0004574367595613241 0.005822348371595043 -0.0004045679474059269 -0.0037462504554272675 0.0025409387759271003 0.012861921079975951 0.9970172941899383 -0.030949536575320947
 -0.0004048003777789885 -0.003746250583974689 0.0004587902595352434 0.005822202318567397 0.9970172941899383 -0.030949536575320947 0.002540613717649923 0.012861942110873893
0.07503126302626001 0.0027209569556506294 0.014110868102362466 0.9967808160436648 -0.03382355519255475 0.0005190830608132874 0.006356502589682343 -0.0004580733056588981 -0.004092812850047063
 0.9967808160436648 -0.03382355519255475 0.0027209272203767153 0.014110865724880383 -0.00045779756518746646 -0.004092814822734097 0.0005206952558765436 0.0063563272394693
 0.0005190830608132874 0.006356502589682343 -0.00045779756518746646 -0.004092814822734097 0.0027211126441905762 0.01410985508697201 0.9967807929648683 -0.033824555574320625
 -0.0004580733056588981 -0.004092812850047063 0.0005206952558765436 0.0063563272394693 0.9967807929648683 -0.033824555574320625 0.00272072578278324 0.014109879107271584
0.08128386827845 0.0029093388024929927 0.015370985807170487 0.9965334248170395 -0.036709155902284074 0.000584866252738124 0.006891338411945389 -0.0005148909962661015 -0.004440173675564051
 0.9965334248170395 -0.036709155902284074 0.002909303972259654 0.015370982506886177 -0.0005145683676979584 -0.004440178221778854 0.0005867600751968889 0.006891130221438063
 0.000584866252738124 0.006891338411945389 -0.0005145683676979584 -0.004440178221778854 0.002909521896926317 0.01536988769879656 0.9965333980428629 -0.03671023945558047
 -0.0005148909962661015 -0.004440173675564051 0.0005867600751968889 0.006891130221438063 0.9965333980428629 -0.03671023945558047 0.0029090678418882726 0.015369914961999515
0.08753647353064001 0.003106107132278519 0.016643077230342147 0.9962749913460041 -0.03960539823926128 0.0006548293110918863 0.007426816629677243 -0.0005752973523622356 -0.004788290073385196
 0.9962749913460041 -0.03960539823926128 0.0031060668077222287 0.016643072822722833 -0.0005749242826671551 -0.004788297693202963 0.0006570277672168119 0.0074265718453243035
 0.0006548293110918863 0.007426816629677243 -0.0005749242826671551 -0.004788297693202963 0.0031063198669167443 0.016641893842660842 0.9962749606038774 -0.03960656495186347
 -0.0005752973523622356 -0.004788290073385196 0.0006570277672168119 0.0074265718453243035 0.9962749606038774 -0.03960656495186347 0.0031057932226506617 0.016641924619838256
0.09378907878283 0.0033114152062223754 0.01792702268546949 0.9960053664391715 -0.042512249662156394 0.0007290148819058207 0.00796289664851412 -0.0006393358933259221 -0.005137118501821519
 0.9960053664391715 -0.042512249662156394 0.0033113689869927214 0.01792701696919674 -0.0006389088542320912 -0.005137129723086641 0.000731541050372959 0.007962611303744128
 0.0007290148819058207 0.00796289664851412 -0.0006389088542320912 -0.005137129723086641 0.0033116598183740493 0.017925753816093237 0.9960053314562728 -0.04251349952347929
 -0.0006393358933259221 -0.005137118501821519 0.000731541050372959 0.007962611303744128 0.9960053314562728 -0.04251349952347929 0.003311055183995141 0.017925788396045507
0.100041684035 0.003525416219079659 0.019222706364291128 0.9957244005971774 -0.04542966981240866 0.0008074652573397943 0.0084995365673069 -0.0007070497389016406 -0.005486614778998803
 0.9957244005971774 -0.04542966981240866 0.00352536370304913 0.01922269912108516 -0.0007065652266817297 -0.005486630157328312 0.0008103422873028787 0.008499206479966801
 0.0008074652573397943 0.0084995365673069 -0.0007065652266817297 -0.005486630157328312 0.0035256949484279185 0.0192213517944743 0.995724361100306 -0.04543100281358297
 -0.0007070497389016406 -0.005486614778998803 0.0008103422873028787 0.008499206479966801 0.995724361100306 -0.04543100281358297 0.0035250069176010596 0.019221390483941985
0.1059090909091 0.0037342760054695366 0.020449143117638208 0.9954502961078254 -0.04817692947337997 0.0008849987483700981 0.00900358701932289 -0.0007739726949456262 -0.0058151473895177086
 0.9954502961078254 -0.04817692947337997 0.0037342172129274727 0.02044913422770654 -0.0007734310854802393 -0.0058151671988641825 0.0008882261394722378 0.009003210947949574
 0.0008849987483700981 0.00900358701932289 -0.0007734310854802393 -0.0058151671988641825 0.0037345887896399017 0.02044770791526975 0.9954502521262836 -0.048178340484134004
 -0.0007739726949456262 -0.0058151473895177086 0.0008882261394722378 0.009003210947949574 0.9954502521262836 -0.048178340484134004 0.003733817577827437 0.020447750756234298
0.1062942892872 0.003748263293348111 0.020530015212485875 0.9954319440712603 -0.048357611602016654 0.000890222351670536 0.009036693240171072 -0.0007784815920495815 -0.00583673401482987
 0.9954319440712603 -0.048357611602016654 0.0037482040762086173 0.020530006206851734 -0.0007779361274305088 -0.005836754133597706 0.0008934734606666649 0.009036314010002057
 0.000890222351670536 0.009036693240171072 -0.0007779361274305088 -0.005836754133597706 0.0037485783823009537 0.020528574708648183 0.9954318997866912 -0.04835902773427317
 -0.0007784815920495815 -0.00583673401482987 0.0008934734606666649 0.009036314010002057 0.9954318997866912 -0.04835902773427317 0.0037478015427727085 0.020528617832537517
0.11254689453939999 0.003980109467629461 0.02184883806775589 0.9951278469154213 -0.05129602203994144 0.0009773276778312883 0.009574322322749906 -0.0008536737206391458 -0.006187430559596912
 0.9951278469154213 -0.05129602203994144 0.003980043142482456 0.02184882704671595 -0.0008530638487127634 -0.006187456029924485 0.000980976149718922 0.00957388932883651
 0.0009773276778312883 0.009574322322749906 -0.0008530638487127634 -0.006187456029924485 0.003980463161164782 0.02184731137892759 0.9951277975694808 -0.05129752129696631
 -0.0008536737206391458 -0.006187430559596912 0.000980976149718922 0.00957388932883651 0.9951277975694808 -0.05129752129696631 0.003979592094571586 0.021847359280491394
0.11879949979160001 0.0042211076807756095 0.02317906498729976 0.9948119590367719 -0.054244842869863724 0.0010688223242878477 0.010112378306352159 -0.000932667938431845 -0.006538657965452627
 0.9948119590367719 -0.054244842869863724 0.004221033837185393 0.023179051680208337 -0.0009319902285637384 -0.006538689426196805 0.0010728915068139264 0.010111886704646734
 0.0010688223242878477 0.010112378306352159 -0.0009319902285637384 -0.006538689426196805 0.004221502226148821 0.023177451845332177 0.9948119043551209 -0.05424642524751437
 -0.000932667938431845 -0.006538657965452627 0.0010728915068139264 0.010111886704646734 0.9948119043551209 -0.05424642524751437 0.0042205315077712855 0.023177504886426597
0.1250521050438 0.0044714107520072615 0.02452058670891371 0.9944841302421835 -0.05720401107537274 0.0011647469317941582 0.010650814545595055 -0.0010155055854381824 -0.006890368955326026
 0.9944841302421835 -0.05720401107537274 0.004471328975814921 0.024520570827229384 -0.001014756631269632 -0.006890407073061657 0.0011692602341146989 0.010650259266398449
 0.0011647469317941582 0.010650814545595055 -0.001014756631269632 -0.006890407073061657 0.004471848398598216 0.024518886829971002 0.9944840699500915 -0.05720567656994273
 -0.0010155055854381824 -0.006890368955326026 0.0011692602341146989 0.010650259266398449 0.9944840699500915 -0.05720567656994273 0.004470772597099894 0.024518945391267765
0.131304710296 0.004731171357800353 0.025873294225836972 0.9941442102834838 -0.06017345927212968 0.0012651416701883423 0.011189583282711281 -0.0011022275077373766 -0.0072425153959928806
 0.9941442102834838 -0.06017345927212968 0.004731081230352615 0.025873275462945627 -0.0011014039271637667 -0.007242560864989794 0.0012701225603441843 0.011188959028280425
 0.0012651416701883423 0.011189583282711281 -0.0011014039271637667 -0.007242560864989794 0.0047316543572812515 0.02587150730928423 0.9941441441057633 -0.0601752078813139
 -0.0011022275077373766 -0.0072425153959928806 0.0012701225603441843 0.011188959028280425 0.9941441441057633 -0.0601752078813139 0.004730468034522386 0.02587157179054299
0.1375573155481 0.004931466863628026 0.027060628445830372 0.993861137665566 -0.06297662824889853 0.0013547519563950753 0.01171036862785405 -0.0011775743804098122 -0.0075767892954931556
 0.993861137665566 -0.06297662824889853 0.004931367453952057 0.02706060645809525 -0.0011766711695292325 -0.0075768419520856325 0.0013602107207075333 0.011709677647809329
 0.0013547519563950753 0.01171036862785405 -0.0011766711695292325 -0.0075768419520856325 0.004931996938119215 0.027058754238684 0.9938610653381429 -0.0629784599485266
 -0.0011775743804098122 -0.0075767892954931556 0.0013602107207075333 0.011709677647809329 0.9938610653381429 -0.0629784599485266 0.004930695180216466 0.02705882486494391
0.1438099208003 0.005138446103819229 0.028243185884863835 0.993568754923967 -0.0657741758769127 0.001447955390382589 0.012229858883401876 -0.001255928921339119 -0.007909872568824278
 0.993568754923967 -0.0657741758769127 0.005138336898015685 0.02824316037179039 -0.0012549424403814138 -0.007909933074277842 0.001453913190098534 0.01222909648390035
 0.001447955390382589 0.012229858883401876 -0.0012549424403814138 -0.007909933074277842 0.005139025411357306 0.028241224079259473 0.9935686761735593 -0.06577609066184292
 -0.001255928921339119 -0.007909872568824278 0.001453913190098534 0.01222909648390035 0.9935686761735593 -0.06577609066184292 0.0051376028698900435 0.028241301263014364
0.1500625260525 0.0053520526024355645 0.029420911486781113 0.9932671207612355 -0.06856607698498261 0.0015447283228409755 0.01274802835327248 -0.001337268063387948 -0.008241739894300836
 0.9932671207612355 -0.06856607698498261 0.00535193307701322 0.029420882137831145 -0.0013361946761070926 -0.008241808936008408 0.001551206220407055 0.0127471896763124
 0.0015447283228409755 0.01274802835327248 -0.0013361946761070926 -0.008241808936008408 0.0053526832963134005 0.029418861763426965 0.99326703531402 -0.06856807484922015
 -0.001337268063387948 -0.008241739894300836 0.001551206220407055 0.0127471896763124 0.99326703531402 -0.06856807484922015 0.0053511346236091275 0.029418945934913773
0.15631513130469998 0.005572229664039281 0.030593752170189805 0.9929562939770277 -0.07135230571300999 0.0016450469289636565 0.01326485164588623 -0.0014215685526687012 -0.008572366406340308
