! Created with skrf 1.8.0 (http://scikit-rf.org).
# GHz S RI R 50.0 
!freq ReS11 ImS11 ReS12 ImS12 ReS13 ImS13
! ReS14 ImS14
! ReS21 ImS21 ReS22 ImS22 ReS23 ImS23
! ReS24 ImS24
! ReS31 ImS31 ReS32 ImS32 ReS33 ImS33
! ReS34 ImS34
! ReS41 ImS41 ReS42 ImS42 ReS43 ImS43
! ReS44 ImS44
!
0.0 0.00152249119543 0.0 0.9984775088017 0.0 5.883098426884e-05 0.0 -5.883098453579e-05 7.204717690244266e-21
 0.9984775088017 0.0 0.001522491195469 0.0 -5.883098453618e-05 7.204717690292028e-21 5.883098427021e-05 0.0
 5.883098426884e-05 0.0 -5.883098453618e-05 7.204717690292028e-21 0.001522491195436 0.0 0.9984775088017 0.0
 -5.883098453579e-05 7.204717690244266e-21 5.883098427021e-05 0.0 0.9984775088017 0.0 0.001522491195456 0.0
0.005 0.001638049120840737 0.0012429157821943866 0.9983313209566654 -0.003189469282157114 8.275263625849772e-05 0.0006639827894183425 -8.031387055994445e-05 -0.0004140221665597991
 0.9983313209566654 -0.003189469282157114 0.001638047252436196 0.0012429168090524476 -8.03129724805185e-05 -0.0004140214256852049 8.277995136928831e-05 0.0006639725761213997
 8.275263625849772e-05 0.0006639827894183425 -8.03129724805185e-05 -0.0004140214256852049 0.0016380501892704219 0.0012429823760603518 0.9983313213113013 -0.003189402223994022
 -8.031387055994445e-05 -0.0004140221665597991 8.277995136928831e-05 0.0006639725761213997 0.9983313213113013 -0.003189402223994022 0.0016380468894139255 0.0012429843289740695
0.006252605252188 0.0016683400995842195 0.0015585487133125114 0.9982927626661692 -0.003987620467295926 8.956768306001733e-05 0.0008302945312791229 -8.637276750851131e-05 -0.0005180675459474253
 0.9982927626661692 -0.003987620467295926 0.0016683371789462688 0.00155854997185979 -8.637137041687975e-05 -0.0005180666313474898 8.961036268503407e-05 0.000830281240366798
 8.956768306001733e-05 0.0008302945312791229 -8.637137041687975e-05 -0.0005180666313474898 0.001668341698168787 0.0015586319478681783 0.9982927631486882 -0.0039875366454382695
 -8.637276750851131e-05 -0.0005180675459474253 8.961036268503407e-05 0.000830281240366798 0.9982927631486882 -0.0039875366454382695 0.0016683365391165668 0.001558634375116545
0.01250521050438 0.001827702970546318 0.003149868019444837 0.9980885817552824 -0.007976075186571828 0.00012854921243425047 0.0016609129631593401 -0.00012071507204386425 -0.0010386719707296717
 0.9980885817552824 -0.007976075186571828 0.0018276913126254075 0.003149870263419662 -0.00012070957107517689 -0.0010386702668396042 0.00012871947955132865 0.0016608807514663477
 0.00012854921243425047 0.0016609129631593401 -0.00012070957107517689 -0.0010386702668396042 0.0018277087983211394 0.0031500341621280826 0.9980885831208454 -0.00797590778355047
 -0.00012071507204386425 -0.0010386719707296717 0.00012871947955132865 0.0016608807514663477 0.9980885831208454 -0.00797590778355047 0.0018276881884234748 0.0031500388693312133
0.01875781575657 0.002000924914362381 0.004763933285652514 0.9978647142932751 -0.011975077007713518 0.00017586570804868824 0.002492431127690634 -0.0001619633255858094 -0.0015610438034297817
 0.9978647142932751 -0.011975077007713518 0.002000898727923117 0.0047639361908986926 -0.00016195106484308047 -0.0015610414577152932 0.00017624836181683208 0.0024923733119013806
 0.00017586570804868824 0.002492431127690634 -0.00016195106484308047 -0.0015610414577152932 0.002000937601931492 0.0047641821074289065 0.9978647169441217 -0.01197482612204161
 -0.0001619633255858094 -0.0015610438034297817 0.00017624836181683208 0.0024923733119013806 0.9978647169441217 -0.01197482612204161 0.0020008912730937194 0.004764188939648306
0.02501042100875 0.002188341002110227 0.006398482402904196 0.997620898661938 -0.01598656597042248 0.00023160835476992598 0.0033248897126797747 -0.0002102195036844878 -0.0020849429890743114
 0.997620898661938 -0.01598656597042248 0.002188294510200477 0.006398485588667974 -0.00021019786102922862 -0.0020849401739628996 0.00023228832894636273 0.003324798582197
 0.00023160835476992598 0.0033248897126797747 -0.00021019786102922862 -0.0020849401739628996 0.002188363175525676 0.006398813688745916 0.9976209029958538 -0.0159862316423867
 -0.0002102195036844878 -0.0020849429890743114 0.00023228832894636273 0.003324798582197 0.9976209029958538 -0.0159862316423867 0.002188280867614066 0.006398822476337574
0.03126302626094 0.0023902724291761756 0.00805235199473155 0.9973568597966811 -0.02001137306228839 0.00029586874846636557 0.004158251041980117 -0.00026558269088402495 -0.0026102021433555916
 0.9973568597966811 -0.02001137306228839 0.0023901998634133404 0.008052355021694883 -0.000265549072164327 -0.002610199056566632 0.0002969311884690321 0.004158117849666615
 0.00029586874846636557 0.004158251041980117 -0.000265549072164327 -0.002610199056566632 0.002390306718152386 0.008052765500269253 0.9973568662145096 -0.02001095531699016
 -0.00026558269088402495 -0.0026102021433555916 0.0002969311884690321 0.004158117849666615 0.9973568662145096 -0.02001095531699016 0.002390178171707714 0.008052776057113317
0.037515631513130004 0.002607033450776948 0.009724784066897986 0.9970723163392033 -0.024049913508175286 0.0003687380260967279 0.004992446538085647 -0.00032814981671287394 -0.0031366790952731564
 0.9970723163392033 -0.024049913508175286 0.0026069290458651836 0.00972478643556885 -0.00032810165270803993 -0.003136675959866716 0.0003702683252105969 0.004992261487309033
 0.0003687380260967279 0.004992446538085647 -0.00032810165270803993 -0.003136675959866716 0.002607082484718509 0.009725279522553582 0.9970723252423299 -0.02404941235092871
 -0.00032814981671287394 -0.0031366790952731564 0.0003702683252105969 0.004992261487309033 0.9970723252423299 -0.02404941235092871 0.0026068974356764025 0.009725291645059166
0.043768236765320004 0.0028389340625848618 0.011415215023978699 0.9967669835380549 -0.02810239768408916 0.0004503064542753325 0.005827391160499023 -0.00039801592085321507 -0.0036642424511848523
 0.9967669835380549 -0.02810239768408916 0.002838792051762333 0.011415216173498567 -0.00039795066542764045 -0.0036642395155767464 0.0004523902722724983 0.005827143391062194
 0.0004503064542753325 0.005827391160499023 -0.00039795066542764045 -0.0036642395155767464 0.002839000471587686 0.01141579212322424 0.9967669953290895 -0.0281018131117242
 -0.00039801592085321507 -0.0036642424511848523 0.0004523902722724983 0.005827143391062194 0.9967669953290895 -0.0281018131117242 0.00283874864685401 0.011415805589510232
0.050020842017509996 0.0030862812431145196 0.013123188458824592 0.9964405747120755 -0.03216891825650581 0.0005406631839424688 0.00666298935861235 -0.00047527424639945615 -0.004192765645701076
 0.9964405747120755 -0.03216891825650581 0.003086095854169288 0.01312318776565239 -0.0004751893753499291 -0.004192763183635184 0.0005433864565649241 0.0066626669320822935
 0.0005406631839424688 0.00666298935861235 -0.0004751893753499291 -0.004192763183635184 0.003086367656970741 0.013123846863886636 0.9964405897954484 -0.03216825025112465
 -0.00047527424639945615 -0.004192765645701076 0.0005433864565649241 0.0066626669320822935 0.9964405897954484 -0.03216825025112465 0.003086038770422623 0.013123861433293915
0.055454545454549996 0.003314014561033802 0.014621410168876437 0.996139575778233 -0.0357142622606019 0.0006263913640927123 0.0073896003639383895 -0.0005484885448754374 -0.004652750982746747
 0.996139575778233 -0.0357142622606019 0.0033137867795902894 0.014621407318626267 -0.0005483845936302192 -0.0046527491741663795 0.0006297403497487375 0.007389202514040301
 0.0006263913640927123 0.0073896003639383895 -0.0005483845936302192 -0.0046527491741663795 0.00331412049573206 0.01462213892616022 0.99613959405326 -0.035713521729525695
 -0.0005484885448754374 -0.004652750982746747 0.0006297403497487375 0.007389202514040301 0.99613959405326 -0.035713521729525695 0.003313716273568256 0.01462215424384632
0.056273447269699996 0.003349379590834423 0.01484831236223714 0.996092802113006 -0.036249492902552374 0.0006398960717088937 0.0074991380103494815 -0.0005600162630199486 -0.004722124009466819
 0.996092802113006 -0.036249492902552374 0.0033491450413660373 0.014848309139277566 -0.0005599092731704388 -0.004722122319985185 0.0006433450144887663 0.007498727895146692
 0.0006398960717088937 0.0074991380103494815 -0.0005599092731704388 -0.004722122319985185 0.0033494886397129617 0.014849051697010604 0.99609282089581 -0.0362487414381793
 -0.0005600162630199486 -0.004722124009466819 0.0006433450144887663 0.007498727895146692 0.99609282089581 -0.0362487414381793 0.003349072388329834 0.014849067109653124
0.06252605252188 0.0036285316694884377 0.016590235594355827 0.9957233774989086 -0.040344087771247594 0.0007480915402126654 0.008335728019764408 -0.0006523316482342573 -0.0052521931814938265
 0.9957233774989086 -0.040344087771247594 0.003628242162567449 0.016590229089990586 -0.0006522000568284006 -0.0052521925889075765 0.0007523526486494664 0.008335216076072611
 0.0007480915402126654 0.008335728019764408 -0.0006522000568284006 -0.0052521925889075765 0.0036286659811101776 0.016591055445273277 0.9957234003895171 -0.040343252812534196
 -0.0006523316482342573 -0.0052521931814938265 0.0007523526486494664 0.008335216076072611 0.9957234003895171 -0.040343252812534196 0.0036281520412849446 0.016591071421710322
0.06877865777407 0.003924038185070177 0.018348633847625258 0.9953320125444005 -0.04445263145668102 0.0008653344557863899 0.009172645287810177 -0.0007523082491492845 -0.005782848152192762
 0.9953320125444005 -0.04445263145668102 0.003923687905052346 0.018348623244923565 -0.0007521495934172719 -0.005782849006037963 0.0008704945028904929 0.009172016252420753
 0.0008653344557863899 0.009172645287810177 -0.0007521495934172719 -0.005782849006037963 0.003924200386146838 0.018349533767557866 0.9953320399547493 -0.04445171295449054
 -0.0007523082491492845 -0.005782848152192762 0.0008704945028904929 0.009172016252420753 0.9953320399547493 -0.04445171295449054 0.003923578409911139 0.01834955000862512
0.07503126302626001 0.004236198071078294 0.020123200765338016 0.9949184191614358 -0.04857502381963106 0.0009917080185193167 0.010009771323396106 -0.0008600320297843881 -0.0063139626703403165
 0.9949184191614358 -0.04857502381963106 0.004235781179250495 0.020123185181362822 -0.0008598438666213814 -0.006313965345340857 0.0009978540504700518 0.010009008794487483
 0.0009917080185193167 0.010009771323396106 -0.0008598438666213814 -0.006313965345340857 0.004236390785786158 0.0201241802641067 0.9949184515063328 -0.04857402172010115
 -0.0008600320297843881 -0.0063139626703403165 0.0009978540504700518 0.010009008794487483 0.9949184515063328 -0.04857402172010115 0.004235650397093299 0.02012419645088371
0.08128386827845 0.00456530851182849 0.021913642014162803 0.9944823097626192 -0.05271114185984928 0.0011272936591536047 0.010846983655846378 -0.0009755870098479615 -0.0068454088530341545
 0.9944823097626192 -0.05271114185984928 0.004564819141815163 0.021913620499427702 -0.000975366915510007 -0.00684541374907722 0.001134512989460261 0.010846070077769587
 0.0011272936591536047 0.010846983655846378 -0.000975366915510007 -0.00684541374907722 0.00456553436132283 0.02191470056391619 0.9944823474605536 -0.05271005609861795
 -0.0009755870098479615 -0.0068454088530341545 0.001134512989460261 0.010846070077769587 0.9944823474605536 -0.05271005609861795 0.004564665152596208 0.021914716357618845
0.08753647353064001 0.004911664926904595 0.023719671199669112 0.9940233974882873 -0.05686084375009818 0.0012721709407116568 0.011684156128229737 -0.0010990551972072493 -0.007377056919454278
 0.9940233974882873 -0.05686084375009818 0.004911097179878812 0.023719642737685363 -0.0010988007671415905 -0.007377064461544296 0.0012805511430061033 0.011683072776293801
 0.0012721709407116568 0.011684156128229737 -0.0010988007671415905 -0.007377064461544296 0.004911926528071465 0.023720808233497963 0.9940234409612649 -0.056859674253348626
 -0.0010990551972072493 -0.007377056919454278 0.0012805511430061033 0.011683072776293801 0.9940234409612649 -0.056859674253348626 0.004910918056077799 0.023720823275670808
0.09378907878283 0.005275560925832039 0.025541006943875493 0.9935413964091232 -0.06102397171348386 0.001426417462624481 0.012521159106851018 -0.0012305165162291426 -0.007908775013153846
 0.9935413964091232 -0.06102397171348386 0.005274908866524183 0.025540970450779937 -0.0012302253650116406 -0.007908785651366677 0.0014360463627128167 0.012519886072139889
 0.001426417462624481 0.012521159106851018 -0.0012302253650116406 -0.007908785651366677 0.005275860891286251 0.025542221855097157 0.9935414460833314 -0.0610227183981826
 -0.0012305165162291426 -0.007908775013153846 0.0014360463627128167 0.012519886072139889 0.9935414460833314 -0.0610227183981826 0.005274702673342363 0.025542235767891885
0.100041684035 0.005657288245233239 0.0273773707428697 0.9930360217114629 -0.0652003541259919 0.0015901087675054527 0.01335785964832217 -0.0013700487326128016 -0.008440429071757575
 0.9930360217114629 -0.0652003541259919 0.005656545896688095 0.027377325067227037 -0.0013697184937024203 -0.008440443281221276 0.0016010744343288113 0.013356375822574661
 0.0015901087675054527 0.01335785964832217 -0.0013697184937024203 -0.008440443281221276 0.0056576291818928905 0.027378662883594952 0.993036078017773 -0.06519901690101705
 -0.0013700487326128016 -0.008440429071757575 0.0016010744343288113 0.013356375822574661 0.993036078017773 -0.06519901690101705 0.005656310692721826 0.02737867526999085
0.1059090909091 0.006031974401773209 0.029114024276856783 0.992540270534971 -0.06913133717640593 0.0017523710283124186 0.014142618080357166 -0.0015083926217251476 -0.008939150347633708
 0.992540270534971 -0.06913133717640593 0.0060311418493410145 0.02911396887689109 -0.0015080235676896048 -0.008939168362736085 0.0017646714146432368 0.014140916170218539
 0.0017523710283124186 0.014142618080357166 -0.0015080235676896048 -0.008939168362736085 0.006032356150936418 0.029115388263988188 0.9925403334606849 -0.06912992112013841
 -0.0015083926217251476 -0.008939150347633708 0.0017646714146432368 0.014140916170218539 0.9925403334606849 -0.06912992112013841 0.006030877649609811 0.029115398840303407
0.1062942892872 0.00605713666993659 0.02922848536026058 0.9925069898732335 -0.06938980708879437 0.001763318248864039 0.014194121624834308 -0.0015177273758052647 -0.008971882743523271
 0.9925069898732335 -0.06938980708879437 0.006056298009132234 0.029228429282977156 -0.0015173557016032425 -0.008971901024370366 0.0017757089847325748 0.014192404685336507
 0.001763318248864039 0.014194121624834308 -0.0015173557016032425 -0.008971901024370366 0.00605752117840164 0.029229854041495067 0.9925070532469814 -0.06938838585457852
 -0.0015177273758052647 -0.008971882743523271 0.0017757089847325748 0.014192404685336507 0.9925070532469814 -0.06938838585457852 0.006056031845564297 0.02922986448580039
0.11254689453939999 0.006475393942844024 0.03109407359589916 0.9919540188286776 -0.07359213563126793 0.0019461170598472396 0.015029805832619729 -0.0016736256596240338 -0.009502997325749824
 0.9919540188286776 -0.07359213563126793 0.006474452895724131 0.031094005830272456 -0.001673210221377086 -0.009503020203079346 0.001960021390100285 0.015027832227287066
 0.0019461170598472396 0.015029805832619729 -0.001673210221377086 -0.009503020203079346 0.006475824616671869 0.03109551808813673 0.9919540897107 -0.07359063027884981
 -0.0016736256596240338 -0.009502997325749824 0.001960021390100285 0.015027832227287066 0.9919540897107 -0.07359063027884981 0.00647415381705369 0.031095526156561595
0.11879949979160001 0.006912345666706821 0.0329738573365286 0.9913768281297011 -0.07780713463789764 0.0021385740229029433 0.01586477008085091 -0.0018378144012097862 -0.010033631728225512
 0.9913768281297011 -0.07780713463789764 0.006911296103175166 0.03297377652839171 -0.0018373528890111154 -0.010033659752069109 0.0021540806848061676 0.015862515013253257
 0.0021385740229029433 0.01586477008085091 -0.0018373528890111154 -0.010033659752069109 0.0069128250915318715 0.03297537686712215 0.9913769069664313 -0.07780554505128101
 -0.0018378144012097862 -0.010033631728225512 0.0021540806848061676 0.015862515013253257 0.9913769069664313 -0.07780554505128101 0.006910962147123083 0.03297538210843896
0.1250521050438 0.00736827519815548 0.03486755679791023 0.9907751391022162 -0.08203458959007841 0.002340755539662314 0.01669886927191229 -0.0020103619390109753 -0.010563642450519706
 0.9907751391022162 -0.08203458959007841 0.007367110927328944 0.03486746152597426 -0.002009852061810974 -0.01056367619578897 0.0023579534708664503 0.016696306686485248
 0.002340755539662314 0.01669886927191229 -0.002009852061810974 -0.01056367619578897 0.00736880595056567 0.03486915055454638 0.9907752263456352 -0.08203291564248737
 -0.0020103619390109753 -0.010563642450519706 0.0023579534708664503 0.016696306686485248 0.9907752263456352 -0.08203291564248737 0.0073667401246864566 0.03486915250092561
0.131304710296 0.007843463536276282 0.036774889929147084 0.990148674998043 -0.08627427715185068 0.002552725501701042 0.017531955472256132 -0.0021913340496400877 -0.011092883574242839
 0.990148674998043 -0.08627427715185068 0.007842178301289032 0.036774778705435544 -0.002190773535238931 -0.011092923640710618 0.0025717038280012533 0.01752905803961123
 0.002552725501701042 0.017531955472256132 -0.002190773535238931 -0.011092923640710618 0.00784404818320992 0.03677655705504578 0.9901487711068839 -0.08627251871041379
 -0.0021913340496400877 -0.011092883574242839 0.0025717038280012533 0.01752905803961123 0.9901487711068839 -0.08627251871041379 0.007841768676244693 0.03677655522293597
0.1375573155481 0.008229033012627365 0.03844627911957245 0.9896063602507865 -0.09027656081998209 0.002747637690892424 0.01833872548809731 -0.002353864508358772 -0.011596086387116726
 0.9896063602507865 -0.09027656081998209 0.00822761883982818 0.03844615322069632 -0.002353249848260696 -0.01159613281186935 0.002768434486293146 0.018335497535766056
 0.002747637690892424 0.01833872548809731 -0.002353249848260696 -0.01159613281186935 0.008229673355352789 0.038448019123155035 0.9896064656292739 -0.09027471783184128
 -0.002353864508358772 -0.011596086387116726 0.002768434486293146 0.018335497535766056 0.9896064656292739 -0.09027471783184128 0.008227169279746151 0.03844801520415925
0.1438099208003 0.008628159297654491 0.04010887795807707 0.9890449892211329 -0.09426872258187613 0.0029504197588216263 0.019142284715887727 -0.002522901005696129 -0.012096333708411466
 0.9890449892211329 -0.09426872258187613 0.008626609550314152 0.040108736213507495 -0.002522229732201975 -0.012096387084666604 0.0029731151944790883 0.01913870133444019
 0.0029504197588216263 0.019142284715887727 -0.002522229732201975 -0.012096387084666604 0.008628857750964473 0.04011068999314697 0.9890451043252032 -0.09426679492146303
 -0.002522901005696129 -0.012096333708411466 0.0029731151944790883 0.01913870133444019 0.9890451043252032 -0.09426679492146303 0.00862611822696003 0.040110683783105346
0.1500625260525 0.009040702339203432 0.04176254813170247 0.9884647061211346 -0.09825066399146774 0.0031610019666027263 0.019942552750634553 -0.002698375442329836 -0.012593548831137688
 0.9884647061211346 -0.09825066399146774 0.009039010302922807 0.04176238934178541 -0.0026976450909733246 -0.012593609776381322 0.0031856758034461393 0.019938588112392935
 0.0031610019666027263 0.019942552750634553 -0.0026976450909733246 -0.012593609776381322 0.009041461299462376 0.04176443132010857 0.9884648314117491 -0.0982486515284902
 -0.002698375442329836 -0.012593548831137688 0.0031856758034461393 0.019938588112392935 0.9884648314117491 -0.0982486515284902 0.009038475392092678 0.0417644226215956
0.15631513130469998 0.00946652109458216 0.04340715550896105 0.9878656558946155 -0.10222228693915099 0.0033793137506131794 0.020739450546856154 -0.0028802188795383804 -0.013087656671487808
 0.9878656558946155 -0.10222228693915099 0.009464679974991841 0.04340697844716479 -0.0028794269890797253 -0.013087725827393017 0.0034060453349670696 0.020735077913645223
