! Created with skrf 1.8.0 (http://scikit-rf.org).
# GHz S RI R 50.0 
!freq ReS11 ImS11 ReS12 ImS12 ReS13 ImS13
! ReS14 ImS14
! ReS21 ImS21 ReS22 ImS22 ReS23 ImS23
! ReS24 ImS24
! ReS31 ImS31 ReS32 ImS32 ReS33 ImS33
! ReS34 ImS34
! ReS41 ImS41 ReS42 ImS42 ReS43 ImS43
! ReS44 ImS44
!
0.0 0.0009999573088351 0.0 0.9990000426837 0.0 3.76829555531e-05 0.0 -3.768295564745e-05 4.614831101606132e-21
 0.9990000426837 0.0 0.0009999573088446 0.0 -3.768295564792e-05 4.61483110166369e-21 3.768295555354e-05 0.0
 3.76829555531e-05 0.0 -3.768295564792e-05 4.61483110166369e-21 0.0009999572994473 0.0 0.9990000426743 0.0
 -3.768295564745e-05 4.614831101606132e-21 3.768295555354e-05 0.0 0.9990000426743 0.0 0.0009999572994252 0.0
0.005 0.0010748143997932802 0.0008180519540178267 0.9989054880181248 -0.0020961195450065417 5.228742667278983e-05 0.0004190870975143814 -5.0865639204611965e-05 -0.000262557211995419
 0.9989054880181248 -0.0020961195450065417 0.00107481450544619 0.0008180518745850848 -5.0864087493628316e-05 -0.00026255600109531085 5.228296224810809e-05 0.0004190886390179159
 5.228742667278983e-05 0.0004190870975143814 -5.0864087493628316e-05 -0.00026255600109531085 0.001074814974939447 0.0008179843482629057 0.9989054877067948 -0.002096186608707632
 -5.0865639204611965e-05 -0.000262557211995419 5.228296224810809e-05 0.0004190886390179159 0.9989054877067948 -0.002096186608707632 0.0010748133072716692 0.0008179853515543158
0.006252605252188 0.0010941441565169732 0.0010258290562470424 0.9988809671257376 -0.0026207086259547262 5.628989847450269e-05 0.000524079050923471 -5.445005237733213e-05 -0.00032855416306998926
 0.9988809671257376 -0.0026207086259547262 0.0010941443222696819 0.00102582900392427 -5.444763786737687e-05 -0.0003285526685756469 5.628292120844785e-05 0.0005240810740177663
 5.628989847450269e-05 0.000524079050923471 -5.444763786737687e-05 -0.0003285526685756469 0.0010941451309893848 0.00102574455830821 0.9988809667143267 -0.0026207924431884857
 -5.445005237733213e-05 -0.00032855416306998926 5.628292120844785e-05 0.0005240810740177663 0.9988809667143267 -0.0026207924431884857 0.0010941425241455846 0.0010257458645492974
0.01250521050438 0.0011941356712433747 0.00207362042231296 0.9987535195110068 -0.0052424288901780965 7.834535447979852e-05 0.0010485761284733694 -7.404895557339628e-05 -0.0006588917814498088
 0.9987535195110068 -0.0052424288901780965 0.0011941363378583272 0.0020736207901565873 -7.403944062920867e-05 -0.0006588889962041198 7.831746987494368e-05 0.0010485811725988107
 7.834535447979852e-05 0.0010485761284733694 -7.403944062920867e-05 -0.0006588889962041198 0.0011941401258496155 0.0020734516377417587 0.9987535184280002 -0.005242596273364498
 -7.404895557339628e-05 -0.0006588917814498088 7.831746987494368e-05 0.0010485811725988107 0.9987535184280002 -0.005242596273364498 0.0011941297132921549 0.002073454784288967
0.01875781575657 0.0013000852777283942 0.0031368395241167615 0.9986175883269781 -0.007871602548858079 0.0001038896198736026 0.0015738827246602862 -9.652564684656885e-05 -0.0009905670457794
 0.9986175883269781 -0.007871602548858079 0.0013000867827073722 0.0031368407976894368 -9.650442765739422e-05 -0.0009905631986660314 0.00010382683782007805 0.0015738919009206515
 0.0001038896198736026 0.0015738827246602862 -9.650442765739422e-05 -0.0009905631986660314 0.0013000957172431959 0.003136586474960153 0.9986175863158304 -0.007871853410290473
 -9.652564684656885e-05 -0.0009905670457794 0.00010382683782007805 0.0015738919009206515 0.9986175863158304 -0.007871853410290473 0.0013000723104573402 0.0031365920422672905
0.02501042100875 0.0014121449355633075 0.004214056263675241 0.998473059689293 -0.010509563902090562 0.0001329634584386161 0.0021000591741995593 -0.0001219254455236554 -0.001323463678370525
 0.998473059689293 -0.010509563902090562 0.0014121476210167782 0.00421405894487085 -0.00012188797190363454 -0.0013234590282691506 0.00013285169840420978 0.0021000737084381745
 0.0001329634584386161 0.0021000591741995593 -0.00012188797190363454 -0.0013234590282691506 0.001412163860986809 0.004213718954447125 0.9984730564907113 -0.010509898147301171
 -0.0001219254455236554 -0.001323463678370525 0.00013285169840420978 0.0021000737084381745 0.9984730564907113 -0.010509898147301171 0.0014121222769952419 0.004213727569924528
0.03126302626094 0.001530459637382941 0.005304564745741299 0.9983198118868428 -0.01315692004775023 0.00016560826548368734 0.0026271181092939943 -0.00015029279550391237 -0.0016575114750232308
 0.9983198118868428 -0.01315692004775023 0.0015304638513050652 0.005304569353645204 -0.00015023456127361568 -0.0016575063114901336 0.00016543334668472017 0.002627139344455473
 0.00016560826548368734 0.0026271181092939943 -0.00015023456127361568 -0.0016575063114901336 0.001530489553910522 0.005304143115168008 0.998319807245369 -0.013157337623809207
 -0.00015029279550391237 -0.0016575114750232308 0.00016543334668472017 0.002627139344455473 0.998319807245369 -0.013157337623809207 0.0015304246137313375 0.005304155454002152
0.037515631513130004 0.0016551712842331724 0.006407927472991974 0.9981577192989524 -0.015814006656542527 0.00020186568306517112 0.003155053916355746 -0.00018167161629591423 -0.0019926568391493782
 0.9981577192989524 -0.015814006656542527 0.0016551773811310528 0.006407934544428625 -0.00018158815419135104 -0.0019926514826543915 0.00020161331992823956 0.0031550833148408877
 0.00020186568306517112 0.003155053916355746 -0.00018158815419135104 -0.0019926514826543915 0.001655214696789922 0.006407421439163196 0.998157712958658 -0.01581450750685064
 -0.00018167161629591423 -0.0019926568391493782 0.00020161331992823956 0.0031550833148408877 0.998157712958658 -0.01581450750685064 0.0016551212250793482 0.0064074382250728385
0.043768236765320004 0.0017864201773842205 0.007523836684108065 0.9979866539304668 -0.018481026600807186 0.00024177742840707963 0.003683851687619674 -0.00021610544339096662 -0.0023288538197351527
 0.9979866539304668 -0.018481026600807186 0.0017864285190006442 0.007523846773981476 -0.00021599232200374612 -0.0023288486217738773 0.0002414332279659689 0.0036838908336316004
 0.00024177742840707963 0.003683851687619674 -0.00021599232200374612 -0.0023288486217738773 0.0017864795934063285 0.007523246136266142 0.9979866456367962 -0.018481610673104002
 -0.00021610544339096662 -0.0023288538197351527 0.0002414332279659689 0.0036838908336316004 0.9979866456367962 -0.018481610673104002 0.0017863524183512327 0.007523268142231975
0.050020842017509996 0.0019243457279923687 0.00865205702818633 0.9978064861642719 -0.021158107245544875 0.000285385201987842 0.004213490916797375 -0.00025363748934267144 -0.0026660604049894006
 0.9978064861642719 -0.021158107245544875 0.0019243566837809007 0.008652070709785997 -0.00025349031105507264 -0.002666055748145703 0.0002849346625233783 0.004213541518691584
 0.000285385201987842 0.004213490916797375 -0.00025349031105507264 -0.002666055748145703 0.0019244236562303827 0.00865138183275387 0.9978064756633934 -0.02115877448575765
 -0.00025363748934267144 -0.0026660604049894006 0.0002849346625233783 0.004213541518691584 0.9978064756633934 -0.02115877448575765 0.0019242576095965971 0.008651409881703886
0.055454545454549996 0.0020497373532389496 0.009642363654851282 0.9976424210775757 -0.023492804926764865 0.00032631563400814637 0.004674428028688361 -0.00028880344812184786 -0.0029598920524445114
 0.9976424210775757 -0.023492804926764865 0.0020497508873744278 0.009642380937798909 -0.00028862312711249496 -0.002959888200727004 0.00032576082055888573 0.004674490071667581
 0.00032631563400814637 0.004674428028688361 -0.00028862312711249496 -0.002959888200727004 0.0020498334083493396 0.009641614764923978 0.9976424084531843 -0.023493544403853983
 -0.00028880344812184786 -0.0029598920524445114 0.00032576082055888573 0.004674490071667581 0.9976424084531843 -0.023493544403853983 0.0020496293868857 0.009641648773035565
0.056273447269699996 0.002069086828874737 0.009792397447257982 0.9976170851774845 -0.0238453285307926 0.0003327306259716468 0.004743947308998553 -0.00029431067442831706 -0.003004236701795566
 0.9976170851774845 -0.0238453285307926 0.0020691007767236797 0.009792415312480086 -0.00029412507398174245 -0.0030042329997769825 0.0003321591363196812 0.0047440112016245905
 0.0003327306259716468 0.004743947308998553 -0.00029412507398174245 -0.0030042329997769825 0.0020691857802735973 0.0097916374407601 0.9976170722165257 -0.023846078889865417
 -0.00029431067442831706 -0.003004236701795566 0.0003321591363196812 0.0047440112016245905 0.9976170722165257 -0.023846078889865417 0.002068975697682706 0.009791672406257949
0.06252605252188 0.0022207820727795733 0.010944695697864371 0.9974183192045649 -0.026542738414840485 0.00038385520228261346 0.005275193767400182 -0.0003381676373761968 -0.0033433439386517634
 0.9974183192045649 -0.026542738414840485 0.0022207993993827715 0.010944718357446074 -0.0003379392807775808 -0.003343341636322061 0.0003831480415997581 0.005275272914463844
 0.00038385520228261346 0.005275193767400182 -0.0003379392807775808 -0.003343341636322061 0.0022209045603351456 0.01094385069692814 0.997418303531814 -0.02654357183852975
 -0.0003381676373761968 -0.0033433439386517634 0.0003831480415997581 0.005275272914463844 0.997418303531814 -0.02654357183852975 0.002220645281759324 0.010943893503821394
0.06877865777407 0.002379569881928111 0.012108809144445653 0.9972100557129585 -0.029250362045535584 0.00043880027693222036 0.00580720099242874 -0.00038525073940899016 -0.003683343856485184
 0.9972100557129585 -0.029250362045535584 0.0023795909834206912 0.012108837228123339 -0.0003849753231503941 -0.0036833434298721686 0.00043794261471277003 0.005807297488854124
 0.00043880027693222036 0.00580720099242874 -0.0003849753231503941 -0.0036833434298721686 0.0023797184197659462 0.0121078789415916 0.9972100370772898 -0.02925127847849736
 -0.00038525073940899016 -0.003683343856485184 0.00043794261471277003 0.005807297488854124 0.9972100370772898 -0.02925127847849736 0.002379404789942843 0.012107930566680317
0.07503126302626001 0.002545588587342029 0.013284608912837089 0.9969921615294595 -0.031968207571954406 0.0004976070122187666 0.006339937840780318 -0.00043560205990379844 -0.004024198340034007
 0.9969921615294595 -0.031968207571954406 0.0025456138699455973 0.013284643069529133 -0.00043527531039260327 -0.00402420029634427 0.0004965839085961657 0.006340053915063691
 0.0004976070122187666 0.006339937840780318 -0.00043527531039260327 -0.00402420029634427 0.0025457656917449744 0.013283593274113676 0.9969921396809723 -0.03196920695978885
 -0.00043560205990379844 -0.004024198340034007 0.0004965839085961657 0.006340053915063691 0.9969921396809723 -0.03196920695978885 0.002545392560438316 0.01328365474681873
0.08128386827845 0.002718976478638354 0.014471975998228087 0.9967645029378628 -0.03469627000170357 0.0005603163603401262 0.006873371577891513 -0.0004892633902488999 -0.004365869156262142
 0.9967645029378628 -0.03469627000170357 0.0027190063589155517 0.014472016896228903 -0.0004888810632727421 -0.004365874033893863 0.0005591127665450802 0.006873509594484509
 0.0005603163603401262 0.006873371577891513 -0.0004888810632727421 -0.004365874033893863 0.0027191846673997083 0.014470874666752554 0.9967644776278936 -0.034697352287307685
 -0.0004892633902488999 -0.004365869156262142 0.0005591127665450802 0.006873509594484509 0.9967644776278936 -0.034697352287307685 0.0027187468902436104 0.014470947069711693
0.08753647353064001 0.002899871832099094 0.015670798573399505 0.9965269457559803 -0.037434533858577076 0.0006269690403670425 0.007407468045025726 -0.0005462762236967325 -0.004708317778683712
 0.9965269457559803 -0.037434533858577076 0.0028999067377534038 0.015670846900436703 -0.0005458341041144024 -0.004708326147227803 0.0006255697993620942 0.007407630506694333
 0.0006269690403670425 0.007407468045025726 -0.0005458341041144024 -0.004708326147227803 0.0029001136242948985 0.015669611271781764 0.9965269167365316 -0.037435698979399835
 -0.0005462762236967325 -0.004708317778683712 0.0006255697993620942 0.007407630506694333 0.9965269167365316 -0.037435698979399835 0.0028996060632327856 0.015669695741487594
0.09378907878283 0.003088412925752639 0.01688097007660214 0.9962793554005976 -0.040182975060717586 0.0006976055158362406 0.007942191774600042 -0.0006066817442461293 -0.005051505263981437
 0.9962793554005976 -0.040182975060717586 0.0030884532959405196 0.016881026540055803 -0.0006061756456968764 -0.00505151772422267 0.0006959953629602487 0.007942381324811017
 0.0006976055158362406 0.007942191774600042 -0.0006061756456968764 -0.00505151772422267 0.003088690841980234 0.016879696497849424 0.9962793224251338 -0.04018422295778414
 -0.0006066817442461293 -0.005051505263981437 0.0006959953629602487 0.007942381324811017 0.9962793224251338 -0.04018422295778414 0.0030881083657473786 0.016879794225273928
0.100041684035 0.0032847380440100505 0.018102387787132156 0.9960215969429835 -0.04294156231196997 0.0007722659737287083 0.008477506080960867 -0.0006705208134582287 -0.005395392153768341
 0.9960215969429835 -0.04294156231196997 0.003284784330139791 0.018102453114078338 -0.0006699465781571483 -0.005395409337682022 0.0007704295376173242 0.008477725506257605
 0.0007722659737287083 0.008477506080960867 -0.0006699465781571483 -0.005395409337682022 0.003285054605946189 0.01810102760369942 0.996021559766097 -0.04294289292047531
 -0.0006705208134582287 -0.005395392153768341 0.0007704295376173242 0.008477725506257605 0.996021559766097 -0.04294289292047531 0.003284392090912417 0.01810113983492183
0.1059090909091 0.003476171015953491 0.019258698007800668 0.9957703497399613 -0.045539398267798084 0.0008460221995564026 0.008980345208882195 -0.0007335858874372338 -0.00571869396694019
 0.9957703497399613 -0.045539398267798084 0.0034762232752639614 0.01925877233115293 -0.0007329439568462204 -0.0057187161860789894 0.0008439593462308149 0.008980595332652093
 0.0008460221995564026 0.008980345208882195 -0.0007329439568462204 -0.0057187161860789894 0.0034765261370383648 0.01925725623597731 0.9957703083983531 -0.045540806430916125
 -0.0007335858874372338 -0.00571869396694019 0.0008439593462308149 0.008980595332652093 0.9957703083983531 -0.045540806430916125 0.0034757838616055383 0.019257383260345724
0.1062942892872 0.0034889854757822088 0.019334951768747027 0.9957535351587411 -0.04571025812558809 0.0008509903038378369 0.009013373121344566 -0.00073783395655753 -0.00573993840675916
 0.9957535351587411 -0.04571025812558809 0.0034890381418400743 0.019335026706124896 -0.0007371874551087322 -0.005739960977510608 0.0008489121072791881 0.009013625353729814
 0.0008509903038378369 0.009013373121344566 -0.0007371874551087322 -0.005739960977510608 0.003489343206060137 0.019333504628647306 0.9957534935362425 -0.04571167137872559
 -0.00073783395655753 -0.00573993840675916 0.0008489121072791881 0.009013625353729814 0.9957534935362425 -0.04571167137872559 0.0034885955369062835 0.01933363266541512
0.11254689453939999 0.003701293507184982 0.020578564057531938 0.9954750345737361 -0.04848901960441308 0.000933818078483475 0.009549753944542487 -0.000808661347545052 -0.00608510334387628
 0.9954750345737361 -0.04848901960441308 0.0037013530304379227 0.020578649372165993 -0.000807938478866729 -0.006085131995811989 0.0009314825393872753 0.009550042063860448
 0.000933818078483475 0.009549753944542487 -0.000807938478866729 -0.006085131995811989 0.0037016949293006214 0.020577029584315572 0.9954749882624933 -0.04849051543309889
 -0.000808661347545052 -0.00608510334387628 0.0009314825393872753 0.009550042063860448 0.9954749882624933 -0.04849051543309889 0.0037008569995524584 0.02057717478464057
0.11879949979160001 0.00392180040933832 0.021833128020307808 0.9951859595049724 -0.051277799050853584 0.0010207885325565671 0.010086608529066834 -0.000883042793538932 -0.006430845604495825
 0.9951859595049724 -0.051277799050853584 0.0039218672808087295 0.021833224499068053 -0.0008822394847684717 -0.0064308810631313025 0.001018179965045224 0.010086935765390312
 0.0010207885325565671 0.010086608529066834 -0.0008822394847684717 -0.0064308810631313025 0.00392224804758904 0.021831505813063038 0.9951859082635461 -0.051279377383594386
 -0.000883042793538932 -0.006430845604495825 0.001018179965045224 0.010086935765390312 0.9951859082635461 -0.051279377383594386 0.003921314760410847 0.021831669591817978
0.1250521050438 0.004150644423972521 0.023098547854865873 0.994886174101403 -0.05407654443597536 0.0011119405437096483 0.010623895811672699 -0.000961017718484013 -0.006777123113032652
 0.994886174101403 -0.05407654443597536 0.004150719149216364 0.023098656304656164 -0.0009601299249460397 -0.00677716613504069 0.0011090431592375495 0.010624265547683366
 0.0011119405437096483 0.010623895811672699 -0.0009601299249460397 -0.00677716613504069 0.004151140803066762 0.023096837488285563 0.9948861176896 -0.05407820519849479
 -0.000961017718484013 -0.006777123113032652 0.0011090431592375495 0.010624265547683366 0.9948861176896 -0.05407820519849479 0.004150107072102998 0.023097021317757267
0.131304710296 0.004387963745583725 0.024374728179485623 0.994575542381755 -0.056885199779733824 0.0012073126125895374 0.011161573709028337 -0.0010426251463307018 -0.007123893053031786
 0.994575542381755 -0.056885199779733824 0.0043880468450221664 0.02437484942738775 -0.0010416488514974898 -0.007123944426223608 0.0012041105211544076 0.011161989482424636
 0.0012073126125895374 0.011161573709028337 -0.0010416488514974898 -0.007123944426223608 0.004388511390556646 0.024372929203215085 0.994575480560829 -0.05688694289558738
 -0.0010426251463307018 -0.007123893053031786 0.0012041105211544076 0.011161989482424636 0.994575480560829 -0.05688694289558738 0.004387372140637222 0.02437313461366577
0.1375573155481 0.004569510480461381 0.02549404349701164 0.9943183257846301 -0.059536140449317876 0.0012921212619720127 0.011681864723196428 -0.0011130907905011786 -0.007453379683580252
 0.9943183257846301 -0.059536140449317876 0.004569602181678304 0.025494173186563964 -0.0011120200883391743 -0.007453439174764605 0.0012886122901237867 0.011682324931242159
 0.0012921212619720127 0.011681864723196428 -0.0011120200883391743 -0.007453439174764605 0.004570111452078158 0.025492155471172107 0.9943182583113594 -0.05953796584434401
 -0.0011130907905011786 -0.007453379683580252 0.0012886122901237867 0.011682324931242159 0.9943182583113594 -0.05953796584434401 0.004568862248166985 0.025492378778953675
0.1438099208003 0.004757045134504322 0.026608954958259545 0.9940527566647429 -0.062181885439630526 0.0013803312789290863 0.012200964034990842 -0.0011863729013559343 -0.0077817765391669435
 0.9940527566647429 -0.062181885439630526 0.004757145931074807 0.026609093461678123 -0.0011852034749291014 -0.007781844893119294 0.0013765018770924803 0.012201471757346125
 0.0013803312789290863 0.012200964034990842 -0.0011852034749291014 -0.007781844893119294 0.004757701873397357 0.026606977413048315 0.9940526833021718 -0.06218379303280853
 -0.0011863729013559343 -0.0077817765391669435 0.0013765018770924803 0.012201471757346125 0.9940526833021718 -0.06218379303280853 0.004756337777713034 0.02660721971084871
0.1500625260525 0.0049505179764468095 0.02771941408070597 0.9937788867698439 -0.06482241467121411 0.00147192135697534 0.012718849048954869 -0.0012624507656235557 -0.008109061042235506
 0.9937788867698439 -0.06482241467121411 0.004950628373260945 0.02771956178551977 -0.0012611783020558382 -0.008109139032945472 0.0014677580401597254 0.012719407469176209
 0.00147192135697534 0.012718849048954869 -0.0012611783020558382 -0.008109139032945472 0.004951232917912604 0.027717346525755426 0.9937788072823031 -0.0648244043796327
 -0.0012624507656235557 -0.008109061042235506 0.0014677580401597254 0.012719407469176209 0.9937788072823031 -0.0648244043796327 0.00494974901106766 0.027717608950088252
0.15631513130469998 0.005149879097305419 0.028825374173529938 0.9934967679152522 -0.06745770735246133 0.001566870046248437 0.013235497415979822 -0.001341303514353277 -0.008435211022387454
