! Created with skrf 1.8.0 (http://scikit-rf.org).
# GHz S RI R 50.0 
!freq ReS11 ImS11 ReS12 ImS12 ReS13 ImS13
! ReS14 ImS14
! ReS21 ImS21 ReS22 ImS22 ReS23 ImS23
! ReS24 ImS24
! ReS31 ImS31 ReS32 ImS32 ReS33 ImS33
! ReS34 ImS34
! ReS41 ImS41 ReS42 ImS42 ReS43 ImS43
! ReS44 ImS44
!
0.0 0.001524138327432 0.0 0.9984758616491 0.0 5.882923527241e-05 0.0 -5.882923516408e-05 7.204503453997749e-21
 0.9984758616491 0.0 0.001524138327414 0.0 -5.882923516388e-05 7.204503453973257e-21 5.882923527204e-05 0.0
 5.882923527241e-05 0.0 -5.882923516388e-05 7.204503453973257e-21 0.001524138339145 0.0 0.9984758616609 0.0
 -5.882923516408e-05 7.204503453997749e-21 5.882923527204e-05 0.0 0.9984758616609 0.0 0.001524138339139 0.0
0.005 0.001639801084608524 0.0012455360235723671 0.9983295334498932 -0.003192841946315385 8.261756383827724e-05 0.0006562948781821996 -8.017271278143967e-05 -0.0004105464552530651
 0.9983295334498932 -0.003192841946315385 0.0016398187608101561 0.0012455256618571484 -8.016858770209366e-05 -0.00041054328854344465 8.252058126890454e-05 0.0006563317779454809
 8.261756383827724e-05 0.0006562948781821996 -8.016858770209366e-05 -0.00041054328854344465 0.001639803552426409 0.0012456018171913977 0.99832953380915 -0.0031927748900415186
 -8.017271278143967e-05 -0.0004105464552530651 8.252058126890454e-05 0.0006563317779454809 0.99832953380915 -0.0031927748900415186 0.0016398170071204978 0.0012455939779463083
0.006252605252188 0.001670117499338963 0.0015618283382940147 0.9982909376172253 -0.003991836398928992 8.941060746841544e-05 0.0008206833467951083 -8.619164831063452e-05 -0.0005137165701319443
 0.9982909376172253 -0.003991836398928992 0.0016701451309136665 0.0015618152045066688 -8.618522930781361e-05 -0.0005137126655667146 8.925908062356828e-05 0.0008207312618859828
 8.941060746841544e-05 0.0008206833467951083 -8.618522930781361e-05 -0.0005137126655667146 0.0016701212804359927 0.001561910577851054 0.9982909381019025 -0.003991752576174794
 -8.619164831063452e-05 -0.0005137165701319443 8.925908062356828e-05 0.0008207312618859828 0.9982909381019025 -0.003991752576174794 0.0016701423122877444 0.0015619006038882517
0.01250521050438 0.0018296026907639255 0.0031564482222884702 0.998086554964768 -0.007984499103332451 0.00012834989786742588 0.0016417013144504659 -0.00012030389410617688 -0.0010299407692084686
 0.998086554964768 -0.007984499103332451 0.0018297130304537044 0.003156420108198704 -0.00012027859670295344 -0.0010299335498727023 0.00012774562612232564 0.0016418164423779634
 0.00012834989786742588 0.0016417013144504659 -0.00012027859670295344 -0.0010299335498727023 0.0018296172239187028 0.0031566123806241646 0.9980865563318334 -0.007984331701960301
 -0.00012030389410617688 -0.0010299407692084686 0.00012774562612232564 0.0016418164423779634 0.9980865563318334 -0.007984331701960301 0.001829701201393801 0.0031565906889507275
0.01875781575657 0.0020029395868355485 0.004773826317217483 0.9978624615471592 -0.011987709655764461 0.0001757362467635036 0.002463612229470805 -0.00016127041428832674 -0.0015479198145695496
 0.9978624615471592 -0.011987709655764461 0.0020031875366516494 0.004773781193897263 -0.00016121399894230027 -0.0015479099833346753 0.00017437877293813747 0.0024638176059960065
 0.0001757362467635036 0.002463612229470805 -0.00016121399894230027 -0.0015479099833346753 0.0020029718275325838 0.004774072145733769 0.9978624641983116 -0.011987458768186523
 -0.00016127041428832674 -0.0015479198145695496 0.00017437877293813747 0.0024638176059960065 0.9978624641983116 -0.011987458768186523 0.0020031605228078035 0.0047740369182082505
0.02501042100875 0.0021904637886318466 0.006411698628049983 0.9976183953503945 -0.016003409947716377 0.00023166037078286176 0.003286451950191565 -0.00020919229645518535 -0.0020674177799658087
 0.9976183953503945 -0.016003409947716377 0.0021909041479855266 0.006411634304376722 -0.00020909266925929685 -0.0020674061651057146 0.00022924909528444204 0.0032867742196953
 0.00023166037078286176 0.003286451950191565 -0.00020909266925929685 -0.0020674061651057146 0.002190520683076611 0.006412025854824696 0.997618399688776 -0.016003075612957704
 -0.00020919229645518535 -0.0020674177799658087 0.00022924909528444204 0.0032867742196953 0.997618399688776 -0.016003075612957704 0.0021908557806135133 0.006411975213063246
0.03126302626094 0.002392496991455932 0.008068900857769878 0.997354080892709 -0.020032431838235817 0.00029621354791293646 0.004110179766731058 -0.00026416779931750866 -0.00258826964150727
 0.997354080892709 -0.020032431838235817 0.0023931844871545823 0.008068814983841526 -0.00026401298715859905 -0.002588257198240018 0.00029244744820993313 0.0041106492036313905
 0.00029621354791293646 0.004110179766731058 -0.00026401298715859905 -0.002588257198240018 0.002392585472631381 0.008069309156660634 0.9973540873166897 -0.02003201407253466
 -0.00026416779931750866 -0.00258826964150727 0.00029244744820993313 0.0041106492036313905 0.9973540873166897 -0.02003201407253466 0.0023931085931704473 0.008069241165639734
0.037515631513130004 0.002609353933065981 0.009744674455099285 0.9970692363851671 -0.02407519104618631 0.0003694866744269003 0.004934724730123446 -0.00032629306102001685 -0.003110334944412098
 0.9970692363851671 -0.02407519104618631 0.0026103432384294444 0.009744564523541284 -0.00032607119888321165 -0.0031103227553785254 0.000364064178167879 0.00493537527585447
 0.0003694866744269003 0.004934724730123446 -0.00032607119888321165 -0.0031103227553785254 0.0026094809318955047 0.009745163427312789 0.9970692452987134 -0.024074689860785432
 -0.00032629306102001685 -0.003110334944412098 0.000364064178167879 0.00493537527585447 0.9970692452987134 -0.024074689860785432 0.0026102336489473967 0.009745076097554236
0.043768236765320004 0.0028413450835600325 0.011438455422008066 0.9967635766383373 -0.028131898273362377 0.00045156981924533593 0.0057599997429184265 -0.000395662355958934 -0.0036334837118580368
 0.9967635766383373 -0.028131898273362377 0.002842690833743505 0.01143831876832806 -0.00039536167945026303 -0.0036334729872830487 0.00044418874319213423 0.005760869047727892
 0.00045156981924533593 0.0057599997429184265 -0.00039536167945026303 -0.0036334729872830487 0.0028415175230533545 0.011439024617310308 0.9967635884448972 -0.028131313652349742
 -0.000395662355958934 -0.0036334837118580368 0.00044418874319213423 0.005760869047727892 0.9967635884448972 -0.028131313652349742 0.002842541376528718 0.011438915906660505
0.050020842017509996 0.0030887778870978787 0.013149787058076033 0.996436814523843 -0.032202646388709746 0.0005425519598314905 0.006585907375226255 -0.00047236818503045 -0.004157590631259448
 0.996436814523843 -0.032202646388709746 0.0030905346917152305 0.013149620860642917 -0.0004719770255574032 -0.004157582709029648 0.0005329094835578881 0.006587036842009899
 0.0005425519598314905 0.006585907375226255 -0.0004719770255574032 -0.004157582709029648 0.003089002684749714 0.013150435950957495 0.9964368296294042 -0.032201978312026196
 -0.00047236818503045 -0.004157590631259448 0.0005329094835578881 0.006587036842009899 0.9964368296294042 -0.032201978312026196 0.0030903391930077093 0.013150303765822557
0.055454545454549996 0.003316581981113999 0.014650933605326705 0.9961354868278397 -0.0357516680162572 0.0006289134148757152 0.007304078579698755 -0.000545056560726809 -0.0046137376313314365
 0.9961354868278397 -0.0357516680162572 0.0033187403431792603 0.014650739319504386 -0.0005445773644670023 -0.004613733330102534 0.0006170592870600512 0.007305470707491776
 0.0006289134148757152 0.007304078579698755 -0.0005445773644670023 -0.004613733330102534 0.003316857892688275 0.014651651279724624 0.996135505131603 -0.035750927386747594
 -0.000545056560726809 -0.0046137376313314365 0.0006170592870600512 0.007305470707491776 0.996135505131603 -0.035750927386747594 0.0033184998174247073 0.01465149695508594
0.056273447269699996 0.0033519574039196785 0.01487827710688812 0.9960886618417402 -0.03628745321170239 0.0006425207941647843 0.007412342722627119 -0.0005565012952791782 -0.004682532202055536
 0.9960886618417402 -0.03628745321170239 0.003354179858874354 0.014878078386362792 -0.0005560080768577021 -0.004682528547716569 0.000630313454840733 0.007413777551678137
 0.0006425207941647843 0.007412342722627119 -0.0005560080768577021 -0.004682528547716569 0.0033522414715388715 0.014879005103534041 0.9960886806548267 -0.03628670164728534
 -0.0005565012952791782 -0.004682532202055536 0.000630313454840733 0.007413777551678137 0.9960886806548267 -0.03628670164728534 0.003353932142966804 0.014878847299867617
0.06252605252188 0.0036311866537204218 0.016623574212585812 0.9957188298914689 -0.040386284988086996 0.000751562592815426 0.008239194979857742 -0.0006481506614459407 -0.005208185171473106
 0.9957188298914689 -0.040386284988086996 0.003633929352423543 0.016623339831097032 -0.0006475438986040204 -0.005208187378222926 0.0007364862938972331 0.008240984213950135
 0.000751562592815426 0.008239194979857742 -0.0006475438986040204 -0.005208187378222926 0.003631536896531541 0.016624380651836964 0.995718852822754 -0.040385449889900844
 -0.0006481506614459407 -0.005208185171473106 0.0007364862938972331 0.008240984213950135 0.995718852822754 -0.040385449889900844 0.003633623240105528 0.01662419503580722
0.06877865777407 0.003926766794044063 0.018385353879161064 0.9953270298829172 -0.044499070366469225 0.0008697620726109018 0.009066348377820839 -0.0007474034464666829 -0.0057344256109964995
 0.9953270298829172 -0.044499070366469225 0.003930084337838489 0.018385080539056537 -0.0007466717427629203 -0.005734435399631617 0.0008515121023146174 0.009068544947404085
 0.0008697620726109018 0.009066348377820839 -0.0007466717427629203 -0.005734435399631617 0.003927190110840426 0.018386238026745987 0.9953270573465658 -0.04449815167937519
 -0.0007474034464666829 -0.0057344256109964995 0.0008515121023146174 0.009068544947404085 0.9953270573465658 -0.04449815167937519 0.003929713647042355 0.01838602235504754
0.07503126302626001 0.004238997206432378 0.020163309571870514 0.9949129732584099 -0.04862570923670447 0.0009972022833160787 0.009893682784364335 -0.0008543449485597696 -0.00626112833335492
 0.9949129732584099 -0.04862570923670447 0.004242944214610688 0.020162993814243746 -0.0008534769956282035 -0.006261147552228596 0.0009754733404100606 0.009896343552618465
 0.0009972022833160787 0.009893682784364335 -0.0008534769956282035 -0.006261147552228596 0.004239500488953157 0.02016427061952003 0.9949130056719568 -0.04862470689644529
 -0.0008543449485597696 -0.00626112833335492 0.0009754733404100606 0.009896343552618465 0.9949130056719568 -0.04862470689644529 0.004242502760190814 0.02016402259944993
0.08128386827845 0.004568175519198714 0.02195714678474828 0.9944763719553904 -0.052766078606990355 0.0011339645015751153 0.01072107410750934 -0.0009690585403015454 -0.006788166511538796
 0.9944763719553904 -0.052766078606990355 0.004572806639463202 0.021956784987512433 -0.000968043117295132 -0.006788197136483306 0.0011084507269840211 0.010724259915160846
 0.0011339645015751153 0.01072107410750934 -0.000968043117295132 -0.006788197136483306 0.004568765651484866 0.021958183852087153 0.9944764097403704 -0.05276499253730456
 -0.0009690585403015454 -0.006788166511538796 0.0011084507269840211 0.010724259915160846 0.9944764097403704 -0.05276499253730456 0.004572288232847127 0.02195790114123556
0.08753647353064001 0.004914597591297742 0.023766578962514898 0.9940169386332786 -0.05692003663107091 0.0012801281305834342 0.011548394579972244 -0.001091625601246177 -0.007315411421176732
 0.9940169386332786 -0.05692003663107091 0.004919967509524054 0.02376616733827568 -0.0010904515745647752 -0.007315455555421698 0.0012505231435007782 0.011552170289707148
 0.0012801281305834342 0.011548394579972244 -0.0010904515745647752 -0.007315455555421698 0.00491528144916835 0.023767691091601727 0.9940169822152797 -0.05691886674839263
 -0.001091625601246177 -0.007315411421176732 0.0012505231435007782 0.011552170289707148 0.9940169822152797 -0.05691886674839263 0.004919365958752602 0.023767371297213118
0.09378907878283 0.00527855746933924 0.02559132456157899 0.9935343868774882 -0.06108742550188812 0.0014357706030337133 0.012375512966366846 -0.0012221254462682673 -0.007842732264955092
 0.9935343868774882 -0.06108742550188812 0.005284720919617411 0.025590859155075647 -0.0012207817694931025 -0.007842792139024344 0.0014017675409592285 0.012379947506897514
 0.0014357706030337133 0.012375512966366846 -0.0012207817694931025 -0.007842792139024344 0.005279341919433317 0.02559251071957824 0.9935344366868242 -0.06108617171167783
 -0.0012221254462682673 -0.007842732264955092 0.0014017675409592285 0.012379947506897514 0.9935344366868242 -0.06108617171167783 0.005284030029096174 0.02559215139760451
0.100041684035 0.005660347322065786 0.02743110491529682 0.9930284313838057 -0.06526807354605062 0.0016009672860500587 0.013202294725107314 -0.0013606352509927138 -0.0083699960474161
 0.9930284313838057 -0.06526807354605062 0.005667359096865905 0.027430581600462568 -0.001359110965024135 -0.008370074019009218 0.0015622588482482097 0.013207461134618783
 0.0016009672860500587 0.013202294725107314 -0.001359110965024135 -0.008370074019009218 0.005661239221243699 0.027432363992586733 0.9930284878555524 -0.06526673574384914
 -0.0013606352509927138 -0.0083699960474161 0.0015622588482482097 0.013207461134618783 0.9930284878555524 -0.06526673574384914 0.005666572667405329 0.027431962646415474
0.1059090909091 0.006035091317507172 0.02917097046835986 0.9925321073571646 -0.06920306368112664 0.0017647415430399017 0.013977712914613433 -0.0014979637847926531 -0.008864604814783615
 0.9925321073571646 -0.06920306368112664 0.0060429490485595485 0.02917038890513231 -0.0014962601271013506 -0.008864702026453229 0.001721337772722169 0.013983636231346843
 0.0017647415430399017 0.013977712914613433 -0.0014962601271013506 -0.008864702026453229 0.0060360902731425425 0.02917229689371072 0.9925321704814507 -0.06920164693938939
 -0.0014979637847926531 -0.008864604814783615 0.001721337772722169 0.013983636231346843 0.9925321704814507 -0.06920164693938939 0.006042067324680495 0.02917185379331148
0.1062942892872 0.0060602573630189885 0.029285642620299826 0.9924987881344443 -0.06946179680303678 0.0017757913881203094 0.014028602132842011 -0.0015072299745596805 -0.008897067492085735
 0.9924987881344443 -0.06946179680303678 0.006068172323016873 0.02928505709705079 -0.0015055142079065055 -0.008897166045937717 0.0017320698817687055 0.014034577601904743
 0.0017757913881203094 0.014028602132842011 -0.0015055142079065055 -0.008897166045937717 0.00606126355760981 0.029286973428644038 0.9924988517090616 -0.06946037487545574
 -0.0015072299745596805 -0.008897067492085735 0.0017320698817687055 0.014034577601904743 0.9924988517090616 -0.06946037487545574 0.006067284151739107 0.02928652750738571
0.11254689453939999 0.006478575759855842 0.031154660312268705 0.9919451745634726 -0.07366840022065199 0.0019603138669071975 0.014854294389235032 -0.0016619822806416696 -0.009423808983533991
 0.9919451745634726 -0.07366840022065199 0.0064874488438244745 0.031154008102894915 -0.0016600642497943624 -0.009423930731268276 0.0019112712559661493 0.014861160303147174
 0.0019603138669071975 0.014854294389235032 -0.0016600642497943624 -0.009423930731268276 0.006479703084732111 0.031156061585337767 0.9919452456872772 -0.07366689404406772
 -0.0016619822806416696 -0.009423808983533991 0.0019112712559661493 0.014861160303147174 0.9919452456872772 -0.07366689404406772 0.006486452724462638 0.031155568481802034
0.11879949979160001 0.0069155885357278755 0.033037879705869 0.9913673097176279 -0.07788767859251404 0.0021546033379657914 0.015679227706370334 -0.0018249624569057082 -0.009950080530084353
 0.9913673097176279 -0.07788767859251404 0.006925474770726011 0.0330371561510058 -0.0018228314668642834 -0.009950228210031163 0.0020999312944796986 0.015687069686704073
 0.0021546033379657914 0.015679227706370334 -0.0018228314668642834 -0.009950228210031163 0.006916843813494475 0.033039350096747425 0.991367388843163 -0.07788608803470456
 -0.0018249624569057082 -0.009950080530084353 0.0020999312944796986 0.015687069686704073 0.991367388843163 -0.07788608803470456 0.006924364493485312 0.033038807145005074
0.1250521050438 0.007371579463726656 0.03493502084176937 0.9907649144131732 -0.08211941729443956 0.0023587259842425055 0.016503255386082428 -0.0019962383333627745 -0.010475739743925665
 0.9907649144131732 -0.08211941729443956 0.007382533975446866 0.03493422109594505 -0.0019938837782302273 -0.010475916220933953 0.0022981159415762244 0.016512163331601635
 0.0023587259842425055 0.016503255386082428 -0.0019938837782302273 -0.010475916220933953 0.0073729695037997554 0.03493655892352264 0.9907650019993907 -0.08211774221325398
 -0.0019962383333627745 -0.010475739743925665 0.0022981159415762244 0.016512163331601635 0.9907650019993907 -0.08211774221325398 0.0073813033267853745 0.034935963396099654
0.131304710296 0.007846829955289689 0.03684580148842257 0.9901377113882748 -0.08636339287246558 0.0025727454658109896 0.01732622789109648 -0.0021758751999694606 -0.01100064183289822
 0.9901377113882748 -0.08636339287246558 0.007858907977388542 0.036844920515385446 -0.002173286563560031 -0.011000850098137038 0.002505888674190254 0.017336296017841285
 0.0025727454658109896 0.01732622789109648 -0.002173286563560031 -0.011000850098137038 0.007848361552740792 0.03684740575272955 0.9901378079010771 -0.08636163311647758
 -0.0021758751999694606 -0.01100064183289822 0.002505888674190254 0.017336296017841285 0.9901378079010771 -0.08636163311647758 0.007857550740899276 0.03684675485734547
0.1375573155481 0.00823230181676616 0.03852052905052208 0.9895947833153184 -0.09036986059539161 0.002769938982949114 0.018122999398080163 -0.002337235222156169 -0.01149960593159418
 0.9895947833153184 -0.09036986059539161 0.008245561649121389 0.03851957820361822 -0.00233439693850273 -0.011499846215891394 0.0026966819373926546 0.018134212948081742
 0.002769938982949114 0.018122999398080163 -0.00233439693850273 -0.011499846215891394 0.00823398127470751 0.03852219797722057 0.989594889162467 -0.09036801610118453
 -0.002337235222156169 -0.01149960593159418 0.0026966819373926546 0.018134212948081742 0.989594889162467 -0.09036801610118453 0.008244072203538117 0.03852150548099613
0.1438099208003 0.008631323108041397 0.04018646237305403 0.9890327739566874 -0.09436620143607237 0.0029751066861858615 0.01891653057320967 -0.0025050522030051303 -0.011995634292345327
 0.9890327739566874 -0.09436620143607237 0.008645820579291795 0.040185437545704125 -0.0025019529754931697 -0.011995909535974155 0.0028951684311286858 0.01892897569010194
 0.0029751066861858615 0.01891653057320967 -0.0025019529754931697 -0.011995909535974155 0.00863315711455536 0.0401881943999434 0.9890328896018311 -0.09436427206074466
 -0.0025050522030051303 -0.011995634292345327 0.0028951684311286858 0.01892897569010194 0.9890328896018311 -0.09436427206074466 0.008644192810224768 0.040187458525883554
0.1500625260525 0.009043753597539733 0.041843463149029966 0.9884518275908457 -0.09835231696085514 0.0031881783853603012 0.019706739679677582 -0.0026792585618839607 -0.01248865081605058
 0.9884518275908457 -0.09835231696085514 0.009059544653331338 0.04184236000403179 -0.002675887119145913 -0.012488964077257815 0.0031012795867772776 0.019720505656578402
 0.0031881783853603012 0.019706739679677582 -0.002675887119145913 -0.012488964077257815 0.009045748821809214 0.04184525665194814 0.9884519535029694 -0.09835030255486191
 -0.0026792585618839607 -0.01248865081605058 0.0031012795867772776 0.019720505656578402 0.9884519535029694 -0.09835030255486191 0.009057772449823904 0.04184447548794734
0.15631513130469998 0.009469452062192645 0.043491397261658876 0.9878520892251125 -0.10232810906565161 0.0034090830587592534 0.02049354635123049 -0.002859785885983978 -0.012978581011780822
