! Created with skrf 1.8.0 (http://scikit-rf.org).
# GHz S RI R 50.0 
!freq ReS11 ImS11 ReS12 ImS12 ReS13 ImS13
! ReS14 ImS14
! ReS21 ImS21 ReS22 ImS22 ReS23 ImS23
! ReS24 ImS24
! ReS31 ImS31 ReS32 ImS32 ReS33 ImS33
! ReS34 ImS34
! ReS41 ImS41 ReS42 ImS42 ReS43 ImS43
! ReS44 ImS44
!
0.0 0.001618315415046 0.0 0.9983816845771 0.0 6.267904564127e-05 0.0 -6.26790461789e-05 7.675969327659904e-21
 0.9983816845771 0.0 0.00161831541509 0.0 -6.267904617982e-05 7.67596932777257e-21 6.267904564047e-05 0.0
 6.267904564127e-05 0.0 -6.267904617982e-05 7.67596932777257e-21 0.001618315417825 0.0 0.9983816845799 0.0
 -6.26790461789e-05 7.675969327659904e-21 6.267904564047e-05 0.0 0.9983816845799 0.0 0.001618315417824 0.0
0.005 0.0017414388171183171 0.0013212156724958886 0.9982258844559627 -0.003389863589805378 8.826094345865587e-05 0.0007054490597675011 -8.567226585052348e-05 -0.00044015290768255534
 0.9982258844559627 -0.003389863589805378 0.0017414271173021544 0.0013212224212912494 -8.567195694610503e-05 -0.00044015260577293493 8.834768425152926e-05 0.0007054162066884227
 8.826094345865587e-05 0.0007054490597675011 -8.567195694610503e-05 -0.00044015260577293493 0.0017414396654792871 0.001321282394450236 0.9982258848252774 -0.00338979653338379
 -8.567226585052348e-05 -0.00044015290768255534 8.834768425152926e-05 0.0007054162066884227 0.9982258848252774 -0.00338979653338379 0.001741427002618186 0.0013212898083465234
0.006252605252188 0.0017738009365444443 0.0016567188404234825 0.9981846671255136 -0.004238148668404288 9.558967423147357e-05 0.0008821429163034646 -9.219729707354645e-05 -0.0005507593571179148
 0.9981846671255136 -0.004238148668404288 0.0017737826478271051 0.0016567273637904997 -9.219681691150008e-05 -0.0005507589835135264 9.572520039046534e-05 0.0008821002187435014
 9.558967423147357e-05 0.0008821429163034646 -9.219681691150008e-05 -0.0005507589835135264 0.0017738021862242282 0.0016568022330201676 0.9981846676258951 -0.004238064849325946
 -9.219729707354645e-05 -0.0005507593571179148 9.572520039046534e-05 0.0008821002187435014 0.9981846676258951 -0.004238064849325946 0.0017737823910638658 0.001656811600636124
0.01250521050438 0.001944572669823496 0.003348130397961874 0.9979656968285568 -0.008477036487057927 0.00013772546444885877 0.001764581706924526 -0.00012939748842981472 -0.0011041564813325717
 0.9979656968285568 -0.008477036487057927 0.0019444996483212588 0.003348148304726237 -0.00012939560243273575 -0.0011041557748966006 0.0001382659695473689 0.001764478680386886
 0.00013772546444885877 0.001764581706924526 -0.00012939560243273575 -0.0011041557748966006 0.0019445770853401803 0.0033482968440004274 0.9979656982461081 -0.008476869085055766
 -0.00012939748842981472 -0.0011041564813325717 0.0001382659695473689 0.001764478680386886 0.9979656982461081 -0.008476869085055766 0.0019444980327723341 0.003348316579831093
0.01875781575657 0.0021310181937468846 0.0050635606511674576 0.9977244909390357 -0.012726965707240663 0.00018918730961049127 0.0026479145814752914 -0.00017439761667893534 -0.0016593635985081732
 0.9977244909390357 -0.012726965707240663 0.0021308541227225667 0.005063588833148268 -0.00017439341957147187 -0.0016593626058498316 0.0001904016290140593 0.0026477300557440145
 0.00018918730961049127 0.0026479145814752914 -0.00017439341957147187 -0.0016593626058498316 0.002131027708869667 0.005063809909849215 0.9977244937070212 -0.012726714809294654
 -0.00017439761667893534 -0.0016593635985081732 0.0001904016290140593 0.0026477300557440145 0.9977244937070212 -0.012726714809294654 0.0021308500545621795 0.005063841081966802
0.02501042100875 0.002333512809998773 0.006800584853986334 0.9974607551886945 -0.01698997702435569 0.00025007692648193583 0.0035321723419075297 -0.00022731147165922205 -0.0022161134942240697
 0.9974607551886945 -0.01698997702435569 0.0023332214491029383 0.006800624218988105 -0.0002273040719175167 -0.0022161122688674206 0.0002522340663902687 0.003531881713892401
 0.00025007692648193583 0.0035321723419075297 -0.0002273040719175167 -0.0022161122688674206 0.002333529352575503 0.0068009166848176875 0.9974607597325651 -0.01698964266650433
 -0.00022731147165922205 -0.0022161134942240697 0.0002522340663902687 0.003531881713892401 0.9974607597325651 -0.01698964266650433 0.0023332138155779353 0.006800960412259922
0.03126302626094 0.002552416292151303 0.00855794530234736 0.9971741808458827 -0.021266931778890188 0.00032049617970329606 0.004417302411144088 -0.00028824938916178583 -0.002774215579734359
 0.9971741808458827 -0.021266931778890188 0.0025519614536472068 0.008557996769936044 -0.0002882379066310803 -0.002774214182180472 0.000323865556903144 0.004416877621902776
 0.00032049617970329606 0.004417302411144088 -0.0002882379066310803 -0.002774214182180472 0.00255244179472502 0.008558359434072961 0.9971741875942498 -0.021266513976888893
 -0.00028824938916178583 -0.002774215579734359 0.000323865556903144 0.004416877621902776 0.9971741875942498 -0.021266513976888893 0.002551949133451297 0.008558416882980212
0.037515631513130004 0.0027880804649672874 0.01033481442907023 0.996864452572494 -0.025558248799108955 0.0004005461488114709 0.0053032191336284795 -0.0003573190585935087 -0.003333505611847595
 0.996864452572494 -0.025558248799108955 0.0027874259971176945 0.01033487892808978 -0.00035730262331995044 -0.003333504109553276 0.0004053976947577415 0.005302628632269476
 0.0004005461488114709 0.0053032191336284795 -0.00035730262331995044 -0.003333504109553276 0.002788116860631569 0.010335310567269823 0.9968644619535212 -0.025557747540328333
 -0.0003573190585935087 -0.003333505611847595 0.0004053976947577415 0.005302628632269476 0.9968644619535212 -0.025557747540328333 0.002787407855502412 0.01033538294898725
0.043768236765320004 0.003040852113911931 0.012130570600276074 0.9965312516110295 -0.029864128533003142 0.0004903266804434973 0.00618981907012466 -0.00043462580549065216 -0.003893830412570749
 0.9965312516110295 -0.029864128533003142 0.003039961886994434 0.012130649066976062 -0.0004346035569793859 -0.003893828879883653 0.0004969308872210081 0.006189027773614683
 0.0004903266804434973 0.00618981907012466 -0.0004346035569793859 -0.003893828879883653 0.003040901339739852 0.012131148405535188 0.996531264056873 -0.029863543797731703
 -0.00043462580549065216 -0.003893830412570749 0.0004969308872210081 0.006189027773614683 0.996531264056873 -0.029863543797731703 0.0030399367789547835 0.012131236975426148
0.050020842017509996 0.003311074338057341 0.013944705414672843 0.9961742574177581 -0.034184645676038225 0.0005899361111321262 0.007076987323130521 -0.000520272687894678 -0.004455041559248517
 0.9961742574177581 -0.034184645676038225 0.003309912231303848 0.013944798791442881 -0.0005202437745120782 -0.004455040077348889 0.000598564046536659 0.007075956574443952
 0.0005899361111321262 0.007076987323130521 -0.0005202437745120782 -0.004455040077348889 0.00331113833238364 0.013945364513753148 0.99617427336295 -0.03418397742586739
 -0.000520272687894678 -0.004455041559248517 0.000598564046536659 0.007075956574443952 0.99617427336295 -0.03418397742586739 0.003309878999515988 0.013945470570451335
0.055454545454549996 0.003560341843604838 0.015535825819350499 0.9958444460528604 -0.0379511904804266 0.0006845570825915699 0.007848329409282227 -0.0006015539791003702 -0.004943356891185902
 0.9958444460528604 -0.0379511904804266 0.0035589141288727764 0.015535932922816654 -0.0006015185888141585 -0.004943355524597261 0.0006951642845325019 0.007847056367476549
 0.0006845570825915699 0.007848329409282227 -0.0006015185888141585 -0.004943355524597261 0.003560420248047886 0.015536555231184692 0.9958444653947107 -0.037950449611770326
 -0.0006015539791003702 -0.004943356891185902 0.0006951642845325019 0.007847056367476549 0.9958444653947107 -0.037950449611770326 0.003558872887754968 0.01553667757260622
0.056273447269699996 0.0035990872313597616 0.015776778227585084 0.9957931486279888 -0.03851979457644178 0.00069947106631328 0.007964600638084149 -0.0006143605079766207 -0.0050169923023454
 0.9957931486279888 -0.03851979457644178 0.00359761712154499 0.015776887462016713 -0.000614324086716936 -0.005016990959166523 0.0007103943706588477 0.007963288163731914
 0.00069947106631328 0.007964600638084149 -0.000614324086716936 -0.005016990959166523 0.0035991679345870192 0.015777518206734297 0.995793168510475 -0.03851904276036185
 -0.0006143605079766207 -0.0050169923023454 0.0007103943706588477 0.007963288163731914 0.995793168510475 -0.03851904276036185 0.003597574596083802 0.01577764309201191
0.06252605252188 0.0039052282433261363 0.017626391150404895 0.9953876037047161 -0.042869514168935204 0.0008190262959223536 0.008852529121248644 -0.0007169877827440758 -0.005579535871065484
 0.9953876037047161 -0.042869514168935204 0.0039034139923782452 0.01762651719481554 -0.0007169430187992895 -0.005579534761244914 0.0008325171656904373 0.008850888988651075
 0.0008190262959223536 0.008852529121248644 -0.0007169430187992895 -0.005579534761244914 0.003905327595823972 0.017627211556866848 0.9953876279654995 -0.04286867872141824
 -0.0007169877827440758 -0.005579535871065484 0.0008325171656904373 0.008850888988651075 0.9953876279654995 -0.04286867872141824 0.003903360989957586 0.017627356655651443
0.06877865777407 0.0042298323586411 0.019493174142818703 0.9949573014109966 -0.047233702820688145 0.0009486945303424981 0.00974063726540023 -0.0008282506897966808 -0.006142524476397494
 0.9949573014109966 -0.047233702820688145 0.004227637802682407 0.019493317954105274 -0.0008281967564387984 -0.006142523701189433 0.0009650256935174223 0.009738619840316513
 0.0009486945303424981 0.00974063726540023 -0.0008281967564387984 -0.006142523701189433 0.00422995230225362 0.019494074479478263 0.9949573304961935 -0.047232783666611426
 -0.0008282506897966808 -0.006142524476397494 0.0009650256935174223 0.009738619840316513 0.9949573304961935 -0.047232783666611426 0.004227573127430507 0.019494241220435183
0.07503126302626001 0.0045732321726559555 0.021376775560815964 0.9945019211820137 -0.05161222772740855 0.0010885663493386912 0.010628784604784407 -0.0009482429976496736 -0.006705808690414578
 0.9945019211820137 -0.05161222772740855 0.004570621110514058 0.021376938100581694 -0.000948179076010144 -0.006705808357619199 0.0011080110341371906 0.01062633650901817
 0.0010885663493386912 0.010628784604784407 -0.000948179076010144 -0.006705808357619199 0.004573374648514095 0.02137775529127076 0.994501955541946 -0.05161122477642472
 -0.0009482429976496736 -0.006705808690414578 0.0011080110341371906 0.01062633650901817 0.994501955541946 -0.05161122477642472 0.004570543552285341 0.021377945147688805
0.08128386827845 0.00493575789942217 0.023276855876898307 0.9940211434341119 -0.05600493114326069 0.0012387300580887514 0.011516826164023605 -0.0010770559867686804 -0.007269237037495879
 0.9940211434341119 -0.05600493114326069 0.00493269408134364 0.023277038112148787 -0.001076981265734365 -0.007269237261397475 0.001261561956017232 0.011513890233547283
 0.0012387300580887514 0.011516826164023605 -0.001076981265734365 -0.007269237261397475 0.004935924847899602 0.023277914421492716 0.9940211835242027 -0.05600384429342042
 -0.0010770559867686804 -0.007269237037495879 0.001261561956017232 0.011513890233547283 0.9940211835242027 -0.05600384429342042 0.004932602415551945 0.02327812891253071
0.08753647353064001 0.005317737335633168 0.025193083339243475 0.9935146498333719 -0.06041163467863712 0.0013992715677099217 0.012404612773100272 -0.0012147783638531363 -0.007832655725594011
 0.9935146498333719 -0.06041163467863712 0.005314184451427513 0.02519328624332082 -0.001214692039846921 -0.007832656626889367 0.0014257647927660433 0.012401128016691942
 0.0013992715677099217 0.012404612773100272 -0.001214692039846921 -0.007832656626889367 0.005317930695793028 0.02519422007431285 0.9935146961148587 -0.06041046381676396
 -0.0012147783638531363 -0.007832655725594011 0.0014257647927660433 0.012401128016691942 0.9935146961148587 -0.06041046381676396 0.005314077439479957 0.02519446076665626
0.09378907878283 0.005719495794388826 0.02712513086701783 0.9929821235382673 -0.06483214236879954 0.001570274279664431 0.013291991301662552 -0.0013614961707571764 -0.008395908464523198
 0.9929821235382673 -0.06483214236879954 0.005715417462519299 0.027125355420982617 -0.0013613974476977136 -0.008395910170247474 0.001600703323839591 0.013287892860115603
 0.001570274279664431 0.013291991301662552 -0.0013613974476977136 -0.008395910170247474 0.005719717502956825 0.027126345126812397 0.9929821764783829 -0.06483088736816459
 -0.0013614961707571764 -0.008395908464523198 0.001600703323839591 0.013287892860115603 0.9929821764783829 -0.06483088736816459 0.00571529385050871 0.02712661363669221
0.100041684035 0.006141356016750441 0.02907267379167397 0.9924232494238405 -0.0692662429038201 0.0017518189716961938 0.014178804843619303 -0.001517292690656085 -0.008958836340430239
 0.9924232494238405 -0.0692662429038201 0.0061367157723241994 0.029072920986092043 -0.0015171807798426311 -0.008958838983893505 0.001786458657284342 0.014174023949579066
 0.0017518189716961938 0.014178804843619303 -0.0015171807798426311 -0.008958838983893505 0.006141608007866928 0.02907396486300836 0.9924233094967341 -0.06926490362919814
 -0.001517292690656085 -0.008958836340430239 0.001786458657284342 0.014174023949579066 0.9924233094967341 -0.06926490362919814 0.006136574291179567 0.02907426285871301
0.1059090909091 0.006555794571269057 0.030914040562857553 0.9918745632726461 -0.07343933828403945 0.001931836780288367 0.015010328489017174 -0.001671819872249909 -0.009486645055085535
 0.9918745632726461 -0.07343933828403945 0.006550593782901494 0.03091430991425552 -0.0016716948753246587 -0.009486648705286291 0.0019706779040740826 0.015004841126596238
 0.001931836780288367 0.015010328489017174 -0.0016716948753246587 -0.009486648705286291 0.0065560767353811 0.030915403028107996 0.9918746304764597 -0.07343791979101655
 -0.001671819872249909 -0.009486645055085535 0.0019706779040740826 0.015004841126596238 0.9918746304764597 -0.07343791979101655 0.006550434365211836 0.03091573025928343
0.1062942892872 0.0065836380663539685 0.031035388142339745 0.9918377142922187 -0.07371371132209689 0.0019439836858848895 0.01506489286298112 -0.0016822483509339283 -0.009521277735736428
 0.9918377142922187 -0.07371371132209689 0.006578399349810879 0.031035658979496155 -0.0016821224709735985 -0.009521281456450134 0.001983109115119582 0.015059356801561948
 0.0019439836858848895 0.01506489286298112 -0.0016821224709735985 -0.009521281456450134 0.006583922270779834 0.031036755270971023 0.9918377819791399 -0.07371228762300466
 -0.0016822483509339283 -0.009521277735736428 0.001983109115119582 0.015059356801561948 0.9918377819791399 -0.07371228762300466 0.006578238714687027 0.031037084475693182
0.11254689453939999 0.007046659212770763 0.03301294936048635 0.9912252070752207 -0.07817431028239158 0.0021468436174243975 0.015950091317043256 -0.001856440624506657 -0.010083068278464113
 0.9912252070752207 -0.07817431028239158 0.007040785358166719 0.033013244856947246 -0.0018563000012652364 -0.010083073222061017 0.002190730119739932 0.01594372338716549
 0.0021468436174243975 0.015950091317043256 -0.0018563000012652364 -0.010083073222061017 0.007046977556800067 0.03301439174607378 0.9912252828649502 -0.07817280199788726
 -0.001856440624506657 -0.010083068278464113 0.002190730119739932 0.01594372338716549 0.9912252828649502 -0.07817280199788726 0.007040604267731508 0.033014753941232766
0.11879949979160001 0.007530733804032613 0.035005031290140265 0.9905854190293446 -0.08264779106838692 0.0023604710046952965 0.01683423276463908 -0.002039943929488613 -0.010644040813458277
 0.9905854190293446 -0.08264779106838692 0.0075241880268732365 0.03500535247990139 -0.0020397877959092265 -0.010644047131654844 0.0024093940816700605 0.016826952241247688
 0.0023604710046952965 0.01683423276463908 -0.0020397877959092265 -0.010644047131654844 0.007531088209009209 0.0350065480865135 0.9905855034188592 -0.08264619802657268
 -0.002039943929488613 -0.010644040813458277 0.0024093940816700605 0.016826952241247688 0.9905855034188592 -0.08264619802657268 0.007523985163597669 0.03500694511543761
0.1250521050438 0.008036173132088764 0.03701130538807279 0.9899180439265434 -0.08713389438159051 0.002584935019917638 0.017717146462355036 -0.002232829527810475 -0.01120402539277658
 0.9899180439265434 -0.08713389438159051 0.008028918517686787 0.037011653326033615 -0.002232657123938075 -0.011204033243286038 0.002639170288047072 0.017708868559506118
 0.002584935019917638 0.017717146462355036 -0.002232657123938075 -0.011204033243286038 0.00803656551367524 0.03701289570387005 0.9899181374216305 -0.08713221639870652
 -0.002232829527810475 -0.01120402539277658 0.002639170288047072 0.017708868559506118 0.9899181374216305 -0.08713221639870652 0.008028692546950125 0.03701332947606636
0.131304710296 0.008563285291800114 0.0390314400974067 0.9892227782415051 -0.09163235097931798 0.0028203016604571203 0.01859865845268072 -0.002435165423079493 -0.011762849281260788
 0.9892227782415051 -0.09163235097931798 0.008555284783379122 0.039031815863405615 -0.002434975995981567 -0.01176285882771851 0.002880124792348823 0.018589294287498326
 0.0028203016604571203 0.01859865845268072 -0.002434975995981567 -0.01176285882771851 0.008563717558954227 0.0390331029943748 0.9892228813571742 -0.0916305878613029
 -0.002435165423079493 -0.011762849281260788 0.002880124792348823 0.018589294287498326 0.9892228813571742 -0.0916305878613029 0.008555034353203511 0.039033575490132665
0.1375573155481 0.008994245772848554 0.040801418671938566 0.9886175039743638 -0.09587906042443671 0.003037413542037217 0.019452336479680185 -0.0026177292602839624 -0.01229415406177285
 0.9886175039743638 -0.09587906042443671 0.008985458060478244 0.04080181570406808 -0.0026175215056343814 -0.012294165311850784 0.0031029559576267796 0.019441896891141196
 0.003037413542037217 0.019452336479680185 -0.0026175215056343814 -0.012294165311850784 0.008994718983462447 0.04080315369913856 0.988617617152482 -0.09587721207689397
 -0.0026177292602839624 -0.01229415406177285 0.0031029559576267796 0.019441896891141196 0.988617617152482 -0.09587721207689397 0.008985182801133463 0.040803658452670644
0.1438099208003 0.009440453734036956 0.04256157231764196 0.9879907840072145 -0.10011450652625174 0.0032632760255187944 0.020302331438768 -0.002807583641038202 -0.012822033835012405
 0.9879907840072145 -0.10011450652625174 0.009430840893660263 0.042561991427040764 -0.002807356717203761 -0.012822046954574168 0.0033347874409014465 0.02029073496675893
 0.0032632760255187944 0.020302331438768 -0.002807356717203761 -0.012822046954574168 0.009440969635560355 0.04256337855098511 0.987990907760583 -0.10011257276379877
 -0.002807583641038202 -0.012822033835012405 0.0033347874409014465 0.02029073496675893 0.987990907760583 -0.10011257276379877 0.009430539605324351 0.04256391721331001
0.1500625260525 0.009901745141875045 0.044311739097201146 0.9873427869201211 -0.10433856912179997 0.00349780669314803 0.02114854923186006 -0.0030046474083215103 -0.013346398015963363
 0.9873427869201211 -0.10433856912179997 0.009891269086047828 0.04431218119496315 -0.003004400473941984 -0.013346413177614003 0.003575535213539083 0.021135711449411922
 0.00349780669314803 0.02114854923186006 -0.003004400473941984 -0.013346413177614003 0.009902305466262416 0.0443136155770877 0.9873429217691783 -0.10433654975214429
 -0.0030046474083215103 -0.013346398015963363 0.003575535213539083 0.021135711449411922 0.9873429217691783 -0.10433654975214429 0.009890940563552528 0.04431418993179915
0.15631513130469998 0.010377954711772481 0.046051761915284185 0.9866736822496595 -0.10855112879241247 0.0037409221064189893 0.021990897464595295 -0.0032088383575224993 -0.013867158014487376
 0.9866736822496595 -0.10855112879241247 0.01036657718531498 0.046052228018864924 -0.0032085705714479077 -0.013867175397667221 0.003825114200673605 0.021976731010677725
