! Created with skrf 1.8.0 (http://scikit-rf.org).
# GHz S RI R 50.0 
!freq ReS11 ImS11 ReS12 ImS12 ReS13 ImS13
! ReS14 ImS14
! ReS21 ImS21 ReS22 ImS22 ReS23 ImS23
! ReS24 ImS24
! ReS31 ImS31 ReS32 ImS32 ReS33 ImS33
! ReS34 ImS34
! ReS41 ImS41 ReS42 ImS42 ReS43 ImS43
! ReS44 ImS44
!
0.0 0.001582471404845 0.0 0.9984175285951 0.0 6.090178338005e-05 0.0 -6.090178301944e-05 7.458317363712383e-21
 0.9984175285951 0.0 0.001582471404861 0.0 -6.090178301978e-05 7.45831736375402e-21 6.090178338081e-05 0.0
 6.090178338005e-05 0.0 -6.090178301978e-05 7.45831736375402e-21 0.001582471399432 0.0 0.9984175285897 0.0
 -6.090178301944e-05 7.458317363712383e-21 6.090178338081e-05 0.0 0.9984175285897 0.0 0.001582471399431 0.0
0.005 0.0017026871554815907 0.0012983111614085197 0.9982654519197555 -0.0033144802828852047 8.474089780592866e-05 0.0006482446113078542 -8.249290551157739e-05 -0.0004108404403352048
 0.9982654519197555 -0.0033144802828852047 0.0017026780854712139 0.0012983164838373327 -8.249314291060541e-05 -0.00041084068368917086 8.47988785089414e-05 0.0006482225970008364
 8.474089780592866e-05 0.0006482446113078542 -8.249314291060541e-05 -0.00041084068368917086 0.0017026863558530334 0.001298244409622721 0.9982654515597931 -0.003314547344131023
 -8.249290551157739e-05 -0.0004108404403352048 8.47988785089414e-05 0.0006482225970008364 0.9982654515597931 -0.003314547344131023 0.0017026781691158348 0.0012982491157812182
0.006252605252188 0.0017342507655827356 0.0016279736938850447 0.9982252721845886 -0.004143903984537079 9.154619018825843e-05 0.0008106297210064265 -8.859690100971729e-05 -0.0005140745074577627
 0.9982252721845886 -0.004143903984537079 0.0017342365871778234 0.0016279804379905117 -8.85972699426511e-05 -0.0005140748088093479 9.16367802496918e-05 0.0008106011224316981
 9.154619018825843e-05 0.0008106297210064265 -8.85972699426511e-05 -0.0005140748088093479 0.0017342495926319311 0.0016278902683150734 0.9982252716993237 -0.004143987804664338
 -8.859690100971729e-05 -0.0005140745074577627 9.16367802496918e-05 0.0008106011224316981 0.9982252716993237 -0.004143987804664338 0.0017342367958087903 0.0016278962294557007
0.01250521050438 0.0019006098398734175 0.0032898579472066293 0.9980121142890599 -0.008288553072589513 0.00013054566063762602 0.0016216858197647841 -0.00012327303668683095 -0.0010305982923176132
 0.9980121142890599 -0.008288553072589513 0.0019005532199987344 0.0032898723565433765 -0.00012327448474383737 -0.0010305988645381236 0.00013090693406561362 0.001621616950455399
 0.00013054566063762602 0.0016216858197647841 -0.00012327448474383737 -0.0010305988645381236 0.0019006056910486652 0.00328969142939992 0.9980121128920836 -0.008288720471927536
 -0.00012327303668683095 -0.0010305982923176132 0.00013090693406561362 0.001621616950455399 0.9980121128920836 -0.008288720471927536 0.0019005546030936703 0.0032897041353956236
0.01875781575657 0.0020819188926857707 0.004975233917701094 0.9977777846771826 -0.012444022146453801 0.00017799325597138543 0.0024336815677025634 -0.00016503774218363103 -0.0015488542292452661
 0.9977777846771826 -0.012444022146453801 0.0020817916561235083 0.0049752569931315 -0.00016504096322330248 -0.0015488550379061357 0.00017880486829308705 0.002433558436723915
 0.00017799325597138543 0.0024336815677025634 -0.00016504096322330248 -0.0015488550379061357 0.002081909981299004 0.004974984535003566 0.9977777819606248 -0.01244427303037847
 -0.00016503774218363103 -0.0015488542292452661 0.00017880486829308705 0.002433558436723915 0.9977777819606248 -0.01244427303037847 0.002081795205456543 0.00497500481670711
0.02501042100875 0.0022785368900625487 0.006681742303428122 0.9975220022382075 -0.01661231514585006 0.0002339827158491676 0.0032466403767547375 -0.00021399509571153044 -0.002068608964028862
 0.9975220022382075 -0.01661231514585006 0.002278310912798256 0.006681775115409006 -0.00021400077263655318 -0.0020686099699344387 0.0002354244203631091 0.0032464467484586497
 0.0002339827158491676 0.0032466403767547375 -0.00021400077263655318 -0.0020686099699344387 0.0022785214208938345 0.006681410268366441 0.9975219977882306 -0.016612649474868093
 -0.00021399509571153044 -0.002068608964028862 0.0002354244203631091 0.0032464467484586497 0.9975219977882306 -0.016612649474868093 0.002278317623646574 0.006681438993958912
0.03126302626094 0.0024908079940155208 0.0084081642260202 0.9972444717658061 -0.020794284150289343 0.0002986079336971343 0.004060513615795497 -0.00027024624309932027 -0.0025896951628909637
 0.9972444717658061 -0.020794284150289343 0.0024904551874889726 0.008408207912382568 -0.00027025504975522046 -0.0025896963220185445 0.0003008597474875646 0.004060230995480373
 0.0002986079336971343 0.004060513615795497 -0.00027025504975522046 -0.0025896963220185445 0.002490784168101521 0.008407749777076772 0.9972444651671767 -0.020794701899607228
 -0.00027024624309932027 -0.0025896951628909637 0.0003008597474875646 0.004060230995480373 0.9972444651671767 -0.020794701899607228 0.002490466063679363 0.008407787849608371
0.037515631513130004 0.0027190688798142118 0.010153701367876772 0.9969448915258894 -0.024990349178005442 0.0003719621574414422 0.0048752239930014655 -0.0003338900759700517 -0.0031119681424319422
 0.9969448915258894 -0.024990349178005442 0.002718561180543146 0.010153757132663374 -0.00033390267813962596 -0.0031119694059495674 0.00037520443584700494 0.004874831603262834
 0.0003719621574414422 0.0048752239930014655 -0.00033390267813962596 -0.0031119694059495674 0.0027190348949940246 0.01015320477121853 0.9969448823617336 -0.02499085033615448
 -0.0003338900759700517 -0.0031119681424319422 0.00037520443584700494 0.004874831603262834 0.9969448823617336 -0.02499085033615448 0.002718577235079735 0.010153253127001594
0.043768236765320004 0.0029636515539526722 0.011917756891386438 0.9966229563235837 -0.029200717193314397 0.00045413759312379955 0.005690678772797381 -0.00040502347903141476 -0.0036352926601934807
 0.9966229563235837 -0.029200717193314397 0.002962960914551424 0.011917826004325584 -0.0004050405350569025 -0.0036352939745130596 0.0004585510652017675 0.005690153527119701
 0.00045413759312379955 0.005690678772797381 -0.0004050405350569025 -0.0036352939745130596 0.002963605607497368 0.011917178430607014 0.9966229441775627 -0.02920130177295119
 -0.00040502347903141476 -0.0036352926601934807 0.0004585510652017675 0.005690153527119701 0.9966229441775627 -0.02920130177295119 0.0029629831721677317 0.011917238038118212
0.050020842017509996 0.003224884665465005 0.01369984488124166 0.9962783590669704 -0.03342547258952657 0.0005452251683708398 0.006506775220195826 -0.0004837414063534554 -0.004159537478928136
 0.9962783590669704 -0.03342547258952657 0.003223983047154368 0.013699928677421992 -0.0004837635676308831 -0.004159538785752506 0.0005509909515909888 0.006506091695295608
 0.0005452251683708398 0.006506775220195826 -0.0004837635676308831 -0.004159538785752506 0.0032248249512645826 0.01369918487852444 0.9962783435194076 -0.033426140606674475
 -0.0004837414063534554 -0.004159537478928136 0.0005509909515909888 0.006506091695295608 0.9962783435194076 -0.033426140606674475 0.0032240125407983324 0.013699256737607772
0.055454545454549996 0.0034656795618985574 0.015262850992442912 0.9959602500012381 -0.03710860362331299 0.0006316903058815883 0.007216423554412103 -0.0005583815354826975 -0.004615768617048803
 0.9959602500012381 -0.03710860362331299 0.0034645718271662795 0.015262948683744695 -0.0005584086572279556 -0.004615769866394467 0.0006387786814262629 0.00721557999720724
 0.0006316903058815883 0.007216423554412103 -0.0005584086572279556 -0.004615769866394467 0.0034656064154062333 0.015262120413777698 0.9959602311550609 -0.037109344171279736
 -0.0005583815354826975 -0.004615768617048803 0.0006387786814262629 0.00721557999720724 0.9959602311550609 -0.037109344171279736 0.0034646084559750135 0.015262203755744216
0.056273447269699996 0.003503094169919622 0.015499545918374246 0.9959107916871355 -0.03766462154162839 0.0006453143552531666 0.007323403280320603 -0.0005701368922006238 -0.004684572698570463
 0.9959107916871355 -0.03766462154162839 0.003501953535650324 0.01549964579815833 -0.000570164803479061 -0.004684573934943246 0.0006526139576600513 0.007322533687967548
 0.0006453143552531666 0.007323403280320603 -0.000570164803479061 -0.004684573934943246 0.0035030188810330166 0.01549880472794233 0.9959107723165509 -0.037665373022670916
 -0.0005701368922006238 -0.004684572698570463 0.0006526139576600513 0.007322533687967548 0.9959107723165509 -0.037665373022670916 0.003501991308919161 0.015498889869185488
0.06252605252188 0.0037986036852595225 0.017316482647657606 0.9955199457532539 -0.04191811636846887 0.0007544930264241927 0.008140447057300807 -0.0006643010243763023 -0.005210268292656909
 0.9955199457532539 -0.04191811636846887 0.003797195992707989 0.017316600076805994 -0.0006643353240316485 -0.005210269391018515 0.000763508340660661 0.008139361215904646
 0.0007544930264241927 0.008140447057300807 -0.0006643353240316485 -0.005210269391018515 0.0037985110131462723 0.01731566065199457 0.9955199221350757 -0.041918951354288164
 -0.0006643010243763023 -0.005210268292656909 0.000763508340660661 0.008139361215904646 0.9955199221350757 -0.041918951354288164 0.003797243098590143 0.017315760136364895
0.06877865777407 0.004111734671427117 0.01915030521180239 0.995105512916987 -0.04618587003293724 0.0008728473307187661 0.008957785691899351 -0.0007663228953043488 -0.005736493250383125
 0.995105512916987 -0.04618587003293724 0.004110031866680434 0.019150441721896023 -0.0007663642155513186 -0.005736494138620044 0.0008837606219015994 0.008956450998054607
 0.0008728473307187661 0.008957785691899351 -0.0007663642155513186 -0.005736494138620044 0.004111622808067776 0.01914940282803379 0.9951054846247475 -0.046186788573028666
 -0.0007663228953043488 -0.005736493250383125 0.0008837606219015994 0.008956450998054607 0.9951054846247475 -0.046186788573028666 0.00411008936922089 0.019149517746676694
0.07503126302626001 0.004442806513472915 0.021000682010385695 0.9946671852631245 -0.05046776532194585 0.0010004615769242347 0.009775293933319435 -0.0008762895421863466 -0.006263115029174117
 0.9946671852631245 -0.05046776532194585 0.004440780524373906 0.02100083919925248 -0.0008763385092587232 -0.006263115630666665 0.0010134554664159474 0.009773675333429266
 0.0010004615769242347 0.009775293933319435 -0.0008763385092587232 -0.006263115630666665 0.004442673650027416 0.02099969969375031 0.994667151865745 -0.050468767471199494
 -0.0008762895421863466 -0.006263115029174117 0.0010134554664159474 0.009773675333429266 0.994667151865745 -0.050468767471199494 0.004440849496829145 0.020999831168060153
0.08128386827845 0.004792136534969254 0.022867293571170406 0.9942046555951288 -0.05476366091925511 0.0011374181261396075 0.010592842515812434 -0.0009942858766989135 -0.006789999207428588
 0.9942046555951288 -0.05476366091925511 0.004789759265099872 0.022867473103734864 -0.0009943431110562867 -0.006789999441097468 0.0011526755717179938 0.010590902477873827
 0.0011374181261396075 0.010592842515812434 -0.0009943431110562867 -0.006789999441097468 0.004791980864319873 0.0228662318064366 0.9942046166587044 -0.054764746747041515
 -0.0009942858766989135 -0.006789999207428588 0.0011526755717179938 0.010590902477873827 0.9942046166587044 -0.054764746747041515 0.0047898407915270905 0.022866380988277264
0.08753647353064001 0.0051600399745246415 0.02474982829276732 0.9937176176876243 -0.05907339561303969 0.001283797286956619 0.011410298430486583 -0.0011203946101323043 -0.007317009247254945
 0.9937176176876243 -0.05907339561303969 0.005157283296213803 0.024750031902019517 -0.0011204607265268268 -0.007317009027613153 0.0013015015601484793 0.011407996916092974
 0.001283797286956619 0.011410298430486583 -0.0011204607265268268 -0.007317009027613153 0.005159859690685743 0.024748687601640264 0.9937175727736726 -0.0590745651960428
 -0.0011203946101323043 -0.007317009247254945 0.0013015015601484793 0.011407996916092974 0.9937175727736726 -0.0590745651960428 0.005157378470915149 0.024748855673855184
0.09378907878283 0.00554682992857082 0.02664797941676448 0.9932057665087046 -0.06339679127976094 0.0014396772138788704 0.012227525125803796 -0.0012546961735425918 -0.007844006333846873
 0.9932057665087046 -0.06339679127976094 0.005543665677293161 0.026648208904876607 -0.0012547717812297333 -0.007844005571036516 0.0014600118750589595 0.012224819562419933
 0.0014396772138788704 0.012227525125803796 -0.0012547717812297333 -0.007844005571036516 0.005546623227942145 0.026646760357896822 0.9932057151744952 -0.06339804470232156
 -0.0012546961735425918 -0.007844006333846873 0.0014600118750589595 0.012224819562419933 0.9932057151744952 -0.06339804470232156 0.005543775604800773 0.026646948534982902
0.100041684035 0.005952817275336112 0.028561442808250372 0.992668798427213 -0.06773365506609727 0.0016051338072530306 0.013044382664486537 -0.001397268635228017 -0.008370849264064706
 0.992668798427213 -0.06773365506609727 0.005949217242595881 0.028561700048055083 -0.0013973543380033362 -0.008370847863902775 0.001628282678889878 0.013041227918020919
 0.0016051338072530306 0.013044382664486537 -0.0013973543380033362 -0.008370847863902775 0.005952582357102646 0.028560145973613785 0.9926687402252449 -0.06773499242410941
 -0.001397268635228017 -0.008370849264064706 0.001628282678889878 0.013041227918020919 0.9926687402252449 -0.06773499242410941 0.005949343038114721 0.028560355502616683
0.1059090909091 0.006351528058477931 0.030370681510985306 0.9921417982169608 -0.07181540757088621 0.0017691726909426686 0.01381045356099779 -0.001538647454608861 -0.008864967333250293
 0.9921417982169608 -0.07181540757088621 0.006347493391050308 0.03037096656048808 -0.001538743174962938 -0.008864965245523904 0.0017951297931315393 0.013806833949345641
 0.0017691726909426686 0.01381045356099779 -0.001538743174962938 -0.008864965245523904 0.00635126502642191 0.03036931226473669 0.9921417331586221 -0.07181682378656033
 -0.001538647454608861 -0.008864967333250293 0.0017951297931315393 0.013806833949345641 0.9921417331586221 -0.07181682378656033 0.006347635100678404 0.030369542994510158
0.1062942892872 0.006378310582294243 0.030489915282663 0.9921064114069524 -0.07208378103107618 0.001780240614921835 0.013860727843634025 -0.0015481876155371494 -0.00889739437732165
 0.9921064114069524 -0.07208378103107618 0.006374246509303834 0.030490202219274926 -0.0015482840118856776 -0.00889739224133745 0.0018063877526127948 0.013857076191432309
 0.001780240614921835 0.013860727843634025 -0.0015482840118856776 -0.00889739224133745 0.006378045649280624 0.03048854130239607 0.9921063458844575 -0.07208520242745062
 -0.0015481876155371494 -0.00889739437732165 0.0018063877526127948 0.013857076191432309 0.9921063458844575 -0.07208520242745062 0.0063743892985417 0.03048877346415427
0.11254689453939999 0.0068236160012603376 0.03243309334146494 0.991518305192358 -0.07644695138637359 0.0019650687341401752 0.014676414301832074 -0.0017075262000998306 -0.009423495505449466
 0.991518305192358 -0.07644695138637359 0.006819059572828937 0.03243341199412371 -0.0017076338832953512 -0.009423492530927384 0.0019943983966251317 0.014672215405928921
 0.0019650687341401752 0.014676414301832074 -0.0017076338832953512 -0.009423492530927384 0.0068233192607085 0.03243164288172866 0.9915182318907743 -0.07644845693336436
 -0.0017075262000998306 -0.009423495505449466 0.0019943983966251317 0.014672215405928921 0.9915182318907743 -0.07644845693336436 0.006819220492158662 0.03243189899221869
0.11879949979160001 0.007289037155401331 0.03439067217492174 0.9909041814876463 -0.08082293747622474 0.00215968671502107 0.015491292606606541 -0.0018753548513801913 -0.00994900394797736
 0.9909041814876463 -0.08082293747622474 0.007283959992881593 0.034391024639208644 -0.0018754744095613384 -0.009949000027998003 0.002192383332221488 0.015486493487563329
 0.00215968671502107 0.015491292606606541 -0.0018754744095613384 -0.009949000027998003 0.007288706819667794 0.03438914593935427 0.9909040999428246 -0.08082452729427088
 -0.0018753548513801913 -0.00994900394797736 0.002192383332221488 0.015486493487563329 0.9909040999428246 -0.08082452729427088 0.007284140189507384 0.034389427351347444
0.1250521050438 0.007774875017055325 0.03636234489296982 0.9902637441323351 -0.08521150053681785 0.002364160463799417 0.016305210336862563 -0.00205174131935551 -0.01047376845858401
 0.9902637441323351 -0.08521150053681785 0.007769248672197484 0.03636273334305797 -0.0020518733357055004 -0.010473763482032711 0.0024004086039438365 0.016299755347952003
 0.002364160463799417 0.016305210336862563 -0.0020518733357055004 -0.010473763482032711 0.0077745093045819905 0.03636074362148375 0.9902636538733526 -0.08521317475586475
 -0.00205174131935551 -0.01047376845858401 0.0024004086039438365 0.016299755347952003 0.9902636538733526 -0.08521317475586475 0.00776944930387118 0.03636105172655103
0.131304710296 0.00828142778114543 0.03834780190049378 0.9895966992724899 -0.08961239231854723 0.0025785531469335343 0.01711801215550658 -0.0022367505515764195 -0.01099763524740233
 0.9895966992724899 -0.08961239231854723 0.008275223729143648 0.03834822859183181 -0.002236895604257177 -0.010997629099021565 0.0026185374822704343 0.017111842957400075
 0.0025785531469335343 0.01711801215550658 -0.002236895604257177 -0.010997629099021565 0.008281024916892532 0.038346126369898224 0.9895965998218021 -0.0896141510775311
 -0.0022367505515764195 -0.01099763524740233 0.0026185374822704343 0.017111842957400075 0.9895965998218021 -0.0896141510775311 0.00827544596464677 0.0383464626005513
0.1375573155481 0.008694215969342597 0.04008911272015269 0.9890175787984478 -0.09376760751991554 0.0027759154881634913 0.017904197967618135 -0.002403391371195387 -0.011495156630884296
 0.9890175787984478 -0.09376760751991554 0.008687403786345204 0.04008957175398968 -0.0024035504942885055 -0.011495149306777598 0.0028197264548579662 0.017897322255395382
 0.0027759154881634913 0.017904197967618135 -0.0024035504942885055 -0.011495149306777598 0.008693775026003138 0.04008736324294902 0.9890174697365188 -0.09376945087059704
 -0.002403391371195387 -0.011495156630884296 0.0028197264548579662 0.017897322255395382 0.9890174697365188 -0.09376945087059704 0.008687647842175104 0.040087721668342555
0.1438099208003 0.009121591727415564 0.041821053457518804 0.9884179962451936 -0.09791206709826299 0.0029812266404369127 0.01868705953475417 -0.002576680762014136 -0.01198958569019014
 0.9884179962451936 -0.09791206709826299 0.009114142505156565 0.04182154666810178 -0.0025768546084604456 -0.011989577072102426 0.0030290320398625482 0.0186794238407149
 0.0029812266404369127 0.01868705953475417 -0.0025768546084604456 -0.011989577072102426 0.009121111092065032 0.041819230787011975 0.9884178770971673 -0.09791399517203905
 -0.002576680762014136 -0.01198958569019014 0.0030290320398625482 0.0186794238407149 0.9884178770971673 -0.09791399517203905 0.009114409392781892 0.04181961248203752
0.1500625260525 0.009563401902250685 0.043543472716212644 0.9877981090392123 -0.10204566114582952 0.003194413196421288 0.019466512953763816 -0.0027565466089317803 -0.012480841885065763
 0.9877981090392123 -0.10204566114582952 0.00955528665108433 0.04354400205193496 -0.0027567358322843783 -0.012480831849666935 0.003246379841370418 0.019458061847664222
 0.003194413196421288 0.019466512953763816 -0.0027567358322843783 -0.012480831849666935 0.009562879978111538 0.0435415776365133 0.9877979793247301 -0.10204767407634303
 -0.0027565466089317803 -0.012480841885065763 0.003246379841370418 0.019458061847664222 0.9877979793247301 -0.10204767407634303 0.009555577381090469 0.04354198376239663
0.15631513130469998 0.010019492222594219 0.045256223635829304 0.9871580754416536 -0.10616828028605566 0.0034154008613120753 0.02024247581151462 -0.002942915889849791 -0.012968846409470736
