! Created with skrf 1.8.0 (http://scikit-rf.org).
# GHz S RI R 50.0 
!freq ReS11 ImS11 ReS12 ImS12 ReS13 ImS13
! ReS14 ImS14
! ReS21 ImS21 ReS22 ImS22 ReS23 ImS23
! ReS24 ImS24
! ReS31 ImS31 ReS32 ImS32 ReS33 ImS33
! ReS34 ImS34
! ReS41 ImS41 ReS42 ImS42 ReS43 ImS43
! ReS44 ImS44
!
0.0 0.001625391079231 0.0 0.9983746089055 0.0 6.286688138057e-05 0.0 -6.286688203472e-05 7.69897258561941e-21
 0.9983746089055 0.0 0.001625391079247 0.0 -6.286688203559e-05 7.698972585725953e-21 6.286688137972e-05 0.0
 6.286688138057e-05 0.0 -6.286688203559e-05 7.698972585725953e-21 0.001625391076767 0.0 0.998374608903 0.0
 -6.286688203472e-05 7.69897258561941e-21 6.286688137972e-05 0.0 0.998374608903 0.0 0.001625391076742 0.0
0.005 0.001749027577356058 0.0013288088320117246 0.9982181323423198 -0.0034045575645991963 8.84118680729042e-05 0.0006965712885539135 -8.573558384573397e-05 -0.00043651733598766264
 0.9982181323423198 -0.0034045575645991963 0.0017490656286945274 0.0013287865870550025 -8.573131462236268e-05 -0.00043651405819146926 8.818140071123461e-05 0.0006966589167633975
 8.84118680729042e-05 0.0006965712885539135 -8.573131462236268e-05 -0.00043651405819146926 0.001749030138359923 0.0013288745735905243 0.9982181327130267 -0.003404490507206993
 -8.573558384573397e-05 -0.00043651733598766264 8.818140071123461e-05 0.0006966589167633975 0.9982181327130267 -0.003404490507206993 0.001749063801663052 0.0013288549544387416
0.006252605252188 0.0017815227378574566 0.0016662310750101682 0.9981767291407616 -0.004256517958425887 9.577418380217138e-05 0.000871043282824996 -9.222612945092915e-05 -0.0005462073424493059
 0.9981767291407616 -0.004256517958425887 0.0017815822197521237 0.0016662028834008788 -9.221948618157459e-05 -0.0005462033014695195 9.541409929811098e-05 0.0008711571184029345
 9.577418380217138e-05 0.000871043282824996 -9.221948618157459e-05 -0.0005462033014695195 0.0017815266615212955 0.0016663132555583085 0.9981767296403442 -0.004256434126294105
 -9.222612945092915e-05 -0.0005462073424493059 9.541409929811098e-05 0.0008711571184029345 0.9981767296403442 -0.004256434126294105 0.0017815792833537783 0.0016662883539639505
0.01250521050438 0.0019529868558692818 0.0033672802807409876 0.997956731891245 -0.00851375819418358 0.0001383328441493248 0.0017423813288759376 -0.00012923412314006294 -0.0010950161646987075
 0.997956731891245 -0.00851375819418358 0.001953224377587021 0.003367219997361499 -0.00012920794262260394 -0.0010950087023923031 0.00013689687223612427 0.001742655534215901
 0.0001383328441493248 0.0017423813288759376 -0.00012920794262260394 -0.0010950087023923031 0.001953001954902694 0.003367444281388469 0.9979567333155499 -0.008513590782695323
 -0.00012923412314006294 -0.0010950161646987075 0.00013689687223612427 0.001742655534215901 0.9979567333155499 -0.008513590782695323 0.0019532120741812624 0.0033673906954733383
0.01875781575657 0.002140174165605572 0.0050924290927627175 0.9977143323041954 -0.01278206430188536 0.00019064213906338592 0.00261458483520422 -0.00017400798085624099 -0.0016456192714899137
 0.9977143323041954 -0.01278206430188536 0.002140707906453296 0.00509233247478244 -0.00017394959774462836 -0.0016456091335638916 0.00018741629890440788 0.0026150753858998972
 0.00019064213906338592 0.00261458483520422 -0.00017394959774462836 -0.0016456091335638916 0.0021402076797899772 0.005092674625544615 0.9977143350883468 -0.012781813382252637
 -0.00017400798085624099 -0.0016456192714899137 0.00018741629890440788 0.0026150753858998972 0.9977143350883468 -0.012781813382252637 0.0021406798272872013 0.005092588349551338
0.02501042100875 0.002343462848912073 0.006839242045095695 0.9974492338640839 -0.017063484383647604 0.00025280353195124435 0.0034876735614972378 -0.00022666071481081774 -0.0021977537540870547
 0.9974492338640839 -0.017063484383647604 0.0023444107680164255 0.006839104551511215 -0.00022655761564491437 -0.002197741824955498 0.00024707354171878306 0.003488445576244469
 0.00025280353195124435 0.0034876735614972378 -0.00022655761564491437 -0.002197741824955498 0.0023435219992182115 0.006839568771970786 0.9974492384384988 -0.01706314997093533
 -0.00022666071481081774 -0.0021977537540870547 0.00024707354171878306 0.003488445576244469 0.9974492384384988 -0.01706314997093533 0.0023443605011089132 0.006839445615442304
0.03126302626094 0.002563215417120676 0.008606455447427918 0.9971611255250297 -0.021358882323173744 0.000324919019308911 0.0043615861651822175 -0.00028730192674696514 -0.002751231012112881
 0.9971611255250297 -0.021358882323173744 0.0025646953213254798 0.00860627224758592 -0.0002871417243848272 -0.0027512183164327877 0.0003159696473320145 0.0043627139626129015
 0.000324919019308911 0.0043615861651822175 -0.0002871417243848272 -0.0027512183164327877 0.0025633074160929413 0.008606862945729871 0.9971611323236101 -0.02135846441041684
 -0.00028730192674696514 -0.002751231012112881 0.0003159696473320145 0.0043627139626129015 0.9971611323236101 -0.02135846441041684 0.0025646164556687163 0.008606698542311848
0.037515631513130004 0.002799786337870073 0.010393237478147467 0.9968496896048598 -0.025668677633171575 0.0004070899688268688 0.005236229017116822 -0.0003560385875897529 -0.003305887934097424
 0.9968496896048598 -0.025668677633171575 0.002801915928576573 0.010393003455530231 -0.0003558090082748092 -0.003305875637209855 0.00039420474945204464 0.005237796209318622
 0.0004070899688268688 0.005236229017116822 -0.0003558090082748092 -0.003305875637209855 0.002799918387521662 0.01039372524819812 0.9968496990631315 -0.025668176182922733
 -0.0003560385875897529 -0.003305887934097424 0.00039420474945204464 0.005237796209318622 0.9968496990631315 -0.025668176182922733 0.0028018020488558893 0.010393515060586247
0.043768236765320004 0.0030535249698066804 0.012198963049042444 0.9965146049943767 -0.02999307051994526 0.0004994165724175031 0.006111491052590512 -0.0004329753087488868 -0.0038615720538130944
 0.9965146049943767 -0.02999307051994526 0.00305642187966025 0.01219867280308515 -0.00043266418446851856 -0.0038615614618837724 0.0004818776775489948 0.0061135906500459835
 0.0004994165724175031 0.006111491052590512 -0.00043266418446851856 -0.0038615614618837724 0.0030537042659539936 0.012199530498657404 0.9965146175540728 -0.02999248547879698
 -0.0004329753087488868 -0.0038615720538130944 0.0004818776775489948 0.0061135906500459835 0.9965146175540728 -0.02999248547879698 0.0030562665694178256 0.012199269821806363
0.050020842017509996 0.0033247769266928177 0.014023120730929714 0.9961555488021739 -0.034332134885320734 0.0006019975170464066 0.00698724990663825 -0.0005182144311318231 -0.004418135428198669
 0.9961555488021739 -0.034332134885320734 0.0033285587525408267 0.014022768577453548 -0.0005178096948166201 -0.004418127988238864 0.0005790857106139545 0.006989984427726193
 0.0006019975170464066 0.00698724990663825 -0.0005178096948166201 -0.004418127988238864 0.0033250106544690907 0.014023767179767464 0.9961555649075653 -0.03433146617850697
 -0.0005182144311318231 -0.004418135428198669 0.0005790857106139545 0.006989984427726193 0.9961555649075653 -0.03433146617850697 0.0033283555888640377 0.014023451142945629
0.055454545454549996 0.003574992173264646 0.01562299256766004 0.9958237988390143 -0.038114824560308395 0.0006995465867672682 0.007748613067347249 -0.0005991101600990323 -0.00490240620986264
 0.9958237988390143 -0.038114824560308395 0.003579638515661873 0.015622581777697101 -0.0005986143481595688 -0.004902402793575336 0.0006713803593214576 0.007751990081897113
 0.0006995465867672682 0.007748613067347249 -0.0005986143481595688 -0.004902402793575336 0.0035752790316128684 0.015623707046308404 0.9958238183907002 -0.03811408306930042
 -0.0005991101600990323 -0.00490240620986264 0.0006713803593214576 0.007751990081897113 0.9958238183907002 -0.03811408306930042 0.003579388545509011 0.01562333881645254
0.056273447269699996 0.003613884761752435 0.015865267093203576 0.9957721973243371 -0.03868586391673916 0.000714929750917507 0.007863374926077044 -0.0006118560335605683 -0.0049754316438915935
 0.9957721973243371 -0.03868586391673916 0.0036186690947066537 0.01586484706377787 -0.0006113457159319779 -0.00497542894372544 0.0006859243937194097 0.007866856508482426
 0.000714929750917507 0.007863374926077044 -0.0006113457159319779 -0.00497542894372544 0.0036141800970305848 0.015865991772464713 0.99577221742529 -0.03868511144736647
 -0.0006118560335605683 -0.0049754316438915935 0.0006859243937194097 0.007866856508482426 0.99577221742529 -0.03868511144736647 0.003618411649430885 0.015865615340260923
0.06252605252188 0.003921188331764977 0.017725001597237035 0.9953642266994494 -0.04305419512726739 0.0008383082964839158 0.00873972884027272 -0.0007139979012685932 -0.005533314170564527
 0.9953642266994494 -0.04305419512726739 0.003927092785949695 0.017724507437685284 -0.0007133701287559153 -0.005533317938782435 0.0008024873840747203 0.00874407935302406
 0.0008383082964839158 0.00873972884027272 -0.0007133701287559153 -0.005533317938782435 0.0039215524399938174 0.017725803642966654 0.9953642512514115 -0.043053358782074044
 -0.0007139979012685932 -0.005533314170564527 0.0008024873840747203 0.00874407935302406 0.9953642512514115 -0.043053358782074044 0.003926774624628218 0.017725361615424737
0.06877865777407 0.004247024975802965 0.01960195163379841 0.9949313133829171 -0.04743702525710259 0.0009722260916768483 0.009616168754108933 -0.0008247354690005941 -0.006091635397827275
 0.9949313133829171 -0.04743702525710259 0.0042541672166677294 0.019601376801553737 -0.0008239784624572443 -0.006091647503691182 0.0009288663161267763 0.00962151990946437
 0.0009722260916768483 0.009616168754108933 -0.0008239784624572443 -0.006091647503691182 0.004247465011750597 0.01960283008762091 0.9949313428478425 -0.047436104904513124
 -0.0008247354690005941 -0.006091635397827275 0.0009288663161267763 0.00962151990946437 0.9949313428478425 -0.047436104904513124 0.004253781898042784 0.01960231709950854
0.07503126302626001 0.004591729592786779 0.021495763028681593 0.9944731345235316 -0.05183421971209628 0.0011167738463906042 0.01049254679007763 -0.0009441617504439506 -0.0066502460289586274
 0.9944731345235316 -0.05183421971209628 0.004600227364010195 0.02149510068947674 -0.0009432638242525011 -0.006650268482316775 0.0010651506755755406 0.010499040254802972
 0.0011167738463906042 0.01049254679007763 -0.0009432638242525011 -0.006650268482316775 0.004592252698684107 0.02149671683771819 0.9944731693702811 -0.05183321520152063
 -0.0009441617504439506 -0.0066502460289586274 0.0010651506755755406 0.010499040254802972 0.9944731693702811 -0.05183321520152063 0.004599768439309607 0.021496127356708444
0.08128386827845 0.004955634647211154 0.02340609374100148 0.9939893682744465 -0.05624561881652453 0.0012720399086435033 0.011368710521550071 -0.001072367257981952 -0.007208994689694467
 0.9939893682744465 -0.05624561881652453 0.0049656057984467416 0.023405336764334775 -0.00107131681970838 -0.007209029640854461 0.001211427679699404 0.01137649802718463
 0.0012720399086435033 0.011368710521550071 -0.00107131681970838 -0.007209029640854461 0.004956247952705551 0.023407121754812948 0.9939894089800557 -0.05624452998032361
 -0.001072367257981952 -0.007208994689694467 0.001211427679699404 0.01137649802718463 0.9939894089800557 -0.05624452998032361 0.004965066811156073 0.023406450078896798
0.08753647353064001 0.00533907013279753 0.025332609499555715 0.9934796940649101 -0.060671042134250806 0.0014381101376203995 0.01224450328407026 -0.001209439915841707 -0.007767727665301632
 0.9934796940649101 -0.060671042134250806 0.005350632646723827 0.02533175045336916 -0.0012082254660552077 -0.007767777404903931 0.001367782161552915 0.012253746736009083
 0.0014381101376203995 0.01224450328407026 -0.0012082254660552077 -0.007767777404903931 0.005339780753311623 0.025333710471254902 0.9934797411147573 -0.060669868785710374
 -0.001209439915841707 -0.007767727665301632 0.001367782161552915 0.012253746736009083 0.9934797411147573 -0.060669868785710374 0.005350007132157574 0.025332950725087244
0.09378907878283 0.00574236350532519 0.027274980695585607 0.9929437928448629 -0.06511029154069634 0.0016150677811169517 0.013119764404115303 -0.0013554649682962312 -0.008326288726804807
 0.9929437928448629 -0.06511029154069634 0.005755635524469038 0.027274011839908553 -0.0013540751006929392 -0.008326355685661455 0.0015342964570126117 0.013130635989186089
 0.0016150677811169517 0.013119764404115303 -0.0013540751006929392 -0.008326355685661455 0.0057431785407755925 0.027276153277745113 0.9929438467333441 -0.06510903347722244
 -0.0013554649682962312 -0.008326288726804807 0.0015342964570126117 0.013130635989186089 0.9929438467333441 -0.06510903347722244 0.005754917009094503 0.02727529940806684
0.100041684035 0.006165839592101211 0.02923288010241566 0.9923813473112562 -0.06956315347542953 0.001802993355564362 0.013994329380159641 -0.0015105248849878836 -0.00888451901155006
 0.9923813473112562 -0.06956315347542953 0.006180939446340975 0.02923179338195624 -0.0015089482866974938 -0.008884605760474158 0.0017110502930149727 0.014007011672560066
 0.001802993355564362 0.013994329380159641 -0.0015089482866974938 -0.008884605760474158 0.006166766125775631 0.02923412285079563 0.9923814085428317 -0.06956181047402106
 -0.0015105248849878836 -0.00888451901155006 0.0017110502930149727 0.014007011672560066 0.9923814085428317 -0.06956181047402106 0.00618012144752412 0.02923316862084881
0.1059090909091 0.006581869895441386 0.03108399288351534 0.9918291291408311 -0.07375387024669736 0.0019893860112089887 0.014814232947737918 -0.0016643202234006974 -0.00940791419555103
 0.9918291291408311 -0.07375387024669736 0.006598792789498679 0.031082787945029094 -0.0016625581928600614 -0.009408021978021638 0.0018862964046439598 0.014828789790609658
 0.0019893860112089887 0.014814232947737918 -0.0016625581928600614 -0.009408021978021638 0.006582907484890239 0.031085300068366364 0.9918291977317317 -0.07375244732561913
 -0.0016643202234006974 -0.00940791419555103 0.0018862964046439598 0.014828789790609658 0.9918291977317317 -0.07375244732561913 0.00659787553213786 0.031084245819277132
0.1062942892872 0.00660982048523173 0.03120598117336634 0.9917920421205884 -0.07402940062423709 0.002001964528806997 0.014868030028785218 -0.00167469926318277 -0.0094422569456012
 0.9917920421205884 -0.07402940062423709 0.0066268667189907276 0.0312047682091303 -0.001672924715201102 -0.009442366195210961 0.0018981206775861203 0.014882716094217721
 0.002001964528806997 0.014868030028785218 -0.001672924715201102 -0.009442366195210961 0.006610865582794159 0.031207292538757387 0.9917921112106567 -0.07402797244876783
 -0.00167469926318277 -0.0094422569456012 0.0018981206775861203 0.014882716094217721 0.9917921112106567 -0.07402797244876783 0.006625942745106818 0.031206231521498783
0.11254689453939999 0.00707462542338489 0.03319395673328435 0.991175564094004 -0.07850879321544435 0.002212056004125625 0.015740694606695877 -0.001848064728495981 -0.009999338197208154
 0.991175564094004 -0.07850879321544435 0.007093736822945544 0.03319260881297963 -0.0018460811063007304 -0.009999472797705928 0.002095581790315438 0.015757588104492775
 0.002212056004125625 0.015740694606695877 -0.0018460811063007304 -0.009999472797705928 0.007075796131233843 0.03319533506812546 0.9911756415691715 -0.07850727960927789
 -0.001848064728495981 -0.009999338197208154 0.002095581790315438 0.015757588104492775 0.9911756415691715 -0.07850727960927789 0.007092700372428987 0.033194160638608465
0.11879949979160001 0.007560570662633265 0.03519647797535165 0.9905316024142575 -0.08300108001923767 0.002433339405952429 0.01661214791935965 -0.0020306948338887822 -0.010555595650728762
 0.9905316024142575 -0.08300108001923767 0.007581866283680195 0.035194986042885915 -0.0020284911081107637 -0.010555758591667883 0.002303504874002086 0.016631463202535893
 0.002433339405952429 0.01661214791935965 -0.0020284911081107637 -0.010555758591667883 0.0075618740064458175 0.03519792152755333 0.9905316888132056 -0.08299948071072495
 -0.0020306948338887822 -0.010555595650728762 0.002303504874002086 0.016631463202535893 0.9905316888132056 -0.08299948071072495 0.007580710845090175 0.035196626854011134
0.1250521050438 0.008067969339950869 0.037213213668416616 0.9898598488182561 -0.08750599914491626 0.002665883166333794 0.017482211417115524 -0.0022226599578893526 -0.011110859400342612
 0.9898598488182561 -0.08750599914491626 0.008091568535183873 0.03721156831210757 -0.002220225195096489 -0.011111053810338025 0.0025219581266079866 0.017504173630161837
 0.002665883166333794 0.017482211417115524 -0.002220225195096489 -0.011111053810338025 0.008069412323513842 0.037214720584826715 0.9898599446929348 -0.08750431384329703
 -0.0022226599578893526 -0.011110859400342612 0.0025219581266079866 0.017504173630161837 0.9898599446929348 -0.08750431384329703 0.008090287587044727 0.03721329861867519
0.131304710296 0.0085971313306589 0.039243829529797235 0.9891599977866714 -0.09202327868128278 0.0029097524125333307 0.01835070328698574 -0.0024240272019901464 -0.01166495675536846
 0.9891599977866714 -0.09202327868128278 0.00862315377751546 0.03924202096945841 -0.002421350565548123 -0.011665185901831548 0.0027510065939233713 0.018375548461236818
 0.0029097524125333307 0.01835070328698574 -0.002421350565548123 -0.011665185901831548 0.008598720934201658 0.039245397850952844 0.9891601037023902 -0.0920215070811977
 -0.0024240272019901464 -0.01166495675536846 0.0027510065939233713 0.018375548461236818 0.9891601037023902 -0.0920215070811977 0.008621740787755622 0.03924384131565021
0.1375573155481 0.009029549607368082 0.04102342711854338 0.9885506082802651 -0.0962879565080454 0.0031357462829564747 0.019191444029963287 -0.0026057894258671717 -0.012191600040245042
 0.9885506082802651 -0.0962879565080454 0.009058122900726212 0.04102148013232083 -0.0026028548163042663 -0.012191864332668237 0.002961819690210452 0.01921914456189052
 0.0031357462829564747 0.019191444029963287 -0.0026028548163042663 -0.012191864332668237 0.009031292310744227 0.04102505495097582 0.9885507247039731 -0.09628609844179507
 -0.0026057894258671717 -0.012191600040245042 0.002961819690210452 0.01921914456189052 0.9885507247039731 -0.09628609844179507 0.00905657200877039 0.04102339122330125
0.1438099208003 0.00947725622017406 0.04279314351545319 0.9879196147563635 -0.10054130340793717 0.0033708766872023424 0.020028351469653927 -0.002794803748986799 -0.012714819221009064
 0.9879196147563635 -0.10054130340793717 0.009508501644681118 0.04279105012499538 -0.0027915995214260617 -0.01271512188763906 0.003181105772919869 0.020059123990416147
 0.0033708766872023424 0.020028351469653927 -0.0027915995214260617 -0.01271512188763906 0.009479158882298557 0.04279482883006296 0.9879197422525845 -0.10053935857910387
 -0.002794803748986799 -0.012714819221009064 0.003181105772919869 0.020059123990416147 0.9879197422525845 -0.10053935857910387 0.009506806423620832 0.0427930525219546
0.1500625260525 0.009940085447452156 0.044552815760320455 0.9872671872527392 -0.10478319804289939 0.003615058150065339 0.020861325819446754 -0.0029909889196770155 -0.013234523777629936
 0.9872671872527392 -0.10478319804289939 0.009974124631204746 0.04455056748893975 -0.00298750345878106 -0.013234868176469723 0.0034087835588033103 0.020895394882325606
 0.003615058150065339 0.020861325819446754 -0.00298750345878106 -0.013234868176469723 0.009942154899393619 0.04455455644687483 0.9872673263975273 -0.10478116614365768
 -0.0029909889196770155 -0.013234523777629936 0.0034087835588033103 0.020895394882325606 0.9872673263975273 -0.10478116614365768 0.009972278651751133 0.04455266177835959
0.15631513130469998 0.010417870297308006 0.046302285785123805 0.9865934967732067 -0.10901351984037182 0.003868204120320597 0.021690269070282653 -0.0031942626334252994 -0.013750625189809372
 0.9865934967732067 -0.10901351984037182 0.01045482522185004 0.046299873642866765 -0.0031904843540751272 -0.013751014808000913 0.003644770755212962 0.021727867065252957
