! Created with skrf 1.8.0 (http://scikit-rf.org).
# GHz S RI R 50.0 
!freq ReS11 ImS11 ReS12 ImS12 ReS13 ImS13
! ReS14 ImS14
! ReS21 ImS21 ReS22 ImS22 ReS23 ImS23
! ReS24 ImS24
! ReS31 ImS31 ReS32 ImS32 ReS33 ImS33
! ReS34 ImS34
! ReS41 ImS41 ReS42 ImS42 ReS43 ImS43
! ReS44 ImS44
!
0.0 0.001193948386306 0.0 0.9988060515962 0.0 4.575006054673e-05 0.0 -4.575005921445e-05 5.602766357777807e-21
 0.9988060515962 0.0 0.001193948386277 0.0 -4.575005921366e-05 5.602766357681059e-21 4.575006054592e-05 0.0
 4.575006054673e-05 0.0 -4.575005921366e-05 5.602766357681059e-21 0.001193948394989 0.0 0.9988060516049 0.0
 -4.575005921445e-05 5.602766357777807e-21 4.575006054592e-05 0.0 0.9988060516049 0.0 0.001193948395001 0.0
0.005 0.0012838456550509588 0.0009719135206832416 0.9986924203118565 -0.002502366032161196 6.444517298972973e-05 0.0005363417178082843 -6.246310133977575e-05 -0.0003311742396546543
 0.9986924203118565 -0.002502366032161196 0.0012838550858001905 0.0009719079893008099 -6.245912919587662e-05 -0.00033117119616841095 6.440385141468828e-05 0.0005363574922984869
 6.444517298972973e-05 0.0005363417178082843 -6.245912919587662e-05 -0.00033117119616841095 0.0012838479565661473 0.0009719794119429854 0.9986924206381916 -0.0025022989686814007
 -6.246310133977575e-05 -0.0003311742396546543 6.440385141468828e-05 0.0005363574922984869 0.9986924206381916 -0.0025022989686814007 0.0012838534344858914 0.0009719762234695365
0.006252605252188 0.0013071903046536575 0.0012187730297048439 0.9986627600019993 -0.003128607928002205 6.965736818253859e-05 0.0006706869285944405 -6.70764238423996e-05 -0.0004144174037770767
 0.9986627600019993 -0.003128607928002205 0.0013072050468185786 0.0012187660068362165 -6.707024267265733e-05 -0.0004144136495509999 6.9592806721164e-05 0.0006707073801961782
 6.965736818253859e-05 0.0006706869285944405 -6.707024267265733e-05 -0.0004144136495509999 0.001307193829748519 0.0012188553838677956 0.9986627604391932 -0.0031285241062253386
 -6.70764238423996e-05 -0.0004144174037770767 6.9592806721164e-05 0.0006707073801961782 0.9986627604391932 -0.0031285241062253386 0.0013072023923329918 0.001218851292666352
0.01250521050438 0.001428726940492402 0.0024636208268687286 0.9985074791235787 -0.006258246888019747 9.886677556544467e-05 0.0013417126078610342 -9.268597255009114e-05 -0.0008310268448998641
 0.9985074791235787 -0.006258246888019747 0.0014287858090537107 0.0024636056775251317 -9.266160987081852e-05 -0.0008310198764059071 9.860931864663797e-05 0.0013417613127983889
 9.886677556544467e-05 0.0013417126078610342 -9.266160987081852e-05 -0.0008310198764059071 0.0014287404646875753 0.002463785248713729 0.9985074803150517 -0.00625807948998543
 -9.268597255009114e-05 -0.0008310268448998641 9.860931864663797e-05 0.0013417613127983889 0.9985074803150517 -0.00625807948998543 0.0014287746511892276 0.0024637760170537785
0.01875781575657 0.0015587752280495086 0.0037267162364005976 0.9983400508992236 -0.009396587928885985 0.00013343692468209995 0.0020135930990689515 -0.00012264714221430804 -0.001249214276202195
 0.9983400508992236 -0.009396587928885985 0.0015589075138765173 0.0037266917557013408 -0.00012259280601237786 -0.0012492047148935348 0.00013285857106203885 0.002013679125471357
 0.00013343692468209995 0.0020135930990689515 -0.00012259280601237786 -0.0012492047148935348 0.0015588052016704103 0.003726962540360982 0.9983400531562491 -0.009396337046131178
 -0.00012264714221430804 -0.001249214276202195 0.00013285857106203885 0.002013679125471357 0.9983400531562491 -0.009396337046131178 0.0015588820128657926 0.003726947095923354
0.02501042100875 0.0016975481400555022 0.005006328275171781 0.998160312498702 -0.012545200844733378 0.00017342755798405298 0.0026863965335277907 -0.00015702678289633638 -0.0016688107111954337
 0.998160312498702 -0.012545200844733378 0.0016977830770237446 0.005006293166687169 -0.00015693081778458284 -0.0016687992721564605 0.0001724002415009285 0.0026865301539298917
 0.00017342755798405298 0.0026863965335277907 -0.00015693081778458284 -0.0016687992721564605 0.001697601005945444 0.005006656266019795 0.9981603161347978 -0.01254486652832313
 -0.00015702678289633638 -0.0016688107111954337 0.0001724002415009285 0.0026865301539298917 0.9981603161347978 -0.01254486652832313 0.0016977374011397342 0.005006633517011086
0.03126302626094 0.0018452494538824323 0.006301590148998637 0.9979680911928809 -0.015704786133738054 0.00021889924482194182 0.0033601262371026797 -0.00019589021061809062 -0.0020897090679889746
 0.9979680911928809 -0.015704786133738054 0.001845616232993446 0.006301543026000645 -0.00019574107360071063 -0.0020896965615989347 0.0002172947065572355 0.0033603189334111315
 0.00021889924482194182 0.0033601262371026797 -0.00019574107360071063 -0.0020896965615989347 0.0018453316480624264 0.0063019995977777665 0.997968096520928 -0.01570436841828552
 -0.00019589021061809062 -0.0020897090679889746 0.0002172947065572355 0.0033603189334111315 0.997968096520928 -0.01570436841828552 0.0018455445532218448 0.0063019684339922265
0.037515631513130004 0.0020020786922214547 0.007611954870503854 0.9977632093769405 -0.018875719337139905 0.000269912757913417 0.004034760517694169 -0.00023930173061167067 -0.0025118243684942214
 0.9977632093769405 -0.018875719337139905 0.002002606469520431 0.0076118942562925 -0.00023908797852027658 -0.002511811701012986 0.00026760248462600586 0.004035024992895202
 0.000269912757913417 0.004034760517694169 -0.00023908797852027658 -0.002511811701012986 0.0020021966452424982 0.007612445512781665 0.9977632167103637 -0.01887521824213142
 -0.00023930173061167067 -0.0025118243684942214 0.00026760248462600586 0.004035024992895202 0.9977632167103637 -0.01887521824213142 0.0020025029580485 0.007612404806494936
0.043768236765320004 0.002168233032977831 0.008937029620391928 0.9975454865664785 -0.02205821662943874 0.0003265287872175697 0.0047102647733672795 -0.00028732484470402135 -0.0029350816174425844
 0.9975454865664785 -0.02205821662943874 0.0021689509356935467 0.008936953948175324 -0.0002870351266262887 -0.00293506979128476 0.00032338397813137175 0.004710614965356394
 0.0003265287872175697 0.0047102647733672795 -0.0002870351266262887 -0.00293506979128476 0.0021683931711417837 0.008937601150333227 0.9975454962192818 -0.02205763216460871
 -0.00028732484470402135 -0.0029350816174425844 0.00032338397813137175 0.004710614965356394 0.9975454962192818 -0.02205763216460871 0.0021688097652787603 0.008937549757036034
0.050020842017509996 0.0023439082094242306 0.010276507278214006 0.9973147403850176 -0.025252403237272767 0.00038880778315937456 0.005386596481369068 -0.00034002233633228016 -0.00335941080102117
 0.9973147403850176 -0.025252403237272767 0.002344845340592816 0.010276414890852376 -0.00033964538863558906 -0.0033594009149162476 0.0003846993316205542 0.005387047577669222
 0.00038880778315937456 0.005386596481369068 -0.00033964538863558906 -0.0033594009149162476 0.0023441169553437198 0.010277159346544218 0.9973147526720163 -0.025251735403953587
 -0.00034002233633228016 -0.00335941080102117 0.0003846993316205542 0.005387047577669222 0.9973147526720163 -0.025251735403953587 0.002344660683975781 0.010277096105704996
0.055454545454549996 0.002504458625698174 0.011452051875475685 0.9971034957430165 -0.02803779508748551 0.00044757582867161513 0.00597498406609943 -0.0003896624685545649 -0.003728983798224238
 0.9971034957430165 -0.02803779508748551 0.0025056098923634126 0.011451943545923717 -0.00038920063338684647 -0.0037289765652684125 0.00044252484753567307 0.005975536167361814
 0.00044757582867161513 0.00597498406609943 -0.00038920063338684647 -0.0037289765652684125 0.0025047148261919815 0.011452773616814134 0.9971035105755448 -0.028037054798432243
 -0.0003896624685545649 -0.003728983798224238 0.00044252484753567307 0.005975536167361814 0.9971035105755448 -0.028037054798432243 0.00250538271193985 0.011452699125646813
0.056273447269699996 0.002529298983679487 0.011630132821641985 0.9970707871265456 -0.028458346989293514 0.00045680984942937143 0.006063707659337332 -0.0003974563084904707 -0.003784744414118008
 0.9970707871265456 -0.028458346989293514 0.0025304844259578887 0.011630021971313192 -0.00039698095134461567 -0.003784737663213842 0.00045160833348721385 0.006064276112267395
 0.00045680984942937143 0.006063707659337332 -0.00039698095134461567 -0.003784737663213842 0.0025295627562999167 0.011630865036120154 0.9970708023636359 -0.028457595779344546
 -0.0003974563084904707 -0.003784744414118008 0.00045160833348721385 0.006064276112267395 0.9970708023636359 -0.028457595779344546 0.002530250455360252 0.011630788771829315
0.06252605252188 0.002724599414576173 0.01299768486007473 0.9968134421144499 -0.03167607673214161 0.0005305946661644581 0.006741546190424006 -0.0004596881920393028 -0.004211016124676852
 0.9968134421144499 -0.03167607673214161 0.0027260622339559714 0.012997553707750171 -0.00045910332699188966 -0.004211013800610742 0.0005241703450103719 0.006742249732487355
 0.0005305946661644581 0.006741546190424006 -0.00045910332699188966 -0.004211013800610742 0.0027249246285387264 0.012998496780434599 0.9968134606177165 -0.03167524213227694
 -0.0004596881920393028 -0.004211016124676852 0.0005241703450103719 0.006742249732487355 0.9968134606177165 -0.03167524213227694 0.002725773119763106 0.01299840630202861
0.06877865777407 0.002930003011859352 0.014378964608580423 0.9965425199486431 -0.03490559330650887 0.000610221425347694 0.007420056632263574 -0.0005267787419023287 -0.0046381599553507935
 0.9965425199486431 -0.03490559330650887 0.0029317722606621603 0.014378811223544088 -0.000526073350061354 -0.004638163446302379 0.0006024442398229456 0.00742091429167044
 0.000610221425347694 0.007420056632263574 -0.000526073350061354 -0.004638163446302379 0.0029303960792532477 0.014379855747737508 0.9965425420367111 -0.034904675296453094
 -0.0005267787419023287 -0.0046381599553507935 0.0006024442398229456 0.00742091429167044 0.9965425420367111 -0.034904675296453094 0.0029314221730604184 0.014379749850412448
0.07503126302626001 0.0031457028267746078 0.01577378891633738 0.996257834691322 -0.03814687647014937 0.0006957487761359197 0.00809918071651145 -0.0005987880228815909 -0.005066109775868704
 0.996257834691322 -0.03814687647014937 0.0031478075469635863 0.015773611275469702 -0.0005979511636436817 -0.0050661205666009896 0.0006864883523116729 0.008100212832731416
 0.0006957487761359197 0.00809918071651145 -0.0005979511636436817 -0.0050661205666009896 0.0031461701556353247 0.015774758738897547 0.9962578606836348 -0.03814587502337462
 -0.0005987880228815909 -0.005066109775868704 0.0006864883523116729 0.008100212832731416 0.9962578606836348 -0.03814587502337462 0.003147390654150568 0.015774636204157342
0.08128386827845 0.003371891500335157 0.017181985608052935 0.9959592000112015 -0.041399889508505566 0.0007872347754434749 0.008778857682643065 -0.0006757753898554996 -0.005494798962481853
 0.9959592000112015 -0.041399889508505566 0.003374360726136402 0.017181781595245842 -0.0006747961999408972 -0.005494818634365541 0.0007763604302481193 0.008780085921987528
 0.0007872347754434749 0.008778857682643065 -0.0006747961999408972 -0.005494818634365541 0.0033724394947820487 0.01718303353026378 0.9959592302287391 -0.04139880459168322
 -0.0006757753898554996 -0.005494798962481853 0.0007763604302481193 0.008780085921987528 0.9959592302287391 -0.04139880459168322 0.0033738711945381526 0.01718289312639494
0.08753647353064001 0.003608761284763115 0.018603390274442442 0.9956464293036281 -0.04466458239806078 0.0008847368415583634 0.009459024509749305 -0.0007577994640095125 -0.005924160160855492
 0.9956464293036281 -0.04466458239806078 0.003611624045522625 0.018603157679734517 -0.0007566671567562476 -0.005924190391894205 0.0008721175905265668 0.009460471880905666
 0.0008847368415583634 0.009459024509749305 -0.0007566671567562476 -0.005924190391894205 0.0036093963453676372 0.018604515665059166 0.9956464640696845 -0.044663413969377695
 -0.0007577994640095125 -0.005924160160855492 0.0008721175905265668 0.009460471880905666 0.9956464640696845 -0.044663413969377695 0.003611056040436082 0.0186043561475367
0.09378907878283 0.0038565040469625876 0.020037843976822508 0.9953193357941236 -0.04794089405666364 0.0009883117102240096 0.010139616079925045 -0.0008449181060315692 -0.006354125118856406
 0.9953193357941236 -0.04794089405666364 0.0038597893699902773 0.02003758049557505 -0.0008436219709859539 -0.006354167683680887 0.0009738162765694925 0.010141306949447242
 0.0009883117102240096 0.010139616079925045 -0.0008436219709859539 -0.006354167683680887 0.003857232569961416 0.020039046146324145 0.9953193754336398 -0.04793964207600866
 -0.0008449181060315692 -0.006354125118856406 0.0009738162765694925 0.010141306949447242 0.9953193754336398 -0.04793964207600866 0.0038591370545747925 0.020038866258113925
0.100041684035 0.004115311257962552 0.021485191548248902 0.9949777326295869 -0.051228753998994805 0.0010980153923388115 0.010820565298024807 -0.0009371883869713658 -0.006784624564520312
 0.9949777326295869 -0.051228753998994805 0.004119048170996545 0.021484894780261214 -0.0009357177895448932 -0.006784681334401242 0.0010815122172628086 0.010822525405745739
 0.0010980153923388115 0.010820565298024807 -0.0009357177895448932 -0.006784681334401242 0.004116139635001056 0.021486469763785522 0.9949777774698438 -0.05122741841229437
 -0.0009371883869713658 -0.006784624564520312 0.0010815122172628086 0.010822525405745739 0.9949777774698438 -0.05122741841229437 0.0041183057066134 0.021486268235585634
0.1059090909091 0.004368407566532704 0.02285496455372127 0.994643811478118 -0.054324494895371576 0.0012065839719131836 0.0114598277694311 -0.0010285097363261872 -0.0071890260635153495
 0.994643811478118 -0.054324494895371576 0.004372594652215937 0.022854634280649225 -0.001026865819910513 -0.007189097951297116 0.0011880768521385678 0.01146206517548522
 0.0012065839719131836 0.0114598277694311 -0.001026865819910513 -0.007189097951297116 0.004369335455018858 0.0228563134140833 0.9946438614983888 -0.05432308080222242
 -0.0010285097363261872 -0.0071890260635153495 0.0011880768521385678 0.01146206517548522 0.9946438614983888 -0.05432308080222242 0.0043717622807140435 0.022856090413904944
0.1062942892872 0.0043853739734690846 0.02294528033439761 0.9946214329626006 -0.05452808355389483 0.0012139031323901686 0.011501803182565794 -0.0010346665573874442 -0.007215588114489799
 0.9946214329626006 -0.05452808355389483 0.004389591507591692 0.022944947782858167 -0.001033010938748897 -0.0072156610573109485 0.0011952603866504032 0.011504059656902297
 0.0012139031323901686 0.011501803182565794 -0.001033010938748897 -0.0072156610573109485 0.004386308591520464 0.022946633806560982 0.9946214833331303 -0.05452666430562454
 -0.0010346665573874442 -0.007215588114489799 0.0011952603866504032 0.011504059656902297 0.9946214833331303 -0.05452666430562454 0.004388753053640755 0.02294640935703506
0.11254689453939999 0.004666882806455407 0.024417959214866895 0.9942502500290752 -0.05783879680283473 0.001336029367762817 0.012183258936618027 -0.0011374080151721883 -0.0076469442041095514
 0.9942502500290752 -0.05783879680283473 0.004671609998582247 0.024417588285326138 -0.0011355568921959504 -0.007647035384347271 0.0013151149639278297 0.01218584030979823
 0.001336029367762817 0.012183258936618027 -0.0011355568921959504 -0.007647035384347271 0.004667930047570409 0.024419387102640733 0.9942503062621126 -0.05783729383045213
 -0.0011374080151721883 -0.0076469442041095514 0.0013151149639278297 0.01218584030979823 0.9942503062621126 -0.05783729383045213 0.004670669712644866 0.024419138438466832
0.11879949979160001 0.004960027894471066 0.025903077843049738 0.9938639972228148 -0.06116080130177848 0.0014644476881157695 0.012864860001231122 -0.0012454672722985922 -0.008078620036677525
 0.9938639972228148 -0.06116080130177848 0.004965293789931489 0.025902665842233507 -0.0012434102375910585 -0.008078731615371905 0.0014411292938918486 0.012867796224376275
 0.0014644476881157695 0.012864860001231122 -0.0012434102375910585 -0.008078731615371905 0.004961194134926934 0.02590457925117751 0.9938640596530834 -0.06115921453764383
 -0.0012454672722985922 -0.008078620036677525 0.0014411292938918486 0.012867796224376275 0.9938640596530834 -0.06115921453764383 0.004964245827557121 0.02590430506709712
0.1250521050438 0.0052649988617986644 0.027400486044997844 0.9934624881660076 -0.06449399864569598 0.001599210795323625 0.01354653210240684 -0.0013588979203648013 -0.008510541540958717
 0.9934624881660076 -0.06449399864569598 0.005270832517118353 0.02740003017959001 -0.0013566246424495736 -0.008510675775657882 0.0015733558476082195 0.013549854560475895
 0.001599210795323625 0.01354653210240684 -0.0013566246424495736 -0.008510675775657882 0.005266290472269256 0.027402060025355144 0.9934625571313284 -0.06449232801505544
 -0.0013588979203648013 -0.008510541540958717 0.0015733558476082195 0.013549854560475895 0.9934625571313284 -0.06449232801505544 0.005269671032040327 0.027401759004099666
0.131304710296 0.005581984778620378 0.028910033333460917 0.9930455367786575 -0.06783828491995962 0.001740370463450458 0.01422819928670933 -0.0014777525955681464 -0.008942633341788585
 0.9930455367786575 -0.06783828491995962 0.00558841526390313 0.028909530708771235 -0.0014752528190701167 -0.008942792586490117 0.0017118461829101499 0.014231940813288551
 0.001740370463450458 0.01422819928670933 -0.0014752528190701167 -0.008942792586490117 0.005583408123418071 0.028911678881450492 0.9930456126199558 -0.06783653034385957
 -0.0014777525955681464 -0.008942633341788585 0.0017118461829101499 0.014231940813288551 0.9930456126199558 -0.06783653034385957 0.005587134407994283 0.02891134969368583
0.1375573155481 0.005831037244370415 0.030232660786224143 0.9926931132923582 -0.07099459329044885 0.0018681309490712332 0.01488867273112406 -0.0015822726442348584 -0.009353694586628363
 0.9926931132923582 -0.07099459329044885 0.0058380949015855626 0.030232118707274044 -0.0015795313742919842 -0.00935387854046445 0.001836868872780177 0.014892822587641654
 0.0018681309490712332 0.01488867273112406 -0.0015795313742919842 -0.00935387854046445 0.00583259833931914 0.030234376711874074 0.9926931963193927 -0.07099275474021702
 -0.0015822726442348584 -0.009353694586628363 0.001836868872780177 0.014892822587641654 0.9926931963193927 -0.07099275474021702 0.005836689230946618 0.030234028689268586
0.1438099208003 0.006088560727470963 0.03154946073346944 0.9923288008923317 -0.0741440892289767 0.002001060059490669 0.015547270020019299 -0.0016909971982637059 -0.009763056297061487
 0.9923288008923317 -0.0741440892289767 0.006096274832863986 0.031548877012256504 -0.0016880034342840208 -0.009763267222877896 0.0019669387602459414 0.015551857718332587
 0.002001060059490669 0.015547270020019299 -0.0016880034342840208 -0.009763267222877896 0.00609026586538327 0.031551245980859184 0.9923288914438664 -0.07414216663042524
 -0.0016909971982637059 -0.009763056297061487 0.0019669387602459414 0.015551857718332587 0.9923288914438664 -0.07414216663042524 0.006094738569878646 0.03155087859257925
0.1500625260525 0.006354478654537437 0.03286035796528205 0.9919526789389154 -0.07728673041127017 0.002139121344677905 0.016203949766759006 -0.0018038910644764751 -0.01017067859717274
 0.9919526789389154 -0.07728673041127017 0.006362878504761504 0.03285973030781388 -0.0018006338213290296 -0.010170918847566567 0.002102019940826008 0.016209005882065957
 0.002139121344677905 0.016203949766759006 -0.0018006338213290296 -0.010170918847566567 0.006356334118499342 0.032862211437127385 0.9919527773563163 -0.07728472368559236
 -0.0018038910644764751 -0.01017067859717274 0.002102019940826008 0.016209005882065957 0.9919527773563163 -0.07728472368559236 0.006361205874846212 0.03286182411408621
0.15631513130469998 0.0066287140686393554 0.03416527976588389 0.991564827019412 -0.08042247400196761 0.0022822780278960934 0.016858671122705563 -0.0019209187099586674 -0.010576522362396987
