! Created with skrf 1.8.0 (http://scikit-rf.org).
# GHz S RI R 50.0 
!freq ReS11 ImS11 ReS12 ImS12 ReS13 ImS13
! ReS14 ImS14
! ReS21 ImS21 ReS22 ImS22 ReS23 ImS23
! ReS24 ImS24
! ReS31 ImS31 ReS32 ImS32 ReS33 ImS33
! ReS34 ImS34
! ReS41 ImS41 ReS42 ImS42 ReS43 ImS43
! ReS44 ImS44
!
0.0 0.001934317293693 0.0 0.9980656827063 0.0 7.526540379179e-05 0.0 -7.526540290386e-05 9.217353475274806e-21
 0.9980656827063 0.0 0.001934317293657 0.0 -7.526540290362e-05 9.217353475245415e-21 7.526540379214e-05 0.0
 7.526540379179e-05 0.0 -7.526540290362e-05 9.217353475245415e-21 0.001934317272365 0.0 0.998065682685 0.0
 -7.526540290386e-05 9.217353475274806e-21 7.526540379214e-05 0.0 0.998065682685 0.0 0.001934317272344 0.0
0.005 0.0020825787476515148 0.0015809614545734556 0.9978778861164096 -0.004050457532560893 0.00010622054272331134 0.0008299699202249316 -0.00010310628871135232 -0.0005205614804042025
 0.9978778861164096 -0.004050457532560893 0.002082561208358233 0.0015809717741532025 -0.00010310822755419066 -0.000520563018107073 0.0001063211280249944 0.0008299315388199794
 0.00010622054272331134 0.0008299699202249316 -0.00010310822755419066 -0.000520563018107073 0.002082577887058593 0.0015810293100445108 0.9978778865077408 -0.004050390464885083
 -0.00010310628871135232 -0.0005205614804042025 0.0001063211280249944 0.0008299315388199794 0.9978778865077408 -0.004050390464885083 0.002082562852489666 0.0015810380583391264
0.006252605252188 0.0021218880834115604 0.0019823624635025576 0.9978277205114395 -0.005063994126374053 0.00011527414548597306 0.0010378380245826655 -0.00011116004314769402 -0.0006513491752506602
 0.9978277205114395 -0.005063994126374053 0.002121860665695426 0.0019823755621504943 -0.000111163059726485 -0.0006513510713040058 0.00011543129749335623 0.0010377881326275912
 0.00011527414548597306 0.0010378380245826655 -0.000111163059726485 -0.0006513510713040058 0.0021218866665719456 0.00198244726852045 0.9978277210519828 -0.005063910314791968
 -0.00011116004314769402 -0.0006513491752506602 0.00011543129749335623 0.0010377881326275912 0.9978277210519828 -0.005063910314791968 0.0021218631650381965 0.00198245838896909
0.01250521050438 0.002331292428134227 0.004005617200891176 0.9975584506263183 -0.010128268921125885 0.00016830365169186886 0.002075838632276159 -0.0001578921251037246 -0.0013055717590599529
 0.9975584506263183 -0.010128268921125885 0.0023311829370534346 0.00400564543339325 -0.00015790400750952842 -0.0013055752605197176 0.00016893027270455587 0.002075717858744776
 0.00016830365169186886 0.002075838632276159 -0.00015790400750952842 -0.0013055752605197176 0.0023312861838333345 0.004005786674370673 0.997558452204953 -0.010128101547431358
 -0.0001578921251037246 -0.0013055717590599529 0.00016893027270455587 0.002075717858744776 0.997558452204953 -0.010128101547431358 0.0023311923461030357 0.004005810778685557
0.01875781575657 0.0025630730023707077 0.0060569254369352895 0.997257478087389 -0.015205041874871676 0.00023449052935592898 0.00311462859053306 -0.00021562248436425663 -0.001961656656419951
 0.997257478087389 -0.015205041874871676 0.0025628269454833763 0.006056971055080615 -0.0002156489737673521 -0.0019616614058478605 0.00023589799996884942 0.003114411085528367
 0.00023449052935592898 0.00311462859053306 -0.0002156489737673521 -0.0019616614058478605 0.0025630585286025797 0.0060571796340738145 0.997257481204598 -0.015204791067584347
 -0.00021562248436425663 -0.001961656656419951 0.00023589799996884942 0.003114411085528367 0.997257481204598 -0.015204791067584347 0.0025628476757176212 0.00605721871339399
0.02501042100875 0.0028177508640397347 0.008133300453505401 0.99692439029145 -0.020296657895768355 0.00031397181987819937 0.0041541795588924514 -0.0002845045974091808 -0.0026192366673857903
 0.99692439029145 -0.020296657895768355 0.0028173138379566334 0.008133365906841442 -0.0002845513624250453 -0.002619242234874767 0.00031647149241754687 0.0041538347423256405
 0.00031397181987819937 0.0041541795588924514 -0.0002845513624250453 -0.002619242234874767 0.0028177247596699174 0.008133639524763253 0.9969243954471652 -0.020296323757524933
 -0.0002845045974091808 -0.0026192366673857903 0.00031647149241754687 0.0041538347423256405 0.9969243954471652 -0.020296323757524933 0.002817350303854702 0.008133695681416956
0.03126302626094 0.0030958250266130485 0.010233146745375144 0.9965587571736141 -0.02540405016562347 0.00040688350277492616 0.005194365578264243 -0.00036468603238237534 -0.0032780311793478376
 0.9965587571736141 -0.02540405016562347 0.0030951426842199727 0.010233234678490334 -0.0003647586809535502 -0.003278037061920657 0.0004107869623386149 0.005193858111475254
 0.00040688350277492616 0.005194365578264243 -0.0003647586809535502 -0.003278037061920657 0.003095783886938868 0.01023357092818553 0.996558764862833 -0.02540363278138411
 -0.00036468603238237534 -0.0032780311793478376 0.0004107869623386149 0.005193858111475254 0.996558764862833 -0.02540363278138411 0.0030951993008256624 0.010233646372733607
0.037515631513130004 0.0033977822477348303 0.01235537975396115 0.9961601415408363 -0.030527620369960696 0.0005133591794803701 0.006235021029335769 -0.0004563094731762399 -0.0039377882988004724
 0.9961601415408363 -0.030527620369960696 0.003396800274801681 0.012355493006083351 -0.00045641355846704287 -0.003937793920328662 0.0005189783441310951 0.006234310770132128
 0.0005133591794803701 0.006235021029335769 -0.00045641355846704287 -0.003937793920328662 0.0033977226657487874 0.012355889342698047 0.9961601522547098 -0.030527119837334755
 -0.0004563094731762399 -0.0039377882988004724 0.0005189783441310951 0.006234310770132128 0.9961601522547098 -0.030527119837334755 0.0033968814600959622 0.01235598639237144
0.043768236765320004 0.00372410076940695 0.014499157974061434 0.9957281033564152 -0.03566750654353486 0.0006335294132159352 0.007275958269477575 -0.0005595130380672111 -0.004598267300263455
 0.9957281033564152 -0.03566750654353486 0.0037227648656934505 0.014499299579768818 -0.0005596540619004307 -0.004598272011530093 0.000641176565455284 0.007275000222285403
 0.0006335294132159352 0.007275958269477575 -0.0005596540619004307 -0.004598272011530093 0.0037240193378607254 0.01449975333724246 0.9957281175837754 -0.035666922956081835
 -0.0005595130380672111 -0.004598267300263455 0.000641176565455284 0.007275000222285403 0.9957281175837754 -0.035666922956081835 0.003722875042930833 0.01449987441535438
0.050020842017509996 0.004075252013267579 0.016663772279737758 0.9952622019827936 -0.040823693699163416 0.0007675212958464576 0.008316974965090693 -0.0006744303526595929 -0.0052592313858829745
 0.9952622019827936 -0.040823693699163416 0.004073507875275138 0.016663945470431974 -0.0006746137676833886 -0.005259234464655642 0.0007775090770501622 0.008315719229511073
 0.0007675212958464576 0.008316974965090693 -0.0006746137676833886 -0.005259234464655642 0.004075145324349346 0.016664453847621833 0.9952622202088733 -0.04082302715908271
 -0.0006744303526595929 -0.0052592313858829745 0.0007775090770501622 0.008315719229511073 0.9952622202088733 -0.04082302715908271 0.00407365147209294 0.016664601483925002
0.055454545454549996 0.004400941905106456 0.0185613176751689 0.9948294768619228 -0.04531772851515806 0.0008952850264374615 0.009221549026078201 -0.0007839103531487667 -0.005833839603341128
 0.9948294768619228 -0.04531772851515806 0.004398798884077037 0.018561521092871517 -0.0007841349984923035 -0.005833840620270157 0.0009075610461033038 0.009219990216615745
 0.0008952850264374615 0.009221549026078201 -0.0007841349984923035 -0.005833840620270157 0.004400810499998312 0.018562074559359407 0.994829498954419 -0.04531698997231986
 -0.0007839103531487667 -0.005833839603341128 0.0009075610461033038 0.009219990216615745 0.994829498954419 -0.04531698997231986 0.004398975123298703 0.018562247413201893
0.056273447269699996 0.004451701399081881 0.01884859160538818 0.9947619975544721 -0.0459960681095563 0.0009154581195522801 0.009357857692054035 -0.000801190508298006 -0.0059204441867974494
 0.9947619975544721 -0.0459960681095563 0.004449494704781539 0.01884879981138012 -0.0008014217193871275 -0.005920444837949579 0.0009280995019842759 0.009356249410927175
 0.0009154581195522801 0.009357857692054035 -0.0008014217193871275 -0.005920444837949579 0.004451566046086633 0.018849359874707202 0.994762020261259 -0.04599531872338016
 -0.000801190508298006 -0.0059204441867974494 0.0009280995019842759 0.009356249410927175 0.994762020261259 -0.04599531872338016 0.004449676154056872 0.01884953670612476
0.06252605252188 0.004853908737035628 0.021053033103793327 0.9942270519294302 -0.05118444712359298 0.0010774590970518655 0.010398383957304467 -0.0009399179663772426 -0.00658166785481693
 0.9942270519294302 -0.05118444712359298 0.004851185130240926 0.021053279957114906 -0.0009402023314496535 -0.006581665210445397 0.001093067340651908 0.01039636326509838
 0.0010774590970518655 0.010398383957304467 -0.0009402023314496535 -0.006581665210445397 0.004853741314646321 0.021053888636671677 0.9942270795949218 -0.051183615003626746
 -0.0009399179663772426 -0.00658166785481693 0.001093067340651908 0.01039636326509838 0.9942270795949218 -0.051183615003626746 0.004851408870107254 0.02105409740880096
0.06877865777407 0.005282328382859912 0.023276544374792933 0.9936569294105266 -0.056388596925323324 0.0012536391118775237 0.011438323425808678 -0.00109073242887748 -0.007242661961251119
 0.9936569294105266 -0.056388596925323324 0.005279033458291233 0.023276833712732613 -0.001091075259402587 -0.007242655080811162 0.0012725277100627303 0.01143582539770113
 0.0012536391118775237 0.011438323425808678 -0.001091075259402587 -0.007242655080811162 0.005282125488921346 0.023277487791453107 0.9936569625095878 -0.056387682197263235
 -0.00109073242887748 -0.007242661961251119 0.0012725277100627303 0.01143582539770113 0.9936569625095878 -0.056387682197263235 0.005279303933205058 0.023277731360795372
0.07503126302626001 0.005737409251364109 0.02551859220381543 0.993051197331053 -0.061608243797576394 0.0014441084852360386 0.012477438725308843 -0.0012537486898575088 -0.007903182831236854
 0.993051197331053 -0.061608243797576394 0.005733488540618445 0.025518928072896966 -0.0012541552512520962 -0.00790317070166686 0.0014665911024113278 0.012474393327139522
 0.0014441084852360386 0.012477438725308843 -0.0012541552512520962 -0.00790317070166686 0.005737167486842213 0.025519624197351275 0.9930512363338205 -0.06160724658616282
 -0.0012537486898575088 -0.007903182831236854 0.0014665911024113278 0.012474393327139522 0.9930512363338205 -0.06160724658616282 0.0057338101994314885 0.025519905534047118
0.08128386827845 0.006219594742194788 0.027778655105729227 0.9924094265573864 -0.06684308159587685 0.0016489727541287647 0.01351548601155501 -0.0014290764743698553 -0.008562983131260476
 0.9924094265573864 -0.06684308159587685 0.006214993698636211 0.027779041766568372 -0.0014295519859822265 -0.008562964667146563 0.0016753631567936452 0.013511818050905601
 0.0016489727541287647 0.01351548601155501 -0.0014295519859822265 -0.008562964667146563 0.0062193107124997905 0.027779776431515402 0.992409471929352 -0.06684200203574185
 -0.0014290764743698553 -0.008562983131260476 0.0016753631567936452 0.013511818050905601 0.992409471929352 -0.06684200203574185 0.006215370995901655 0.02778009862284081
0.08753647353064001 0.006729322605450184 0.030056218178636847 0.991731191936649 -0.07209277692855137 0.0018683324570056658 0.014552215392235947 -0.0016168202692197736 -0.009221811612082196
 0.991731191936649 -0.07209277692855137 0.006723986590294954 0.030056660111349737 -0.0016173699043728063 -0.009221785655790191 0.0018989444391857252 0.014547844470853949
 0.0018683324570056658 0.014552215392235947 -0.0016173699043728063 -0.009221785655790191 0.006728992921770479 0.030057429653333616 0.9917312441386433 -0.07209161516549245
 -0.0016168202692197736 -0.009221811612082196 0.0018989444391857252 0.014547844470853949 0.9917312441386433 -0.07209161516549245 0.006724423985716285 0.03005779590789731
0.09378907878283 0.007267024767312227 0.03235076944187873 0.9910160727090549 -0.07735697286953404 0.0021022829249635216 0.01558737125290193 -0.001817079148314131 -0.009879412964131015
 0.9910160727090549 -0.07735697286953404 0.007260899035291394 0.032351271352198965 -0.0018177080341561151 -0.009879378285977842 0.0021374302289746206 0.015582211720503156
 0.0021022829249635216 0.01558737125290193 -0.0018177080341561151 -0.009879378285977842 0.007266646048008174 0.03235207195266032 0.99101613219709 -0.07735572905149314
 -0.001817079148314131 -0.009879412964131015 0.0021374302289746206 0.015582211720503156 0.99101613219709 -0.07735572905149314 0.007261400993996043 0.03235248560523024
0.100041684035 0.007833127126770154 0.03466179718870899 0.990263652894813 -0.08263529167381303 0.0023509140773066797 0.016620692533801 -0.002029946594324381 -0.01053552773673044
 0.990263652894813 -0.08263529167381303 0.007826156811790674 0.034662364014857935 -0.002030659811595119 -0.010535483035162456 0.0023909103106423257 0.016614653443376124
 0.0023509140773066797 0.016620692533801 -0.002030659811595119 -0.010535483035162456 0.00783269599782743 0.03466319168579654 0.9902637201194657 -0.08263396595862106
 -0.002029946594324381 -0.01053552773673044 0.0023909103106423257 0.016614653443376124 0.9902637201194657 -0.08263396595862106 0.00782672780366326 0.034663656202925816
0.1059090909091 0.008390557718747041 0.03684497947685279 0.9895232961961324 -0.08760092566948074 0.00259765513846513 0.017588449304023392 -0.002241245678473338 -0.011149635061316939
 0.9895232961961324 -0.08760092566948074 0.008382744832174842 0.03684561192458566 -0.0022420426110649322 -0.01114957970618668 0.002642486603979295 0.017581497370279905
 0.00259765513846513 0.017588449304023392 -0.0022420426110649322 -0.01114957970618668 0.008390074348323031 0.036846461215022934 0.9895233710854603 -0.08759952325370379
 -0.002241245678473338 -0.011149635061316939 0.002642486603979295 0.017581497370279905 0.9895233710854603 -0.08759952325370379 0.00838338467400192 0.03684697673887997
0.1062942892872 0.00842804932970542 0.036988788002821245 0.9894735216622084 -0.08792733684692121 0.0026143102202807913 0.017651912964032748 -0.002255510318632728 -0.011189892314852665
 0.9894735216622084 -0.08792733684692121 0.008420179430754298 0.03698942492305512 -0.002256312901289737 -0.01118983621658692 0.0026594687688625655 0.017644898028837123
 0.0026143102202807913 0.017651912964032748 -0.002256312901289737 -0.01118983621658692 0.008427562426215689 0.036990275501330716 0.9894735970684221 -0.08792592940065047
 -0.002255510318632728 -0.011189892314852665 0.0026594687688625655 0.017644898028837123 0.9894735970684221 -0.08792592940065047 0.008420823930616654 0.036990794487681965
0.11254689453939999 0.009052204528454132 0.03933122527244104 0.9886452736836567 -0.0932326947351232 0.0028925498494907025 0.018680761277289917 -0.0024938520797470817 -0.011842238929415296
 0.9886452736836567 -0.0932326947351232 0.009043379895364162 0.03933193771338642 -0.0024947490147314674 -0.0118421699896944 0.002943183787461959 0.01867266882956448
 0.0028925498494907025 0.018680761277289917 -0.0024947490147314674 -0.0118421699896944 0.009051658495774412 0.03933280685535497 0.9886453577102985 -0.09323120572917466
 -0.0024938520797470817 -0.011842238929415296 0.002943183787461959 0.01867266882956448 0.9886453577102985 -0.09323120572917466 0.009044102382374892 0.039333384060843565
0.11879949979160001 0.009705999128051262 0.04168858805521804 0.987778509480331 -0.09855093578330407 0.0031857054551914115 0.019706961406079925 -0.002745047501297769 -0.012492295704438097
 0.987778509480331 -0.09855093578330407 0.009696164447589172 0.04168938170092827 -0.0027460437280756337 -0.012492212407172071 0.0032421274520856042 0.019697684357575594
 0.0031857054551914115 0.019706961406079925 -0.0027460437280756337 -0.012492212407172071 0.009705390623128267 0.04169026487026152 0.987778602560203 -0.09854936539774156
 -0.002745047501297769 -0.012492295704438097 0.0032421274520856042 0.019697684357575594 0.987778602560203 -0.09854936539774156 0.009696969405327393 0.04169090419787725
0.1250521050438 0.010389832523973597 0.04406035020077104 0.9868728357599523 -0.10388161555423671 0.0034938433302042146 0.02073023267341552 -0.0030091658912219377 -0.013139786722044673
 0.9868728357599523 -0.10388161555423671 0.0103789323055848 0.04406123100258745 -0.0030102663012357743 -0.013139687480059645 0.0035563655550620485 0.020719658477834288
 0.0034938433302042146 0.02073023267341552 -0.0030102663012357743 -0.013139687480059645 0.010389158216328184 0.04406212346432382 0.9868729383193621 -0.10387996397390273
 -0.0030091658912219377 -0.013139786722044673 0.0035563655550620485 0.020719658477834288 0.9868729383193621 -0.10387996397390273 0.01037982422157373 0.04406282897887382
0.131304710296 0.011104096832663037 0.04644597968235545 0.9859278657487889 -0.10922427555797073 0.003817023381319785 0.02175028997625841 -0.003286270060974538 -0.013784432111178037
 0.9859278657487889 -0.10922427555797073 0.011092075394816178 0.04644695386951626 -0.0032874794973410497 -0.013784315266415771 0.0038859574042575304 0.0217383005937681
 0.003817023381319785 0.02175028997625841 -0.0032874794973410497 -0.013784315266415771 0.011103353405794493 0.04644785067687484 0.9859279782070063 -0.10922254297507117
 -0.003286270060974538 -0.013784432111178037 0.0038859574042575304 0.0217383005937681 0.9859279782070063 -0.10922254297507117 0.011093058760014061 0.04644862661447724
0.1375573155481 0.011699870894645801 0.048535264620860386 0.985092616596143 -0.1142685303099407 0.0041182920974684135 0.022737772249286605 -0.00353933919945774 -0.014396970790920074
 0.985092616596143 -0.1142685303099407 0.011686669973992855 0.048536320699643934 -0.003540665070618426 -0.0143968359406953 0.004193794531019806 0.022724369762101976
 0.0041182920974684135 0.022737772249286605 -0.003540665070618426 -0.0143968359406953 0.01169905597056915 0.048537234301563696 0.9850927393827874 -0.11426671692984165
 -0.00353933919945774 -0.014396970790920074 0.004193794531019806 0.022724369762101976 0.9850927393827874 -0.11426671692984165 0.011687748335496998 0.04853806789394585
0.1438099208003 0.012316983503786828 0.0506107437854282 0.9842271927253693 -0.11929715312521613 0.004431595718322069 0.02371956710838122 -0.0038023809229282327 -0.015004220828372371
 0.9842271927253693 -0.11929715312521613 0.012302546834833394 0.0506118871278573 -0.003803828463207501 -0.01500406630860153 0.00451394941145717 0.023704642077641166
 0.004431595718322069 0.02371956710838122 -0.003803828463207501 -0.01500406630860153 0.012316093956347543 0.05061281345772894 0.9842273262501928 -0.1192952591549962
 -0.0038023809229282327 -0.015004220828372371 0.00451394941145717 0.023704642077641166 0.9842273262501928 -0.1192952591549962 0.012303724523369895 0.050613708105036265
0.1500625260525 0.012955170721694635 0.05267216090454936 0.9833318637355651 -0.12430993442316567 0.004756794896246571 0.02469552119838909 -0.004075258157181348 -0.015606037116819575
 0.9833318637355651 -0.12430993442316567 0.012939441861132366 0.05267339721324888 -0.004076832584862391 -0.015605861195900083 0.004846280361471734 0.024678960204159592
 0.004756794896246571 0.02469552119838909 -0.004076832584862391 -0.015605861195900083 0.012954203449530431 0.05267433192560935 0.9833320084018055 -0.1243079600773945
 -0.004075258157181348 -0.015606037116819575 0.004846280361471734 0.024678960204159592 0.9833320084018055 -0.1243079600773945 0.012940723201417108 0.0526752912807732
0.15631513130469998 0.013614166177339215 0.05471926742963148 0.9824069012159876 -0.12930666741581434 0.005093748329365257 0.025665484557118957 -0.004357831854872517 -0.01620227828079626
 0.9824069012159876 -0.12930666741581434 0.01359708849992628 0.054720602747453245 -0.004359538371993768 -0.01620207915978026 0.00519064369827145 0.025647170251494343
