! Created with skrf 1.8.0 (http://scikit-rf.org).
# GHz S RI R 50.0 
!freq ReS11 ImS11 ReS12 ImS12 ReS13 ImS13
! ReS14 ImS14
! ReS21 ImS21 ReS22 ImS22 ReS23 ImS23
! ReS24 ImS24
! ReS31 ImS31 ReS32 ImS32 ReS33 ImS33
! ReS34 ImS34
! ReS41 ImS41 ReS42 ImS42 ReS43 ImS43
! ReS44 ImS44
!
0.0 0.001579071364565 0.0 0.9984209285928 0.0 6.095109293439e-05 0.0 -6.095109284495e-05 7.464356075710117e-21
 0.9984209285928 0.0 0.001579071364576 0.0 -6.095109284547e-05 7.464356075773797e-21 6.095109293372e-05 0.0
 6.095109293439e-05 0.0 -6.095109284547e-05 7.464356075773797e-21 0.001579071385895 0.0 0.9984209286141 0.0
 -6.095109284495e-05 7.464356075710117e-21 6.095109293372e-05 0.0 0.9984209286141 0.0 0.00157907138588 0.0
0.005 0.0016990511499512418 0.001291999364284408 0.9982691259899842 -0.0033076345842310583 8.539661196014753e-05 0.0006696834945426541 -8.294779628472687e-05 -0.0004206583247069475
 0.9982691259899842 -0.0033076345842310583 0.0016990584950004302 0.0012919950014845627 -8.294812928838197e-05 -0.0004206585084798326 8.535688001219945e-05 0.0006696986955074017
 8.539661196014753e-05 0.0006696834945426541 -8.294812928838197e-05 -0.0004206585084798326 0.0016990517087644326 0.0012920662484032452 0.9982691263572592 -0.0033075675296837374
 -8.294779628472687e-05 -0.0004206583247069475 8.535688001219945e-05 0.0006696986955074017 0.9982691263572592 -0.0033075675296837374 0.0016990586635097446 0.001292062219780266
0.006252605252188 0.001730548560054847 0.0016200758953463042 0.9982290189164865 -0.004135347032768721 9.239309619169516e-05 0.0008374279265314009 -8.91702215336276e-05 -0.0005263644185611708
 0.9982290189164865 -0.004135347032768721 0.001730560042099135 0.0016200703318413915 -8.91707402748596e-05 -0.0005263646435865945 9.233101963508461e-05 0.0008374476558216068
 9.239309619169516e-05 0.0008374279265314009 -8.91707402748596e-05 -0.0005263646435865945 0.0017305493439080462 0.001620159492273323 0.9982290194005236 -0.004135263212875839
 -8.91702215336276e-05 -0.0005263644185611708 9.233101963508461e-05 0.0008374476558216068 0.9982290194005236 -0.004135263212875839 0.0017305602150344392 0.0016201543598587816
0.01250521050438 0.0018965343056989892 0.0032740310807476917 0.9980162478606004 -0.008271460144615975 0.00013258256148545165 0.0016752082921583816 -0.00012453943615288137 -0.001055258142953497
 0.9980162478606004 -0.008271460144615975 0.0018965801615602803 0.0032740188353351882 -0.00012454148744613517 -0.0010552585406557202 0.00013233504003153253 0.0016752556256397642
 0.00013258256148545165 0.0016752082921583816 -0.00012454148744613517 -0.0010552585406557202 0.001896536909010298 0.0032741979236679624 0.9980162492617902 -0.008271292731491185
 -0.00012453943615288137 -0.001055258142953497 0.00013233504003153253 0.0016752556256397642 0.9980162492617902 -0.008271292731491185 0.0018965803092240157 0.003274186680932279
0.01875781575657 0.002077398107372216 0.004951463266232208 0.9977823459266331 -0.012418397501599418 0.0001816139178536159 0.0025138943736127935 -0.0001671690151646634 -0.0015859176146197872
 0.9977823459266331 -0.012418397501599418 0.0020775011634190004 0.004951443124868475 -0.00016717359930273809 -0.0015859181197179861 0.00018105794840546843 0.002513978768950685
 0.0001816139178536159 0.0025138943736127935 -0.00016717359930273809 -0.0015859181197179861 0.0020774035440296493 0.004951713086427668 0.9977823486540023 -0.012418146575063432
 -0.0001671690151646634 -0.0015859176146197872 0.00018105794840546843 0.002513978768950685 0.9977823486540023 -0.012418146575063432 0.0020775010502013095 0.0049516946806664195
0.02501042100875 0.0022734981191140976 0.006650016673660251 0.9975270327272993 -0.016578159360292433 0.0002395828743441052 0.0033535148021883016 -0.00021716555708403928 -0.002118097766244765
 0.9975270327272993 -0.016578159360292433 0.0022736811641789717 0.006649987333198866 -0.00021717366558128456 -0.0021180982997255527 0.00023859544568735296 0.003353647242562914
 0.0002395828743441052 0.0033535148021883016 -0.00021717366558128456 -0.0021180982997255527 0.0022735074170772878 0.006650349207092413 0.997527037202367 -0.016577824930609157
 -0.00021716555708403928 -0.002118097766244765 0.00023859544568735296 0.003353647242562914 0.997527037202367 -0.016577824930609157 0.002273680552094302 0.00665032251748183
0.03126302626094 0.002485177702534859 0.008368474152301313 0.9972500138283248 -0.020751595925453472 0.00030658551227669443 0.004194021135338867 -0.0002746325871322288 -0.0026516244408451967
 0.9972500138283248 -0.020751595925453472 0.0024854634986817867 0.008368434221254576 -0.0002746452041416993 -0.0026516249097910264 0.000305043490911101 0.004194214137122949
 0.00030658551227669443 0.004194021135338867 -0.0002746452041416993 -0.0026516249097910264 0.002485191889202713 0.008368889096201187 0.9972500204725211 -0.02075117797632008
 -0.0002746325871322288 -0.0026516244408451967 0.000305043490911101 0.004194214137122949 0.9972500204725211 -0.02075117797632008 0.002485462133602107 0.008368852934898979
0.037515631513130004 0.0027127727205349924 0.010106038404710279 0.9969509882890281 -0.024939126061921155 0.00038271734607856547 0.005035334355938351 -0.0003396712939583526 -0.0031863478975252845
 0.9969509882890281 -0.024939126061921155 0.0027131840107168085 0.010105986403383279 -0.000339689396961688 -0.0031863481950169235 0.0003804974263755231 0.005035601983056541
 0.00038271734607856547 0.005035334355938351 -0.000339689396961688 -0.0031863481950169235 0.0027127928254347803 0.01010653541593017 0.9969509975276458 -0.024938624551691428
 -0.0003396712939583526 -0.0031863478975252845 0.0003804974263755231 0.005035601983056541 0.9969509975276458 -0.024938624551691428 0.0027131816254115596 0.010106488528612402
0.043768236765320004 0.002956614357665249 0.011862113284013391 0.9966296517300623 -0.029140955925484137 0.00046807287815294954 0.005877359019296349 -0.00041238078923957555 -0.003722128670037629
 0.9966296517300623 -0.029140955925484137 0.002957173871349342 0.011862047644370908 -0.000412405349467829 -0.0037221286750795234 0.0004650515596153177 0.005877716899672201
 0.00046807287815294954 0.005877359019296349 -0.000412405349467829 -0.0037221286750795234 0.002956641411525656 0.01186269197599975 0.9966296639928004 -0.029140370789686707
 -0.00041238078923957555 -0.003722128670037629 0.0004650515596153177 0.005877716899672201 0.9966296639928004 -0.029140370789686707 0.0029571701843930896 0.011862633042194938
0.050020842017509996 0.003217030423452629 0.013636213392437186 0.9962856978888597 -0.03335716929063424 0.0005627453278232252 0.006719989094574768 -0.0004928581974751014 -0.0042588317333959545
 0.9962856978888597 -0.03335716929063424 0.003217760881096771 0.013636132457800114 -0.0004928901800203253 -0.0042588313108428 0.0005587989070807252 0.0067204544373676385
 0.0005627453278232252 0.006719989094574768 -0.0004928901800203253 -0.0042588313108428 0.003217065456205248 0.013636873332797495 0.996285713609804 -0.03335650044407676
 -0.0004928581974751014 -0.0042588317333959545 0.0005587989070807252 0.0067204544373676385 0.996285713609804 -0.03335650044407676 0.003217755595953293 0.013636800965938669
0.055454545454549996 0.003457052891654635 0.015192272232509822 0.9959681849879573 -0.03703287350748814 0.0006526563229038893 0.00745266365215192 -0.0005691779481650083 -0.004725888324108064
 0.9959681849879573 -0.03703287350748814 0.0034579503527811884 0.015192176591488362 -0.0005692171599815311 -0.004725887409184599 0.000647805340920989 0.007453237600287045
 0.0006526563229038893 0.00745266365215192 -0.0005692171599815311 -0.004725887409184599 0.003457095693533316 0.01519300239688879 0.9959682040706501 -0.037032131824651926
 -0.0005691779481650083 -0.004725888324108064 0.000647805340920989 0.007453237600287045 0.9959682040706501 -0.037032131824651926 0.0034579434258378127 0.015192917178816642
0.056273447269699996 0.00349434602026664 0.015427919717256197 0.995918819543093 -0.03758777184267018 0.0006668264371428157 0.0075631108360486735 -0.0005811986697814453 -0.00479632364410167
 0.995918819543093 -0.03758777184267018 0.003495270137650102 0.015427821741896813 -0.0005812390336828192 -0.004796322644613603 0.0006618310086545189 0.00756370244924417
 0.0006668264371428157 0.0075631108360486735 -0.0005812390336828192 -0.004796322644613603 0.0034943900604256888 0.01542866043060299 0.995918839161448 -0.03758701917613685
 -0.0005811986697814453 -0.00479632364410167 0.0006618310086545189 0.00756370244924417 0.995918839161448 -0.03758701917613685 0.0034952629421524167 0.015428573177933851
0.06252605252188 0.0037888838952973712 0.017236855240516893 0.9955287091232132 -0.04183271549914424 0.0007804063153376738 0.008406604359821513 -0.0006774953584964848 -0.005334470979116736
 0.9955287091232132 -0.04183271549914424 0.0037900243875541736 0.017236738388998696 -0.0006775450567497894 -0.005334469239079178 0.0007742377780615345 0.008407342667913861
 0.0007804063153376738 0.008406604359821513 -0.0006775450567497894 -0.005334469239079178 0.0037889379692409783 0.017237676202242713 0.9955287330843097 -0.041831878885291586
 -0.0006774953584964848 -0.005334470979116736 0.0007742377780615345 0.008407342667913861 0.9955287330843097 -0.041831878885291586 0.003790014953772401 0.017237572544666957
0.06877865777407 0.0041009646216386315 0.019062670397552366 0.9951150591569409 -0.0460919128866803 0.000903573303756329 0.009250344593829143 -0.0007818393704031513 -0.005873139406085203
 0.9951150591569409 -0.0460919128866803 0.004102344206903283 0.019062532744075166 -0.0007818993499181311 -0.005873136747573195 0.0008961073718083617 0.009251251655461288
 0.000903573303756329 0.009250344593829143 -0.0007818993499181311 -0.005873136747573195 0.0041010297527143275 0.019063571036148516 0.9951150879133114 -0.04609099217744247
 -0.0007818393704031513 -0.005873139406085203 0.0008961073718083617 0.009251251655461288 0.9951150879133114 -0.04609099217744247 0.0041023321906300215 0.019063449387854096
0.07503126302626001 0.004430906679871432 0.020905033858192593 0.9946775626200498 -0.05036524650029901 0.001036413853801427 0.010094201882759564 -0.0008943197055715911 -0.00641219310355988
 0.9946775626200498 -0.05036524650029901 0.004432548083300666 0.020904873385697544 -0.0008943909071097353 -0.006412189334271706 0.0010275260703702456 0.01009530140824196
 0.001036413853801427 0.010094201882759564 -0.0008943909071097353 -0.006412189334271706 0.004430983887284311 0.02090601355297725 0.9946775966316279 -0.0503642415288128
 -0.0008943197055715911 -0.00641219310355988 0.0010275260703702456 0.01009530140824196 0.9946775966316279 -0.0503642415288128 0.004432533123199995 0.02090587226100079
0.08128386827845 0.004779026472585909 0.022763626396142447 0.9942159132223849 -0.05465257477963971 0.0011790124125363062 0.010938042394815706 -0.001015023187450464 -0.006951494384470611
 0.9942159132223849 -0.05465257477963971 0.004780952429556036 0.022763440995343918 -0.001015106545484762 -0.0069514892976989305 0.0011685781660453554 0.010939359763469157
 0.0011790124125363062 0.010938042394815706 -0.001015106545484762 -0.0069514892976989305 0.0047791167701708576 0.02276468448003676 0.9942159529575381 -0.054651485357222286
 -0.001015023187450464 -0.006951494384470611 0.0011685781660453554 0.010939359763469157 0.9942159529575381 -0.054651485357222286 0.004780934146712122 0.022764521823579173
0.08753647353064001 0.005145638298936136 0.024638136649508324 0.9937298056592963 -0.05895373630001358 0.001331451313171084 0.01178172841250814 -0.0011440343866432343 -0.007490903440982943
 0.9937298056592963 -0.05895373630001358 0.0051478715587011245 0.02463792411778469 -0.0011441308292278979 -0.0074908968155588534 0.0013193458555493807 0.011783290689748545
 0.001331451313171084 0.01178172841250814 -0.0011441308292278979 -0.0074908968155588534 0.005145742693931206 0.02463927240174799 0.9937298515952205 -0.05895256222333933
 -0.0011440343866432343 -0.007490903440982943 0.0013193458555493807 0.011783290689748545 0.9937298515952205 -0.05895256222333933 0.005147849555915644 0.024639086591448107
0.09378907878283 0.005531054298040459 0.026528258095634437 0.9932189358345945 -0.0632685527552407 0.0014938106689494509 0.01262511854627051 -0.0012814355401906056 -0.008030278171901937
 0.9932189358345945 -0.0632685527552407 0.005533617627348444 0.026528016135720055 -0.0012815459888028933 -0.00803026977216626 0.001479909135592182 0.01262695450049105
 0.0014938106689494509 0.01262511854627051 -0.0012815459888028933 -0.00803026977216626 0.0055311737901110785 0.026529470748490585 0.9932189884582598 -0.0632672937993228
 -0.0012814355401906056 -0.008030278171901937 0.001479909135592182 0.01262695450049105 0.9932189884582598 -0.0632672937993228 0.0055335914887388715 0.026529259925488317
0.100041684035 0.005935584372377667 0.028433686832296377 0.9926830010677213 -0.06759683114041541 0.0016661682691779447 0.013468067899921866 -0.0014273064677308722 -0.00856947406405069
 0.9926830010677213 -0.06759683114041541 0.005938500559150355 0.028433413050896375 -0.0014274318371908885 -0.008569463639810898 0.0016503457001318734 0.01347020801897008
 0.0016661682691779447 0.013468067899921866 -0.0014274318371908885 -0.008569463639810898 0.005935719952918588 0.028434975569772352 0.9926830608769083 -0.06759548705989728
 -0.0014273064677308722 -0.00856947406405069 0.0016503457001318734 0.01347020801897008 0.9926830608769083 -0.06759548705989728 0.0059384698492736246 0.02843473780466486
0.1059090909091 0.006332850998533419 0.03023538155246319 0.9921570186311424 -0.07167052141024396 0.0018370680543770555 0.014258553543133304 -0.0015719629337040157 -0.009075158651574673
 0.9921570186311424 -0.07167052141024396 0.006336119051528757 0.030235075646378985 -0.0015721031306266784 -0.009075146087045814 0.0018193290823424418 0.014261008362914397
 0.0018370680543770555 0.014258553543133304 -0.0015721031306266784 -0.009075146087045814 0.006333002568978135 0.0302367408981004 0.9921570856456245 -0.07166909721201306
 -0.0015719629337040157 -0.009075158651574673 0.0018193290823424418 0.014261008362914397 0.9921570856456245 -0.07166909721201306 0.006336083638204674 0.030236476031962365
0.1062942892872 0.00635953609546064 0.030354119916462877 0.992121700288162 -0.07193836538376239 0.0018485994769951524 0.014310428201941615 -0.0015817244849768946 -0.009108344113523481
 0.992121700288162 -0.07193836538376239 0.006362827951901283 0.03035381182268704 -0.0015818656831660055 -0.009108331400038474 0.0018307308395912978 0.014312904709349953
 0.0018485994769951524 0.014310428201941615 -0.0015818656831660055 -0.009108331400038474 0.006359688745732221 0.030355483870776807 0.9921217677917181 -0.07193693591636652
 -0.0015817244849768946 -0.009108344113523481 0.0018307308395912978 0.014312904709349953 0.9921217677917181 -0.07193693591636652 0.006362792215349764 0.030355217162365583
0.11254689453939999 0.0068032146067375406 0.03228925409361916 0.9915347342208142 -0.07629293759490917 0.0020411771280610027 0.015152047916839611 -0.0017447643154548493 -0.009646738772829172
 0.9915347342208142 -0.07629293759490917 0.006806904973128066 0.03228890909725989 -0.0017449222431877402 -0.009646723490776409 0.002021137340615507 0.015154894787682218
 0.0020411771280610027 0.015152047916839611 -0.0017449222431877402 -0.009646723490776409 0.006803385297143022 0.03229069234750144 0.9915348099397853 -0.07629142245907473
 -0.0017447643154548493 -0.009646738772829172 0.002021137340615507 0.015154894787682218 0.9915348099397853 -0.07629142245907473 0.006806863733831355 0.03229039462139273
0.11879949979160001 0.0072669224977408905 0.03423878481315862 0.990921805565768 -0.08066031903401188 0.002243971430516247 0.015992772339244163 -0.0019164980005551187 -0.010184505921394305
 0.990921805565768 -0.08066031903401188 0.007271034245775562 0.03423840022283639 -0.0019166735513459448 -0.010184487776855536 0.002221635386976623 0.01599602531556278
 0.002243971430516247 0.015992772339244163 -0.0019166735513459448 -0.010184487776855536 0.007267112186428893 0.034240296398160466 0.9909218900339504 -0.08065871793066881
 -0.0019164980005551187 -0.010184505921394305 0.002221635386976623 0.01599602531556278 0.9909218900339504 -0.08065871793066881 0.007270987006439006 0.03423996550523201
0.1250521050438 0.007750959690835503 0.036202405449537386 0.9902826191727578 -0.08504027088248839 0.002457049865192835 0.016832443679031677 -0.0020969948087445536 -0.010721490851105742
 0.9902826191727578 -0.08504027088248839 0.007755515727277665 0.03620197847062441 -0.002097188868656214 -0.010721469535549187 0.002432292460759174 0.016836140284916055
 0.002457049865192835 0.016832443679031677 -0.002097188868656214 -0.010721469535549187 0.00775116932263812 0.03620398934915342 0.990282712937933 -0.0850385834919744
 -0.0020969948087445536 -0.010721490851105742 0.002432292460759174 0.016836140284916055 0.990282712937933 -0.0850385834919744 0.007755461968608451 0.03620362306380712
0.131304710296 0.008255623311695782 0.03817980668978253 0.989616882213626 -0.08943254485477474 0.002680477086763592 0.017670901140160036 -0.00228632114378703 -0.011257536264554061
 0.989616882213626 -0.08943254485477474 0.008260646581709384 0.03817933442222402 -0.0022865345911909267 -0.011257511454839409 0.0026531732444208408 0.01767508069637017
 0.002680477086763592 0.017670901140160036 -0.0022865345911909267 -0.011257511454839409 0.008255853816947557 0.038181461835810906 0.9896169858376488 -0.08943077084062129
 -0.00228632114378703 -0.011257536264554061 0.0026531732444208408 0.01767508069637017 0.9896169858376488 -0.08943077084062129 0.00826058576193386 0.03818105785411239
0.1375573155481 0.008666766066267454 0.03991317353644242 0.9890387931138429 -0.0935792601940759 0.002886568830761392 0.01848245192346832 -0.002456829088352026 -0.011766948424564825
 0.9890387931138429 -0.0935792601940759 0.008672280133084265 0.039912663361414594 -0.0024570630191190286 -0.01176692007577379 0.00285665359692889 0.018487109148402143
 0.002886568830761392 0.01848245192346832 -0.0024570630191190286 -0.01176692007577379 0.00866701751879116 0.03991489942872099 0.9890389070549269 -0.0935773993590522
 -0.002456829088352026 -0.011766948424564825 0.00285665359692889 0.018487109148402143 0.9890389070549269 -0.0935773993590522 0.00867221274985525 0.039914464806339
0.1438099208003 0.009092421026904579 0.041637176772289744 0.98844028553985 -0.09771522362199603 0.003100981912295512 0.019290563976045623 -0.002634149156439421 -0.012273206008331141
 0.98844028553985 -0.09771522362199603 0.009098448950548394 0.041636626466163396 -0.0026344044774065305 -0.012273173806998381 0.0030683411095677117 0.019295734936292157
 0.003100981912295512 0.019290563976045623 -0.0026344044774065305 -0.012273173806998381 0.0090926941812599 0.04163897235119981 0.9884404103593174 -0.0977132756373442
 -0.002634149156439421 -0.012273206008331141 0.0030683411095677117 0.019295734936292157 0.9884404103593174 -0.0977132756373442 0.009098374617669321 0.041638505375726095
0.1500625260525 0.009532435012694398 0.04335166514409806 0.9878215169057224 -0.10184032505869423 0.0033236405128890434 0.020095149955752668 -0.0028182076917363597 -0.01277622652534267
 0.9878215169057224 -0.10184032505869423 0.009538999886977876 0.043351072366152335 -0.0028184853050766574 -0.012776190145744468 0.003288160685253288 0.020100872032271636
 0.0033236405128890434 0.020095149955752668 -0.0028184853050766574 -0.012776190145744468 0.009532730599401556 0.04335352931056737 0.987821653177176 -0.10183828958275026
 -0.0028182076917363597 -0.01277622652534267 0.003288160685253288 0.020100872032271636 0.987821653177176 -0.10183828958275026 0.009538918208596744 0.043353028169884414
0.15631513130469998 0.009986653716453058 0.04505649193716268 0.9871826454679065 -0.10595445496639429 0.0035544678964242113 0.020896124050033313 -0.003008930110288834 -0.013275929263360091
 0.9871826454679065 -0.10595445496639429 0.00999377867007015 0.04505585422755683 -0.003009230913473329 -0.013275888367604974 0.0035160363211637945 0.02090243592355951
