! Created with skrf 1.8.0 (http://scikit-rf.org).
# GHz S RI R 50.0 
!freq ReS11 ImS11 ReS12 ImS12 ReS13 ImS13
! ReS14 ImS14
! ReS21 ImS21 ReS22 ImS22 ReS23 ImS23
! ReS24 ImS24
! ReS31 ImS31 ReS32 ImS32 ReS33 ImS33
! ReS34 ImS34
! ReS41 ImS41 ReS42 ImS42 ReS43 ImS43
! ReS44 ImS44
!
0.0 0.001768723995503 0.0 0.9982312759902 0.0 6.864280233187e-05 0.0 -6.864280313156e-05 8.406318913956687e-21
 0.9982312759902 0.0 0.001768723995512 0.0 -6.864280313092e-05 8.40631891387831e-21 6.86428023319e-05 0.0
 6.864280233187e-05 0.0 -6.864280313092e-05 8.40631891387831e-21 0.001768724002587 0.0 0.9982312759973 0.0
 -6.864280313156e-05 8.406318913956687e-21 6.86428023319e-05 0.0 0.9982312759973 0.0 0.001768724002628 0.0
0.005 0.0019037681015723086 0.0014454948703270995 0.998060321016346 -0.0037042201759064546 9.663114646994814e-05 0.0007612851477827301 -9.385355404113338e-05 -0.00047682238859545996
 0.998060321016346 -0.0037042201759064546 0.0019037445355991284 0.001445508590458706 -9.385161957613109e-05 -0.00047682086007527747 9.67866429199406e-05 0.0007612259132025461
 9.663114646994814e-05 0.0007612851477827301 -9.385161957613109e-05 -0.00047682086007527747 0.0019037689499586763 0.001445427066305375 0.998060320641981 -0.0037042872289240573
 -9.385355404113338e-05 -0.00047682238859545996 9.67866429199406e-05 0.0007612259132025461 0.998060320641981 -0.0037042872289240573 0.0019037429530022092 0.001445442302954922
0.006252605252188 0.0019394126299836997 0.0018125271769143484 0.9980148847290893 -0.004631145672585956 0.00010472054673787435 0.0009519603131454941 -0.00010107404167768367 -0.000596631945410927
 0.9980148847290893 -0.004631145672585956 0.0019393757924333504 0.0018125446020115584 -0.00010107103185807488 -0.000596630060402234 0.00010496349335230232 0.0009518833428102003
 0.00010472054673787435 0.0009519603131454941 -0.00010107103185807488 -0.000596630060402234 0.0019394140224061047 0.0018124424322042017 0.9980148842092914 -0.004631229479252767
 -0.00010107404167768367 -0.000596631945410927 0.00010496349335230232 0.0009518833428102003 0.9980148842092914 -0.004631229479252767 0.0019393733838511107 0.001812461765356994
0.01250521050438 0.002128370949365733 0.0036627152127432588 0.9977723032275514 -0.00926283583870587 0.00015160552291545358 0.0019041791298776206 -0.00014259208325083868 -0.0011960110158204063
 0.9977723032275514 -0.00926283583870587 0.002128223860240714 0.0036627528288386947 -0.00014258022645206793 -0.0011960075296202158 0.00015257430099326386 0.0019039933221294014
 0.00015160552291545358 0.0019041791298776206 -0.00014258022645206793 -0.0011960075296202158 0.0021283770848193346 0.0036625459460282016 0.9977723017137927 -0.009263003269473697
 -0.00014259208325083868 -0.0011960110158204063 0.00015257430099326386 0.0019039933221294014 0.9977723017137927 -0.009263003269473697 0.0021282148033449164 0.003662587528025833
0.01875781575657 0.002336057355065676 0.0055388661351447 0.997503197371027 -0.013906288721806458 0.00020941499875867583 0.002857265466833852 -0.0001933340457728348 -0.0017972322567037702
 0.997503197371027 -0.013906288721806458 0.002335726843361367 0.005538926895686967 -0.00019330761165318487 -0.001797227513651111 0.0002115911582187899 0.002856932052877114
 0.00020941499875867583 0.002857265466833852 -0.00019330761165318487 -0.001797227513651111 0.002336071590302292 0.005538612510136135 0.9975031943874321 -0.01390653972884768
 -0.0001933340457728348 -0.0017972322567037702 0.0002115911582187899 0.002856932052877114 0.9975031943874321 -0.01390653972884768 0.0023357069123957743 0.00553867952294431
0.02501042100875 0.002562913890960746 0.007438293498634843 0.9972072186846084 -0.018563695165022768 0.00027826661141650927 0.0038112246615036338 -0.0002534315461779255 -0.002399985599597748
 0.9972072186846084 -0.018563695165022768 0.0025623269289638834 0.0074383805187624025 -0.00025338487571328596 -0.002399980010338654 0.0002821317906728108 0.0038106981723672606
 0.00027826661141650927 0.0038112246615036338 -0.00025338487571328596 -0.002399980010338654 0.0025629395909233074 0.007437955663823646 0.9972072137482433 -0.01856402979321529
 -0.0002534315461779255 -0.002399985599597748 0.0002821317906728108 0.0038106981723672606 0.9972072137482433 -0.01856402979321529 0.002562291904877878 0.007438051526813905
0.03126302626094 0.002809364209265959 0.009359584630361732 0.9968840027422884 -0.02323595636329999 0.00035827755493385424 0.004765972767516454 -0.0003230117278976317 -0.0030040416465043768
 0.9968840027422884 -0.02323595636329999 0.0028084478674414905 0.009359701181406789 -0.00032293922161334443 -0.0030040356886120367 0.00036431390581713967 0.004765200992592896
 0.00035827755493385424 0.004765972767516454 -0.00032293922161334443 -0.0030040356886120367 0.0028094047534152097 0.009359162768565542 0.996883995364492 -0.023236374700687693
 -0.0003230117278976317 -0.0030040416465043768 0.00036431390581713967 0.004765200992592896 0.996883995364492 -0.023236374700687693 0.0028083935412399935 0.009359291133586644
0.037515631513130004 0.0030758221676712373 0.01130179558612035 0.9965331781553541 -0.027923488850478184 0.00044956353627372225 0.005721389995766021 -0.00040219815608982123 -0.0036091982799404208
 0.9965331781553541 -0.027923488850478184 0.003074503582631079 0.011301945092877535 -0.0004020942680382428 -0.0036091924980401376 0.0004582539023278223 0.005720313916168308
 0.00044956353627372225 0.005721389995766021 -0.0004020942680382428 -0.0036091924980401376 0.0030758809516980394 0.011301289902279148 0.9965331678400222 -0.02792399104041457
 -0.00040219815608982123 -0.0036091982799404208 0.0004582539023278223 0.005720313916168308 0.9965331678400222 -0.02792399104041457 0.0030744257560627692 0.011301454651805265
0.043768236765320004 0.003362695128720283 0.0132642061612927 0.9961543702608942 -0.032626469421268574 0.0005522382572281815 0.006677336987941067 -0.0004911111166138175 -0.004215264431801015
 0.9961543702608942 -0.032626469421268574 0.003360901476463153 0.013264392200629084 -0.0004909703508884595 -0.004215259437567708 0.0005640662456988568 0.0066758907020632
 0.0005522382572281815 0.006677336987941067 -0.0004909703508884595 -0.004215259437567708 0.0033627755654362774 0.013263616901813088 0.9961543565017633 -0.03262705564276182
 -0.0004911111166138175 -0.004215264431801015 0.0005640662456988568 0.0066758907020632 0.9961543565017633 -0.03262705564276182 0.0033607959624285667 0.013263822148614397
0.050020842017509996 0.0036703854693442444 0.015246218655939218 0.9957472030227665 -0.0373449362990383 0.0006664130834459741 0.007633661545632062 -0.0005898677010702599 -0.004822053398910397
 0.9957472030227665 -0.0373449362990383 0.0036680439410039112 0.015246444956336359 -0.0005896846095986879 -0.004822049871003433 0.0006818630811840254 0.00763177219173473
 0.0006664130834459741 0.007633661545632062 -0.0005896846095986879 -0.004822049871003433 0.0036704909909546653 0.015245546099903345 0.9957471853024261 -0.0373456067752512
 -0.0005898677010702599 -0.004822053398910397 0.0006818630811840254 0.00763177219173473 0.9957471853024261 -0.0373456067752512 0.0036679065657491145 0.015245796187759942
0.055454545454549996 0.003954993278108272 0.01698415779589574 0.9953700388712612 -0.04145796605567158 0.0007750585110949295 0.008464917796792829 -0.0006837729250548838 -0.005349814267267619
 0.9953700388712612 -0.04145796605567158 0.00395211649399177 0.016984422230333935 -0.0006835486627778525 -0.005349812616759677 0.0007940501177542823 0.008462578766082382
 0.0007750585110949295 0.008464917796792829 -0.0006835486627778525 -0.005349812616759677 0.003955123402391623 0.016983413104532993 0.995370017277709 -0.04145870996703915
 -0.0006837729250548838 -0.005349814267267619 0.0007940501177542823 0.008462578766082382 0.995370017277709 -0.04145870996703915 0.003951948052060948 0.016983705868825555
0.056273447269699996 0.003999291336199523 0.017247308182312106 0.9953113001842561 -0.04207883876578404 0.0007921967945185313 0.008590201950652921 -0.0006985817980110173 -0.005429379573023748
 0.9953113001842561 -0.04207883876578404 0.00399632911561381 0.017247578624173723 -0.000698350979111039 -0.00542937825700176 0.0008117539492503492 0.008587789628389653
 0.0007921967945185313 0.008590201950652921 -0.000698350979111039 -0.00542937825700176 0.003999425395580517 0.017246552641760476 0.9953112779718577 -0.04207959376323476
 -0.0006985817980110173 -0.005429379573023748 0.0008117539492503492 0.008587789628389653 0.9953112779718577 -0.04207959376323476 0.003996155720215785 0.017246852146967733
0.06252605252188 0.004349807022888371 0.01926699535630124 0.9948462860455156 -0.04682806441489221 0.000929695377014581 0.009546788794781543 -0.0008173640332209678 -0.006037056668641978
 0.9948462860455156 -0.04682806441489221 0.004346151264207511 0.019267313973176586 -0.0008170801306576378 -0.0060370583768845935 0.0009538455558870821 0.009543766486568381
 0.000929695377014581 0.009546788794781543 -0.0008170801306576378 -0.0060370583768845935 0.004349973095739533 0.019266157184188247 0.9948462587962597 -0.04682890423508585
 -0.0008173640332209678 -0.006037056668641978 0.0009538455558870821 0.009543766486568381 0.9948462587962597 -0.04682890423508585 0.004345937707127835 0.019266510917839035
0.06877865777407 0.004722323145054566 0.021304830024632855 0.9943517860470172 -0.051592455376583614 0.001079011837933392 0.010503246091283837 -0.0009463216845897053 -0.006644896677097249
 0.9943517860470172 -0.051592455376583614 0.0047179009516790235 0.021305201005021795 -0.0009459793869389474 -0.006644902288688936 0.001108241569676138 0.010499519584085255
 0.001079011837933392 0.010503246091283837 -0.0009459793869389474 -0.006644902288688936 0.004722524731270562 0.021303909602612508 0.9943517531998012 -0.05159338036753739
 -0.0009463216845897053 -0.006644896677097249 0.001108241569676138 0.010499519584085255 0.9943517531998012 -0.05159338036753739 0.004717643110785468 0.021304322613758527
0.07503126302626001 0.005117226692024884 0.023360380952428515 0.993827427231468 -0.056371818592022394 0.0012402460328809015 0.011459391987994129 -0.0010855585785212475 -0.007252709227708319
 0.993827427231468 -0.056371818592022394 0.005111965095094195 0.02336080864255251 -0.0010851526188474653 -0.007252719688335699 0.0012750424377373363 0.011454859795846706
 0.0012402460328809015 0.011459391987994129 -0.0010851526188474653 -0.007252719688335699 0.005117467317780818 0.023359378703024705 0.9938273882079369 -0.05637282913540338
 -0.0010855585785212475 -0.007252709227708319 0.0012750424377373363 0.011454859795846706 0.9938273882079369 -0.05637282913540338 0.005111658870038038 0.02335985628257487
0.08128386827845 0.005534901004274938 0.02543322897524821 0.9932728386388276 -0.06116593263286802 0.0014134945020196318 0.012415039265756666 -0.0012351749761816849 -0.00786030117251445
 0.9932728386388276 -0.06116593263286802 0.00552872694154139 0.025433717882569245 -0.0012347001318666455 -0.007860317494345063 0.0014543452116197683 0.012409592553411756
 0.0014134945020196318 0.012415039265756666 -0.0012347001318666455 -0.007860317494345063 0.005535184222678487 0.02543214535099555 0.9932727928405134 -0.061167029154052914
 -0.0012351749761816849 -0.00786030117251445 0.0014543452116197683 0.012409592553411756 0.9932727928405134 -0.061167029154052914 0.005528368254862388 0.025432693036473785
0.08753647353064001 0.005975725695583197 0.02752296226449402 0.9926876516492534 -0.06597455241806365 0.0015988503118597693 0.013369995692339542 -0.001395267451673055 -0.008467476324969898
 0.9926876516492534 -0.06597455241806365 0.005968565989841009 0.02752351706204143 -0.0013947185442915366 -0.00846749958652863 0.0016462433814596646 0.01336351820005313
 0.0015988503118597693 0.013369995692339542 -0.0013947185442915366 -0.00846749958652863 0.005976055089397286 0.027521797754693652 0.9926875984573381 -0.06597573537850604
 -0.001395267451673055 -0.008467476324969898 0.0016462433814596646 0.01336351820005313 0.9926875984573381 -0.06597573537850604 0.005968150791196157 0.027522421335735913
0.09378907878283 0.006440076544525513 0.029629172961785535 0.992071500300531 -0.07079741257242325 0.0017964029007367086 0.014324064295574 -0.0015659287653226428 -0.009074035288934697
 0.992071500300531 -0.07079741257242325 0.0064318578827401674 0.029629798493341193 -0.0015653006607594735 -0.009074066634974473 0.0018508267145187823 0.014316432265379068
 0.0017964029007367086 0.014324064295574 -0.0015653006607594735 -0.009074066634974473 0.006440455726846777 0.029627928089321284 0.9920714390729872 -0.07079868247176836
 -0.0015659287653226428 -0.009074035288934697 0.0018508267145187823 0.014316432265379068 0.9920714390729872 -0.07079868247176836 0.0064313821498065875 0.029628633614021776
0.100041684035 0.0069283253568058045 0.03175145472061944 0.9914240215795608 -0.07563422988921116 0.0020062379270039494 0.015277043583069475 -0.0017472477334563616 -0.009679775350956163
 0.9914240215795608 -0.07563422988921116 0.006918974268358556 0.03175215600678229 -0.0017465353420142737 -0.009679815992307566 0.0020681810974343094 0.015268125686566266
 0.0020062379270039494 0.015277043583069475 -0.0017465353420142737 -0.009679815992307566 0.006928757973209781 0.03175013003708 0.9914239516501998 -0.07563558726914392
 -0.0017472477334563616 -0.009679775350956163 0.0020681810974343094 0.015268125686566266 0.9914239516501998 -0.07563558726914392 0.006918434010149849 0.03175092381934412
0.1059090909091 0.007408557597923808 0.03375724524939036 0.9907876190375782 -0.0801854975207301 0.0022143894408249106 0.016170139549439112 -0.0019271649130660309 -0.010247269833181659
 0.9907876190375782 -0.0801854975207301 0.007398076867643916 0.033758022352987284 -0.001926368838100793 -0.010247320357161334 0.0022838332282567775 0.01615988875647936
 0.0022143894408249106 0.016170139549439112 -0.001926368838100793 -0.010247320357161334 0.007409043702416546 0.03375584620688837 0.9907875403132763 -0.08018693751283379
 -0.0019271649130660309 -0.010247269833181659 0.0022838332282567775 0.01615988875647936 0.9907875403132763 -0.08018693751283379 0.007397472459229904 0.03375672879579337
0.1062942892872 0.007440839810500057 0.03388940085806489 0.9907448557017441 -0.08048470519462557 0.002228437119559587 0.016228727721489256 -0.0019393090951362083 -0.01028449042295029
 0.9907448557017441 -0.08048470519462557 0.007430282646137531 0.03389018310319333 -0.0019385073718094354 -0.010284541636368575 0.002298388381834034 0.01621838498939829
 0.002228437119559587 0.016228727721489256 -0.0019385073718094354 -0.010284541636368575 0.007441329540665429 0.03388799695179287 0.9907447763783258 -0.08048615062951787
 -0.0019393090951362083 -0.01028449042295029 0.002298388381834034 0.01621838498939829 0.9907447763783258 -0.08048615062951787 0.007429673905157512 0.033888885579408556
0.11254689453939999 0.00797798328739472 0.03604260297247255 0.9900336463782682 -0.08534852475795272 0.0024630781299252013 0.017178906697387076 -0.0021421933778009612 -0.010887971013590477
 0.9900336463782682 -0.08534852475795272 0.007966146197317505 0.036043471572618314 -0.0021412973224686953 -0.010888034141605656 0.0025415262314825685 0.017166992450864307
 0.0024630781299252013 0.017178906697387076 -0.0021412973224686953 -0.010888034141605656 0.007978533846136688 0.03604112045822947 0.9900335569403428 -0.08535005886390994
 -0.0021421933778009612 -0.010887971013590477 0.0025415262314825685 0.017166992450864307 0.9900335569403428 -0.08535005886390994 0.007965465052073238 0.03604211080194209
0.11879949979160001 0.008540114691951328 0.03821064985641577 0.9892900410756792 -0.09022536141904423 0.0027102343860928575 0.018127366458558322 -0.0023559767612352203 -0.011490004229454216
 0.9892900410756792 -0.09022536141904423 0.008526923604394339 0.038211610408092914 -0.0023549814190246964 -0.01149008068018558 0.002797667971975385 0.01811372624244664
 0.0027102343860928575 0.018127366458558322 -0.0023549814190246964 -0.01149008068018558 0.008540729831676036 0.03820908938079519 0.9892899407735487 -0.09022698484699132
 -0.0023559767612352203 -0.011490004229454216 0.002797667971975385 0.01811372624244664 0.9892899407735487 -0.09022698484699132 0.008526166172447691 0.03821018860432711
0.1250521050438 0.009127588263156095 0.04039312666694735 0.9885136912696945 -0.09511487547084074 0.0029699749477922477 0.019073889047307675 -0.00258073094111319 -0.012090373794781572
 0.9885136912696945 -0.09511487547084074 0.009112968862737969 0.04039418497692604 -0.0025796314027819976 -0.01209046504176372 0.0030668824421077904 0.019058360565504653
 0.0029699749477922477 0.019073889047307675 -0.0025796314027819976 -0.01209046504176372 0.009128271774578983 0.040391488903759154 0.9885135793220605 -0.09511658890965854
 -0.00258073094111319 -0.012090373794781572 0.0030668824421077904 0.019058360565504653 0.9885135793220605 -0.09511658890965854 0.00911213130279565 0.040392704474711036
0.131304710296 0.009740753378489933 0.042589614265067736 0.9877042526941933 -0.1000167153857271 0.00324236436311601 0.020018252725470514 -0.002816522992509855 -0.012688860090068707
 0.9877042526941933 -0.1000167153857271 0.009724631084330727 0.0425907763612453 -0.0028153143948069213 -0.012688967672048756 0.003349233846755974 0.020000665778344518
 0.00324236436311601 0.020018252725470514 -0.0028153143948069213 -0.012688967672048756 0.009741509092763025 0.04258789991532534 0.9877041282865132 -0.10001851956044347
 -0.002816522992509855 -0.012688860090068707 0.003349233846755974 0.020000665778344518 0.9877041282865132 -0.10001851956044347 0.009723709599203914 0.04258923961719645
0.1375573155481 0.010247283467691869 0.04451393327224988 0.9869941270055674 -0.10464457334301994 0.0034947842414253397 0.020932542118350776 -0.003030620671515286 -0.013257667567230302
 0.9869941270055674 -0.10464457334301994 0.010229577185217836 0.0445151799251709 -0.0030292956309242573 -0.013257791763275352 0.0036118592455643274 0.020912908041769953
 0.0034947842414253397 0.020932542118350776 -0.0030292956309242573 -0.013257791763275352 0.010248114177671774 0.04451214313043808 0.9869939895335104 -0.1046464687148599
 -0.003030620671515286 -0.013257667567230302 0.0036118592455643274 0.020912908041769953 0.9869939895335104 -0.1046464687148599 0.010228568655221615 0.04451358892253629
0.1438099208003 0.010771867154271565 0.04642665473408048 0.9862585746490143 -0.10925921466932778 0.003757327741303125 0.021842288285334417 -0.003253215640278654 -0.013822233545343213
 0.9862585746490143 -0.10925921466932778 0.010752500966800705 0.04642799064926145 -0.00325176890659076 -0.013822375888908943 0.003885051784250301 0.021820450036243666
 0.003757327741303125 0.021842288285334417 -0.00325176890659076 -0.013822375888908943 0.010772776563353277 0.046424789581820634 0.9862584232933889 -0.10926120195354555
 -0.003253215640278654 -0.013822233545343213 0.003885051784250301 0.021820450036243666 0.9862584232933889 -0.10926120195354555 0.010751401779249325 0.046426347915327376
0.1500625260525 0.011314297208307914 0.0483275753100937 0.98549780808009 -0.11386048027988963 0.004029888457551945 0.022747371596983593 -0.0034842027844408695 -0.014382443422746735
 0.98549780808009 -0.11386048027988963 0.011293194916516038 0.0483290055275128 -0.0034826291214972807 -0.01438260550924172 0.004168701925693875 0.02272316638528949
 0.004029888457551945 0.022747371596983593 -0.0034826291214972807 -0.01438260550924172 0.01131528904759304 0.04832563596017302 0.9854976419931076 -0.11386256021464791
 -0.0034842027844408695 -0.014382443422746735 0.004168701925693875 0.02272316638528949 0.9854976419931076 -0.11386256021464791 0.01129200150900914 0.048327313690558545
0.15631513130469998 0.011874364654083326 0.05021649772573196 0.9847120411442547 -0.11844821266296053 0.004312358565324607 0.023647674820965144 -0.003723475543110172 -0.014938185319174166
 0.9847120411442547 -0.11844821266296053 0.011851449768741243 0.0502180276326602 -0.0037217697291177863 -0.014938368805668194 0.004462698659462721 0.023620934176552248
