! Created with skrf 1.8.0 (http://scikit-rf.org).
# GHz S RI R 50.0 
!freq ReS11 ImS11 ReS12 ImS12 ReS13 ImS13
! ReS14 ImS14
! ReS21 ImS21 ReS22 ImS22 ReS23 ImS23
! ReS24 ImS24
! ReS31 ImS31 ReS32 ImS32 ReS33 ImS33
! ReS34 ImS34
! ReS41 ImS41 ReS42 ImS42 ReS43 ImS43
! ReS44 ImS44
!
0.0 0.001723361015362 0.0 0.9982766389813 0.0 6.690123141425e-05 0.0 -6.690123140948e-05 8.193037890463604e-21
 0.9982766389813 0.0 0.001723361015319 0.0 -6.690123140808e-05 8.193037890292155e-21 6.690123141442e-05 0.0
 6.690123141425e-05 0.0 -6.690123140808e-05 8.193037890292155e-21 0.001723361017018 0.0 0.998276638983 0.0
 -6.690123140948e-05 8.193037890463604e-21 6.690123141442e-05 0.0 0.998276638983 0.0 0.001723361017044 0.0
0.005 0.0018547998001005172 0.0014069222976558682 0.9981102454491426 -0.003609523459978185 9.443726403473321e-05 0.0007514344901933884 -9.158333135806644e-05 -0.00046905603179644013
 0.9981102454491426 -0.003609523459978185 0.0018548087457418581 0.001406917018602922 -9.15784868641834e-05 -0.00046905231792016266 9.439883738988156e-05 0.000751449156268489
 9.443726403473321e-05 0.0007514344901933884 -9.15784868641834e-05 -0.00046905231792016266 0.0018548026322572477 0.0014069878909612327 0.9981102458197727 -0.003609456394818847
 -9.158333135806644e-05 -0.00046905603179644013 9.439883738988156e-05 0.000751449156268489 0.9981102458197727 -0.003609456394818847 0.0018548066513833714 0.0014069855539880212
0.006252605252188 0.0018894451813533362 0.0017641741860303815 0.9980660814417913 -0.004512760189718151 0.00010240056875184364 0.0009396390733058654 -9.863511298875116e-05 -0.0005869189798846522
 0.9980660814417913 -0.004512760189718151 0.0018894591655247016 0.0017641675014977794 -9.862757453923427e-05 -0.000586914402006087 0.00010234053135952997 0.0009396581238099107
 0.00010240056875184364 0.0009396390733058654 -9.862757453923427e-05 -0.000586914402006087 0.0018894495447612908 0.0017642561588903372 0.9980660819570712 -0.004512676372009139
 -9.863511298875116e-05 -0.0005869189798846522 0.00010234053135952997 0.0009396581238099107 0.9980660819570712 -0.004512676372009139 0.0018894558271413022 0.001764253160029614
0.01250521050438 0.002072832738733304 0.003565130926486553 0.9978306334142351 -0.009026133590225261 0.00014857709608353446 0.001879511509280081 -0.00013909162093866096 -0.0011765786465222333
 0.9978306334142351 -0.009026133590225261 0.002072888585136023 0.0035651166654290713 -0.00013906191279729557 -0.0011765702039745452 0.0001483376954290111 0.001879557414936862
 0.00014857709608353446 0.001879511509280081 -0.00013906191279729557 -0.0011765702039745452 0.0020728495788752918 0.003565294551936049 0.9978306348847423 -0.009025966194260373
 -0.00013909162093866096 -0.0011765786465222333 0.0001483376954290111 0.001879557414936862 0.9978306348847423 -0.009025966194260373 0.0020728746615923865 0.003565287790401086
0.01875781575657 0.0022739605121723104 0.005391480069166886 0.9975699765085663 -0.013551064359961148 0.0002055430541961583 0.0028202329424604853 -0.00018840296304489324 -0.0017680828625420498
 0.9975699765085663 -0.013551064359961148 0.002274086016230515 0.005391457201878783 -0.00018833671415094692 -0.0017680714212322437 0.00020500530112508425 0.0028203151715706243
 0.0002055430541961583 0.0028202329424604853 -0.00018833671415094692 -0.0017680714212322437 0.0022739979414529324 0.005391725076606347 0.997569979395641 -0.013550813488669444
 -0.00018840296304489324 -0.0017680828625420498 0.00020500530112508425 0.0028203151715706243 0.997569979395641 -0.013550813488669444 0.002274054299621737 0.005391713790387353
0.02501042100875 0.0024932502123753077 0.007240614404462265 0.9972837788642392 -0.018089698962705077 0.00027341204844059263 0.003761815358892132 -0.00024669621443584134 -0.0023611310104265397
 0.9972837788642392 -0.018089698962705077 0.0024934731238278798 0.007240581773705086 -0.00024657922709016424 -0.002361117603217839 0.0002724569334845937 0.0037619449921718366
 0.00027341204844059263 0.003761815358892132 -0.00024657922709016424 -0.002361117603217839 0.0024933163196955983 0.007240940492712259 0.997283783617666 -0.01808936466594515
 -0.00024669621443584134 -0.0023611310104265397 0.0002724569334845937 0.0037619449921718366 0.997283783617666 -0.01808936466594515 0.0024934164016306663 0.0072409239249425755
0.03126302626094 0.002731106014492436 0.009111168525798307 0.9969716931046014 -0.022642927294553312 0.00035229770235514486 0.004704181636844038 -0.000314094261954898 -0.0029555034750587163
 0.9969716931046014 -0.022642927294553312 0.0027314540526829248 0.009111124847787996 -0.0003139124830023064 -0.0029554893034645347 0.00035080608693753074 0.004704371377273116
 0.00035229770235514486 0.004704181636844038 -0.0003139124830023064 -0.0029554893034645347 0.002731208880185809 0.009111575325589249 0.9969717001748034 -0.022642509606298527
 -0.000314094261954898 -0.0029555034750587163 0.00035080608693753074 0.004704371377273116 0.9969717001748034 -0.022642509606298527 0.002731365115665262 0.009111552725849176
0.037515631513130004 0.0029879228559421063 0.01100223421325487 0.9966333649815156 -0.027211167243050238 0.0004423124890900606 0.005647219017906259 -0.0003907166891047039 -0.003551008200232654
 0.9966333649815156 -0.027211167243050238 0.002988423719400547 0.011002178077351831 -0.00039045619540121053 -0.003550994634853099 0.0004401650579980758 0.005647483207013011
 0.0004423124890900606 0.005647219017906259 -0.00039045619540121053 -0.003550994634853099 0.0029880705542957102 0.011002721285331056 0.9966333748206664 -0.027210666182203105
 -0.0003907166891047039 -0.003551008200232654 0.0004401650579980758 0.005647483207013011 0.9966333748206664 -0.027210666182203105 0.002988295360899045 0.011002691910866528
0.043768236765320004 0.003264089624909835 0.01291312165915084 0.9962684369142693 -0.03179460339303977 0.0005435671699850317 0.006590795372174943 -0.0004766800736744322 -0.004147464452288821
 0.9962684369142693 -0.03179460339303977 0.0032647709986815742 0.012913051527117499 -0.0004763270635593188 -0.004147453032930399 0.000540644410202731 0.006591150008273798
 0.0005435671699850317 0.006590795372174943 -0.0004763270635593188 -0.004147453032930399 0.0032642902233166447 0.012913688488078653 0.9962684499755892 -0.03179401896876865
 -0.0004766800736744322 -0.004147464452288821 0.000540644410202731 0.006591150008273798 0.9962684499755892 -0.03179401896876865 0.003264596012623032 0.0129136516047005
0.050020842017509996 0.0035599906240163593 0.014843260805979825 0.9958765498074544 -0.03639328561980288 0.0006561704443571979 0.007534765930784911 -0.0005720980795025076 -0.0047446961207179405
 0.9958765498074544 -0.03639328561980288 0.0035608801857735487 0.014843175010944702 -0.0005716388675682712 -0.004744688556389651 0.000652352637709723 0.007535228688075189
 0.0006561704443571979 0.007534765930784911 -0.0005716388675682712 -0.004744688556389651 0.0035602521827846566 0.014843906798667846 0.9958765665449469 -0.036392617831702535
 -0.0005720980795025076 -0.0047446961207179405 0.000652352637709723 0.007535228688075189 0.9958765665449469 -0.036392617831702535 0.003560651365298575 0.014843861681640206
0.055454545454549996 0.0038334597338318894 0.016535856346617642 0.995513814777369 -0.04040203480492272 0.0007633252312301291 0.008355305608654287 -0.0006627836126432775 -0.005264202546095771
 0.995513814777369 -0.04040203480492272 0.0038345526933749566 0.01653575548535727 -0.0006622210815780265 -0.005264199851195203 0.0007586322174957612 0.008355877996326679
 0.0007633252312301291 0.008355305608654287 -0.0006622210815780265 -0.005264199851195203 0.0038337808101689312 0.016536570591703232 0.9955138350798995 -0.040401294563927645
 -0.0006627836126432775 -0.005264202546095771 0.0007586322174957612 0.008355877996326679 0.9955138350798995 -0.040401294563927645 0.0038342712363554727 0.0165365177386396
0.056273447269699996 0.0038760063028882635 0.0167921529150998 0.9954573441435156 -0.04100717745489801 0.0007802286946807449 0.008478976595515308 -0.0006770814538950122 -0.0053425284476924274
 0.9954573441435156 -0.04100717745489801 0.0038771317284686485 0.016792049660224635 -0.0006765024675615456 -0.005342526616539404 0.0007753959191093271 0.0084795668434935
 0.0007802286946807449 0.008478976595515308 -0.0006765024675615456 -0.005342526616539404 0.0038763368764117953 0.01679287739804037 0.9954573650135214 -0.04100642629469589
 -0.0006770814538950122 -0.0053425284476924274 0.0007753959191093271 0.0084795668434935 0.9954573650135214 -0.04100642629469589 0.0038768418670008424 0.01679282333272659
0.06252605252188 0.004212513634073728 0.018759343949795778 0.9950104607239504 -0.04563618264358829 0.0009158457774062735 0.009423265770377949 -0.0007917379790786482 -0.0059407862424198585
 0.9950104607239504 -0.04563618264358829 0.004213902602694462 0.018759221306809588 -0.0007910257564366896 -0.005940792191627311 0.0009098779137357548 0.00942400459337056
 0.0009158457774062735 0.009423265770377949 -0.0007910257564366896 -0.005940792191627311 0.004212921269095639 0.018760146169175033 0.9950104861838908 -0.04563534809379745
 -0.0007917379790786482 -0.0059407862424198585 0.0009098779137357548 0.00942400459337056 0.9950104861838908 -0.04563534809379745 0.004213544492107644 0.018760082451592722
0.06877865777407 0.004569886288917703 0.020744408709608083 0.9945355412148186 -0.050280160958090264 0.0010631228397941534 0.010367465465094195 -0.0009161723966007302 -0.0065392928310258
 0.9945355412148186 -0.050280160958090264 0.004571566487891793 0.020744264617153448 -0.0009153135850275321 -0.006539308776691952 0.0010558995826349996 0.010368375681799427
 0.0010631228397941534 0.010367465465094195 -0.0009153135850275321 -0.006539308776691952 0.004570379025263424 0.020745287827352174 0.9945355717249547 -0.05027924299485587
 -0.0009161723966007302 -0.0065392928310258 0.0010558995826349996 0.010368375681799427 0.9945355717249547 -0.05027924299485587 0.004571132919919014 0.020745213764510346
0.07503126302626001 0.004948494698176351 0.022746940784131236 0.9940322285826738 -0.054938938199593355 0.0012221581534341331 0.011311402003968315 -0.0010504863140296885 -0.007137869408894843
 0.9940322285826738 -0.054938938199593355 0.004950493827442076 0.022746773045855397 -0.0010494676694602033 -0.007137897735880237 0.0012135590248588562 0.011312508186844178
 0.0012221581534341331 0.011311402003968315 -0.0010494676694602033 -0.007137897735880237 0.004949080568098562 0.022747895875510092 0.9940322646059904 -0.05493793679380445
 -0.0010504863140296885 -0.007137869408894843 0.0012135590248588562 0.011312508186844178 0.9940322646059904 -0.05493793679380445 0.0049499775933369225 0.022747810785681347
0.08128386827845 0.005348706038734325 0.024766545861019357 0.9935001674611597 -0.059612312854606934 0.0013930469557246739 0.012254896516491217 -0.0011947781023345528 -0.007736334619389093
 0.9935001674611597 -0.059612312854606934 0.005351051815766611 0.02476635214355664 -0.0011935864889714124 -0.007736377881149544 0.001382951321646918 0.012256225011056294
 0.0013930469557246739 0.012254896516491217 -0.0011935864889714124 -0.007736377881149544 0.005349393065816453 0.024767575917630198 0.9935002094634316 -0.05961122796779462
 -0.0011947781023345528 -0.007736334619389093 0.001382951321646918 0.012256225011056294 0.9935002094634316 -0.05961122796779462 0.005350445705794926 0.024767479130350496
0.08753647353064001 0.005770884170810503 0.02680283712240233 0.9929390044724953 -0.06430006067217642 0.0015758812992936388 0.013197765285609623 -0.0013491427847131354 -0.008334504283387686
 0.9929390044724953 -0.06430006067217642 0.005773604334740558 0.026802614953171936 -0.001347765175014623 -0.008334565201782433 0.0015641683874212035 0.01319934422942798
 0.0015758812992936388 0.013197765285609623 -0.001347765175014623 -0.008334565201782433 0.005771680369454432 0.02680394104789358 0.9929390529226776 -0.06429889225972482
 -0.0013491427847131354 -0.008334504283387686 0.0015641683874212035 0.01319934422942798 0.9929390529226776 -0.06429889225972482 0.005772901138891832 0.02680383190380363
0.09378907878283 0.0062153895412330375 0.0288554319522555 0.9923483885195283 -0.06900193794000718 0.0017707499046384274 0.014139820014106231 -0.0015136719209933123 -0.00893219121930542
 0.9923483885195283 -0.06900193794000718 0.006218511857767424 0.028855178716958287 -0.00151209539604605 -0.00893227268437362 0.0017572988243877493 0.014141679355610613
 0.0017707499046384274 0.014139820014106231 -0.00151209539604605 -0.00893227268437362 0.006216302916108694 0.028856608561152727 0.9923484438902037 -0.06900068595098312
 -0.0015136719209933123 -0.00893219121930542 0.0017572988243877493 0.014141679355610613 0.9923484438902037 -0.06900068595098312 0.006217704365619092 0.028856486411705788
0.100041684035 0.006682579062777679 0.030923949534297588 0.9917279710570406 -0.07371768387967538 0.0019777380167684596 0.01508086803442604 -0.0016884534879939832 -0.009529205128548976
 0.9917279710570406 -0.07371768387967538 0.006686131327606953 0.03092366247443627 -0.0016866652379281964 -0.009529310198271438 0.0019624277801686832 0.015083039551399068
 0.0019777380167684596 0.01508086803442604 -0.0016866652379281964 -0.009529310198271438 0.006683617607448183 0.030925197551533914 0.9917280338245922 -0.07371634825636868
 -0.0016884534879939832 -0.009529205128548976 0.0019624277801686832 0.015083039551399068 0.9917280338245922 -0.07371634825636868 0.006685212328882324 0.030925061758490375
0.1059090909091 0.007141932576031303 0.03287917623531848 0.9911183629117213 -0.07815527898321709 0.0021830697255630694 0.015962850891653117 -0.0018618670421408992 -0.010088654937177739
 0.9911183629117213 -0.07815527898321709 0.007145913612908009 0.032878854794834676 -0.0018598685578837244 -0.010088785087930274 0.0021659047637614362 0.015965345899290093
 0.0021830697255630694 0.015962850891653117 -0.0018598685578837244 -0.010088785087930274 0.007143095839054847 0.03288049002106566 0.9911184330574739 -0.07815386481962257
 -0.0018618670421408992 -0.010088654937177739 0.0021659047637614362 0.015965345899290093 0.9911184330574739 -0.07815386481962257 0.0071448834195711386 0.03288034085297119
0.1062942892872 0.007172805974615821 0.03300800905023319 0.9910774063494353 -0.07844702245235269 0.002196927263352833 0.016020712483375703 -0.0018735717575072272 -0.010125352525112236
 0.9910774063494353 -0.07844702245235269 0.007176816018659511 0.033007685260163046 -0.0018715590822609754 -0.010125484425143275 0.0021796368075938204 0.016023229801146496
 0.002196927263352833 0.016020712483375703 -0.0018715590822609754 -0.010125484425143275 0.007173977671063204 0.03300932710958678 0.9910774769944646 -0.07844560313065704
 -0.0018735717575072272 -0.010125352525112236 0.0021796368075938204 0.016023229801146496 0.9910774769944646 -0.07844560313065704 0.007175778303216852 0.03300917704422655
0.11254689453939999 0.007686419689743858 0.035107228319850324 0.9903963517173527 -0.08318966373299078 0.0024283955154821113 0.016959152450990077 -0.0020691071720772085 -0.010720436700275596
 0.9903963517173527 -0.08318966373299078 0.007690915383059892 0.035106864743874616 -0.0020668574822688105 -0.010720598823617318 0.0024090037263661693 0.01696205106025446
 0.0024283955154821113 0.016959152450990077 -0.0020668574822688105 -0.010720598823617318 0.007687732507188626 0.035108614962328186 0.9903964307247791 -0.08318816064288877
 -0.0020691071720772085 -0.010720436700275596 0.0024090037263661693 0.01696205106025446 0.9903964307247791 -0.08318816064288877 0.007689751741218257 0.035108450004578205
0.11879949979160001 0.008223765631626218 0.03722122274223006 0.9896844677773303 -0.08794530499449975 0.0026722167495092557 0.017895983113614882 -0.0022751362199932962 -0.011314257712288753
 0.9896844677773303 -0.08794530499449975 0.008228774887754899 0.03722081617130619 -0.0022726370377702896 -0.011314453619012715 0.0026506024858625604 0.01789930038790005
 0.0026722167495092557 0.017895983113614882 -0.0022726370377702896 -0.011314453619012715 0.008225227525771874 0.03722267641752727 0.989684555637342 -0.08794371805761361
 -0.0022751362199932962 -0.011314257712288753 0.0026506024858625604 0.01789930038790005 0.989684555637342 -0.08794371805761361 0.00822747811108405 0.0372224959548188
0.1250521050438 0.008785185062314719 0.0393496044713163 0.9889414186754466 -0.09271363156868037 0.0029284609106397935 0.018830995858340242 -0.0024917313088527295 -0.011906612394308288
 0.9889414186754466 -0.09271363156868037 0.00879073584245892 0.039349151539692005 -0.0024889702691089 -0.0119068458111313 0.00290450302978199 0.01883477107110629
 0.0029284609106397935 0.018830995858340242 -0.0024889702691089 -0.0119068458111313 0.008786803973967137 0.039351123532837734 0.9889415158832111 -0.09271196070222162
 -0.0024917313088527295 -0.011906612394308288 0.00290450302978199 0.01883477107110629 0.9889415158832111 -0.09271196070222162 0.00878929872364655 0.039350926958702334
0.131304710296 0.009371014904230026 0.04149198177175818 0.988166872317442 -0.09749431753848421 0.0031971937775875123 0.019763978397912316 -0.00271896063936859 -0.012497294381403878
 0.988166872317442 -0.09749431753848421 0.009377135221423678 0.04149147895333487 -0.0027159254907684685 -0.012497569201325075 0.0031707711615939324 0.019768252739165094
 0.0031971937775875123 0.019763978397912316 -0.0027159254907684685 -0.012497569201325075 0.009372798758171649 0.041493564477554534 0.9881669793736105 -0.09749256265323343
 -0.00271896063936859 -0.012497294381403878 0.0031707711615939324 0.019768252739165094 0.9881669793736105 -0.09749256265323343 0.009375550554860878 0.041493351190116594
0.1375573155481 0.009853359630776186 0.043368684155933125 0.9874887905805904 -0.1020075916053837 0.0034464834589903962 0.020667462480056013 -0.002924932707461437 -0.013058842864542824
 0.9874887905805904 -0.1020075916053837 0.009860078073157828 0.04336813538352229 -0.002921605204248502 -0.01305915973087133 0.0034175346588726776 0.020672232670047655
 0.0034464834589903962 0.020667462480056013 -0.002921605204248502 -0.01305915973087133 0.009855315808622166 0.043370328780954995 0.9874889079332964 -0.10200575269025233
 -0.002924932707461437 -0.013058842864542824 0.0034175346588726776 0.020672232670047655 0.9874889079332964 -0.10200575269025233 0.009858339293755243 0.04337010574549805
0.1438099208003 0.010352848180667987 0.04523433715551564 0.9867865002592008 -0.10650824763560948 0.0037058099919713605 0.021566561676415148 -0.003139099334356906 -0.013616379980407153
 0.9867865002592008 -0.10650824763560948 0.010360192888667531 0.045233739288605725 -0.0031354663100962125 -0.013616742755142196 0.003674224686459135 0.021571865696553994
 0.0037058099919713605 0.021566561676415148 -0.0031354663100962125 -0.013616742755142196 0.010354984490576978 0.045236041904811515 0.9867866284054163 -0.1065063246130481
 -0.003139099334356906 -0.013616379980407153 0.003674224686459135 0.021571865696553994 0.9867866284054163 -0.1065063246130481 0.010358292907265445 0.04523580900499262
0.1500625260525 0.010869286668518335 0.047088750460493274 0.9860602001304107 -0.11099613859725935 0.00397507233730171 0.02246116054139604 -0.0033613624099012238 -0.01416979781428538
 0.9860602001304107 -0.11099613859725935 0.010877285828660524 0.047088100197707435 -0.003357410735447531 -0.014170210514867644 0.003940740913731505 0.022467037773456357
 0.00397507233730171 0.02246116054139604 -0.003357410735447531 -0.014170210514867644 0.010871610898398429 0.04709051346705883 0.9860603395712645 -0.1109941313862313
 -0.0033613624099012238 -0.01416979781428538 0.003940740913731505 0.022467037773456357 0.9860603395712645 -0.1109941313862313 0.01087521756496849 0.04709027055041373
0.15631513130469998 0.011402479614041179 0.04893173944707829 0.9853100902248645 -0.11547111876565437 0.004254168129483048 0.023351145847767388 -0.0035916224966908 -0.014718990954184056
 0.9853100902248645 -0.11547111876565437 0.011411161460288727 0.0489310333237346 -0.00358733908091314 -0.01471945775267829 0.0042169816949839695 0.02335763705911899
