! Created with skrf 1.8.0 (http://scikit-rf.org).
# GHz S RI R 50.0 
!freq ReS11 ImS11 ReS12 ImS12 ReS13 ImS13
! ReS14 ImS14
! ReS21 ImS21 ReS22 ImS22 ReS23 ImS23
! ReS24 ImS24
! ReS31 ImS31 ReS32 ImS32 ReS33 ImS33
! ReS34 ImS34
! ReS41 ImS41 ReS42 ImS42 ReS43 ImS43
! ReS44 ImS44
!
0.0 0.001537944411466 0.0 0.9984620555885 0.0 5.920855777496e-05 0.0 -5.920855747463e-05 7.250957039343772e-21
 0.9984620555885 0.0 0.001537944411435 0.0 -5.92085574746e-05 7.250957039340098e-21 5.92085577738e-05 0.0
 5.920855777496e-05 0.0 -5.92085574746e-05 7.250957039340098e-21 0.00153794440827 0.0 0.9984620555853 0.0
 -5.920855747463e-05 7.250957039343772e-21 5.92085577738e-05 0.0 0.9984620555853 0.0 0.001537944408243 0.0
0.005 0.0016546547901186682 0.0012601593824606303 0.9983144084954189 -0.003221462264898489 8.268499775145087e-05 0.0006406510850513089 -8.033394989982312e-05 -0.00040418255024798525
 0.9983144084954189 -0.003221462264898489 0.001654675380551287 0.001260147378149491 -8.033696254155536e-05 -0.00040418487923640745 8.253685160706355e-05 0.0006407072968552087
 8.268499775145087e-05 0.0006406510850513089 -8.033696254155536e-05 -0.00040418487923640745 0.0016546527991628385 0.0012600933165841037 0.998314408133131 -0.00322152932146419
 -8.033394989982312e-05 -0.00040418255024798525 8.253685160706355e-05 0.0006407072968552087 0.998314408133131 -0.00322152932146419 0.0016546766537489759 0.0012600793366749604
0.006252605252188 0.001685256061795179 0.0015801479889977822 0.9982754516462964 -0.00402761566203197 8.939738029788221e-05 0.0008011292986287296 -8.629119684159614e-05 -0.0005057483269386587
 0.9982754516462964 -0.00402761566203197 0.0016852882484961844 0.001580132776214461 -8.629588463877269e-05 -0.0005057511988705226 8.91659131537971e-05 0.0008012023197305627
 8.939738029788221e-05 0.0008011292986287296 -8.629588463877269e-05 -0.0005057511988705226 0.0016852530374728803 0.0015800654100009998 0.9982754511681955 -0.004027699486559517
 -8.629119684159614e-05 -0.0005057483269386587 8.91659131537971e-05 0.0008012023197305627 0.9982754511681955 -0.004027699486559517 0.0016852903275742437 0.00158004771912592
0.01250521050438 0.0018462995902565609 0.0031933317755138985 0.9980690819263248 -0.008056028499482375 0.0001279185007908852 0.0016026447932435304 -0.00012005293892585289 -0.0010139404883037913
 0.9980690819263248 -0.008056028499482375 0.0018464281118979705 0.0031932992792781077 -0.00012007141198717808 -0.001013945801196435 0.00012699538353396113 0.0016028205427107288
 0.0001279185007908852 0.0016026447932435304 -0.00012007141198717808 -0.001013945801196435 0.001846288041606038 0.0031931669714100933 0.9980690805475209 -0.008056195899591143
 -0.00012005293892585289 -0.0010139404883037913 0.00012699538353396113 0.0016028205427107288 0.9980690805475209 -0.008056195899591143 0.001846436952150709 0.0031931294048290044
0.01875781575657 0.0020214260968199438 0.004829430815612625 0.9978426902882127 -0.012095041230121421 0.0001748604412076979 0.00240506685163574 -0.00016059727796138645 -0.0015238611973471448
 0.9978426902882127 -0.012095041230121421 0.002021714887601457 0.004829378850225234 -0.0001606384720775286 -0.0015238684371868467 0.00017278657333750922 0.0024053807963505002
 0.0001748604412076979 0.00240506685163574 -0.0001606384720775286 -0.0015238684371868467 0.0020214005647739538 0.0048291840416484185 0.9978426876116875 -0.012095292147757813
 -0.00016059727796138645 -0.0015238611973471448 0.00017278657333750922 0.0024053807963505002 0.9978426876116875 -0.012095292147757813 0.0020217351912591055 0.004829124211211509
0.02501042100875 0.0022109763324275095 0.006486160000380502 0.9975960105039413 -0.016146610601327594 0.00023031339968324795 0.0032084226868431824 -0.00020802440787166695 -0.0020352827589611754
 0.9975960105039413 -0.016146610601327594 0.0022114891976752946 0.006486086290215177 -0.0002080971516227317 -0.0020352913196494604 0.0002266294014888322 0.00320891586405162
 0.00023031339968324795 0.0032084226868431824 -0.0002080971516227317 -0.0020352913196494604 0.0022109313567728614 0.006485831565846051 0.9975960061222685 -0.016146945014542134
 -0.00020802440787166695 -0.0020352827589611754 0.0002266294014888322 0.00320891586405162 0.9975960061222685 -0.016146945014542134 0.0022115256588043984 0.006485746909806696
0.03126302626094 0.0024152769508910877 0.008162343209494318 0.9973287627288644 -0.020211573814153536 0.00029436812434911026 0.004012667109741038 -0.00026243174049292065 -0.002548044217422016
 0.9973287627288644 -0.020211573814153536 0.002416077604622192 0.008162245395328607 -0.00026254477352248004 -0.0025480533996715153 0.0002886139182068608 0.004013386161842625
 0.00029436812434911026 0.004012667109741038 -0.00026254477352248004 -0.0025480533996715153 0.002415207076013591 0.008161933485701087 0.9973287562307313 -0.020211991729483087
 -0.00026243174049292065 -0.002548044217422016 0.0002886139182068608 0.004013386161842625 0.9973287562307313 -0.020211991729483087 0.002416134918873358 0.00816182127486146
0.037515631513130004 0.0026346475387212793 0.009857213446116909 0.9970406607489034 -0.024290348327673152 0.0003671149648170494 0.004817726230428743 -0.00032391458940721576 -0.0030620076468176917
 0.9970406607489034 -0.024290348327673152 0.0026357996294039143 0.009857089088778633 -0.0003240765717071837 -0.0030620166578284942 0.0003588295893488324 0.0048187234626377645
 0.0003671149648170494 0.004817726230428743 -0.0003240765717071837 -0.0030620166578284942 0.002634547317452735 0.009856722872336202 0.9970406517225435 -0.024290849774888087
 -0.00032391458940721576 -0.0030620076468176917 0.0003588295893488324 0.0048187234626377645 0.9970406517225435 -0.024290849774888087 0.0026358825000691714 0.00985658021280754
0.043768236765320004 0.0028694033372238716 0.011570199878117022 0.9967314149239385 -0.02838314474698836 0.00044864342797847285 0.005623510756012175 -0.0003925664121240434 -0.003577044851859314
 0.9967314149239385 -0.02838314474698836 0.002870970468727996 0.011570046461218871 -0.00039278592951786013 -0.0035770528052174416 0.0004373649516701461 0.00562484420115797
 0.00044864342797847285 0.005623510756012175 -0.00039278592951786013 -0.0035770528052174416 0.0028692673261989108 0.011569628960931362 0.9967314029523202 -0.02838372978057829
 -0.0003925664121240434 -0.003577044851859314 0.0004373649516701461 0.00562484420115797 0.9967314029523202 -0.02838372978057829 0.0028710836032984285 0.011569452795788547
0.050020842017509996 0.003119856498172524 0.013300839791640888 0.9964007336695253 -0.0324900547973015 0.0005390419098833874 0.0064299214795474685 -0.00046847889657672354 -0.004093031881394709
 0.9964007336695253 -0.0324900547973015 0.003121902248776767 0.013300654723390402 -0.00046876446427471805 -0.004093037797043338 0.0005243073978173827 0.006431654965702841
 0.0005390419098833874 0.0064299214795474685 -0.00046876446427471805 -0.004093037797043338 0.003119679262631723 0.013300189110659342 0.9964007183339468 -0.03249072349148317
 -0.00046847889657672354 -0.004093031881394709 0.0005243073978173827 0.006431654965702841 0.9964007183339468 -0.03249072349148317 0.0031220503639816178 0.013299976220667043
0.055454545454549996 0.003350496656278465 0.014818845018013784 0.9960957261798566 -0.036070559883570226 0.0006248721485192075 0.007131142878235212 -0.000540415582464102 -0.004542116550597515
 0.9960957261798566 -0.036070559883570226 0.0033530099677348438 0.014818630281465779 -0.0005407654121631991 -0.004542119826771936 0.0006067574961293314 0.007133280401045175
 0.0006248721485192075 0.007131142878235212 -0.0005407654121631991 -0.004542119826771936 0.0033502791853036954 0.014818125547711962 0.9960957075755834 -0.036071301357170196
 -0.000540415582464102 -0.004542116550597515 0.0006067574961293314 0.007133280401045175 0.9960957075755834 -0.036071301357170196 0.003353192317206518 0.014817878002397096
0.056273447269699996 0.0033863167344726944 0.015048735409553069 0.9960483243372866 -0.03661109443376741 0.0006383975072055119 0.007236851975421983 -0.0005517419764828259 -0.004609846339177088
 0.9960483243372866 -0.03661109443376741 0.003388904674077207 0.015048516024196374 -0.0005521020413817521 -0.0046098491434324535 0.0006197430195772779 0.007239055194778795
 0.0006383975072055119 0.007236851975421983 -0.0005521020413817521 -0.0046098491434324535 0.003386092844322274 0.015048005618370195 0.9960483052123004 -0.036611846882385043
 -0.0005517419764828259 -0.004609846339177088 0.0006197430195772779 0.007239055194778795 0.9960483052123004 -0.036611846882385043 0.003389092492395491 0.01504775262217857
0.06252605252188 0.0036690916624855436 0.016813530128707527 0.9956738937913492 -0.04074622753552852 0.0007467958678021343 0.00804419008286143 -0.0006424438107589522 -0.005127365910477658
 0.9956738937913492 -0.04074622753552852 0.003672285369459244 0.01681327368733695 -0.0006428867530502093 -0.005127364436066765 0.0007237564796713982 0.008046938661031263
 0.0007467958678021343 0.00804419008286143 -0.0006428867530502093 -0.005127364436066765 0.0036688156960525647 0.01681272195586802 0.9956738704472011 -0.04074706385188023
 -0.0006424438107589522 -0.005127365910477658 0.0007237564796713982 0.008046938661031263 0.9956738704472011 -0.04074706385188023 0.0036725176226642953 0.016812425309624107
0.06877865777407 0.003968486984985719 0.018594894361950255 0.9952771488293175 -0.044895379998379045 0.0008643210627529109 0.00885181879323994 -0.0007406707427317026 -0.005645467489085538
 0.9952771488293175 -0.044895379998379045 0.003972350062596298 0.018594598052908192 -0.0007412048769614961 -0.005645460475193929 0.0008364308988054647 0.0088551943585022
 0.0008643210627529109 0.00885181879323994 -0.0007412048769614961 -0.005645460475193929 0.0039681535284806215 0.018594008620314247 0.9952771208301656 -0.044896300306707604
 -0.0007406707427317026 -0.005645467489085538 0.0008364308988054647 0.0088551943585022 0.9952771208301656 -0.044896300306707604 0.003972631490958921 0.018593664616717676
0.07503126302626001 0.0042848065744434515 0.02039251656972073 0.9948577965073919 -0.04905844864235725 0.0009910554719909646 0.009659616817360573 -0.0008465072459122944 -0.006164026628716785
 0.9948577965073919 -0.04905844864235725 0.004289402666970324 0.02039217750831337 -0.0008471408216607614 -0.006164012721052134 0.0009578477525081243 0.009663707069608613
 0.0009910554719909646 0.009659616817360573 -0.0008471408216607614 -0.006164012721052134 0.0042844102229973174 0.020391554141699585 0.9948577634104278 -0.04905945309323214
 -0.0008465072459122944 -0.006164026628716785 0.0009578477525081243 0.009663707069608613 0.9948577634104278 -0.04905945309323214 0.00428973802025141 0.02039115890855042
0.08128386827845 0.004618352496375682 0.022206097272935103 0.9944155444090585 -0.05323530714225539 0.0011270796772586621 0.010467458966494663 -0.0009600358620449245 -0.006682917185235459
 0.9944155444090585 -0.05323530714225539 0.004623745305170209 0.0222057125008487 -0.0009607770643384375 -0.006682894936102388 0.001088086772871064 0.010472357745639762
 0.0011270796772586621 0.010467458966494663 -0.0009607770643384375 -0.006682894936102388 0.004617887854945524 0.022205059125288033 0.994415505764668 -0.05323639589873323
 -0.0009600358620449245 -0.006682917185235459 0.001088086772871064 0.010472357745639762 0.994415505764668 -0.05323639589873323 0.0046241393430037974 0.02220460862349989
0.08753647353064001 0.004969424990596889 0.024035344934057686 0.9939501008761789 -0.05742581009541993 0.0012724723607093738 0.011275216421639651 -0.0010813371328328813 -0.0072020110754065
 0.9939501008761789 -0.05742581009541993 0.004975678290293867 0.02403491141807936 -0.0010821940823894812 -0.007201978943785003 0.0012272258543188372 0.0112810237753289
 0.0012724723607093738 0.011275216421639651 -0.0010821940823894812 -0.007201978943785003 0.004968886675147435 0.024034232110477397 0.9939500562267352 -0.05742698334099353
 -0.0010813371328328813 -0.0072020110754065 0.0012272258543188372 0.0112810237753289 0.9939500562267352 -0.05742698334099353 0.004976135782609563 0.024033722131661595
0.09378907878283 0.0053383224258808076 0.025879973004781842 0.993461175216255 -0.061629795927936624 0.0014273102066832708 0.012082756932757873 -0.0012104895278187398 -0.007721178110498113
 0.993461175216255 -0.061629795927936624 0.00534550008066651 0.025879487635054734 -0.0012114702810648804 -0.007721134462142542 0.001375340961352694 0.012089579183269434
 0.0014273102066832708 0.012082756932757873 -0.0012114702810648804 -0.007721134462142542 0.0053377050641876264 0.025878786632699814 0.993461124095411 -0.061631053860444346
 -0.0012104895278187398 -0.007721178110498113 0.001375340961352694 0.012089579183269434 0.993461124095411 -0.061631053860444346 0.005346025808054024 0.02587821279603308
0.100041684035 0.005725341233444114 0.027739697764788386 0.9929484778920181 -0.06584708901537621 0.0015916678059515721 0.012889944970631718 -0.0013475693690002824 -0.008240285882314029
 0.9929484778920181 -0.06584708901537621 0.005733507212924772 0.027739157352524788 -0.0013486819179444366 -0.008240228989868897 0.00153250603791252 0.012897894780827382
 0.0015916678059515721 0.012889944970631718 -0.0013486819179444366 -0.008240228989868897 0.00572463946607792 0.02773843905100297 0.9929484198242889 -0.06584843185203938
 -0.0013475693690002824 -0.008240285882314029 0.00153250603791252 0.012897894780827382 0.9929484198242889 -0.06584843185203938 0.005734105967330945 0.0277377967996801
0.1059090909091 0.006105260812356048 0.029498330803432362 0.992445489018033 -0.06981650669367327 0.001754622616270001 0.013646961260741197 -0.001483480220389823 -0.008727239604780302
 0.992445489018033 -0.06981650669367327 0.006114412518054593 0.02949773576657424 -0.0014847236567512804 -0.008727168630305737 0.0016882836573091386 0.01365607733688169
 0.001754622616270001 0.013646961260741197 -0.0014847236567512804 -0.008727168630305737 0.006104474977589188 0.029497005376732503 0.9924454239903779 -0.06981792941547102
 -0.001483480220389823 -0.008727239604780302 0.0016882836573091386 0.01365607733688169 0.9924454239903779 -0.06981792941547102 0.00611508416911582 0.029496294620691296
0.1062942892872 0.0061307758255834365 0.029614236698069653 0.9924117206998938 -0.0700775012717748 0.0017656175615769105 0.01369664184771778 -0.0014926507530222059 -0.00875919968536647
 0.9924117206998938 -0.0700775012717748 0.006139994221635825 0.02961363797263959 -0.0014939030251193682 -0.008759127728475757 0.0016987929177848281 0.013705838285929002
 0.0017656175615769105 0.01369664184771778 -0.0014939030251193682 -0.008759127728475757 0.006129984307359465 0.02961290693254307 0.9924116552001047 -0.07007892924607226
 -0.0014926507530222059 -0.00875919968536647 0.0016987929177848281 0.013705838285929002 0.9924116552001047 -0.07007892924607226 0.006140670806517192 0.02961219152956238
0.11254689453939999 0.006554918503115099 0.03150330725659765 0.991850616940267 -0.07432083335731965 0.0019492295958058626 0.014502705819952227 -0.0016458054718015128 -0.009277782463240873
 0.991850616940267 -0.07432083335731965 0.006565253546073768 0.03150264686205553 -0.0016472053296262426 -0.00927769352869207 0.001874271235542083 0.014513274423840417
 0.0019492295958058626 0.014502705819952227 -0.0016472053296262426 -0.00927769352869207 0.006554031904212864 0.031501907811814694 0.9918505435124518 -0.07432234672000534
 -0.0016458054718015128 -0.009277782463240873 0.001874271235542083 0.014513274423840417 0.9918505435124518 -0.07432234672000534 0.006566012777072827 0.03150111433525038
0.11879949979160001 0.0069980593539194875 0.033406625891047495 0.9912648815813223 -0.0785768756249303 0.002142571658080972 0.01530799217084889 -0.0018071029313979539 -0.00979589477815912
 0.9912648815813223 -0.0785768756249303 0.007009575429388765 0.03340590038203949 -0.0018086581722770868 -0.00979578686002638 0.0020590083382796952 0.015320065009956472
 0.002142571658080972 0.01530799217084889 -0.0018086581722770868 -0.00979578686002638 0.00699707236068172 0.03340515822430458 0.9912647997185076 -0.07857847464243531
 -0.0018071029313979539 -0.00979589477815912 0.0020590083382796952 0.015320065009956472 0.9912647997185076 -0.07857847464243531 0.007010422134285648 0.0334042815619568
0.1250521050438 0.007460486144065067 0.03532390729867135 0.9906542314193587 -0.08284540885638826 0.0023457090335276005 0.016112353289571633 -0.0019766100699898127 -0.010313394791947806
 0.9906542314193587 -0.08284540885638826 0.007473247809585767 0.035323113135717774 -0.0019783284255839068 -0.010313265791760524 0.0022530691974474016 0.016126069026595406
 0.0023457090335276005 0.016112353289571633 -0.0019783284255839068 -0.010313265791760524 0.007459393460513904 0.03532237294959107 0.9906541406021999 -0.08284709381368445
 -0.0019766100699898127 -0.010313394791947806 0.0022530691974474016 0.016126069026595406 0.9906541406021999 -0.08284709381368445 0.007474186828884046 0.0353214077929348
0.131304710296 0.007942484203214367 0.037254863810062475 0.9900183852349543 -0.08712620486578827 0.002558704452193737 0.016915638739579325 -0.0021543912749674306 -0.010830138261926397
 0.9900183852349543 -0.08712620486578827 0.007956556204958767 0.03725399735424336 -0.002156280410785219 -0.010829985988835356 0.002456516321169996 0.01693114269035982
 0.002558704452193737 0.016915638739579325 -0.002156280410785219 -0.010829985988835356 0.007941280552357226 0.037253264404371565 0.9900182849316528 -0.08712797606308596
 -0.0021543912749674306 -0.010830138261926397 0.002456516321169996 0.01693114269035982 0.9900182849316528 -0.08712797606308596 0.007957592392292148 0.03725220524205738
0.1375573155481 0.008333722818317313 0.03894807601320058 0.9894677179580741 -0.09116779138430268 0.0027551467682224344 0.017692843727573328 -0.002314159682552081 -0.01132105288821162
 0.9894677179580741 -0.09116779138430268 0.008349175805036383 0.03894715240742442 -0.002316231000443047 -0.011320877154118022 0.0026431818798451495 0.017710113728662137
 0.0027551467682224344 0.017692843727573328 -0.002316231000443047 -0.011320877154118022 0.008332403484412425 0.038946413019602 0.9894676077296377 -0.0911696489922519
 -0.002314159682552081 -0.01132105288821162 0.0026431818798451495 0.017710113728662137 0.9894676077296377 -0.0911696489922519 0.008350313291444714 0.03894527322444635
0.1438099208003 0.008738732003554898 0.04063237859834469 0.9888976716071147 -0.09519912643706605 0.002959530335195238 0.018466800554886104 -0.0024803111037078216 -0.011809042778351214
 0.9888976716071147 -0.09519912643706605 0.00875563188820418 0.04063139517630459 -0.002482572846847699 -0.011808841426236828 0.0028373605538764605 0.018485969432814543
 0.002959530335195238 0.018466800554886104 -0.002482572846847699 -0.011808841426236828 0.008737291836670692 0.040630653694008076 0.9888975509227173 -0.09520107074786004
 -0.0024803111037078216 -0.011809042778351214 0.0028373605538764605 0.018485969432814543 0.9888975509227173 -0.09520107074786004 0.008756875416074634 0.04062942868031638
0.1500625260525 0.009157368944004703 0.04230763072434011 0.9883083929995191 -0.09922010950712194 0.003171784599934136 0.019237426905010735 -0.00265277807641898 -0.012294032281650175
 0.9883083929995191 -0.09922010950712194 0.009175781853787852 0.04230658461418469 -0.002655238469465445 -0.012293803067862503 0.0030389843945199755 0.019258632319345714
 0.003171784599934136 0.019237426905010735 -0.002655238469465445 -0.012293803067862503 0.009155802818580068 0.04230584565375149 0.9883082613177587 -0.0992221408237579
 -0.00265277807641898 -0.012294032281650175 0.0030389843945199755 0.019258632319345714 0.9883082613177587 -0.0992221408237579 0.009177136170102703 0.04230453055217871
0.15631513130469998 0.009589489811394035 0.04397369580521163 0.9877000296965871 -0.10323064044221714 0.003391838166518688 0.02000464185576344 -0.002831492305431129 -0.012775947351020686
 0.9877000296965871 -0.10323064044221714 0.009609482094173106 0.0439725839207836 -0.0028341595542163674 -0.012775687945654224 0.003247984650504243 0.02002802624759262
