! Created with skrf 1.8.0 (http://scikit-rf.org).
# GHz S RI R 50.0 
!freq ReS11 ImS11 ReS12 ImS12 ReS13 ImS13
! ReS14 ImS14
! ReS21 ImS21 ReS22 ImS22 ReS23 ImS23
! ReS24 ImS24
! ReS31 ImS31 ReS32 ImS32 ReS33 ImS33
! ReS34 ImS34
! ReS41 ImS41 ReS42 ImS42 ReS43 ImS43
! ReS44 ImS44
!
0.0 0.001140261639852 0.0 0.9988597383495 0.0 4.321151602816e-05 0.0 -4.321151607211e-05 5.291884484401392e-21
 0.9988597383495 0.0 0.00114026163985 0.0 -4.321151607264e-05 5.291884484466299e-21 4.321151602776e-05 0.0
 4.321151602816e-05 0.0 -4.321151607264e-05 5.291884484466299e-21 0.001140261642357 0.0 0.998859738352 0.0
 -4.321151607211e-05 5.291884484401392e-21 4.321151602776e-05 0.0 0.998859738352 0.0 0.001140261642329 0.0
0.005 0.0012259174378474178 0.0009350494024752913 0.9987515098466473 -0.002389640395855802 5.978507215327609e-05 0.00046611259759264743 -5.8209651738654294e-05 -0.0002944684309900621
 0.9987515098466473 -0.002389640395855802 0.0012259248239799658 0.0009350450779251489 -5.820880678231246e-05 -0.00029446774809630764 5.9756741715884046e-05 0.00046612357035286187
 5.978507215327609e-05 0.00046611259759264743 -5.820880678231246e-05 -0.00029446774809630764 0.0012259183699459936 0.0009351160784192792 0.9987515101710112 -0.0023895733291269617
 -5.8209651738654294e-05 -0.0002944684309900621 5.9756741715884046e-05 0.00046612357035286187 0.9987515101710112 -0.0023895733291269617 0.0012259245357935315 0.0009351125308129799
0.006252605252188 0.0012481244338420465 0.001172518806959196 0.9987233152364692 -0.0029876738363756425 6.437750318453298e-05 0.0005828871538640138 -6.232646672221605e-05 -0.00036847845907914546
 0.9987233152364692 -0.0029876738363756425 0.0012481359792975628 0.001172513259130724 -6.232515212746886e-05 -0.0003684776159403404 6.433324105585583e-05 0.0005829013507317734
 6.437750318453298e-05 0.0005828871538640138 -6.232515212746886e-05 -0.0003684776159403404 0.0012481258173463081 0.0011726021277140579 0.9987233156697993 -0.002987590021093037
 -6.232646672221605e-05 -0.00036847845907914546 6.433324105585583e-05 0.0005829013507317734 0.9987233156697993 -0.002987590021093037 0.0012481354547609084 0.0011725975587019162
0.01250521050438 0.0013635250081196928 0.0023699208040155587 0.9985760288741881 -0.005976349199950177 8.996108750925866e-05 0.0011662354167800476 -8.50526999867579e-05 -0.0007388911491426633
 0.9985760288741881 -0.005976349199950177 0.001363571109852312 0.0023699082653970732 -8.504752201774742e-05 -0.0007388895751825294 8.978463806317362e-05 0.0011662689322337646
 8.996108750925866e-05 0.0011662354167800476 -8.504752201774742e-05 -0.0007388895751825294 0.0013635299663986786 0.0023700871420101882 0.9985760300349852 -0.005976181793119594
 -8.50526999867579e-05 -0.0007388911491426633 8.978463806317362e-05 0.0011662689322337646 0.9985760300349852 -0.005976181793119594 0.0013635684385444541 0.0023700766464008808
0.01875781575657 0.0014866608913964648 0.003584747452459386 0.9984177353844922 -0.008973350517405661 0.0001200128581888316 0.001750455188840144 -0.00011144819105835392 -0.0011107492619417162
 0.9984177353844922 -0.008973350517405661 0.0014867644889294913 0.003584726374329754 -0.00011143664735010101 -0.0011107470848204866 0.00011961661614881486 0.001750513980442828
 0.0001200128581888316 0.001750455188840144 -0.00011143664735010101 -0.0011107470848204866 0.0014866716272235478 0.0035849965922554517 0.998417737581466 -0.00897309960337815
 -0.00011144819105835392 -0.0011107492619417162 0.00011961661614881486 0.001750513980442828 0.998417737581466 -0.00897309960337815 0.0014867580597000786 0.003584978734894052
0.02501042100875 0.0016177264597991767 0.004815355082130025 0.9982482868587322 -0.011980182975767676 0.0001545841353304185 0.002335600523822344 -0.00014156984700081348 -0.001483918025311412
 0.9982482868587322 -0.011980182975767676 0.0016179104475746399 0.00481532381389155 -0.00014154946571022568 -0.0014839153907164628 0.0001538805285552136 0.0023356913333402226
 0.0001545841353304185 0.002335600523822344 -0.00014154946571022568 -0.0014839153907164628 0.0016177451635037638 0.0048156868163170925 0.9982482903897917 -0.011979848580187094
 -0.00014156984700081348 -0.001483918025311412 0.0001538805285552136 0.0023356913333402226 0.9982482903897917 -0.011979848580187094 0.001617898631919196 0.004815660086804365
0.03126302626094 0.0017569075905970206 0.006060924550223727 0.9980675260800624 -0.014997522839007614 0.0001937269113132719 0.0029216739090970408 -0.00017547341569132153 -0.0018583118939735238
 0.9980675260800624 -0.014997522839007614 0.0017571948271525497 0.006060881339389677 -0.000175441750130959 -0.0018583089659734028 0.00019262830728053454 0.002921804263359645
 0.0001937269113132719 0.0029216739090970408 -0.000175441750130959 -0.0018583089659734028 0.0017569364561372002 0.006061338643596535 0.9980675312477679 -0.014997104964392223
 -0.00017547341569132153 -0.0018583118939735238 0.00019262830728053454 0.002921804263359645 0.9980675312477679 -0.014997104964392223 0.0017571759935953713 0.006061301456333475
0.037515631513130004 0.001904386286173875 0.007320942005981013 0.9978752912151455 -0.018025736643633473 0.00023749336791725845 0.003508657921262389 -0.00021321389640484973 -0.0022338628810537556
 0.9978752912151455 -0.018025736643633473 0.0019047995996625267 0.007320884997667268 -0.0002131685222076155 -0.002233859842196051 0.0002359120282095007 0.0035088361384195527
 0.00023749336791725845 0.003508657921262389 -0.0002131685222076155 -0.002233859842196051 0.0019044275079603233 0.007321438191435752 0.9978752983243183 -0.018025235273089243
 -0.00021321389640484973 -0.0022338628810537556 0.0002359120282095007 0.0035088361384195527 0.9978752983243183 -0.018025235273089243 0.001904772110000319 0.007321388885451993
0.043768236765320004 0.0020603424633691145 0.008595040892628324 0.9976714176733699 -0.02106503915213958 0.0002859356602464053 0.0040965248525150315 -0.0002548456977533055 -0.0026105109192227052
 0.9976714176733699 -0.02106503915213958 0.0020609046549848577 0.008594968129044612 -0.0002547842111652663 -0.002610507970566898 0.00028378371497396866 0.004096760049963945
 0.0002859356602464053 0.0040965248525150315 -0.0002547842111652663 -0.002610507970566898 0.0020603982354207837 0.008595618869739 0.9976714270307667 -0.021064454250415737
 -0.0002548456977533055 -0.0026105109192227052 0.00028378371497396866 0.004096760049963945 0.9976714270307667 -0.021064454250415737 0.002060866863109172 0.0085955557085361
0.050020842017509996 0.002224954796647442 0.009882936636877424 0.9974557390203913 -0.024115558617186773 0.00033910579402275025 0.00468524068071729 -0.00030042270633365054 -0.0029881998784533712
 0.9974557390203913 -0.024115558617186773 0.0022256886431116533 0.009882846056782623 -0.00030034272307021985 -0.00298819723958617 0.0003362952270504119 0.004685542783746297
 0.00033910579402275025 0.00468524068071729 -0.00030034272307021985 -0.00298819723958617 0.002225027312768964 0.009883596072630589 0.9974557509353019 -0.024114890129465005
 -0.00030042270633365054 -0.0029881998784533712 0.0003362952270504119 0.004685542783746297 0.9974557509353019 -0.024114890129465005 0.002225638895015812 0.009883517244020574
0.055454545454549996 0.0023751759234267407 0.011013178682259546 0.997258590278076 -0.02677572028036598 0.0003891920552218805 0.005197512252757609 -0.00034327597795747 -0.0033172263019273333
 0.997258590278076 -0.02677572028036598 0.002376077423194436 0.011013070864303124 -0.00034317799869899884 -0.0033172241249963905 0.00038573752628719886 0.005197881193529365
 0.0003891920552218805 0.005197512252757609 -0.00034317799869899884 -0.0033172241249963905 0.00237526477157163 0.011013908606855354 0.9972586046686257 -0.02677497909935958
 -0.00034327597795747 -0.0033172263019273333 0.00038573752628719886 0.005197881193529365 0.9972586046686257 -0.02677497909935958 0.0023760159348075096 0.011013814632128013
0.056273447269699996 0.002398401163177908 0.011184394616587972 0.9972280874963175 -0.027177368767033926 0.0003970555451213015 0.005274767012889578 -0.00034999831460796264 -0.003366875610869937
 0.9972280874963175 -0.027177368767033926 0.0023993294188194795 0.011184284054691502 -0.00034989746904358745 -0.0033668735199051947 0.00039349818575333333 0.005275146763682937
 0.0003970555451213015 0.005274767012889578 -0.00034989746904358745 -0.0033668735199051947 0.002398492616095519 0.011185135138904883 0.9972281022803713 -0.027176616625075513
 -0.00034999831460796264 -0.003366875610869937 0.00039349818575333333 0.005275146763682937 0.9972281022803713 -0.027176616625075513 0.0023992660516921676 0.011185038754790192
0.06252605252188 0.002580858896035232 0.01249921252324632 0.9969882943422496 -0.030250506396301922 0.0004598363984984741 0.005865062153723552 -0.0004036254298421549 -0.00374648487127545
 0.9969882943422496 -0.030250506396301922 0.0025820042945368686 0.012499079709551329 -0.0004035013744383004 -0.0037464835848314525 0.0004554439171778482 0.005865531120556726
 0.0004598363984984741 0.005865062153723552 -0.0004035013744383004 -0.0037464835848314525 0.0025809714777413257 0.012500033721654103 0.9969883123106439 -0.030249670517316782
 -0.0004036254298421549 -0.00374648487127545 0.0004554439171778482 0.005865531120556726 0.9969883123106439 -0.030249670517316782 0.0025819256369556355 0.01249991781787413
0.06877865777407 0.002772504934211367 0.013827209863973332 0.996736190026348 -0.03333498181760595 0.0005274994994547317 0.006456081736190014 -0.00046135647044716815 -0.004126974676357298
 0.996736190026348 -0.03333498181760595 0.002773890190054778 0.013827052423159012 -0.0004612068752998668 -0.004126974469555418 0.000522183406479355 0.0064566523227432265
 0.0005274994994547317 0.006456081736190014 -0.0004612068752998668 -0.004126974469555418 0.0027726408348798036 0.013828111293405828 0.9967362114975952 -0.03333406210000797
 -0.00046135647044716815 -0.004126974676357298 0.000522183406479355 0.0064566523227432265 0.9967362114975952 -0.03333406210000797 0.0027737945611864606 0.013827973829467294
0.07503126302626001 0.002973515909269341 0.015168221305922762 0.9964716044073105 -0.036430785471300096 0.0006000956111361257 0.0070477791224451925 -0.0005232433558021671 -0.004508291894508797
 0.9964716044073105 -0.036430785471300096 0.0029751637189804427 0.015168036756637903 -0.0005230659083038479 -0.0045082930609506465 0.0005937672573135915 0.007048464577174246
 0.0006000956111361257 0.0070477791224451925 -0.0005230659083038479 -0.0045082930609506465 0.002973677317691853 0.015169202476982165 0.9964716297042501 -0.03642978180412352
 -0.0005232433558021671 -0.004508291894508797 0.0005937672573135915 0.007048464577174246 0.9964716297042501 -0.03642978180412352 0.0029750494290484457 0.015169041335820184
0.08128386827845 0.003184068197340788 0.016522092232910134 0.9961943668652957 -0.03953789232403462 0.0006776750762461959 0.007640105666785485 -0.0005893374911743737 -0.004890382974560163
 0.9961943668652957 -0.03953789232403462 0.0031860012407899704 0.01652187798707937 -0.0005891298957929384 -0.004890385826311419 0.0006702456553108496 0.007640920092306232
 0.0006776750762461959 0.007640105666785485 -0.0005891298957929384 -0.004890385826311419 0.003184257299484038 0.016523152618765455 0.996194396314626 -0.0395368045795519
 -0.0005893374911743737 -0.004890382974560163 0.0006702456553108496 0.007640920092306232 0.996194396314626 -0.0395368045795519 0.0031858665895472685 0.016522965606481706
0.08753647353064001 0.003404337942800217 0.01788867568549397 0.9959043064052651 -0.04265626488448579 0.0007602877815327727 0.008233010898028269 -0.0006596897494074438 -0.005273193756083845
 0.9959043064052651 -0.04265626488448579 0.0034065788841466343 0.017888429047598183 -0.0006594497274412131 -0.005273198623656192 0.0007516683337507732 0.008233969260517834
 0.0007602877815327727 0.008233010898028269 -0.0006594497274412131 -0.005273198623656192 0.0034045569221326545 0.017889814717751768 0.9959043403388093 -0.04265509292207287
 -0.0006596897494074438 -0.005273193756083845 0.0007516683337507732 0.008233969260517834 0.9959043403388093 -0.04265509292207287 0.0034064221617261586 0.017889599563331308
0.09378907878283 0.003634501067691276 0.019267830164350234 0.99560125174855 -0.04578585535709163 0.0008479831238774473 0.00882644264712783 -0.0007343504502626331 -0.0056566693355564095
 0.99560125174855 -0.04578585535709163 0.0036370725564865577 0.01926754833066884 -0.0007340757397150127 -0.005656676567882099 0.0008380845407048405 0.008827560785684503
 0.0008479831238774473 0.00882644264712783 -0.0007340757397150127 -0.005656676567882099 0.0036347521042131036 0.019269047234875557 0.9956012905030425 -0.04578459902098386
 -0.0007343504502626331 -0.0056566693355564095 0.0008380845407048405 0.008827560785684503 0.9956012905030425 -0.04578459902098386 0.0036368920424476193 0.019268801589846448
0.100041684035 0.0038747332670914783 0.02065941802138182 0.9952850314110127 -0.04892660720901118 0.0009408099773473907 0.009420347142572913 -0.0008133693381568895 -0.006040753965827997
 0.9952850314110127 -0.04892660720901118 0.003877657939341766 0.020659098079181377 -0.0008130576936315639 -0.006040763930238742 0.0009295430069577384 0.009421641778567025
 0.0009408099773473907 0.009420347142572913 -0.0008130576936315639 -0.006040763930238742 0.0038750185366440626 0.020660712479941713 0.9952850753285153 -0.048925266330265595
 -0.0008133693381568895 -0.006040753965827997 0.0009295430069577384 0.009421641778567025 0.9952850753285153 -0.048925266330265595 0.00387745190204127 0.020660433918039074
0.1059090909091 0.004109479716426265 0.021976463356160436 0.9949761652489513 -0.05188396385079847 0.0010326282360812614 0.009978044234197427 -0.0008915276925834429 -0.006401680115281246
 0.9949761652489513 -0.05188396385079847 0.004112756389701279 0.021976104906276918 -0.0008911793619773053 -0.006401692993916989 0.0010199958836544308 0.009979520496294634
 0.0010326282360812614 0.009978044234197427 -0.0008911793619773053 -0.006401692993916989 0.004109799085052188 0.021977829807447252 0.9949762143277642 -0.05188254347106743
 -0.0008915276925834429 -0.006401680115281246 0.0010199958836544308 0.009979520496294634 0.9949762143277642 -0.05188254347106743 0.00411252481680286 0.021977518080249024
0.1062942892872 0.0041252099963471 0.022063304249433667 0.9949554737751881 -0.05207845633950628 0.001038816661236864 0.010014669080389456 -0.0008967955583242306 -0.006425390982152775
 0.9949554737751881 -0.05207845633950628 0.004128510475368424 0.022062943176195185 -0.0008964447509375708 -0.006425404064353527 0.0010260919146846247 0.01001615782675477
 0.001038816661236864 0.010014669080389456 -0.0008964447509375708 -0.006425404064353527 0.004125531670485917 0.022064675405289065 0.9949555232037732 -0.052077030734222464
 -0.0008967955583242306 -0.006425390982152775 0.0010260919146846247 0.01001615782675477 0.9949555232037732 -0.052077030734222464 0.00412827717215044 0.022064361422063195
0.11254689453939999 0.004386106451640802 0.023479355551464763 0.9946124071571182 -0.055241331971521916 0.0011420509083541744 0.010609351676953776 -0.0009846776319082508 -0.006810522746606018
 0.9946124071571182 -0.055241331971521916 0.00438980534889828 0.023478950213994636 -0.0009842854492121045 -0.006810539350651033 0.0011277788665383214 0.010611053047422945
 0.0011420509083541744 0.010609351676953776 -0.0009842854492121045 -0.006810539350651033 0.004386466696907294 0.02348080267239479 0.9946124624511555 -0.05523982144131497
 -0.0009846776319082508 -0.006810522746606018 0.0011277788665383214 0.010611053047422945 0.9946124624511555 -0.05523982144131497 0.004389543025729648 0.023480450684849677
0.11879949979160001 0.004657597544869761 0.02490743961445093 0.9942556598683651 -0.05841515733928413 0.0012505598337505643 0.011204336712527971 -0.0010770634301183132 -0.007196090603023031
 0.9942556598683651 -0.05841515733928413 0.0046617174609956 0.02490698676805211 -0.0010766276760720173 -0.007196111151284008 0.0012346508548080506 0.011206270130822352
 0.0012505598337505643 0.011204336712527971 -0.0010766276760720173 -0.007196111151284008 0.004657998522105913 0.02490896192374225 0.9942557213889617 -0.05841356167417356
 -0.0010770634301183132 -0.007196090603023031 0.0012346508548080506 0.011206270130822352 0.9942557213889617 -0.05841356167417356 0.004661424351911576 0.024908569269813795
0.1250521050438 0.004939857874854874 0.026347424533320018 0.9938850602768028 -0.06159985022777836 0.0013643899035288194 0.011799564563831947 -0.0011740001475374555 -0.007582034844115654
 0.9938850602768028 -0.06159985022777836 0.004944421400541608 0.026346920820811037 -0.0011735186425039423 -0.007582059777254356 0.0013467542308171578 0.011801750372756869
 0.0013643899035288194 0.011799564563831947 -0.0011735186425039423 -0.007582059777254356 0.004940301738674852 0.02634902121398868 0.9938851283919633 -0.061598169201561276
 -0.0011740001475374555 -0.007582034844115654 0.0013467542308171578 0.011801750372756869 0.9938851283919633 -0.061598169201561276 0.0049440957272640145 0.026348585152142397
0.131304710296 0.005233061694540378 0.027799178348658193 0.9935004368639504 -0.06479532339943161 0.0014835869036132338 0.012394974232418561 -0.0012755342749916367 -0.007968294684196903
 0.9935004368639504 -0.06479532339943161 0.005238091411220067 0.027798620299474604 -0.0012750048556917077 -0.007968324461133896 0.0014641346740781236 0.012397433702878304
 0.0014835869036132338 0.012394974232418561 -0.0012750048556917077 -0.007968324461133896 0.005233550592709123 0.027800848539784196 0.9935005119493864 -0.06479355677316262
 -0.0012755342749916367 -0.007968294684196903 0.0014641346740781236 0.012397433702878304 0.9935005119493864 -0.06479355677316262 0.005237731383109285 0.0278003662484613
0.1375573155481 0.005461655805842165 0.029072931871239174 0.9931773620793775 -0.0678118077232606 0.0015908835888390174 0.012970854028404706 -0.0013644197409465562 -0.008335150423090945
 0.9931773620793775 -0.0678118077232606 0.0054671749306568485 0.02907233002114051 -0.0013638391403647426 -0.008335184960984655 0.0015695622745891052 0.01297357959754967
 0.0015908835888390174 0.012970854028404706 -0.0013638391403647426 -0.008335184960984655 0.0054621913336026775 0.029074674947597922 0.9931774444484821 -0.06780995535287533
 -0.0013644197409465562 -0.008335150423090945 0.0015695622745891052 0.01297357959754967 0.9931774444484821 -0.06780995535287533 0.005466779417273996 0.029074157286975738
0.1438099208003 0.005697975190827604 0.03034131398440379 0.9928434901765084 -0.07082199650152407 0.0017025040989604213 0.013545169763430025 -0.0014568647007106434 -0.008700576786186355
 0.9928434901765084 -0.07082199650152407 0.00570400636901758 0.030340665941417228 -0.0014562305801220565 -0.008700616525955626 0.0016792304627357647 0.013548180563856994
 0.0017025040989604213 0.013545169763430025 -0.0014562305801220565 -0.008700616525955626 0.005698559385642827 0.03034312906817566 0.9928435802033332 -0.07082005815079566
 -0.0014568647007106434 -0.008700576786186355 0.0016792304627357647 0.013548180563856994 0.9928435802033332 -0.07082005815079566 0.005703573681182528 0.030342574279861673
0.1500625260525 0.0059419522242819805 0.03160425852079979 0.9924988913091278 -0.07382585541044238 0.0018184188204324572 0.014117888444291425 -0.0015528404549291174 -0.009064541756829617
 0.9924988913091278 -0.07382585541044238 0.0059485180939739144 0.031603561784998735 -0.0015521504779744055 -0.009064587156887086 0.0017931099601928755 0.014121204303059864
 0.0018184188204324572 0.014117888444291425 -0.0015521504779744055 -0.009064587156887086 0.005942587110655323 0.031606144700768904 0.9924989893741275 -0.07382383083178233
 -0.0015528404549291174 -0.009064541756829617 0.0017931099601928755 0.014121204303059864 0.9924989893741275 -0.07382383083178233 0.005948046538278573 0.03160555094289815
0.15631513130469998 0.006193518978683978 0.03286170157303661 0.9921436357903343 -0.07682334952186547 0.0019385978956564368 0.014688977495452402 -0.0016523180482158925 -0.009427013905928957
