! Created with skrf 1.8.0 (http://scikit-rf.org).
# GHz S RI R 50.0 
!freq ReS11 ImS11 ReS12 ImS12 ReS13 ImS13
! ReS14 ImS14
! ReS21 ImS21 ReS22 ImS22 ReS23 ImS23
! ReS24 ImS24
! ReS31 ImS31 ReS32 ImS32 ReS33 ImS33
! ReS34 ImS34
! ReS41 ImS41 ReS42 ImS42 ReS43 ImS43
! ReS44 ImS44
!
0.0 0.001178870960422 0.0 0.9988211290225 0.0 4.502817427009e-05 0.0 -4.502817370415e-05 5.5143608798238316e-21
 0.9988211290225 0.0 0.001178870960416 0.0 -4.502817370425e-05 5.5143608798360785e-21 4.502817427075e-05 0.0
 4.502817427009e-05 0.0 -4.502817370425e-05 5.5143608798360785e-21 0.001178870960957 0.0 0.9988211290231 0.0
 -4.502817370415e-05 5.5143608798238316e-21 4.502817427075e-05 0.0 0.9988211290231 0.0 0.001178870960952 0.0
0.005 0.0012675794336273842 0.000961793747010256 0.9987090204580545 -0.002470632163334485 6.307007664896568e-05 0.0005155206845093812 -6.123508316380846e-05 -0.0003203454157687282
 0.9987090204580545 -0.002470632163334485 0.0012675777098763493 0.0009617947716182361 -6.123552820076602e-05 -0.00032034580165915376 6.308597808894047e-05 0.0005155147764640766
 6.307007664896568e-05 0.0005155206845093812 -6.123552820076602e-05 -0.00032034580165915376 0.0012675786655611198 0.0009617269800464476 0.9987090201344442 -0.0024706992285019958
 -6.123508316380846e-05 -0.0003203454157687282 6.308597808894047e-05 0.0005155147764640766 0.9987090201344442 -0.0024706992285019958 0.0012675778345144222 0.0009617274117246242
0.006252605252188 0.0012906063561360305 0.001206074310236038 0.9986797739859027 -0.0030889329948248297 6.808389895925964e-05 0.0006446573403450994 -6.570114059967155e-05 -0.00040086460858938106
 0.9986797739859027 -0.0030889329948248297 0.0012906036610732623 0.0012060755753658394 -6.570183278430858e-05 -0.0004008650855086319 6.81087455796324e-05 0.0006446496555433811
 6.808389895925964e-05 0.0006446573403450994 -6.570183278430858e-05 -0.0004008650855086319 0.0012906052209220008 0.001205990865238578 0.99867977354573 -0.0030890168185731893
 -6.570114059967155e-05 -0.00040086460858938106 6.81087455796324e-05 0.0006446496555433811 0.99867977354573 -0.0030890168185731893 0.001290603921936481 0.0012059913806039594
0.01250521050438 0.0014104356378869705 0.0024378868178864606 0.9985267545537687 -0.006178888778702693 9.609422932137274e-05 0.0012896964425188552 -9.045177321682954e-05 -0.0008038453362096815
 0.9985267545537687 -0.006178888778702693 0.0014104248705727694 0.002437889187280503 -9.045449701918766e-05 -0.000803846231880801 9.619337123882911e-05 0.0012896779038907658
 9.609422932137274e-05 0.0012896964425188552 -9.045449701918766e-05 -0.000803846231880801 0.0014104316722423744 0.0024377202509477743 0.9985267533677838 -0.0061790561780491774
 -9.045177321682954e-05 -0.0008038453362096815 9.619337123882911e-05 0.0012896779038907658 0.9985267533677838 -0.0061790561780491774 0.0014104264911404501 0.0024377210274909972
0.01875781575657 0.001538570122889016 0.003687714386505299 0.9983619167036432 -0.009277440819726453 0.00012911561121963912 0.0019356025890612761 -0.00011934548786052046 -0.0012083657854052771
 0.9983619167036432 -0.009277440819726453 0.0015385459181963697 0.003687717692002889 -0.00011935155661979053 -0.0012083670343200404 0.000129338462571551 0.0019355695472101741
 0.00012911561121963912 0.0019356025890612761 -0.00011935155661979053 -0.0012083670343200404 0.0015385616268666121 0.0036874648864937357 0.9983619144614796 -0.009277691720461044
 -0.00011934548786052046 -0.0012083657854052771 0.000129338462571551 0.0019355695472101741 0.9983619144614796 -0.009277691720461044 0.001538549997697538 0.0036874656399659977
0.02501042100875 0.001675217435160995 0.004953850744250693 0.998185101881234 -0.012386140853553426 0.00016720522807429184 0.002582440573154524 -0.00015244624186775834 -0.001614267317273562
 0.998185101881234 -0.012386140853553426 0.001675174431621946 0.004953854806300318 -0.0001524569516450516 -0.0016142688450848804 0.00016760130926021043 0.0025823889136646063
 0.00016720522807429184 0.002582440573154524 -0.0001524569516450516 -0.0016142688450848804 0.0016752027043587321 0.004953518504573552 0.9981850982689254 -0.012386475216285048
 -0.00015244624186775834 -0.001614267317273562 0.00016760130926021043 0.0025823889136646063 0.9981850982689254 -0.012386475216285048 0.001675182073162031 0.00495351891762193
0.03126302626094 0.001820576205253178 0.006235442620045881 0.9979961417909751 -0.015505682717740171 0.00021042096447006667 0.0032302143499148774 -0.00018981656277848293 -0.0020214494057158843
 0.9979961417909751 -0.015505682717740171 0.00182050904166767 0.006235447246585522 -0.00018983319535532706 -0.002021451129082807 0.00021103994777947247 0.0032301394892443316
 0.00021042096447006667 0.0032302143499148774 -0.00018983319535532706 -0.002021451129082807 0.0018205535365725606 0.006235027847987905 0.9979961364970774 -0.015506100528864584
 -0.00018981656277848293 -0.0020214494057158843 0.00021103994777947247 0.0032301394892443316 0.9979961364970774 -0.015506100528864584 0.001820521359071553 0.006235027568768945
0.037515631513130004 0.0019748409272578745 0.007531952469973864 0.9977948633354207 -0.018636439582492836 0.00025882086618534176 0.0038789043998663734 -0.00023151804395508548 -0.002429832264416516
 0.9977948633354207 -0.018636439582492836 0.001974744240215284 0.007531957455731659 -0.00023154186843812253 -0.0024298340909605196 0.0002597125977926377 0.0038788012793581996
 0.00025882086618534176 0.0038789043998663734 -0.00023154186843812253 -0.0024298340909605196 0.001974808616360579 0.007531455397566383 0.9977948560477884 -0.018636940843631045
 -0.00023151804395508548 -0.002429832264416516 0.0002597125977926377 0.0038788012793581996 0.9977948560477884 -0.018636940843631045 0.001974762355729726 0.007531454038795629
0.043768236765320004 0.002138203832210354 0.008842994975041974 0.9975810905705947 -0.0217786274052083 0.00031246289477377656 0.004528479090568713 -0.0002776115376739964 -0.002839345473563694
 0.9975810905705947 -0.0217786274052083 0.002138072254065413 0.008843000101029017 -0.0002776438114435198 -0.002839347301877335 0.000313677406913018 0.004528342169851607
 0.00031246289477377656 0.004528479090568713 -0.0002776438114435198 -0.002839347301877335 0.0021381601717737216 0.008842415857845681 0.9975810809742925 -0.021779212134767408
 -0.0002776115376739964 -0.002839345473563694 0.000313677406913018 0.004528342169851607 0.9975810809742925 -0.021779212134767408 0.0021380972969831315 0.008842412995932457
0.050020842017509996 0.0023108557688949253 0.010168269481348089 0.9973546456696152 -0.024932372440798493 0.00037140478915180807 0.0051788993658816 -0.0003281572379778043 -0.0032499232787005076
 0.9973546456696152 -0.024932372440798493 0.0023106839261766024 0.010168274514417359 -0.0003281992073647703 -0.0032499249983546116 0.0003729923067535767 0.005178722616039869
 0.00037140478915180807 0.0051788993658816 -0.0003281992073647703 -0.0032499249983546116 0.002310799050133296 0.010167608599352949 0.9973546334480755 -0.024933040673465166
 -0.0003281572379778043 -0.0032499232787005076 0.0003729923067535767 0.005178722616039869 0.9973546334480755 -0.024933040673465166 0.002310717034305321 0.010167603773604502
0.055454545454549996 0.002468586893812958 0.011331336869959033 0.9971474277489433 -0.02768251347902149 0.00042697582805394037 0.005744786798933707 -0.00037574499970659427 -0.0036075431451600623
 0.9971474277489433 -0.02768251347902149 0.0024683756898864293 0.011331341621710685 -0.00037579639878808043 -0.003607544673725986 0.0004289284399825682 0.0057445701554659665
 0.00042697582805394037 0.005744786798933707 -0.00037579639878808043 -0.003607544673725986 0.0024685174386914074 0.011330605187400136 0.9971474129878639 -0.027683254310308478
 -0.00037574499970659427 -0.0036075431451600623 0.0004289284399825682 0.0057445701554659665 0.9971474129878639 -0.027683254310308478 0.0024684167384956767 0.0113305982515224
0.056273447269699996 0.0024929866712516797 0.011507526822474527 0.997115349474851 -0.028097744369539004 0.00043570397372633834 0.005830121040701455 -0.00038321471469368335 -0.00366150228458044
 0.997115349474851 -0.028097744369539004 0.0024927691825437155 0.011507531515012616 -0.00038326761539880485 -0.003661503776161094 0.0004377149181833149 0.005829897937272867
 0.00043570397372633834 0.005830121040701455 -0.00038326761539880485 -0.003661503776161094 0.002492915184319535 0.011506784491556262 0.9971153343098476 -0.028098496145162907
 -0.00038321471469368335 -0.00366150228458044 0.0004377149181833149 0.005829897937272867 0.9971153343098476 -0.028098496145162907 0.0024928115030499764 0.011506777203443364
0.06252605252188 0.002684785820184964 0.012860551099803441 0.9968630218462462 -0.031274774467078256 0.0005054174889871108 0.006482096062231606 -0.0004428429235735613 -0.004074020183263573
 0.9968630218462462 -0.031274774467078256 0.002684517294962129 0.012860555189381739 -0.0004429079810457057 -0.004074021318389453 0.0005079024797451302 0.006481819578139356
 0.0005054174889871108 0.006482096062231606 -0.0004429079810457057 -0.004074021318389453 0.002684697853977198 0.012859727657842537 0.9968630034166526 -0.031275609844924286
 -0.0004428429235735613 -0.004074020183263573 0.0005079024797451302 0.006481819578139356 0.9968630034166526 -0.031275609844924286 0.002684569983818526 0.012859717370310596
0.06877865777407 0.0028864419981376533 0.014227148805527258 0.9965974819032409 -0.03446346643242007 0.0005806019350379337 0.007134773256641259 -0.0005071002022276819 -0.004487414997797513
 0.9965974819032409 -0.03446346643242007 0.002886117035159446 0.014227152014641817 -0.0005071786319214332 -0.004487415639155476 0.0005836117897310325 0.007134435855082935
 0.0005806019350379337 0.007134773256641259 -0.0005071786319214332 -0.004487415639155476 0.0028863358408347185 0.014226244624500823 0.9965974598853671 -0.034464385479416694
 -0.0005071002022276819 -0.004487414997797513 0.0005836117897310325 0.007134435855082935 0.9965974598853671 -0.034464385479416694 0.0028861812577632025 0.014226230761263082
0.07503126302626001 0.0030981435772382705 0.015607141927926695 0.9963185482025393 -0.0376638032344991 0.0006613134219600385 0.007788098804283015 -0.0005760442580697775 -0.004901624598464022
 0.9963185482025393 -0.0376638032344991 0.003097756762727383 0.015607143963802146 -0.0005761372656331695 -0.004901624599837589 0.0006648991554669267 0.0077876924315766335
 0.0006613134219600385 0.007788098804283015 -0.0005761372656331695 -0.004901624599837589 0.0030980175164122396 0.015606157408790232 0.9963185222697033 -0.03766480603074189
 -0.0005760442580697775 -0.004901624598464022 0.0006648991554669267 0.0077876924315766335 0.9963185222697033 -0.03766480603074189 0.003097833694087224 0.015606139353751616
0.08128386827845 0.0033200785698680123 0.017000363367457798 0.9960260388804878 -0.04087575164911016 0.0007476075258147026 0.008442016548207528 -0.0006497321494105075 -0.005316586386914431
 0.9960260388804878 -0.04087575164911016 0.003319624476384986 0.017000363921772208 -0.0006498409308681454 -0.005316585593218186 0.0007518203487409613 0.008441532626617697
 0.0007476075258147026 0.008442016548207528 -0.0006498409308681454 -0.005316585593218186 0.0033199308930793496 0.016999298943484936 0.9960260087023524 -0.040876838284815635
 -0.0006497321494105075 -0.005316586386914431 0.0007518203487409613 0.008441532626617697 0.9960260087023524 -0.040876838284815635 0.0033197153013699863 0.016999276040094238
0.08753647353064001 0.003552434649739432 0.01840665376196746 0.9957197717663594 -0.04409926538764623 0.0008395392463401275 0.009096468214159957 -0.0007282202642904327 -0.005732237070095235
 0.9957197717663594 -0.04409926538764623 0.003551907834218815 0.018406652510779126 -0.0007283460061405377 -0.005732235317400888 0.0008444305623695858 0.009095897634749899
 0.0008395392463401275 0.009096468214159957 -0.0007283460061405377 -0.005732235317400888 0.003552263644984454 0.018405509897875916 0.9957197370093281 -0.044100435964391914
 -0.0007282202642904327 -0.005732237070095235 0.0008444305623695858 0.009095897634749899 0.9957197370093281 -0.044100435964391914 0.0035520137482749304 0.01840548144860082
0.09378907878283 0.003795399157789046 0.01982585921404496 0.9953995644832095 -0.04733428732522603 0.0009371629673721155 0.009751393561449946 -0.0008115642950384496 -0.006148512504667927
 0.9953995644832095 -0.04733428732522603 0.0037947941604471462 0.019825855817590447 -0.0008117081744202794 -0.006148509620241482 0.0009427843706294797 0.009750726676888234
 0.0009371629673721155 0.009751393561449946 -0.0008117081744202794 -0.006148509620241482 0.003795203113709098 0.019824636409784286 0.995399524809527 -0.04733554195243433
 -0.0008115642950384496 -0.006148512504667927 0.0009427843706294797 0.009750726676888234 0.995399524809527 -0.04733554195243433 0.003794916369134612 0.019824601675569983
0.100041684035 0.00404915909329937 0.0212578296351719 0.995065234535182 -0.05058075111328973 0.001040532418120957 0.010406730495051765 -0.0008998192116668769 -0.00656534758155238
 0.995065234535182 -0.05058075111328973 0.0040484704357003345 0.021257823737865028 -0.000899982396358385 -0.006565343383896119 0.0010469356897339205 0.010405957112473921
 0.001040532418120957 0.010406730495051765 -0.000899982396358385 -0.006565343383896119 0.004048936299393851 0.021256528416727656 0.995065189602728 -0.05058208991780983
 -0.0008998192116668769 -0.00656534758155238 0.0010469356897339205 0.010405957112473921 0.995065189602728 -0.05058208991780983 0.0040486101554687084 0.02125648661647148
0.1059090909091 0.004297270463054157 0.02261306013244272 0.9947384943320439 -0.05363755315912027 0.0011428066152828797 0.01102201216829123 -0.000987151794682299 -0.006956953156277173
 0.9947384943320439 -0.05363755315912027 0.004296498298736119 0.022613051550709893 -0.0009873341492291918 -0.006956947553435355 0.001149990845047636 0.011021129086042292
 0.0011428066152828797 0.01102201216829123 -0.0009873341492291918 -0.006956947553435355 0.0042970210130853885 0.022611685844165397 0.9947384441496794 -0.053638971074169796
 -0.000987151794682299 -0.006956953156277173 0.001149990845047636 0.011021129086042292 0.9947384441496794 -0.053638971074169796 0.004296655566929262 0.022611636664946987
0.1062942892872 0.004313901096409084 0.022702417478834655 0.9947165993879825 -0.05383858240475561 0.0011497006352311342 0.011062415151881834 -0.0009930392332279405 -0.006982676137822251
 0.9947165993879825 -0.05383858240475561 0.004313123279966433 0.022702408709112266 -0.0009932228817824402 -0.006982670436695948 0.0011569377395923047 0.011061524525699706
 0.0011497006352311342 0.011062415151881834 -0.0009932228817824402 -0.006982670436695948 0.00431364984394909 0.022701038411393273 0.9947165488503298 -0.053840005517855415
 -0.0009930392332279405 -0.006982676137822251 0.0011569377395923047 0.011061524525699706 0.9947165488503298 -0.053840005517855415 0.004313281738404711 0.022700988721528287
0.11254689453939999 0.004589811423139737 0.024159476789180685 0.994353476543711 -0.0571076997650733 0.0012647199254150353 0.011718381964338548 -0.0010912777979551393 -0.007400430892721488
 0.994353476543711 -0.0571076997650733 0.004588938927655648 0.024159464759576945 -0.0010914830597499859 -0.007400423489188295 0.0012728430060841922 0.011717362789156126
 0.0012647199254150353 0.011718381964338548 -0.0010914830597499859 -0.007400423489188295 0.004589530005162777 0.024158020467916 0.9943534200489919 -0.05710920733210501
 -0.0010912777979551393 -0.007400430892721488 0.0012728430060841922 0.011717362789156126 0.9943534200489919 -0.05710920733210501 0.004589117363425064 0.024157962021961576
0.11879949979160001 0.004877075914828348 0.025628862445054332 0.9939756836108782 -0.060388015389780586 0.0013856418283674803 0.012374563711839414 -0.0011945875321950508 -0.007818543397355795
 0.9939756836108782 -0.060388015389780586 0.004876103196836473 0.02562884675212887 -0.0011948155474483166 -0.007818534083811684 0.0013947032038609084 0.012373404115312627
 0.0013856418283674803 0.012374563711839414 -0.0011948155474483166 -0.007818534083811684 0.004876762626932301 0.025627329500295226 0.9939756208024878 -0.06038960756513907
 -0.0011945875321950508 -0.007818543397355795 0.0013947032038609084 0.012373404115312627 0.9939756208024878 -0.06038960756513907 0.0048763028604200094 0.025627261388450187
0.1250521050438 0.0051758799636505 0.027110429567743635 0.9935830383731794 -0.06367943565965689 0.0015125170798910698 0.013030891561988155 -0.0013030202185922027 -0.008236943996260902
 0.9935830383731794 -0.06367943565965689 0.005174801454512699 0.027110409792228805 -0.0013032721184127124 -0.008236932556473717 0.0015225692388722608 0.013029579097752457
 0.0015125170798910698 0.013030891561988155 -0.0013032721184127124 -0.008236932556473717 0.005175533104135511 0.02710882066258439 0.9935829688885615 -0.06368111260948028
 -0.0013030202185922027 -0.008236943996260902 0.0015225692388722608 0.013029579097752457 0.9935829688885615 -0.06368111260948028 0.005175023608183162 0.02710874193142015
0.131304710296 0.005486408473108017 0.02860403303975338 0.9931753588544135 -0.06698186158698399 0.001645395574908814 0.013687295104802724 -0.0014166267634020226 -0.008655561797550018
 0.9931753588544135 -0.06698186158698399 0.005485218577812825 0.02860400874660782 -0.0014169036698245018 -0.008655548006700892 0.0016564911713970502 0.013685816745419974
 0.001645395574908814 0.013687295104802724 -0.0014169036698245018 -0.008655548006700892 0.005486026343761193 0.028602348872023394 0.9931752823252991 -0.06698362348744002
 -0.0014166267634020226 -0.008655561797550018 0.0016564911713970502 0.013685816745419974 0.9931752823252991 -0.06698362348744002 0.005485464496135711 0.028602258524113525
0.1375573155481 0.005729955276111665 0.029913240704461882 0.9928313728444904 -0.07009885085282229 0.001765274378770292 0.014322982709035677 -0.0015163906947953268 -0.009053621572297558
 0.9928313728444904 -0.07009885085282229 0.005728648429376538 0.029913213515319007 -0.0015166943830647907 -0.009053605474629937 0.0017774347255441769 0.014321342803975913
 0.001765274378770292 0.014322982709035677 -0.0015166943830647907 -0.009053605474629937 0.005729536798727887 0.029911481682141052 0.9928312889535184 -0.07010069780239317
 -0.0015163906947953268 -0.009053621572297558 0.0017774347255441769 0.014321342803975913 0.9928312889535184 -0.07010069780239317 0.005728918676435513 0.029911381236483337
0.1438099208003 0.0059817762122655795 0.031216751452146477 0.992475812161937 -0.07320917731732778 0.0018899912146332974 0.01495690863512761 -0.0016201626862728472 -0.00945006450994456
 0.992475812161937 -0.07320917731732778 0.005980346794496858 0.03121672114774941 -0.0016204943830496678 -0.009450045888140756 0.001903263523333188 0.01495509554519489
 0.0018899912146332974 0.01495690863512761 -0.0016204943830496678 -0.009450045888140756 0.005981319805631345 0.031214918273334388 0.9924757205425522 -0.07321110948971273
 -0.0016201626862728472 -0.00945006450994456 0.001903263523333188 0.01495509554519489 0.9924757205425522 -0.07321110948971273 0.0059806425337960295 0.031214806981164366
0.1500625260525 0.006241797348609523 0.03251449265838367 0.9921087534638467 -0.07631280103653727 0.002019512075280437 0.015589034783739212 -0.0017279095342694337 -0.009844853166177288
 0.9921087534638467 -0.07631280103653727 0.006240239716930177 0.03251445901519293 -0.001728270465347127 -0.009844831794297399 0.0020339433488466663 0.015587036453702404
 0.002019512075280437 0.015589034783739212 -0.001728270465347127 -0.009844831794297399 0.006241301441701031 0.032512586049336926 0.992108653744594 -0.07631481861193644
 -0.0017279095342694337 -0.009844853166177288 0.0020339433488466663 0.015587036453702404 0.992108653744594 -0.07631481861193644 0.006240562115323874 0.03251246313741119
0.15631513130469998 0.006509944393750301 0.03380639412418754 0.9917302736133614 -0.0794096815252772 0.0021538026568015856 0.01621932354970395 -0.0018395977216437607 -0.010237950797472741
