! Created with skrf 1.8.0 (http://scikit-rf.org).
# GHz S RI R 50.0 
!freq ReS11 ImS11 ReS12 ImS12 ReS13 ImS13
! ReS14 ImS14
! ReS21 ImS21 ReS22 ImS22 ReS23 ImS23
! ReS24 ImS24
! ReS31 ImS31 ReS32 ImS32 ReS33 ImS33
! ReS34 ImS34
! ReS41 ImS41 ReS42 ImS42 ReS43 ImS43
! ReS44 ImS44
!
0.0 0.001843246697528 0.0 0.9981567532906 0.0 7.162509018836e-05 0.0 -7.162509011015e-05 8.771543734203595e-21
 0.9981567532906 0.0 0.001843246697488 0.0 -7.162509011053e-05 8.77154373425013e-21 7.162509018763e-05 0.0
 7.162509018836e-05 0.0 -7.162509011053e-05 8.77154373425013e-21 0.001843246693363 0.0 0.9981567532864 0.0
 -7.162509011015e-05 8.771543734203595e-21 7.162509018763e-05 0.0 0.9981567532864 0.0 0.001843246693307 0.0
0.005 0.0019842115874217684 0.0015064179571054848 0.9979782356199624 -0.0038600851905574857 0.00010104160294787286 0.0007923622010899658 -9.801759699301352e-05 -0.0004966042172186443
 0.9979782356199624 -0.0038600851905574857 0.001984222613886157 0.0015064114416539656 -9.801749127047099e-05 -0.0004966040592103664 0.00010098283719411388 0.0007923847194709711
 0.00010104160294787286 0.0007923622010899658 -9.801749127047099e-05 -0.0004966040592103664 0.001984212411748802 0.0015064846856433943 0.9979782360105208 -0.0038600181362562925
 -9.801759699301352e-05 -0.0004966042172186443 0.00010098283719411388 0.0007923847194709711 0.9979782360105208 -0.0038600181362562925 0.0019842225549735353 0.0015064788057798045
0.006252605252188 0.002021489627784468 0.0018889077800041186 0.9979306806895594 -0.004826000928344811 0.00010961574699802545 0.000990814875596879 -0.00010561088351766444 -0.0006213791489040497
 0.9979306806895594 -0.004826000928344811 0.0020215068644965192 0.001888899473598207 -0.00010561071960724257 -0.0006213789524403277 0.0001095239336597446 0.0009908441222343466
 0.00010961574699802545 0.000990814875596879 -0.00010561071960724257 -0.0006213789524403277 0.0020214908318305913 0.0018889911845310294 0.9979306812153449 -0.0048259171013944335
 -0.00010561088351766444 -0.0006213791489040497 0.0001095239336597446 0.0009908441222343466 0.9979306812153449 -0.0048259171013944335 0.002021506686913691 0.0018889836879232241
0.01250521050438 0.00221951704897586 0.0038169397048064702 0.9976761703939796 -0.009652434767319798 0.00015968367596166371 0.001981827566075589 -0.00014945403555402355 -0.0012455656515121764
 0.9976761703939796 -0.009652434767319798 0.002219585882833299 0.00381692143580008 -0.00014945339701564645 -0.0012455652692686043 0.00015931761347089636 0.001981898071292425
 0.00015968367596166371 0.001981827566075589 -0.00014945339701564645 -0.0012455652692686043 0.002219521314341006 0.003817106084294584 0.9976761719491654 -0.009652267334072444
 -0.00014945403555402355 -0.0012455656515121764 0.00015931761347089636 0.001981898071292425 0.9976761719491654 -0.009652267334072444 0.002219584613504631 0.0038170896011011936
0.01875781575657 0.002437824684666986 0.005771886039108414 0.9973928614092628 -0.014490971003954845 0.00022195382367375016 0.0029736516229823227 -0.0002033021796268724 -0.0018716071058434496
 0.9973928614092628 -0.014490971003954845 0.002437979373914978 0.005771855989032158 -0.00020330076595943323 -0.0018716065478968996 0.00022113167058559536 0.002973778107900289
 0.00022195382367375016 0.0029736516229823227 -0.00020330076595943323 -0.0018716065478968996 0.002437833851917508 0.005772135018238652 0.9973928644872894 -0.014490719984885842
 -0.0002033021796268724 -0.0018716071058434496 0.00022113167058559536 0.002973778107900289 0.9973928644872894 -0.014490719984885842 0.0024379760695454294 0.005772107936428905
0.02501042100875 0.0026768895835492953 0.007750926932127569 0.9970803769488635 -0.019343871363326902 0.0002965524178174422 0.003966273608730594 -0.0002672966438163676 -0.0024991683824643496
 0.9970803769488635 -0.019343871363326902 0.002677164327454473 0.007750883129892235 -0.0002672941613532538 -0.0024991676587804417 0.00029509238675868524 0.003966473420345727
 0.0002965524178174422 0.003966273608730594 -0.0002672941613532538 -0.0024991676587804417 0.002676905492110876 0.007751258062464225 0.9970803820517656 -0.01934353670622529
 -0.0002672966438163676 -0.0024991683824643496 0.00029509238675868524 0.003966473420345727 0.9970803820517656 -0.01934353670622529 0.002677158029547608 0.007751218656961027
0.03126302626094 0.002937168778413072 0.009752569233934553 0.9967383235598021 -0.024212052996806784 0.00038360524019087985 0.0049595869997214855 -0.00034157366665717805 -0.003127997748084103
 0.9967383235598021 -0.024212052996806784 0.002937597735596553 0.00975250955680919 -0.00034156982736878677 -0.003127996868513451 0.00038132544122306575 0.004959880124365121
 0.00038360524019087985 0.0049595869997214855 -0.00034156982736878677 -0.003127996868513451 0.0029371932653240226 0.0097529819764973 0.9967383311999198 -0.02421163459364577
 -0.00034157366665717805 -0.003127997748084103 0.00038132544122306575 0.004959880124365121 0.9967383311999198 -0.02421163459364577 0.0029375874689271777 0.0097529284106755
0.037515631513130004 0.003219108444382352 0.011775807550671553 0.996366300728238 -0.029095927379208446 0.00048323631061838036 0.005953447669204876 -0.0004262653509348595 -0.0037578714334792923
 0.996366300728238 -0.029095927379208446 0.003219725745260958 0.011775729724129977 -0.00042625987170313867 -0.0037578704076795233 0.0004799546898467338 0.005953856755991646
 0.00048323631061838036 0.005953447669204876 -0.00042625987170313867 -0.0037578704076795233 0.0032191433370982892 0.011776301263207965 0.9963663114250313 -0.029095425078249776
 -0.0004262653509348595 -0.0037578714334792923 0.0004799546898467338 0.005953856755991646 0.9963663114250313 -0.029095425078249776 0.0032197105111770644 0.01177623158936759
0.043768236765320004 0.0035231473871900213 0.013819868976032088 0.9959639048178429 -0.03399565551766414 0.0005955672418857494 0.006947690783516651 -0.0005214999720900905 -0.004388576792235436
 0.9959639048178429 -0.03399565551766414 0.003523987143606823 0.013819770573115906 -0.0005214925742386036 -0.004388575629605772 0.0005911015606608004 0.0069482411708027365
 0.0005955672418857494 0.006947690783516651 -0.0005214925742386036 -0.004388575629605772 0.0035231945045095083 0.013820442919186306 0.9959639191029042 -0.033995069116751216
 -0.0005214999720900905 -0.004388576792235436 0.0005911015606608004 0.0069482411708027365 0.9959639191029042 -0.033995069116751216 0.0035239659213131347 0.01382035507854585
0.050020842017509996 0.0038497186427185457 0.015884107599188964 0.995530731125237 -0.03891125338496344 0.0007207168295198613 0.007942137795598454 -0.0006274020588503234 -0.005019905369257289
 0.995530731125237 -0.03891125338496344 0.003850814956297903 0.015883986039460746 -0.0006273924677625594 -0.005019904078866058 0.0007148846655794829 0.007942857538412978
 0.0007207168295198613 0.007942137795598454 -0.0006273924677625594 -0.005019904078866058 0.003849779790717675 0.01588476092891613 0.9955307495419115 -0.038910582638594884
 -0.0006274020588503234 -0.005019905369257289 0.0007148846655794829 0.007942857538412978 0.9955307495419115 -0.038910582638594884 0.003850786699576143 0.015884652751213
0.055454545454549996 0.004152150516862099 0.017693935316595417 0.9951289805422489 -0.04319588674674295 0.0008399758508308447 0.008806361551253673 -0.0007281913514199923 -0.005568893911746187
 0.9951289805422489 -0.04319588674674295 0.004153497479142995 0.01769379141709593 -0.0007281796342512685 -0.005568892517383568 0.0008328078910000537 0.008807253384051191
 0.0008399758508308447 0.008806361551253673 -0.0007281796342512685 -0.005568892517383568 0.004152225314441259 0.017694656870605605 0.9951290030030169 -0.04319514246660349
 -0.0007281913514199923 -0.005568893911746187 0.0008328078910000537 0.008807253384051191 0.9951290030030169 -0.04319514246660349 0.0041534622399080545 0.017694529169730952
0.056273447269699996 0.004199250260834802 0.017967952723177923 0.9950663751252729 -0.04384264364811964 0.0008588007473102455 0.008936599895924111 -0.0007440923700864115 -0.0056516495204684426
 0.9950663751252729 -0.04384264364811964 0.004200637230920368 0.017967805271418547 -0.0007440803149058146 -0.005651648110986799 0.0008514195093120104 0.008937519793706545
 0.0008588007473102455 0.008936599895924111 -0.0007440803149058146 -0.005651648110986799 0.004199327232158427 0.017968684494049748 0.9950663982326721 -0.043841888263803926
 -0.0007440923700864115 -0.0056516495204684426 0.0008514195093120104 0.008937519793706545 0.9950663982326721 -0.043841888263803926 0.004200600867960801 0.01796855369680511
0.06252605252188 0.004572165693646496 0.020070880424954196 0.9945704333273686 -0.048789684064236255 0.0010099312938341666 0.009930879927139698 -0.0008716878209171103 -0.006283600578468263
 0.9945704333273686 -0.048789684064236255 0.004573877424507823 0.020070704189445347 -0.0008716730342847484 -0.006283599058102653 0.0010008182446530802 0.009932033551306622
 0.0010099312938341666 0.009930879927139698 -0.0008716730342847484 -0.006283599058102653 0.004572260262983988 0.02007168958286397 0.9945704616995523 -0.048788843709456645
 -0.0008716878209171103 -0.006283600578468263 0.0010008182446530802 0.009932033551306622 0.9945704616995523 -0.048788843709456645 0.004573831854154972 0.020071533770326038
0.06877865777407 0.004968883961615708 0.022192396597112817 0.9940425039146482 -0.05375218440482062 0.0011742171690109161 0.010924773546449813 -0.0010103013781923714 -0.006915547780710843
 0.9940425039146482 -0.05375218440482062 0.004970954569465421 0.022192188527702758 -0.00101028359599558 -0.006915546157141146 0.0011631894554507492 0.010926197267632632
 0.0011742171690109161 0.010924773546449813 -0.00101028359599558 -0.006915546157141146 0.004968997885266214 0.02219328198516438 0.994042538145151 -0.05375125870089763
 -0.0010103013781923714 -0.006915547780710843 0.0011631894554507492 0.010926197267632632 0.994042538145151 -0.05375125870089763 0.0049708986616658155 0.022193098646977997
0.07503126302626001 0.005389819692182362 0.024332026220336776 0.9934821872620624 -0.0587299171607736 0.001351763268003413 0.011918069981365438 -0.0011600419378783088 -0.007547277615118102
 0.9934821872620624 -0.0587299171607736 0.005392283311910617 0.024331783106108926 -0.0011600208989845262 -0.007547275895443299 0.0013386379555746135 0.011919802996123934
 0.001351763268003413 0.011918069981365438 -0.0011600208989845262 -0.007547275895443299 0.0053899547034490895 0.02433298657255294 0.9934822279635364 -0.058728905689249156
 -0.0011600419378783088 -0.007547277615118102 0.0013386379555746135 0.011919802996123934 0.9934822279635364 -0.058728905689249156 0.005392215904320158 0.0243327730819625
0.08128386827845 0.005835383073327176 0.02648930622481504 0.9928890863742122 -0.06372262467078893 0.001542670486217552 0.012910552557027716 -0.0013210141909786909 -0.008178573405271564
 0.9928890863742122 -0.06372262467078893 0.0058382738655783535 0.026489024691516004 -0.0013209896371435556 -0.008178571595951043 0.0015272645973222457 0.012912636913948918
 0.001542670486217552 0.012910552557027716 -0.0013209896371435556 -0.008178571595951043 0.005835540881743144 0.026490340172388292 0.992889134181645 -0.06372152696700958
 -0.0013210141909786909 -0.008178573405271564 0.0015272645973222457 0.012912636913948918 0.992889134181645 -0.06372152696700958 0.005838193762662247 0.026490093784356905
0.08753647353064001 0.00630597975543281 0.028663780583086877 0.9922628072762835 -0.06873002403095596 0.0017470355317342182 0.013901999079943484 -0.0014933184814423105 -0.008809215050723304
 0.9922628072762835 -0.06873002403095596 0.006309331912937485 0.028663457090151223 -0.001493290156961076 -0.008809213157541039 0.0017291660875127725 0.013904479704974342
 0.0017470355317342182 0.013901999079943484 -0.001493290156961076 -0.008809213157541039 0.006306162042489818 0.028664886647095978 0.9922628628481166 -0.06872883959168093
 -0.0014933184814423105 -0.008809215050723304 0.0017291660875127725 0.013904479704974342 0.9922628628481166 -0.06872883959168093 0.0063092378838175405 0.02866460449574002
0.09378907878283 0.006802010712765166 0.03085499680211465 0.991602959369063 -0.07375181061858303 0.0019649507430851408 0.014892182137073912 -0.0016770506588419682 -0.009438978863570192
 0.991602959369063 -0.07375181061858303 0.0068058584670251335 0.03085462763941243 -0.0016770183104705086 -0.009438976891576913 0.0019444348075497218 0.01489510685816415
 0.0019649507430851408 0.014892182137073912 -0.0016770183104705086 -0.009438976891576913 0.006802219130159248 0.030856173396943035 0.9916030233897284 -0.07375053889888102
 -0.0016770506588419682 -0.009438978863570192 0.0019444348075497218 0.01489510685816415 0.9916030233897284 -0.07375053889888102 0.006805749243747175 0.030855852492965755
0.100041684035 0.00732387207943954 0.03306250337802852 0.9909091557633539 -0.07878766066731373 0.002196503910950272 0.015880869338499654 -0.001872301927307703 -0.010067637473579609
 0.9909091557633539 -0.07878766066731373 0.007328249707446528 0.03306208466221067 -0.0018722653040430426 -0.01006763542706296 0.002173158637770639 0.015884288909271238
 0.002196503910950272 0.015880869338499654 -0.0018722653040430426 -0.01006763542706296 0.0073241082459274244 0.03306374881258093 0.9909092289446222 -0.07878630107970423
 -0.001872301927307703 -0.010067637473579609 0.002173158637770639 0.015884288909271238 0.9909092289446222 -0.07878630107970423 0.0073281239830045525 0.033063386040073243
0.1059090909091 0.007837424560783665 0.03514842707026999 0.9902268712275282 -0.08352575887761735 0.002426269630142162 0.016807075751005388 -0.0020660780543258414 -0.010656355919085463
 0.9902268712275282 -0.08352575887761735 0.007842330639600608 0.03514795816445781 -0.0020660371930117647 -0.010656353805832458 0.002400103149461713 0.016811008471832624
 0.002426269630142162 0.016807075751005388 -0.0020660371930117647 -0.010656353805832458 0.007837688207094438 0.03514973546941016 0.9902269536788282 -0.08352431626585519
 -0.0020660780543258414 -0.010656355919085463 0.002400103149461713 0.016811008471832624 0.9902269536788282 -0.08352431626585519 0.007842188205774864 0.035149330458014424
0.1062942892872 0.007871954964750532 0.0352858478899556 0.9901810135960073 -0.08383723321721465 0.0024417781030172097 0.01686782352395045 -0.0020791586922233847 -0.010694959781536893
 0.9901810135960073 -0.08383723321721465 0.007876896795151283 0.03528537556047373 -0.002079117545058308 -0.01069495766399708 0.002415420784082058 0.016871791646546442
 0.0024417781030172097 0.01686782352395045 -0.002079117545058308 -0.01069495766399708 0.00787222046303252 0.03528716036611689 0.9901810966792182 -0.08383578513385521
 -0.0020791586922233847 -0.010694959781536893 0.002415420784082058 0.016871791646546442 0.9901810966792182 -0.08383578513385521 0.00787675322189029 0.035286752479086136
0.11254689453939999 0.008446645253051936 0.03752457556701128 0.9894181543349986 -0.08890017160634515 0.0027008514915849097 0.017852802944041873 -0.002297702405076303 -0.011320710950203552
 0.9894181543349986 -0.08890017160634515 0.008452185673006256 0.037524045381810194 -0.0022976564869144804 -0.011320708764308183 0.0026712996076080453 0.01785737629098353
 0.0027008514915849097 0.017852802944041873 -0.0022976564869144804 -0.011320708764308183 0.008446941627633221 0.03752595317943888 0.9894182480930632 -0.08889863435996417
 -0.002297702405076303 -0.011320710950203552 0.0026712996076080453 0.01785737629098353 0.9894182480930632 -0.08889863435996417 0.00845202286056124 0.0375254967980296
0.11879949979160001 0.009048323393342987 0.03977822817658652 0.9886202040761992 -0.09397610465601769 0.0029737971832561453 0.018835561428925524 -0.0025280094078637587 -0.011944652420467558
 0.9886202040761992 -0.09397610465601769 0.009054496854646961 0.039777635707324885 -0.0025279584732171003 -0.011944650168053468 0.0029408684561333187 0.018840799663900388
 0.0029737971832561453 0.018835561428925524 -0.0025279584732171003 -0.011944650168053468 0.009048652146819042 0.03977966891500492 0.9886203093154146 -0.09397447753852727
 -0.0025280094078637587 -0.011944652420467558 0.0029408684561333187 0.018840799663900388 0.9886203093154146 -0.09397447753852727 0.009054313368204094 0.03977916052115851
0.1250521050438 0.009677364178561604 0.04204634317611472 0.9877867938324416 -0.09906464760775703 0.003260683051376954 0.019815848544501063 -0.002770150776910683 -0.012566541952523377
 0.9877867938324416 -0.09906464760775703 0.009684205204163302 0.042045683803121174 -0.002770094581897749 -0.012566539634529075 0.0032241954978883716 0.019821814342138377
 0.003260683051376954 0.019815848544501063 -0.002770094581897749 -0.012566539634529075 0.009677726769490096 0.042047844924407135 0.9877869113944304 -0.09906292987214248
 -0.002770150776910683 -0.012566541952523377 0.0032241954978883716 0.019821814342138377 0.9877869113944304 -0.09906292987214248 0.009683999562321239 0.04204728085734806
0.131304710296 0.01033413651864005 0.044328453039518614 0.9869175598178781 -0.10416540290112555 0.003561571570277392 0.020793409746085633 -0.0030241921673033185 -0.013186133682197145
 0.9869175598178781 -0.10416540290112555 0.010341679708731987 0.044327721946331805 -0.0030241304692541294 -0.01318613129873187 0.0035213435574657404 0.020800168810625786
 0.003561571570277392 0.020793409746085633 -0.0030241304692541294 -0.01318613129873187 0.010334534357912427 0.04433001357688302 0.9869176905817876 -0.10416359376156469
 -0.0030241921673033185 -0.013186133682197145 0.0035213435574657404 0.020800168810625786 0.9869176905817876 -0.10416359376156469 0.01034145038214636 0.04432939002794004
0.1375573155481 0.010878923205030604 0.0463274748422108 0.9861523000227439 -0.10898115843981014 0.003841765566233337 0.021739762497132754 -0.00325548841586852 -0.013774943678263348
 0.9861523000227439 -0.10898115843981014 0.010887204467660878 0.04632668223113206 -0.0032554206402221754 -0.013774941224413603 0.003797702224004631 0.021747311994277412
 0.003841765566233337 0.021739762497132754 -0.0032554206402221754 -0.013774941224413603 0.010879356855157925 0.04632909265637352 0.9861524446353122 -0.10897925739321757
 -0.00325548841586852 -0.013774943678263348 0.003797702224004631 0.021747311994277412 0.9861524446353122 -0.10897925739321757 0.010886951175863621 0.04632841982075767
0.1438099208003 0.011443162991648208 0.048313944334640695 0.9853595206771072 -0.11378264394805387 0.0041331973888516305 0.022680969304167985 -0.0034959355509780756 -0.014359055999276593
 0.9853595206771072 -0.11378264394805387 0.011452217183653161 0.0483130862950442 -0.0034958613978072245 -0.014359053482637739 0.0040851332057819266 0.0226893700447159
 0.0041331973888516305 0.022680969304167985 -0.0034958613978072245 -0.014359053482637739 0.011443633642141956 0.04831561716387349 0.9853596800235134 -0.11378065022030447
 -0.0034959355509780756 -0.014359055999276593 0.0040851332057819266 0.0226893700447159 0.9853596800235134 -0.11378065022030447 0.01145193855234927 0.048314892053175316
0.1500625260525 0.012026624187694814 0.050287635647225715 0.9845394587966739 -0.11856967858343956 0.004435744294465364 0.02361689198363419 -0.0037454146861718497 -0.014938342711401032
 0.9845394587966739 -0.11856967858343956 0.012036486235860103 0.05028670805148356 -0.0037453338530455734 -0.01493834014054188 0.004383515086320573 0.023626206982961504
 0.004435744294465364 0.02361689198363419 -0.0037453338530455734 -0.01493834014054188 0.012027132972370291 0.050289361144428446 0.9845396337944237 -0.11856759137388789
 -0.0037454146861718497 -0.014938342711401032 0.004383515086320573 0.023626206982961504 0.9845396337944237 -0.11856759137388789 0.012036180858398709 0.05028858058618673
0.15631513130469998 0.012629073063107812 0.05224832968862274 0.9836923530410641 -0.12334208358411516 0.004749281848092967 0.024547395219643477 -0.004003805260835971 -0.015512679030869867
 0.9836923530410641 -0.12334208358411516 0.012639777965289195 0.05224732818763202 -0.004003717442650426 -0.015512676415391332 0.004692724783339826 0.024557689668071123
