! Created with skrf 1.8.0 (http://scikit-rf.org).
# GHz S RI R 50.0 
!freq ReS11 ImS11 ReS12 ImS12 ReS13 ImS13
! ReS14 ImS14
! ReS21 ImS21 ReS22 ImS22 ReS23 ImS23
! ReS24 ImS24
! ReS31 ImS31 ReS32 ImS32 ReS33 ImS33
! ReS34 ImS34
! ReS41 ImS41 ReS42 ImS42 ReS43 ImS43
! ReS44 ImS44
!
0.0 0.001568612851376 0.0 0.9984313871484 0.0 6.053165838561e-05 0.0 -6.053165811867e-05 7.412990136211111e-21
 0.9984313871484 0.0 0.001568612851394 0.0 -6.053165811963e-05 7.412990136328677e-21 6.053165838558e-05 0.0
 6.053165838561e-05 0.0 -6.053165811963e-05 7.412990136328677e-21 0.001568612851394 0.0 0.9984313871483 0.0
 -6.053165811867e-05 7.412990136211111e-21 6.053165838558e-05 0.0 0.9984313871483 0.0 0.001568612851362 0.0
0.005 0.0016877657132446983 0.0012835112626885198 0.9982806338921236 -0.0032856965980750576 8.481414034227021e-05 0.0006652196418845669 -8.236360809014974e-05 -0.0004178368827788009
 0.9982806338921236 -0.0032856965980750576 0.001687777322972246 0.001283504508655526 -8.236687272053084e-05 -0.0004178394031401954 8.473592000427504e-05 0.0006652494928902557
 8.481414034227021e-05 0.0006652196418845669 -8.236687272053084e-05 -0.0004178394031401954 0.0016877635982917181 0.001283445258345584 0.9982806335232002 -0.0032857636587285714
 -8.236360809014974e-05 -0.0004178368827788009 8.473592000427504e-05 0.0006652494928902557 0.9982806335232002 -0.0032857636587285714 0.0016877787035866924 0.0012834363937511825
0.006252605252188 0.0017190362705169584 0.0016094335816866753 0.9982408171384077 -0.004107920691117874 9.176428387291358e-05 0.0008318460640695218 -8.853485347048983e-05 -0.0005228345643645916
 0.9982408171384077 -0.004107920691117874 0.001719054418074923 0.0016094249672036426 -8.853993340494767e-05 -0.0005228376720816939 9.16420727542973e-05 0.0008318848172566121
 9.176428387291358e-05 0.0008318460640695218 -8.853993340494767e-05 -0.0005228376720816939 0.001719033056717605 0.0016093510891304619 0.9982408166542772 -0.004108004509428934
 -8.853485347048983e-05 -0.0005228345643645916 9.16420727542973e-05 0.0008318848172566121 0.9982408166542772 -0.004108004509428934 0.0017190566693739535 0.0016093398280197723
0.01250521050438 0.0018837700324367713 0.003252536788540419 0.9980296612223672 -0.008216618048439258 0.00013168887415791126 0.0016640433251846741 -0.00012358869022688058 -0.001048187484261867
 0.9980296612223672 -0.008216618048439258 0.0018838424891524494 0.003252517834860781 -0.0001236087087470824 -0.0010481932305560916 0.00013120154936699946 0.0016641363853945102
 0.00013168887415791126 0.0016640433251846741 -0.0001236087087470824 -0.0010481932305560916 0.0018837577377589462 0.0032523721182625936 0.9980296598314825 -0.008216785447598872
 -0.00012358869022688058 -0.001048187484261867 0.00013120154936699946 0.0016641363853945102 0.9980296598314825 -0.008216785447598872 0.0018838520275687846 0.0032523477553412093
0.01875781575657 0.0020631789755128104 0.004918978295055661 0.9977976532439554 -0.01233608565884087 0.0001803984618551035 0.0024971412877030858 -0.00016580211751165112 -0.001575301125209745
 0.9977976532439554 -0.01233608565884087 0.002063341776621227 0.004918947185095284 -0.00016584675807178233 -0.0015753089489491244 0.000179303801144752 0.0024973073049656684
 0.0001803984618551035 0.0024971412877030858 -0.00016584675807178233 -0.0015753089489491244 0.0020631517662143125 0.0049187316891672606 0.9977976505430176 -0.012336336541162729
 -0.00016580211751165112 -0.001575301125209745 0.000179303801144752 0.0024973073049656684 0.9977976505430176 -0.012336336541162729 0.0020633636479117042 0.004918692196622088
0.02501042100875 0.002257616873204502 0.006606420107104987 0.9975445164201227 -0.016468312597079798 0.00023798751742675712 0.0033311682407825005 -0.00021528044283365601 -0.002103933047067799
 0.9975445164201227 -0.016468312597079798 0.0022579059727394542 0.006606374942219493 -0.0002153592726329489 -0.0021039422853722308 0.0002360432508104973 0.003331428851958856
 0.00023798751742675712 0.0033311682407825005 -0.0002153592726329489 -0.0021039422853722308 0.002257568914127801 0.0066060918250140325 0.9975445119973542 -0.01646864691242556
 -0.00021528044283365601 -0.002103933047067799 0.0002360432508104973 0.003331428851958856 0.9975445119973542 -0.01646864691242556 0.002257945212528894 0.00660603500354426
0.03126302626094 0.002467422865362014 0.008313655339394805 0.9972699600246221 -0.020614145622353534 0.00030455094004987605 0.004166075915161804 -0.00027212593795757865 -0.002633911301239991
 0.9972699600246221 -0.020614145622353534 0.0024678741562394638 0.008313594141803242 -0.00027224842771121594 -0.0026339211882999178 0.0003015145288277723 0.004166455759576829
 0.00030455094004987605 0.004166075915161804 -0.00027224842771121594 -0.0026339211882999178 0.002467348326660277 0.008313245681290075 0.9972699534679117 -0.020614563344930656
 -0.00027212593795757865 -0.002633911301239991 0.0003015145288277723 0.004166455759576829 0.9972699534679117 -0.020614563344930656 0.002467935800940662 0.00831316916230925
0.037515631513130004 0.0026929286978168592 0.010039894269748285 0.9969736868663127 -0.024774003062247748 0.00038018309707746334 0.0050017856906097585 -0.00033643857469986674 -0.0031650882234978365
 0.9969736868663127 -0.024774003062247748 0.002693578024805865 0.010039814983986742 -0.0003366141086608033 -0.0031650978902098455 0.0003758116375842686 0.005002312438516669
 0.00038018309707746334 0.0050017856906097585 -0.0003366141086608033 -0.0031650978902098455 0.0026928217551761527 0.010039403590258972 0.9969736777645022 -0.024774504177627023
 -0.00033643857469986674 -0.0031650882234978365 0.0003758116375842686 0.005002312438516669 0.9969736777645022 -0.024774504177627023 0.002693667114276605 0.010039304836514691
0.043768236765320004 0.0029344615161836737 0.011784547060457357 0.9966553963247368 -0.02894809202019346 0.00046497737359375705 0.005838202641427324 -0.000408316281611608 -0.0036973263920969173
 0.9966553963247368 -0.02894809202019346 0.00293534468680341 0.011784447554427348 -0.0004085541634851148 -0.003697334865966872 0.0004590275550281796 0.005838907026402697
 0.00046497737359375705 0.005838202641427324 -0.0004085541634851148 -0.003697334865966872 0.0029343163482542203 0.011783975769895233 0.9966553842646639 -0.028948676524780618
 -0.000408316281611608 -0.0036973263920969173 0.0004590275550281796 0.005838907026402697 0.9966553842646639 -0.028948676524780618 0.002935466262934094 0.01178385207528937
0.050020842017509996 0.0031923451585396446 0.013547133969132607 0.9963147858882153 -0.03313649809154412 0.0005590258974812311 0.006675221344802935 -0.00048785503523453787 -0.00423049282627152
 0.9963147858882153 -0.03313649809154412 0.0031934979527591363 0.01354701203472974 -0.0004881644919979984 -0.004230499031384488 0.0005512539877941969 0.006676137197661748
 0.0005590258974812311 0.006675221344802935 -0.0004881644919979984 -0.004230499031384488 0.0031921559476626167 0.013546482531510987 0.99631477045548 -0.033137165995437014
 -0.00048785503523453787 -0.00423049282627152 0.0005512539877941969 0.006676137197661748 0.99631477045548 -0.033137165995437014 0.0031936570604006484 0.013546331020545761
0.055454545454549996 0.003429982239940096 0.015093117603682545 0.9960004229188183 -0.03678798487658208 0.0006483429573129448 0.007403017000653357 -0.0005632714133622258 -0.004694482434848921
 0.9960004229188183 -0.03678798487658208 0.0034313983881419426 0.015092974326458824 -0.0005636505066035424 -0.004694485714259317 0.000638789330377575 0.007404146531697092
 0.0006483429573129448 0.007403017000653357 -0.0005636505066035424 -0.004694485714259317 0.0034297500329694914 0.01509239694116254 0.9960004042172907 -0.036788725269612056
 -0.0005632714133622258 -0.004694482434848921 0.000638789330377575 0.007404146531697092 0.9960004042172907 -0.036788725269612056 0.003431594211659229 0.015092218789490778
0.056273447269699996 0.0034669008156410627 0.015327241263685669 0.9959515520636858 -0.03733922937713798 0.0006624193442636669 0.0075127287291247785 -0.0005751488743797968 -0.004764456148516655
 0.9959515520636858 -0.03733922937713798 0.0034683589946744543 0.015327094617310187 -0.0005755390587781308 -0.004764458905553855 0.0006525811937556024 0.007513893012419622
 0.0006624193442636669 0.0075127287291247785 -0.0005755390587781308 -0.004764458905553855 0.0034666617481522778 0.015326510205127885 0.9959515328420633 -0.03733998069645005
 -0.0005751488743797968 -0.004764456148516655 0.0006525811937556024 0.007513893012419622 0.9959515328420633 -0.03733998069645005 0.003468560682139456 0.015326327832077316
0.06252605252188 0.003758447383883398 0.017124497005902194 0.9955653909828932 -0.04155624063131192 0.00077524678051432 0.008350605644693648 -0.0006702898770515909 -0.005299085028704803
 0.9955653909828932 -0.04155624063131192 0.003760246698365746 0.01712432328856765 -0.0006707698692786258 -0.0052990830549826395 0.0007630978363789742 0.008352058487360463
 0.00077524678051432 0.008350605644693648 -0.0006707698692786258 -0.0052990830549826395 0.0037581526503472763 0.017123686908549714 0.9955653675544088 -0.041557075395136214
 -0.0006702898770515909 -0.005299085028704803 0.0007630978363789742 0.008352058487360463 0.9955653675544088 -0.041557075395136214 0.0037604960176716223 0.017123470456300974
0.06877865777407 0.004067301645646317 0.018938556601166914 0.9951559988414402 -0.04578744764793435 0.0008975955297134159 0.009188727803132051 -0.0007733681141447841 -0.005834247264073632
 0.9951559988414402 -0.04578744764793435 0.004069477844124337 0.01893835337841383 -0.0007739469229514904 -0.005834239173598503 0.0008828908591620029 0.00919051253501225
 0.0008975955297134159 0.009188727803132051 -0.0007739469229514904 -0.005834239173598503 0.0040669454407711685 0.018937668111483348 0.9951559707853613 -0.04578836589089939
 -0.0007733681141447841 -0.005834247264073632 0.0008828908591620029 0.00919051253501225 0.9951559707853613 -0.04578836589089939 0.004069779850653081 0.01893741419001457
0.07503126302626001 0.0043937783501649804 0.020769093635073847 0.9947230722406911 -0.05003273636435462 0.001029551050397527 0.01002696638037509 -0.0008844715904795803 -0.006369809200474116
 0.9947230722406911 -0.05003273636435462 0.004396367187014691 0.020768858396567055 -0.0008851581539492074 -0.006369793504005451 0.0010120453694310728 0.010029129566473675
 0.001029551050397527 0.01002696638037509 -0.0008851581539492074 -0.006369793504005451 0.004393354873638142 0.020768127463847055 0.9947230391333735 -0.050033738127315326
 -0.0008844715904795803 -0.006369809200474116 0.0010120453694310728 0.010029129566473675 0.9947230391333735 -0.050033738127315326 0.004396726939604836 0.020767832508545254
0.08128386827845 0.004738190231029574 0.022615793796583815 0.9942663084712745 -0.054291968883789496 0.0011711968227106292 0.01086518841794184 -0.0010036861760844887 -0.00690563536040279
 0.9942663084712745 -0.054291968883789496 0.004741227474375877 0.022615523955490997 -0.001004489361977769 -0.0069056104655351195 0.0011506445301636007 0.010867779892226368
 0.0011711968227106292 0.01086518841794184 -0.001004489361977769 -0.0069056104655351195 0.0047376936880601205 0.022614750714042908 0.9942662698864145 -0.05429305421970674
 -0.0010036861760844887 -0.00690563536040279 0.0011506445301636007 0.010867779892226368 0.9942662698864145 -0.05429305421970674 0.00474165003592212 0.022614410983672097
0.08753647353064001 0.0051008479821871055 0.024478350656017347 0.9937854057593521 -0.05856498764895541 0.0013226142397291284 0.011703257116715602 -0.0011310955319835435 -0.007441588183774757
 0.9937854057593521 -0.05856498764895541 0.005104369422366159 0.02447804354803081 -0.001132024138039053 -0.007441552395026453 0.0012987694547320747 0.011706330015489654
 0.0013226142397291284 0.011703257116715602 -0.001132024138039053 -0.007441552395026453 0.005100272584043921 0.024477231498041454 0.9937853612667877 -0.05856615661726158
 -0.0011310955319835435 -0.007441588183774757 0.0012987694547320747 0.011706330015489654 0.9937853612667877 -0.05856615661726158 0.005104859858879025 0.0244768430724183
0.09378907878283 0.00548206020442875 0.02635646266046153 0.9932800634853305 -0.06285161840367642 0.0014838825024572073 0.012541032042920374 -0.0012667810311095078 -0.007977527861875862
 0.9932800634853305 -0.06285161840367642 0.005486101661268265 0.02635611554262651 -0.001267843784951747 -0.007977479380795283 0.0014564991054497867 0.012544642837562894
 0.0014838825024572073 0.012541032042920374 -0.001267843784951747 -0.007977479380795283 0.005481400169180036 0.026355268330798026 0.993280012651593 -0.06285287106899104
 -0.0012667810311095078 -0.007977527861875862 0.0014564991054497867 0.012544642837562894 0.993280012651593 -0.06285287106899104 0.00548666504280861 0.026354827108216905
0.100041684035 0.005882133330820087 0.02824983093423054 0.9927499823868197 -0.06715167235596897 0.001655078517071032 0.013378369294835738 -0.0014108216759973775 -0.008513312216157686
 0.9927499823868197 -0.06715167235596897 0.005886730662265349 0.028249440983336115 -0.001412027235090993 -0.00851324914143955 0.001623910193615045 0.013382577823938063
 0.001655078517071032 0.013378369294835738 -0.001412027235090993 -0.00851324914143955 0.005881382884200288 0.02824856240039737 0.9927499247745011 -0.06715300879289104
 -0.0014108216759973775 -0.008513312216157686 0.001623910193615045 0.013382577823938063 0.9927499247745011 -0.06715300879289104 0.005887372062393352 0.028248064094716654
0.1059090909091 0.00627498429988454 0.030040166318868106 0.9922297925875151 -0.07119884565213201 0.001824823404952468 0.014163592320269465 -0.0015536556778331942 -0.009015818939386858
 0.9922297925875151 -0.07119884565213201 0.006280135913914133 0.030039733532963696 -0.0015550030556246621 -0.0090157403493622 0.0017898791760963533 0.014168419209385687
 0.001824823404952468 0.014163592320269465 -0.0015550030556246621 -0.0090157403493622 0.006274143767233232 0.030038829092984155 0.9922297282124202 -0.07120026077327683
 -0.0015536556778331942 -0.009015818939386858 0.0017898791760963533 0.014168419209385687 0.9922297282124202 -0.07120026077327683 0.006280855143410691 0.03003827315554161
0.1062942892872 0.006301371537080417 0.03015815762398053 0.9921948647489934 -0.07146494780282352 0.0018362767937970454 0.014215121633826704 -0.0015632940142264278 -0.009048796618437849
 0.9921948647489934 -0.07146494780282352 0.006306560647026876 0.030157721934775887 -0.0015646509655895115 -0.009048716946052882 0.0018010770806928555 0.014219991134594491
 0.0018362767937970454 0.014215121633826704 -0.0015646509655895115 -0.009048716946052882 0.0063005249127698944 0.030156815921685093 0.9921947999162173 -0.07146636809225959
 -0.0015632940142264278 -0.009048796618437849 0.0018010770806928555 0.014219991134594491 0.9921947999162173 -0.07146636809225959 0.006307285142513001 0.030156256059098267
0.11254689453939999 0.006740076639896171 0.03208114463828151 0.9916144145866451 -0.07579123136715524 0.002027549346999022 0.015051138592635805 -0.001724272051728232 -0.009583833939558238
 0.9916144145866451 -0.07579123136715524 0.00674589348629662 0.03208066022126083 -0.0017257889116189381 -0.009583735562898574 0.0019880716807430137 0.015056735731587705
 0.002027549346999022 0.015051138592635805 -0.0017257889116189381 -0.009583735562898574 0.006739128080734607 0.032079730869528665 0.9916143420868406 -0.07579273559890855
 -0.001724272051728232 -0.009583833939558238 0.0019880716807430137 0.015056735731587705 0.9916143420868406 -0.07579273559890855 0.00674670615722097 0.03207910478507197
0.11879949979160001 0.007198547986034169 0.03401849266624789 0.9910083378192005 -0.08013029896258539 0.002228965596255126 0.015886266568757777 -0.0018938271646595257 -0.0101182745190058
 0.9910083378192005 -0.08013029896258539 0.007205028589026003 0.034017956445189707 -0.0018955123781080126 -0.010118155229055513 0.0021849633635625167 0.015892661471613
 0.002228965596255126 0.015886266568757777 -0.0018955123781080126 -0.010118155229055513 0.00719749174474929 0.0340170080020922 0.9910082572009908 -0.08013188723333722
 -0.0018938271646595257 -0.0101182745190058 0.0021849633635625167 0.015892661471613 0.9910082572009908 -0.08013188723333722 0.007205934518851815 0.03401631083574797
0.1250521050438 0.007677082333975569 0.035969900405060866 0.9903763424425185 -0.08448191655639506 0.0024405922679732626 0.016720348909495954 -0.0020720280103686396 -0.010651966148820299
 0.9903763424425185 -0.08448191655639506 0.007684262784318948 0.03596930921411208 -0.002073889950716521 -0.010651823634321276 0.002391818858104945 0.01672761519017944
 0.0024405922679732626 0.016720348909495954 -0.002073889950716521 -0.010651823634321276 0.007675912673773729 0.03596834608660814 0.9903762532490076 -0.08448358896935629
 -0.0020720280103686396 -0.010651966148820299 0.002391818858104945 0.01672761519017944 0.9903762532490076 -0.08448358896935629 0.007685267059231392 0.03596757277915129
0.131304710296 0.0081759737299792 0.0379350639505577 0.9897181386965128 -0.08884584077661882 0.002662493297866576 0.017553225988892113 -0.0022589404373535046 -0.011184754071807114
 0.9897181386965128 -0.08884584077661882 0.00818389019679974 0.037934414531160275 -0.002260987405657767 -0.011184585919456331 0.0026087021565182936 0.01756144077770528
 0.002662493297866576 0.017553225988892113 -0.002260987405657767 -0.011184585919456331 0.008174684925902127 0.03793344128834557 0.9897180404654391 -0.0888475974427761
 -0.0022589404373535046 -0.011184754071807114 0.0026087021565182936 0.01756144077770528 0.9897180404654391 -0.0888475974427761 0.008184997906025506 0.0379325865768194
0.1375573155481 0.008582051059236043 0.03965774052707285 0.989146945998292 -0.09296576844389656 0.0028672123137018623 0.018359352586067874 -0.002427171829168721 -0.011691067381924162
 0.989146945998292 -0.09296576844389656 0.008590743487749488 0.03965704615652738 -0.0024294161732965397 -0.01169087335214136 0.0028082780327947183 0.018368505093950587
 0.0028672123137018623 0.018359352586067874 -0.0024294161732965397 -0.01169087335214136 0.008580637978747589 0.039656050726449656 0.9891468383179375 -0.09296760939692401
 -0.002427171829168721 -0.011691067381924162 0.0028082780327947183 0.018368505093950587 0.9891468383179375 -0.09296760939692401 0.008591959035650635 0.039655125958788694
0.1438099208003 0.009002449944123593 0.0413711662062927 0.9885555977628654 -0.09707506626309348 0.0030801989684026976 0.019162059747157865 -0.0026021233317133187 -0.012194271176793664
 0.9885555977628654 -0.09707506626309348 0.009011955198271386 0.04137042467987227 -0.002604573977498645 -0.012194048890426678 0.003015896956450935 0.019172220634668537
 0.0030801989684026976 0.019162059747157865 -0.002604573977498645 -0.012194048890426678 0.009000906983728425 0.041369410609280594 0.9885554801737549 -0.0970769916055181
 -0.0026021233317133187 -0.012194271176793664 0.003015896956450935 0.019172220634668537 0.9885554801737549 -0.0970769916055181 0.009013283554444872 0.0413684115239483
0.1500625260525 0.00943701971076364 0.043075192352953935 0.9879442488669654 -0.10117362645288666 0.0033013781189297283 0.01996126042567024 -0.002783722445828908 -0.012694284298826788
 0.9879442488669654 -0.10117362645288666 0.009447374753726806 0.043074401320527325 -0.0027863882985143303 -0.01269403128104652 0.00323148524002818 0.019972502916515037
 0.0033013781189297283 0.01996126042567024 -0.0027863882985143303 -0.01269403128104652 0.009435341284339758 0.04307337235557483 0.9879441209050911 -0.10117563629066505
 -0.002783722445828908 -0.012694284298826788 0.00323148524002818 0.019972502916515037 0.9879441209050911 -0.10117563629066505 0.009448820882541405 0.04307229446210475
0.15631513130469998 0.009885608585000824 0.04476967480191696 0.9873130550087322 -0.1052613417352203 0.0035306737093247207 0.020756869087167142 -0.0029718957605523555 -0.013191027336623437
 0.9873130550087322 -0.1052613417352203 0.009896850481743817 0.044768831763397826 -0.0029747857043839546 -0.01319074101736196 0.003454968307499502 0.020769268938764913
