! Created with skrf 1.8.0 (http://scikit-rf.org).
# GHz S RI R 50.0 
!freq ReS11 ImS11 ReS12 ImS12 ReS13 ImS13
! ReS14 ImS14
! ReS21 ImS21 ReS22 ImS22 ReS23 ImS23
! ReS24 ImS24
! ReS31 ImS31 ReS32 ImS32 ReS33 ImS33
! ReS34 ImS34
! ReS41 ImS41 ReS42 ImS42 ReS43 ImS43
! ReS44 ImS44
!
0.0 0.001629965794143 0.0 0.9983700341927 0.0 6.297922791154e-05 0.0 -6.297922833403e-05 7.712731039204013e-21
 0.9983700341927 0.0 0.001629965794119 0.0 -6.297922833327e-05 7.71273103911094e-21 6.297922791201e-05 0.0
 6.297922791154e-05 0.0 -6.297922833327e-05 7.71273103911094e-21 0.001629965800716 0.0 0.9983700341993 0.0
 -6.297922833403e-05 7.712731039204013e-21 6.297922791201e-05 0.0 0.9983700341993 0.0 0.001629965800724 0.0
0.005 0.0017539495633567147 0.001333944993422369 0.9982131237649438 -0.0034139810275807224 8.837313769663044e-05 0.0006897460987840999 -8.574082477553735e-05 -0.0004336379899596374
 0.9982131237649438 -0.0034139810275807224 0.0017539856591654527 0.0013339239569490782 -8.574187444336687e-05 -0.0004336388474593485 8.813106839930258e-05 0.000689838066643932
 8.837313769663044e-05 0.0006897460987840999 -8.574187444336687e-05 -0.0004336388474593485 0.0017539483980505103 0.0013338784500505354 0.9982131233980706 -0.0034140480930357348
 -8.574082477553735e-05 -0.0004336379899596374 8.813106839930258e-05 0.000689838066643932 0.9982131233980706 -0.0034140480930357348 0.0017539861007671558 0.0013338563793272602
0.006252605252188 0.0017865399631458467 0.001672664438829307 0.9981716014942298 -0.0042682983863735315 9.56936834225183e-05 0.0008625120290199012 -9.220017631868481e-05 -0.0005426024374862947
 0.9981716014942298 -0.0042682983863735315 0.0017865963876252417 0.001672637778022044 -9.220180928001443e-05 -0.0005426034957456362 9.531547111966901e-05 0.0008626315165855226
 9.56936834225183e-05 0.0008625120290199012 -9.220180928001443e-05 -0.0005426034957456362 0.0017865382184466606 0.0016725812830396913 0.9981716009979044 -0.004268382205526589
 -9.220017631868481e-05 -0.0005426024374862947 9.531547111966901e-05 0.0008626315165855226 0.9981716009979044 -0.004268382205526589 0.0017865971557197034 0.0016725533174072247
0.01250521050438 0.0019585296333672437 0.0033802243210824786 0.9979509472201387 -0.008537307550965448 0.00013802020313784943 0.0017253414549116893 -0.00012902614095246313 -0.0010877796585690713
 0.9979509472201387 -0.008537307550965448 0.0019587549369441963 0.0033801673323075113 -0.00012903257130006334 -0.0010877816257135616 0.0001365119143647292 0.001725629424970559
 0.00013802020313784943 0.0017253414549116893 -0.00012903257130006334 -0.0010877816257135616 0.0019585232131946236 0.0033800583782761903 0.9979509457873957 -0.008537474968402074
 -0.00012902614095246313 -0.0010877796585690713 0.0001365119143647292 0.001725629424970559 0.9979509457873957 -0.008537474968402074 0.001958758565118533 0.003379998642246418
0.01875781575657 0.0021463273651009655 0.005111932628210951 0.9977077851531434 -0.012817397479994509 0.0001900577419347404 0.0025890436161369185 -0.00017357376725503384 -0.0016347405032341518
 0.9977077851531434 -0.012817397479994509 0.0021468336309991717 0.005111841389951028 -0.00017358810012931005 -0.0016347432012077598 0.00018666938638421476 0.002589559008544861
 0.0001900577419347404 0.0025890436161369185 -0.00017358810012931005 -0.0016347432012077598 0.0021463133566573655 0.005111684202397652 0.9977077823547408 -0.012817648444818534
 -0.00017357376725503384 -0.0016347405032341518 0.00018666938638421476 0.002589559008544861 0.9977077823547408 -0.012817648444818534 0.0021468422299756873 0.005111588584882227
0.02501042100875 0.0023503130919627227 0.006865346889845298 0.9974418173359654 -0.01711062109992356 0.00025190744007823937 0.0034536352120470124 -0.0002259556065216383 -0.002183225831890001
 0.9974418173359654 -0.01711062109992356 0.0023512121834210974 0.006865217269349836 -0.00022598090759150247 -0.002183229050707093 0.00024588867829597466 0.0034544466026416535
 0.00025190744007823937 0.0034536352120470124 -0.00022598090759150247 -0.002183229050707093 0.0023502885777401785 0.0068650163355907685 0.9974418127311322 -0.017110955615178232
 -0.0002259556065216383 -0.002183225831890001 0.00024588867829597466 0.0034544466026416535 0.9974418127311322 -0.017110955615178232 0.0023512278655030074 0.006864880464157825
0.03126302626094 0.0025708510095029643 0.008639199449764807 0.9971527312256282 -0.02141784400137038 0.0003236709550736766 0.004319053589809801 -0.0002862808227288386 -0.002733049081260019
 0.9971527312256282 -0.02141784400137038 0.002572254637019514 0.008639027112723161 -0.00028632012485313685 -0.0027330525786672614 0.00031427042056897896 0.0043202392513821495
 0.0003236709550736766 0.004319053589809801 -0.00028632012485313685 -0.0027330525786672614 0.002570813078770338 0.008638787184190897 0.9971527243722215 -0.02141826211251971
 -0.0002862808227288386 -0.002733049081260019 0.00031427042056897896 0.0043202392513821495 0.9971527243722215 -0.02141826211251971 0.00257227952904843 0.0086386064343466
0.037515631513130004 0.002808297233274186 0.010432655620084535 0.9968402076207475 -0.02573948622485758 0.0004054493104481443 0.005185204464667358 -0.00035465596134729913 -0.0032840485390514358
 0.9968402076207475 -0.02573948622485758 0.00281031700121454 0.010432436035790795 -0.0003547122680153148 -0.0032840520404535216 0.0003919143131457147 0.005186852466203642
 0.0004054493104481443 0.005185204464667358 -0.0003547122680153148 -0.0032840520404535216 0.0028082429808198115 0.010432162126230675 0.9968401980727436 -0.02573998801701883
 -0.00035465596134729913 -0.0032840485390514358 0.0003919143131457147 0.005186852466203642 0.9968401980727436 -0.02573998801701883 0.0028103532436436736 0.010431931626008006
0.043768236765320004 0.0030630027491520234 0.012245087950488702 0.9965039238894468 -0.030075747920228227 0.0004973423505156947 0.006051976437379254 -0.0004311852184706002 -0.0038360728335831676
 0.9965039238894468 -0.030075747920228227 0.0030657501938316126 0.012244816395107565 -0.0004312615058494759 -0.0038360760320683314 0.0004789187439087458 0.006054184755088744
 0.0004973423505156947 0.006051976437379254 -0.0004312615058494759 -0.0038360760320683314 0.003062929275075803 0.012244513787548976 0.9965039111939449 -0.0300763335085489
 -0.0004311852184706002 -0.0038360728335831676 0.0004789187439087458 0.006054184755088744 0.9965039111939449 -0.0300763335085489 0.0030657999404770176 0.012244228419998867
0.050020842017509996 0.0033353147729965364 0.014075982924225737 0.9961435556112954 -0.03442670257774797 0.0005994484139387262 0.006919246993853777 -0.0005159705271974089 -0.004388974947310813
 0.9961435556112954 -0.03442670257774797 0.003338901397045571 0.01407565448255907 -0.0005160697454689957 -0.004388977503669635 0.0005753805490044525 0.006922123626963085
 0.0005994484139387262 0.006919246993853777 -0.0005160697454689957 -0.004388977503669635 0.003335219183472936 0.01407532873254519 0.9961435393074668 -0.03442737210304751
 -0.0005159705271974089 -0.004388974947310813 0.0005753805490044525 0.006922123626963085 0.9961435393074668 -0.03442737210304751 0.0033389668156128863 0.014074983136912429
0.055454545454549996 0.003586528156794663 0.015681732968662664 0.9958105724790537 -0.03821974222121156 0.0006965509712853386 0.0076732349752385584 -0.0005964339260042028 -0.004870063457096306
 0.9958105724790537 -0.03821974222121156 0.0035909346045134224 0.0156813509514609 -0.0005965554483535359 -0.004870065154912751 0.0006669632327983075 0.007676787976251378
 0.0006965509712853386 0.0076732349752385584 -0.0005965554483535359 -0.004870065154912751 0.003586411005033854 0.015681009807059207 0.9958105526592199 -0.038220484830570584
 -0.0005964339260042028 -0.004870063457096306 0.0006669632327983075 0.007676787976251378 0.9958105526592199 -0.038220484830570584 0.003591015415294223 0.015680607328565067
0.056273447269699996 0.0036255774424306824 0.01592489518388092 0.9957587775565286 -0.03879234273127917 0.0007118640996780385 0.0077868854516497206 -0.0006091115664736665 -0.004942609288900914
 0.9957587775565286 -0.03879234273127917 0.003630114746370181 0.015924504750319323 -0.0006092366407551429 -0.004942610831692784 0.0006813948313511394 0.007790548540181562
 0.0007118640996780385 0.0077868854516497206 -0.0006092366407551429 -0.004942610831692784 0.0036254568527696062 0.015924161677839707 0.9957587571761056 -0.038793096367704415
 -0.0006091115664736665 -0.004942609288900914 0.0006813948313511394 0.007790548540181562 0.9957587571761056 -0.038793096367704415 0.0036301980208995506 0.0159237502496547
0.06252605252188 0.003934132179425649 0.01779142234282758 0.9953492643419359 -0.04317260507999841 0.0008346840820208426 0.008654754586221034 -0.0007107057275204804 -0.005496830091184299
 0.9953492643419359 -0.04317260507999841 0.003939731692459862 0.017790964620992396 -0.0007108595584925781 -0.0054968302167804385 0.0007970548106786511 0.008659332529341817
 0.0008346840820208426 0.008654754586221034 -0.0007108595584925781 -0.0054968302167804385 0.003933983714077208 0.017790610320024134 0.9953492394068413 -0.04317344302636327
 -0.0007107057275204804 -0.005496830091184299 0.0007970548106786511 0.008659332529341817 0.9953492394068413 -0.04317344302636327 0.003939835022941259 0.01779012721011456
0.06877865777407 0.004261317871435244 0.01967518999522291 0.9949146909091423 -0.0475673854164778 0.0009680009508693823 0.009522711607559143 -0.0008208480581178846 -0.006051490464417927
 0.9949146909091423 -0.0475673854164778 0.0042680911814050645 0.019674659496887945 -0.0008210335224777422 -0.006051488737069522 0.0009224516886720596 0.009528343181793816
 0.0009680009508693823 0.009522711607559143 -0.0008210335224777422 -0.006051488737069522 0.0042611386665403934 0.019674300328079597 0.994914660931272 -0.04756830790516768
 -0.0008208480581178846 -0.006051490464417927 0.0009224516886720596 0.009528343181793816 0.994914660931272 -0.04756830790516768 0.004268216785617439 0.019673739440628987
0.07503126302626001 0.004607470946032195 0.02157584218993264 0.9944547329011127 -0.05197654809686213 0.0011119050688434176 0.010390608788152041 -0.0009396311914716452 -0.006606441804271631
 0.9944547329011127 -0.05197654809686213 0.004615529729040066 0.02157523323279035 -0.0009398511422548655 -0.006606437756157122 0.0010576745245415562 0.010397443264891545
 0.0011119050688434176 0.010390608788152041 -0.0009398511422548655 -0.006606437756157122 0.004607258150160952 0.021574875834730604 0.9944546973809346 -0.05197755538519991
 -0.0009396311914716452 -0.006606441804271631 0.0010576745245415562 0.010397443264891545 0.9944546973809346 -0.05197755538519991 0.0046156798426276084 0.021574230824413558
0.08128386827845 0.004972925378156365 0.023493035116431814 0.9939690669761138 -0.05639993230535801 0.0012664844380982142 0.011258293883006457 -0.0010671452656305998 -0.00716153341392896
 0.9939690669761138 -0.05639993230535801 0.004982381427587042 0.023492341820966087 -0.0010674025324114776 -0.007161526545232811 0.0012028101165689486 0.011266491144968237
 0.0012664844380982142 0.011258293883006457 -0.0010674025324114776 -0.007161526545232811 0.004972676154346234 0.023491993111094695 0.9939690254016146 -0.05640102467824045
 -0.0010671452656305998 -0.00716153341392896 0.0012028101165689486 0.011266491144968237 0.9939690254016146 -0.05640102467824045 0.004982558305431973 0.023491257379116465
0.08753647353064001 0.0053580126525869295 0.025426432731389326 0.9934573710804434 -0.0608373563850054 0.001431824572911746 0.012125610440643192 -0.001203477837000061 -0.007716612241589052
 0.9934573710804434 -0.0608373563850054 0.005368977909013246 0.025425649016614912 -0.0012037752260459916 -0.007716602020549651 0.0013579428867427348 0.012135341096998337
 0.001431824572911746 0.012125610440643192 -0.0012037752260459916 -0.007716602020549651 0.0053577241798409385 0.02542531619648949 0.9934573229259249 -0.0608385341540804
 -0.001203477837000061 -0.007716612241589052 0.0013579428867427348 0.012135341096998337 0.9934573229259249 -0.0608385341540804 0.005369183825892105 0.02542448288570619
0.09378907878283 0.0057630616952199605 0.027375703637152072 0.9929193246945274 -0.06528862092355019 0.0016080083773273475 0.012992398021303614 -0.0013487137887211805 -0.008271522717329956
 0.9929193246945274 -0.06528862092355019 0.005775648275806066 0.027374823215412493 -0.001349054083101568 -0.008271508580314812 0.0015231547681659335 0.013003843521270458
 0.0016080083773273475 0.012992398021303614 -0.001349054083101568 -0.008271508580314812 0.005762731170449822 0.02737451377449007 0.992919269419945 -0.06528988442899883
 -0.0013487137887211805 -0.008271522717329956 0.0015231547681659335 0.013003843521270458 0.992919269419945 -0.06528988442899883 0.005775885527320634 0.027373575763431978
0.100041684035 0.006188398782310681 0.029340518802694067 0.9923546090603907 -0.06975351100460885 0.0017951160256804866 0.01385849237958446 -0.0015029352355734782 -0.008826106632232553
 0.9923546090603907 -0.06975351100460885 0.0062027190103871 0.029339535173297526 -0.0015033211951674987 -0.008826087983803998 0.0016985250944519658 0.013871845124201325
 0.0017951160256804866 0.01385849237958446 -0.0015033211951674987 -0.008826087983803998 0.00618802342172361 0.02933925689625297 0.9923545461096318 -0.06975486061424711
 -0.0015029352355734782 -0.008826106632232553 0.0016985250944519658 0.013871845124201325 0.9923545461096318 -0.06975486061424711 0.006202989913747629 0.02933820679206496
0.1059090909091 0.006606272505583382 0.031198134252891342 0.9918001457336217 -0.07395552549611381 0.001980700744105469 0.014670450070363782 -0.0016558985483419578 -0.009346084502351278
 0.9918001457336217 -0.07395552549611381 0.006622321944555927 0.031197047665473952 -0.0016563298493128128 -0.009346061050627113 0.001872398831059208 0.014685777400737635
 0.001980700744105469 0.014670450070363782 -0.0016563298493128128 -0.009346061050627113 0.0066058525585397775 0.03119680598349462 0.9918000750589406 -0.07395695626317567
 -0.0016558985483419578 -0.009346084502351278 0.001872398831059208 0.014685777400737635 0.9918000750589406 -0.07395695626317567 0.006622626554284007 0.03119564371923668
0.1062942892872 0.006634347433425559 0.03132054984703504 0.9917629073966039 -0.07423179790385127 0.001993224844904269 0.014723725604651582 -0.0016662214269116996 -0.009380203066786044
 0.9917629073966039 -0.07423179790385127 0.006650513868261831 0.03131945628882989 -0.0016666557884191307 -0.009380179279768827 0.0018841304895523658 0.014739189056627735
 0.001993224844904269 0.014723725604651582 -0.0016666557884191307 -0.009380179279768827 0.006633924474533154 0.03131921726536593 0.9917628361967783 -0.07423323401091346
 -0.0016662214269116996 -0.009380203066786044 0.0018841304895523658 0.014739189056627735 0.9917628361967783 -0.07423323401091346 0.006650820763315276 0.03131804739573254
0.11254689453939999 0.007101228290715198 0.03331546774106654 0.9911439051029011 -0.0787232403751564 0.002202409199104877 0.015587926242756397 -0.001838648647044303 -0.00993364834396649
 0.9911439051029011 -0.0787232403751564 0.0071193537576787706 0.03331425730382459 -0.0018391341239571521 -0.009933618759531295 0.0020800447591617917 0.01560571503426988
 0.002202409199104877 0.015587926242756397 -0.0018391341239571521 -0.009933618759531295 0.007100754994149227 0.033314065934037136 0.9911438250633464 -0.07872476340150689
 -0.001838648647044303 -0.00993364834396649 0.0020800447591617917 0.01560571503426988 0.9911438250633464 -0.07872476340150689 0.007119699007693581 0.033312768337823054
0.11879949979160001 0.007589358989967997 0.035324941788546206 0.9904972899599837 -0.08322758566554429 0.0024227403750721613 0.016450919402450047 -0.0020202901145930977 -0.010486276006749657
 0.9904972899599837 -0.08322758566554429 0.007609556610534898 0.035323607283220114 -0.0020208293971271016 -0.010486239934464786 0.0022863387825357347 0.01647125944061118
 0.0024227403750721613 0.016450919402450047 -0.0020208293971271016 -0.010486239934464786 0.007588832641139064 0.03532347229156634 0.9904972004705106 -0.08322919605742471
 -0.0020202901145930977 -0.010486276006749657 0.0022863387825357347 0.01647125944061118 0.9904972004705106 -0.08322919605742471 0.007609942603031657 0.03532203870848533
0.1250521050438 0.008099054022183172 0.037348638840556725 0.9898227523225634 -0.08774457030537978 0.0026542864688802363 0.017312526853004568 -0.002211215880805353 -0.011037916809586967
 0.9898227523225634 -0.08774457030537978 0.008121437244423192 0.03734717282829464 -0.0022118116358625277 -0.011037873527520344 0.00250308040479291 0.017335655422972943
 0.0026542864688802363 0.017312526853004568 -0.0022118116358625277 -0.011037873527520344 0.008098471933335974 0.03734710326946601 0.9898226527528855 -0.08774626853830954
 -0.002211215880805353 -0.011037916809586967 0.00250308040479291 0.017335655422972943 0.9898226527528855 -0.08774626853830954 0.00812186639200764 0.03734552512843108
0.131304710296 0.008630624590531913 0.03938622265943902 0.9891199853102892 -0.09227392075764024 0.002897112273776583 0.018172567111006312 -0.0024114927269162684 -0.011588398729148413
 0.9891199853102892 -0.09227392075764024 0.008655307219306881 0.03938461743939877 -0.002412147597927879 -0.011588347483937063 0.002730334330101773 0.018198732976551498
 0.002897112273776583 0.018172567111006312 -0.002412147597927879 -0.011588347483937063 0.008629984102466879 0.03938462271781941 0.9891198750085749 -0.09227570732896746
 -0.0024114927269162684 -0.011588398729148413 0.002730334330101773 0.018198732976551498 0.9891198750085749 -0.09227570732896746 0.008655781960803535 0.03938289112406537
0.1375573155481 0.00906512398603161 0.041172258536962464 0.9885079870907181 -0.09655013716704529 0.0031221782676662158 0.019004922539221668 -0.0025922823437170882 -0.012111487147655179
 0.9885079870907181 -0.09655013716704529 0.009092229517512707 0.04117053937555523 -0.002593000405959987 -0.012111427848039879 0.002939452955251131 0.019034096955245848
 0.0031221782676662158 0.019004922539221668 -0.002593000405959987 -0.012111427848039879 0.009064423171390149 0.04117059546312447 0.9885078655503116 -0.09655201238867761
 -0.0025922823437170882 -0.012111487147655179 0.002939452955251131 0.019034096955245848 0.9885078655503116 -0.09655201238867761 0.009092751307805293 0.041168735128548316
0.1438099208003 0.009514992992371477 0.042948373113587034 0.9878742837368326 -0.10081498150887314 0.003356341693132051 0.019833454619227073 -0.0027802810461495433 -0.012631163815555187
 0.9878742837368326 -0.10081498150887314 0.00954463719276734 0.04294653397000233 -0.002781065166856172 -0.012631095712749672 0.003156972218102867 0.019865865897830542
 0.003356341693132051 0.019833454619227073 -0.002781065166856172 -0.012631095712749672 0.00951422936515879 0.04294664864343743 0.9878741503045607 -0.10081694587147412
 -0.0027802810461495433 -0.012631163815555187 0.003156972218102867 0.019865865897830542 0.9878741503045607 -0.10081694587147412 0.009545208330564261 0.04294465236983141
0.1500625260525 0.009980065000033298 0.04471440249739026 0.9872190461335962 -0.10506833174341246 0.0035995172348097953 0.020658063775777856 -0.0029754078386461445 -0.013147338647088017
 0.9872190461335962 -0.10506833174341246 0.010012364027719364 0.044712436901442804 -0.0029762608797471763 -0.01314726096186708 0.003382811237206086 0.020693948574516226
 0.0035995172348097953 0.020658063775777856 -0.0029762608797471763 -0.01314726096186708 0.009979236110803476 0.0447126184332041 0.9872189001379243 -0.10507038575639369
 -0.0029754078386461445 -0.013147338647088017 0.003382811237206086 0.020693948574516226 0.9872189001379243 -0.10507038575639369 0.010012986825219538 0.044710478549081445
0.15631513130469998 0.010460172121600402 0.04647018770985535 0.9865424461356243 -0.10931006660863123 0.003851618502595857 0.02147865221320873 -0.0031775806764072407 -0.013659923548560098
