! Created with skrf 1.8.0 (http://scikit-rf.org).
# GHz S RI R 50.0 
!freq ReS11 ImS11 ReS12 ImS12 ReS13 ImS13
! ReS14 ImS14
! ReS21 ImS21 ReS22 ImS22 ReS23 ImS23
! ReS24 ImS24
! ReS31 ImS31 ReS32 ImS32 ReS33 ImS33
! ReS34 ImS34
! ReS41 ImS41 ReS42 ImS42 ReS43 ImS43
! ReS44 ImS44
!
0.0 0.001642128583954 0.0 0.9983578713933 0.0 6.349792627538e-05 0.0 -6.349792534257e-05 7.776253102327595e-21
 0.9983578713933 0.0 0.001642128583944 0.0 -6.349792534241e-05 7.776253102308e-21 6.349792627482e-05 0.0
 6.349792627538e-05 0.0 -6.349792534241e-05 7.776253102308e-21 0.001642128589625 0.0 0.998357871399 0.0
 -6.349792534257e-05 7.776253102327595e-21 6.349792627482e-05 0.0 0.998357871399 0.0 0.001642128589624 0.0
0.005 0.0017671126718706756 0.0013432952451614226 0.9981997258340825 -0.0034394471538092487 8.900609796353847e-05 0.0006988266300893917 -8.652840364297547e-05 -0.0004387082740771766
 0.9981997258340825 -0.0034394471538092487 0.0017670864186014274 0.001343310520518035 -8.652776241382379e-05 -0.00043870772275710746 8.916936854014141e-05 0.000698764392077821
 8.900609796353847e-05 0.0006988266300893917 -8.652776241382379e-05 -0.00043870772275710746 0.0017671129392001267 0.0013432277761963357 0.9981997254659257 -0.0034395142104071447
 -8.652840364297547e-05 -0.0004387082740771766 8.916936854014141e-05 0.000698764392077821 0.9981997254659257 -0.0034395142104071447 0.0017670854265631594 0.001343243887739616
0.006252605252188 0.00179998676665762 0.0016843896345543768 0.9981578601489206 -0.004300135594809831 9.631070493957175e-05 0.0008738684519635302 -9.307021481276822e-05 -0.0005489468410107683
 0.9981578601489206 -0.004300135594809831 0.0017999457287785916 0.00168440905258064 -9.306921748681081e-05 -0.0005489461600608185 9.65657984251082e-05 0.0008737876218896146
 9.631070493957175e-05 0.0008738684519635302 -9.306921748681081e-05 -0.0005489461600608185 0.001799987255643257 0.0016843052911551032 0.9981578596438828 -0.004300219421839463
 -9.307021481276822e-05 -0.0005489468410107683 9.65657984251082e-05 0.0008737876218896146 0.9981578596438828 -0.004300219421839463 0.0017999442481079762 0.0016843257671632574
0.01250521050438 0.001973592836446698 0.003403919612654801 0.9979352862419003 -0.008600971018570398 0.00013829292569159479 0.001748078954864055 -0.00013039908654213436 -0.0011004939363708065
 0.9979352862419003 -0.008600971018570398 0.001973428980855632 0.0034039617172691755 -0.00013039516185411122 -0.001100492664161565 0.00013931014386976963 0.0017478844366205577
 0.00013829292569159479 0.001748078954864055 -0.00013039516185411122 -0.001100492664161565 0.0019735953746972765 0.003403751179999844 0.9979352847985303 -0.008601138438800802
 -0.00013039908654213436 -0.0011004939363708065 0.00013931014386976963 0.0017478844366205577 0.9979352847985303 -0.008601138438800802 0.0019734236393135793 0.003403795541816433
0.01875781575657 0.0021633447363981592 0.005147758855961207 0.9976898593529391 -0.012912951324250807 0.00018954681035341533 0.0026232040461082236 -0.00017560324936606876 -0.0016538343680026412
 0.9976898593529391 -0.012912951324250807 0.0021629765624014445 0.005147827157053249 -0.00017559450516880926 -0.0016538326105342421 0.00019183179245342555 0.0026228562285332646
 0.00018954681035341533 0.0026232040461082236 -0.00017559450516880926 -0.0016538326105342421 0.002163350891894854 0.005147506457170278 0.9976898565337502 -0.01291320230399085
 -0.00017560324936606876 -0.0016538343680026412 0.00019183179245342555 0.0026228562285332646 0.9976898565337502 -0.01291320230399085 0.0021629649818641758 0.005147578399736704
0.02501042100875 0.0023696275653023995 0.006913443352420918 0.9974212771878256 -0.017238141739502402 0.0002501749141585911 0.0034992673812118762 -0.00022879718084124106 -0.0022087030289690843
 0.9974212771878256 -0.017238141739502402 0.0023689737441108588 0.006913541574032445 -0.00022878175022702474 -0.0022087009106065173 0.00025423342040912367 0.00349872012009056
 0.0002501749141585911 0.0034992673812118762 -0.00022878175022702474 -0.0022087009106065173 0.002369638911274161 0.006913107134468808 0.9974212725448783 -0.017238476291293894
 -0.00022879718084124106 -0.0022087030289690843 0.00025423342040912367 0.00349872012009056 0.9974212725448783 -0.017238476291293894 0.002368953542533113 0.006913210609213676
0.03126302626094 0.002592810508751225 0.008699692660454499 0.9971292227479085 -0.02157741112584146 0.0003202797117241959 0.004376211815460503 -0.00029009186083752336 -0.0027649087024636592
 0.9971292227479085 -0.02157741112584146 0.0025917898371242924 0.008699824735235067 -0.00029006789787693234 -0.00276490636611503 0.00032661808344688583 0.004375412395606949
 0.0003202797117241959 0.004376211815460503 -0.00029006789787693234 -0.00276490636611503 0.0025928286374323622 0.008699272787132194 0.9971292158333908 -0.021577829315528492
 -0.00029009186083752336 -0.0027649087024636592 0.00032661808344688583 0.004375412395606949 0.9971292158333908 -0.021577829315528492 0.0025917586412975793 0.008699411996969062
0.037515631513130004 0.002833254566239958 0.010505662463949817 0.9968133723529108 -0.02593117936037159 0.0003999627378886487 0.005253948046340848 -0.0003595955593137416 -0.0033222854487359762
 0.9968133723529108 -0.02593117936037159 0.0028317859348569586 0.010505832530524953 -0.00035956123683399566 -0.0033222830558731825 0.0004090880975140772 0.005252837117018508
 0.0003999627378886487 0.005253948046340848 -0.00035956123683399566 -0.0033222830558731825 0.0028332810843335783 0.010505159134875878 0.9968133627127521 -0.025931681288160056
 -0.0003595955593137416 -0.0033222854487359762 0.0004090880975140772 0.005252837117018508 0.9968133627127521 -0.025931681288160056 0.002831741375775315 0.010505338532081677
0.043768236765320004 0.0030913155169716607 0.012330717166020713 0.9964733989001161 -0.030299644669571336 0.0004893241704841023 0.00613236940348989 -0.00043741410678849673 -0.0038806778343501718
 0.9964733989001161 -0.030299644669571336 0.003089317884749959 0.012330929567545102 -0.0004373676149982762 -0.0038806755649837352 0.0005017445101274816 0.006130880905562567
 0.0004893241704841023 0.00613236940348989 -0.0004373676149982762 -0.0038806755649837352 0.0030913520477097926 0.01233013061540417 0.9964733860732481 -0.03030023047121759
 -0.00043741410678849673 -0.0038806778343501718 0.0005017445101274816 0.006130880905562567 0.9964733860732481 -0.03030023047121759 0.0030892575999540814 0.01233035490076578
0.050020842017509996 0.003367345296851977 0.014174335865663452 0.9961089735357496 -0.034682877579095196 0.0005884625681005188 0.007011357965725355 -0.0005236509817715569 -0.00443993483464179
 0.9961089735357496 -0.034682877579095196 0.0033647376683622774 0.0141745951493303 -0.0005235905273769649 -0.004439932887266037 0.0006046867788934504 0.007009419055543582
 0.0005884625681005188 0.007011357965725355 -0.0005235905273769649 -0.004439932887266037 0.0033673934800478125 0.01417366636244075 0.9961089570522063 -0.03468354742575781
 -0.0005236509817715569 -0.00443993483464179 0.0006046867788934504 0.007009419055543582 0.9961089570522063 -0.03468354742575781 0.0033646593023363824 0.014173940485388817
0.055454545454549996 0.003622087382097627 0.015791220107402342 0.9957721629199737 -0.03850402578794548 0.0006826321147422129 0.007775588487572994 -0.0006055087561486063 -0.004926532097243325
 0.9957721629199737 -0.03850402578794548 0.00361888388988404 0.015791523984404945 -0.0006054347237730502 -0.004926530605209811 0.0007025759802097399 0.007773193670106064
 0.0006826321147422129 0.007775588487572994 -0.0006054347237730502 -0.004926530605209811 0.00362214703741616 0.015790478763538746 0.9957721428695495 -0.03850476883638424
 -0.0006055087561486063 -0.004926532097243325 0.0007025759802097399 0.007773193670106064 0.9957721428695495 -0.03850476883638424 0.0036187879048494307 0.015790800410011505
0.056273447269699996 0.0036616926890605016 0.01603606623743946 0.9957197666445929 -0.039080866963111444 0.0006974746739201348 0.007890787567457267 -0.0006184073185254009 -0.004999906850118924
 0.9957197666445929 -0.039080866963111444 0.003658394093589995 0.01603637715448102 -0.0006183311240915761 -0.004999905441661539 0.000718012539278034 0.007888318539445235
 0.0006974746739201348 0.007890787567457267 -0.0006183311240915761 -0.004999905441661539 0.003661754183010863 0.016035314087956633 0.9957197460250283 -0.03908162105852355
 -0.0006184073185254009 -0.004999906850118924 0.000718012539278034 0.007888318539445235 0.9957197460250283 -0.03908162105852355 0.0036582953002277127 0.016035643247280892
0.06252605252188 0.0039747036897216995 0.017915499161548113 0.9953054485182654 -0.043493545347382465 0.0008164552549258126 0.008770525453546051 -0.0007217818711401346 -0.005560444079130458
 0.9953054485182654 -0.043493545347382465 0.003970633161170897 0.017915866668176773 -0.0007216881746238885 -0.005560443444899753 0.0008418174203089161 0.008767439662381972
 0.0008164552549258126 0.008770525453546051 -0.0007216881746238885 -0.005560443444899753 0.003974780171651233 0.017914664711857237 0.9953054232724173 -0.043494383925424956
 -0.0007217818711401346 -0.005560444079130458 0.0008418174203089161 0.008767439662381972 0.9953054232724173 -0.043494383925424956 0.003970511604891502 0.017915054357151055
0.06877865777407 0.00430672168745294 0.01981225360988277 0.994865689841758 -0.04792080396191506 0.0009454969587307379 0.009650433277685494 -0.000833870954880166 -0.006121395552367079
 0.994865689841758 -0.04792080396191506 0.004301798245395512 0.019812682868574807 -0.0008337580093426648 -0.0061213959459861435 0.0009761948842805441 0.009646637060689781
 0.0009454969587307379 0.009650433277685494 -0.0008337580093426648 -0.0061213959459861435 0.004306814855482703 0.01981133723773678 0.994865659467678 -0.04792172729434333
 -0.000833870954880166 -0.006121395552367079 0.0009761948842805441 0.009646637060689781 0.994865659467678 -0.04792172729434333 0.004301651603253172 0.019811793071513067
0.07503126302626001 0.00465808753536058 0.021725967060851958 0.9944001620771422 -0.05236250227083096 0.0010846901818972433 0.010530367738102581 -0.000954768372173922 -0.006682608535903247
 0.9944001620771422 -0.05236250227083096 0.004652230165242762 0.021726463442643743 -0.0009546344454714306 -0.006682610229262368 0.0011212360823335103 0.010525760338139322
 0.0010846901818972433 0.010530367738102581 -0.0009546344454714306 -0.006682610229262368 0.004658199109088091 0.021724969187976964 0.9944001260599153 -0.052363510654719655
 -0.000954768372173922 -0.006682608535903247 0.0011212360823335103 0.010525760338139322 0.9944001260599153 -0.052363510654719655 0.004652056128695489 0.021725497168412072
0.08128386827845 0.005029139556964784 0.023656289131910452 0.9939085377847651 -0.05681847429130082 0.001234122944555201 0.011410181013779802 -0.0010845653292025656 -0.007243928139870939
 0.9939085377847651 -0.05681847429130082 0.005022267191566982 0.023656858218998437 -0.0010844087038182878 -0.007243931423064368 0.0012770297191905238 0.01140465450297352
 0.001234122944555201 0.011410181013779802 -0.0010844087038182878 -0.007243931423064368 0.005029271278213742 0.02365521021337529 0.9939084955946967 -0.05681956805940681
 -0.0010845653292025656 -0.007243928139870939 0.0012770297191905238 0.01140465450297352 0.9939084955946967 -0.05681956805940681 0.005022063467704505 0.023655816557689356
0.08753647353064001 0.005420213504309021 0.025602877170277406 0.993390490901572 -0.06128853296144744 0.0013938807694294085 0.012289721071746357 -0.0012233503459235435 -0.007805197062533651
 0.993390490901572 -0.06128853296144744 0.005412245004507446 0.025603524759619547 -0.0012231693187713753 -0.007805202243813891 0.0014436619239723658 0.012283160276148482
 0.0013938807694294085 0.012289721071746357 -0.0012231693187713753 -0.007805202243813891 0.005420367138529944 0.025601717700307138 0.9933904419934653 -0.06128971247589424
 -0.0012233503459235435 -0.007805197062533651 0.0014436619239723658 0.012283160276148482 0.9933904419934653 -0.06128971247589424 0.005412009318608063 0.025602408888826922
0.09378907878283 0.0058316424864555665 0.02756539311538546 0.9928456969929341 -0.06577247324381727 0.0015640465639042167 0.013168831898434959 -0.001371209161042455 -0.00836625541691922
 0.9928456969929341 -0.06577247324381727 0.0058224966225706555 0.02756612522280912 -0.0013710020434183846 -0.008366262822630732 0.0016212161254797208 0.013161114323896555
 0.0015640465639042167 0.013168831898434959 -0.0013710020434183846 -0.008366262822630732 0.005831819823707662 0.02756415362378398 0.992845640804572 -0.06577373889928573
 -0.001371209161042455 -0.00836625541691922 0.0016212161254797208 0.013161114323896555 0.992845640804572 -0.06577373889928573 0.005822226719358942 0.027564936404774164
0.100041684035 0.006263756875117775 0.029543501198609448 0.9922738334860984 -0.07027007439963942 0.0017447005038021225 0.014047353679591283 -0.0015282246339908337 -0.008926940615737825
 0.9922738334860984 -0.07027007439963942 0.006253352307726386 0.029544324063726448 -0.001527989751449845 -0.008926950590265638 0.0018097729299954243 0.014038349438859414
 0.0017447005038021225 0.014047353679591283 -0.001527989751449845 -0.008926950590265638 0.006263959731296387 0.029542182251433423 0.9922737694372635 -0.07027142662209207
 -0.0015282246339908337 -0.008926940615737825 0.0018097729299954243 0.014038349438859414 0.9922737694372635 -0.07027142662209207 0.006253045953725128 0.02954306364653111
0.1059090909091 0.0066883553407618215 0.03141362810860605 0.9917122952189189 -0.07450281155180101 0.0019238328408865473 0.01487107189357911 -0.0016839660771184226 -0.009452597559433833
 0.9917122952189189 -0.07450281155180101 0.0066766955220172695 0.031414542019346556 -0.0016837036299209261 -0.009452610273760332 0.0019967894598774405 0.014860735473608428
 0.0019238328408865473 0.01487107189357911 -0.0016837036299209261 -0.009452610273760332 0.006688583819355056 0.03141223514921502 0.991712223248857 -0.07450424542161312
 -0.0016839660771184226 -0.009452597559433833 0.0019967894598774405 0.014860735473608428 0.991712223248857 -0.07450424542161312 0.006676352952712165 0.0314132157183219
0.1062942892872 0.00671688419305391 0.031536866214617154 0.9916745798897859 -0.07478110169931003 0.0019359199187489946 0.014925122946865408 -0.0016944766440124479 -0.009487087296609667
 0.9916745798897859 -0.07478110169931003 0.006705139454116673 0.03153778630646298 -0.0016942123363190274 -0.009487100202325576 0.002009410001548426 0.01491469468816707
 0.0019359199187489946 0.014925122946865408 -0.0016942123363190274 -0.009487100202325576 0.006717114411102646 0.03153546841585747 0.9916745073808764 -0.07478254094369043
 -0.0016944766440124479 -0.009487087296609667 0.002009410001548426 0.01491469468816707 0.9916745073808764 -0.07478254094369043 0.006704794439729453 0.031536455726339126
0.11254689453939999 0.007191348990664984 0.03354515221565458 0.9910476180049143 -0.07930530771836429 0.0021377791786053742 0.015801972701028545 -0.0018700419874892887 -0.01004652727788094
 0.9910476180049143 -0.07930530771836429 0.007178182464274006 0.03354617623909823 -0.001869746608573084 -0.010046543495078447 0.0022202019435816384 0.015789975538116775
 0.0021377791786053742 0.015801972701028545 -0.001869746608573084 -0.010046543495078447 0.007191608441284758 0.03354367620356791 0.9910475364153812 -0.07930683447157875
 -0.0018700419874892887 -0.01004652727788094 0.0022202019435816384 0.015789975538116775 0.9910475364153812 -0.07930683447157875 0.007177796605217401 0.03354477701730634
0.11879949979160001 0.00768747271172531 0.03556802148838824 0.9903926321283398 -0.08384243335955703 0.002350349580663286 0.01667773251975347 -0.0020549942739614105 -0.010605089537058843
 0.9903926321283398 -0.08384243335955703 0.007672802614754416 0.035569156391375756 -0.0020546661918634792 -0.010605109463924059 0.002442220181939952 0.016664013963608015
 0.002350349580663286 0.01667773251975347 -0.0020546661918634792 -0.010605109463924059 0.007687763294779926 0.035566467936291285 0.9903925408155332 -0.08384404813889734
 -0.0020549942739614105 -0.010605089537058843 0.002442220181939952 0.016664013963608015 0.9903925408155332 -0.08384404813889734 0.007672373754554619 0.03556769013552774
0.1250521050438 0.008205573551849265 0.037605133757007914 0.9897093092519421 -0.08839220865727723 0.00257369923758766 0.01755222865697994 -0.002249403820968976 -0.011162600205191763
 0.9897093092519421 -0.08839220865727723 0.008189317915172167 0.03760638673851474 -0.0022490414179022963 -0.0111626242577289 0.00267553284903178 0.01753662854924315
 0.00257369923758766 0.01755222865697994 -0.0022490414179022963 -0.0111626242577289 0.00820589719737679 0.037603503372643184 0.9897092075499512 -0.08839391201031503
 -0.002249403820968976 -0.011162600205191763 0.00267553284903178 0.01753662854924315 0.9897092075499512 -0.08839391201031503 0.008188843926999853 0.03760485514248068
0.131304710296 0.008745966310382486 0.039656145547984585 0.988997339257769 -0.09295435342960337 0.00280789296641805 0.018425284132717407 -0.0024533375483103397 -0.011718882578273596
 0.988997339257769 -0.09295435342960337 0.008728042958986973 0.03965752406689854 -0.002452939220590179 -0.011718911190232684 0.00292020466885863 0.018407634580941645
 0.00280789296641805 0.018425284132717407 -0.002452939220590179 -0.011718911190232684 0.00874632497991801 0.03965443907494776 0.9889972264759793 -0.09295614593168212
 -0.0024533375483103397 -0.011718882578273596 0.00292020466885863 0.018407634580941645 0.9889972264759793 -0.09295614593168212 0.00872752174789461 0.03965592891281291
0.1375573155481 0.009188560129296017 0.0414537723525852 0.988376874163774 -0.09726148359618658 0.0030237922968002176 0.019270374634300275 -0.0026375353716497196 -0.012247527785566521
 0.988376874163774 -0.09726148359618658 0.009168879468481089 0.041455253562666695 -0.002637098567603525 -0.012247561008041074 0.0031468416803245467 0.019250694105858737
 0.0030237922968002176 0.019270374634300275 -0.002637098567603525 -0.012247561008041074 0.009188954743699275 0.04145199074774055 0.9883767497756515 -0.09726336561093867
 -0.0026375353716497196 -0.012247527785566521 0.0031468416803245467 0.019250694105858737 0.9883767497756515 -0.09726336561093867 0.009168309696699944 0.04145359610365084
0.1438099208003 0.009646844163749385 0.043241328572387876 0.9877343840490664 -0.10155708127606046 0.003248371680546801 0.020111738070206494 -0.002829075594930088 -0.01277267939269135
 0.9877343840490664 -0.10155708127606046 0.009625322597884884 0.043242918174864864 -0.002828598560820136 -0.012772717659372579 0.003382627579452418 0.020089872287093417
 0.003248371680546801 0.020111738070206494 -0.002828598560820136 -0.012772717659372579 0.009647276541682856 0.04323947266436087 0.9877342473615746 -0.10155905337289192
 -0.002829075594930088 -0.01277267939269135 0.003382627579452418 0.020089872287093417 0.9877342473615746 -0.10155905337289192 0.009624702352945184 0.0432412002251575
0.1500625260525 0.010120648632652786 0.045018646618707595 0.9870700433745027 -0.10584102123611448 0.003481547068722879 0.02094927898998462 -0.003027874889810579 -0.01329424486931947
 0.9870700433745027 -0.10584102123611448 0.01009720232638797 0.045020350674997885 -0.003027355874094252 -0.013294288631775316 0.003627475283569929 0.020925068035423863
 0.003481547068722879 0.02094927898998462 -0.003027355874094252 -0.013294288631775316 0.01012112061107835 0.04501671727051873 0.9870698936737075 -0.105843084004108
 -0.003027874889810579 -0.01329424486931947 0.003627475283569929 0.020925068035423863 0.9870698936737075 -0.105843084004108 0.010096529735833932 0.045018574119868274
0.15631513130469998 0.010609802444665561 0.04678556390216887 0.9863840276081429 -0.11011317908765479 0.0037232333562334063 0.021782903712112098 -0.0032338488397066186 -0.013812133746651302
 0.9863840276081429 -0.11011317908765479 0.010584347316597449 0.04678738884460763 -0.0032332860932123503 -0.01381218347419586 0.0038812966041991944 0.021756182092953057
