! Created with skrf 1.8.0 (http://scikit-rf.org).
# GHz S RI R 50.0 
!freq ReS11 ImS11 ReS12 ImS12 ReS13 ImS13
! ReS14 ImS14
! ReS21 ImS21 ReS22 ImS22 ReS23 ImS23
! ReS24 ImS24
! ReS31 ImS31 ReS32 ImS32 ReS33 ImS33
! ReS34 ImS34
! ReS41 ImS41 ReS42 ImS42 ReS43 ImS43
! ReS44 ImS44
!
0.0 0.001177698729989 0.0 0.99882230127 0.0 4.461543059771e-05 0.0 -4.461543128563e-05 5.4638145116525456e-21
 0.99882230127 0.0 0.001177698730009 0.0 -4.461543128612e-05 5.463814511712554e-21 4.461543059738e-05 0.0
 4.461543059771e-05 0.0 -4.461543128612e-05 5.463814511712554e-21 0.0011776987229 0.0 0.9988223012629 0.0
 -4.461543128563e-05 5.4638145116525456e-21 4.461543059738e-05 0.0 0.9988223012629 0.0 0.001177698722898 0.0
0.005 0.0012662353203897957 0.0009676605374264948 0.9987104315032315 -0.0024677921781433893 6.148841345851668e-05 0.00046990135136620387 -5.993351288873199e-05 -0.0002988721577995756
 0.9987104315032315 -0.0024677921781433893 0.001266239622496255 0.0009676580568457971 -5.9932970480500556e-05 -0.0002988717965182609 6.146287204147686e-05 0.0004699110643288424
 6.148841345851668e-05 0.00046990135136620387 -5.9932970480500556e-05 -0.0002988717965182609 0.0012662349808599462 0.0009675935300187288 0.9987104311787239 -0.002467859238496619
 -5.993351288873199e-05 -0.0002988721577995756 6.146287204147686e-05 0.0004699110643288424 0.9987104311787239 -0.002467859238496619 0.0012662393174568698 0.0009675909475789163
0.006252605252188 0.001289214098418238 0.0012133993489645833 0.9986812543867377 -0.0030853794913855404 6.617416985449697e-05 0.0005876293134049959 -6.414706753014236e-05 -0.0003739850320142615
 0.9986812543867377 -0.0030853794913855404 0.0012892208231185473 0.0012133961993940076 -6.414622304709553e-05 -0.00037398458746894795 6.61342630169114e-05 0.0005876419116337384
 6.617416985449697e-05 0.0005876293134049959 -6.414622304709553e-05 -0.00037398458746894795 0.0012892136395462736 0.0012133156003067717 0.9986812539515696 -0.0030854633132775568
 -6.414706753014236e-05 -0.0003739850320142615 6.61342630169114e-05 0.0005876419116337384 0.9986812539515696 -0.0030854633132775568 0.0012892204187998281 0.001213312313238214
0.01250521050438 0.0014087719627868035 0.00245244035717106 0.9985286385929485 -0.006171744312007123 9.233429552368174e-05 0.0011757520892583737 -8.745658035737457e-05 -0.0007499081392368821
 0.9985286385929485 -0.006171744312007123 0.0014087988088469193 0.0024524335661309676 -8.745324658018743e-05 -0.0007499073265950916 9.217514125803578e-05 0.0011757821395521997
 9.233429552368174e-05 0.0011757520892583737 -8.745324658018743e-05 -0.0007499073265950916 0.001408770680054373 0.0024522731806031145 0.9985286374097121 -0.006171911719629159
 -8.745658035737457e-05 -0.0007499081392368821 9.217514125803578e-05 0.0011757821395521997 0.9985286374097121 -0.006171911719629159 0.0014087977567072325 0.002452266010876419
0.01875781575657 0.0015365822847334992 0.003709419393298507 0.9983643008892941 -0.009266651611513504 0.00012314878639347972 0.0017647665992805068 -0.0001146044117387507 -0.0011272866091307954
 0.9983643008892941 -0.009266651611513504 0.0015366425970656386 0.003709408433277038 -0.00011459696893560224 -0.0011272855179150524 0.0001227912270741069 0.0017648197285469512
 0.00012314878639347972 0.0017647665992805068 -0.00011459696893560224 -0.0011272855179150524 0.0015365798147159348 0.0037091689926866253 0.9983642986513597 -0.00926690252170944
 -0.0001146044117387507 -0.0011272866091307954 0.0001227912270741069 0.0017648197285469512 0.9983642986513597 -0.00926690252170944 0.001536640670891992 0.003709157302592318
0.02501042100875 0.0016728513591023901 0.00498263553155622 0.9981880837448958 -0.0123716510436047 0.0001586713214125717 0.002354721758249523 -0.00014564986054270467 -0.0015059845871806057
 0.9981880837448958 -0.0123716510436047 0.0016729584480795923 0.004982619844181649 -0.00014563670524951234 -0.001505983321489539 0.00015803614040519633 0.002354804329977556
 0.0001586713214125717 0.002354721758249523 -0.00014563670524951234 -0.001505983321489539 0.0016728473312365808 0.004982302098598067 0.9981880801423609 -0.012371985421874914
 -0.00014564986054270467 -0.0015059845871806057 0.00015803614040519633 0.002354804329977556 0.9981880801423609 -0.012371985421874914 0.0016729554291272878 0.004982285212665827
0.03126302626094 0.001817776559817111 0.006271238869799837 0.9979998199295891 -0.015487436421711562 0.0001989562042961393 0.002945615828369129 -0.00018065101968511553 -0.0018859143494033342
 0.9979998199295891 -0.015487436421711562 0.0018179437079434524 0.006271217866912191 -0.00018063056176293474 -0.0018859130281674696 0.0001979640484160435 0.002945734945996562
 0.0001989562042961393 0.002945615828369129 -0.00018063056176293474 -0.0018859130281674696 0.0018177705987320587 0.006270822603311028 0.9979998146504826 -0.01548785426326084
 -0.00018065101968511553 -0.0018859143494033342 0.0001979640484160435 0.002945734945996562 0.9979998146504826 -0.01548785426326084 0.0018179393866342732 0.006270799809066717
0.037515631513130004 0.0019715511540993867 0.007574694527312992 0.9977993374064195 -0.018614381678789534 0.00024405788236793352 0.003537427449087185 -0.00021966518399710937 -0.0022670052604161156
 0.9977993374064195 -0.018614381678789534 0.001971791620070382 0.007574667591432131 -0.00021963584512258057 -0.0022670040175042433 0.00024262922497311583 0.0035375909632916107
 0.00024405788236793352 0.003537427449087185 -0.00021963584512258057 -0.0022670040175042433 0.001971542881959168 0.007574195651118472 0.9977993301382593 -0.01861488299094243
 -0.00021966518399710937 -0.0022670052604161156 0.00024262922497311583 0.0035375909632916107 0.9977993301382593 -0.01861488299094243 0.001971785798041324 0.007574166199363393
0.043768236765320004 0.0021343661830142547 0.008892619529719453 0.9975864612899321 -0.021752703934704912 0.00029403072783142634 0.004130125068259979 -0.0002627490071420319 -0.002649194329986699
 0.9975864612899321 -0.021752703934704912 0.002134693204647902 0.008892586014446101 -0.00026270921991875483 -0.002649193314283596 0.00029208584911989845 0.004130341585530135
 0.00029403072783142634 0.004130125068259979 -0.00026270921991875483 -0.002649193314283596 0.0021343552181091264 0.008892038280000207 0.9975864517176277 -0.021753288749862716
 -0.0002627490071420319 -0.002649194329986699 0.00029208584911989845 0.004130341585530135 0.9975864517176277 -0.021753288749862716 0.002134685693080407 0.008892001385001177
0.050020842017509996 0.0023064113337873896 0.010224715399837568 0.9973610147990509 -0.02490253085579341 0.0003489289129303113 0.0047236708311281924 -0.0003099585678993425 -0.0030324223120867613
 0.9973610147990509 -0.02490253085579341 0.0023068381307017796 0.010224674630122539 -0.00030990677533906664 -0.003032421687555057 0.0003463878894932718 0.004723949722820218
 0.0003489289129303113 0.0047236708311281924 -0.00030990677533906664 -0.003032421687555057 0.0023063972931118603 0.01022405203988038 0.9973610026068035 -0.024903199216980306
 -0.0003099585678993425 -0.0030324223120867613 0.0003463878894932718 0.004723949722820218 0.9973610026068035 -0.024903199216980306 0.0023068287522658598 0.010224006879471887
0.055454545454549996 0.00246356642093686 0.011393662739841246 0.9971547479707791 -0.027649225478731363 0.00040067893823726605 0.0052401361551584974 -0.00035437885107712737 -0.0033662581461105746
 0.9971547479707791 -0.027649225478731363 0.0024640906488862632 0.01139361509548502 -0.0003543153688253366 -0.0033662580064229494 0.0003975547773735033 0.005240477463853516
 0.00040067893823726605 0.0052401361551584974 -0.0003543153688253366 -0.0033662580064229494 0.002463549393671374 0.011392928260463304 0.9971547332421191 -0.027649966485359785
 -0.00035437885107712737 -0.0033662581461105746 0.0003975547773735033 0.005240477463853516 0.9971547332421191 -0.027649966485359785 0.0024640795113990105 0.011392875221208654
0.056273447269699996 0.0024878754076710437 0.011570735065149036 0.9971228198065575 -0.02806393369740186 0.0004088063265424077 0.005318022485648402 -0.00036134939621361147 -0.003416631788132679
 0.9971228198065575 -0.02806393369740186 0.002488415183281344 0.01157068633750944 -0.00036128405133159844 -0.003416631733862246 0.00040558902626870253 0.005318373897318618
 0.0004088063265424077 0.005318022485648402 -0.00036128405133159844 -0.003416631733862246 0.0024878579049255837 0.011569989888326521 0.9971228046745656 -0.028064685655566426
 -0.00036134939621361147 -0.003416631788132679 0.00040558902626870253 0.005318373897318618 0.9971228046745656 -0.028064685655566426 0.0024884037701050988 0.011569935603965714
0.06252605252188 0.002678946580550678 0.012930464682881997 0.996871697182821 -0.03123694542883909 0.0004737165102123735 0.005913134430600727 -0.00041697647978092663 -0.0038017661082644723
 0.996871697182821 -0.03123694542883909 0.002679612523896787 0.01293040726558402 -0.00041689604536781805 -0.0038017668185226458 0.00046974259073471184 0.005913569291448729
 0.0004737165102123735 0.005913134430600727 -0.00041689604536781805 -0.0038017668185226458 0.0026789252285110495 0.01292963799643749 0.9968716787893368 -0.0312377810593046
 -0.00041697647978092663 -0.0038017661082644723 0.00046974259073471184 0.005913569291448729 0.9968716787893368 -0.0312377810593046 0.0026795989195706623 0.01292957369320282
0.06877865777407 0.00287981255857112 0.01430371277439933 0.9966074670365019 -0.03442157154957675 0.0005437126064261828 0.006508958333129344 -0.00047689425804680767 -0.004187768764110749
 0.9966074670365019 -0.03442157154957675 0.002880617846304824 0.014303645907620755 -0.0004767972065106189 -0.004187770448390395 0.0005389015161391831 0.006509488365494349
 0.0005437126064261828 0.006508958333129344 -0.0004767972065106189 -0.004187770448390395 0.002879786968284095 0.014302804916954842 0.996607445055887 -0.034422490934893475
 -0.00047689425804680767 -0.004187768764110749 0.0005389015161391831 0.006509488365494349 0.996607445055887 -0.034422490934893475 0.0028806019047592354 0.014302729663508016
0.07503126302626001 0.0030906606662802166 0.015690303361697834 0.9963299488895043 -0.037617796904255325 0.000618847313632721 0.0071054435196893605 -0.0005411566089317143 -0.004574582989165408
 0.9963299488895043 -0.037617796904255325 0.003091618464266935 0.015690226257579872 -0.0005410414222016994 -0.004574585872223028 0.0006131182945580741 0.007106081248592747
 0.000618847313632721 0.0071054435196893605 -0.0005410414222016994 -0.004574585872223028 0.003090630448738735 0.01568931469791949 0.9963299229932091 -0.03761880013965394
 -0.0005411566089317143 -0.004574582989165408 0.0006131182945580741 0.007106081248592747 0.9963299229932091 -0.03761880013965394 0.003091600051173397 0.015689227526458606
0.08128386827845 0.0033116778976727984 0.01709007138752589 0.9960389618163642 -0.04082559021484637 0.0006991728446537313 0.007702537238345262 -0.00060981683160163 -0.004962151488939675
 0.9960389618163642 -0.04082559021484637 0.003312801362703543 0.01708998323025155 -0.0006096820010655348 -0.004962155810838529 0.0006924449366251784 0.007703296000991249
 0.0006991728446537313 0.007702537238345262 -0.0006096820010655348 -0.004962155810838529 0.0033116426632391572 0.017089002306708706 0.9960389316715708 -0.04082667741000628
 -0.00060981683160163 -0.004962151488939675 0.0006924449366251784 0.007703296000991249 0.9960389316715708 -0.04082667741000628 0.003312780354690661 0.01708890221284558
0.08753647353064001 0.0035430509396125963 0.018502859543425447 0.9957343245577799 -0.044044907206140065 0.0007847408885272488 0.008300184833353397 -0.0006829276249716269 -0.005350416259996778
 0.9957343245577799 -0.044044907206140065 0.0035443532209566814 0.018502759489223246 -0.0006827716514770793 -0.005350422276142546 0.0007769329345965867 0.008301078788618908
 0.0007847408885272488 0.008300184833353397 -0.0006827716514770793 -0.005350422276142546 0.003543010299131683 0.018501710462854388 0.9957342898273379 -0.0440460784819436
 -0.0006829276249716269 -0.005350416259996778 0.0007769329345965867 0.008301078788618908 0.9957342898273379 -0.0440460784819436 0.00354432950633626 0.018501596405495237
0.09378907878283 0.0037849661770249245 0.01992851601452178 0.9954158556177849 -0.04727569281559022 0.0008756025734413148 0.008898329873071285 -0.0007605410644978744 -0.005739318456882662
 0.9954158556177849 -0.04727569281559022 0.0037864604182867353 0.019928403191649856 -0.0007603624583498135 -0.005739326438056538 0.0008666332261936912 0.008899374010946329
 0.0008756025734413148 0.008898329873071285 -0.0007603624583498135 -0.005739326438056538 0.003784919742339232 0.01992728737630409 0.9954158159599835 -0.04727694830755557
 -0.0007605410644978744 -0.005739318456882662 0.0008666332261936912 0.008899374010946329 0.9954158159599835 -0.04727694830755557 0.0037864338973169548 0.019927158277434267
0.100041684035 0.004037609686392166 0.02136689280980351 0.9950833733500364 -0.050517882819036394 0.0009718084308273302 0.009496914244634334 -0.0008427085770827542 -0.006128798293566698
 0.9950833733500364 -0.050517882819036394 0.00403930902693903 0.02136676631845016 -0.0008425058580839764 -0.0061288085259634745 0.0009615961593841107 0.009498124395603028
 0.0009718084308273302 0.009496914244634334 -0.0008425058580839764 -0.0061288085259634745 0.004037557070698588 0.02136558508466474 0.9950833284183762 -0.05051922267371262
 -0.0008427085770827542 -0.006128798293566698 0.0009615961593841107 0.009498124395603028 0.9950833284183762 -0.05051922267371262 0.004039279611886056 0.02136543982915186
0.1059090909091 0.004284611539221568 0.022728096302825483 0.9947584671676505 -0.053570642235647975 0.0010669923485930445 0.010058968573678478 -0.0009240011696637277 -0.006494755025839534
 0.9947584671676505 -0.053570642235647975 0.0042865152913039006 0.022727956141638105 -0.0009237744855828844 -0.006494767644816677 0.0010555394165901514 0.010060349664873182
 0.0010669923485930445 0.010058968573678478 -0.0009237744855828844 -0.006494767644816677 0.004284552773373364 0.02272671481541188 0.9947584169669365 -0.053572061400231526
 -0.0009240011696637277 -0.006494755025839534 0.0010555394165901514 0.010060349664873182 0.9947584169669365 -0.053572061400231526 0.004286483091915221 0.022726553351159955
0.1062942892872 0.0043011672190114425 0.02281784451223846 0.9947366960368854 -0.05377140503791727 0.0010734083606388847 0.010095878220203271 -0.0009294809139946453 -0.006518794974659953
 0.9947366960368854 -0.05377140503791727 0.004303084795424391 0.022817703424476476 -0.0009292526114865419 -0.006518807759916624 0.0010618714584351738 0.010097271064560192
 0.0010734083606388847 0.010095878220203271 -0.0009292526114865419 -0.006518807759916624 0.004301108037616748 0.022816458198663073 0.9947366454793577 -0.05377282941389889
 -0.0009294809139946453 -0.006518794974659953 0.0010618714584351738 0.010097271064560192 0.9947366454793577 -0.05377282941389889 0.00430305241117914 0.02281629563404511
0.11254689453939999 0.004575824177397588 0.024281227322995726 0.9943756419620127 -0.05703618025395186 0.0011804515963166112 0.010695160512708217 -0.001020908123396647 -0.006909246638482839
 0.9943756419620127 -0.05703618025395186 0.004577973125448144 0.024281070682551524 -0.001020652776346899 -0.006909262293703878 0.0011675081894931656 0.010696753589806336
 0.0011804515963166112 0.010695160512708217 -0.001020652776346899 -0.006909262293703878 0.004575758048040237 0.024279762945629016 0.9943755854208214 -0.05703768932360378
 -0.001020908123396647 -0.006909246638482839 0.0011675081894931656 0.010696753589806336 0.9943755854208214 -0.05703768932360378 0.004577937709300025 0.02427958188175542
0.11879949979160001 0.004861765585908593 0.025756898306177174 0.9940000294795185 -0.06031212292462864 0.0012929866707237032 0.01129469831749387 -0.0011170395213184591 -0.007300090315680167
 0.9940000294795185 -0.06031212292462864 0.004864159041860278 0.02575672512828657 -0.001116755678385318 -0.007300109173462656 0.0012785547269196253 0.011296510034866803
 0.0012929866707237032 0.01129469831749387 -0.001116755678385318 -0.007300109173462656 0.004861692129533113 0.02575535641931197 0.9939999665910757 -0.0603137168707917
 -0.0011170395213184591 -0.007300090315680167 0.0012785547269196253 0.011296510034866803 0.9939999665910757 -0.0603137168707917 0.004864120544145108 0.025755155628054412
0.1250521050438 0.005159176057290617 0.027244714800388897 0.9936096770806584 -0.0635991417337634 0.0014110613817094454 0.011894427346410111 -0.001217923662177916 -0.0076912618968174975
 0.9936096770806584 -0.0635991417337634 0.00516182715972299 0.027244524071516122 -0.0012176098818140783 -0.007691284305275935 0.0013950587194222438 0.011896476988829206
 0.0014110613817094454 0.011894427346410111 -0.0012176098818140783 -0.007691284305275935 0.0051590948985545644 0.027243095984084777 0.9936096074745687 -0.06360082075370868
 -0.001217923662177916 -0.0076912618968174975 0.0013950587194222438 0.011896476988829206 0.9936096074745687 -0.06360082075370868 0.005161785544001987 0.02724287419892032
0.131304710296 0.005468239755349094 0.028744533933622963 0.9932044034574443 -0.06689714004006614 0.0015347227580242008 0.01249428185531353 -0.0013236083083871778 -0.008082696108059065
 0.9932044034574443 -0.06689714004006614 0.005471161646570747 0.028744324611210712 -0.0013232631589290673 -0.008082722430844293 0.0015170670563981502 0.012496589593765229
 0.0015347227580242008 0.01249428185531353 -0.0013232631589290673 -0.008082722430844293 0.0054681505231622815 0.028742838798469485 0.9932043267566025 -0.06689890434083637
 -0.0013236083083871778 -0.008082696108059065 0.0015170670563981502 0.012496589593765229 0.9932043267566025 -0.06689890434083637 0.005471116889903821 0.028742594714095095
0.1375573155481 0.005710287611228535 0.030060892120181842 0.9928628983745991 -0.07001064639095891 0.0016462750184239089 0.013074181203121158 -0.0014164205500684192 -0.008454305443268475
 0.9928628983745991 -0.07001064639095891 0.005713494958323694 0.030060667869625416 -0.0014160421038529923 -0.008454335647627055 0.0016269253300195442 0.013076740256298524
 0.0016462750184239089 0.013074181203121158 -0.0014160421038529923 -0.008454335647627055 0.0057101906309120504 0.030059120843980356 0.9928628142590485 -0.07001249609467752
 -0.0014164205500684192 -0.008454305443268475 0.0016269253300195442 0.013076740256298524 0.9928628142590485 -0.07001249609467752 0.005713446241744689 0.030058858586507312
0.1438099208003 0.005960563607814106 0.0313716060145412 0.9925099061464928 -0.07311755063903855 0.0017623219447054923 0.013652429846807973 -0.0015129468542662123 -0.008824402698489078
 0.9925099061464928 -0.07311755063903855 0.0059640698106634095 0.031371366103175875 -0.0015125336043518116 -0.008824437131976557 0.0017412032508060792 0.013655258313051337
 0.0017623219447054923 0.013652429846807973 -0.0015125336043518116 -0.008824437131976557 0.0059604586408419456 0.03136975919189813 0.9925098142408154 -0.07311948595058514
 -0.0015129468542662123 -0.008824402698489078 0.0017412032508060792 0.013655258313051337 0.9925098142408154 -0.07311948595058514 0.005964016986227517 0.03136947783699917
0.1500625260525 0.006218994843949176 0.03267660417435096 0.9921455023186537 -0.07621781415990192 0.0018828318505723152 0.014228992232420686 -0.0016131565005949988 -0.009192953536342285
 0.9921455023186537 -0.07621781415990192 0.0062228133197007 0.03267634782926672 -0.001612706943450905 -0.009192992560192199 0.0018598694838769861 0.014232108857843494
 0.0018828318505723152 0.014228992232420686 -0.001612706943450905 -0.009192992560192199 0.006218881664365145 0.03267468242210623 0.9921454022415337 -0.07621983529316285
 -0.0016131565005949988 -0.009192953536342285 0.0018598694838769861 0.014232108857843494 0.9921454022415337 -0.07621983529316285 0.006222756243089356 0.03267438099987422
0.15631513130469998 0.006485508076492892 0.0339758175517675 0.9917697626257828 -0.07931139776896416 0.0020077727764380025 0.014803833274214357 -0.0017170184844062342 -0.009559924253682916
