! Created with skrf 1.8.0 (http://scikit-rf.org).
# GHz S RI R 50.0 
!freq ReS11 ImS11 ReS12 ImS12 ReS13 ImS13
! ReS14 ImS14
! ReS21 ImS21 ReS22 ImS22 ReS23 ImS23
! ReS24 ImS24
! ReS31 ImS31 ReS32 ImS32 ReS33 ImS33
! ReS34 ImS34
! ReS41 ImS41 ReS42 ImS42 ReS43 ImS43
! ReS44 ImS44
!
0.0 0.001453201588613 0.0 0.9985467984114 0.0 5.58099033063e-05 0.0 -5.580990303964e-05 6.834741911821927e-21
 0.9985467984114 0.0 0.001453201588602 0.0 -5.580990303966e-05 6.834741911824375e-21 5.580990330597e-05 0.0
 5.58099033063e-05 0.0 -5.580990303966e-05 6.834741911824375e-21 0.001453201584351 0.0 0.9985467984071 0.0
 -5.580990303964e-05 6.834741911821927e-21 5.580990330597e-05 0.0 0.9985467984071 0.0 0.001453201584343 0.0
0.005 0.0015632511496949163 0.0011907207804987868 0.9984076160693726 -0.003044300322534815 7.779841672601972e-05 0.000604602401343031 -7.563007023620522e-05 -0.0003813497375312631
 0.9984076160693726 -0.003044300322534815 0.001563267056104186 0.0011907114587595999 -7.56274948422645e-05 -0.00038134774019582356 7.771007842880303e-05 0.0006046360224785715
 7.779841672601972e-05 0.000604602401343031 -7.56274948422645e-05 -0.00038134774019582356 0.0015632529229524276 0.0011907869780162987 0.9984076164202667 -0.003044233256195311
 -7.563007023620522e-05 -0.0003813497375312631 7.771007842880303e-05 0.0006046360224785715 0.9984076164202667 -0.003044233256195311 0.0015632659788147503 0.0011907793887328982
0.006252605252188 0.0015920378050684185 0.0014930874970579598 0.9983709906851733 -0.0038061307928856443 8.404121006050476e-05 0.0007560551786710315 -8.118907431125086e-05 -0.0004771820735402886
 0.9983709906851733 -0.0038061307928856443 0.0015920626699369395 0.0014930756667611937 -8.11850669008485e-05 -0.0004771796101625299 8.390318889360452e-05 0.0007560988234043213
 8.404121006050476e-05 0.0007560551786710315 -8.11850669008485e-05 -0.0004771796101625299 0.0015920405021269209 0.001493170219964747 0.9983709911588045 -0.003806046977304363
 -8.118907431125086e-05 -0.0004771820735402886 8.390318889360452e-05 0.0007560988234043213 0.9983709911588045 -0.003806046977304363 0.001592060910377558 0.0014931605634163022
0.01250521050438 0.0017431346503354362 0.0030174994865189595 0.9981775331073696 -0.007613129823011121 0.00011963484176908586 0.0015125248215533717 -0.00011253161547640129 -0.0009567141396564978
 0.9981775331073696 -0.007613129823011121 0.0017432339410648756 0.003017474015545256 -0.0001125158239165532 -0.0009567095763355397 0.0001190844275401362 0.0015126295055103265
 0.00011963484176908586 0.0015125248215533717 -0.0001125158239165532 -0.0009567095763355397 0.0017431448618936626 0.0030176646088746306 0.9981775344371475 -0.007612962419644458
 -0.00011253161547640129 -0.0009567141396564978 0.0001190844275401362 0.0015126295055103265 0.9981775344371475 -0.007612962419644458 0.0017432263460570706 0.0030176435913708386
0.01875781575657 0.0019068071861097662 0.00456368681002122 0.9979661958133156 -0.011430276512136881 0.00016267083424445684 0.002269912169618917 -0.00014993048892961549 -0.0014379297162060295
 0.9979661958133156 -0.011430276512136881 0.0019070303058801258 0.004563645718138478 -0.00014989527456334717 -0.001437923482590624 0.00016143434450102692 0.0022700985435761974
 0.00016267083424445684 0.002269912169618917 -0.00014989527456334717 -0.001437923482590624 0.0019068297199862309 0.004563934079878312 0.9979661983849335 -0.01143002559743651
 -0.00014993048892961549 -0.0014379297162060295 0.00016143434450102692 0.0022700985435761974 0.9979661983849335 -0.01143002559743651 0.001907012806382895 0.004563899901084071
0.02501042100875 0.00208336197472264 0.00612950552329933 0.9977367402669984 -0.015259436140500394 0.00021323059168570829 0.003028254773048187 -0.00019347599732184664 -0.0019206232736685036
 0.9977367402669984 -0.015259436140500394 0.0020837582326170448 0.006129446677793098 -0.00019341381285147837 -0.0019206158734037032 0.00021103420582276093 0.0030285466235942383
 0.00021323059168570829 0.003028254773048187 -0.00019341381285147837 -0.0019206158734037032 0.00208340163012488 0.006129834662078528 0.9977367444646816 -0.015259101739456566
 -0.00019347599732184664 -0.0019206232736685036 0.00021103420582276093 0.0030285466235942383 0.9977367444646816 -0.015259101739456566 0.002083726755472831 0.006129785439228428
0.03126302626094 0.002273092849327876 0.007713860232474557 0.9974889152194 -0.01910141648445694 0.00027139612861056884 0.0037875220498778126 -0.0002432561181123559 -0.002404652620037099
 0.9974889152194 -0.01910141648445694 0.002273711486193657 0.007713781351166185 -0.00024315949193239305 -0.0024046446317488577 0.0002679656285438167 0.003787946317167995
 0.00027139612861056884 0.0037875220498778126 -0.00024315949193239305 -0.0024046446317488577 0.0022731544196446384 0.00771427090793537 0.9974889214280138 -0.019100998597349848
 -0.0002432561181123559 -0.002404652620037099 0.0002679656285438167 0.003787946317167995 0.9974889214280138 -0.019100998597349848 0.0022736619528533585 0.007714204678901247
0.037515631513130004 0.0024762874037932386 0.009316042693419235 0.9972224633728973 -0.02295662915852302 0.00033724925780301106 0.004547656582320375 -0.0002993571195388814 -0.0028898975952842735
 0.9972224633728973 -0.02295662915852302 0.002477177608514564 0.0093159413457698 -0.0002992186476519965 -0.0028898896728542984 0.000332309908981647 0.004548243391970185
 0.00033724925780301106 0.004547656582320375 -0.0002992186476519965 -0.0028898896728542984 0.0024763756808263188 0.009316534518649413 0.9972224719822439 -0.02295612776130971
 -0.0002993571195388814 -0.0028898975952842735 0.000332309908981647 0.004548243391970185 0.9972224719822439 -0.02295612776130971 0.0024771059377046655 0.009316449243879216
0.043768236765320004 0.0026932295024220854 0.010935530554020184 0.9969371240692202 -0.026825290805793295 0.0004108712100462998 0.00530858667457982 -0.00036186378595399495 -0.0033762475071059637
 0.9969371240692202 -0.026825290805793295 0.0026944404246954843 0.010935404161683976 -0.0003616761272010224 -0.0033762403797978013 0.00040414770233134027 0.005309369374019591
 0.0004108712100462998 0.00530858667457982 -0.0003616761272010224 -0.0033762403797978013 0.0026933492717586154 0.01093610308519014 0.9969371354700505 -0.02682470585173066
 -0.00036186378595399495 -0.0033762475071059637 0.00040414770233134027 0.005309369374019591 0.9969371354700505 -0.02682470585173066 0.00269434252673916 0.010935996648957195
0.050020842017509996 0.0029242004428409294 0.012571904174665095 0.9966326346341774 -0.03070750620805214 0.0004923424090568715 0.006070231543687228 -0.00043085950118879594 -0.0038635959358237016
 0.9966326346341774 -0.03070750620805214 0.0029257812039835533 0.012571750011454818 -0.0004306153742226681 -0.003863590408291763 0.0004835588293835805 0.00607124674034634
 0.0004923424090568715 0.006070231543687228 -0.0004306153742226681 -0.003863590408291763 0.0029243564869103973 0.01257255690217662 0.9966326492213556 -0.030706837635751397
 -0.00043085950118879594 -0.0038635959358237016 0.0004835588293835805 0.00607124674034634 0.9966326492213556 -0.030706837635751397 0.0029256529828094137 0.012572427113763813
0.055454545454549996 0.0031365313181289326 0.014007396781443143 0.9963522669064703 -0.03409230382820699 0.0005695796365422895 0.006732636806599412 -0.0004961524925222875 -0.004287846088023918
 0.9963522669064703 -0.03409230382820699 0.003138473357797544 0.014007216155560052 -0.0004958534244390465 -0.004287842662785131 0.0005587812420875859 0.0067338863413475515
 0.0005695796365422895 0.006732636806599412 -0.0004958534244390465 -0.004287842662785131 0.0031367227658217834 0.014008118738972706 0.9963522845861438 -0.03409156252544852
 -0.0004961524925222875 -0.004287846088023918 0.0005587812420875859 0.0067338863413475515 0.9963522845861438 -0.03409156252544852 0.003138315451985209 0.01400796681993809
0.056273447269699996 0.0031694795664676395 0.014224805793676116 0.9963087311720931 -0.034603309051291664 0.0005817423145255327 0.006832503853892307 -0.0005064262689268871 -0.004351838198127581
 0.9963087311720931 -0.034603309051291664 0.0031714792687228288 0.014224620985399476 -0.0005061184500675304 -0.00435183515042399 0.0005706221386820059 0.006833791454247618
 0.0005817423145255327 0.006832503853892307 -0.0005061184500675304 -0.00435183515042399 0.0031696766623234176 0.014225538144466008 0.9963087493439757 -0.034602556781703424
 -0.0005064262689268871 -0.004351838198127581 0.0005706221386820059 0.006833791454247618 0.9963087493439757 -0.034602556781703424 0.003171316619910603 0.014225382738845865
0.06252605252188 0.003429344584352224 0.015893917084010452 0.9959651490808948 -0.03851268430168252 0.0006791492977893896 0.00759531112069024 -0.0005886447022012846 -0.004840869943972435
 0.9959651490808948 -0.03851268430168252 0.003431812319603142 0.01589369860789887 -0.0005882660239982986 -0.004840870331528701 0.0006654153946951988 0.007596914369711814
 0.0006791492977893896 0.00759531112069024 -0.0005882660239982986 -0.004840870331528701 0.003429587504326671 0.01589472842363553 0.9959651712410519 -0.038511848235385795
 -0.0005886447022012846 -0.004840869943972435 0.0006654153946951988 0.007596914369711814 0.9959651712410519 -0.038511848235385795 0.0034316111310832465 0.0158945450620313
0.06877865777407 0.0037040717554035233 0.017578945771293306 0.9956016234224149 -0.04243558152299147 0.0007846405375914666 0.008358556541465232 -0.0006775939930336374 -0.005330586329891524
 0.9956016234224149 -0.04243558152299147 0.0037070566143993784 0.017578690455220272 -0.0006771373433709926 -0.005330591183472632 0.0007680151826118395 0.00836052206218595
 0.0007846405375914666 0.008358556541465232 -0.0006771373433709926 -0.005330591183472632 0.0037043652661755203 0.017579835394624276 0.9956016499791257 -0.04243466154864876
 -0.0006775939930336374 -0.005330586329891524 0.0007680151826118395 0.00836052206218595 0.9956016499791257 -0.04243466154864876 0.003706812764786697 0.017579621664805346
0.07503126302626001 0.003993935977188906 0.019279617142643802 0.9952178892074285 -0.046371923305830155 0.0008982919261707775 0.009122139527728085 -0.0007733518716516791 -0.005820881493943207
 0.9952178892074285 -0.046371923305830155 0.003997487057063259 0.019279321664102993 -0.000772810192989252 -0.005820891919613264 0.0008784968210042692 0.009124517360729965
 0.0008982919261707775 0.009122139527728085 -0.000772810192989252 -0.005820891919613264 0.003994284838885924 0.019280584279488706 0.9952179205745902 -0.046370919294020325
 -0.0007733518716516791 -0.005820881493943207 0.0008784968210042692 0.009124517360729965 0.9952179205745902 -0.046370919294020325 0.003997196415701047 0.01928033769584675
0.08128386827845 0.0042992108179859025 0.020995668405171898 0.9948136816264489 -0.05032161085101874 0.001020177982308636 0.00988595605807499 -0.0008759945580022225 -0.006311648213313786
 0.9948136816264489 -0.05032161085101874 0.004303377230635357 0.02099532928999332 -0.0008753608469865828 -0.006311665392379203 0.0009969342797986342 0.009888799700835784
 0.001020177982308636 0.00988595605807499 -0.0008753608469865828 -0.006311665392379203 0.004299619783530383 0.02099671221771735 0.9948137182240059 -0.05032052265600116
 -0.0008759945580022225 -0.006311648213313786 0.0009969342797986342 0.009888799700835784 0.9948137182240059 -0.05032052265600116 0.004303035656826958 0.020996430221041255
0.08753647353064001 0.004620168513238864 0.02272684477707238 0.9943887362483209 -0.05428452782383601 0.0011503717687920054 0.010649898927884652 -0.0009855967078339384 -0.006802777668707941
 0.9943887362483209 -0.05428452782383601 0.004624999393398117 0.02272645839787303 -0.0009848640150334955 -0.006802802857656798 0.0011234001022314866 0.010653265373870622
 0.0011503717687920054 0.010649898927884652 -0.0009848640150334955 -0.006802802857656798 0.004620642327778535 0.022727964357623455 0.9943887785029671 -0.05428335528521447
 -0.0009855967078339384 -0.006802777668707941 0.0011234001022314866 0.010653265373870622 0.9943887785029671 -0.05428335528521447 0.004624602736153692 0.02272764431469904
0.09378907878283 0.004957079937201976 0.024472896697615036 0.993942789195487 -0.05826054309329414 0.0012889448127038267 0.011413857930319219 -0.001102231355310994 -0.007294159281084674
 0.993942789195487 -0.05826054309329414 0.004962624450090258 0.024472459272041027 -0.0011013927851001484 -0.007294193811514416 0.0012579653282775638 0.011417807707755278
 0.0012889448127038267 0.011413857930319219 -0.0011013927851001484 -0.007294193811514416 0.00495762333695844 0.02447409106970264 0.9939428375410319 -0.058259286034296726
 -0.001102231355310994 -0.007294159281084674 0.0012579653282775638 0.011417807707755278 0.9939428375410319 -0.058259286034296726 0.004962168547509849 0.024473730272629012
0.100041684035 0.005310214554050607 0.0262335777807205 0.9934755773040933 -0.0622495127320716 0.0014359670276413038 0.012177719991409798 -0.0012259698525316901 -0.007785680598127071
 0.9934755773040933 -0.0622495127320716 0.005316521903807561 0.02623308536933353 -0.001225018563111906 -0.007785725876665926 0.0014006994200300776 0.012182317201626195
 0.0014359670276413038 0.012177719991409798 -0.001225018563111906 -0.007785725876665926 0.005310832266114567 0.026234845897936194 0.993475632182325 -0.06224817096011355
 -0.0012259698525316901 -0.007785680598127071 0.0014006994200300776 0.012182317201626195 0.993475632182325 -0.06224817096011355 0.005316002582969821 0.026234441563152248
0.1059090909091 0.005656587500284141 0.02789887726173694 0.9930175746953752 -0.06600438137731643 0.0015816770059095303 0.012894332205265837 -0.0013486082104199775 -0.008246946393308929
 0.9930175746953752 -0.06600438137731643 0.005663655483160682 0.027898329527167483 -0.001347544971425863 -0.00824700310387639 0.0015421301460600265 0.012899598478185116
 0.0015816770059095303 0.012894332205265837 -0.001347544971425863 -0.00824700310387639 0.005657279236373187 0.027900213563305198 0.9930176361134473 -0.0660029599250995
 -0.0013486082104199775 -0.008246946393308929 0.0015421301460600265 0.012899598478185116 0.9930176361134473 -0.0660029599250995 0.0056630728456477115 0.027899765772922677
0.1062942892872 0.005679840358322213 0.028008643278947025 0.9929868382735451 -0.0662512815102989 0.001591506637199137 0.012941369278919637 -0.0013568818071271079 -0.008277227210701853
 0.9929868382735451 -0.0662512815102989 0.005686959795344482 0.028008091782904882 -0.001355811010582379 -0.00827728471891582 0.0015516701875411718 0.012946681634327663
 0.001591506637199137 0.012941369278919637 -0.001355811010582379 -0.00827728471891582 0.005680537099201667 0.028009984021535574 0.992986900134933 -0.06624985481979648
 -0.0013568818071271079 -0.008277227210701853 0.0015516701875411718 0.012946681634327663 0.992986900134933 -0.06624985481979648 0.005686372871823685 0.028009533288614583
0.11254689453939999 0.006066223802127512 0.029797848899480596 0.9924763108087331 -0.07026568404179218 0.0017556300994212078 0.013704687287822348 -0.0014950350178027753 -0.008768682696752204
 0.9924763108087331 -0.07026568404179218 0.0060742046313465685 0.029797234057980414 -0.0014938379802786825 -0.008768753991047895 0.001710943715766401 0.01371078614934357
 0.0017556300994212078 0.013704687287822348 -0.0014938379802786825 -0.008768753991047895 0.006067004276834755 0.02979926107896353 0.9924763801122359 -0.07026417220904091
 -0.0014950350178027753 -0.008768682696752204 0.001710943715766401 0.01371078614934357 0.9924763801122359 -0.07026417220904091 0.006073545908584255 0.02979876100909806
0.11879949979160001 0.006469629715919033 0.031600949895404414 0.9919437347560232 -0.07429254565972601 0.001928402031671728 0.014467552913589535 -0.0016404954088154737 -0.009259928581423122
 0.9919437347560232 -0.07429254565972601 0.006478521304911905 0.03160026728269001 -0.0016391654507811348 -0.009260015292933426 0.0018785842914856015 0.014474513327575322
 0.001928402031671728 0.014467552913589535 -0.0016391654507811348 -0.009260015292933426 0.0064704986172602254 0.03160243225042118 0.9919438119703524 -0.07429094844651697
 -0.0016404954088154737 -0.009259928581423122 0.0018785842914856015 0.014474513327575322 0.9919438119703524 -0.07429094844651697 0.006477786573906547 0.031601879824651555
0.1250521050438 0.00689032122246601 0.03341770033505351 0.9913888512365265 -0.0783316831189787 0.002109885136294239 0.015229842513938344 -0.001793326963138184 -0.009750844312857604
 0.9913888512365265 -0.0783316831189787 0.006900173009190658 0.033416945357272985 -0.001791857459655307 -0.00975094814731436 0.0020546543306611846 0.01523774324855267
 0.002109885136294239 0.015229842513938344 -0.001791857459655307 -0.00975094814731436 0.006891283229994089 0.03341925153234615 0.9913889368404364 -0.07833000027118424
 -0.001793326963138184 -0.009750844312857604 0.0020546543306611846 0.01523774324855267 0.9913889368404364 -0.07833000027118424 0.006899358048174881 0.033418643649488454
0.131304710296 0.007328559644993778 0.035247852529794683 0.9908114027753201 -0.0823829051450641 0.002300140126184874 0.015991429966828317 -0.0019535916548477418 -0.010241307245977032
 0.9908114027753201 -0.0823829051450641 0.007339421145957235 0.035247020421488494 -0.001951976035838041 -0.010241429983590247 0.002239214306027299 0.016000353547791158
 0.002300140126184874 0.015991429966828317 -0.001951976035838041 -0.010241429983590247 0.0073296194238502595 0.035249471161547224 0.9908114972585297 -0.0823811363948501
 -0.0019535916548477418 -0.010241307245977032 0.002239214306027299 0.016000353547791158 0.9908114972585297 -0.0823811363948501 0.007338521720158157 0.035248804635725016
0.1375573155481 0.007681766778143991 0.03685287130560258 0.9903140062678732 -0.08620763769646489 0.0024748009319925874 0.016728295059041564 -0.0020969999411676815 -0.010707264242733624
 0.9903140062678732 -0.08620763769646489 0.00769369020371822 0.03685197358177165 -0.0020952284427656503 -0.010707405956991259 0.0024080392117414046 0.016738226098863926
 0.0024748009319925874 0.016728295059041564 -0.0020952284427656503 -0.010707405956991259 0.007682928431165338 0.03685455612226338 0.9903141100384819 -0.08620578289126414
 -0.0020969999411676815 -0.010707264242733624 0.0024080392117414046 0.016738226098863926 0.9903141100384819 -0.08620578289126414 0.007692702782922965 0.036853843919051096
0.1438099208003 0.008047330760455107 0.03844983683385169 0.9897992494043085 -0.09002307017160094 0.002656525806774502 0.017462361523000416 -0.0022461499270196934 -0.011170676243396481
 0.9897992494043085 -0.09002307017160094 0.008060366126980903 0.03844886971188783 -0.002244215482934251 -0.011170838679143733 0.002583671406785138 0.01747337525891398
 0.002656525806774502 0.017462361523000416 -0.002244215482934251 -0.011170838679143733 0.00804859883188453 0.03845158638413592 0.9897993629506218 -0.0900211290506119
 -0.0022461499270196934 -0.011170676243396481 0.002583671406785138 0.01747337525891398 0.9897993629506218 -0.0900211290506119 0.008059286584366086 0.03845082633562542
0.1500625260525 0.008425128202436596 0.04003862731775764 0.9892672592798938 -0.09382911951203529 0.0028452555529968433 0.01819356061300096 -0.002400984546811611 -0.01163147878844833
 0.9892672592798938 -0.09382911951203529 0.008439325613621283 0.04003758681029271 -0.0023988801049417987 -0.01163166376043744 0.0027660531008833846 0.01820573502771889
 0.0028452555529968433 0.01819356061300096 -0.0023988801049417987 -0.01163166376043744 0.008426507216423743 0.04004044009445448 0.9892673830994414 -0.09382709180211116
 -0.002400984546811611 -0.01163147878844833 0.0027660531008833846 0.01820573502771889 0.9892673830994414 -0.09382709180211116 0.008438149817745582 0.040039629893625056
0.15631513130469998 0.008815034905402539 0.04161912468942517 0.988718163561485 -0.09762570271754896 0.0030409303108465883 0.018921824684994728 -0.0025614460673077785 -0.012089608733036447
