! Created with skrf 1.8.0 (http://scikit-rf.org).
# GHz S RI R 50.0 
!freq ReS11 ImS11 ReS12 ImS12 ReS13 ImS13
! ReS14 ImS14
! ReS21 ImS21 ReS22 ImS22 ReS23 ImS23
! ReS24 ImS24
! ReS31 ImS31 ReS32 ImS32 ReS33 ImS33
! ReS34 ImS34
! ReS41 ImS41 ReS42 ImS42 ReS43 ImS43
! ReS44 ImS44
!
0.0 0.001217696094497 0.0 0.9987823039055 0.0 4.62235697563e-05 0.0 -4.62235700232e-05 5.660754707407543e-21
 0.9987823039055 0.0 0.00121769609447 0.0 -4.622357002181e-05 5.660754707237317e-21 4.622356975582e-05 0.0
 4.62235697563e-05 0.0 -4.622357002181e-05 5.660754707237317e-21 0.001217696080072 0.0 0.9987823038911 0.0
 -4.62235700232e-05 5.660754707407543e-21 4.622356975582e-05 0.0 0.9987823038911 0.0 0.001217696080121 0.0
0.005 0.0013093354365696524 0.0010004024888910902 0.9986664994059147 -0.002551471637583788 6.377173342751171e-05 0.0004873092327316226 -6.21440204706097e-05 -0.0003098433584536904
 0.9986664994059147 -0.002551471637583788 0.0013093422547784785 0.0010003985507265425 -6.214329899546968e-05 -0.0003098428641579225 6.373647541691386e-05 0.0004873227306665565
 6.377173342751171e-05 0.0004873092327316226 -6.214329899546968e-05 -0.0003098428641579225 0.0013093351631623975 0.0010003354417500504 0.9986664990793787 -0.0025515386988350037
 -6.21440204706097e-05 -0.0003098433584536904 6.373647541691386e-05 0.0004873227306665565 0.9986664990793787 -0.0025515386988350037 0.0013093418780133134 0.00100033147762744
0.006252605252188 0.0013331465421538072 0.0012544526426628516 0.9986362568549252 -0.003189996432138068 6.86609734868463e-05 0.0006093966021677111 -6.65355750632688e-05 -0.00038771213983835955
 0.9986362568549252 -0.003189996432138068 0.0013331571995991445 0.001254447617803403 -6.65344518838745e-05 -0.00038771153133354227 6.860588635688855e-05 0.0006094140970841625
 6.86609734868463e-05 0.0006093966021677111 -6.65344518838745e-05 -0.00038771153133354227 0.0013331461798019347 0.0012543688479007933 0.9986362564098735 -0.003190080251078377
 -6.65355750632688e-05 -0.00038771213983835955 6.860588635688855e-05 0.0006094140970841625 0.9986362564098735 -0.003190080251078377 0.0013331566765230074 0.0012543637798250193
0.01250521050438 0.0014571942029837689 0.0025353771490875467 0.9984778409141711 -0.006380968918212776 9.604391109330437e-05 0.001219285069069276 -9.089762179671682e-05 -0.0007774178375811528
 0.9984778409141711 -0.006380968918212776 0.0014572367493618174 0.002535366066518478 -9.089318919195899e-05 -0.0007774167222339449 9.582425121277444e-05 0.001219326692349999
 9.604391109330437e-05 0.001219285069069276 -9.089318919195899e-05 -0.0007774167222339449 0.0014571933250000486 0.0025352098781985894 0.998477839711696 -0.006381136311302713
 -9.089762179671682e-05 -0.0007774178375811528 9.582425121277444e-05 0.001219326692349999 0.998477839711696 -0.006381136311302713 0.0014572352429798139 0.0025351986001202094
0.01875781575657 0.0015900630301842284 0.0038348041147839964 0.9983068928313696 -0.009580725644161943 0.0001284288166166382 0.0018300758372386343 -0.00011937427035694712 -0.0011686131146841606
 0.9983068928313696 -0.009580725644161943 0.0015901586168788472 0.0038347858666786827 -0.00011936437635917038 -0.0011686116117059378 0.00012793540747461343 0.0018301493248287168
 0.0001284288166166382 0.0018300758372386343 -0.00011936437635917038 -0.0011686116117059378 0.001590061469452802 0.003834553543813549 0.9983068905521916 -0.009580976530780062
 -0.00011937427035694712 -0.0011686131146841606 0.00012793540747461343 0.0018301493248287168 0.9983068905521916 -0.009580976530780062 0.0015901556711512411 0.0038345348345937592
0.02501042100875 0.001731972727835259 0.005150970009542191 0.9981232442790472 -0.012790863634681135 0.00016587292162900132 0.0024418165067172344 -0.00015202877538537888 -0.0015611540742836764
 0.9981232442790472 -0.012790863634681135 0.001732142451806278 0.005150943418885538 -0.0001520112903511783 -0.0015611523224711922 0.00016499655432614875 0.0024419306421885473
 0.00016587292162900132 0.0024418165067172344 -0.0001520112903511783 -0.0015611523224711922 0.0017319703118579906 0.005150636302940427 0.9981232406043905 -0.012791197967839268
 -0.00015202877538537888 -0.0015611540742836764 0.00016499655432614875 0.0024419306421885473 0.9981232406043905 -0.012791197967839268 0.0017321376214489293 0.005150608867387168
0.03126302626094 0.0018831335815402324 0.006482990998965251 0.9979267167912299 -0.01601209490465421 0.00020843409645089622 0.0030545019972108814 -0.00018892306411809725 -0.0019549467135770524
 0.9979267167912299 -0.01601209490465421 0.001883398495143433 0.006482954820446215 -0.0001888958767125872 -0.0019549448716431337 0.0002070654204994294 0.003054666615491756
 0.00020843409645089622 0.0030545019972108814 -0.0001888958767125872 -0.0019549448716431337 0.0018831301324113321 0.006482574329459514 0.9979267114019131 -0.016012512651464694
 -0.00018892306411809725 -0.0019549467135770524 0.0002070654204994294 0.003054666615491756 0.9979267114019131 -0.016012512651464694 0.0018833913448548967 0.006482536798833532
0.037515631513130004 0.002043751509237147 0.007830308786727075 0.9977171269020647 -0.019244800571570832 0.000256170326214271 0.003668106772536957 -0.0002301181711681518 -0.0023499146864296087
 0.9977171269020647 -0.019244800571570832 0.002044132626189668 0.007830261707095774 -0.00023007918633737004 -0.002349912933141529 0.0002541997973277717 0.0036683327696173627
 0.000256170326214271 0.003668106772536957 -0.00023007918633737004 -0.002349912933141529 0.002043746844805902 0.007829809325231411 0.9977171194790179 -0.01924530172358309
 -0.0002301181711681518 -0.0023499146864296087 0.0002541997973277717 0.0036683327696173627 0.9977171194790179 -0.01924530172358309 0.002044122731287496 0.007829760257408537
0.043768236765320004 0.0022140300268452154 0.009192521947366746 0.9974942882005476 -0.022489199471753592 0.00030913947560108184 0.004282594621819854 -0.00027567440073542786 -0.002745989509756583
 0.9974942882005476 -0.022489199471753592 0.0022145483264438956 0.009192462585641931 -0.0002756215384907756 -0.0027459880440195215 0.0003064573280148562 0.0042828939663146675
 0.00030913947560108184 0.004282594621819854 -0.0002756215384907756 -0.0027459880440195215 0.0022140239603742357 0.00919193987740984 0.9974942784239534 -0.02248978403075045
 -0.00027567440073542786 -0.002745989509756583 0.0003064573280148562 0.0042828939663146675 0.9974942784239534 -0.02248978403075045 0.0022145352721288443 0.00919187775694542
0.050020842017509996 0.0023941711633577705 0.01056931624276048 0.9972580123368813 -0.025745417790914178 0.00036739914920164 0.004897922718452254 -0.0003256513984849971 -0.0031431064926334636
 0.9972580123368813 -0.025745417790914178 0.002394847593917897 0.010569243150293159 -0.00032558259316135005 -0.003143105533571932 0.00036389538039225056 0.004898308463933731
 0.00036739914920164 0.004897922718452254 -0.00032558259316135005 -0.003143105533571932 0.0023941635033093377 0.010568651758986627 0.9972579998852502 -0.02574608577071883
 -0.0003256513984849971 -0.0031431064926334636 0.00036389538039225056 0.004898308463933731 0.9972579998852502 -0.02574608577071883 0.002394830974630357 0.010568574996949805
0.055454545454549996 0.0025588850706149396 0.011777430007918976 0.9970416215214952 -0.028584822654829128 0.00042236960082920103 0.005433307077837374 -0.0003727189738104488 -0.0034890106968234183
 0.9970416215214952 -0.028584822654829128 0.0025597159124174044 0.01177734375406308 -0.00037263464663314037 -0.003489010371775137 0.0004180622936995593 0.005433779361685517
 0.00042236960082920103 0.005433307077837374 -0.00037263464663314037 -0.003489010371775137 0.0025588758672181232 0.011776694079519597 0.9970416064831716 -0.028585563141728235
 -0.0003727189738104488 -0.0034890106968234183 0.0004180622936995593 0.005433779361685517 0.9970416064831716 -0.028585563141728235 0.0025596958733647723 0.011776603246032927
0.056273447269699996 0.0025843759462805664 0.011960430410453742 0.9970081096004254 -0.029013523222524137 0.0004310066023539952 0.0055140435764188195 -0.00038010817406528957 -0.0035412027688490368
 0.9970081096004254 -0.029013523222524137 0.0025852314278899144 0.011960342071013748 -0.00038002137380160146 -0.0035412025558574935 0.0004265709662221152 0.005514529874128898
 0.0004310066023539952 0.0055140435764188195 -0.00038002137380160146 -0.0035412025558574935 0.0025843664975081938 0.011959683726568577 0.9970080941512328 -0.02901427464116505
 -0.00038010817406528957 -0.0035412027688490368 0.0004265709662221152 0.005514529874128898 0.9970080941512328 -0.02901427464116505 0.002585210848178573 0.011959590660536411
0.06252605252188 0.002784844676398644 0.013365637360848075 0.9967443892897991 -0.032293543717451675 0.0005000186677223353 0.006130906156101741 -0.00043910310897688794 -0.003940216180941909
 0.9967443892897991 -0.032293543717451675 0.0027859001037355067 0.013365532190540774 -0.0004389962753831351 -0.003940216973747138 0.0004945406720943462 0.006131508267849215
 0.0005000186677223353 0.006130906156101741 -0.0004389962753831351 -0.003940216973747138 0.0027848332395441536 0.01336480870453033 0.996744370518329 -0.032294378602575974
 -0.00043910310897688794 -0.003940216180941909 0.0004945406720943462 0.006131508267849215 0.996744370518329 -0.032294378602575974 0.0027858751773631456 0.013364697598270444
0.06877865777407 0.0029957770843453114 0.014784732964264127 0.996466659965343 -0.035585478644460475 0.0005744916997922325 0.0067484564964748524 -0.0005026939458003481 -0.004340084638992095
 0.996466659965343 -0.035585478644460475 0.002997053328816667 0.014784609311471691 -0.0005025650537238823 -0.004340086717696077 0.0005678606077978498 0.006749190807636432
 0.0005744916997922325 0.0067484564964748524 -0.0005025650537238823 -0.004340086717696077 0.0029957634571304292 0.014783822575006739 0.9964666375455544 -0.03558639703571713
 -0.0005026939458003481 -0.004340084638992095 0.0005678606077978498 0.006749190807636432 0.9964666375455544 -0.03558639703571713 0.0029970236798713998 0.014783691618330676
0.07503126302626001 0.0032173724227216594 0.016217528930323098 0.9961747296405208 -0.03888930585954567 0.0006544815232693537 0.007366638122193776 -0.0005709377731898048 -0.004740745705762091
 0.9961747296405208 -0.03888930585954567 0.003218890334912288 0.016217385075546653 -0.0005707848105968748 -0.004740749370894537 0.0006465863573327882 0.0073675221547340256
 0.0006544815232693537 0.007366638122193776 -0.0005707848105968748 -0.004740749370894537 0.003217356399773651 0.016216537062966784 0.9961747032440053 -0.038890307805127707
 -0.0005709377731898048 -0.004740745705762091 0.0006465863573327882 0.0073675221547340256 0.9961747032440053 -0.038890307805127707 0.0032188555970859775 0.016216384371429183
0.08128386827845 0.0034498295151411543 0.017663848085856474 0.9958684059312803 -0.0422049863777299 0.0007400433863487918 0.007985392323069412 -0.000643891005512797 -0.005142136310772626
 0.9958684059312803 -0.0422049863777299 0.0034516099267900384 0.017663682241543376 -0.0006437119733894896 -0.0051421418833335186 0.0007307729339206216 0.007986444748549712
 0.0007400433863487918 0.007985392323069412 -0.0006437119733894896 -0.0051421418833335186 0.0034498108883740716 0.0176627750146121 0.9958683752271884 -0.0422060719306458
 -0.000643891005512797 -0.005142136310772626 0.0007307729339206216 0.007986444748549712 0.9958683752271884 -0.0422060719306458 0.003451569743698122 0.01766259862918264
0.08753647353064001 0.0036933467769602493 0.019123521095805136 0.9955474961789296 -0.04553246760327599 0.0008312319185909508 0.008604658328328454 -0.000721609356865426 -0.005544192570996175
 0.9955474961789296 -0.04553246760327599 0.0036954105032232796 0.01912333140607901 -0.0007214022691914676 -0.005544200392490965 0.0008204747397635258 0.00860589898087842
 0.0008312319185909508 0.008604658328328454 -0.0007214022691914676 -0.005544200392490965 0.003693325336338181 0.01912236711064283 0.9955474608342202 -0.04553363682512297
 -0.000721609356865426 -0.005544192570996175 0.0008204747397635258 0.00860589898087842 0.9955474608342202 -0.04553363682512297 0.003695364528846138 0.019122164997318766
0.09378907878283 0.003948122218564341 0.020596384125295315 0.9952118075578418 -0.04887168562025807 0.0009281010880212799 0.00922437344555871 -0.0008041478153598627 -0.005946849648334821
 0.9952118075578418 -0.04887168562025807 0.003950490060135246 0.020596168665718884 -0.0008039106991337317 -0.005946860080820922 0.000915745524265712 0.009225823334775892
 0.0009281010880212799 0.00922437344555871 -0.0008039106991337317 -0.005946860080820922 0.003948097751794618 0.020595149529961304 0.995211767236046 -0.04887293858335939
 -0.0008041478153598627 -0.005946849648334821 0.000915745524265712 0.009225823334775892 0.995211767236046 -0.04887293858335939 0.003950437958026695 0.020594919579354467
0.100041684035 0.004214353433261545 0.02208227711491149 0.9948611471691919 -0.05222256687140051 0.0010307041614575794 0.009844473157123423 -0.0008915606133486887 -0.006350041651135078
 0.9948611471691919 -0.05222256687140051 0.004217046178184513 0.022082033892037577 -0.0008912915086030794 -0.006350055077250001 0.001016638345422995 0.009846154480899245
 0.0010307041614575794 0.009844473157123423 -0.0008912915086030794 -0.006350055077250001 0.004214325726835216 0.022080962234213058 0.9948611015313293 -0.05222390365168549
 -0.0008915606133486887 -0.006350041651135078 0.001016638345422995 0.009846154480899245 0.9948611015313293 -0.05222390365168549 0.004216987622448009 0.02208070226104974
0.1059090909091 0.0044747777214188865 0.02348834030081662 0.9945183011099143 -0.055377548205307284 0.0011322479850328553 0.010426661741210357 -0.0009780690308024659 -0.006728821407247102
 0.9945183011099143 -0.055377548205307284 0.004477794250833316 0.023488069150248515 -0.0009777681373233406 -0.006728838008931023 0.001116475360025748 0.010428581500205895
 0.0011322479850328553 0.010426661741210357 -0.0009777681373233406 -0.006728838008931023 0.0044747467796129835 0.023486950390290952 0.9945182501720402 -0.055378963716269325
 -0.0009780690308024659 -0.006728821407247102 0.001116475360025748 0.010428581500205895 0.9945182501720402 -0.055378963716269325 0.004477729351740195 0.023486660188595774
0.1062942892872 0.00449223757704386 0.02358104249267001 0.9944953221290386 -0.05558502940197002 0.001139093664657646 0.010464891192226761 -0.0009839011969614894 -0.00675370156164256
 0.9944953221290386 -0.05558502940197002 0.004495276002975785 0.023580769443712634 -0.0009835981568338586 -0.006753718384634665 0.0011232055310683182 0.010466827349470405
 0.001139093664657646 0.010464891192226761 -0.0009835981568338586 -0.006753718384634665 0.004492206416183103 0.023579647666411824 0.994495270832505 -0.055586450085216024
 -0.0009839011969614894 -0.00675370156164256 0.0011232055310683182 0.010466827349470405 0.994495270832505 -0.055586450085216024 0.004495210677838698 0.023579355409010908
0.11254689453939999 0.004781971338924854 0.025092524180423976 0.9941141396480145 -0.05895898381093394 0.0012533213429235083 0.011085559584157991 -0.0010812221945425532 -0.007157761179916548
 0.9941141396480145 -0.05895898381093394 0.004785376214927266 0.025092219172719112 -0.0010808832853380593 -0.007157781823680028 0.001235498640226566 0.011087775187370292
 0.0012533213429235083 0.011085559584157991 -0.0010808832853380593 -0.007157781823680028 0.004781936508415645 0.025091049766424522 0.9941140823469105 -0.05896048848981212
 -0.0010812221945425532 -0.007157761179916548 0.001235498640226566 0.011087775187370292 0.9941140823469105 -0.05896048848981212 0.004785303815460678 0.0250907228860901
0.11879949979160001 0.005083750907147352 0.026616566818478127 0.9937174071090049 -0.06234433398575473 0.0013734381226599584 0.01170640871603059 -0.0011835753834023182 -0.0075621510808691955
 0.9937174071090049 -0.06234433398575473 0.005087542996024094 0.026616227649004977 -0.0011831986847455254 -0.007562175989958245 0.001353568425305957 0.011708929603827705
 0.0013734381226599584 0.01170640871603059 -0.0011831986847455254 -0.007562175989958245 0.00508371219115631 0.026615013191444683 0.9937173434533453 -0.06234592276112991
 -0.0011835753834023182 -0.0075621510808691955 0.001353568425305957 0.011708929603827705 0.9937173434533453 -0.06234592276112991 0.005087463227259707 0.026614649271839395
0.1250521050438 0.0053977719291433595 0.02815301515189744 0.9933049321407028 -0.06574097767740307 0.0014994940722082987 0.012327367355894122 -0.0012910116564259248 -0.007966800583711972
 0.9933049321407028 -0.06574097767740307 0.005401971989161886 0.02815263954665956 -0.0012905952613160695 -0.007966830223371328 0.0014774647939000988 0.01233022060529697
 0.0014994940722082987 0.012327367355894122 -0.0012905952613160695 -0.007966830223371328 0.005397729112250441 0.02815138270328263 0.9933048617766719 -0.06574265065862736
 -0.0012910116564259248 -0.007966800583711972 0.0014774647939000988 0.01233022060529697 0.9933048617766719 -0.06574265065862736 0.005401884567300068 0.02815097924968864
0.131304710296 0.005724229468831457 0.029701713534142745 0.9928765226893023 -0.0691488069600685 0.0016315383635138346 0.012948362689344312 -0.0014035809874024796 -0.00837163772566494
 0.9928765226893023 -0.0691488069600685 0.005728858255840351 0.029701299147463056 -0.0014031230023905425 -0.008371672581836256 0.0016072367707714488 0.012951576627982006
 0.0016315383635138346 0.012948362689344312 -0.0014031230023905425 -0.008371672581836256 0.005724182335984297 0.029700002676250867 0.9928764452587059 -0.06915056426088824
 -0.0014035809874024796 -0.00837163772566494 0.0016072367707714488 0.012951576627982006 0.9928764452587059 -0.06915056426088824 0.0057287629075606925 0.02969955711484191
0.1375573155481 0.0059811035574308955 0.03106089901452797 0.9925142212844491 -0.07236604959774486 0.0017510139807936414 0.013548734980165242 -0.0015027554388874107 -0.00875599174741711
 0.9925142212844491 -0.07236604959774486 0.005986184038100733 0.031060453592577853 -0.0015022532696710336 -0.008756031786403228 0.0017243805130537524 0.013552300843420387
 0.0017510139807936414 0.013548734980165242 -0.0015022532696710336 -0.008756031786403228 0.005981052642370136 0.031059109708364653 0.9925141364685945 -0.07236789127371672
 -0.0015027554388874107 -0.00875599174741711 0.0017243805130537524 0.013552300843420387 0.9925141364685945 -0.07236789127371672 0.005986079671193687 0.03105863035151832
0.1438099208003 0.006246755603311575 0.03241412801099327 0.9921396536139462 -0.07557633789224587 0.001875308431586434 0.014147319567588884 -0.0016059002603881422 -0.009138710734172495
 0.9921396536139462 -0.07557633789224587 0.006252308891278863 0.032413649927247545 -0.0016053519065282313 -0.00913875642225502 0.0018462397851860828 0.014151262886068511
 0.001875308431586434 0.014147319567588884 -0.0016053519065282313 -0.00913875642225502 0.006246700827470337 0.03241226063696919 0.9921395610566539 -0.07557826405451103
 -0.0016059002603881422 -0.009138710734172495 0.0018462397851860828 0.014151262886068511 0.9921395610566539 -0.07557826405451103 0.006252195099287536 0.03241174571006355
0.1500625260525 0.006521106535327318 0.03376132292595266 0.9917529015478755 -0.07877962798069986 0.0020043868804557655 0.014744076993758055 -0.0017129817237297913 -0.009519756830790921
 0.9917529015478755 -0.07877962798069986 0.00652715376108863 0.03376081047179698 -0.0017123851891839323 -0.009519808652670872 0.001972780232895482 0.01474842421946785
 0.0020043868804557655 0.014744076993758055 -0.0017123851891839323 -0.009519808652670872 0.006521047829431443 0.03375937787908733 0.9917528008895439 -0.07878163874426715
 -0.0017129817237297913 -0.009519756830790921 0.001972780232895482 0.01474842421946785 0.9917528008895439 -0.07878163874426715 0.006527030138140157 0.033758825521986766
0.15631513130469998 0.006804076889818435 0.0351024087198429 0.9913540471849412 -0.08197587549534625 0.002138214176979094 0.015338968339198112 -0.0018239657755831648 -0.009899092887164628
