! Created with skrf 1.8.0 (http://scikit-rf.org).
# GHz S RI R 50.0 
!freq ReS11 ImS11 ReS12 ImS12 ReS13 ImS13
! ReS14 ImS14
! ReS21 ImS21 ReS22 ImS22 ReS23 ImS23
! ReS24 ImS24
! ReS31 ImS31 ReS32 ImS32 ReS33 ImS33
! ReS34 ImS34
! ReS41 ImS41 ReS42 ImS42 ReS43 ImS43
! ReS44 ImS44
!
0.0 0.001466338152872 0.0 0.9985336618205 0.0 5.63867047627e-05 0.0 -5.638670387444e-05 6.90537964143026e-21
 0.9985336618205 0.0 0.001466338152879 0.0 -5.638670387456e-05 6.905379641444956e-21 5.638670476262e-05 0.0
 5.63867047627e-05 0.0 -5.638670387456e-05 6.905379641444956e-21 0.001466338166191 0.0 0.9985336618338 0.0
 -5.638670387444e-05 6.90537964143026e-21 5.638670476262e-05 0.0 0.9985336618338 0.0 0.0014663381662 0.0
0.005 0.0015774262587704172 0.0012006137372862198 0.99839315237909 -0.003071760835124495 7.880083522253777e-05 0.0006163368127483187 -7.652893523535434e-05 -0.000387775080137492
 0.99839315237909 -0.003071760835124495 0.0015774500711346327 0.001200599870665038 -7.653020977396224e-05 -0.0003877761000361765 7.86393409213906e-05 0.0006163981071953152
 7.880083522253777e-05 0.0006163368127483187 -7.653020977396224e-05 -0.0003877761000361765 0.001577425046685455 0.0012005472175107001 0.9983931520295348 -0.0030718279043909975
 -7.652893523535434e-05 -0.000387775080137492 7.86393409213906e-05 0.0006163981071953152 0.9983931520295348 -0.0030718279043909975 0.0015774505906174924 0.0012005322575613063
0.006252605252188 0.001606494508444229 0.0015054950879783919 0.998356161420014 -0.0038404619365138655 8.518181254520732e-05 0.0007707249968973821 -8.218389596167587e-05 -0.0004852227387331121
 0.998356161420014 -0.0038404619365138655 0.001606531731511352 0.0015054775114227263 -8.218587893923843e-05 -0.00048522399724789517 8.492948940796825e-05 0.000770804597096129
 8.518181254520732e-05 0.0007707249968973821 -8.218587893923843e-05 -0.00048522399724789517 0.001606492678683653 0.0015054119630589157 0.9983561609388731 -0.0038405457561660277
 -8.218389596167587e-05 -0.0004852227387331121 8.492948940796825e-05 0.000770804597096129 0.9983561609388731 -0.0038405457561660277 0.001606532609286195 0.001505393009661224
0.01250521050438 0.0017591276173811053 0.0030425905177672587 0.9981606790014443 -0.007681787108551649 0.0001216547459881283 0.0015418366971541243 -0.00011409797145967846 -0.000972833399068554
 0.9981606790014443 -0.007681787108551649 0.0017592762463165112 0.0030425529278911 -0.00011410578249663055 -0.0009728357376861699 0.00012064844795497466 0.0015420279474866586
 0.0001216547459881283 0.0015418366971541243 -0.00011410578249663055 -0.0009728357376861699 0.001759120891317935 0.003042424601260056 0.998160677664345 -0.007681954519357619
 -0.00011409797145967846 -0.000972833399068554 0.00012064844795497466 0.0015420279474866586 0.998160677664345 -0.007681954519357619 0.0017592803443054015 0.003042384140618609
0.01875781575657 0.001924558232321762 0.004601647162522005 0.9979469806180724 -0.011533337153089749 0.00016588712384946094 0.002313851118256471 -0.00015222434323427795 -0.0014621450022901253
 0.9979469806180724 -0.011533337153089749 0.0019248921987529907 0.004601586969383138 -0.0001522417571369729 -0.0014621482108824412 0.00016362636700885126 0.002314192070717207
 0.00016588712384946094 0.002313851118256471 -0.0001522417571369729 -0.0014621482108824412 0.00192454352722296 0.004601398710714468 0.9979469780283458 -0.011533588074588107
 -0.00015222434323427795 -0.0014621450022901253 0.00016362636700885126 0.002314192070717207 0.9979469780283458 -0.011533588074588107 0.0019249018410125687 0.004601333986798605
0.02501042100875 0.0021030982776914587 0.006180498803487035 0.997714823419278 -0.015396991614880447 0.00021796229802850355 0.003086804702277622 -0.0001966555891676963 -0.001952945282932401
 0.997714823419278 -0.015396991614880447 0.0021036913599347504 0.00618041329256978 -0.00019668633418498918 -0.0019529491157244641 0.0002139462701233833 0.003087339200666532
 0.00021796229802850355 0.003086804702277622 -0.00019668633418498918 -0.0019529491157244641 0.0021030725225038415 0.006180168085618116 0.9977148191883494 -0.015397326023725209
 -0.0001966555891676963 -0.001952945282932401 0.0002139462701233833 0.003087339200666532 0.9977148191883494 -0.015397326023725209 0.002103708886252389 0.006180076171054947
0.03126302626094 0.0022950467285881163 0.007778037275104198 0.9974639517065063 -0.01927356277927659 0.00027796433176530404 0.0038606636993982527 -0.0002474818375533752 -0.002445087190721037
 0.9974639517065063 -0.01927356277927659 0.0022959725929491007 0.007777923613918675 -0.0002475296033346347 -0.0024450913658228463 0.00027169142542278203 0.0038614414145268414
 0.00027796433176530404 0.0038606636993982527 -0.0002475296033346347 -0.0024450913658228463 0.0022950068556835423 0.0077776245940529894 0.9974639454457702 -0.01927398068894767
 -0.0002474818375533752 -0.002445087190721037 0.00027169142542278203 0.0038614414145268414 0.9974639454457702 -0.01927398068894767 0.002296000352834871 0.007777502396436872
0.037515631513130004 0.0025006961865236374 0.009393545020329998 0.9971941036889848 -0.02316346305848953 0.0003459770955257368 0.004635366691417319 -0.0003047914177837115 -0.002938446352652548
 0.9971941036889848 -0.02316346305848953 0.0025020284156446163 0.00939340026218651 -0.00030485985951584466 -0.002938450551941098 0.00033694469623496594 0.004636443181435867
 0.0003459770955257368 0.004635366691417319 -0.00030485985951584466 -0.002938450551941098 0.0025006391271394863 0.00939305073573178 0.9971940950042311 -0.02316396449665261
 -0.0003047914177837115 -0.002938446352652548 0.00033694469623496594 0.004636443181435867 0.9971940950042311 -0.02316396449665261 0.0025020687643642118 0.00939289500090462
0.043768236765320004 0.0027203354143139273 0.011026491995343073 0.9969050142024148 -0.027066908019433136 0.00042208385145650216 0.005410837529599619 -0.00036867109331141333 -0.003432908127905678
 0.9969050142024148 -0.027066908019433136 0.002722147529596489 0.011026313082044808 -0.00036876383419030004 -0.003432911996998635 0.00040978823387828584 0.005412274308188035
 0.00042208385145650216 0.005410837529599619 -0.00036876383419030004 -0.003432911996998635 0.0027202581026739684 0.01102591651474679 0.9969050026974688 -0.02706749303739317
 -0.00036867109331141333 -0.003432908127905678 0.00040978823387828584 0.005412274308188035 0.9969050026974688 -0.02706749303739317 0.002722202832531734 0.011025723828832943
0.050020842017509996 0.002954250523512329 0.012676451713457404 0.9965964160848523 -0.030984000270156627 0.0005063670067580237 0.006186990672154238 -0.0004392061490155276 -0.003928362266543028
 0.9965964160848523 -0.030984000270156627 0.00295661600473223 0.012676235477259894 -0.0004393267818474859 -0.003928365414814782 0.0004903032886210233 0.006188855279920195
 0.0005063670067580237 0.006186990672154238 -0.0004393267818474859 -0.003928365414814782 0.0029541498963677093 0.012675795498053056 0.9965964013596055 -0.03098466893767702
 -0.0004392061490155276 -0.003928362266543028 0.0004903032886210233 0.006188855279920195 0.9965964013596055 -0.03098466893767702 0.0029566886371294033 0.01267556228869555
0.055454545454549996 0.003169344272013574 0.014123849228162982 0.9963121831760022 -0.0343991806422084 0.0005863150914784696 0.006861973828076507 -0.0005059733736687818 -0.004359648582514524
 0.9963121831760022 -0.0343991806422084 0.003172250301002703 0.01412359790058814 -0.0005061211404956106 -0.0043596507590038785 0.0005665658463288724 0.006864269819250893
 0.0005863150914784696 0.006861973828076507 -0.0005061211404956106 -0.0043596507590038785 0.003169220897544373 0.014123123267273236 0.9963121653237256 -0.03439992207583553
 -0.0005059733736687818 -0.004359648582514524 0.0005665658463288724 0.006864269819250893 0.9963121653237256 -0.03439992207583553 0.0031723399299533584 0.014122851818076342
0.056273447269699996 0.003202725584874656 0.014343060052273756 0.9962680409790766 -0.0349147705836665 0.0005989079427099978 0.006963733800729147 -0.0005164804123689655 -0.004424700292239585
 0.9962680409790766 -0.0349147705836665 0.003205717888429296 0.014342803217238971 -0.0005166325006749381 -0.004424702292843847 0.0005785700736209649 0.006966099878109415
 0.0005989079427099978 0.006963733800729147 -0.0005166325006749381 -0.004424702292843847 0.003202598581908741 0.01434232361632857 0.996268022628808 -0.03491552299009461
 -0.0005164804123689655 -0.004424700292239585 0.0005785700736209649 0.006966099878109415 0.996268022628808 -0.03491552299009461 0.0032058102355918086 0.0143420461533942
0.06252605252188 0.0034660429598931688 0.016025992599046 0.9959196198597202 -0.03885920048532603 0.0006997868804673157 0.0077409692651958335 -0.0006005762422066573 -0.0049218140599078366
 0.9959196198597202 -0.03885920048532603 0.0034697355361054285 0.01602569178192648 -0.000600763320987588 -0.004921814449816486 0.0006746676533549581 0.007743916625962214
 0.0006997868804673157 0.0077409692651958335 -0.000600763320987588 -0.004921814449816486 0.0034658865248523934 0.016025176510297796 0.9959195974749395 -0.03886003673976982
 -0.0006005762422066573 -0.0049218140599078366 0.0006746676533549581 0.007743916625962214 0.9959195974749395 -0.03886003673976982 0.0034698499943769576 0.016024850905969005
0.06877865777407 0.003744483479463473 0.017724951139545166 0.9955508834106902 -0.04281723569957506 0.0008090827687102356 0.008518594939984659 -0.0006915744970938714 -0.005419594905122029
 0.9955508834106902 -0.04281723569957506 0.003748949789070457 0.017724602850127055 -0.0006918000733866704 -0.005419593185160675 0.0007786738476288998 0.008522209644891338
 0.0008090827687102356 0.008518594939984659 -0.0006918000733866704 -0.005419593185160675 0.003744294560723952 0.017724056025119377 0.9955508565765201 -0.04281815592547086
 -0.0006915744970938714 -0.005419594905122029 0.0007786738476288998 0.008522209644891338 0.9955508565765201 -0.04281815592547086 0.0037490887660344124 0.017723678233622198
0.07503126302626001 0.0040383265324005395 0.019439655104384897 0.9951615623171433 -0.04678879464226536 0.0009268731829238536 0.009296504773429613 -0.0007895544926822824 -0.005917933104010343
 0.9951615623171433 -0.04678879464226536 0.0040436400635114455 0.019439255745404917 -0.0007898220459464023 -0.005917928738905161 0.0008906651428293603 0.009300879203722554
 0.0009268731829238536 0.009296504773429613 -0.0007898220459464023 -0.005917928738905161 0.004038102083564384 0.0194386816466396 0.9951615306122341 -0.04678979898209753
 -0.0007895544926822824 -0.005917933104010343 0.0008906651428293603 0.009300879203722554 0.9951615306122341 -0.04678979898209753 0.004043805978263055 0.01943824746332429
0.08128386827845 0.004347850097183997 0.021169835866089632 0.9947513875019908 -0.05077377406605227 0.0010532342330007412 0.010074589151219823 -0.000894593950466761 -0.006416717522724685
 0.9947513875019908 -0.05077377406605227 0.00435408438122206 0.021169381732658234 -0.0008949069328478157 -0.006416709941153496 0.0010107166090499312 0.010079822081759636
 0.0010532342330007412 0.010074589151219823 -0.0008949069328478157 -0.006416709941153496 0.004347587078535493 0.021168784805131038 0.9947513504987856 -0.050774862679314615
 -0.000894593950466761 -0.006416717522724685 0.0010107166090499312 0.010079822081759636 0.9947513504987856 -0.050774862679314615 0.0043542796654495374 0.021168289865195623
0.08753647353064001 0.004673330735499419 0.022915232797078407 0.9943200903296089 -0.05477205294867889 0.0011882404750180986 0.01085273515640575 -0.0010067689420145765 -0.006915835374118074
 0.9943200903296089 -0.05477205294867889 0.004680559363968975 0.0229147200755083 -0.001007130778556826 -0.0069158239687538686 0.001138901819257301 0.010858931828276235
 0.0011882404750180986 0.01085273515640575 -0.001007130778556826 -0.0069158239687538686 0.004673026114473597 0.022914104931466093 0.9943200475930553 -0.0547732260115158
 -0.0010067689420145765 -0.006915835374118074 0.001138901819257301 0.010858931828276235 0.9943200475930553 -0.0547732260115158 0.004680786461706614 0.02291354470811776
0.09378907878283 0.0050150435612681486 0.024675590456384497 0.9938674027864212 -0.058783495256574954 0.00133196482681455 0.011630826757314751 -0.001126153828677779 -0.007415172050413004
 0.9938674027864212 -0.058783495256574954 0.005023340201823808 0.024675015222693178 -0.0011265679174245306 -0.007415156177981986 0.001275292771173479 0.011638098949751437
 0.00133196482681455 0.011630826757314751 -0.0011265679174245306 -0.007415156177981986 0.005014694313432206 0.024674386644392143 0.9938673538736079 -0.0587847529610871
 -0.001126153828677779 -0.007415172050413004 0.001275292771173479 0.011638098949751437 0.9938673538736079 -0.0587847529610871 0.005023601570093532 0.024673756446529124
0.100041684035 0.005373262189301158 0.026450656528064588 0.9933930576457224 -0.06280795196140257 0.0014844784855905723 0.012408744945243282 -0.0012528211983025026 -0.007914611010168519
 0.9933930576457224 -0.06280795196140257 0.005382700602302343 0.026450014745741646 -0.0012532909103112747 -0.007914589991509999 0.0014199598107306139 0.012417211046760118
 0.0014844784855905723 0.012408744945243282 -0.0012532909103112747 -0.007914589991509999 0.0053728652991761735 0.026449377685741255 0.9933930021050461 -0.0628092945178411
 -0.0012528211983025026 -0.007914611010168519 0.0014199598107306139 0.012417211046760118 0.9933930021050461 -0.0628092945178411 0.005382998711632233 0.026448672655060054
0.1059090909091 0.005724666586159868 0.02812952152458414 0.9929280004777709 -0.06659617135339078 0.001635651996804882 0.01313847241684765 -0.0013783714755607984 -0.008383268939675073
 0.9929280004777709 -0.06659617135339078 0.005735243612809614 0.02812881351972697 -0.0013788964260688789 -0.00838324244221906 0.0015633026405130208 0.01314817249773288
 0.001635651996804882 0.01313847241684765 -0.0013788964260688789 -0.00838324244221906 0.005724222255326299 0.028128173162714126 0.9929279382987668 -0.06659759373827533
 -0.0013783714755607984 -0.008383268939675073 0.0015633026405130208 0.01314817249773288 0.9929279382987668 -0.06659759373827533 0.005735578458878549 0.02812739333888831
0.1062942892872 0.00574825867109083 0.028240180261704446 0.9928967886212259 -0.06684526255873743 0.001645850846934712 0.013186367851119232 -0.001386841800236611 -0.008414033690257363
 0.9928967886212259 -0.06684526255873743 0.005758912726098833 0.028239467779087882 -0.0013873704796409472 -0.008414006810381463 0.0015729715551882056 0.013196152929842437
 0.001645850846934712 0.013186367851119232 -0.0013873704796409472 -0.008414006810381463 0.005747811133456841 0.028238827366524343 0.9928967259920738 -0.06684669019228631
 -0.001386841800236611 -0.008414033690257363 0.0015729715551882056 0.013196152929842437 0.9928967259920738 -0.06684669019228631 0.005759250060942816 0.028238042474138646
0.11254689453939999 0.006140303420133471 0.030043911295720902 0.9923783305140873 -0.07089525620903395 0.0018161494250395827 0.013963570832664524 -0.001528284477921179 -0.008913319451746214
 0.9923783305140873 -0.07089525620903395 0.006152247112882884 0.030043123842695377 -0.0015288754419134248 -0.008913285959892193 0.0017343948181142372 0.013974806705623385
 0.0018161494250395827 0.013963570832664524 -0.0015288754419134248 -0.008913285959892193 0.006139802240841831 0.030042485383188194 0.9923782603259937 -0.07089676916344252
 -0.001528284477921179 -0.008913319451746214 0.0017343948181142372 0.013974806705623385 0.9923782603259937 -0.07089676916344252 0.006152626171652131 0.030041615425713666
0.11879949979160001 0.0065496651286303924 0.03186159872509664 0.9918374193536983 -0.07495775263868745 0.0019954397736144363 0.014740226553277686 -0.001677216100500488 -0.009412345538235833
 0.9918374193536983 -0.07495775263868745 0.006562972597567446 0.031860731909368244 -0.0016778726392329669 -0.009412304647952894 0.0019042945338650606 0.014753051854672503
 0.0019954397736144363 0.014740226553277686 -0.0016778726392329669 -0.009412304647952894 0.006549107325848335 0.03186010089250285 0.9918373411258529 -0.07495935117288088
 -0.001677216100500488 -0.009412345538235833 0.0019042945338650606 0.014753051854672503 0.9918373411258529 -0.07495935117288088 0.006563395893600337 0.031859140487487794
0.1250521050438 0.006976610677639302 0.03369299037632407 0.991273792534285 -0.07903256283931809 0.002183785407336716 0.01551620504549011 -0.0018337014930795712 -0.009910987054070083
 0.991273792534285 -0.07903256283931809 0.006991356220621869 0.03369203967896937 -0.001834426869562656 -0.009910937943286284 0.002082733682694235 0.015530765293893878
 0.002183785407336716 0.01551620504549011 -0.001834426869562656 -0.009910937943286284 0.006975993282598215 0.03369142178195795 0.9912737057747609 -0.07903424722836272
 -0.0018337014930795712 -0.009910987054070083 0.002082733682694235 0.015530765293893878 0.9912737057747609 -0.07903424722836272 0.0069918262825230506 0.033690365362794295
0.131304710296 0.0074214050419439586 0.03553783222408103 0.9906871889494562 -0.08311948963031893 0.0023812477236780094 0.016291373773823333 -0.0019978033663065995 -0.010409116947627653
 0.9906871889494562 -0.08311948963031893 0.007437663133921154 0.03553679299451082 -0.0019986008163807873 -0.010409058758724778 0.002269773215646768 0.016307821438133814
 0.0023812477236780094 0.016291373773823333 -0.0019986008163807873 -0.010409058758724778 0.007420725100366912 0.03553619408623882 0.9906870931547014 -0.0831212601665345
 -0.0019978033663065995 -0.010409116947627653 0.002269773215646768 0.016307821438133814 0.9906870931547014 -0.0831212601665345 0.007438182505485518 0.035535035896497105
0.1375573155481 0.007780283683604221 0.03715547575391954 0.9901814108237246 -0.08697784623585676 0.0025629014346081305 0.017041513362247143 -0.002144732172478543 -0.010882440564981846
 0.9901814108237246 -0.08697784623585676 0.0077981354811222595 0.03715436561227232 -0.0021456065985435736 -0.010882373262275776 0.0024407526545337905 0.01705982064505097
 0.0025629014346081305 0.017041513362247143 -0.0021456065985435736 -0.010882373262275776 0.007779538916230336 0.03715376896566013 0.9901813055776014 -0.08697970308741346
 -0.002144732172478543 -0.010882440564981846 0.0024407526545337905 0.01705982064505097 0.9901813055776014 -0.08697970308741346 0.007798705879104743 0.03715252597577279
0.1438099208003 0.008151725058374752 0.03876492895676386 0.9896579564776532 -0.09082674929900791 0.0027519097990808526 0.017788730471288587 -0.002297542638388352 -0.011353141654880767
 0.9896579564776532 -0.09082674929900791 0.0081712463193169 0.03876374448756325 -0.0022984975372593278 -0.011353064395134931 0.0026186176914549 0.017809036338339208
 0.0027519097990808526 0.017788730471288587 -0.0022984975372593278 -0.011353064395134931 0.008150912653029772 0.038763154756683 0.9896578412775435 -0.0908286927507998
 -0.002297542638388352 -0.011353141654880767 0.0026186176914549 0.017809036338339208 0.9896578412775435 -0.0908286927507998 0.008171870160093617 0.03876182246249758
0.1500625260525 0.00853560261695961 0.040366067026383075 0.9891169561796145 -0.09466611291842225 0.0029482107732291996 0.01853295247001177 -0.002456175596275382 -0.011821153451642504
 0.9891169561796145 -0.09466611291842225 0.00855686931089799 0.04036480457897286 -0.0024572144585965575 -0.011821065357696375 0.002803308928008286 0.01855540094638337
 0.0029482107732291996 0.01853295247001177 -0.0024572144585965575 -0.011821065357696375 0.008534719783158848 0.0403642267010177 0.989116830513228 -0.09466814326694037
 -0.002456175596275382 -0.011821153451642504 0.002803308928008286 0.01855540094638337 0.989116830513228 -0.09466814326694037 0.008557549016407479 0.04036280032066221
0.15631513130469998 0.008931788965377165 0.04195876897079084 0.9885585407993243 -0.09849585130255936 0.0031517416066798613 0.019274107893727258 -0.0026205711772968984 -0.012286410563591145
 0.9885585407993243 -0.09849585130255936 0.0089548772796534 0.04195742465103533 -0.0026216974876537747 -0.01228631072442297 0.0029947662972223993 0.019298848013027878
