! Created with skrf 1.8.0 (http://scikit-rf.org).
# GHz S RI R 50.0 
!freq ReS11 ImS11 ReS12 ImS12 ReS13 ImS13
! ReS14 ImS14
! ReS21 ImS21 ReS22 ImS22 ReS23 ImS23
! ReS24 ImS24
! ReS31 ImS31 ReS32 ImS32 ReS33 ImS33
! ReS34 ImS34
! ReS41 ImS41 ReS42 ImS42 ReS43 ImS43
! ReS44 ImS44
!
0.0 0.001182591086296 0.0 0.9988174089137 0.0 4.498067752754e-05 0.0 -4.498067757217e-05 5.508544281223713e-21
 0.9988174089137 0.0 0.001182591086301 0.0 -4.498067757181e-05 5.508544281179626e-21 4.498067752768e-05 0.0
 4.498067752754e-05 0.0 -4.498067757181e-05 5.508544281179626e-21 0.001182591075096 0.0 0.9988174089025 0.0
 -4.498067757217e-05 5.508544281223713e-21 4.498067752768e-05 0.0 0.9988174089025 0.0 0.001182591075119 0.0
0.005 0.001271548925306108 0.0009684488916332965 0.9987050012789975 -0.00247827348866194 6.243881773419918e-05 0.0004928353220490341 -6.0774786015450004e-05 -0.0003099650906351832
 0.9987050012789975 -0.00247827348866194 0.001271540278892179 0.0009684539707276412 -6.0773282948232656e-05 -0.00030996400781531163 6.24856896145405e-05 0.000492817378772601
 6.243881773419918e-05 0.0004928353220490341 -6.0773282948232656e-05 -0.00030996400781531163 0.0012715496467688638 0.0009685157711886139 0.9987050016055209 -0.0024782064220144435
 -6.0774786015450004e-05 -0.0003099650906351832 6.24856896145405e-05 0.000492817378772601 0.9987050016055209 -0.0024782064220144435 0.0012715402067256425 0.0009685212211253556
0.006252605252188 0.0012946430063404256 0.0012144023164658347 0.9986756765271392 -0.003098484675813073 6.728267573431472e-05 0.0006162998285602202 -6.512452484397737e-05 -0.00038787012945706905
 0.9986756765271392 -0.003098484675813073 0.001294629490520268 0.0012144088157670044 -6.512218532729095e-05 -0.00038786879516125805 6.73559085456362e-05 0.0006162765752792381
 6.728267573431472e-05 0.0006162998285602202 -6.512218532729095e-05 -0.00038786879516125805 0.0012946440620613432 0.001214485900241481 0.9986756769658756 -0.003098400862436299
 -6.512452484397737e-05 -0.00038787012945706905 6.73559085456362e-05 0.0006162765752792381 0.9986756769658756 -0.003098400862436299 0.0012946293063538837 0.0012144928512864458
0.01250521050438 0.001414835869732771 0.0024545806207210753 0.9985222460023873 -0.006197970884325726 9.430200819953902e-05 0.001233046295960953 -8.92163309895813e-05 -0.000777766276227278
 0.9985222460023873 -0.006197970884325726 0.0014147818974203678 0.00245459513592388 -8.920710317098907e-05 -0.0007777638152864427 9.459402554398135e-05 0.001232991020276301
 9.430200819953902e-05 0.001233046295960953 -8.920710317098907e-05 -0.0007777638152864427 0.0014148395095641795 0.0024547475945516295 0.9985222471871706 -0.006197803481299528
 -8.92163309895813e-05 -0.000777766276227278 9.459402554398135e-05 0.001232991020276301 0.9985222471871706 -0.006197803481299528 0.0014147806007270979 0.0024547628985341517
0.01875781575657 0.0015433816989966589 0.0037127932380954503 0.9983569627534292 -0.009306050767833706 0.00012609385158507993 0.0018506797193035642 -0.00011731922238533254 -0.0011691601266744082
 0.9983569627534292 -0.009306050767833706 0.0015432604115349035 0.003712817377289397 -0.00011729863205457075 -0.001169156780035895 0.00012674979778002453 0.001850582225851008
 0.00012609385158507993 0.0018506797193035642 -0.00011729863205457075 -0.001169156780035895 0.0015433894418579598 0.0037130435067834187 0.9983569649976182 -0.009305799868483384
 -0.00011731922238533254 -0.0011691601266744082 0.00012674979778002453 0.001850582225851008 0.9983569649976182 -0.009305799868483384 0.0015432570904464547 0.0037130686659029677
0.02501042100875 0.0016804888120531191 0.004987329941626445 0.9981796676247353 -0.012424280146551071 0.00016271383765041164 0.0024692567512158005 -0.00014949503243731177 -0.0015619043482866146
 0.9981796676247353 -0.012424280146551071 0.0016802734017651063 0.004987365398166896 -0.00014945865404168986 -0.0015619003945853112 0.00016387890560103107 0.002469105491783497
 0.00016271383765041164 0.0024692567512158005 -0.00014945865404168986 -0.0015619003945853112 0.0016805021590772325 0.004987663436310327 0.9981796712376928 -0.012423945786724908
 -0.00014949503243731177 -0.0015619043482866146 0.00016387890560103107 0.002469105491783497 0.9981796712376928 -0.012423945786724908 0.0016802671479199745 0.004987700045077639
0.03126302626094 0.0018263565197544473 0.006277335583344905 0.99799019168906 -0.015553354856322648 0.00020421817234400134 0.0030887784782352265 -0.00018580427214566768 -0.001955904528201324
 0.99799019168906 -0.015553354856322648 0.0018260202181502535 0.006277384135173164 -0.00018574772010688308 -0.0019559002844296266 0.00020603775081102195 0.0030885605469730803
 0.00020421817234400134 0.0030887784782352265 -0.00018574772010688308 -0.0019559002844296266 0.0018263769626705863 0.006277752222275924 0.9979901969838437 -0.015552937053703534
 -0.00018580427214566768 -0.001955904528201324 0.00020603775081102195 0.0030885605469730803 0.9979901969838437 -0.015552937053703534 0.0018260101328191475 0.006277801966347191
0.037515631513130004 0.0019811799957280265 0.007582271498703779 0.9977883612006498 -0.018693649301035294 0.0002506631654451501 0.0037092245019022933 -0.00022630658101249643 -0.0023510850858237116
 0.9977883612006498 -0.018693649301035294 0.0019806960662191154 0.007582335008029533 -0.0002262255051920492 -0.002351080907586505 0.00025328291037956483 0.003708925622615998
 0.0002506631654451501 0.0037092245019022933 -0.0002262255051920492 -0.002351080907586505 0.0019812090119012177 0.0075827711934206635 0.9977883684892571 -0.018693148048849847
 -0.00022630658101249643 -0.0023510850858237116 0.00025328291037956483 0.003708925622615998 0.9977883684892571 -0.018693148048849847 0.0019806812547894224 0.0075828358491355835
0.043768236765320004 0.002145152147566669 0.008901751644012424 0.9975739995492643 -0.02184538026705565 0.0003021050158338584 0.004330563301651377 -0.00027106090093432513 -0.00274737889939883
 0.9975739995492643 -0.02184538026705565 0.002144493880611943 0.008901832057206089 -0.00027095098404820506 -0.0027473751810729407 0.0003056708893437089 0.004330167812615627
 0.0003021050158338584 0.004330563301651377 -0.00027095098404820506 -0.0027473751810729407 0.0021451912047077987 0.008902334279122796 0.9975740091470642 -0.021844795554119743
 -0.00027106090093432513 -0.00274737889939883 0.0003056708893437089 0.004330167812615627 0.9975740091470642 -0.021844795554119743 0.00214447345576413 0.008902415713385646
0.050020842017509996 0.0023184645086978006 0.010235474826594829 0.9973469282345938 -0.025008674643166844 0.0003585996901145332 0.0049527565064951 -0.00032012554881648774 -0.0031447230230621384
 0.9973469282345938 -0.025008674643166844 0.0023176052174692136 0.01023557417414145 -0.0003199825046387091 -0.0031447201978956857 0.00036325798232681063 0.004952247344208446
 0.0003585996901145332 0.0049527565064951 -0.0003199825046387091 -0.0031447201978956857 0.0023185150609492436 0.01023614027472894 0.997346940457105 -0.02500800643877371
 -0.00032012554881648774 -0.0031447230230621384 0.00036325798232681063 0.004952247344208446 0.997346940457105 -0.02500800643877371 0.002317578295256229 0.010236240444933105
0.055454545454549996 0.0024768116587845284 0.011405893021301322 0.9971391349328853 -0.027767119759365088 0.0004118420146792251 0.00549412174205094 -0.00036630957291912067 -0.0034908327753153615
 0.9971391349328853 -0.027767119759365088 0.0024757560134705788 0.011406010537745065 -0.00036613428242761607 -0.0034908311084483577 0.0004175687209804868 0.00549349883531134
 0.0004118420146792251 0.00549412174205094 -0.00036613428242761607 -0.0034908311084483577 0.0024768733734759404 0.011406630317579686 0.9971391496951985 -0.027766378964293376
 -0.00036630957291912067 -0.0034908327753153615 0.0004175687209804868 0.00549349883531134 0.9971391496951985 -0.027766378964293376 0.0024757227314898852 0.011406748429801257
0.056273447269699996 0.002501307700684818 0.011583191479750071 0.9971069674138578 -0.028183602595311923 0.00042020283886073554 0.005575760994567195 -0.000373558247224811 -0.0035430565762493505
 0.9971069674138578 -0.028183602595311923 0.002500220717644807 0.011583311876322475 -0.00037337781943292905 -0.003543055116461832 0.0004261001796263034 0.005575119676980031
 0.00042020283886073554 0.005575760994567195 -0.00037337781943292905 -0.003543055116461832 0.002501371191735417 0.01158393959362151 0.9971069825799109 -0.028182850857032017
 -0.000373558247224811 -0.0035430565762493505 0.0004261001796263034 0.005575119676980031 0.9971069825799109 -0.028182850857032017 0.0025001864198567494 0.011584060547659272
0.06252605252188 0.0026938716991588697 0.012944685383168536 0.9968539362533435 -0.03137019579601459 0.0004869697342031404 0.006199530036798948 -0.000431416131169181 -0.003942319589675687
 0.9968539362533435 -0.03137019579601459 0.002692530373002372 0.012944829027696756 -0.00043119409254018366 -0.003942320006526176 0.0004942530981273558 0.006198736646262842
 0.0004869697342031404 0.006199530036798948 -0.00043119409254018366 -0.003942320006526176 0.0026939495599561224 0.012945515996402998 0.9968539546830896 -0.031369360468652796
 -0.000431416131169181 -0.003942319589675687 0.0004942530981273558 0.006198736646262842 0.9968539546830896 -0.031369360468652796 0.002692487824412577 0.012945659872834456
0.06877865777407 0.0028963459872818884 0.014319762761394067 0.9965876531694816 -0.03456845827639198 0.0005589552175780387 0.006824013982112889 -0.0004937557428556684 -0.004342452310702786
 0.9965876531694816 -0.03456845827639198 0.0028947236798495548 0.014319931937274216 -0.0004934878946894238 -0.004342455154559629 0.000567771924377517 0.006823047148168074
 0.0005589552175780387 0.006824013982112889 -0.0004934878946894238 -0.004342455154559629 0.002896439637290059 0.014320675684917563 0.9965876751863593 -0.03456753929547305
 -0.0004937557428556684 -0.004342452310702786 0.000567771924377517 0.006823047148168074 0.9965876751863593 -0.03456753929547305 0.002894672009141642 0.014320844713151088
0.07503126302626001 0.00310891964522667 0.015708245377726 0.9963079360084524 -0.03777837328358203 0.0006362136540644894 0.007449160685493046 -0.0005606330182902781 -0.004743394766873294
 0.9963079360084524 -0.03777837328358203 0.0031069897288158667 0.0157084424530529 -0.0005603151900147674 -0.004743400627277463 0.000646711365585153 0.007447997567588083
 0.0006362136540644894 0.007449160685493046 -0.0005603151900147674 -0.004743400627277463 0.0031090304919842724 0.015709240400316914 0.9963079619387551 -0.037777370574612966
 -0.0005606330182902781 -0.004743394766873294 0.000646711365585153 0.007447997567588083 0.9963079619387551 -0.037777370574612966 0.0031069280677901725 0.015709436900864772
0.08128386827845 0.003331781399830633 0.017109965931640634 0.9960146021857988 -0.040999907835694 0.0007187988902320179 0.008074915795048368 -0.0006321032691308986 -0.005145086471619721
 0.9960146021857988 -0.040999907835694 0.003329517254659344 0.017110193359420194 -0.0006317313180327997 -0.005145095977343135 0.000731125604859175 0.00807353206523192
 0.0007187988902320179 0.008074915795048368 -0.0006317313180327997 -0.005145095977343135 0.0033319108384679587 0.01711104282379485 0.9960146323590904 -0.0409988213101281
 -0.0006321032691308986 -0.005145086471619721 0.000731125604859175 0.00807353206523192 0.9960146323590904 -0.0409988213101281 0.0033294447375282784 0.017111269208551955
0.08753647353064001 0.003565119647557399 0.018524764879020474 0.9957074688029384 -0.04423301585499672 0.000806764214991585 0.008701222946799606 -0.0007082211604635631 -0.005547466223465106
 0.9957074688029384 -0.04423301585499672 0.003562494658828097 0.01852502519758272 -0.0007077909715459366 -0.005547480042558641 0.0008210682598413542 0.008699592772443102
 0.000806764214991585 0.008701222946799606 -0.0007077909715459366 -0.005547480042558641 0.0035652690607920878 0.018525923387105854 0.9957075035519962 -0.044231845416004195
 -0.0007082211604635631 -0.005547466223465106 0.0008210682598413542 0.008699592772443102 0.9957075035519962 -0.044231845416004195 0.0035624104216749252 0.018526182159836903
0.09378907878283 0.003809122458871279 0.019952488158561876 0.9953863527458009 -0.0474776403964119 0.0009001623215084105 0.009328023905207558 -0.0007890406862960806 -0.00595047196079672
 0.9953863527458009 -0.0474776403964119 0.0038061100146707313 0.019952783991957115 -0.0007885481721994667 -0.0059504908006388635 0.0009165923431819572 0.009326119931760262
 0.0009001623215084105 0.009328023905207558 -0.0007885481721994667 -0.0059504908006388635 0.00380929321731656 0.019953728006722765 0.9953863924077458 -0.04747638593671228
 -0.0007890406862960806 -0.00595047196079672 0.0009165923431819572 0.009326119931760262 0.9953863924077458 -0.04747638593671228 0.003806013195471442 0.019954021763442027
0.100041684035 0.004063977570830353 0.021392985518914758 0.9950510707729736 -0.05073371527639332 0.00099904527043599 0.00995525866517093 -0.000874615143006807 -0.006354040656517221
 0.9950510707729736 -0.05073371527639332 0.004060551059205967 0.021393319577372484 -0.0008740562439713694 -0.006354065263855961 0.001017750224137523 0.009953051998997214
 0.00099904527043599 0.00995525866517093 -0.0008740562439713694 -0.006354065263855961 0.0040641710322263215 0.021394306410468477 0.9950511156889945 -0.050732376676870375
 -0.000874615143006807 -0.006354040656517221 0.001017750224137523 0.009953051998997214 0.9950511156889945 -0.050732376676870375 0.0040604407969570275 0.021394637840028593
0.1059090909091 0.004313169037291425 0.022756225797486637 0.9947233971882339 -0.053799544155730565 0.0010968706218793354 0.010544191561519574 -0.0009592890906057342 -0.006733202018316698
 0.9947233971882339 -0.053799544155730565 0.004309329761982445 0.022756598268304225 -0.0009586642286721167 -0.006733232752095957 0.001117846095500917 0.010541673185864854
 0.0010968706218793354 0.010544191561519574 -0.0009586642286721167 -0.006733232752095957 0.004313385026296271 0.022757622447182567 0.9947234473486554 -0.053798126484902786
 -0.0009592890906057342 -0.006733202018316698 0.001117846095500917 0.010541673185864854 0.9947234473486554 -0.053798126484902786 0.004309206102171607 0.02275799175739282
0.1062942892872 0.004329872369312025 0.02284610926278036 0.9947014395965718 -0.05400116628656452 0.0011034644536124965 0.010582865529116676 -0.0009649971012104142 -0.006758108239006937
 0.9947014395965718 -0.05400116628656452 0.0043260051759990105 0.022846484343277667 -0.000964367785127604 -0.0067581393999884085 0.0011245935912004542 0.01058032572039685
 0.0011034644536124965 0.010582865529116676 -0.000964367785127604 -0.0067581393999884085 0.004330089878479064 0.02284751087587557 0.9947014901120761 -0.05399974342036661
 -0.0009649971012104142 -0.006758108239006937 0.0011245935912004542 0.01058032572039685 0.9947014901120761 -0.05399974342036661 0.0043258806101658396 0.022847882760544086
0.11254689453939999 0.004606993863978816 0.02431171328301402 0.9943372759557312 -0.05727991211664688 0.0012134705581944192 0.011210781165147055 -0.0010602383765070447 -0.007162609533490514
 0.9943372759557312 -0.05727991211664688 0.004602659369749583 0.024312132269871493 -0.0010595346389913167 -0.007162648073704968 0.0012371734150367786 0.011207876190948382
 0.0012134705581944192 0.011210781165147055 -0.0010595346389913167 -0.007162648073704968 0.0046072367526146215 0.02431319527705212 0.994337332421038 -0.057278404842716575
 -0.0010602383765070447 -0.007162609533490514 0.0012371734150367786 0.011207876190948382 0.994337332421038 -0.057278404842716575 0.004602519639927572 0.02431361049319055
0.11879949979160001 0.004895528658208876 0.025789652311276015 0.9939583966880933 -0.060569865066584835 0.001329113531017507 0.011838940654874208 -0.0011603899990551719 -0.007567478215244617
 0.9939583966880933 -0.060569865066584835 0.004890700236346028 0.025790118176869048 -0.0011596078635372684 -0.007567524999735178 0.0013555399120175826 0.011835636902233939
 0.001329113531017507 0.011838940654874208 -0.0011596078635372684 -0.007567524999735178 0.004895798244719744 0.025791214319692533 0.9939584594587053 -0.060568273236790114
 -0.0011603899990551719 -0.007567478215244617 0.0013555399120175826 0.011835636902233939 0.9939584594587053 -0.060568273236790114 0.004890544481949772 0.02579167583855495
0.1250521050438 0.005195662914193091 0.027279781316823702 0.993564618797145 -0.06387093161015935 0.001450442543026713 0.012467277530770387 -0.0012655021823947295 -0.007972646774761331
 0.993564618797145 -0.06387093161015935 0.0051903139279746244 0.027280297122333316 -0.001264637700297088 -0.00797270270805184 0.0014797425077064086 0.01246353978004729
 0.001450442543026713 0.012467277530770387 -0.001264637700297088 -0.00797270270805184 0.00519596050338361 0.02728142295262594 0.9935646882341267 -0.06386925506363775
 -0.0012655021823947295 -0.007972646774761331 0.0014797425077064086 0.01246353978004729 0.9935646882341267 -0.06386925506363775 0.005190141287424324 0.02728193384117485
0.131304710296 0.00550758231429432 0.02878195503080501 0.9931557595184335 -0.06718301283492134 0.0015775059537076208 0.013095723806639169 -0.0013756242914760323 -0.008378046491473763
 0.9931557595184335 -0.06718301283492134 0.005501686114688638 0.028782523927047488 -0.0013746735423760287 -0.008378112517575902 0.0016098298005982354 0.013091515214902325
 0.0015775059537076208 0.013095723806639169 -0.0013746735423760287 -0.008378112517575902 0.005507909197229831 0.028783675883331347 0.9931558359882847 -0.0671812514012589
 -0.0013756242914760323 -0.008378046491473763 0.0016098298005982354 0.013091515214902325 0.9931558359882847 -0.0671812514012589 0.005501495725051656 0.028784239305131427
0.1375573155481 0.005752239126177013 0.03009958556729738 0.9928108887991515 -0.0703095024292153 0.0016919531200457337 0.013703781452453597 -0.0014723730666636387 -0.008763211133287463
 0.9928108887991515 -0.0703095024292153 0.0057457680074977 0.030100196061493865 -0.0014713305268710553 -0.008763287149164054 0.0017273804543816622 0.013699114184850043
 0.0016919531200457337 0.013703781452453597 -0.0014713305268710553 -0.008763287149164054 0.005752597469884625 0.03010138479332178 0.9928109726187806 -0.07030765601503566
 -0.0014723730666636387 -0.008763211133287463 0.0017273804543816622 0.013699114184850043 0.9928109726187806 -0.07030765601503566 0.005745558217562335 0.03010199025022162
0.1438099208003 0.006005219470674141 0.031411513762144794 0.9924544076522841 -0.07342932410866224 0.0018110077136505903 0.014310136746554925 -0.0015730007178072123 -0.009146799826686706
 0.9924544076522841 -0.07342932410866224 0.0059981466269374666 0.03141216791245789 -0.0015718622181641938 -0.009146886737323147 0.001849676354687037 0.014304977668277052
 0.0018110077136505903 0.014310136746554925 -0.0015718622181641938 -0.009146886737323147 0.006005610705224575 0.03141339088090802 0.9924544991865861 -0.07342739254688481
 -0.0015730007178072123 -0.009146799826686706 0.001849676354687037 0.014304977668277052 0.9924544991865861 -0.07342739254688481 0.0059979164287240075 0.031414040550882004
0.1500625260525 0.006266449322665074 0.03271766695616517 0.9920863928189689 -0.07654243808855778 0.0019346369107595231 0.014914753037107348 -0.0016774749998701584 -0.009528776337920786
 0.9920863928189689 -0.07654243808855778 0.006258747932544684 0.032718366921539226 -0.001676236378716216 -0.009528875084077022 0.0019766840792385834 0.014909067815978436
 0.0019346369107595231 0.014914753037107348 -0.001676236378716216 -0.009528875084077022 0.006266874875638953 0.032719621466683974 0.9920864924377656 -0.07654042120453573
 -0.0016774749998701584 -0.009528776337920786 0.0019766840792385834 0.014909067815978436 0.9920864924377656 -0.07654042120453573 0.006258496307413489 0.03272031763644234
0.15631513130469998 0.006535854302850272 0.03401797491522264 0.9917069212413473 -0.07964880403934406 0.0020628076006398207 0.015517594155692245 -0.0017857633641047527 -0.009909105108174712
