! Created with skrf 1.8.0 (http://scikit-rf.org).
# GHz S RI R 50.0 
!freq ReS11 ImS11 ReS12 ImS12 ReS13 ImS13
! ReS14 ImS14
! ReS21 ImS21 ReS22 ImS22 ReS23 ImS23
! ReS24 ImS24
! ReS31 ImS31 ReS32 ImS32 ReS33 ImS33
! ReS34 ImS34
! ReS41 ImS41 ReS42 ImS42 ReS43 ImS43
! ReS44 ImS44
!
0.0 0.00119006710266 0.0 0.9988099328902 0.0 4.549128455409e-05 0.0 -4.549128385508e-05 5.571075516222739e-21
 0.9988099328902 0.0 0.001190067102653 0.0 -4.549128385462e-05 5.571075516166405e-21 4.549128455449e-05 0.0
 4.549128455409e-05 0.0 -4.549128385462e-05 5.571075516166405e-21 0.001190067106193 0.0 0.9988099328937 0.0
 -4.549128385508e-05 5.571075516222739e-21 4.549128455449e-05 0.0 0.9988099328937 0.0 0.001190067106205 0.0
0.005 0.0012796363826865556 0.000970656497900662 0.9986967186883884 -0.0024941370066749423 6.382723158007532e-05 0.0005219670674216637 -6.189896586039772e-05 -0.00032416579401458196
 0.9986967186883884 -0.0024941370066749423 0.0012796548671364313 0.0009706456951546441 -6.189804074737631e-05 -0.00032416504604346126 6.371507597863679e-05 0.0005220096221203841
 6.382723158007532e-05 0.0005219670674216637 -6.189804074737631e-05 -0.00032416504604346126 0.0012796373583459607 0.0009707231475890227 0.9986967190104862 -0.00249406993692251
 -6.189896586039772e-05 -0.00032416579401458196 6.371507597863679e-05 0.0005220096221203841 0.9986967190104862 -0.00249406993692251 0.0012796545297117186 0.0009707131788255255
0.006252605252188 0.0013028912401664367 0.0012171882628837433 0.9986671727923719 -0.0031183190977783163 6.894561851042262e-05 0.0006527163609600321 -6.642433771567482e-05 -0.0004056450559811471
 0.9986671727923719 -0.0031183190977783163 0.001302920135025634 0.0012171745591724767 -6.642289842916163e-05 -0.0004056441325504497 6.877038159261575e-05 0.0006527715724341018
 6.894561851042262e-05 0.0006527163609600321 -6.642289842916163e-05 -0.0004056441325504497 0.0013028927000721486 0.001217271555202127 0.9986671732304089 -0.0031182352734924214
 -6.642433771567482e-05 -0.0004056450559811471 6.877038159261575e-05 0.0006527715724341018 0.9986671732304089 -0.0031182352734924214 0.0013029195416872639 0.0012172589019097543
0.01250521050438 0.001423933431788804 0.002460350982405379 0.9985125230591491 -0.006237659712729786 9.766302667652212e-05 0.0013057977233799306 -9.152561935071477e-05 -0.0008134277280412279
 0.9985125230591491 -0.006237659712729786 0.0014240488141234694 0.002460321566782413 -9.151995035332332e-05 -0.000813426005012779 9.69641250701089e-05 0.0013059295814530944
 9.766302667652212e-05 0.0013057977233799306 -9.151995035332332e-05 -0.000813426005012779 0.001423938709582079 0.002460517240928965 0.9985125242534749 -0.006237492297172839
 -9.152561935071477e-05 -0.0008134277280412279 9.69641250701089e-05 0.0013059295814530944 0.9985125242534749 -0.006237492297172839 0.0014240458821272106 0.0024604900152796513
0.01875781575657 0.001553409009827618 0.0037216901606236916 0.9983458268047738 -0.009365666088457047 0.00013170069282020401 0.0019597339748792827 -0.00012086186837669105 -0.00122276235040497
 0.9983458268047738 -0.009365666088457047 0.0015536682872663817 0.0037216428993429155 -0.00012084923014531223 -0.0012227599691566429 0.00013013045075077744 0.0019599673401030225
 0.00013170069282020401 0.0019597339748792827 -0.00012084923014531223 -0.0012227599691566429 0.0015534204551694755 0.0037219391495640513 0.9983458290698403 -0.009365415160436643
 -0.00012086186837669105 -0.00122276235040497 0.00013013045075077744 0.0019599673401030225 0.9983458290698403 -0.009365415160436643 0.0015536612632797613 0.0037218953374922835
0.02501042100875 0.0016915294114967356 0.004999481909608084 0.9981669224447486 -0.012503903338563757 0.00017111716055945417 0.0026145883134875694 -0.00015449832246630202 -0.0016334872171262563
 0.9981669224447486 -0.012503903338563757 0.0016919898797450599 0.004999414564255527 -0.00015447600900776552 -0.0016334843395094214 0.0001683275949569879 0.0026149513172589994
 0.00017111716055945417 0.0026145883134875694 -0.00015447600900776552 -0.0016334843395094214 0.001691549374570375 0.00499981339731741 0.9981669260982988 -0.012503568909482416
 -0.00015449832246630202 -0.0016334872171262563 0.0001683275949569879 0.0026149513172589994 0.9981669260982988 -0.012503568909482416 0.0016919770061237195 0.004999750909084934
0.03126302626094 0.0018384969306389925 0.0062928634497504835 0.9979756385354919 -0.015653070428359183 0.00021597187816324237 0.003270362163396664 -0.00019249874786675468 -0.002045499578786501
 0.9979756385354919 -0.015653070428359183 0.0018392158023627573 0.006292773681523889 -0.0001924640808006307 -0.002045496387493583 0.00021161435727349141 0.0032708862249033193
 0.00021597187816324237 0.003270362163396664 -0.0001924640808006307 -0.002045496387493583 0.001838527760651031 0.006293277166249729 0.9979756438971346 -0.01565265248437257
 -0.00019249874786675468 -0.002045499578786501 0.00021161435727349141 0.0032708862249033193 0.9979756438971346 -0.01565265248437257 0.0018391953142462424 0.00629319384086251
0.037515631513130004 0.0019945096392707177 0.007601290676929784 0.9977717987742951 -0.018813542565240704 0.0002663245395007295 0.003927033085921409 -0.00023492594952971872 -0.002458717712727881
 0.9977717987742951 -0.018813542565240704 0.0019955440620816694 0.007601176048962167 -0.0002348762750289721 -0.0024587144114156688 0.0002600496183242324 0.00392775294631655
 0.0002663245395007295 0.003927033085921409 -0.0002348762750289721 -0.0024587144114156688 0.001994553684260367 0.007601786306468507 0.9977718061660925 -0.018813041074332962
 -0.00023492594952971872 -0.002458717712727881 0.0002600496183242324 0.00392775294631655 0.9977718061660925 -0.018813041074332962 0.001995514186341168 0.00760167991422592
0.043768236765320004 0.0021597632892905133 0.00892437311446926 0.9975552239845373 -0.021985536198631014 0.00032223479290542135 0.004584566303561513 -0.0002818419640768007 -0.00287306938447441
 0.9975552239845373 -0.021985536198631014 0.002161170359599078 0.008924231093301921 -0.00028177465097614564 -0.0028730661977855276 0.00031369212422871067 0.004585520065511398
 0.00032223479290542135 0.004584566303561513 -0.00028177465097614564 -0.0028730661977855276 0.0021598228956716484 0.008924950305304862 0.9975552337310263 -0.021984951100367203
 -0.0002818419640768007 -0.00287306938447441 0.00031369212422871067 0.004585520065511398 0.9975552337310263 -0.021984951100367203 0.002161129314209961 0.008924818549772201
0.050020842017509996 0.0023344522072014377 0.0102618057050718 0.9973257330947758 -0.025169177177876118 0.00038376207561988297 0.005242919461393858 -0.00033330814462810337 -0.003288487073249611
 0.9973257330947758 -0.025169177177876118 0.002336288981319082 0.010261633661864791 -0.0003332205831599005 -0.003288484246831997 0.000372600360432857 0.005244148630921138
 0.00038376207561988297 0.005242919461393858 -0.0003332205831599005 -0.003288484246831997 0.002334529719340971 0.010262464059292103 0.9973257455238331 -0.025168508393136127
 -0.00033330814462810337 -0.003288487073249611 0.000372600360432857 0.005244148630921138 0.9973257455238331 -0.025168508393136127 0.002336234974940103 0.010262304578876525
0.055454545454549996 0.0024940749638079525 0.011435531713231537 0.9971156674652862 -0.02794537113065381 0.0004418387872042142 0.005815677330956598 -0.00038177626730122034 -0.0036503127382153393
 0.9971156674652862 -0.02794537113065381 0.002496331476753105 0.011435331371614461 -0.0003816690059221045 -0.003650310440692631 0.00042811498476168436 0.005817182221532613
 0.0004418387872042142 0.005815677330956598 -0.0003816690059221045 -0.003650310440692631 0.0024941699391061714 0.011436260240159998 0.9971156824950586 -0.027944629542407378
 -0.00038177626730122034 -0.0036503127382153393 0.00042811498476168436 0.005817182221532613 0.9971156824950586 -0.027944629542407378 0.0024962647448625573 0.011436074698468916
0.056273447269699996 0.0025187697656252612 0.011613335329400943 0.9970831436977214 -0.028364534183089447 0.00045096550647856065 0.005902044955953156 -0.00038938519422544347 -0.0037049056311160445
 0.9970831436977214 -0.028364534183089447 0.002521093269931167 0.011613130540816039 -0.00038927479517702866 -0.003704903431620358 0.0004368324683494455 0.005903594485434973
 0.00045096550647856065 0.005902044955953156 -0.00038927479517702866 -0.003704903431620358 0.002518867526224278 0.0116140744000675 0.9970831591414744 -0.028363781616418154
 -0.00038938519422544347 -0.0037049056311160445 0.0004368324683494455 0.005903594485434973 0.9970831591414744 -0.028363781616418154 0.002521024502087512 0.011613884769332363
0.06252605252188 0.0027129086508075957 0.012978742394437671 0.9968272724062058 -0.031571637086402655 0.0005239038052730769 0.0065618912120114494 -0.0004501331759341785 -0.0041222609953486125
 0.9968272724062058 -0.031571637086402655 0.00271577589092922 0.012978502043257716 -0.00044999736998010774 -0.004122259710404012 0.0005064461802487952 0.006563809543803083
 0.0005239038052730769 0.0065618912120114494 -0.00044999736998010774 -0.004122259710404012 0.002713028999457653 0.012979561691233644 0.996827291201066 -0.03157080061995774
 -0.0004501331759341785 -0.0041222609953486125 0.0005064461802487952 0.006563809543803083 0.996827291201066 -0.03157080061995774 0.002715690550773062 0.012979339422061661
0.06877865777407 0.0029170610175756006 0.014357829865089522 0.9965579350997427 -0.034790487870630646 0.0006026352283758967 0.007222403443008087 -0.000515611508083831 -0.00454048941831866
 0.9965579350997427 -0.034790487870630646 0.0029205289871836347 0.014357551040669445 -0.0005154477453154524 -0.004540489356526139 0.0005814987656189807 0.0072247425533932715
 0.0006026352283758967 0.007222403443008087 -0.0005154477453154524 -0.004540489356526139 0.002917206290512482 0.014358728849465706 0.9965579575869714 -0.03478956736856399
 -0.000515611508083831 -0.00454048941831866 0.0005814987656189807 0.0072247425533932715 0.9965579575869714 -0.03478956736856399 0.0029204252533512167 0.014358471391943139
0.07503126302626001 0.003131418578463618 0.015750416303708124 0.9962749471059181 -0.03802106754096986 0.0006872175132530828 0.007883524131664963 -0.0005858789510093533 -0.00495952697847157
 0.9962749471059181 -0.03802106754096986 0.0031355442676991455 0.015750096002276167 -0.0005856847006058965 -0.004959528469382785 0.0006620469837505952 0.007886339574966232
 0.0006872175132530828 0.007883524131664963 -0.0005856847006058965 -0.004959528469382785 0.003131591107970303 0.015751394386320495 0.9962749736320075 -0.03802006285154489
 -0.0005858789510093533 -0.00495952697847157 0.0006620469837505952 0.007886339574966232 0.9962749736320075 -0.03802006285154489 0.003135420307766081 0.01575109912948699
0.08128386827845 0.0033561726530523957 0.017156331235830498 0.9959781233441988 -0.0412633407115837 0.0007777078293466113 0.008545193345089103 -0.0006609935875409506 -0.0053793092581398555
 0.9959781233441988 -0.0412633407115837 0.0033610130567582855 0.017155966360497404 -0.0006607663374498217 -0.0053793126522359595 0.0007481470407111389 0.008548544297803046
 0.0007777078293466113 0.008545193345089103 -0.0006607663374498217 -0.0053793126522359595 0.0033563747667272837 0.017157387778832283 0.9959781542618145 -0.04126225166453221
 -0.0006609935875409506 -0.0053793092581398555 0.0007481470407111389 0.008548544297803046 0.9959781542618145 -0.04126225166453221 0.0033608670269534317 0.017157052051159482
0.08753647353064001 0.003591514190069928 0.018575411949654525 0.9956672784449891 -0.044517258759619246 0.0008741627316145922 0.009207348955911831 -0.0007410128004787042 -0.005799771116685679
 0.9956672784449891 -0.044517258759619246 0.0035971263160203557 0.018574999310329448 -0.000740750057220667 -0.005799776785358344 0.0008398545477039816 0.0092112982608292
 0.0008741627316145922 0.009207348955911831 -0.000740750057220667 -0.005799776785358344 0.0035917482099805075 0.018576546267632426 0.9956673141126022 -0.04451608516472576
 -0.0007410128004787042 -0.005799771116685679 0.0008398545477039816 0.0092112982608292 0.9956673141126022 -0.04451608516472576 0.0035969563605239853 0.018576167337432274
0.09378907878283 0.0038376337713152825 0.020007501205408573 0.9953422268508141 -0.04778276207083799 0.0009766381172275737 0.009869926797477297 -0.0008259932464653287 -0.006220846531078011
 0.9953422268508141 -0.04778276207083799 0.0038440746482727843 0.02000703751843804 -0.0008256925349896884 -0.006220854866600231 0.0009372244817529562 0.009874541007658586
 0.0009766381172275737 0.009869926797477297 -0.0008256925349896884 -0.006220854866600231 0.003837902013409394 0.020008712561624942 0.9953422676340253 -0.04778150372140418
 -0.0008259932464653287 -0.006220846531078011 0.0009372244817529562 0.009874541007658586 0.9953422676340253 -0.04778150372140418 0.00384387889880795 0.020008287637185034
0.100041684035 0.004094721601636798 0.021452445549781277 0.9950027829066354 -0.05105978168149048 0.0010851891836758023 0.010532860777992982 -0.0009159908278623382 -0.006642468478967884
 0.9950027829066354 -0.05105978168149048 0.004102048287509203 0.021451927437462246 -0.0009156496913975668 -0.006642479894471316 0.0010403111472541864 0.010538210200597455
 0.0010851891836758023 0.010532860777992982 -0.0009156496913975668 -0.006642479894471316 0.004095026375275233 0.021453733157755412 0.9950028291787215 -0.051058438352365246
 -0.0009159908278623382 -0.006642468478967884 0.0010403111472541864 0.010538210200597455 0.9950028291787215 -0.051058438352365246 0.004101824863383096 0.021453259387241484
0.1059090909091 0.004346115851101705 0.022819929651307844 0.9946709956922388 -0.0541453223886398 0.0011926271302032832 0.011155217423938527 -0.0010050561513828419 -0.007038552367716335
 0.9946709956922388 -0.0541453223886398 0.004354325701269614 0.022819357310135794 -0.0010046748621874311 -0.007038567067748693 0.0011422941031511923 0.011161324091413988
 0.0011926271302032832 0.011155217423938527 -0.0010046748621874311 -0.007038567067748693 0.004346456999125412 0.022821288051638095 0.9946710474611433 -0.054143899095796234
 -0.0010050561513828419 -0.007038552367716335 0.0011422941031511923 0.011161324091413988 0.9946710474611433 -0.054143899095796234 0.004354074584860923 0.022820765796816512
0.1062942892872 0.004362967490865838 0.02291009405708319 0.994648760943541 -0.05434824049518184 0.0011998703878421343 0.011196082967984982 -0.0010110606631560418 -0.007064568850034306
 0.994648760943541 -0.05434824049518184 0.004371237080786624 0.022909518046899828 -0.00101067666315946 -0.0070645837794793 0.0011491681377302973 0.011202241707864736
 0.0011998703878421343 0.011196082967984982 -0.00101067666315946 -0.0070645837794793 0.004363311097540566 0.022911457078835278 0.9946488130851511 -0.05434681194416604
 -0.0010110606631560418 -0.007064568850034306 0.0011491681377302973 0.011202241707864736 0.9946488130851511 -0.05434681194416604 0.004370984087655391 0.022910931550081226
0.11254689453939999 0.004642560826538519 0.02438029735112043 0.994279975354008 -0.05764805422050703 0.0013207354057725444 0.011859523664297452 -0.0011112570558792492 -0.007487078382357811
 0.994279975354008 -0.05764805422050703 0.004651830461000764 0.024379659874811416 -0.0011108277719574459 -0.007487097280508913 0.0012638482983184046 0.011866569667378438
 0.0013207354057725444 0.011859523664297452 -0.0011108277719574459 -0.007487097280508913 0.0046429455596624656 0.024381734897944242 0.9942800337546819 -0.05764654018733328
 -0.0011112570558792492 -0.007487078382357811 0.0012638482983184046 0.011866569667378438 0.9942800337546819 -0.05764654018733328 0.00465154599112495 0.024381154637952148
0.11879949979160001 0.004933690542469296 0.025862906853568273 0.9938962406660087 -0.06095913208398414 0.0014478370930839917 0.012523111444792491 -0.001216633462303519 -0.00790992660974573
 0.9938962406660087 -0.06095913208398414 0.004944017415494778 0.02586220424597629 -0.0012161564921652534 -0.007909949952137946 0.0013844036884397793 0.012531126541123011
 0.0014478370930839917 0.012523111444792491 -0.0012161564921652534 -0.007909949952137946 0.004934118685946756 0.025864417985446492 0.9938963057240321 -0.06095753229059484
 -0.001216633462303519 -0.00790992660974573 0.0013844036884397793 0.012531126541123011 0.9938963057240321 -0.06095753229059484 0.004943699546752433 0.02586377995969331
0.1250521050438 0.005236545081783139 0.027357774180706958 0.9934973716124241 -0.06428137739640333 0.001581227445505326 0.013186773208866019 -0.0013272424584145342 -0.008333041824956356
 0.9934973716124241 -0.06428137739640333 0.0052479864492648055 0.027357002678385003 -0.0013267154178597039 -0.008333070107860606 0.0015108855442833567 0.013195843155359634
 0.001581227445505326 0.013186773208866019 -0.0013267154178597039 -0.008333070107860606 0.0052370189095467855 0.027359357907415737 0.9934974437354923 -0.0642796915455541
 -0.0013272424584145342 -0.008333041824956356 0.0015108855442833567 0.013195843155359634 0.9934974437354923 -0.0642796915455541 0.00524763324494871 0.027358659018928953
0.131304710296 0.005551312356622658 0.028864750660943704 0.9930831831989588 -0.06761468800021044 0.0017209575596153258 0.013850434214980794 -0.001443135705958976 -0.008756351047607172
 0.9930831831989588 -0.06761468800021044 0.00556392554466873 0.028863906400506803 -0.0014425562288902763 -0.00875638478799698 0.0016433442414924707 0.013860648737780083
 0.0017209575596153258 0.013850434214980794 -0.0014425562288902763 -0.00875638478799698 0.005551834132052075 0.028866405939037585 0.9930832628050794 -0.06761291577831408
 -0.001443135705958976 -0.008756351047607172 0.0016433442414924707 0.013860648737780083 0.9930832628050794 -0.06761291577831408 0.005563535053238022 0.0288656430272195
0.1375573155481 0.0057983516196039335 0.03018560365045791 0.9927333367880691 -0.07076082814247872 0.0018476267901528496 0.014493185037424788 -0.0015450084253496952 -0.009158893902054953
 0.9927333367880691 -0.07076082814247872 0.00581219739873337 0.030184701338922114 -0.001544372934991648 -0.009158933023374963 0.001762564306955512 0.014504514720457945
 0.0018476267901528496 0.014493185037424788 -0.001544372934991648 -0.009158933023374963 0.005798923044847641 0.03018732969141811 0.9927334242152333 -0.07075896935455936
 -0.0015450084253496952 -0.009158893902054953 0.001762564306955512 0.014504514720457945 0.9927334242152333 -0.07075896935455936 0.005811768368223187 0.030186517827551818
0.1438099208003 0.006053787488927867 0.03150067275373974 0.9923716963152515 -0.07390020614264865 0.0019794269081850517 0.015134087553950638 -0.0016509751372364636 -0.009559781393188634
 0.9923716963152515 -0.07390020614264865 0.006068923803773835 0.031499709754665366 -0.0016502810752532723 -0.009559826393857305 0.0018865848764682057 0.015146612942458514
 0.0019794269081850517 0.015134087553950638 -0.0016502810752532723 -0.009559826393857305 0.006054410709645645 0.03150246848932895 0.9923717919801011 -0.07389826047672354
 -0.0016509751372364636 -0.009559781393188634 0.0018865848764682057 0.015146612942458514 0.9923717919801011 -0.07389826047672354 0.006068454387565218 0.03150160572295854
0.1500625260525 0.006317544244184763 0.03280988368582506 0.9919983402099184 -0.07703278058256445 0.0021163221233557457 0.015773100897776574 -0.0017610017084346138 -0.00995897496566908
 0.9919983402099184 -0.07703278058256445 0.006334029127775152 0.032808857213596984 -0.001760246519196342 -0.009959026363940148 0.002015371636772284 0.015786905434341764
 0.0021163221233557457 0.015773100897776574 -0.001760246519196342 -0.009959026363940148 0.006318221388844225 0.03281174800467521 0.9919984445375857 -0.07703074771448115
 -0.0017610017084346138 -0.00995897496566908 0.002015371636772284 0.015786905434341764 0.9919984445375857 -0.07703074771448115 0.006333517472944137 0.03281083226240526
0.15631513130469998 0.006589545790661614 0.034113164630271454 0.9916133471180054 -0.08015850952303796 0.002258276328330153 0.01641018473079537 -0.0018750536800221202 -0.01035643678649825
