! Created with skrf 1.8.0 (http://scikit-rf.org).
# GHz S RI R 50.0 
!freq ReS11 ImS11 ReS12 ImS12 ReS13 ImS13
! ReS14 ImS14
! ReS21 ImS21 ReS22 ImS22 ReS23 ImS23
! ReS24 ImS24
! ReS31 ImS31 ReS32 ImS32 ReS33 ImS33
! ReS34 ImS34
! ReS41 ImS41 ReS42 ImS42 ReS43 ImS43
! ReS44 ImS44
!
0.0 0.00183270041362 0.0 0.9981672995494 0.0 7.102756580037e-05 0.0 -7.10275662443e-05 8.698368165230859e-21
 0.9981672995494 0.0 0.001832700413654 0.0 -7.102756624528e-05 8.698368165350874e-21 7.102756580103e-05 0.0
 7.102756580037e-05 0.0 -7.102756624528e-05 8.698368165350874e-21 0.001832700432117 0.0 0.9981672995679 0.0
 -7.10275662443e-05 8.698368165230859e-21 7.102756580103e-05 0.0 0.9981672995679 0.0 0.001832700432104 0.0
0.005 0.0019727789124607278 0.0015010724515989123 0.9979899196422517 -0.003837850981276904 9.969156478892103e-05 0.0007662925307503653 -9.681064095350779e-05 -0.0004836628372950734
 0.9979899196422517 -0.003837850981276904 0.001972800097904938 0.0015010600169240093 -9.680778515592333e-05 -0.0004836606163456539 9.957012038724515e-05 0.0007663388325157624
 9.969156478892103e-05 0.0007662925307503653 -9.680778515592333e-05 -0.0004836606163456539 0.0019727809178634857 0.0015011385071937295 0.99798992002441 -0.0038377839277915367
 -9.681064095350779e-05 -0.0004836628372950734 9.957012038724515e-05 0.0007663388325157624 0.99798992002441 -0.0038377839277915367 0.001972798850909375 0.0015011280642136398
0.006252605252188 0.00200980888967343 0.0018821918214944684 0.9979426874835118 -0.004798203586236301 0.00010804313902861194 0.0009582252726226769 -0.00010421883570093926 -0.0006051824579878645
 0.9979426874835118 -0.004798203586236301 0.002009842006956853 0.001882176043475427 -0.00010421439211317678 -0.0006051797200688771 0.00010785339605543751 0.000958285445215753
 0.00010804313902861194 0.0009582252726226769 -0.00010421439211317678 -0.0006051797200688771 0.0020098119476097518 0.0018822743867801394 0.9979426880037282 -0.0047981197653840435
 -0.00010421883570093926 -0.0006051824579878645 0.00010785339605543751 0.000958285445215753 0.9979426880037282 -0.0047981197653840435 0.002009839979910651 0.0018822611104610015
0.01250521050438 0.002206439942357116 0.0038032692186930504 0.9976900162869132 -0.009596841012201578 0.00015679454733727775 0.0019167152912593856 -0.0001469418087695972 -0.0012130892824029117
 0.9976900162869132 -0.009596841012201578 0.002206572189441009 0.0038032352647109917 -0.00014692430063689905 -0.0012130842319391813 0.00015603794728766805 0.0019168606928358122
 0.00015679454733727775 0.0019167152912593856 -0.00014692430063689905 -0.0012130842319391813 0.002206451613971322 0.00380343398848105 0.9976900178207786 -0.00959667361716101
 -0.0001469418087695972 -0.0012130892824029117 0.00015603794728766805 0.0019168606928358122 0.9976900178207786 -0.00959667361716101 0.002206563542909891 0.0038034051938719902
0.01875781575657 0.002423083385774153 0.00575110150473087 0.997408929234064 -0.014407514960057589 0.0002174032453644557 0.0028760433542681886 -0.00019933932167391058 -0.0018228222505941671
 0.997408929234064 -0.014407514960057589 0.002423380570185162 0.005751046717458235 -0.00019930028403141557 -0.0018228154082087112 0.00021570375533344667 0.002876304618189209
 0.0002174032453644557 0.0028760433542681886 -0.00019930028403141557 -0.0018228154082087112 0.002423109193860219 0.00575134820657021 0.9974089322554078 -0.014407264059903528
 -0.00019933932167391058 -0.0018228222505941671 0.00021570375533344667 0.002876304618189209 0.9974089322554078 -0.014407264059903528 0.002423360696859368 0.005751301497836554
0.02501042100875 0.002660210711161445 0.0077228904298408075 0.9970990539512082 -0.01923247815273507 0.0002899921561493093 0.0038361931814111356 -0.00026154835570711525 -0.0024340634281323024
 0.9970990539512082 -0.01923247815273507 0.002660738524232487 0.007722811915671739 -0.0002614794279701041 -0.002434055418105403 0.0002869737176093641 0.003836606360247204
 0.0002899921561493093 0.0038361931814111356 -0.0002614794279701041 -0.002434055418105403 0.002660256181814311 0.007723218724516882 0.9970990589446016 -0.01923214379585371
 -0.00026154835570711525 -0.0024340634281323024 0.0002869737176093641 0.003836606360247204 0.9970990589446016 -0.01923214379585371 0.0026607028249767367 0.007723151570977819
0.03126302626094 0.002918273704687304 0.009717156410715373 0.9967600014877138 -0.02407264713056895 0.00037468387954613244 0.00479706086412538 -0.0003337011180763211 -0.0030465731977131257
 0.9967600014877138 -0.02407264713056895 0.0029190977600122444 0.009717051043514108 -0.0003335940268956153 -0.0030465647488941727 0.0003699700824144823 0.004797667462676024
 0.00037468387954613244 0.00479706086412538 -0.0003335940268956153 -0.0030465647488941727 0.002918344356718178 0.009717565916809829 0.9967600089375649 -0.024072229319639895
 -0.0003337011180763211 -0.0030465731977131257 0.0003699700824144823 0.004797667462676024 0.9967600089375649 -0.024072229319639895 0.002919041629501449 0.009717475657117362
0.037515631513130004 0.0031977134945304145 0.011732904776038777 0.9963913757938646 -0.028928435955188674 0.00047159940396799497 0.005758507036878134 -0.00041592593044997676 -0.003660138128891888
 0.9963913757938646 -0.028928435955188674 0.003198899354244208 0.01173276919803525 -0.0004157724810701669 -0.003660130074905207 0.0004648133539384927 0.005759354065038878
 0.00047159940396799497 0.005758507036878134 -0.0004157724810701669 -0.003660130074905207 0.003197814841901517 0.01173339503419958 0.9963913861869507 -0.028927934682107807
 -0.00041592593044997676 -0.003660138128891888 0.0004648133539384927 0.005759354065038878 0.9963913861869507 -0.028927934682107807 0.0031988181821798627 0.011733278878357104
0.043768236765320004 0.0034989640215333942 0.01376937203524643 0.9959927776268113 -0.033800009877484466 0.0005808574761611003 0.006720372750557832 -0.0005083475153183241 -0.004274555152368255
 0.9959927776268113 -0.033800009877484466 0.003500577218218367 0.013769202656700065 -0.0005081395866224384 -0.004274548431614697 0.0005716217450354076 0.006721512782203885
 0.0005808574761611003 0.006720372750557832 -0.0005081395866224384 -0.004274548431614697 0.0034991015717660504 0.013769942518213781 0.9959927914512597 -0.03379942511250306
 -0.0005083475153183241 -0.004274555152368255 0.0005716217450354076 0.006721512782203885 0.9959927914512597 -0.03379942511250306 0.0035004663868405416 0.013769797548535068
0.050020842017509996 0.0038224536241792586 0.01582592103611692 0.9955638065767319 -0.03868739011706573 0.0007025742021574838 0.007682486050695921 -0.00061108706903731 -0.0048896250365746755
 0.9955638065767319 -0.03868739011706573 0.003824559679445207 0.015825714034247006 -0.0006108166104521116 -0.004889620692159144 0.0006905108226308693 0.007683977284814999
 0.0007025742021574838 0.007682486050695921 -0.0006108166104521116 -0.004889620692159144 0.0038226328799850274 0.015826571138426455 0.9955638243250595 -0.038686721818049816
 -0.00061108706903731 -0.0048896250365746755 0.0006905108226308693 0.007683977284814999 0.9955638243250595 -0.038686721818049816 0.0038244145652449775 0.015826394309978398
0.055454545454549996 0.004121965779488214 0.0176289952579551 0.9951660402918894 -0.04294745460018379 0.0008185556474589762 0.008518651804938084 -0.0007088417674192479 -0.00542451540673832
 0.9951660402918894 -0.04294745460018379 0.004124553360071398 0.017628752273310525 -0.0007085104836927811 -0.005424514055811093 0.0008037275971898221 0.008520499924634847
 0.0008185556474589762 0.008518651804938084 -0.0007085104836927811 -0.005424514055811093 0.0041221857430112745 0.017629714001047073 0.9951660618537301 -0.04294671366150874
 -0.0007088417674192479 -0.00542451540673832 0.0008037275971898221 0.008520499924634847 0.9951660618537301 -0.04294671366150874 0.004124374693221125 0.017629506914329896
0.056273447269699996 0.00416860581905434 0.017901989496492104 0.9951040622946938 -0.043590505272879915 0.0008368627524379091 0.008644665213204608 -0.0007242622376858485 -0.005505149215056554
 0.9951040622946938 -0.043590505272879915 0.004171270261184059 0.017901740813579738 -0.000723921267192746 -0.0055051483946926836 0.0008215932394528198 0.008646571535745192
 0.0008368627524379091 0.008644665213204608 -0.000723921267192746 -0.0055051483946926836 0.004168832277268744 0.017902718539173298 0.9951040844639497 -0.04358975337978926
 -0.0007242622376858485 -0.005505149215056554 0.0008215932394528198 0.008646571535745192 0.9951040844639497 -0.04358975337978926 0.0041710862341823194 0.017902506679305097
0.06252605252188 0.004537839689201734 0.019997061741591767 0.9946131453352132 -0.048509219536433765 0.0009838331161759217 0.009606720550452919 -0.0008479870458557541 -0.0061209280526410845
 0.9946131453352132 -0.048509219536433765 0.004541128070220909 0.019996767082519386 -0.0008475676487815266 -0.0061209320085351595 0.0009649785068817012 0.009609111596127849
 0.0009838331161759217 0.009606720550452919 -0.0008475676487815266 -0.0061209320085351595 0.004538118838638259 0.019997868963621546 0.9946131724262074 -0.048508383978983036
 -0.0008479870458557541 -0.0061209280526410845 0.0009649785068817012 0.009609111596127849 0.9946131724262074 -0.048508383978983036 0.004540900492168744 0.01999761877097763
0.06877865777407 0.004930570053522724 0.022110651840347138 0.9940906577848259 -0.05344334951588283 0.001143591886341971 0.010568455497235767 -0.0009823717960131023 -0.006736759841452253
 0.9940906577848259 -0.05344334951588283 0.004934547965043705 0.02211030666939463 -0.0009818661242225208 -0.0067367699301680035 0.0011207727925164317 0.010571406710840371
 0.001143591886341971 0.010568455497235767 -0.0009818661242225208 -0.0067367699301680035 0.004930907375395964 0.022111536405858098 0.9940906903042147 -0.053442430205411715
 -0.0009823717960131023 -0.006736759841452253 0.0011207727925164317 0.010571406710840371 0.9940906903042147 -0.053442430205411715 0.004934272190981694 0.022111244448665333
0.07503126302626001 0.00534720750709409 0.024242292943497182 0.9935362037685329 -0.058392674869063174 0.0013162420610688128 0.011529667323221438 -0.0011275229512235827 -0.0073524401805988016
 0.9935362037685329 -0.058392674869063174 0.005351940596954459 0.02424189248050238 -0.0011269232227939974 -0.007352457862909953 0.0012890787315955699 0.011533260020170957
 0.0013162420610688128 0.011529667323221438 -0.0011269232227939974 -0.007352457862909953 0.005347608473331752 0.024243253930728324 0.9935362422285222 -0.058391671708778556
 -0.0011275229512235827 -0.0073524401805988016 0.0012890787315955699 0.011533260020170957 0.9935362422285222 -0.058391671708778556 0.005351611973837426 0.024242916644510264
0.08128386827845 0.005788158382426457 0.02639153018270479 0.9929493898805117 -0.06335694538714526 0.00150188285612261 0.01249014762394233 -0.001283543006954106 -0.007967761587842685
 0.9929493898805117 -0.06335694538714526 0.005793712369866279 0.02639106939861612 -0.0012828415059689834 -0.007967788428581235 0.0014699952471191177 0.012494469049825725
 0.00150188285612261 0.01249014762394233 -0.0012828415059689834 -0.007967788428581235 0.005788628454415885 0.02639256659231453 0.9929494347999397 -0.0633558582630226
 -0.001283543006954106 -0.007967761587842685 0.0014699952471191177 0.012494469049825725 0.9929494347999397 -0.0633558582630226 0.005793326236920845 0.02639218027688541
0.08753647353064001 0.006253824653438792 0.028557915792815334 0.9923298255651064 -0.06833588586757991 0.001700609524570056 0.013449682683031471 -0.001450530355331057 -0.008582513250929895
 0.9923298255651064 -0.06833588586757991 0.006260265345583928 0.02855738940440805 -0.0014497194320572452 -0.008582550918798974 0.0016636173759433548 0.013454826071971149
 0.001700609524570056 0.013449682683031471 -0.0014497194320572452 -0.008582550918798974 0.0062543692815523145 0.028559026542054975 0.9923298774699827 -0.06833471465338145
 -0.001450530355331057 -0.008582513250929895 0.0016636173759433548 0.013454826071971149 0.9923298774699827 -0.06833471465338145 0.006259817033983155 0.028558587357840642
0.09378907878283 0.0067446038045839065 0.03074100562061056 0.9916771234655511 -0.07332919961313367 0.001912513182007724 0.014408053750847312 -0.0016285791441020725 -0.009196480873509263
 0.9916771234655511 -0.07332919961313367 0.0067519971115327995 0.03074040808472985 -0.0016276512151036629 -0.009196531140915632 0.001870036099410278 0.014414118382546819
 0.001912513182007724 0.014408053750847312 -0.0016276512151036629 -0.009196531140915632 0.006745228426281012 0.030742189543550246 0.9916771828894072 -0.07332794416952547
 -0.0016285791441020725 -0.009196480873509263 0.001870036099410278 0.014414118382546819 0.9916771828894072 -0.07332794416952547 0.006751481944750531 0.030741693507156945
0.100041684035 0.00726088867096303 0.03294035659143714 0.9909908997488388 -0.07833657098648891 0.002137680635114536 0.015365037270740104 -0.0018177791323954493 -0.009809446584832206
 0.9909908997488388 -0.07833657098648891 0.007269300621953134 0.032939682098313126 -0.0018167266809784464 -0.009809511327671373 0.0020893381765058425 0.015372128526074093
 0.002137680635114536 0.015365037270740104 -0.0018167266809784464 -0.009809511327671373 0.007261598709598412 0.032941612435875095 0.9909909672335477 -0.07833523116340416
 -0.0018177791323954493 -0.009809446584832206 0.0020893381765058425 0.015372128526074093 0.9909909672335477 -0.07833523116340416 0.007268713914885112 0.03294105541501608
0.1059090909091 0.007768910126870681 0.03501860813463386 0.9903161254809718 -0.08304794708340983 0.0023611130822790943 0.01626159965197477 -0.002005541125280951 -0.010383541409065847
 0.9903161254809718 -0.08304794708340983 0.007778338139541165 0.035017855897456776 -0.0020043650462542016 -0.01038362153367051 0.002306920619932762 0.016269755609857335
 0.0023611130822790943 0.01626159965197477 -0.0020043650462542016 -0.01038362153367051 0.0077697052391120305 0.03501993025741902 0.9903162010307657 -0.08304652792918452
 -0.002005541125280951 -0.010383541409065847 0.002306920619932762 0.016269755609857335 0.9903162010307657 -0.08304652792918452 0.007777680031685092 0.03501931211301701
0.1062942892872 0.00780306726008052 0.0351555248073131 0.9902707744156612 -0.08335766734686355 0.0023761942134453836 0.016320405072858514 -0.002018215543930981 -0.010421188893323394
 0.9902707744156612 -0.08335766734686355 0.007812564018631776 0.035154767273257045 -0.002017031120567246 -0.010421270090764297 0.002321605980009853 0.016328634487958318
 0.0023761942134453836 0.016320405072858514 -0.002017031120567246 -0.010421270090764297 0.007803868123801337 0.035156851239257235 0.9902708505122241 -0.08335624297843355
 -0.002018215543930981 -0.010421188893323394 0.002321605980009853 0.016328634487958318 0.9902708505122241 -0.08335624297843355 0.007811901078583235 0.035156228946847404
0.11254689453939999 0.00837152255758127 0.03738606412244378 0.9895163715987969 -0.08839214052344468 0.0026281316037172365 0.017273924542911122 -0.0022299689186855475 -0.01103148267702271
 0.9895163715987969 -0.08839214052344468 0.008382170437915124 0.037385217181696136 -0.002228645141598438 -0.011031582411259544 0.0025669173344256883 0.01728340986151759
 0.0026281316037172365 0.017273924542911122 -0.002228645141598438 -0.011031582411259544 0.008372419637850587 0.037387459719432435 0.9895164568677737 -0.08839063143402016
 -0.0022299689186855475 -0.01103148267702271 0.0025669173344256883 0.01728340986151759 0.9895164568677737 -0.08839063143402016 0.008381426563734444 0.03738676770694127
0.11879949979160001 0.008966632322247006 0.039631525030820146 0.9887273198518375 -0.09343962799076448 0.002893565686329153 0.01822535877940249 -0.0024531149638380924 -0.0116400991971835
 0.9887273198518375 -0.09343962799076448 0.00897849780414334 0.03963058202680532 -0.002451644519594311 -0.011640219653208404 0.002825345355855405 0.018236224003502523
 0.002893565686329153 0.01822535877940249 -0.002451644519594311 -0.011640219653208404 0.008967630992163994 0.03963298828469355 0.9887274148638953 -0.09343803399171591
 -0.0024531149638380924 -0.0116400991971835 0.002825345355855405 0.018236224003502523 0.9887274148638953 -0.09343803399171591 0.008977668286578314 0.03963222193476461
0.1250521050438 0.009588768871320265 0.04189145381658584 0.9879032524328042 -0.09849975379634444 0.003172564373909411 0.01917446674024664 -0.0026877244041773793 -0.012246806134680837
 0.9879032524328042 -0.09849975379634444 0.009601918616166848 0.04189040779215772 -0.0026861000484174127 -0.0122469495999732 0.003096958293934585 0.01918684217886036
 0.003172564373909411 0.01917446674024664 -0.0026861000484174127 -0.0122469495999732 0.009589874484500537 0.041892983134413385 0.9879033577696832 -0.09849807468458648
 -0.0026877244041773793 -0.012246806134680837 0.003096958293934585 0.01918684217886036 0.9879033577696832 -0.09849807468458648 0.009600998737944056 0.04189213765257417
0.131304710296 0.010238298859424731 0.04416539188696694 0.9870438075818189 -0.10357212932028356 0.003465190452133562 0.020121003384720018 -0.002933862832785216 -0.012851367643008616
 0.9870438075818189 -0.10357212932028356 0.010252799725474836 0.04416423557404014 -0.002932077390875249 -0.012851536507283958 0.003381819375380857 0.020135025700747402
 0.003465190452133562 0.020121003384720018 -0.002932077390875249 -0.012851536507283958 0.010239516748227172 0.0441669855840068 0.9870439238367847 -0.10357036488497076
 -0.002933862832785216 -0.012851367643008616 0.003381819375380857 0.020135025700747402 0.9870439238367847 -0.10357036488497076 0.010251784761299232 0.04416605598967922
0.1375573155481 0.010776550425728577 0.04615814358933622 0.9862877356121378 -0.10836143674571469 0.0037376974153564575 0.021036840732605703 -0.003157889327948448 -0.01342561781318824
 0.9862877356121378 -0.10836143674571469 0.010792472936187559 0.04615689067259699 -0.0031559319817366102 -0.013425812578309163 0.0036463712243177205 0.021052503621212963
 0.0037376974153564575 0.021036840732605703 -0.0031559319817366102 -0.013425812578309163 0.010777885191512283 0.04615980029818461 0.9862878632902152 -0.10835958689302581
 -0.003157889327948448 -0.01342561781318824 0.0036463712243177205 0.021052503621212963 0.9862878632902152 -0.10835958689302581 0.010791359049552146 0.04615880213653997
0.1438099208003 0.011334022316812244 0.0481385197822285 0.9855044842464785 -0.11313667532107462 0.004021143670234841 0.0219477132947189 -0.003390781345204718 -0.01399534452945838
 0.9855044842464785 -0.11313667532107462 0.011351434099073111 0.048137164035064364 -0.0033886443652138888 -0.013995567580804419 0.003921517805958384 0.021965143124892332
 0.004021143670234841 0.0219477132947189 -0.0033886443652138888 -0.013995567580804419 0.011335479132700657 0.04814023779235802 0.9855046239384289 -0.11313473985166601
 -0.003390781345204718 -0.01399534452945838 0.003921517805958384 0.021965143124892332 0.9855046239384289 -0.11313473985166601 0.011350216712983733 0.048139167147484944
0.1500625260525 0.011910487621514396 0.050106298800814936 0.9846942854646983 -0.11789766864321402 0.0043154114504977215 0.022853488090911513 -0.003632425196609211 -0.014560425089792342
 0.9846942854646983 -0.11789766864321402 0.011929456496503087 0.0501048336252674 -0.0036301008769501447 -0.014560678909111613 0.004207143938538173 0.022872815848961052
 0.0043154114504977215 0.022853488090911513 -0.0036301008769501447 -0.014560678909111613 0.011912071632966292 0.050108076336852214 0.9846944377709589 -0.11789564734856572
 -0.003632425196609211 -0.014560425089792342 0.004207143938538173 0.022872815848961052 0.9846944377709589 -0.11789564734856572 0.011928131036371147 0.050106929014522586
0.15631513130469998 0.012505717454678414 0.052061265611559826 0.9838573728249601 -0.12264424226484122 0.004620381383785379 0.023754034872469618 -0.0038827056076849303 -0.015120739778235989
 0.9838573728249601 -0.12264424226484122 0.012526311441222546 0.05205968402848231 -0.003880186266299596 -0.015121026943173464 0.004503132880800599 0.02377539610543937
