! Created with skrf 1.8.0 (http://scikit-rf.org).
# GHz S RI R 50.0 
!freq ReS11 ImS11 ReS12 ImS12 ReS13 ImS13
! ReS14 ImS14
! ReS21 ImS21 ReS22 ImS22 ReS23 ImS23
! ReS24 ImS24
! ReS31 ImS31 ReS32 ImS32 ReS33 ImS33
! ReS34 ImS34
! ReS41 ImS41 ReS42 ImS42 ReS43 ImS43
! ReS44 ImS44
!
0.0 0.001275747720195 0.0 0.9987242522457 0.0 4.896429515095e-05 0.0 -4.896429541723e-05 5.996396765521613e-21
 0.9987242522457 0.0 0.00127574772023 0.0 -4.896429541794e-05 5.996396765608564e-21 4.896429515135e-05 0.0
 4.896429515095e-05 0.0 -4.896429541794e-05 5.996396765608564e-21 0.001275747737263 0.0 0.9987242522627 0.0
 -4.896429541723e-05 5.996396765521613e-21 4.896429515135e-05 0.0 0.9987242522627 0.0 0.001275747737262 0.0
0.005 0.0013719960066927992 0.0010403084212206519 0.998602582286368 -0.0026733480619853317 6.877552270621877e-05 0.0005627853917911175 -6.674193441030306e-05 -0.00034930110258917706
 0.998602582286368 -0.0026733480619853317 0.0013719903718846782 0.0010403116744291303 -6.674263552361346e-05 -0.000349301574958108 6.880090607681527e-05 0.0005627755908660701
 6.877552270621877e-05 0.0005627853917911175 -6.674263552361346e-05 -0.000349301574958108 0.0013719956378283463 0.0010402413307592899 0.9986025819477413 -0.0026734151213463606
 -6.674193441030306e-05 -0.00034930110258917706 6.880090607681527e-05 0.0005627755908660701 0.9986025819477413 -0.0026734151213463606 0.0013719900602721547 0.0010402446409680324
0.006252605252188 0.0013970505569439455 0.001304522365202612 0.9985707411070017 -0.0033423702665419455 7.432098413957954e-05 0.0007037563337615755 -7.16746459871343e-05 -0.0004370947231560578
 0.9985707411070017 -0.0033423702665419455 0.0013970417494488562 0.0013045265325987612 -7.167573752089687e-05 -0.000437095304450762 7.43606421028556e-05 0.0007037436411277507
 7.432098413957954e-05 0.0007037563337615755 -7.167573752089687e-05 -0.000437095304450762 0.0013970500628967986 0.001304438509919951 0.9985707406598772 -0.003342454075098101
 -7.16746459871343e-05 -0.0004370947231560578 7.43606421028556e-05 0.0007037436411277507 0.9985707406598772 -0.003342454075098101 0.0013970413440990582 0.001304442759802832
0.01250521050438 0.0015278458433502144 0.0026367949818853534 0.9984035644045506 -0.006685738631695161 0.00010551844301967299 0.0014078745804504867 -9.919752770633049e-05 -0.0008764545565725688
 0.9984035644045506 -0.006685738631695161 0.0015278106839656802 0.002636804336630658 -9.920183616394639e-05 -0.0008764556192641436 0.00010567654777852811 0.0014078444698521582
 0.00010551844301967299 0.0014078745804504867 -9.920183616394639e-05 -0.0008764556192641436 0.0015278444343670618 0.002636627419647128 0.9984035631774244 -0.006685906005946581
 -9.919752770633049e-05 -0.0008764545565725688 0.00010567654777852811 0.0014078444698521582 0.9984035631774244 -0.006685906005946581 0.0015278096152280555 0.002636637054393283
0.01875781575657 0.001668379696085752 0.003988448376905962 0.9982225426451445 -0.010038286574478498 0.00014262254558041688 0.0021128786520825194 -0.0001316094862052192 -0.0013174399661287077
 0.9982225426451445 -0.010038286574478498 0.0016683007083679276 0.003988464008023998 -0.00013161910403442303 -0.001317441392165621 0.00014297761491089287 0.0021128255693826175
 0.00014262254558041688 0.0021128786520825194 -0.00013161910403442303 -0.001317441392165621 0.0016683769657445567 0.003988197108212137 0.998222540313387 -0.010038537379501729
 -0.0001316094862052192 -0.0013174399661287077 0.00014297761491089287 0.0021128255693826175 0.998222540313387 -0.010038537379501729 0.0016682987145839436 0.00398821333827404
0.02501042100875 0.0018188930067536853 0.0053576230912737175 0.9980274904120016 -0.013401679412390675 0.00018570000568501213 0.0028188312457159814 -0.00016898511038440398 -0.001759869159241377
 0.9980274904120016 -0.013401679412390675 0.0018187527614720138 0.005357646153172395 -0.0001690021085348854 -0.0017598708104232463 0.00018633053883049407 0.002818748851343054
 0.00018570000568501213 0.0028188312457159814 -0.0001690021085348854 -0.0017598708104232463 0.0018188885527643834 0.005357288039719997 0.9980274866504574 -0.013402013549863645
 -0.00016898511038440398 -0.001759869159241377 0.00018633053883049407 0.002818748851343054 0.9980274866504574 -0.013402013549863645 0.0018187495689424094 0.005357312148286251
0.03126302626094 0.001979616455936707 0.006743382162865563 0.9978182115114407 -0.016776653786103057 0.00023481822146988808 0.003525728132999888 -0.00021139719866816918 -0.0022036238167217046
 0.9978182115114407 -0.016776653786103057 0.0019793975632903782 0.006743413875062875 -0.00021142363044967486 -0.0022036255344181407 0.0002358027805139936 0.003525609299814848
 0.00023481822146988808 0.003525728132999888 -0.00021142363044967486 -0.0022036255344181407 0.0019796098821433026 0.006742963211530137 0.9978182059973537 -0.016777071157873018
 -0.00021139719866816918 -0.0022036238167217046 0.0002358027805139936 0.003525609299814848 0.9978182059973537 -0.016777071157873018 0.001979392888710742 0.006742996554364198
0.037515631513130004 0.0021507759080426053 0.008145129810223075 0.9975945044793646 -0.020163598926353644 0.0002900446422388057 0.004233539126657028 -0.00025891733632272016 -0.002648608119372963
 0.9975945044793646 -0.020163598926353644 0.002150461012796908 0.008145171457342018 -0.0002589552392691935 -0.002648609724364859 0.00029146189146033276 0.0042333759331482455
 0.0002900446422388057 0.004233539126657028 -0.0002589552392691935 -0.002648609724364859 0.0021507668237455433 0.008144626810425867 0.9975944968930569 -0.020164099425508807
 -0.00025891733632272016 -0.002648608119372963 0.00029146189146033276 0.0042333759331482455 0.9975944968930569 -0.020164099425508807 0.002150454563654384 0.008144670816153329
0.043768236765320004 0.002332594508577826 0.009562434512423609 0.997356164790893 -0.02356273351887578 0.0003514464843000322 0.004942220532425377 -0.0003116161104717196 -0.003094736285885592
 0.997356164790893 -0.02356273351887578 0.0023321662866257705 0.009562487444220584 -0.0003116675075071223 -0.0030947375782811658 0.00035337521112381544 0.004942004254414553
 0.0003514464843000322 0.004942220532425377 -0.0003116675075071223 -0.0030947375782811658 0.00233258252817859 0.009561847277595127 0.9973561548161841 -0.023563317035812718
 -0.0003116161104717196 -0.003094736285885592 0.00035337521112381544 0.004942004254414553 0.9973561548161841 -0.023563317035812718 0.0023321577610378717 0.009561903447916598
0.050020842017509996 0.0025252936660641948 0.010994955895419885 0.997102985955309 -0.02697417876091189 0.0004190905643282218 0.0056517202938074235 -0.00036956320160439003 -0.0035419274176628937
 0.997102985955309 -0.02697417876091189 0.00252473482182647 0.010995021526968714 -0.0003696301017422634 -0.0035419281768228326 0.0004216096913025748 0.005651441395533905
 0.0004190905643282218 0.0056517202938074235 -0.0003696301017422634 -0.0035419281768228326 0.0025252784080368198 0.01099428420854711 0.9971029732791232 -0.026974845175730157
 -0.00036956320160439003 -0.0035419274176628937 0.0004216096913025748 0.005651441395533905 0.9971029732791232 -0.026974845175730157 0.002524723907925289 0.010994354118588923
0.055454545454549996 0.0027017624473394983 0.012251995774131212 0.996870753288472 -0.02994887318278039 0.0004829962902349402 0.006268916837552453 -0.00042423671623063387 -0.003931352290436673
 0.996870753288472 -0.02994887318278039 0.00270107606249622 0.012252073642185498 -0.00042431871013266076 -0.003931352390851921 0.0004860926969267885 0.0062685751388999265
 0.0004829962902349402 0.006268916837552453 -0.00042431871013266076 -0.003931352390851921 0.0027017440332964097 0.012251250490971671 0.9968707380130921 -0.029949611538015994
 -0.00042423671623063387 -0.003931352290436673 0.0004860926969267885 0.0062685751388999265 0.9968707380130921 -0.029949611538015994 0.002701062811470571 0.012251333677704495
0.056273447269699996 0.0027290935644276415 0.012442408852767687 0.9968347601430961 -0.030397994183090162 0.0004930431875887234 0.006361980505883025 -0.00043282741752558073 -0.003990102975367348
 0.9968347601430961 -0.030397994183090162 0.0027283868283243646 0.012442488664584537 -0.00043291181632632654 -0.003990102959842907 0.0004962317781344252 0.0063616286307605924
 0.0004930431875887234 0.006361980505883025 -0.00043291181632632654 -0.003990102959842907 0.0027290746501398276 0.012441652461418663 0.9968347444558316 -0.030398743370543234
 -0.00043282741752558073 -0.003990102975367348 0.0004962317781344252 0.0063616286307605924 0.9968347444558316 -0.030398743370543234 0.002728373203505637 0.012441737760066806
0.06252605252188 0.0029442134528590504 0.013904543805063722 0.9965512785936637 -0.033834197333399575 0.000573370060665745 0.007072938805427542 -0.0005014766999490083 -0.004439185380364121
 0.9965512785936637 -0.033834197333399575 0.002943341579441025 0.013904639343364063 -0.0005015805798067514 -0.00443918432783814 0.0005773073217828366 0.0070725027666477085
 0.000573370060665745 0.007072938805427542 -0.0005015805798067514 -0.00443918432783814 0.002944190506483811 0.013903702428717045 0.9965512595897073 -0.03383502915546568
 -0.0005014766999490083 -0.004439185380364121 0.0005773073217828366 0.0070725027666477085 0.9965512595897073 -0.03383502915546568 0.002943324910719201 0.013903804838973199
0.06877865777407 0.003170871808752113 0.015381134940417656 0.9962523318966222 -0.03728277548098676 0.0006601362212326988 0.007784529184659823 -0.0005755781129624105 -0.004889097194062358
 0.9962523318966222 -0.03728277548098676 0.0031698175743277083 0.01538124781737829 -0.0005757034432598167 -0.004889094821300072 0.0006649015029134765 0.007783996955700123
 0.0006601362212326988 0.007784529184659823 -0.0005757034432598167 -0.004889094821300072 0.003170844456372553 0.015380208268742685 0.9962523092743575 -0.03728368978857338
 -0.0005755781129624105 -0.004889097194062358 0.0006649015029134765 0.007783996955700123 0.9962523092743575 -0.03728368978857338 0.003169797518028866 0.01538032958818678
0.07503126302626001 0.0034092864281239873 0.016871972760647676 0.9959377102043294 -0.040743693015961986 0.0007534059737723549 0.008496682517217151 -0.0006551978233081202 -0.005339760586691137
 0.9959377102043294 -0.040743693015961986 0.00340803262939733 0.016872104654682016 -0.0006553465605804993 -0.005339756589491486 0.0007590787670981627 0.008496041222327038
 0.0007534059737723549 0.008496682517217151 -0.0006553465605804993 -0.005339756589491486 0.003409254297344692 0.016870960452261344 0.9959376836668454 -0.040744689650063594
 -0.0006551978233081202 -0.005339760586691137 0.0007590787670981627 0.008496041222327038 0.9959376836668454 -0.040744689650063594 0.0034080088306657806 0.016871102553462993
0.08128386827845 0.0036596744730999255 0.018376859109966802 0.9956072034022294 -0.04421689636822964 0.0008532428326796371 0.009209326899275313 -0.0007404010725055756 -0.0057910969927793265
 0.9956072034022294 -0.04421689636822964 0.00365820392513249 0.01837701176605036 -0.0007405751604378849 -0.005791091045929074 0.000859902766037773 0.009208562803920977
 0.0008532428326796371 0.009209326899275313 -0.0007405751604378849 -0.005791091045929074 0.003659637191640977 0.01837576079463188 0.9956071726569612 -0.04421797515774192
 -0.0007404010725055756 -0.0057910969927793265 0.000859902766037773 0.009208562803920977 0.9956071726569612 -0.04421797515774192 0.003658176017300892 0.018375925625614874
0.08753647353064001 0.0039222524860295285 0.01989560374307489 0.9952606012494997 -0.04770231738880323 0.0009597094667366791 0.009922387891676787 -0.000831252145890012 -0.006243026867488589
 0.9952606012494997 -0.04770231738880323 0.0039205480205942314 0.0198957789732007 -0.0008314535153331761 -0.006243018624721282 0.000967436301189586 0.00992148639304758
 0.0009597094667366791 0.009922387891676787 -0.0008314535153331761 -0.006243018624721282 0.003922209681958388 0.019894419021328984 0.9952605660091911 -0.04770347815090145
 -0.000831252145890012 -0.006243026867488589 0.000967436301189586 0.00992148639304758 0.9952605660091911 -0.04770347815090145 0.003920515625576877 0.019894608606136028
0.09378907878283 0.004197236386073936 0.02142802187022563 0.994897693502574 -0.051199875756260074 0.0010728676472289741 0.01063578868862638 -0.0009278143371643717 -0.006695469518435119
 0.994897693502574 -0.051199875756260074 0.004195280849859987 0.0214282215537509 -0.0009280449060711085 -0.0066954586123984935 0.0010817412706879096 0.01063473430615291
 0.0010728676472289741 0.01063578868862638 -0.0009280449060711085 -0.0066954586123984935 0.004197187686446247 0.021426750313847647 0.9948976534853802 -0.051201118295931505
 -0.0009278143371643717 -0.006695469518435119 0.0010817412706879096 0.01063473430615291 0.9948976534853802 -0.051201118295931505 0.0041952435774331555 0.021426966753069456
0.100041684035 0.004484841448743719 0.022973932356380483 0.9945182700254541 -0.05470948073115654 0.0011927781966385364 0.011349450245032562 -0.0010301499109673456 -0.007148342980958372
 0.9945182700254541 -0.05470948073115654 0.004482617701937319 0.02297415844052077 -0.0010304115843701967 -0.0071483290231733184 0.0012028786174827035 0.011348226610931265
 0.0011927781966385364 0.011349450245032562 -0.0010304115843701967 -0.0071483290231733184 0.004484786479453242 0.022972573506881585 0.9945182249553433 -0.0547108048428226
 -0.0010301499109673456 -0.007148342980958372 0.0012028786174827035 0.011348226610931265 0.9945182249553433 -0.0547108048428226 0.0044825751495580135 0.022972818978258574
0.1059090909091 0.004766398279255626 0.02443671720117783 0.9941470134572137 -0.05801374019414169 0.0013114960375564377 0.012019310786050473 -0.0011314863480472762 -0.007573634302385309
 0.9941470134572137 -0.05801374019414169 0.004763907267080197 0.024436969891406184 -0.0011317789306970498 -0.007573617108699286 0.0013228205452026159 0.012017912642424923
 0.0013114960375564377 0.012019310786050473 -0.0011317789306970498 -0.007573617108699286 0.0047663370843418216 0.024435275993494283 0.9941469633996111 -0.058015140654901494
 -0.0011314863480472762 -0.007573634302385309 0.0013228205452026159 0.012017912642424923 0.9941469633996111 -0.058015140654901494 0.004763859382668245 0.024435550758396637
0.1062942892872 0.0047852822761332535 0.024533156361273074 0.9941221208914355 -0.05823103247189866 0.0013195009384985806 0.012063291371465135 -0.001138320063578301 -0.007601563927830511
 0.9941221208914355 -0.05823103247189866 0.0047827731904423335 0.02453341086166609 -0.0011386147334550968 -0.007601546508666549 0.0013309082782511407 0.012061881221422214
 0.0013195009384985806 0.012063291371465135 -0.0011386147334550968 -0.007601546508666549 0.004785220660784414 0.02453170973129028 0.9941220704981448 -0.05823243793793618
 -0.001138320063578301 -0.007601563927830511 0.0013309082782511407 0.012061881221422214 0.9941220704981448 -0.05823243793793618 0.0047827249428638915 0.024531986490360747
0.11254689453939999 0.005098772757907131 0.026105516304387243 0.9937090364784921 -0.06176442302789877 0.0014530946476226099 0.012777228810133389 -0.0012523848819450771 -0.008055047600334821
 0.9937090364784921 -0.06176442302789877 0.0050959612152203255 0.026105801305625276 -0.0012527144271303353 -0.008055026288983318 0.0014658891332384517 0.0127756139739639
 0.0014530946476226099 0.012777228810133389 -0.0012527144271303353 -0.008055026288983318 0.005098704117555852 0.026103981378169133 0.993708980498539 -0.06176590961842724
 -0.0012523848819450771 -0.008055047600334821 0.0014658891332384517 0.0127756139739639 0.993708980498539 -0.06176590961842724 0.005095906844357274 0.026104291758963692
0.11879949979160001 0.005425526026552269 0.02769083505102283 0.9932788075601812 -0.06530953711435425 0.0015936170010454735 0.013491177293765762 -0.0013724033013300524 -0.008508707758612124
 0.9932788075601812 -0.06530953711435425 0.00542239491703199 0.027691152707280328 -0.0013727695873571744 -0.008508682103068314 0.0016078789565377324 0.013489338686205584
 0.0015936170010454735 0.013491177293765762 -0.0013727695873571744 -0.008508682103068314 0.005425449978685897 0.02768921128330615 0.9932787457368932 -0.06531110458833422
 -0.0013724033013300524 -0.008508707758612124 0.0016078789565377324 0.013489338686205584 0.9932787457368932 -0.06531110458833422 0.005422333981589662 0.027689557699051875
0.1250521050438 0.005765754406615809 0.029288935270304937 0.9928312253935996 -0.06886625271744808 0.0017411245287819559 0.014205049595990303 -0.0014984330621282081 -0.008962456642853387
 0.9928312253935996 -0.06886625271744808 0.00576228662723171 0.02928928780601338 -0.0014988379411164435 -0.008962426169895604 0.0017569343664186978 0.014202967207606254
 0.0017411245287819559 0.014205049595990303 -0.0014988379411164435 -0.008962426169895604 0.0057656705647582554 0.029287222088690577 0.9928311574774571 -0.06886790082049368
 -0.0014984330621282081 -0.008962456642853387 0.0017569343664186978 0.014202967207606254 0.9928311574774571 -0.06886790082049368 0.005762218672435792 0.029287607032600575
0.131304710296 0.006119669360647712 0.030899638921974927 0.9923660818047819 -0.07243444157351941 0.0018956725648527548 0.01491875657322609 -0.0016305306656846613 -0.009416204945455519
 0.9923660818047819 -0.07243444157351941 0.006115847813430106 0.03090002863257093 -0.0016309759761581534 -0.009416169160633576 0.0019131107759550476 0.014916409461363593
 0.0018956725648527548 0.01491875657322609 -0.0016309759761581534 -0.009416169160633576 0.006119577333470134 0.03089783572394189 0.9923660075538178 -0.07243617004101378
 -0.0016305306656846613 -0.009416204945455519 0.0019131107759550476 0.014916409461363593 0.9923660075538178 -0.07243617004101378 0.00611577237069112 0.030898261770062503
0.1375573155481 0.006400373433860477 0.03231123534090222 0.99197030258713 -0.07580236579776288 0.002035977598935633 0.01561006084008856 -0.001747398112553675 -0.009847739145260275
 0.99197030258713 -0.07580236579776288 0.006396179011229657 0.03231165432464482 -0.00174788635863715 -0.009847698065866542 0.0020550897899729212 0.015607454757842478
 0.002035977598935633 0.01561006084008856 -0.00174788635863715 -0.009847698065866542 0.006400272045667103 0.03230934195329229 0.9919702217195737 -0.07580417440933072
 -0.001747398112553675 -0.009847739145260275 0.0020550897899729212 0.015607454757842478 0.9919702217195737 -0.07580417440933072 0.006396096459026393 0.032309800660270095
0.1438099208003 0.006690731475281293 0.03371634629865953 0.9915610058109429 -0.07916274091258928 0.0021819532464871874 0.016299243382708828 -0.0018689630883201708 -0.010277321705664493
 0.9915610058109429 -0.07916274091258928 0.006686146756319456 0.03371679609307287 -0.0018694962090661925 -0.010277274856150095 0.002202813697347724 0.016296359349470466
 0.0021819532464871874 0.016299243382708828 -0.0018694962090661925 -0.010277274856150095 0.006690620184159099 0.033714362124594756 0.9915609180886538 -0.07916462939472456
 -0.0018689630883201708 -0.010277321705664493 0.002202813697347724 0.016296359349470466 0.9915609180886538 -0.07916462939472456 0.006686056758633783 0.03371485522765833
0.1500625260525 0.006990653689194941 0.03511488326409791 0.9911382843809777 -0.08251551327917228 0.002333557034199427 0.01698625588685118 -0.001995184073119556 -0.01070490547693614
 0.9911382843809777 -0.08251551327917228 0.006985661239900146 0.035115365483038 -0.0019957640027019018 -0.010704852363015592 0.002356239693708347 0.016983074227709956
 0.002333557034199427 0.01698625588685118 -0.0019957640027019018 -0.010704852363015592 0.006990531938741424 0.03511280768205497 0.9911381895726006 -0.08251748134880493
 -0.001995184073119556 -0.01070490547693614 0.002356239693708347 0.016983074227709956 0.9911381895726006 -0.08251748134880493 0.006985563457035775 0.03511333699783497
0.15631513130469998 0.007300049784970378 0.036506760542848585 0.9907022315177062 -0.08586062888693567 0.00249074607786821 0.017671050718641137 -0.0021260191172026723 -0.011130444216766186
