! Created with skrf 1.8.0 (http://scikit-rf.org).
# GHz S RI R 50.0 
!freq ReS11 ImS11 ReS12 ImS12 ReS13 ImS13
! ReS14 ImS14
! ReS21 ImS21 ReS22 ImS22 ReS23 ImS23
! ReS24 ImS24
! ReS31 ImS31 ReS32 ImS32 ReS33 ImS33
! ReS34 ImS34
! ReS41 ImS41 ReS42 ImS42 ReS43 ImS43
! ReS44 ImS44
!
0.0 0.001497224587716 0.0 0.9985027754009 0.0 5.781284678245e-05 0.0 -5.781284704865e-05 7.080031808772472e-21
 0.9985027754009 0.0 0.001497224587726 0.0 -5.781284704905e-05 7.080031808821459e-21 5.781284678231e-05 0.0
 5.781284678245e-05 0.0 -5.781284704905e-05 7.080031808821459e-21 0.001497224593415 0.0 0.9985027754066 0.0
 -5.781284704865e-05 7.080031808772472e-21 5.781284678231e-05 0.0 0.9985027754066 0.0 0.001497224593408 0.0
0.005 0.001610787380968236 0.0012223956590678106 0.9983591157765435 -0.003136555898729963 8.13317882349592e-05 0.0006526155544428014 -7.889004203652573e-05 -0.00040693365344350715
 0.9983591157765435 -0.003136555898729963 0.0016107984835207678 0.001222389201265882 -7.88929217098377e-05 -0.00040693588342985475 8.125792593059107e-05 0.0006526437368210761
 8.13317882349592e-05 0.0006526155544428014 -7.88929217098377e-05 -0.00040693588342985475 0.001610785464751815 0.0012223295400947127 0.998359115425729 -0.003136622967759537
 -7.889004203652573e-05 -0.00040693365344350715 8.125792593059107e-05 0.0006526437368210761 0.998359115425729 -0.003136622967759537 0.0016107997012750463 0.0012223211841011535
0.006252605252188 0.0016405323177552714 0.001532820444231346 0.9983212546044851 -0.003921469115661402 8.80341256270431e-05 0.0008160804687790318 -8.482411185663132e-05 -0.0005091990033491356
 0.9983212546044851 -0.003921469115661402 0.0016405496725260334 0.0015328122080813013 -8.482859274194725e-05 -0.0005092017534478204 8.791872306726224e-05 0.0008161170476373501
 8.80341256270431e-05 0.0008160804687790318 -8.482859274194725e-05 -0.0005092017534478204 0.001640529398251739 0.00153273780552142 0.9983212541322853 -0.003921552947078621
 -8.482411185663132e-05 -0.0005091990033491356 8.791872306726224e-05 0.0008161170476373501 0.9983212541322853 -0.003921552947078621 0.0016405516527796427 0.0015327271884907085
0.01250521050438 0.001796888417526425 0.0030979014399096457 0.9981209387683095 -0.0078437943844428 0.00012638070452649446 0.001632483831698535 -0.00011840311813495932 -0.0010209058585082837
 0.9981209387683095 -0.0078437943844428 0.001796957709119585 0.003097883326354296 -0.00011842077563804099 -0.001020910949835768 0.00012592052060651586 0.0016325715434351489
 0.00012638070452649446 0.001632483831698535 -0.00011842077563804099 -0.001020910949835768 0.0017968772886555984 0.0030977365026223684 0.9981209374159153 -0.007843961778815328
 -0.00011840311813495932 -0.0010209058585082837 0.00012592052060651586 0.0016325715434351489 0.9981209374159153 -0.007843961778815328 0.001796966155909874 0.0030977135196789064
0.01875781575657 0.001966627200275952 0.004685389240707722 0.9979015840265303 -0.011776532490873903 0.0001729396594806106 0.0024497775509212216 -0.0001586521338231243 -0.0015343671458906449
 0.9979015840265303 -0.011776532490873903 0.0019667828901094517 0.004685359527507242 -0.00015869150923956374 -0.0015343740932455376 0.00017190594048802324 0.002449933747711143
 0.0001729396594806106 0.0024497775509212216 -0.00015869150923956374 -0.0015343740932455376 0.0019666026063967367 0.004685142214657857 0.9979015814082391 -0.011776783368679102
 -0.0001586521338231243 -0.0015343671458906449 0.00017190594048802324 0.002449933747711143 0.9979015814082391 -0.011776783368679102 0.0019668023042396397 0.00468510495495834
0.02501042100875 0.002150073486254865 0.006293064097382687 0.9976629370974295 -0.01572159631803219 0.00022779955897284684 0.003268003143738447 -0.00020567014006557066 -0.002049350005764645
 0.9976629370974295 -0.01572159631803219 0.0021503499581835973 0.0062930209915774155 -0.0002057396724422243 -0.0020493582389224043 0.00022596348227378965 0.0032682478721074402
 0.00022779955897284684 0.003268003143738447 -0.0002057396724422243 -0.0020493582389224043 0.0021500301717909368 0.00629273521651373 0.997662932821632 -0.0157219306321934
 -0.00020567014006557066 -0.002049350005764645 0.00022596348227378965 0.0032682478721074402 0.997662932821632 -0.0157219306321934 0.002150384833923322 0.006292681621929024
0.03126302626094 0.0023475386266999954 0.007919786897983562 0.9974047315255202 -0.019679808279300076 0.00029104957160433145 0.004087125174575935 -0.0002595533565404928 -0.002565693096938891
 0.9974047315255202 -0.019679808279300076 0.0023479702057483793 0.007919728538265735 -0.00025966140020203525 -0.002565701959588416 0.0002881820303486034 0.004087481189694634
 0.00029104957160433145 0.004087125174575935 -0.00025966140020203525 -0.002565701959588416 0.002347471339216665 0.007919376440472317 0.9974047251998429 -0.01968022599539139
 -0.0002595533565404928 -0.002565693096938891 0.0002881820303486034 0.004087481189694634 0.9974047251998429 -0.01968022599539139 0.002348025037925245 0.00791930430776152
0.037515631513130004 0.0025593272727070433 0.009564817383319798 0.9971266946518345 -0.023651582043272286 0.000362778545456367 0.004907077887679894 -0.0003203959639585813 -0.003083259958772381
 0.9971266946518345 -0.023651582043272286 0.0025599482376170725 0.009564741841421672 -0.0003205507974932652 -0.0030832687081798022 0.00035865005151538854 0.004907570679794791
 0.000362778545456367 0.004907077887679894 -0.0003205507974932652 -0.0030832687081798022 0.002559230762516674 0.009564325664950203 0.9971266858826453 -0.023652083146644624
 -0.0003203959639585813 -0.003083259958772381 0.00035865005151538854 0.004907570679794791 0.9971266858826453 -0.023652083146644624 0.0025600275229095385 0.009564232646386114
0.043768236765320004 0.0027857399967884523 0.011227606610992058 0.9968285504391066 -0.027637130001279715 0.00044307457803045413 0.005727779405636727 -0.0003882903659865938 -0.0036019248102740387
 0.9968285504391066 -0.027637130001279715 0.0027865845900692477 0.011227511892724754 -0.00038850019754597525 -0.0036019326171724928 0.00043745521548212564 0.005728437230281737
 0.00044307457803045413 0.005727779405636727 -0.00038850019754597525 -0.0036019326171724928 0.002785609017319647 0.011227033993030733 0.9968285388321196 -0.027637714489916886
 -0.0003882903659865938 -0.0036019248102740387 0.00043745521548212564 0.005728437230281737 0.9968285388321196 -0.027637714489916886 0.002786692828597366 0.011226917596446605
0.050020842017509996 0.003027074508165504 0.012907711219483973 0.9965100208942365 -0.03163654893309795 0.0005320247613523016 0.006549137582728295 -0.0004633272852106624 -0.004121566696932798
 0.9965100208942365 -0.03163654893309795 0.003028176945335071 0.0129075952654511 -0.0004636002559813215 -0.00412157264548572 0.0005246841667299275 0.006549991492497654
 0.0005320247613523016 0.006549137582728295 -0.0004636002559813215 -0.00412157264548572 0.0030269038155244154 0.01290705811796412 0.996510006053928 -0.03163721680903395
 -0.0004633272852106624 -0.004121566696932798 0.0005246841667299275 0.006549991492497654 0.996510006053928 -0.03163721680903395 0.003028318640322608 0.012906915706423742
0.055454545454549996 0.0032491493575187236 0.014381539086750534 0.9962164369317901 -0.0351234494884012 0.0006164201468302063 0.0072633788607612835 -0.000534406453108729 -0.004573852275896688
 0.9962164369317901 -0.0351234494884012 0.0032505036409952223 0.014381402955513132 -0.0005347408551340218 -0.004573855798482782 0.0006073963155850696 0.007264430589675502
 0.0006164201468302063 0.0072633788607612835 -0.0005347408551340218 -0.004573855798482782 0.0032489398968993735 0.014380816417176912 0.9962164189596469 -0.035124189841540615
 -0.000534406453108729 -0.004573852275896688 0.0006073963155850696 0.007264430589675502 0.9962164189596469 -0.035124189841540615 0.003250678070884838 0.014380649143488813
0.056273447269699996 0.003283626280441049 0.014604751338410764 0.9961708269068218 -0.0356498620273496 0.000629715003016171 0.007371052879369137 -0.0005455957863359609 -0.004642066619512476
 0.9961708269068218 -0.0356498620273496 0.0032850207579257673 0.014604612024598488 -0.0005459399728277159 -0.004642069707312649 0.0006204223616470842 0.00737213675633973
 0.000629715003016171 0.007371052879369137 -0.0005459399728277159 -0.004642069707312649 0.0032834106343767318 0.014604018215499531 0.9961708084368919 -0.035650613305989926
 -0.0005455957863359609 -0.004642066619512476 0.0006204223616470842 0.00737213675633973 0.9961708084368919 -0.035650613305989926 0.003285200416822402 0.014603847006739508
0.06252605252188 0.003555688888535736 0.016318387447457616 0.9958106888006163 -0.039677041955605 0.000736229884114936 0.008193419945450649 -0.0006351832631131352 -0.0051633059573475675
 0.9958106888006163 -0.039677041955605 0.0035574095917806315 0.01631822258548007 -0.0006356066787505602 -0.005163305095435655 0.000724753937248517 0.008194770533875389
 0.000736229884114936 0.008193419945450649 -0.0006356066787505602 -0.005163305095435655 0.003555423050607292 0.016317574817528484 0.995810666301552 -0.0396778766603872
 -0.0006351832631131352 -0.0051633059573475675 0.000724753937248517 0.008194770533875389 0.995810666301552 -0.0396778766603872 0.0035576317242768914 0.016317371883056684
0.06877865777407 0.003843554187642601 0.018048306577377004 0.9954293267304396 -0.043718024607538854 0.0008516525388405037 0.009016128565118835 -0.0007321754034577568 -0.005685165533910769
 0.9954293267304396 -0.043718024607538854 0.003845635298560444 0.018048113914552414 -0.0007326859996453487 -0.005685159546801976 0.0008377615982460275 0.009017785504173289
 0.0008516525388405037 0.009016128565118835 -0.0007326859996453487 -0.005685159546801976 0.0038432329242475255 0.018047415009377267 0.9954292998017313 -0.043718942768319134
 -0.0007321754034577568 -0.005685165533910769 0.0008377615982460275 0.009017785504173289 0.9954292998017313 -0.043718942768319134 0.0038459044194925286 0.018047177273430595
0.07503126302626001 0.004147512399510934 0.019794213566387563 0.9950264609899557 -0.047772717774560366 0.0009760645469609829 0.009839064257315306 -0.0008366561408639974 -0.006207525030591669
 0.9950264609899557 -0.047772717774560366 0.004149988104149881 0.019793990785632803 -0.0008372618077440309 -0.0062075126563247785 0.0009595265151184258 0.00984107011371106
 0.0009760645469609829 0.009839064257315306 -0.0008372618077440309 -0.0062075126563247785 0.004147130480291916 0.019793243683592462 0.9950264292281251 -0.047773719428526394
 -0.0008366561408639974 -0.006207525030591669 0.0009595265151184258 0.00984107011371106 0.9950264292281251 -0.047773719428526394 0.004150308731296994 0.019792967921825645
0.08128386827845 0.0044678521390353835 0.021555825241762985 0.9946018122635747 -0.051841006912255655 0.0011095458329943237 0.010662108681803633 -0.0009487075981548118 -0.0067302625991004575
 0.9946018122635747 -0.051841006912255655 0.004470756634826364 0.021555569961164544 -0.0009494161650582877 -0.006730242489285146 0.001090128227757716 0.010664508982185683
 0.0011095458329943237 0.010662108681803633 -0.0009494161650582877 -0.006730242489285146 0.004467404338127934 0.021554777721076633 0.994601775262661 -0.051842092105362905
 -0.0009487075981548118 -0.0067302625991004575 0.001090128227757716 0.010664508982185683 0.994601775262661 -0.051842092105362905 0.004471133289864553 0.02155446055898166
0.08753647353064001 0.004804860402121511 0.02333286639367388 0.9941551018432518 -0.05592275911509072 0.0012521745712015034 0.011485139920980904 -0.0010684100243362918 -0.00725325460243031
 0.9941551018432518 -0.05592275911509072 0.004808227905808239 0.023332576165908767 -0.0010692292600957265 -0.007253225322300397 0.0012296445540280437 0.01148798318398783
 0.0012521745712015034 0.011485139920980904 -0.0010692292600957265 -0.007253225322300397 0.004804341499143562 0.023331741966939944 0.9941550591943838 -0.05592392790145655
 -0.0010684100243362918 -0.00725325460243031 0.0012296445540280437 0.01148798318398783 0.9941550591943838 -0.05592392790145655 0.004808665114244831 0.02333137987808078
0.09378907878283 0.00515882252806445 0.025125066898789527 0.9936860518216997 -0.06001782594615012 0.001404027093334183 0.012308032689652845 -0.0011958417278079743 -0.0077763754321728395
 0.9936860518216997 -0.06001782594615012 0.005162687282743844 0.025124739210246688 -0.0011967793408031685 -0.007776335460673145 0.0013781515003538662 0.012311370457694088
 0.001404027093334183 0.012308032689652845 -0.0011967793408031685 -0.007776335460673145 0.0051582273077150275 0.02512386635813815 0.9936860031125243 -0.06001907838339316
 -0.0011958417278079743 -0.0077763754321728395 0.0013781515003538662 0.012311370457694088 0.9936860031125243 -0.06001907838339316 0.005163189573465141 0.025123455662085094
0.100041684035 0.005530022140069091 0.026932159622485595 0.993194385268501 -0.06412604549312045 0.001565177798736299 0.013130658492630669 -0.0013310790060224226 -0.008299497382756834
 0.993194385268501 -0.06412604549312045 0.005534418422651034 0.026931791892200983 -0.001332142644192546 -0.008299445112606305 0.001535723174410839 0.013134545363168
 0.001565177798736299 0.013130658492630669 -0.001332142644192546 -0.008299445112606305 0.005529345393597531 0.02693088381405526 0.993194330083464 -0.06412738164928414
 -0.0013310790060224226 -0.008299497382756834 0.001535723174410839 0.013134545363168 0.993194330083464 -0.06412738164928414 0.005534990328470865 0.026930420674177835
0.1059090909091 0.005894281990261494 0.028641232055090476 0.9927121931862976 -0.06799298136256221 0.0017249217396000179 0.013902245584951754 -0.0014651500692004662 -0.008790277193409185
 0.9927121931862976 -0.06799298136256221 0.005899208267082715 0.028640824341213896 -0.0014663388704273328 -0.008790211843746716 0.0016918960205258018 0.013906700134227384
 0.0017249217396000179 0.013902245584951754 -0.0014663388704273328 -0.008790211843746716 0.0058935240089724415 0.0286398864379195 0.9927121315427653 -0.06799439614735092
 -0.0014651500692004662 -0.008790277193409185 0.0016918960205258018 0.013906700134227384 0.9927121315427653 -0.06799439614735092 0.005899849624584478 0.028639370454239556
0.1062942892872 0.00591874107327538 0.028753878824676046 0.992679826396644 -0.06824724392601578 0.0017356990658672473 0.013952885748260304 -0.0014741960728154094 -0.008822490564303676
 0.992679826396644 -0.06824724392601578 0.005923703202571177 0.02875346840284404 -0.0014753933235689908 -0.00882242430208967 0.001702431698968165 0.013957379404630637
 0.0017356990658672473 0.013952885748260304 -0.0014753933235689908 -0.00882242430208967 0.0059179775988465935 0.028752528653222847 0.992679764316273 -0.06824866387558585
 -0.0014741960728154094 -0.008822490564303676 0.001702431698968165 0.013957379404630637 0.992679764316273 -0.06824866387558585 0.005924349259471693 0.028752009074056346
0.11254689453939999 0.0063252592917316325 0.0305899589587151 0.9921421007198594 -0.07238123666682478 0.001915661165048968 0.014774579891865196 -0.0016252649838440578 -0.00934522284038042
 0.9921421007198594 -0.07238123666682478 0.006330821635525733 0.030589503125182237 -0.0016266033738107427 -0.009345140806667058 0.001878347126475474 0.014779741133652807
 0.001915661165048968 0.014774579891865196 -0.0016266033738107427 -0.009345140806667058 0.006324403895065141 0.03058853539014817 0.9921420313203736 -0.07238274048889715
 -0.0016252649838440578 -0.00934522284038042 0.001878347126475474 0.014779741133652807 0.9921420313203736 -0.07238274048889715 0.00633154638290116 0.030587955214657337
0.11879949979160001 0.006749854795658122 0.032440133727013015 0.9915809352038824 -0.07652782930842862 0.0021051321719866354 0.015595603460545032 -0.0017843555603875062 -0.009867559789385893
 0.9915809352038824 -0.07652782930842862 0.006756051778600024 0.03243962968927389 -0.0017858425551539512 -0.009867460118813391 0.002063537354374791 0.01560149623333855
 0.0021051321719866354 0.015595603460545032 -0.0017858425551539512 -0.009867460118813391 0.0067489022908371514 0.03243863778344189 0.9915808580573771 -0.07652941709220773
 -0.0017843555603875062 -0.009867559789385893 0.002063537354374791 0.01560149623333855 0.9915808580573771 -0.07652941709220773 0.00675685975902305 0.032437992689937405
0.1250521050438 0.007192803523266042 0.03430413533962758 0.9909960584155582 -0.08068681833592833 0.002304177881560346 0.016415816169764074 -0.001951535312193357 -0.010389364679022602
 0.9909960584155582 -0.08068681833592833 0.007199669634666715 0.034303580230648466 -0.0019531783159920115 -0.010389245420464264 0.002258068040749493 0.01642250759435873
 0.002304177881560346 0.016415816169764074 -0.0019531783159920115 -0.010389245420464264 0.007191748733651572 0.03430256810451315 0.990995973089483 -0.08068849017621554
 -0.001951535312193357 -0.010389364679022602 0.002258068040749493 0.01642250759435873 0.990995973089483 -0.08068849017621554 0.007200565393856794 0.034301853603306155
0.131304710296 0.007654379246118005 0.03618169392221021 0.990387200666608 -0.0848579917046442 0.0025128617225104464 0.017235074980465854 -0.002126869359275914 -0.010910498455460561
 0.990387200666608 -0.0848579917046442 0.007661949047580757 0.036181084797904155 -0.002128675714588914 -0.010910357572088417 0.0024620025202326742 0.017242635381440018
 0.0025128617225104464 0.017235074980465854 -0.002128675714588914 -0.010910357572088417 0.007653217005038468 0.036180056540442936 0.9903871067233162 -0.08485974770230024
 -0.002126869359275914 -0.010910498455460561 0.0024620025202326742 0.017242635381440018 0.9903871067233162 -0.08485974770230024 0.007662937134031562 0.03617926797017927
0.1375573155481 0.008028022576858062 0.037827069113931314 0.9898609632822766 -0.08879556142782537 0.0027048764686811648 0.018028438140117977 -0.0022841109015409493 -0.011405994800854486
 0.9898609632822766 -0.08879556142782537 0.00803633421782873 0.03782641889171814 -0.002286091521051288 -0.011405832168595144 0.002649148481229648 0.018036855673177237
 0.0027048764686811648 0.018028438140117977 -0.002286091521051288 -0.011405832168595144 0.00802674831038222 0.03782536261789914 0.9898608603300844 -0.08879740161486906
 -0.0022841109015409493 -0.011405994800854486 0.002649148481229648 0.018036855673177237 0.9898608603300844 -0.08879740161486906 0.008037418503285506 0.03782451127844223
0.1438099208003 0.00841477453785004 0.039463913659152555 0.989316278942651 -0.0927232977874622 0.0029046583838464777 0.018818677103818512 -0.002447650016146818 -0.011898656549415037
 0.989316278942651 -0.0927232977874622 0.008423863240675702 0.03946322043653069 -0.0024498127965786585 -0.011898470167951711 0.0028438479126124505 0.018828016020310298
 0.0029046583838464777 0.018818677103818512 -0.0024498127965786585 -0.011898470167951711 0.008413383199125943 0.03946213921873603 0.9893161665466131 -0.09272522225682436
 -0.002447650016146818 -0.011898656549415037 0.0028438479126124505 0.018828016020310298 0.9893161665466131 -0.09272522225682436 0.008425048155101816 0.039461221451962104
0.1500625260525 0.008814500908613755 0.04109209508854604 0.9887532858289746 -0.09664110768411638 0.0031121402828273802 0.019605713733872352 -0.0026174218932026533 -0.012388410586913414
 0.9887532858289746 -0.09664110768411638 0.008824401989085507 0.04109135683778721 -0.002619774715117793 -0.01238819837553096 0.0030460348710221728 0.019616040626975285
 0.0031121402828273802 0.019605713733872352 -0.002619774715117793 -0.01238819837553096 0.008812987467151239 0.04109025392007989 0.9887531635505561 -0.09664311653230144
 -0.0026174218932026533 -0.012388410586913414 0.0030460348710221728 0.019616040626975285 0.9887531635505561 -0.09664311653230144 0.008825691957587376 0.04108926587201365
0.15631513130469998 0.00922706653852018 0.04271148495624295 0.988172122801292 -0.10054889825900208 0.003327254197511896 0.020389471180286785 -0.0027933609358204953 -0.012875185329628627
 0.988172122801292 -0.10054889825900208 0.009237815408638333 0.04271069952044979 -0.0027959116632979056 -0.012874945127598209 0.0032556426488857234 0.020400854960716572
