! Created with skrf 1.8.0 (http://scikit-rf.org).
# GHz S RI R 50.0 
!freq ReS11 ImS11 ReS12 ImS12 ReS13 ImS13
! ReS14 ImS14
! ReS21 ImS21 ReS22 ImS22 ReS23 ImS23
! ReS24 ImS24
! ReS31 ImS31 ReS32 ImS32 ReS33 ImS33
! ReS34 ImS34
! ReS41 ImS41 ReS42 ImS42 ReS43 ImS43
! ReS44 ImS44
!
0.0 0.001534875278342 0.0 0.9984651247039 0.0 5.889600911496e-05 0.0 -5.889600917061e-05 7.21268091133407e-21
 0.9984651247039 0.0 0.001534875278379 0.0 -5.889600917117e-05 7.21268091140265e-21 5.889600911578e-05 0.0
 5.889600911496e-05 0.0 -5.889600917117e-05 7.21268091140265e-21 0.001534875287231 0.0 0.9984651247128 0.0
 -5.889600917061e-05 7.21268091133407e-21 5.889600911578e-05 0.0 0.9984651247128 0.0 0.001534875287239 0.0
0.005 0.0016513028104499753 0.001261119064883428 0.9983178517673237 -0.003214909581024543 8.166937113475579e-05 0.000615978563585313 -7.951050078945151e-05 -0.0003924024828117215
 0.9983178517673237 -0.003214909581024543 0.0016513222580445306 0.0012611076933411402 -7.950758643325833e-05 -0.0003924002296650906 8.156771361979704e-05 0.000616017392476956
 8.166937113475579e-05 0.000615978563585313 -7.950758643325833e-05 -0.0003924002296650906 0.0016513047506663625 0.0012611851612820363 0.9983178521215793 -0.003214842520391476
 -7.951050078945151e-05 -0.0003924024828117215 8.156771361979704e-05 0.000616017392476956 0.9983178521215793 -0.003214842520391476 0.001651321021752948 0.00126117571483822
0.006252605252188 0.0016818262752207045 0.001581335758575102 0.998279001210232 -0.004019422192045539 8.81676127497719e-05 0.0007702874934567607 -8.53182410970191e-05 -0.0004910033179996566
 0.998279001210232 -0.004019422192045539 0.001681856675177622 0.0015813212904080966 -8.531370622562728e-05 -0.0004910005395974077 8.800878362229977e-05 0.0007703378891686001
 8.81676127497719e-05 0.0007702874934567607 -8.531370622562728e-05 -0.0004910005395974077 0.0016818292364415796 0.0015814183652942692 0.9982790016920109 -0.004019338373940918
 -8.53182410970191e-05 -0.0004910033179996566 8.800878362229977e-05 0.0007703378891686001 0.9982790016920109 -0.004019338373940918 0.001681854670075134 0.0015814063121794002
0.01250521050438 0.001842438977135136 0.0031956095788992418 0.9980732378637068 -0.008039625827139492 0.00012539126976130203 0.0015410331708198167 -0.00011820327825335744 -0.0009843609412127302
 0.9980732378637068 -0.008039625827139492 0.001842560363407129 0.003195578051128691 -0.00011818540781912228 -0.0009843558014033154 0.0001247579364621532 0.0015411540358809073
 0.00012539126976130203 0.0015410331708198167 -0.00011818540781912228 -0.0009843558014033154 0.0018424502495145143 0.003195774468046936 0.9980732392320182 -0.008039458427974606
 -0.00011820327825335744 -0.0009843609412127302 0.0001247579364621532 0.0015411540358809073 0.9980732392320182 -0.008039458427974606 0.0018425517941494131 0.003195747886241729
0.01875781575657 0.00201706254370511 0.004832728082395244 0.9978475799478137 -0.012070390733464519 0.00017065321119717216 0.0023127144269046093 -0.00015765095548773026 -0.0014794087607412174
 0.9978475799478137 -0.012070390733464519 0.0020173353037085244 0.004832676644228077 -0.00015761110518705822 -0.0014794017569968864 0.0001692305921429911 0.0023129297819952954
 0.00017065321119717216 0.0023127144269046093 -0.00015761110518705822 -0.0014794017569968864 0.002017087464329888 0.004832975009058292 0.9978475826078992 -0.012070139837537021
 -0.00015765095548773026 -0.0014794087607412174 0.0001692305921429911 0.0023129297819952954 0.9978475826078992 -0.012070139837537021 0.00201731561843757 0.004832931251212127
0.02501042100875 0.0022060358744753414 0.006490413631563903 0.9976017626777808 -0.01611367058247253 0.0002240409953653661 0.003085353177048637 -0.0002037581227836608 -0.0019759327566362256
 0.9976017626777808 -0.01611367058247253 0.002206520272880498 0.006490339191820402 -0.0002036877520140469 -0.0019759244756739113 0.0002215142460477362 0.0030856908453261306
 0.0002240409953653661 0.003085353177048637 -0.0002036877520140469 -0.0019759244756739113 0.002206079769028258 0.006490742321242882 0.9976017670302465 -0.016113336232428194
 -0.0002037581227836608 -0.0019759327566362256 0.0002215142460477362 0.0030856908453261306 0.9976017670302465 -0.016113336232428194 0.0022064849150437884 0.006490678582491173
0.03126302626094 0.002409683873955377 0.008167494823294093 0.9973355076834552 -0.020170302371282353 0.00028564261431804247 0.0038589043844268218 -0.00025661904246262107 -0.0024737804072402537
 0.9973355076834552 -0.020170302371282353 0.0024104400832172562 0.008167394052909371 -0.0002565096966748103 -0.0024737715260749224 0.00028169653153902694 0.0038593960113094718
 0.00028564261431804247 0.0038589043844268218 -0.0002565096966748103 -0.0024737715260749224 0.0024097520642232706 0.008167904958880602 0.9973355141312329 -0.020169884580777526
 -0.00025661904246262107 -0.0024737804072402537 0.00028169653153902694 0.0038593960113094718 0.9973355141312329 -0.020169884580777526 0.002410384494977268 0.00816781827969116
0.037515631513130004 0.002628324454367289 0.009863208402228976 0.9970485302261297 -0.024240704447293985 0.000355545641597113 0.004633296410393724 -0.00031632600876240185 -0.0029728203333373856
 0.9970485302261297 -0.024240704447293985 0.0026294125736924154 0.009863077735023044 -0.00031616931042899126 -0.0029728116196031116 0.00034986453112970583 0.004633977500326792
 0.000355545641597113 0.004633296410393724 -0.00031616931042899126 -0.0029728116196031116 0.0026284222591314776 0.009863699610541336 0.9970485391747662 -0.024240203213853943
 -0.00031632600876240185 -0.0029728203333373856 0.00034986453112970583 0.004633977500326792 0.9970485391747662 -0.024240203213853943 0.0026293321951926644 0.009863586878186347
0.043768236765320004 0.002862271242053991 0.011576986818976065 0.9967405421217328 -0.02832508887851655 0.0004338368276142783 0.005408443288655643 -0.00038296956778581883 -0.003472930022661349
 0.9967405421217328 -0.02832508887851655 0.002863751312206188 0.011576822451488855 -0.0003827572111191877 -0.0034729223347015315 0.0004261044413299758 0.005409353247163146
 0.0004338368276142783 0.005408443288655643 -0.0003827572111191877 -0.0034729223347015315 0.0028624039755327534 0.011577558669886297 0.9967405539779317 -0.028324504183693016
 -0.00038296956778581883 -0.003472930022661349 0.0004261044413299758 0.005409353247163146 0.9967405539779317 -0.028324504183693016 0.002863641578685551 0.011577416619388731
0.050020842017509996 0.003111834829988725 0.013308370426046465 0.9964112532152042 -0.03242354918386435 0.0005206018561154716 0.006184249792932202 -0.0004566385915793588 -0.003973990763930962
 0.9964112532152042 -0.03242354918386435 0.0031137668453469778 0.013308168317060266 -0.000456362339105106 -0.003973985050834653 0.0005105013664988272 0.00618543197077972
 0.0005206018561154716 0.006184249792932202 -0.000456362339105106 -0.003973985050834653 0.0031120078024830192 0.013309022429638388 0.9964112683884794 -0.032422880995312424
 -0.0004566385915793588 -0.003973990763930962 0.0005105013664988272 0.00618543197077972 0.9964112683884794 -0.032422880995312424 0.0031136231875502365 0.013308847644301193
0.055454545454549996 0.003341635325148437 0.014826985015983446 0.9961075661365414 -0.035996682092831196 0.0006029507071282363 0.006858905776012611 -0.0005264325152581735 -0.004410108921390611
 0.9961075661365414 -0.035996682092831196 0.0033440087892267416 0.014826746641218485 -0.0005260940968827856 -0.004410105765751337 0.0005905345084091408 0.006860362824872013
 0.0006029507071282363 0.006858905776012611 -0.0005260940968827856 -0.004410105765751337 0.0033418475754691678 0.014827706227788699 0.9961075845268995 -0.035995941310678806
 -0.0005264325152581735 -0.004410108921390611 0.0005905345084091408 0.006860362824872013 0.9961075845268995 -0.035995941310678806 0.0033438319353350275 0.01482750010246704
0.056273447269699996 0.003377323425729188 0.015056964390013293 0.9960603722537668 -0.036536103348413666 0.0006159251696997242 0.006960613925094535 -0.0005374202893464789 -0.004475885163708944
 0.9960603722537668 -0.036536103348413666 0.0033797673448607104 0.015056720259655924 -0.0005370719696174463 -0.004475882465290926 0.0006031391663858029 0.006962115663425931
 0.0006159251696997242 0.006960613925094535 -0.0005370719696174463 -0.004475882465290926 0.0033775419425862473 0.01505769599540964 0.996060391155901 -0.03653535162032643
 -0.0005374202893464789 -0.004475885163708944 0.0006031391663858029 0.006962115663425931 0.996060391155901 -0.03653535162032643 0.003379585188137789 0.015057484907060551
0.06252605252188 0.003659043195478535 0.01682241499624903 0.9956876074609864 -0.040662717448493306 0.0007198898306283355 0.00773742828533685 -0.000625400185312671 -0.0049784957848800614
 0.9956876074609864 -0.040662717448493306 0.0036620589512263934 0.016822124324686046 -0.0006249716914274079 -0.004978497231648142 0.0007041003318492007 0.0077393009611647435
 0.0007198898306283355 0.00773742828533685 -0.0006249716914274079 -0.004978497231648142 0.003659312557917425 0.01682322558527159 0.9956876305075647 -0.04066188212717352
 -0.000625400185312671 -0.0049784957848800614 0.0007041003318492007 0.0077393009611647435 0.9956876305075647 -0.04066188212717352 0.0036618337159947923 0.016822974474214124
0.06877865777407 0.00395729844713716 0.018604395517497915 0.9952926669529691 -0.044803319716488 0.0008325774016521071 0.00851458088897144 -0.0007206620772421611 -0.005481704342456837
 0.9952926669529691 -0.044803319716488 0.003960945956103375 0.01860405354340788 -0.0007201453657762402 -0.00548171115556075 0.0008134658761630804 0.008516879960665077
 0.0008325774016521071 0.00851458088897144 -0.0007201453657762402 -0.00548171115556075 0.003957623950641564 0.01860528441262959 0.9952926945628353 -0.04480240073158205
 -0.0007206620772421611 -0.005481704342456837 0.0008134658761630804 0.008516879960665077 0.9952926945628353 -0.04480240073158205 0.0039606730568528155 0.018604989407267576
0.07503126302626001 0.004272391714119318 0.020402597269274264 0.9948752590601232 -0.04895780942276559 0.0009540678379772835 0.009291955689961958 -0.0008232879835066317 -0.005985391196763491
 0.9948752590601232 -0.04895780942276559 0.004276730885622779 0.020402198987974907 -0.000822675073845148 -0.00598540468794441 0.0009313152348604878 0.009294740742563992
 0.0009540678379772835 0.009291955689961958 -0.000822675073845148 -0.00598540468794441 0.0042727786483377685 0.020403563725139125 0.9948752916566016 -0.04895680669512623
 -0.0008232879835066317 -0.005985391196763491 0.0009313152348604878 0.009294740742563992 0.9948752916566016 -0.04895680669512623 0.004276405731220281 0.020403220801345046
0.08128386827845 0.004604623780540309 0.02221672364406762 0.9944350925933597 -0.053126062783438545 0.001084439386363543 0.01006943293481269 -0.0009333580825524162 -0.006489435020625099
 0.9944350925933597 -0.053126062783438545 0.004609714525660414 0.02221626380533167 -0.0009326410565156892 -0.006489456592135662 0.0010577261706710018 0.010072767725019291
 0.001084439386363543 0.01006943293481269 -0.0009326410565156892 -0.006489456592135662 0.004605077428099352 0.02221776685109725 0.9944351306034669 -0.05312497622064979
 -0.0009333580825524162 -0.006489435020625099 0.0010577261706710018 0.010072767725019291 0.9944351306034669 -0.05312497622064979 0.0046093325183041165 0.022217371831191424
0.08753647353064001 0.004954293664306994 0.024046485990894893 0.9939718770718406 -0.05730793702741714 0.0012237684889615475 0.010846889408292874 -0.0010509506466570117 -0.006993712579183847
 0.9939718770718406 -0.05730793702741714 0.004960195904215658 0.024045959096515756 -0.0010501216482387173 -0.006993743723719655 0.0011927746825124317 0.010850841909003494
 0.0012237684889615475 0.010846889408292874 -0.0010501216482387173 -0.006993743723719655 0.004954819300643002 0.02404760507204564 0.9939719209282836 -0.05730676652645931
 -0.0010509506466570117 -0.006993712579183847 0.0011927746825124317 0.010850841909003494 0.9939719209282836 -0.05730676652645931 0.004959752440434689 0.024047153623596777
0.09378907878283 0.0053216985729486795 0.02589160067898621 0.993485322928201 -0.061503273284772404 0.0013721296900952367 0.011624198618253343 -0.001176141971886692 -0.007498098575302697
 0.993485322928201 -0.061503273284772404 0.005328472248158152 0.02589100097985063 -0.0011751932072880096 -0.007498140875896227 0.0013365349163461861 0.011628841062562801
 0.0013721296900952367 0.011624198618253343 -0.0011751932072880096 -0.007498140875896227 0.005322301465460431 0.02589279468817255 0.9934853730685331 -0.06150201873279424
 -0.001176141971886692 -0.007498098575302697 0.0013365349163461861 0.011628841062562801 0.9934853730685331 -0.06150201873279424 0.005327962717933559 0.025892282322328854
0.100041684035 0.005707133839633853 0.02775178693103507 0.9929751416952767 -0.06571189871053044 0.0015295955449650895 0.0124012309359393 -0.0013090063054095609 -0.008002465544229523
 0.9929751416952767 -0.06571189871053044 0.00571483891802818 0.02775110842405697 -0.0013079300430568308 -0.008002520674163925 0.0014890790773933863 0.012406639860483053
 0.0015295955449650895 0.0124012309359393 -0.0013079300430568308 -0.008002520674163925 0.005707819246522179 0.02775305485552081 0.9929751985630871 -0.06571055998189011
 -0.0013090063054095609 -0.008002465544229523 0.0014890790773933863 0.012406639860483053 0.9929751985630871 -0.06571055998189011 0.005714258704983581 0.02775247692511367
0.1059090909091 0.006085483735507927 0.029510832835203216 0.9924746462985704 -0.06967316878697737 0.0016857039379846114 0.013130023393723496 -0.0014407281820186344 -0.008475627635806943
 0.9924746462985704 -0.06967316878697737 0.006094117409430566 0.0295100746863596 -0.0014395253004061363 -0.008475696406833398 0.0016402770190405483 0.013136225058968729
 0.0016857039379846114 0.013130023393723496 -0.0014395253004061363 -0.008475696406833398 0.006086251346889926 0.02951216913755493 0.9924747098881195 -0.06967175094455338
 -0.0014407281820186344 -0.008475627635806943 0.0016402770190405483 0.013136225058968729 0.9924747098881195 -0.06967175094455338 0.006093466663583885 0.029511525312176497
0.1062942892872 0.0061108928432886045 0.029626765212084127 0.9924410461822907 -0.06993362805879401 0.00169623652999235 0.013177853707238086 -0.0014496157702193712 -0.008506683782184948
 0.9924410461822907 -0.06993362805879401 0.006119589329084627 0.029626001636700542 -0.0014484043409957203 -0.008506753504867088 0.0016504773435939604 0.0131841099948947
 0.00169623652999235 0.013177853707238086 -0.0014484043409957203 -0.008506753504867088 0.006111666012990086 0.029628105968775107 0.9924411102273369 -0.06993220501807246
 -0.0014496157702193712 -0.008506683782184948 0.0016504773435939604 0.0131841099948947 0.9924411102273369 -0.06993220501807246 0.006118933810322914 0.02962745766603153
0.11254689453939999 0.006533266918496526 0.03151625598662079 0.9918827506430183 -0.07416826489427011 0.0018721209540181276 0.013953931346111214 -0.0015980402884026395 -0.009010621297784379
 0.9918827506430183 -0.07416826489427011 0.006543014860495131 0.03151540082090297 -0.0015966860859229245 -0.009010707466620454 0.0018207977795103502 0.013961120267978373
 0.0018721209540181276 0.013953931346111214 -0.0015966860859229245 -0.009010707466620454 0.006534133088568161 0.031517668423157987 0.9918828223214458 -0.07416675739459304
 -0.0015980402884026395 -0.009010621297784379 0.0018207977795103502 0.013961120267978373 0.9918828223214458 -0.07416675739459304 0.0065422794063273865 0.03151694477707837
0.11879949979160001 0.006974545255394797 0.03341997875755044 0.9912999709369812 -0.07841560252795456 0.0020573148702037114 0.014729325413710656 -0.0017543475029156142 -0.009514143782935332
 0.9912999709369812 -0.07841560252795456 0.006985404755787169 0.03341902521405691 -0.001752842983879051 -0.009514248341189375 0.002000106250968101 0.014737536670183187
 0.0020573148702037114 0.014729325413710656 -0.001752842983879051 -0.009514248341189375 0.006975509651841197 0.0334214616495786 0.9913000507123801 -0.07841401041314448
 -0.0017543475029156142 -0.009514143782935332 0.002000106250968101 0.014737536670183187 0.9913000507123801 -0.07841401041314448 0.006984584730155694 0.033420657522895254
0.1250521050438 0.0074350147930999705 0.03533765130447504 0.9906924246873315 -0.08267542475975441 0.002251881988722669 0.015503894689986305 -0.0019186026984276885 -0.010017114596324867
 0.9906924246873315 -0.08267542475975441 0.007447046015873905 0.03533659232565721 -0.0019169403830014253 -0.010017239576969636 0.0021884663397152408 0.015513222451098754
 0.002251881988722669 0.015503894689986305 -0.0019169403830014253 -0.010017239576969636 0.007436082629232959 0.03533920335910144 0.990692513030763 -0.0826737478603082
 -0.0019186026984276885 -0.010017114596324867 0.0021884663397152408 0.015513222451098754 0.990692513030763 -0.0826737478603082 0.007446136775967568 0.03533831344495207
0.131304710296 0.007914960107353807 0.03726898908493771 0.9900598314358037 -0.08694750646453346 0.0024558835896187604 0.016277495236892113 -0.0020908687212466653 -0.010519394760777925
 0.9900598314358037 -0.08694750646453346 0.007928223286831324 0.037267817338179944 -0.0020890411935688756 -0.010519542286313828 0.0023859392586878477 0.016288038181636277
 0.0024558835896187604 0.016277495236892113 -0.0020890411935688756 -0.010519542286313828 0.007916136582884545 0.03727060893536642 0.9900599288263411 -0.0869457446024192
 -0.0020908687212466653 -0.010519394760777925 0.0023859392586878477 0.016288038181636277 0.9900599288263411 -0.0869457446024192 0.007927220183146415 0.03726962775350405
0.1375573155481 0.008304317879569215 0.0389634313128085 0.9895122994976406 -0.09098123778252577 0.0026437700046442027 0.017025427157042246 -0.002245679833030544 -0.010996244505121785
 0.9895122994976406 -0.09098123778252577 0.008318876837316235 0.03896216313056602 -0.002243676061583288 -0.010996414761940914 0.0025671314040967863 0.017037170550011176
 0.0026437700046442027 0.017025427157042246 -0.002243676061583288 -0.010996414761940914 0.008305607606324768 0.03896511773171714 0.9895124063495278 -0.09097939087418093
 -0.002245679833030544 -0.010996244505121785 0.0025671314040967863 0.017037170550011176 0.9895124063495278 -0.09097939087418093 0.008317775922541687 0.03896406334939998
0.1438099208003 0.008707385994757403 0.040649029311592956 0.9889455023283391 -0.09500479030753248 0.0028392406185757868 0.017770243105649505 -0.00240666974798091 -0.01147026221172101
 0.9889455023283391 -0.09500479030753248 0.008723301588154247 0.040647658842180745 -0.002404481757785408 -0.011470457290247187 0.0027556142054612777 0.017783277322941708
 0.0028392406185757868 0.017770243105649505 -0.002404481757785408 -0.011470457290247187 0.008708794048198455 0.040650780896392145 0.9889456191185869 -0.09500285818214127
 -0.00240666974798091 -0.01147026221172101 0.0027556142054612777 0.017783277322941708 0.9889456191185869 -0.09500285818214127 0.008722098330169653 0.04064964936063279
0.1500625260525 0.009124023268826659 0.04232564378954597 0.988359585120588 -0.09901806513347032 0.00304222788309362 0.018511864627773225 -0.0025737734510820655 -0.011941375056051551
 0.988359585120588 -0.09901806513347032 0.009141356440020528 0.04232416487718463 -0.002571393285050018 -0.011941597130727196 0.0029513218566641773 0.01852628334812028
 0.00304222788309362 0.018511864627773225 -0.002571393285050018 -0.011941597130727196 0.009125554704743272 0.04232745908090846 0.9883597123327275 -0.09901604761451423
 -0.0025737734510820655 -0.011941375056051551 0.0029513218566641773 0.01852628334812028 0.9883597123327275 -0.09901604761451423 0.009140046308130291 0.042326246211648724
0.15631513130469998 0.009554087530257662 0.043993139661305 0.9877546937876689 -0.10302096368355096 0.0032526634493644795 0.019250214602265843 -0.002746925130439838 -0.012409511749099718
