! Created with skrf 1.8.0 (http://scikit-rf.org).
# GHz S RI R 50.0 
!freq ReS11 ImS11 ReS12 ImS12 ReS13 ImS13
! ReS14 ImS14
! ReS21 ImS21 ReS22 ImS22 ReS23 ImS23
! ReS24 ImS24
! ReS31 ImS31 ReS32 ImS32 ReS33 ImS33
! ReS34 ImS34
! ReS41 ImS41 ReS42 ImS42 ReS43 ImS43
! ReS44 ImS44
!
0.0 0.001445196180129 0.0 0.9985548038197 0.0 5.580709307593e-05 0.0 -5.580709423103e-05 6.834397931974561e-21
 0.9985548038197 0.0 0.001445196180122 0.0 -5.580709423028e-05 6.834397931882713e-21 5.580709307606e-05 0.0
 5.580709307593e-05 0.0 -5.580709423028e-05 6.834397931882713e-21 0.001445196175849 0.0 0.9985548038155 0.0
 -5.580709423103e-05 6.834397931974561e-21 5.580709307606e-05 0.0 0.9985548038155 0.0 0.001445196175881 0.0
0.005 0.0015546888358293667 0.0011782884208412973 0.998416306612478 -0.0030278280058334893 7.871233075374513e-05 0.0006404580208489884 -7.627803577946667e-05 -0.0003975959296873332
 0.998416306612478 -0.0030278280058334893 0.001554703069846692 0.0011782801301633758 -7.628167318185435e-05 -0.0003975987286730097 7.86048183806918e-05 0.0006404987848131789
 7.871233075374513e-05 0.0006404580208489884 -7.628167318185435e-05 -0.0003975987286730097 0.0015546866071753508 0.001178222491388076 0.9984163062645044 -0.003027895066663894
 -7.627803577946667e-05 -0.0003975959296873332 7.86048183806918e-05 0.0006404987848131789 0.9984163062645044 -0.003027895066663894 0.0015547046091604019 0.0011782119437987154
0.006252605252188 0.0015833257758807965 0.0014775262238512906 0.9983798642472416 -0.0037855397212811447 8.522320460464878e-05 0.000800875276267689 -8.202362949843868e-05 -0.0004975195441882708
 0.9983798642472416 -0.0037855397212811447 0.0015833480264499625 0.0014775157132593058 -8.202928959452465e-05 -0.0004975229958759093 8.505522369566727e-05 0.0008009282175564545
 8.522320460464878e-05 0.000800875276267689 -8.202928959452465e-05 -0.0004975229958759093 0.0015833223585878255 0.0014774438099351645 0.998379863770064 -0.0037856235555002327
 -8.202362949843868e-05 -0.0004975195441882708 8.505522369566727e-05 0.0008009282175564545 0.998379863770064 -0.0037856235555002327 0.001583350499932932 0.0014774304717633893
0.01250521050438 0.0017336132684632926 0.0029862756271204116 0.9981873890988276 -0.007571984874959561 0.00012238619746796005 0.0016020558643135567 -0.00011444039641140944 -0.0009975268421006129
 0.9981873890988276 -0.007571984874959561 0.0017337021157986135 0.0029862531516774414 -0.00011446270274391429 -0.0009975332321608787 0.0001217162487796809 0.0016021830697816597
 0.00012238619746796005 0.0016020558643135567 -0.00011446270274391429 -0.0009975332321608787 0.001733600194222829 0.0029861111559388418 0.9981873877669125 -0.007572152281205539
 -0.00011444039641140944 -0.0009975268421006129 0.0001217162487796809 0.0016021830697816597 0.9981873877669125 -0.007572152281205539 0.0017337125730667294 0.0029860829317702895
0.01875781575657 0.0018963714254161632 0.004516742217228585 0.9979771502484123 -0.011368572152215935 0.00016737856053738144 0.0024041157465640264 -0.0001531545403996265 -0.0014992773639761698
 0.9979771502484123 -0.011368572152215935 0.001896571069441848 0.004516706280828239 -0.00015320428552389543 -0.0014992860859494377 0.00016587340570530404 0.002404342477209345
 0.00016737856053738144 0.0024041157465640264 -0.00015320428552389543 -0.0014992860859494377 0.001896342468193426 0.004516495930014573 0.9979771476790597 -0.011368823077096227
 -0.0001531545403996265 -0.0014992773639761698 0.00016587340570530404 0.002404342477209345 0.9979771476790597 -0.011368823077096227 0.0018965950065962056 0.004516451139126647
0.02501042100875 0.0020719045961550674 0.006066791534421439 0.9977489110215377 -0.01517715783990247 0.00022028445889760864 0.0032071041738576133 -0.00019826017035036125 -0.002002546406107098
 0.9977489110215377 -0.01517715783990247 0.0020722591492363164 0.006066740616911714 -0.0001983480188389781 -0.002002556749439612 0.00021761061432899232 0.003207459490587433
 0.00022028445889760864 0.0032071041738576133 -0.0001983480188389781 -0.002002556749439612 0.0020718535350505406 0.0060664637354970715 0.9977489068259193 -0.015177492257865974
 -0.00019826017035036125 -0.002002546406107098 0.00021761061432899232 0.003207459490587433 0.9977489068259193 -0.015177492257865974 0.0020723020561663596 0.00606640058737768
0.03126302626094 0.002260504458524156 0.007635332918283506 0.9975024221239267 -0.01899854552814449 0.0002811888032153348 0.004010993799363917 -0.00024984884072705817 -0.0025071808806653617
 0.9975024221239267 -0.01899854552814449 0.0022610579712818686 0.00763526547997804 -0.00024998535120555117 -0.0025071920293130955 0.0002770122302631498 0.0040115105864641926
 0.0002811888032153348 0.004010993799363917 -0.00024998535120555117 -0.0025071920293130955 0.002260425085832615 0.007634923971366484 0.997502415916756 -0.018998963445446982
 -0.00024984884072705817 -0.0025071808806653617 0.0002770122302631498 0.0040115105864641926 0.997502415916756 -0.018998963445446982 0.0022611253451771396 0.007634840570176048
0.037515631513130004 0.0024624564698009607 0.009221661103467022 0.9972374282682576 -0.02283314445727192 0.00035017634378808806 0.004815727226546413 -0.0003080102518498548 -0.003013052756679138
 0.9972374282682576 -0.02283314445727192 0.0024632529493207192 0.009221575588144692 -0.00030820588832973847 -0.00301306378866761 0.0003441623074123252 0.0048164422316770705
 0.00035017634378808806 0.004815727226546413 -0.00030820588832973847 -0.00301306378866761 0.002462342583979862 0.009221171433139901 0.9972374196605969 -0.0228336459111663
 -0.0003080102518498548 -0.003013052756679138 0.0003441623074123252 0.0048164422316770705 0.9972374196605969 -0.0228336459111663 0.0024633502899615127 0.009221065779881077
0.043768236765320004 0.0026780423554124124 0.01082525587781323 0.996953670840676 -0.026681169794054712 0.0004273312461864984 0.0056212311751515365 -0.00037283251228084846 -0.003520044887396734
 0.996953670840676 -0.026681169794054712 0.002679125780070971 0.010825150715038659 -0.00037309765084031385 -0.0035200547746475183 0.00041914424606229086 0.0056221850544622065
 0.0004273312461864984 0.0056212311751515365 -0.00037309765084031385 -0.0035200547746475183 0.002677887760920845 0.010824685985540284 0.9969536594400844 -0.026681754837601816
 -0.00037283251228084846 -0.003520044887396734 0.00041914424606229086 0.0056221850544622065 0.9969536594400844 -0.026681754837601816 0.002679258591439477 0.010824555979259952
0.050020842017509996 0.0029075412711309563 0.012445699280987592 0.9966508892451701 -0.03054272536544431 0.0005127368439041859 0.006427422323303492 -0.0004444022387864463 -0.004028045164127015
 0.9966508892451701 -0.03054272536544431 0.002908955603242142 0.012445572888031312 -0.00044474717188366236 -0.004028052772392026 0.0005020405832428157 0.006428659688669478
 0.0005127368439041859 0.006427422323303492 -0.00044474717188366236 -0.004028052772392026 0.0029073397790854542 0.012445049739587577 0.9966508746551044 -0.030543394073896415
 -0.0004444022387864463 -0.004028045164127015 0.0005020405832428157 0.006428659688669478 0.9966508746551044 -0.030543394073896415 0.0029091293951887054 0.012444893178004096
0.055454545454549996 0.003118497187347895 0.01386731898489824 0.9963721096133477 -0.03390954938105313 0.0005937214396852321 0.007128514813811397 -0.0005121444379913409 -0.0044702461287541495
 0.9963721096133477 -0.03390954938105313 0.0031202347880004717 0.013867172848421034 -0.0005125670109884945 -0.004470250752886911 0.000580570816852415 0.007130037875925079
 0.0005937214396852321 0.007128514813811397 -0.0005125670109884945 -0.004470250752886911 0.003118249919461755 0.013866600755244146 0.9963720919263279 -0.03391029086721127
 -0.0005121444379913409 -0.0044702461287541495 0.000580570816852415 0.007130037875925079 0.9963720919263279 -0.03391029086721127 0.00312044867312291 0.013866419249212282
0.056273447269699996 0.0031512304053935504 0.014082634956237636 0.9963288216903281 -0.03441784423985681 0.0006064754683568388 0.007234210173278314 -0.000522804583905906 -0.004536943649114943
 0.9963288216903281 -0.03441784423985681 0.0031530196039294195 0.014082485739508018 -0.0005232395233256051 -0.0045369477379544505 0.0005929328461121417 0.007235779640514167
 0.0006064754683568388 0.007234210173278314 -0.0005232395233256051 -0.0045369477379544505 0.0031509758343455595 0.01408190641777205 0.9963288035102933 -0.03441859670364391
 -0.000522804583905906 -0.004536943649114943 0.0005929328461121417 0.007235779640514167 0.9963288035102933 -0.03441859670364391 0.0031532398931510205 0.014081720997446687
0.06252605252188 0.00340938530524773 0.01573574581937066 0.9959872057044615 -0.03830651099290326 0.0007086283147621784 0.008041498632628898 -0.0006081232299467338 -0.00504663099606457
 0.9959872057044615 -0.03830651099290326 0.0034115933374715187 0.01573557217559285 -0.0006086583087710388 -0.005046630218843112 0.0006919014328784336 0.008043452870076805
 0.0007086283147621784 0.008041498632628898 -0.0006086583087710388 -0.005046630218843112 0.0034090714809066505 0.01573493901203828 0.995987183528682 -0.038307347321589656
 -0.0006081232299467338 -0.00504663099606457 0.0006919014328784336 0.008043452870076805 0.995987183528682 -0.038307347321589656 0.0034118656477362353 0.01573472232821849
0.06877865777407 0.003682280052920357 0.01740474072731931 0.9956257785031641 -0.04220867497625104 0.000819275330205272 0.00884918695320089 -0.0007004403611031715 -0.005556997515914784
 0.9956257785031641 -0.04220867497625104 0.003684950905884433 0.017404541044350238 -0.000701085635091376 -0.005556990419836409 0.0007990255116277433 0.008851582730441648
 0.000819275330205272 0.00884918695320089 -0.000701085635091376 -0.005556990419836409 0.003681900809332061 0.01740385645132914 0.9956257519204365 -0.042209595303508866
 -0.0007004403611031715 -0.005556997515914784 0.0007990255116277433 0.008851582730441648 0.9956257519204365 -0.042209595303508866 0.0036852807693285774 0.017403605997399624
0.07503126302626001 0.003970187354830499 0.019089346031772998 0.9952442772734635 -0.0461242587044487 0.0009384951142344568 0.009657170325829014 -0.0007998366228563723 -0.006067932590367558
 0.9952442772734635 -0.0461242587044487 0.003973365046835117 0.01908911868915368 -0.0008006020713819778 -0.006067917616501027 0.0009143829288073675 0.009660068562288175
 0.0009384951142344568 0.009657170325829014 -0.0008006020713819778 -0.006067917616501027 0.0039697365342305545 0.019088385172729747 0.995244245866023 -0.046125263175524
 -0.0007998366228563723 -0.006067932590367558 0.0009143829288073675 0.009660068562288175 0.995244245866023 -0.046125263175524 0.003973758003647139 0.019088098339318918
0.08128386827845 0.004273378573436605 0.020789299960691298 0.994842439404207 -0.05005316341731176 0.0010663648268858974 0.010465340285640366 -0.00090639107318706 -0.006579324278328454
 0.994842439404207 -0.05005316341731176 0.004277107165296925 0.02078904332982442 -0.0009072865998266122 -0.006579299761662342 0.0010380501236082603 0.010468806098928392
 0.0010663648268858974 0.010465340285640366 -0.0009072865998266122 -0.006579299761662342 0.004272850027968691 0.02078826348275292 0.9948424027478232 -0.050054252196743365
 -0.00090639107318706 -0.006579324278328454 0.0010380501236082603 0.010468806098928392 0.9948424027478232 -0.050054252196743365 0.004277568765406641 0.020787937556570536
0.08753647353064001 0.004592123723666367 0.02250434873704069 0.9944200026831436 -0.05399527290895406 0.0012029601019088044 0.011273584987832186 -0.001020181127832515 -0.007091059055563685
 0.9944200026831436 -0.05399527290895406 0.004596447330268483 0.02250406118099797 -0.0010212165607309186 -0.007091023225063434 0.0011701020461218582 0.011277687741753887
 0.0012029601019088044 0.011273584987832186 -0.0010212165607309186 -0.007091023225063434 0.004591511315741274 0.022503237684617722 0.9944199603464343 -0.053996446179583775
 -0.001020181127832515 -0.007091059055563685 0.0011701020461218582 0.011277687741753887 0.9944199603464343 -0.053996446179583775 0.004596983133268311 0.022502869846826017
0.09378907878283 0.00492669144389915 0.024234243791878687 0.9939767054728762 -0.05795045626624003 0.0013483549628052728 0.012081789413903385 -0.0011412825017320875 -0.007603021627685934
 0.9939767054728762 -0.05795045626624003 0.0049316542457171104 0.02423392366492932 -0.001142467593742759 -0.007602972606374355 0.0013106120777150794 0.01208660276604273
 0.0013483549628052728 0.012081789413903385 -0.001142467593742759 -0.007602972606374355 0.004925989046827598 0.02423305929379983 0.993976657015976 -0.05795171422585784
 -0.0011412825017320875 -0.007603021627685934 0.0013106120777150794 0.01208660276604273 0.993976657015976 -0.05795171422585784 0.004932269821279179 0.024232646618130366
0.100041684035 0.005277348947674607 0.025978739737821013 0.9935122868690979 -0.06191856985121531 0.001502621741805256 0.012889835523619905 -0.0012697691468302643 -0.008115094801401126
 0.9935122868690979 -0.06191856985121531 0.005282995202094384 0.025978385384567593 -0.0012711135755172247 -0.008115030606440296 0.0014596519532531975 0.01289543747236533
 0.001502621741805256 0.012889835523619905 -0.0012711135755172247 -0.008115030606440296 0.005276550446814307 0.02597748300384621 0.9935122318435203 -0.06191991271677363
 -0.0012697691468302643 -0.008115094801401126 0.0014596519532531975 0.01289543747236533 0.9935122318435203 -0.06191991271677363 0.005283696130543735 0.025977022454322672
0.1059090909091 0.005621274032873872 0.027628826364551697 0.9930570379563474 -0.06565384567077236 0.0016555165415106216 0.013647849412217666 -0.0013971213311577203 -0.008595615610382992
 0.9930570379563474 -0.06565384567077236 0.005627601965743512 0.02762843837829524 -0.0013986240148560058 -0.008595535278983551 0.0016073302561705762 0.01365426622154719
 0.0016555165415106216 0.013647849412217666 -0.0013986240148560058 -0.008595535278983551 0.005620379799084869 0.027627503019436294 0.9930569763508139 -0.06565526842437154
 -0.0013971213311577203 -0.008595615610382992 0.0016073302561705762 0.01365426622154719 0.9930569763508139 -0.06565526842437154 0.005628388074032623 0.027626994684101545
0.1062942892872 0.0056443619630116215 0.027737592830240472 0.9930264868504537 -0.06589945880003086 0.0016658309992894442 0.01369760237614933 -0.001405713188153414 -0.008627159390468266
 0.9930264868504537 -0.06589945880003086 0.005650736016296144 0.027737202584379835 -0.0014072265556390722 -0.008627077933264565 0.0016172916841316277 0.013704075307241772
 0.0016658309992894442 0.01369760237614933 -0.0014072265556390722 -0.008627077933264565 0.005643461256522509 0.027736265154340554 0.993026424798613 -0.06590088680513273
 -0.001405713188153414 -0.008627159390468266 0.0016172916841316277 0.013704075307241772 0.993026424798613 -0.06590088680513273 0.005651527889110421 0.02773575358259021
0.11254689453939999 0.006027994660546908 0.029510559803079123 0.9925190464194803 -0.06989295815189044 0.0018380514454876533 0.014504966226216939 -0.0015491848571829523 -0.009139094150959627
 0.9925190464194803 -0.06989295815189044 0.006035140959364061 0.02951013198582446 -0.0015508766899053207 -0.009138993237283713 0.0017835994824042284 0.014512396958546067
 0.0018380514454876533 0.014504966226216939 -0.0015508766899053207 -0.009138993237283713 0.006026985660999174 0.02950916256401466 0.9925189768739823 -0.06989447154679462
 -0.0015491848571829523 -0.009139094150959627 0.0017835994824042284 0.014512396958546067 0.9925189768739823 -0.06989447154679462 0.006036029380076098 0.029508596706266252
0.11879949979160001 0.006428509574687022 0.03129739695418062 0.9919897077392432 -0.073898893733119 0.0020193498618641943 0.015311800604353124 -0.0017002524245625314 -0.009650775736457512
 0.9919897077392432 -0.073898893733119 0.006436472678166982 0.031296929872209306 -0.0017021321729411198 -0.00965065306657409 0.001958641684763704 0.015320280435198569
 0.0020193498618641943 0.015311800604353124 -0.0017021321729411198 -0.00965065306657409 0.006427386209208374 0.03129593161472357 0.9919896302217612 -0.07390049278623272
 -0.0017002524245625314 -0.009650775736457512 0.001958641684763704 0.015320280435198569 0.9919896302217612 -0.07390049278623272 0.006437463262035437 0.03129530808834616
0.1250521050438 0.006846167517050327 0.03309785942643413 0.9914382142646724 -0.0779170828502161 0.002209791023616101 0.01611797638840491 -0.0018589821309762688 -0.01016207866643129
 0.9914382142646724 -0.0779170828502161 0.006854992108657932 0.03309735136952309 -0.0018610591689993787 -0.010161931835248428 0.002142482677537438 0.01612760113786936
 0.002209791023616101 0.01611797638840491 -0.0018610591689993787 -0.010161931835248428 0.006844923729074002 0.033096327536035766 0.9914381282860736 -0.07791876784599089
 -0.0018589821309762688 -0.01016207866643129 0.002142482677537438 0.01612760113786936 0.9914381282860736 -0.07791876784599089 0.006856090483652019 0.03309564283572559
0.131304710296 0.007281227485689112 0.034911700632565816 0.99086431087247 -0.08194733484428487 0.0024094376223816505 0.01692336186359383 -0.0020254381174640624 -0.010672875310367303
 0.99086431087247 -0.08194733484428487 0.0072909583852374775 0.03491114987081928 -0.0020277217421924144 -0.010672701807605638 0.002335184821382588 0.016934231918286607
 0.0024094376223816505 0.01692336186359383 -0.0020277217421924144 -0.010672701807605638 0.007279857235715178 0.03491010382856721 0.9908642159315523 -0.08194910608263728
 -0.0020254381174640624 -0.010672875310367303 0.002335184821382588 0.016934231918286607 0.9908642159315523 -0.08194910608263728 0.007292170192249569 0.03490935432213111
0.1375573155481 0.007631867622173384 0.0365009422682346 0.9903698568028011 -0.08575163137554248 0.0025928654128910783 0.017703529606051305 -0.0021742875922995462 -0.01115869340596538
 0.9903698568028011 -0.08575163137554248 0.007642553735931322 0.036500360564142076 -0.002176791547013184 -0.01115849315009796 0.0025115020938352916 0.017715625551544167
 0.0025928654128910783 0.017703529606051305 -0.002176791547013184 -0.01115849315009796 0.007630365339044302 0.03649928215169779 0.9903697524870054 -0.08575348903240208
 -0.0021742875922995462 -0.01115869340596538 0.0025115020938352916 0.017715625551544167 0.9903697524870054 -0.08575348903240208 0.0076438839933753045 0.036498477571085215
0.1438099208003 0.00799475571357717 0.038082156372162834 0.9898581612377765 -0.08954665392278956 0.002783724191364381 0.018480775534678414 -0.002329108326530962 -0.011641877685601385
 0.9898581612377765 -0.08954665392278956 0.008006442677809648 0.0380815427574171 -0.0023318425986457174 -0.011641648220602695 0.0026949378241873604 0.01849418872707518
 0.002783724191364381 0.018480775534678414 -0.0023318425986457174 -0.011641648220602695 0.007993115465456871 0.03808043464412427 0.9898580470469528 -0.08954859829204856
 -0.002329108326530962 -0.011641877685601385 0.0026949378241873604 0.01849418872707518 0.9898580470469528 -0.08954859829204856 0.008007896933712027 0.03807957204964832
0.1500625260525 0.008369768779885963 0.039655221566763106 0.9893293508872022 -0.09333231942439774 0.002981952145228605 0.01925502752809595 -0.0024898409976881696 -0.012122360936636677
 0.9893293508872022 -0.09333231942439774 0.008382502385462997 0.03965457497154948 -0.0024928155545516093 -0.012122099708180099 0.0028854319525724596 0.01926985264139435
 0.002981952145228605 0.01925502752809595 -0.0024928155545516093 -0.012122099708180099 0.008367984656620694 0.03965343999576481 0.9893292263111906 -0.0933343508125128
 -0.0024898409976881696 -0.012122360936636677 0.0028854319525724596 0.01926985264139435 0.9893292263111906 -0.0933343508125128 0.00838408619337708 0.039652516265312965
0.15631513130469998 0.00875678302343415 0.04122002019677742 0.9887835530438036 -0.09710854488803362 0.0031874867658261297 0.020026214605400973 -0.0026564255845004394 -0.01260007732551382
