! Created with skrf 1.8.0 (http://scikit-rf.org).
# GHz S RI R 50.0 
!freq ReS11 ImS11 ReS12 ImS12 ReS13 ImS13
! ReS14 ImS14
! ReS21 ImS21 ReS22 ImS22 ReS23 ImS23
! ReS24 ImS24
! ReS31 ImS31 ReS32 ImS32 ReS33 ImS33
! ReS34 ImS34
! ReS41 ImS41 ReS42 ImS42 ReS43 ImS43
! ReS44 ImS44
!
0.0 0.001756617965239 0.0 0.998243382012 0.0 6.811524800944e-05 0.0 -6.811524800906e-05 8.341712044742347e-21
 0.998243382012 0.0 0.001756617965297 0.0 -6.811524801055e-05 8.341712044924818e-21 6.81152480102e-05 0.0
 6.811524800944e-05 0.0 -6.811524801055e-05 8.341712044924818e-21 0.00175661796527 0.0 0.998243382012 0.0
 -6.811524800906e-05 8.341712044742347e-21 6.81152480102e-05 0.0 0.998243382012 0.0 0.001756617965248 0.0
0.005 0.00189068018077665 0.0014363287619659157 0.9980736684695786 -0.00367893128253628 9.580717176244858e-05 0.0007508947721211176 -9.302671240980416e-05 -0.000471119635769981
 0.9980736684695786 -0.00367893128253628 0.001890674442346368 0.0014363321971001962 -9.302523384575138e-05 -0.0004711185996836682 9.583822442398439e-05 0.0007508828406862914
 9.580717176244858e-05 0.0007508947721211176 -9.302523384575138e-05 -0.0004711185996836682 0.001890680815150911 0.001436395735070889 0.9980736688425615 -0.003678864222777273
 -9.302671240980416e-05 -0.000471119635769981 9.583822442398439e-05 0.0007508828406862914 0.9980736688425615 -0.003678864222777273 0.0018906745539721296 0.001436399346109522
0.006252605252188 0.0019260507167062452 0.0018010322209434408 0.9980285799589711 -0.00459953024766812 0.00010381977066913021 0.0009389693659756055 -0.00010015484790787262 -0.0005894960178996138
 0.9980285799589711 -0.00459953024766812 0.0019260417460972078 0.001801036619702104 -0.00010015254637070718 -0.0005894947429883478 0.00010386828599897182 0.000938953879117672
 0.00010381977066913021 0.0009389693659756055 -0.00010015254637070718 -0.0005894947429883478 0.0019260516340449476 0.001801115932591144 0.9980285804682208 -0.004599446436819826
 -0.00010015484790787262 -0.0005894960178996138 0.00010386828599897182 0.000938953879117672 0.9980285804682208 -0.004599446436819826 0.0019260418473840825 0.0018011205348611565
0.01250521050438 0.0021134712322203606 0.0036394799946747065 0.9977879566020369 -0.009199618015206875 0.0001503049778651892 0.0018782074244850177 -0.00014110679270519345 -0.0011817107581303704
 0.9977879566020369 -0.009199618015206875 0.0021134354038663144 0.0036394898606571606 -0.00014109771333348676 -0.0011817084334646538 0.0001504984025472756 0.0018781702076531186
 0.0001503049778651892 0.0018782074244850177 -0.00014109771333348676 -0.0011817084334646538 0.0021134743359448194 0.00363964727053722 0.9977879580851385 -0.009199450638199536
 -0.00014110679270519345 -0.0011817107581303704 0.0001504984025472756 0.0018781702076531186 0.9977879580851385 -0.009199450638199536 0.002113435268009415 0.003639657379559417
0.01875781575657 0.0023193319608316304 0.005503729777501878 0.9975211821851876 -0.013811407471705466 0.00020768587713915248 0.002818310377480412 -0.00019110585554651087 -0.0017757587443843173
 0.9975211821851876 -0.013811407471705466 0.0023192514346722067 0.0055037462690679115 -0.00019108559588725227 -0.001775755647922369 0.00020812028165487543 0.0028182438198483856
 0.00020768587713915248 0.002818310377480412 -0.00019108559588725227 -0.001775755647922369 0.002319338495269179 0.005503980610245818 0.9975211850960372 -0.013811156648138366
 -0.00019110585554651087 -0.0017757587443843173 0.00020812028165487543 0.0028182438198483856 0.9975211850960372 -0.013811156648138366 0.002319250727507987 0.005503997219949106
0.02501042100875 0.00254406932273555 0.00739111718921325 0.9972279128140973 -0.01843707808461749 0.00027607842266622035 0.0037592829821176425 -0.0002502815019331543 -0.0023713374651157344
 0.9972279128140973 -0.01843707808461749 0.002543926285018474 0.007391141550674625 -0.00025024570877603283 -0.00237133393173287 0.00027684984576528373 0.0037591781511987278
 0.00027607842266622035 0.0037592829821176425 -0.00025024570877603283 -0.00237133393173287 0.002544080519296043 0.007391451622450958 0.9972279176043416 -0.018436743898793833
 -0.0002502815019331543 -0.0023713374651157344 0.00027684984576528373 0.0037591781511987278 0.9972279176043416 -0.018436743898793833 0.00254392468327309 0.007391475810589213
0.03126302626094 0.0027881015953616283 0.009300242917468253 0.9969077887466351 -0.023077528699507747 0.0003555983557636516 0.004701042509547905 -0.0003187588803659198 -0.0029682234966954975
 0.9969077887466351 -0.023077528699507747 0.002787878250310077 0.00930027647885661 -0.0003187032417263757 -0.002968219918747858 0.00035680289176966314 0.004700889144841155
 0.0003555983557636516 0.004701042509547905 -0.0003187032417263757 -0.002968219918747858 0.0027881186751735256 0.009300661023229859 0.9969077958667766 -0.02307711122298331
 -0.0003187588803659198 -0.0029682234966954975 0.00035680289176966314 0.004700889144841155 0.9969077958667766 -0.02307711122298331 0.0027878754419778233 0.009300693950705555
0.037515631513130004 0.0030518374273189536 0.011230173247678405 0.9965604432822758 -0.027733176952754967 0.00044636009271613287 0.005643471118869095 -0.0003966596984816421 -0.003566220167870663
 0.9965604432822758 -0.027733176952754967 0.0030515159917249477 0.011230217424819743 -0.0003965799396667976 -0.0035662169954101615 0.00044809392822884155 0.005643257619904917
 0.00044636009271613287 0.005643471118869095 -0.0003965799396667976 -0.0035662169954101615 0.00305186160391487 0.011230675107132966 0.9965604531835148 -0.027732676263638383
 -0.0003966596984816421 -0.003566220167870663 0.00044809392822884155 0.005643257619904917 0.9965604531835148 -0.027732676263638383 0.0030515116772776474 0.011230718017805109
0.043768236765320004 0.003335679111397762 0.013180196759005636 0.9961855064107386 -0.03240420250723819 0.0005484761807883222 0.006586431790627786 -0.0004841025160851968 -0.004165141661928954
 0.9961855064107386 -0.03240420250723819 0.0033352418101776317 0.013180253053865429 -0.0004839943975716907 -0.004165139402802994 0.0005508356094390088 0.006586145203437488
 0.0005484761807883222 0.006586431790627786 -0.0004839943975716907 -0.004165139402802994 0.0033357115868559153 0.013180782477190477 0.996185519539621 -0.03240361867521403
 -0.0004841025160851968 -0.004165141661928954 0.0005508356094390088 0.006586145203437488 0.996185519539621 -0.03240361867521403 0.0033352356969491024 0.013180836698206216
0.050020842017509996 0.0036400240792977194 0.01514972379198976 0.995782606686682 -0.03709064751588718 0.000662056955945685 0.0075297749204067095 -0.0005812028293347381 -0.004764806462456258
 0.995782606686682 -0.03709064751588718 0.0036394531421244814 0.015149793793061252 -0.0005810621454972572 -0.004764805682380015 0.0006651383818680619 0.007529400923284968
 0.000662056955945685 0.0075297749204067095 -0.0005810621454972572 -0.004764805682380015 0.0036400660490807342 0.015150393487056294 0.9957826234893142 -0.037089980612917704
 -0.0005812028293347381 -0.004764806462456258 0.0006651383818680619 0.007529400923284968 0.9957826234893142 -0.037089980612917704 0.00363944494814848 0.015150460429129613
0.055454545454549996 0.0039214658226121545 0.01687673871837362 0.9954094766393218 -0.04117579859746436 0.0007701566614531772 0.008349756042830956 -0.0006735164047943267 -0.005286396885809406
 0.9954094766393218 -0.04117579859746436 0.003920764321238953 0.016876821988283993 -0.0006733440310103918 -0.005286397895487803 0.0007739438999420029 0.008349293379739506
 0.0007701566614531772 0.008349756042830956 -0.0006733440310103918 -0.005286397895487803 0.003921517008146876 0.01687748149674036 0.9954094969948175 -0.041175059564719035
 -0.0006735164047943267 -0.005286396885809406 0.0007739438999420029 0.008349293379739506 0.9954094969948175 -0.041175059564719035 0.003920754096625273 0.016877560704807514
0.056273447269699996 0.003965265652220001 0.01713823710229021 0.9953513723649208 -0.04179246590339383 0.0007872102876577865 0.00847334156585959 -0.0006880730636158182 -0.005365034151542217
 0.9953513723649208 -0.04179246590339383 0.003964543310209028 0.017138322485215803 -0.000687895642014951 -0.005365035474153278 0.0007911102218004711 0.008472864454929679
 0.0007872102876577865 0.00847334156585959 -0.000687895642014951 -0.005365035474153278 0.003965318304332019 0.017138990904050345 0.995351393284908 -0.04179171600501002
 -0.0006880730636158182 -0.005365034151542217 0.0007911102218004711 0.008472864454929679 0.995351393284908 -0.04179171600501002 0.003964532762222932 0.01713907206202209
0.06252605252188 0.004311793418701685 0.01914526473720582 0.994891432168341 -0.04650955043163998 0.0009240413690897422 0.00941696524271502 -0.0008048225176925122 -0.0059656436661673215
 0.994891432168341 -0.04650955043163998 0.0043109019014413285 0.01914536726541934 -0.0008046042187497786 -0.005965647773042737 0.0009288564208763703 0.00941636791746174
 0.0009240413690897422 0.00941696524271502 -0.0008046042187497786 -0.005965647773042737 0.004311857935285259 0.019146102785422288 0.9948914576477751 -0.04650871761841246
 -0.0008048225176925122 -0.0059656436661673215 0.0009288564208763703 0.00941636791746174 0.9948914576477751 -0.04650871761841246 0.004310888735181552 0.01914619973896937
0.06877865777407 0.004679993410469566 0.021170363871167452 0.9944024158593653 -0.05124174881386986 0.001072652531245979 0.01036047300796028 -0.0009315572814162782 -0.006566452275201054
 0.9944024158593653 -0.05124174881386986 0.004678914943186705 0.021170485396670085 -0.0009312939982955956 -0.006566459905877565 0.001078479396870082 0.010359736956838539
 0.001072652531245979 0.01036047300796028 -0.0009312939982955956 -0.006566459905877565 0.004680070968197364 0.02117128632201988 0.9944024463376839 -0.05124083316477107
 -0.0009315572814162782 -0.006566452275201054 0.001078479396870082 0.010359736956838539 0.9944024463376839 -0.05124083316477107 0.00467889890277529 0.021171400736440728
0.07503126302626001 0.005070248157232927 0.023213110571164545 0.9938839546946171 -0.05598887390788743 0.0012331430712654678 0.011303686160908764 -0.001068380137063411 -0.007167274946828754
 0.9938839546946171 -0.05598887390788743 0.005068964957983785 0.023213253035532892 -0.0010680677957341596 -0.007167286898806137 0.0012400785196209465 0.011302791447139153
 0.0012331430712654678 0.011303686160908764 -0.0010680677957341596 -0.007167286898806137 0.005070339928119873 0.023214117588339436 0.9938839906092586 -0.0559878755088845
 -0.001068380137063411 -0.007167274946828754 0.0012400785196209465 0.011302791447139153 0.9938839906092586 -0.0559878755088845 0.005068945795704552 0.0232142512155904
0.08128386827845 0.00548293666543151 0.025273092985176195 0.9933356818094022 -0.06075071049555947 0.0014056090908559687 0.012246420725127589 -0.001215390449049606 -0.007767923943773787
 0.9933356818094022 -0.06075071049555947 0.005481430942190197 0.025273258420550785 -0.0012150250084865697 -0.007767941072502837 0.0014137499472372536 0.012245345972687807
 0.0014056090908559687 0.012246420725127589 -0.0012150250084865697 -0.007767941072502837 0.0054830438180542545 0.025274184745976307 0.9933357235956529 -0.06074962943339873
 -0.001215390449049606 -0.007767923943773787 0.0014137499472372536 0.012245345972687807 0.9933357235956529 -0.06074962943339873 0.005481408418682981 0.025274339425753464
0.08753647353064001 0.005918434347974248 0.027349906650431945 0.9927572325575642 -0.0655270199528868 0.001590143339819914 0.013188487796256804 -0.0013726840470024107 -0.008368208561632272
 0.9927572325575642 -0.0655270199528868 0.005916688296304918 0.02735009718066896 -0.0013722614995004831 -0.008368231780476425 0.0015995864682108413 0.013187210176158502
 0.001590143339819914 0.013188487796256804 -0.0013722614995004831 -0.008368231780476425 0.005918558047958385 0.027351083337145716 0.9927572806482025 -0.06552585632325231
 -0.0013726840470024107 -0.008368208561632272 0.0015995864682108413 0.013187210176158502 0.9927572806482025 -0.06552585632325231 0.0059166621798778145 0.027351260998231947
0.09378907878283 0.006377112916899161 0.029443151132530394 0.9921482448179729 -0.0703175435991863 0.0017868350642747022 0.014129693806987994 -0.001540353103288139 -0.008967934959193506
 0.9921482448179729 -0.0703175435991863 0.0063751087169168896 0.029443368974579893 -0.0015398694748168906 -0.008967965239400138 0.0017976773482342536 0.014128189023829259
 0.0017868350642747022 0.014129693806987994 -0.0015398694748168906 -0.008967965239400138 0.006377254327083973 0.029444412942804137 0.9921482996429345 -0.07031629749614407
 -0.001540353103288139 -0.008967934959193506 0.0017976773482342536 0.014128189023829259 0.9921482996429345 -0.07031629749614407 0.006375078782904533 0.029444615604484775
0.100041684035 0.006859340251815525 0.031552427594621096 0.9915083592821494 -0.07512200512754869 0.0019957698575538093 0.015069840739549688 -0.0017184860072113287 -0.00956690605074746
 0.9915083592821494 -0.07512200512754869 0.006857060065745301 0.03155267505995378 -0.0017179373578946667 -0.009566944421375708 0.0020081081798341534 0.015068083018438368
 0.0019957698575538093 0.015069840739549688 -0.0017179373578946667 -0.009566944421375708 0.006859500534392283 0.031553774733884904 0.991508421269304 -0.0751206766507644
 -0.0017184860072113287 -0.00956690605074746 0.0020081081798341534 0.015068083018438368 0.991508421269304 -0.0751206766507644 0.006857026097330445 0.03155400450757574
0.1059090909091 0.0073336010142586025 0.03354598526232864 0.9908794760076914 -0.0796428990599366 0.0022030408490694613 0.01595092555512258 -0.0018952369031653227 -0.010128111486309188
 0.9908794760076914 -0.0796428990599366 0.007331045602901451 0.033546262713766664 -0.0018946236862690802 -0.010128158436287825 0.002216871138988214 0.01594890570743336
 0.0022030408490694613 0.01595092555512258 -0.0018946236862690802 -0.010128158436287825 0.00733378006236155 0.0335474126663151 0.9908795451018496 -0.07964149338063717
 -0.0018952369031653227 -0.010128111486309188 0.002216871138988214 0.01594890570743336 0.9908795451018496 -0.07964149338063717 0.007331007657073392 0.03354766988569574
0.1062942892872 0.007365480250284265 0.033677336959730374 0.9908372197264779 -0.07994011245329018 0.002217029513593732 0.016008726300271427 -0.0019071672364225464 -0.010164921445928033
 0.9908372197264779 -0.07994011245329018 0.007362906219652026 0.03367761645588466 -0.0019065496610365374 -0.010164968993765006 0.0022309607347992142 0.016006688374040748
 0.002217029513593732 0.016008726300271427 -0.0019065496610365374 -0.010164968993765006 0.007365660566123084 0.033678769640633724 0.9908372893002899 -0.07993870170818693
 -0.0019071672364225464 -0.010164921445928033 0.0022309607347992142 0.016006688374040748 0.9908372893002899 -0.07993870170818693 0.007362868006391662 0.033679028731661
0.11254689453939999 0.007895892662610994 0.03581747852424742 0.990134473273142 -0.0847715591226482 0.002450691881997241 0.016946144073524728 -0.002106477226669629 -0.010761777419851236
 0.990134473273142 -0.0847715591226482 0.007893006905723527 0.03581779255662094 -0.002105786855114541 -0.010761835289368795 0.002466312818357954 0.016943797170406415
 0.002450691881997241 0.016946144073524728 -0.002105786855114541 -0.010761835289368795 0.007896094172823451 0.03581899697057228 0.9901345508554061 -0.08477006621613094
 -0.002106477226669629 -0.010761777419851236 0.002466312818357954 0.016943797170406415 0.9901345508554061 -0.08477006621613094 0.007892964244168391 0.03581928768014514
0.11879949979160001 0.008450932917204354 0.03797244888918961 0.9893997706442835 -0.08961602541572386 0.002696830724946497 0.017881883658439898 -0.002316492240172314 -0.011357266910705715
 0.9893997706442835 -0.08961602541572386 0.00844771752657293 0.03797280006290833 -0.002315725238224888 -0.01135733630384272 0.002714238125080432 0.017879197490083862
 0.002696830724946497 0.017881883658439898 -0.002315725238224888 -0.01135733630384272 0.008451156783826018 0.03797405333183711 0.9893998566538447 -0.08961445045983608
 -0.002316492240172314 -0.011357266910705715 0.002714238125080432 0.017879197490083862 0.9893998566538447 -0.08961445045983608 0.008447670219479965 0.03797437805918227
0.1250521050438 0.009030951936540266 0.04014184112277544 0.9886327664094324 -0.09447317923023599 0.0029555155752218724 0.018815730797061597 -0.002537284233796371 -0.011951179535579738
 0.9886327664094324 -0.09447317923023599 0.009027388975986532 0.040142232144736945 -0.0025364368035266835 -0.011951261711728958 0.0029748060962468906 0.018812673546993394
 0.0029555155752218724 0.018815730797061597 -0.0025364368035266835 -0.011951261711728958 0.00903119932289585 0.04014353180094111 0.9886328612618188 -0.0944715223404748
 -0.002537284233796371 -0.011951179535579738 0.0029748060962468906 0.018812673546993394 0.9886328612618188 -0.0944715223404748 0.009027336832244211 0.04014389304559907
0.131304710296 0.009636295946468077 0.04232524410705648 0.9878331192293147 -0.09934267679352227 0.003226811596091162 0.01974746749491572 -0.0027689207262202816 -0.012543301624442211
 0.9878331192293147 -0.09934267679352227 0.009632367448793004 0.042325677788082876 -0.0027679891067377274 -0.012543397900238753 0.003248081779006125 0.019744005807468292
 0.003226811596091162 0.01974746749491572 -0.0027679891067377274 -0.012543397900238753 0.00963656801800615 0.042327021268937885 0.9878332233367543 -0.09934093808772153
 -0.0027689207262202816 -0.012543301624442211 0.003248081779006125 0.019744005807468292 0.9878332233367543 -0.09934093808772153 0.0096323102831982 0.042327421633250734
0.1375573155481 0.01013581988537347 0.04423833646627929 0.9871320448896733 -0.10394007933045354 0.0034784788573377005 0.02064941864126568 -0.002979148485032206 -0.013106005975504204
 0.9871320448896733 -0.10394007933045354 0.010131507829730907 0.044238805769100886 -0.0029781273372514374 -0.01310611659537604 0.0035017804541329148 0.02064555476296411
 0.0034784788573377005 0.02064941864126568 -0.0029781273372514374 -0.01310611659537604 0.010136118951325135 0.044240199746569626 0.9871321586614326 -0.10393825894939451
 -0.002979148485032206 -0.013106005975504204 0.0035017804541329148 0.02064555476296411 0.9871321586614326 -0.10393825894939451 0.010131444328403625 0.044240633273576434
0.1438099208003 0.01065313509208723 0.04613999198130971 0.9864058843627734 -0.10852444488144718 0.003740260162251928 0.021546892644715043 -0.003197726032470479 -0.013664572487412171
 0.9864058843627734 -0.10852444488144718 0.010648421505334363 0.046140499052323806 -0.003196611364337569 -0.013664698750385132 0.0037656814727197022 0.021542595746769862
 0.003740260162251928 0.021546892644715043 -0.003196611364337569 -0.013664698750385132 0.010653462530922512 0.04614194157807743 0.9864060082044801 -0.10852254295577679
 -0.003197726032470479 -0.013664572487412171 0.0037656814727197022 0.021542595746769862 0.9864060082044801 -0.10852254295577679 0.010648351288058184 0.046142410348951154
0.1500625260525 0.011188038353935744 0.04803001113500929 0.9856548458324306 -0.1130956180981326 0.004012051293664973 0.022439771560135886 -0.0034245514040363474 -0.014218889635274228
 0.9856548458324306 -0.1130956180981326 0.011182905242795804 0.04803055823162048 -0.003423339240037358 -0.014219032891657277 0.00403967999265789 0.022435009685369614
 0.004012051293664973 0.022439771560135886 -0.003423339240037358 -0.014219032891657277 0.01118839556099374 0.04803204725089592 0.9856549801460526 -0.11309363476339215
 -0.0034245514040363474 -0.014218889635274228 0.00403967999265789 0.022435009685369614 0.9856549801460526 -0.11309363476339215 0.011182827921903424 0.04803255346276069
0.15631513130469998 0.011740324760451224 0.04990820035618015 0.9848791388233902 -0.11765344511536997 0.004293746656381214 0.023327939770661697 -0.0036595212438969597 -0.014768848514200962
 0.9848791388233902 -0.11765344511536997 0.011734754110748147 0.04990878984851844 -0.003658207625356271 -0.014769010165219951 0.004323669782567587 0.02332267984692945
