! Created with skrf 1.8.0 (http://scikit-rf.org).
# GHz S RI R 50.0 
!freq ReS11 ImS11 ReS12 ImS12 ReS13 ImS13
! ReS14 ImS14
! ReS21 ImS21 ReS22 ImS22 ReS23 ImS23
! ReS24 ImS24
! ReS31 ImS31 ReS32 ImS32 ReS33 ImS33
! ReS34 ImS34
! ReS41 ImS41 ReS42 ImS42 ReS43 ImS43
! ReS44 ImS44
!
0.0 0.00141246970647 0.0 0.9985875302642 0.0 5.430338156194e-05 0.0 -5.430338154974e-05 6.650246239776653e-21
 0.9985875302642 0.0 0.001412469706475 0.0 -5.430338155035e-05 6.650246239851356e-21 5.430338156031e-05 0.0
 5.430338156194e-05 0.0 -5.430338155035e-05 6.650246239851356e-21 0.001412469721131 0.0 0.9985875302789 0.0
 -5.430338154974e-05 6.650246239776653e-21 5.430338156031e-05 0.0 0.9985875302789 0.0 0.001412469721106 0.0
0.005 0.0015193561306631482 0.0011549876919396262 0.9984523588336791 -0.0029592440601334644 7.599910209306821e-05 0.0006029720582081153 -7.380838954716164e-05 -0.0003777297780544146
 0.9984523588336791 -0.0029592440601334644 0.001519366555151756 0.0011549815614834414 -7.380728051421275e-05 -0.0003777288839801571 7.593826687002494e-05 0.0006029951660119433
 7.599910209306821e-05 0.0006029720582081153 -7.380728051421275e-05 -0.0003777288839801571 0.0015193572533463403 0.0011550542575155588 0.9984523591755461 -0.0029591769953928276
 -7.380838954716164e-05 -0.0003777297780544146 7.593826687002494e-05 0.0006029951660119433 0.9984523591755461 -0.0029591769953928276 0.001519366111769132 0.0011550491218823829
0.006252605252188 0.0015472847647230836 0.0014482962545342224 0.998416832345089 -0.0036997953669140357 8.21409500467995e-05 0.0007540115116294414 -7.926718977351363e-05 -0.00047265769560360404
 0.998416832345089 -0.0036997953669140357 0.0015473010606411434 0.0014482884816494376 -7.9265464343931e-05 -0.0004726565921455502 8.204589946234798e-05 0.0007540415118640248
 8.21409500467995e-05 0.0007540115116294414 -7.9265464343931e-05 -0.0004726565921455502 0.0015472864568391869 0.0014483794384700388 0.9984168328163752 -0.003699711552333081
 -7.926718977351363e-05 -0.00047265769560360404 8.204589946234798e-05 0.0007540415118640248 0.9984168328163752 -0.003699711552333081 0.0015473003039341046 0.0014483729189299732
0.01250521050438 0.0016936992949882475 0.0029271140570428017 0.9982294287441019 -0.007400500540155999 0.00011706438399251197 0.0015084052176183094 -0.00010998101436780957 -0.0009476773179568596
 0.9982294287441019 -0.007400500540155999 0.0016937643728482288 0.002927097400620664 -0.00010997421839841227 -0.0009476752646301362 0.00011668531366203965 0.0015084771812804924
 0.00011706438399251197 0.0015084052176183094 -0.00010997421839841227 -0.0009476752646301362 0.0016937054837980374 0.00292728011109142 0.998229430053339 -0.007400333139083284
 -0.00010998101436780957 -0.0009476773179568596 0.00011668531366203965 0.0015084771812804924 0.998229430053339 -0.007400333139083284 0.0016937607706278943 0.0029272660733714365
0.01875781575657 0.0018520120539134962 0.004427173740238188 0.9980251015156333 -0.011111145243056434 0.00015915103848099815 0.0022637044217436097 -0.00014653495405877773 -0.0014243822706257723
 0.9980251015156333 -0.011111145243056434 0.0018521583020530143 0.004427146994615841 -0.00014651980382345196 -0.0014243794470624061 0.00015829942710158 0.0022638324924512745
 0.00015915103848099815 0.0022637044217436097 -0.00014651980382345196 -0.0014243794470624061 0.0018520255474736417 0.004427422438169226 0.9980251040366711 -0.011110894344541444
 -0.00014653495405877773 -0.0014243822706257723 0.00015829942710158 0.0022638324924512745 0.9980251040366711 -0.011110894344541444 0.00185214976997062 0.004427399831623807
0.02501042100875 0.002022514095078836 0.005946396819738609 0.9978036247028342 -0.014833549769968484 0.00020847956339898683 0.0030199552859276712 -0.0001890165446938222 -0.001902568624224321
 0.9978036247028342 -0.014833549769968484 0.0020227738462576675 0.005946358696266185 -0.00018898979708996963 -0.0019025652395463595 0.00020696677365499445 0.003020155706102038
 0.00020847956339898683 0.0030199552859276712 -0.00018898979708996963 -0.0019025652395463595 0.002022537697605831 0.0059467279314721275 0.997803628806753 -0.014833215416192626
 -0.0001890165446938222 -0.001902568624224321 0.00020696677365499445 0.003020155706102038 0.997803628806753 -0.014833215416192626 0.002022758291339326 0.00594669566365903
0.03126302626094 0.0022054843379701984 0.0074837246511151026 0.997564760075592 -0.01856850630099706 0.0002651292671164965 0.0037771343228274173 -0.0002375110806738293 -0.0023820975851341695
 0.997564760075592 -0.01856850630099706 0.002205889886168052 0.007483673780479218 -0.00023746952619248913 -0.0023820938783677592 0.00026276637067053533 0.003777425445365144
 0.0002651292671164965 0.0037771343228274173 -0.00023746952619248913 -0.0023820938783677592 0.002205520855419482 0.007484137936753339 0.9975647661364175 -0.018568088492955038
 -0.0002375110806738293 -0.0023820975851341695 0.00026276637067053533 0.003777425445365144 0.9975647661364175 -0.018568088492955038 0.0022058652107448933 0.007484094875908706
0.037515631513130004 0.002401195809912418 0.009038475313785993 0.997308263531648 -0.022316421961499577 0.0003291793272414753 0.004535190740388451 -0.00029210224223719745 -0.0028628531418593292
 0.997308263531648 -0.022316421961499577 0.0024017794212139263 0.009038410246977862 -0.000292042701356933 -0.0028628493820538337 0.00032577702608802683 0.00453559304972461
 0.0003291793272414753 0.004535190740388451 -0.000292042701356933 -0.0028628493820538337 0.002401248047130628 0.009038970473457903 0.997308271923675 -0.022315920708724346
 -0.00029210224223719745 -0.0028628531418593292 0.00032577702608802683 0.00453559304972461 0.997308271923675 -0.022315920708724346 0.002401743519266146 0.009038915449921628
0.043768236765320004 0.0026099180530166004 0.010610147846797126 0.9970338876649055 -0.02607751452162276 0.00040070842677223403 0.005294059314809236 -0.0003528723249096109 -0.003344729184357468
 0.9970338876649055 -0.02607751452162276 0.0026107119738745335 0.0106100670555863 -0.00035279164585660065 -0.003344725670597173 0.0003960770155542833 0.0052945954509284136
 0.00040070842677223403 0.005294059314809236 -0.00035279164585660065 -0.003344725670597173 0.0026099888144828563 0.010610724563486688 0.997033898764278 -0.02607692979889148
 -0.0003528723249096109 -0.003344729184357468 0.0003960770155542833 0.0052945954509284136 0.997033898764278 -0.02607692979889148 0.0026106627318465045 0.010610656370760951
0.050020842017509996 0.002831918252094801 0.012198341400907184 0.9967413830578742 -0.02985189317757399 0.00047979453938690197 0.006053665701260092 -0.00041990232831077537 -0.003827624187184558
 0.9967413830578742 -0.02985189317757399 0.002832954716100492 0.012198243278096767 -0.0004197973856295904 -0.0038276212485860877 0.00047374388921513294 0.006054360484857291
 0.00047979453938690197 0.006053665701260092 -0.0004197973856295904 -0.0038276212485860877 0.0028320103415697935 0.012198999311074316 0.9967413972426996 -0.02985122495373346
 -0.00041990232831077537 -0.003827624187184558 0.00047374388921513294 0.006054360484857291 0.9967413972426996 -0.02985122495373346 0.002832890012590563 0.012198916706676104
0.055454545454549996 0.0030358326459022514 0.013591681319833668 0.9964722702693203 -0.03314276510303327 0.000554719900798936 0.006714323199842351 -0.0004832992079325378 -0.00424802475718817
 0.9964722702693203 -0.03314276510303327 0.0030371060596364697 0.013591566768783548 -0.0004831706608484597 -0.004248022609020922 0.0005472811501063495 0.006715177723296091
 0.000554719900798936 0.006714323199842351 -0.0004831706608484597 -0.004248022609020922 0.0030359455465230204 0.013592409464959793 0.9964722874449572 -0.03314202427726434
 -0.0004832992079325378 -0.00424802475718817 0.0005472811501063495 0.006715177723296091 0.9964722874449572 -0.03314202427726434 0.0030370261908390156 0.01359231329981572
0.056273447269699996 0.0030674618172617154 0.013802715516586265 0.9964304990312902 -0.03363959820704934 0.0005665147797054684 0.006813929043508272 -0.0004932719825475963 -0.004311438595765651
 0.9964304990312902 -0.03363959820704934 0.003068773051496267 0.013802598376014292 -0.0004931396760971287 -0.004311436591461983 0.0005588543356215691 0.0068148095016459355
 0.0005665147797054684 0.006813929043508272 -0.0004931396760971287 -0.004311436591461983 0.0030675780375859574 0.01380345422021511 0.9964305166825247 -0.03363884643454714
 -0.0004932719825475963 -0.004311438595765651 0.0005588543356215691 0.0068148095016459355 0.9964305166825247 -0.03363884643454714 0.0030686907571694723 0.013803355926261715
0.06252605252188 0.0033168127044428024 0.015422968306700983 0.996100984135806 -0.037440622721656415 0.0006609452874076084 0.00757476340429729 -0.0005730597419174254 -0.004796073394324578
 0.996100984135806 -0.037440622721656415 0.0033184309353509285 0.015422830383035657 -0.0005728969961822983 -0.004796072713435753 0.0006514840741577378 0.007575858796266747
 0.0006609452874076084 0.00757476340429729 -0.0005728969961822983 -0.004796072713435753 0.003316955857450261 0.01542378736104329 0.996101005637824 -0.037439787342253214
 -0.0005730597419174254 -0.004796073394324578 0.0006514840741577378 0.007575858796266747 0.996101005637824 -0.037439787342253214 0.0033183289129528246 0.01542367206472177
0.06877865777407 0.0035802335910637803 0.017058823436825576 0.995752586500905 -0.04125492562367662 0.0007631611295872744 0.00833607861735356 -0.0006593427600847808 -0.0052814292548569045
 0.995752586500905 -0.04125492562367662 0.003582191049868891 0.01705866288521935 -0.0006591465236411477 -0.005281430316453031 0.0007517077634095799 0.00833742046051926
 0.0007631611295872744 0.00833607861735356 -0.0006591465236411477 -0.005281430316453031 0.003580406475928674 0.017059722360359898 0.9957526122406745 -0.041254006564011306
 -0.0006593427600847808 -0.0052814292548569045 0.0007517077634095799 0.00833742046051926 0.9957526122406745 -0.041254006564011306 0.003582067153114299 0.017059588714183734
0.07503126302626001 0.003857985966005255 0.018710021872661114 0.9953850541011647 -0.04508243979841877 0.0008732362127486492 0.009097780831899398 -0.0007521968546704293 -0.005767405996419074
 0.9953850541011647 -0.04508243979841877 0.0038603148940981147 0.01870983676823806 -0.0007519640997924955 -0.0057674092494954384 0.0008595989181730775 0.009099402927447101
 0.0008732362127486492 0.009097780831899398 -0.0007519640997924955 -0.0057674092494954384 0.003858191379451906 0.018711000137414443 0.9953850844699769 -0.04508143697730198
 -0.0007521968546704293 -0.005767405996419074 0.0008595989181730775 0.009099402927447101 0.9953850844699769 -0.04508143697730198 0.0038601669683211376 0.018710846759335712
0.08128386827845 0.004150330166501661 0.020376316395940165 0.9949981349735796 -0.048923077541143035 0.000991243202335336 0.009859772872449941 -0.00085169646387886 -0.006253902232173502
 0.9949981349735796 -0.048923077541143035 0.004153062820519055 0.020376104733114055 -0.0008514241862702301 -0.006253908155612989 0.0009752298320536431 0.009861711330953739
 0.000991243202335336 0.009859772872449941 -0.0008514241862702301 -0.006253908155612989 0.004150570902279694 0.02037737342907032 0.9949981703669946 -0.04892199086749805
 -0.00085169646387886 -0.006253902232173502 0.0009752298320536431 0.009861711330953739 0.9949981703669946 -0.04892199086749805 0.004152888702624267 0.02037719890241679
0.08753647353064001 0.0044575253800941276 0.02205746779130333 0.9945915774014399 -0.052776734316085844 0.001117253446237448 0.010621954492465257 -0.000957914597759449 -0.0067408151257156495
 0.9945915774014399 -0.052776734316085844 0.004460694037326024 0.022057227482869732 -0.0009575998163594462 -0.006740824228247112 0.0010986715042285023 0.010624247759181967
 0.001117253446237448 0.010621954492465257 -0.0009575998163594462 -0.006740824228247112 0.004457804227553908 0.022058602981385872 0.9945916182192208 -0.05277556368220479
 -0.000957914597759449 -0.0067408151257156495 0.0010986715042285023 0.010624247759181967 0.9945916182192208 -0.05277556368220479 0.004460491554741622 0.02205840585461475
0.09378907878283 0.004779829621201199 0.023753242146411977 0.9941651300766009 -0.05664329140572865 0.0012513369010168152 0.011384222555572112 -0.0010709227861244088 -0.007228040223085748
 0.9941651300766009 -0.05664329140572865 0.004783466584612896 0.02375297102251776 -0.0010705625429681198 -0.007228053043250214 0.0012299935676907165 0.011386911435440595
 0.0012513369010168152 0.011384222555572112 -0.0010705625429681198 -0.007228053043250214 0.004780149365367295 0.02375445483628041 0.9941651767236084 -0.056642036694089626
 -0.0010709227861244088 -0.007228040223085748 0.0012299935676907165 0.011386911435440595 0.9941651767236084 -0.056642036694089626 0.0047832335559725775 0.02375423362251191
0.100041684035 0.005117499691195516 0.025463408856555438 0.9937185422475906 -0.06052261785922807 0.0013935620595385062 0.01214647117614042 -0.0011907910236058936 -0.007715471328746111
 0.9937185422475906 -0.06052261785922807 0.005121637294562951 0.02546310466349787 -0.0011903823837313412 -0.0077154884348473425 0.0013692642194522416 0.012149598858492285
 0.0013935620595385062 0.01214647117614042 -0.0011903823837313412 -0.0077154884348473425 0.005117863111565041 0.0254646983427185 0.9937185951340514 -0.06052127894262335
 -0.0011907910236058936 -0.007715471328746111 0.0013692642194522416 0.012149598858492285 0.9937185951340514 -0.06052127894262335 0.005121371529098034 0.025464451519198985
0.1059090909091 0.005448569935704885 0.027081104785668195 0.9932809266129209 -0.06417444176769067 0.0015344897424326243 0.01286164633310715 -0.0013095747431417356 -0.008172964886566525
 0.9932809266129209 -0.06417444176769067 0.0054532067757792615 0.027080767435056354 -0.0013091180392186968 -0.008172986557912853 0.0015072435365957048 0.012865227210587842
 0.0015344897424326243 0.01286164633310715 -0.0013091180392186968 -0.008172986557912853 0.0054489768641278755 0.02708246565765209 0.9932809857327123 -0.06417302370740442
 -0.0013095747431417356 -0.008172964886566525 0.0015072435365957048 0.012865227210587842 0.9932809857327123 -0.06417302370740442 0.005452908289464154 0.02708219338446512
0.1062942892872 0.005470791125089595 0.027187739122692227 0.9932515638578239 -0.06441457195113656 0.0015439958807887126 0.012908591822342538 -0.001317587712140448 -0.008203000422641892
 0.9932515638578239 -0.06441457195113656 0.005475461738237228 0.02718739952148628 -0.0013171277635518953 -0.008203022412709104 0.0015165501515679177 0.012912203905161823
 0.0015439958807887126 0.012908591822342538 -0.0013171277635518953 -0.008203022412709104 0.00547120099511465 0.027189104656869103 0.9932516233997215 -0.0644131486908984
 -0.001317587712140448 -0.008203000422641892 0.0015165501515679177 0.012912203905161823 0.9932516233997215 -0.0644131486908984 0.005475161035751372 0.027188830664120603
0.11254689453939999 0.0058399581279810955 0.02892600480994405 0.9927639456748764 -0.06831900228373965 0.0017027037195118705 0.013670473404246921 -0.001451379602208789 -0.008690517595653254
 0.9927639456748764 -0.06831900228373965 0.005845194161646546 0.02892562737477077 -0.001450865455832875 -0.008690545097394036 0.0016719164828094895 0.013674617918072058
 0.0017027037195118705 0.013670473404246921 -0.001450865455832875 -0.008690545097394036 0.005840417214427582 0.02892744559882718 0.99276401229447 -0.0683174945295483
 -0.001451379602208789 -0.008690517595653254 0.0016719164828094895 0.013674617918072058 0.99276401229447 -0.0683174945295483 0.005844856312673765 0.028927142839673885
0.11879949979160001 0.0062252535047060565 0.030677977554106634 0.9922554394168929 -0.0722357486453018 0.001869749257030304 0.014432002344072912 -0.0015922317323634897 -0.009177911006627086
 0.9922554394168929 -0.0722357486453018 0.006231087415951465 0.030677559770436753 -0.0015916605221041231 -0.00917794467737049 0.00183542669077197 0.014436729775411092
 0.001869749257030304 0.014432002344072912 -0.0015916605221041231 -0.00917794467737049 0.006225764566481165 0.03067949275749835 0.9922555135428113 -0.07223415623676555
 -0.0015922317323634897 -0.009177911006627086 0.00183542669077197 0.014436729775411092 0.9922555135428113 -0.07223415623676555 0.006230710200981948 0.030679159595874292
0.1250521050438 0.006626928581893875 0.0324434280540606 0.9917257978731921 -0.076164642686712 0.002045194432289591 0.015193062636015066 -0.0017402073677538004 -0.009665066853486257
 0.9917257978731921 -0.076164642686712 0.0066333928792474866 0.03244296731673614 -0.0017395762504744479 -0.009665107380144037 0.0020071425442309276 0.015198425950346862
 0.002045194432289591 0.015193062636015066 -0.0017395762504744479 -0.009665107380144037 0.006627494369557733 0.03244501678727201 0.9917258799413258 -0.07616296545070918
 -0.0017402073677538004 -0.009665066853486257 0.0020071425442309276 0.015198425950346862 0.9917258799413258 -0.07616296545070918 0.006632974069176948 0.032444651546809145
0.131304710296 0.007045233126691158 0.03422212551023766 0.9911747750239748 -0.08010550845642653 0.002229099372990221 0.015953535901227257 -0.0018953679377368253 -0.010151869352999414
 0.9911747750239748 -0.08010550845642653 0.007052360375100087 0.0342216191212957 -0.001894674093359527 -0.01015191745199868 0.0021871240356495392 0.015959590565460494
 0.002229099372990221 0.015953535901227257 -0.001894674093359527 -0.01015191745199868 0.007045856381382114 0.03422378683997806 0.9911748654775919 -0.08010374621100069
 -0.0018953679377368253 -0.010151869352999414 0.0021871240356495392 0.015959590565460494 0.9911748654775919 -0.08010374621100069 0.0070518977308392135 0.03422338780235789
0.1375573155481 0.007381265395629138 0.03578150805707083 0.9907013088316817 -0.08382574817875248 0.002397573756863012 0.01668968868851606 -0.0020338775169578575 -0.010614566160811256
 0.9907013088316817 -0.08382574817875248 0.0073890893802809115 0.03578096311504778 -0.0020331166623030464 -0.010614621837529897 0.0023515799292059994 0.016696423105509253
 0.002397573756863012 0.01668968868851606 -0.0020331166623030464 -0.010614621837529897 0.007381948175846856 0.03578324135163158 0.9907014080532065 -0.08382390083182012
 -0.0020338775169578575 -0.010614566160811256 0.0023515799292059994 0.016696423105509253 0.9907014080532065 -0.08382390083182012 0.007388581452534552 0.03578281614071804
0.1438099208003 0.007729011239452529 0.03733320779872792 0.9902113910165733 -0.08753709939009573 0.0025728642603982063 0.017423179247938857 -0.002177940791327927 -0.01107483910435092
 0.9902113910165733 -0.08753709939009573 0.007737564761428837 0.03733262218804188 -0.0021771098758726396 -0.011074903061226516 0.0025226755454662215 0.01743064382379423
 0.0025728642603982063 0.017423179247938857 -0.0021771098758726396 -0.011074903061226516 0.00772975614987317 0.0373350121216915 0.9902114994473303 -0.08753516676442637
 -0.002177940791327927 -0.01107483910435092 0.0025226755454662215 0.01743064382379423 0.9902114994473303 -0.08753516676442637 0.00773700944036552 0.0373345595798169
0.1500625260525 0.008088355396258975 0.03887711096694325 0.9897051404355413 -0.0912394861469839 0.0027549151837044706 0.018153943060701484 -0.0023275039695807844 -0.011532627233963847
 0.9897051404355413 -0.0912394861469839 0.008097671312064417 0.0388764824535837 -0.002326599947297197 -0.0115327002017859 0.0027003562078932886 0.018162190019698606
 0.0027549151837044706 0.018153943060701484 -0.002326599947297197 -0.0115327002017859 0.008089165024777798 0.03887898534468164 0.989705258523025 -0.09123746805932302
 -0.0023275039695807844 -0.011532627233963847 0.0027003562078932886 0.018162190019698606 0.989705258523025 -0.09123746805932302 0.008097066487512216 0.038878504232602785
0.15631513130469998 0.008459181872082312 0.04041310730321254 0.9891826764543815 -0.09493283245610025 0.00294367021911929 0.018881916613273087 -0.002482512644819807 -0.011987870826959122
