! Created with skrf 1.8.0 (http://scikit-rf.org).
# GHz S RI R 50.0 
!freq ReS11 ImS11 ReS12 ImS12 ReS13 ImS13
! ReS14 ImS14
! ReS21 ImS21 ReS22 ImS22 ReS23 ImS23
! ReS24 ImS24
! ReS31 ImS31 ReS32 ImS32 ReS33 ImS33
! ReS34 ImS34
! ReS41 ImS41 ReS42 ImS42 ReS43 ImS43
! ReS44 ImS44
!
0.0 0.001322361739255 0.0 0.998677638254 0.0 5.07816035401e-05 0.0 -5.078160334051e-05 6.218952798652611e-21
 0.998677638254 0.0 0.001322361739242 0.0 -5.078160334008e-05 6.218952798599951e-21 5.078160354022e-05 0.0
 5.07816035401e-05 0.0 -5.078160334008e-05 6.218952798599951e-21 0.001322361742609 0.0 0.9986776382574 0.0
 -5.078160334051e-05 6.218952798652611e-21 5.078160354022e-05 0.0 0.9986776382574 0.0 0.001322361742622 0.0
0.005 0.0014222230786618128 0.00107950259277174 0.9985513769205493 -0.0027707999937632006 7.125771629353849e-05 0.0005760841591140562 -6.913672613281613e-05 -0.0003588117573500892
 0.9985513769205493 -0.0027707999937632006 0.0014222351157788132 0.001079495605281292 -6.913882707642123e-05 -0.00035881339528917236 7.118188877624071e-05 0.0005761130778313758
 7.125771629353849e-05 0.0005760841591140562 -6.913882707642123e-05 -0.00035881339528917236 0.0014222215519753291 0.0010794362600381375 0.9985513765864629 -0.0027708670553074463
 -6.913672613281613e-05 -0.0003588117573500892 7.118188877624071e-05 0.0005761130778313758 0.9985513765864629 -0.0027708670553074463 0.0014222359757329924 0.0010794278150914932
0.006252605252188 0.0014482497148402243 0.0013536603028457357 0.9985182857631755 -0.0034642043533059225 7.702187732222414e-05 0.000720386683964713 -7.424443894010989e-05 -0.0004489920965363364
 0.9985182857631755 -0.0034642043533059225 0.0014482685303960842 0.0013536513920483838 -7.424770803775342e-05 -0.00044899411719483807 7.690340338518828e-05 0.0007204241972184313
 7.702187732222414e-05 0.000720386683964713 -7.424770803775342e-05 -0.00044899411719483807 0.0014482473962159005 0.001353577401878861 0.9985182853091848 -0.003464288169209278
 -7.424443894010989e-05 -0.0004489920965363364 7.690340338518828e-05 0.0007204241972184313 0.9985182853091848 -0.003464288169209278 0.00144826994323301 0.001353566661869671
0.01250521050438 0.0015843050699430117 0.002736019746403091 0.9983442664603899 -0.0069293805635429915 0.00010962447777161545 0.0014411375727970137 -0.00010282448236691349 -0.000900282167709571
 0.9983442664603899 -0.0069293805635429915 0.0015843801929887335 0.002736000156307574 -0.00010283736413738728 -0.000900285919024201 0.00010915202962506857 0.001441227195615029
 0.00010962447777161545 0.0014411375727970137 -0.00010283736413738728 -0.000900285919024201 0.0015842963651472404 0.0027358542329737087 0.9983442652057186 -0.006929547956760381
 -0.00010282448236691349 -0.000900282167709571 0.00010915202962506857 0.001441227195615029 0.9983442652057186 -0.006929547956760381 0.0015843863985159324 0.0027358308923928296
0.01875781575657 0.0017307913926831848 0.004138399386319769 0.9981553881130627 -0.010403999809139367 0.0001486587431262683 0.0021627746209667374 -0.0001366027923442409 -0.00135321915599439
 0.9981553881130627 -0.010403999809139367 0.0017309601834172752 0.004138367257937326 -0.00013663151784715986 -0.0013532243002189468 0.00014759743289232915 0.002162933506212964
 0.0001486587431262683 0.0021627746209667374 -0.00013663151784715986 -0.0013532243002189468 0.0017307722397559974 0.004138151451824632 0.9981553857101585 -0.010404250670439031
 -0.0001366027923442409 -0.00135321915599439 0.00014759743289232915 0.002162933506212964 0.9981553857101585 -0.010404250670439031 0.001730974555033349 0.0041381135034059885
0.02501042100875 0.0018879662363565472 0.005558865857547383 0.997951451895697 -0.013889780866841813 0.00019419534675691187 0.0028853538237351446 -0.00017565826725160749 -0.001807614225159405
 0.997951451895697 -0.013889780866841813 0.001888265969367378 0.005558819252270416 -0.00017570899341214495 -0.0018076203703825565 0.0001923101781372341 0.0028856015710975475
 0.00019419534675691187 0.0028853538237351446 -0.00017570899341214495 -0.0018076203703825565 0.0018879325801448058 0.005558535668551645 0.9979514480016668 -0.013890115142583386
 -0.00017565826725160749 -0.001807614225159405 0.0001923101781372341 0.0028856015710975475 0.9979514480016668 -0.013890115142583386 0.001888291884910838 0.005558480972432905
0.03126302626094 0.002056076300234325 0.006996441468210604 0.9977322476940964 -0.0173874799901054 0.00024630575552983606 0.0036088634106543503 -0.00022006786368597499 -0.0022633425043010924
 0.9977322476940964 -0.0173874799901054 0.0020565441831743624 0.006996378370144131 -0.00022014668621047278 -0.0022633492035963433 0.0002433613950934015 0.003609222078409267
 0.00024630575552983606 0.0036088634106543503 -0.00022014668621047278 -0.0022633492035963433 0.002056024085650149 0.006996029220762864 0.9977322419657676 -0.017387897628058164
 -0.00022006786368597499 -0.0022633425043010924 0.0002433613950934015 0.003609222078409267 0.9977322419657676 -0.017387897628058164 0.0020565850215783724 0.0069959555067965595
0.037515631513130004 0.002235363116316012 0.008450501836193756 0.9974975599154433 -0.020897493220848967 0.0003050614855920878 0.0043332652212995735 -0.0002699071944258442 -0.0027203016975167063
 0.9974975599154433 -0.020897493220848967 0.0022360363022938235 0.0084504201535245 -0.0002700201545212038 -0.002720308448694303 0.0003008221555577241 0.004333759350405136
 0.0003050614855920878 0.0043332652212995735 -0.0002700201545212038 -0.002720308448694303 0.0022352882879108377 0.00845000774074685 0.997497552009213 -0.020897994185670538
 -0.0002699071944258442 -0.0027203016975167063 0.0003008221555577241 0.004333759350405136 0.997497552009213 -0.020897994185670538 0.002236095444424889 0.008449912609316332
0.043768236765320004 0.0024260652500727635 0.00992059256259779 0.997247169814523 -0.024420039657546043 0.0003705337653469102 0.005058507290026065 -0.00032525075133998786 -0.003178399487398297
 0.997247169814523 -0.024420039657546043 0.0024269808470310473 0.009920490128533278 -0.00032540383973516074 -0.00317840573288383 0.00036476318808540054 0.0050591639320729555
 0.0003705337653469102 0.005058507290026065 -0.00032540383973516074 -0.00317840573288383 0.0024259637519493983 0.00992001685518385 0.997247159387216 -0.024420623920053963
 -0.00032525075133998786 -0.003178399487398297 0.00036476318808540054 0.0050591639320729555 0.997247159387216 -0.024420623920053963 0.0024270616763320345 0.009919897777502015
0.050020842017509996 0.002628419330097979 0.011406353465269926 0.9969808566522959 -0.027955237161118612 0.00044279334250243486 0.005784529026262722 -0.00038617199447215625 -0.0036375483444674823
 0.9969808566522959 -0.027955237161118612 0.0026296144087078538 0.011406228038917606 -0.00038637115404018506 -0.003637553471269129 0.0004352547124050142 0.0057853777730758164
 0.00044279334250243486 0.005784529026262722 -0.00038637115404018506 -0.003637553471269129 0.002628287106312606 0.011405696411665283 0.9969808433609342 -0.027955904694682322
 -0.00038617199447215625 -0.0036375483444674823 0.0004352547124050142 0.0057853777730758164 0.9969808433609342 -0.027955904694682322 0.0026297203121459396 0.011405550729875124
0.055454545454549996 0.0028139166858842574 0.012710014353015543 0.996736318532487 -0.03103774806130744 0.0005111557054513139 0.006416045453865887 -0.0004437004671906273 -0.0040373499277583545
 0.996736318532487 -0.03103774806130744 0.0028153847250457537 0.012709867068604642 -0.0004439444545463054 -0.004037353541507601 0.0005018878497431526 0.006417087173412521
 0.0005111557054513139 0.006416045453865887 -0.0004439444545463054 -0.004037353541507601 0.0028137544656928535 0.012709286843559481 0.9967363024732359 -0.031038487943105965
 -0.0004437004671906273 -0.0040373499277583545 0.0005018878497431526 0.006417087173412521 0.9967363024732359 -0.031038487943105965 0.0028155151711969847 0.012709115783043774
0.056273447269699996 0.002842660588983342 0.012907481400786482 0.9966983983670838 -0.03150313947249727 0.0005219103495429846 0.006511263771487981 -0.0004527433865310122 -0.004097662961601796
 0.9966983983670838 -0.03150313947249727 0.0028441721900444006 0.012907330667652418 -0.0004529945141068415 -0.004097666301288432 0.0005123663213293041 0.006512336785463575
 0.0005219103495429846 0.006511263771487981 -0.0004529945141068415 -0.004097666301288432 0.0028424935821666102 0.01290674329086421 0.9966983818679267 -0.0315038902591095
 -0.0004527433865310122 -0.004097662961601796 0.0005123663213293041 0.006512336785463575 0.9966983818679267 -0.0315038902591095 0.0028443065567995735 0.012906568217783326
0.06252605252188 0.003069023160899677 0.014423709808621584 0.9963995720059039 -0.03506375660856691 0.0006079542046518634 0.007238640185765405 -0.0005250363933152082 -0.004558658860679263
 0.9963995720059039 -0.03506375660856691 0.0030708883019588016 0.014423531381110235 -0.0005253453409644906 -0.004558659689374983 0.0005961668924325391 0.007239972230605847
 0.0006079542046518634 0.007238640185765405 -0.0005253453409644906 -0.004558659689374983 0.0030688173138863697 0.014422890966708334 0.9963995519557448 -0.03506459062906842
 -0.0005250363933152082 -0.004558658860679263 0.0005961668924325391 0.007239972230605847 0.9963995519557448 -0.03506459062906842 0.0030710545251226022 0.014422683585477217
0.06877865777407 0.0033077402510065237 0.015954796529285904 0.996084154029901 -0.03863706698587622 0.0007009935268231885 0.007966583086708333 -0.000603121470084064 -0.00502045154878082
 0.996084154029901 -0.03863706698587622 0.0033099959329425162 0.015954587946945407 -0.0006034940460577013 -0.005020449087179852 0.0006867245108008335 0.007968211558297132
 0.0007009935268231885 0.007966583086708333 -0.0006034940460577013 -0.005020449087179852 0.0033074915053220564 0.01595389730797195 0.9960841300843064 -0.03863798422664667
 -0.000603121470084064 -0.00502045154878082 0.0006867245108008335 0.007968211558297132 0.9960841300843064 -0.03863798422664667 0.003310197407645436 0.015953654571530817
0.07503126302626001 0.0035590442257482984 0.017500516075209745 0.9957519205426301 -0.04222302509320262 0.000801096062566081 0.008695013973874843 -0.0006870680361299055 -0.005482955991072574
 0.9957519205426301 -0.04222302509320262 0.003561727439079639 0.01750027480484725 -0.000687510005471455 -0.005482949404451499 0.0007841064012621268 0.008696978931174342
 0.000801096062566081 0.008695013973874843 -0.000687510005471455 -0.005482949404451499 0.0035587485232387076 0.017499536855869868 0.9957518923578461 -0.042224025546166485
 -0.0006870680361299055 -0.005482955991072574 0.0007841064012621268 0.008696978931174342 0.9957518923578461 -0.042224025546166485 0.0035619675643500707 0.017499255586228467
0.08128386827845 0.0038231666581209785 0.01906065447876086 0.9954026474771472 -0.045821566589085046 0.0009083286192252345 0.009423851373664542 -0.0007769444419509521 -0.005946086265434854
 0.9954026474771472 -0.045821566589085046 0.00382631438920076 0.01906037791441841 -0.0007774615270190514 -0.0059460746636677934 0.0008883788660654628 0.009426195569534198
 0.0009083286192252345 0.009423851373664542 -0.0007774615270190514 -0.0059460746636677934 0.003822819939882457 0.01905959567941198 0.9954026147079424 -0.04582265024442765
 -0.0007769444419509521 -0.005946086265434854 0.0008883788660654628 0.009426195569534198 0.9954026147079424 -0.04582265024442765 0.00382659656622682 0.01905927256677524
0.08753647353064001 0.004100338337701549 0.020635005746355694 0.9950361107485516 -0.049432611795662315 0.0010227570006988592 0.010153011090690871 -0.000872817933373904 -0.006409755312913426
 0.9950361107485516 -0.049432611795662315 0.004103987574832224 0.0206346912090509 -0.0008734158141217317 -0.006409737750504311 0.0009996072240677175 0.010155780002553978
 0.0010227570006988592 0.010153011090690871 -0.0008734158141217317 -0.006409737750504311 0.004099936544839923 0.020633867813925004 0.9950360730494263 -0.0494337786500306
 -0.000872817933373904 -0.006409755312913426 0.0009996072240677175 0.010155780002553978 0.9950360730494263 -0.0494337786500306 0.0041043152077037655 0.02063349941561018
0.09378907878283 0.004390789261678846 0.022223369296392625 0.9946520863911886 -0.05305606821100077 0.0011444459476509022 0.010882406376168796 -0.0009747546102463248 -0.0068738747735939435
 0.9946520863911886 -0.05305606821100077 0.0043949770013963566 0.022223014033788877 -0.0009754389244572732 -0.006873850249705085 0.0011178557537877272 0.01088564823651449
 0.0011444459476509022 0.010882406376168796 -0.0009754389244572732 -0.006873850249705085 0.0043903283356082155 0.02222215271617188 0.99465204341595 -0.05305731825857714
 -0.0009747546102463248 -0.0068738747735939435 0.0011178557537877272 0.01088564823651449 0.99465204341595 -0.05305731825857714 0.00439535349685715 0.022221735455478665
0.100041684035 0.0046947486081591865 0.023825548115889765 0.9942503506801366 -0.05669183230535948 0.0012734590781740272 0.01161194805958041 -0.0010828193838462376 -0.0073383548617064216
 0.9942503506801366 -0.05669183230535948 0.004699511861384053 0.02382514930169658 -0.0010835957272610172 -0.007338322320189948 0.0012431876364947516 0.011615713886150528
 0.0012734590781740272 0.01161194805958041 -0.0010835957272610172 -0.007338322320189948 0.004694224490770985 0.023824253400381835 0.9942503020819632 -0.05669316554955196
 -0.0010828193838462376 -0.0073383548617064216 0.0012431876364947516 0.011615713886150528 0.9942503020819632 -0.05669316554955196 0.004699940628574046 0.02382378356511344
0.1059090909091 0.004992471376931527 0.025341414227686335 0.9938570570630301 -0.060114704293794265 0.001401241116355135 0.012296597229196094 -0.0011898568884527035 -0.007774466836730031
 0.9938570570630301 -0.060114704293794265 0.004997808367846232 0.025340971907922203 -0.0011907246433453286 -0.007774425761741982 0.0013672958163432477 0.012300903649986508
 0.001401241116355135 0.012296597229196094 -0.0011907246433453286 -0.007774425761741982 0.004991884270897368 0.025340046693246927 0.9938570028717343 -0.060116115608587165
 -0.0011898568884527035 -0.007774466836730031 0.0013672958163432477 0.012300903649986508 0.9938570028717343 -0.060116115608587165 0.0049982892889397805 0.02533952402404095
0.1062942892872 0.005012444699543093 0.0254413473330737 0.9938306802451096 -0.060339790904226184 0.0014098588301190503 0.012341544648130065 -0.0011970759317131597 -0.007803104275491046
 0.9938306802451096 -0.060339790904226184 0.005017820497766744 0.02544090206628581 -0.0011979498580519765 -0.0078030626049430596 0.0013756649007049247 0.012345888273894334
 0.0014098588301190503 0.012341544648130065 -0.0011979498580519765 -0.0078030626049430596 0.005011853333272444 0.025439975034871252 0.9938306256757571 -0.060341207345335116
 -0.0011970759317131597 -0.007803104275491046 0.0013756649007049247 0.012345888273894334 0.9938306256757571 -0.060341207345335116 0.005018304947892005 0.025439448775775194
0.11254689453939999 0.005344104955409089 0.027070573157582073 0.993392852175508 -0.0639998222066345 0.0015537064041362594 0.013071102403966972 -0.001317586650969965 -0.008268030131968852
 0.993392852175508 -0.0639998222066345 0.005350130357001118 0.027070078461592477 -0.0013185636719219346 -0.008267978165767414 0.0015153483670044873 0.013076080506760325
 0.0015537064041362594 0.013071102403966972 -0.0013185636719219346 -0.008267978165767414 0.0053434422839161964 0.02706912386279738 0.9933927912863015 -0.06400132184889203
 -0.001317586650969965 -0.008268030131968852 0.0015153483670044873 0.013076080506760325 0.9933927912863015 -0.06400132184889203 0.005350673903564215 0.027068537191787135
0.11879949979160001 0.005689955840503767 0.028713032032874713 0.9929366441240148 -0.06767179659413282 0.0017050617070598934 0.013800525408369662 -0.0014444126104339497 -0.008733037917490314
 0.9929366441240148 -0.06767179659413282 0.005696667936923164 0.028712484854280716 -0.001445498195600256 -0.008732974433855224 0.0016622975931398789 0.013806197540110457
 0.0017050617070598934 0.013800525408369662 -0.001445498195600256 -0.008732974433855224 0.0056892178086530975 0.028711506362532398 0.9929365765647448 -0.06767337944481906
 -0.0014444126104339497 -0.008733037917490314 0.0016622975931398789 0.013806197540110457 0.9929365765647448 -0.06767337944481906 0.005697273995028923 0.028710855150780822
0.1250521050438 0.006050222804897946 0.03036852997594688 0.9924618344030766 -0.0713555772556038 0.001863983295884589 0.014529715614654692 -0.001577613501393636 -0.009198031452237798
 0.9924618344030766 -0.0713555772556038 0.006057658726976175 0.030367927183268723 -0.0015788130781424592 -0.00919795517429184 0.0018165708195338078 0.014536144230319906
 0.001863983295884589 0.014529715614654692 -0.0015788130781424592 -0.00919795517429184 0.006049405359487754 0.03036692858897594 0.99246175982283 -0.07135724332259284
 -0.001577613501393636 -0.009198031452237798 0.0018165708195338078 0.014536144230319906 0.99246175982283 -0.07135724332259284 0.006058330713810599 0.030366208564689114
0.131304710296 0.006425130222017639 0.03203687204260205 0.9919682020827112 -0.0750510206896407 0.0020305283217343347 0.01525857289274405 -0.0017172475876530014 -0.009662912866101466
 0.9919682020827112 -0.0750510206896407 0.00643332714649596 0.03203621042470763 -0.0017185665410211482 -0.009662822461936813 0.0019782249146722965 0.015265823378792428
 0.0020305283217343347 0.01525857289274405 -0.0017185665410211482 -0.009662822461936813 0.00642422931165434 0.03203519563246488 0.991968120128669 -0.07505276998523304
 -0.0017172475876530014 -0.009662912866101466 0.0019782249146722965 0.015265823378792428 0.991968120128669 -0.07505276998523304 0.006434068480218384 0.0320344023785641
0.1375573155481 0.006723738499179464 0.03349919903898978 0.9915467152513843 -0.07853924837455974 0.0021824957137984787 0.01596438242765751 -0.0018411751900132749 -0.01010493722708081
 0.9915467152513843 -0.07853924837455974 0.006732737227425768 0.033498492588109684 -0.0018426215104949514 -0.010104832751550963 0.0021251775721009467 0.015972438331064178
 0.0021824957137984787 0.01596438242765751 -0.0018426215104949514 -0.010104832751550963 0.006722750657879731 0.03349744819664716 0.9915466255915626 -0.07854108087230825
 -0.0018411751900132749 -0.01010493722708081 0.0021251775721009467 0.015972438331064178 0.9915466255915626 -0.07854108087230825 0.006733550702830591 0.03349659463507169
0.1438099208003 0.007032662716481251 0.034954649121814674 0.9911107420297023 -0.0820194862176378 0.0023406169088757644 0.016667864012467094 -0.001970079661969768 -0.010544856738764069
 0.9911107420297023 -0.0820194862176378 0.007042501062189538 0.03495389581785741 -0.001971659143249333 -0.010544736897309523 0.0022780625674569403 0.016676784562565657
 0.0023406169088757644 0.016667864012467094 -0.001971659143249333 -0.010544736897309523 0.00703158400100129 0.03495282454731011 0.9911106443143397 -0.0820214019228169
 -0.001970079661969768 -0.010544856738764069 0.0022780625674569403 0.016676784562565657 0.9911106443143397 -0.0820214019228169 0.007043389986378523 0.03495190743241073
0.1500625260525 0.007351804844554985 0.03640312570604658 0.9906603836986781 -0.08549167346373947 0.002504844647654299 0.017368962945859143 -0.002103915539172241 -0.01098261978758168
 0.9906603836986781 -0.08549167346373947 0.007362520692335126 0.036402323408812824 -0.002105633965832859 -0.01098248323389674 0.002436833755348673 0.017378809519384513
 0.002504844647654299 0.017368962945859143 -0.002105633965832859 -0.01098248323389674 0.007350631320058804 0.03640122812711655 0.9906602775771286 -0.0854936723816799
 -0.002103915539172241 -0.01098261978758168 0.002436833755348673 0.017378809519384513 0.9906602775771286 -0.0854936723816799 0.007363488366156452 0.03640024404428637
0.15631513130469998 0.007681066283626694 0.03784453526059797 0.9901957419146222 -0.08895574908247693 0.002675131190161316 0.018067625318325727 -0.002242636867978057 -0.011418175769592155
