! Created with skrf 1.8.0 (http://scikit-rf.org).
# GHz S RI R 50.0 
!freq ReS11 ImS11 ReS12 ImS12 ReS13 ImS13
! ReS14 ImS14
! ReS21 ImS21 ReS22 ImS22 ReS23 ImS23
! ReS24 ImS24
! ReS31 ImS31 ReS32 ImS32 ReS33 ImS33
! ReS34 ImS34
! ReS41 ImS41 ReS42 ImS42 ReS43 ImS43
! ReS44 ImS44
!
0.0 0.001633086746202 0.0 0.998366913231 0.0 6.342168744093e-05 0.0 -6.342168801876e-05 7.766916722869647e-21
 0.998366913231 0.0 0.001633086746188 0.0 -6.342168801837e-05 7.766916722821886e-21 6.342168744155e-05 0.0
 6.342168744093e-05 0.0 -6.342168801837e-05 7.766916722821886e-21 0.001633086757569 0.0 0.9983669132424 0.0
 -6.342168801876e-05 7.766916722869647e-21 6.342168744155e-05 0.0 0.9983669132424 0.0 0.001633086757575 0.0
0.005 0.0017574094071228167 0.0013304904127083902 0.9982095720946613 -0.0034209115148770837 8.979120034432993e-05 0.0007302766324308954 -8.701860456947835e-05 -0.0004528234082181604
 0.9982095720946613 -0.0034209115148770837 0.0017574033912021378 0.0013304939886989323 -8.702119051615039e-05 -0.0004528254235523813 8.982516549191673e-05 0.0007302638046009266
 8.979120034432993e-05 0.0007302766324308954 -8.702119051615039e-05 -0.0004528254235523813 0.0017574082934006519 0.001330558372178926 0.9982095724552995 -0.00342084444849577
 -8.701860456947835e-05 -0.0004528234082181604 8.982516549191673e-05 0.0007302638046009266 0.9982095724552995 -0.00342084444849577 0.0017574052157972725 0.0013305601513126035
0.006252605252188 0.0017901005459580073 0.0016683595303566548 0.9981679242857449 -0.004276964951638229 9.736558877604082e-05 0.000913179862669568 -9.372492540626567e-05 -0.0005666166714592875
 0.9981679242857449 -0.004276964951638229 0.0017900911409271239 0.0016683640283001128 -9.372894909152372e-05 -0.0005666191566756003 9.74186573907575e-05 0.0009131631828179256
 9.736558877604082e-05 0.000913179862669568 -9.372894909152372e-05 -0.0005666191566756003 0.0017900987411130999 0.0016684444611504467 0.9981679247863723 -0.004276881137144953
 -9.372492540626567e-05 -0.0005666166714592875 9.74186573907575e-05 0.0009131631828179256 0.9981679247863723 -0.004276881137144953 0.0017900939302337064 0.0016684467029856069
0.01250521050438 0.0019626888283979433 0.0033717352867351554 0.9979465369071621 -0.008554666528032353 0.00014101841106416518 0.0018265901709250472 -0.00013201202058513503 -0.0011359525374017752
 0.9979465369071621 -0.008554666528032353 0.001962651260595983 0.0033717445695287214 -0.00013202787467592316 -0.0011359571343074794 0.0001412300762235427 0.0018265498414918706
 0.00014101841106416518 0.0018265901709250472 -0.00013202787467592316 -0.0011359571343074794 0.0019626810477322825 0.0033719049179439403 0.9979465383429145 -0.008554499108380487
 -0.00013201202058513503 -0.0011359525374017752 0.0001412300762235427 0.0018265498414918706 0.9979465383429145 -0.008554499108380487 0.0019626618368558148 0.0033719095616434104
0.01875781575657 0.00215124650888455 0.005099347537219431 0.9977024631337299 -0.012843500509966545 0.00019448415911201163 0.0027408645113011837 -0.00017840560321163981 -0.0017071311669443992
 0.9977024631337299 -0.012843500509966545 0.002151162066216756 0.005099361942310544 -0.00017844095407393076 -0.0017071374271786317 0.00019495973346402888 0.002740792166485611
 0.00019448415911201163 0.0027408645113011837 -0.00017844095407393076 -0.0017071374271786317 0.002151228586952809 0.005099601750184692 0.9977024659458229 -0.012843249539726152
 -0.00017840560321163981 -0.0017071311669443992 0.00019495973346402888 0.002740792166485611 0.9977024659458229 -0.012843249539726152 0.0021511854178868136 0.005099608923292704
0.02501042100875 0.0023561557666331454 0.006848744208772486 0.9974354031940904 -0.01714552235616596 0.0002578680199304809 0.0036560351114725276 -0.0002330237254740623 -0.0022798703425532542
 0.9974354031940904 -0.01714552235616596 0.0023560057557144632 0.006848764114921532 -0.00023308614618185644 -0.0022798777352021275 0.0002587129047408579 0.0036559210281833926
 0.0002578680199304809 0.0036560351114725276 -0.00023308614618185644 -0.0022798777352021275 0.002356123524889845 0.0068490829026380895 0.9974354078195939 -0.017145187826942628
 -0.0002330237254740623 -0.0022798703425532542 0.0002587129047408579 0.0036559210281833926 0.9974354078195939 -0.017145187826942628 0.002356046855107983 0.006849092694815343
0.03126302626094 0.0025777829349609444 0.008618651218408243 0.9971450427109031 -0.02146159684355776 0.00033127540165749043 0.00457204585976123 -0.000295980738120517 -0.002853969094109182
 0.9971450427109031 -0.02146159684355776 0.002577548669015405 0.008618677044104238 -0.000296077724132055 -0.0028539770047793685 0.0003325951784152168 0.004571878947853864
 0.00033127540165749043 0.00457204585976123 -0.000296077724132055 -0.0028539770047793685 0.0025777321916604246 0.008619074296702642 0.9971450495968068 -0.021461178697278135
 -0.000295980738120517 -0.002853969094109182 0.0003325951784152168 0.004571878947853864 0.9971450495968068 -0.021461178697278135 0.0025776124863782107 0.008619086757851443
0.037515631513130004 0.0028164861891498516 0.010408228605380114 0.9968310606786221 -0.025792141874246936 0.0004148108944538316 0.005488805609837321 -0.0003673881552178275 -0.003429254413048482
 0.9968310606786221 -0.025792141874246936 0.002816148980498486 0.010408260808408055 -0.0003675271323461508 -0.003429262143650796 0.00041671136420706604 0.005488573397450603
 0.0004148108944538316 0.005488805609837321 -0.0003675271323461508 -0.003429262143650796 0.0028164127497008512 0.010408735956594861 0.9968310702754327 -0.02579164002286497
 -0.0003673881552178275 -0.003429254413048482 0.00041671136420706604 0.005488573397450603 0.9968310702754327 -0.02579164002286497 0.0028162404763202448 0.010408751095322095
0.043768236765320004 0.0030726184967485737 0.012216844143538678 0.9964931327025628 -0.030137354793047032 0.000508577774126611 0.006406204387516681 -0.0004473549574859265 -0.004005565061804165
 0.9964931327025628 -0.030137354793047032 0.003072159650564471 0.01221688322088466 -0.00044754328660774834 -0.004005571830490168 0.000511164974167323 0.006405893004840976
 0.000508577774126611 0.006406204387516681 -0.00044754328660774834 -0.004005571830490168 0.003072518154401351 0.01221743564557617 0.996493145467455 -0.030136769114282022
 -0.0004473549574859265 -0.004005565061804165 0.000511164974167323 0.006405893004840976 0.996493145467455 -0.030136769114282022 0.003072283777228515 0.012217453428095649
0.050020842017509996 0.003346528983099773 0.014043979799487098 0.996130932656439 -0.03449730585787011 0.0006126776978711278 0.007324120098004984 -0.0005359876952809694 -0.00458274488502323
 0.996130932656439 -0.03449730585787011 0.003345929791691062 0.014044026287564045 -0.0005362326753096782 -0.004582749826204047 0.0006160579064397587 0.007323714260506623
 0.0006126776978711278 0.007324120098004984 -0.0005362326753096782 -0.004582749826204047 0.0033463975168376244 0.014044655320090572 0.9961309490542289 -0.03449663619523854
 -0.0005359876952809694 -0.00458274488502323 0.0006160579064397587 0.007323714260506623 0.9961309490542289 -0.03449663619523854 0.0033460914920698513 0.014044675669164163
0.055454545454549996 0.0035992723269488327 0.015646506132046826 0.995796204096556 -0.03829819763070576 0.0007116129537706113 0.008122134980917003 -0.0006201309671782585 -0.005084917636144964
 0.995796204096556 -0.03829819763070576 0.0035985359644868857 0.015646559526945016 -0.0006204310595654058 -0.005084920221206331 0.000715768807015255 0.008121633534880508
 0.0007116129537706113 0.008122134980917003 -0.0006204310595654058 -0.005084920221206331 0.0035991103737277575 0.015647254550075526 0.9957962240358427 -0.0382974548321872
 -0.0006201309671782585 -0.005084917636144964 0.000715768807015255 0.008121633534880508 0.9957962240358427 -0.0382974548321872 0.003598734324066593 0.015647277032536492
0.056273447269699996 0.0036385636246334184 0.01588918580614848 0.9957441336724533 -0.038871984097340787 0.0007272104831342119 0.008242421818342224 -0.0006333905035507266 -0.005160639539769454
 0.9957441336724533 -0.038871984097340787 0.0036378053622554067 0.01588924028136041 -0.0006336993734305101 -0.005160641704173534 0.0007314902168480662 0.008241904809778865
 0.0007272104831342119 0.008242421818342224 -0.0006336993734305101 -0.005160641704173534 0.0036383967988172965 0.01588994519959247 0.9957441541769201 -0.03887123026389983
 -0.0006333905035507266 -0.005160639539769454 0.0007314902168480662 0.008241904809778865 0.9957441541769201 -0.03887123026389983 0.003638009569377518 0.01588996799378094
0.06252605252188 0.003949065608890777 0.01775205543608395 0.9953324088014577 -0.04326132247305837 0.000852273929543283 0.009160971616605689 -0.0007396650702221764 -0.005739094704120261
 0.9953324088014577 -0.04326132247305837 0.003948129527227483 0.01775211851533205 -0.0007400450101964379 -0.005739093058856343 0.0008575599360894612 0.009160325271942703
 0.000852273929543283 0.009160971616605689 -0.0007400450101964379 -0.005739093058856343 0.003948859170766062 0.01775289854061255 0.9953324338960073 -0.043260484254465915
 -0.0007396650702221764 -0.005739094704120261 0.0008575599360894612 0.009160325271942703 0.9953324338960073 -0.043260484254465915 0.003948381162168494 0.01775292361349887
0.06877865777407 0.004278375513418845 0.019632209940154202 0.9948954314976969 -0.04766521288164039 0.0009879636632104316 0.010079625639851082 -0.0008549105794495029 -0.006317955022649199
 0.9948954314976969 -0.04766521288164039 0.0042772428366728 0.019632282281701743 -0.0008553687119368314 -0.00631794845129343 0.0009943629105928864 0.010078830328273697
 0.0009879636632104316 0.010079625639851082 -0.0008553687119368314 -0.00631794845129343 0.004278125192870487 0.0196331365836217 0.9948954616769463 -0.0476642900311421
 -0.0008549105794495029 -0.006317955022649199 0.0009943629105928864 0.010078830328273697 0.9948954616769463 -0.0476642900311421 0.004277546808183803 0.01963316372330006
0.07503126302626001 0.0046268313787461235 0.02152928902280181 0.9944328760002539 -0.052083515626597604 0.0011343729955698534 0.010998234812075085 -0.0009792236382016046 -0.006897063447956039
 0.9944328760002539 -0.052083515626597604 0.004625483299012257 0.021529371327211066 -0.0009797670283023937 -0.00689705075064505 0.0011419926585456907 0.01099726942016782
 0.0011343729955698534 0.010998234812075085 -0.0009797670283023937 -0.00689705075064505 0.004626532886449962 0.02153029901940782 0.9944329117709668 -0.052082507868853684
 -0.0009792236382016046 -0.006897063447956039 0.0011419926585456907 0.01099726942016782 0.9944329117709668 -0.052082507868853684 0.004625844501788819 0.021530327968095966
0.08128386827845 0.0049947687132091915 0.023442944495389022 0.9939444176526061 -0.05651606571865517 0.0012915927898889477 0.011916645310329422 -0.0011126981928363405 -0.007476260810476338
 0.9939444176526061 -0.05651606571865517 0.004993186386341565 0.023443037506652126 -0.001113333848736394 -0.00747624070401124 0.0013005402347325572 0.011915487225350378
 0.0012915927898889477 0.011916645310329422 -0.001113333848736394 -0.00747624070401124 0.004994417739973128 0.02344403764705408 0.9939444595347963 -0.05651497274915629
 -0.0011126981928363405 -0.007476260810476338 0.0013005402347325572 0.011915487225350378 0.9939444595347963 -0.05651497274915629 0.004993609699327174 0.023444068100861273
0.08753647353064001 0.005382520452506257 0.025372835897164638 0.9934297331787988 -0.0609626772155311 0.001459711333926826 0.01283469890105349 -0.001255425438434442 -0.00805538553463359
 0.9934297331787988 -0.0609626772155311 0.0053806849930914035 0.025372940404034726 -0.0012561603114488995 -0.00805535665258723 0.0014700941011043908 0.012833323994502042
 0.001459711333926826 0.01283469890105349 -0.0012561603114488995 -0.00805535665258723 0.005382112667563525 0.025374011994822407 0.9934297817068509 -0.0609614987000718
 -0.001255425438434442 -0.00805538553463359 0.0014700941011043908 0.012833323994502042 0.9934297817068509 -0.0609614987000718 0.005381175278032033 0.025374043603677895
0.09378907878283 0.0057904168877872 0.027318627369955203 0.9928885009340084 -0.06542314631572262 0.0016388142159399852 0.0137522331932467 -0.001407493722863332 -0.0086342734449493
 0.9928885009340084 -0.06542314631572262 0.005788309365098036 0.02731874420736992 -0.001408334707444301 -0.008634234337801151 0.0016507400017547898 0.013750615804666909
 0.0016388142159399852 0.0137522331932467 -0.001408334707444301 -0.008634234337801151 0.005789947937962354 0.027319886193057252 0.9928885566578949 -0.06542188189169613
 -0.001407493722863332 -0.0086342734449493 0.0016507400017547898 0.013750615804666909 0.9928885566578949 -0.06542188189169613 0.005788871465098606 0.02731991856083661
0.100041684035 0.006218785572434104 0.0292799853668448 0.9923204011359987 -0.06989725362576614 0.001828984203370421 0.014669081829287486 -0.0015689884474145513 -0.009212757641588269
 0.9923204011359987 -0.06989725362576614 0.006216387005793352 0.029280115417631446 -0.0015699423810017945 -0.009212706776863776 0.0018425608401323142 0.014667194750325997
 0.001828984203370421 0.014669081829287486 -0.0015699423810017945 -0.009212706776863776 0.006218251080788799 0.029281326685508344 0.9923204646224499 -0.06989590290097476
 -0.0015689884474145513 -0.009212757641588269 0.0018425608401323142 0.014667194750325997 0.9923204646224499 -0.06989590290097476 0.006217025743606049 0.029281359370235713
0.1059090909091 0.006639672717808696 0.031134372814543076 0.9917625809533567 -0.0741079249627806 0.0020175751253321875 0.015528671904195272 -0.0017291807612308664 -0.009755085390074709
 0.9917625809533567 -0.0741079249627806 0.006636983725965804 0.031134516111833706 -0.0017302468530882148 -0.009755022024570315 0.0020327990857491513 0.015526505611161723
 0.0020175751253321875 0.015528671904195272 -0.0017302468530882148 -0.009755022024570315 0.006639072719475533 0.03113579132772594 0.9917626522555337 -0.0741064928731143
 -0.0017291807612308664 -0.009755085390074709 0.0020327990857491513 0.015526505611161723 0.9917626522555337 -0.0741064928731143 0.006637698747040909 0.03113582386749186
0.1062942892872 0.0066679512112592515 0.03125657694212377 0.9917251160835762 -0.07438476585452791 0.0020303011232358963 0.015585074646873531 -0.0017399919646570823 -0.009790668411839313
 0.9917251160835762 -0.07438476585452791 0.006665242565315715 0.031256721138802186 -0.0017410656274713002 -0.009790604174251332 0.0020456365584143143 0.01558288910569128
 0.0020303011232358963 0.015585074646873531 -0.0017410656274713002 -0.009790604174251332 0.006667346776112756 0.03125800051587806 0.9917251879171263 -0.07438332840945405
 -0.0017399919646570823 -0.009790668411839313 0.0020456365584143143 0.01558288910569128 0.9917251879171263 -0.07438332840945405 0.006665962741745146 0.031258033030204115
0.11254689453939999 0.007138235537849638 0.03324806844305418 0.9911023303658961 -0.07888543711390154 0.0022428417443017493 0.016500037811479195 -0.0019205834739253113 -0.0103678331785202
 0.9911023303658961 -0.07888543711390154 0.007135197718587176 0.03324822776981028 -0.0019217835886536372 -0.010367753870139189 0.002260044018776794 0.016497523457442615
 0.0022428417443017493 0.016500037811479195 -0.0019217835886536372 -0.010367753870139189 0.007137556731818134 0.033249574023529 0.9911024111506009 -0.0788839125000161
 -0.0019205834739253113 -0.0103678331785202 0.002260044018776794 0.016497523457442615 0.9911024111506009 -0.0788839125000161 0.007136004110703633 0.03324960583537042
0.11879949979160001 0.00762995718140618 0.03525412449721809 0.9904517310644945 -0.0833990099325489 0.0024666796600356397 0.017413793929798322 -0.002110838915687154 -0.010944076474694715
 0.9904517310644945 -0.0833990099325489 0.007626571031350877 0.03525429999215417 -0.0021121721471545653 -0.010943980315134872 0.002485856885249588 0.01741091881859785
 0.0024666796600356397 0.017413793929798322 -0.0021121721471545653 -0.010943980315134872 0.0076291995498289885 0.035255711828265916 0.9904518214243612 -0.08339739767338539
 -0.002110838915687154 -0.010944076474694715 0.002485856885249588 0.01741091881859785 0.9904518214243612 -0.08339739767338539 0.007627468390486595 0.03525574236160816
0.1250521050438 0.008143431526480161 0.03727440722061222 0.9897730079509228 -0.08792521605753503 0.0027018851723910335 0.018326162158058584 -0.0023108308647959686 -0.011519219931251962
 0.9897730079509228 -0.08792521605753503 0.008139677820195436 0.037274599978101786 -0.0023123038194893374 -0.011519105057844902 0.002723145507115281 0.01832289273708442
 0.0027018851723910335 0.018326162158058584 -0.0023123038194893374 -0.011519105057844902 0.008142590586623394 0.037276076041212115 0.9897731085317673 -0.08792351564706094
 -0.0023108308647959686 -0.011519219931251962 0.002723145507115281 0.01832289273708442 0.9897731085317673 -0.08792351564706094 0.008140670870648226 0.037276104677034815
0.131304710296 0.008678970565813095 0.03930857559077014 0.989065853680557 -0.0924637771001934 0.0029485251771467643 0.01923695829519982 -0.002520628422682409 -0.01209308228715313
 0.989065853680557 -0.0924637771001934 0.008674830005537726 0.039308786764047615 -0.002522247648329032 -0.012092946755157612 0.0029719768028268504 0.01923325938943561
 0.0029485251771467643 0.01923695829519982 -0.002522247648329032 -0.012092946755157612 0.008678041805715336 0.0393103256306713 0.9890659651510375 -0.09246198800837077
 -0.002520628422682409 -0.01209308228715313 0.0029719768028268504 0.01923325938943561 0.9890659651510375 -0.09246198800837077 0.00867592344213143 0.03931035170826602
0.1375573155481 0.009117358353304798 0.04109009032053842 0.98844954089339 -0.09674806912137819 0.003176430300435474 0.020119399404349404 -0.00271003839640571 -0.012638924708192282
 0.98844954089339 -0.09674806912137819 0.009112811980263336 0.041090319418037334 -0.002711813707085713 -0.01263876828157818 0.0032021229072124713 0.02011527520911946
 0.003176430300435474 0.020119399404349404 -0.002711813707085713 -0.01263876828157818 0.009116338130930293 0.041091921304320475 0.9884496637684269 -0.09674619101340177
 -0.00271003839640571 -0.012638924708192282 0.0032021229072124713 0.02011527520911946 0.9884496637684269 -0.09674619101340177 0.009114009895269856 0.041091942821609946
0.1438099208003 0.009571259350200518 0.04286158555574411 0.9878113680712391 -0.10102087925400778 0.0034135286562039387 0.02099795954041904 -0.002907012805112868 -0.013181193144212393
 0.9878113680712391 -0.10102087925400778 0.009566287861448329 0.04286183375378096 -0.0029089512517717 -0.013181013900077261 0.0034415599038111803 0.020993377841573665
 0.0034135286562039387 0.02099795954041904 -0.0029089512517717 -0.013181013900077261 0.009570143266565606 0.04286349716890378 0.9878115030209929 -0.1010189116051035
 -0.002907012805112868 -0.013181193144212393 0.0034415599038111803 0.020993377841573665 0.9878115030209929 -0.1010189116051035 0.009567594800924053 0.04286351346772583
0.1500625260525 0.010040504695390239 0.044622894856363074 0.9871515086997296 -0.10528208283860613 0.0036597329944050793 0.021872538648976498 -0.0031114663395338847 -0.0137197925221201
 0.9871515086997296 -0.10528208283860613 0.0100350887307661 0.04462316340451191 -0.0031135749559348556 -0.01371958846034677 0.003690199889734556 0.021867466063741636
 0.0036597329944050793 0.021872538648976498 -0.0031135749559348556 -0.01371958846034677 0.010039288332616053 0.04462488677359417 0.9871516564141121 -0.1052800251050677
 -0.0031114663395338847 -0.0137197925221201 0.003690199889734556 0.021867466063741636 0.9871516564141121 -0.1052800251050677 0.010036509205883237 0.04462489719394896
0.15631513130469998 0.01052492421473076 0.046373856766331274 0.9864701372765212 -0.10953155605509639 0.003914954968729799 0.02274303849469792 -0.003323312576597586 -0.014254629886245042
 0.9864701372765212 -0.10953155605509639 0.010519044355198707 0.04637414698981275 -0.003325598378910241 -0.014254398929825567 0.003947953855220051 0.02273744048512766
