! Created with skrf 1.8.0 (http://scikit-rf.org).
# GHz S RI R 50.0 
!freq ReS11 ImS11 ReS12 ImS12 ReS13 ImS13
! ReS14 ImS14
! ReS21 ImS21 ReS22 ImS22 ReS23 ImS23
! ReS24 ImS24
! ReS31 ImS31 ReS32 ImS32 ReS33 ImS33
! ReS34 ImS34
! ReS41 ImS41 ReS42 ImS42 ReS43 ImS43
! ReS44 ImS44
!
0.0 0.001327014707265 0.0 0.9986729852682 0.0 5.102029711135e-05 0.0 -5.102029733445e-05 6.248184382218043e-21
 0.9986729852682 0.0 0.001327014707286 0.0 -5.102029733398e-05 6.248184382160484e-21 5.102029711303e-05 0.0
 5.102029711135e-05 0.0 -5.102029733398e-05 6.248184382160484e-21 0.001327014719512 0.0 0.9986729852805 0.0
 -5.102029733445e-05 6.248184382218043e-21 5.102029711303e-05 0.0 0.9986729852805 0.0 0.001327014719547 0.0
0.005 0.0014272446762554126 0.001082280102376123 0.9985462446478508 -0.002780655146929492 7.178443599461997e-05 0.0005844670598528617 -6.957242951846148e-05 -0.00036307593868083215
 0.9985462446478508 -0.002780655146929492 0.0014272677942138946 0.00108226669156389 -6.957302791115049e-05 -0.0003630764465518114 7.162740948688132e-05 0.0005845265847004413
 7.178443599461997e-05 0.0005844670598528617 -6.957302791115049e-05 -0.0003630764465518114 0.0014272444682029805 0.0010823475254489374 0.9985462449828982 -0.002780588084466925
 -6.957242951846148e-05 -0.00036307593868083215 7.162740948688132e-05 0.0005845265847004413 0.9985462449828982 -0.002780588084466925 0.001427268675274731 0.001082333398654253
0.006252605252188 0.0014533694864282724 0.001357147425458875 0.998513021876764 -0.003476525626306331 7.764428507026006e-05 0.0007308657848907712 -7.473796866831112e-05 -0.00045432903752660574
 0.998513021876764 -0.003476525626306331 0.001453405623635723 0.0013571304361599658 -7.473889944924684e-05 -0.00045432966491158484 7.739894055615452e-05 0.0007309430595636669
 7.764428507026006e-05 0.0007308657848907712 -7.473889944924684e-05 -0.00045432966491158484 0.0014533690930471545 0.001357231702049676 0.9985130223326933 -0.003476441807594503
 -7.473796866831112e-05 -0.00045432903752660574 7.739894055615452e-05 0.0007309430595636669 0.9985130223326933 -0.003476441807594503 0.0014534069334688046 0.001357213807993322
0.01250521050438 0.001589950644583752 0.0027431000134912837 0.9983382759173163 -0.006954025748900559 0.00011086568436691454 0.00146207010502556 -0.00010365787975688153 -0.0009109861575197656
 0.9983382759173163 -0.006954025748900559 0.0015900949326700198 0.0027430637877747873 -0.00010366154343012095 -0.0009109873319052423 0.00010988717361294433 0.0014622552982075225
 0.00011086568436691454 0.00146207010502556 -0.00010366154343012095 -0.0009109873319052423 0.0015899485006317566 0.002743268393963231 0.9983382771692676 -0.00695385837447503
 -0.00010365787975688153 -0.0009109861575197656 0.00010988717361294433 0.0014622552982075225 0.9983382771692676 -0.00695385837447503 0.0015900996023614177 0.0027432302518774765
0.01875781575657 0.0017370237783143729 0.004149145859961443 0.9981485537517735 -0.010441001934157305 0.00015075457896588705 0.0021941469919039085 -0.00013786236267189424 -0.0013693044288367088
 0.9981485537517735 -0.010441001934157305 0.0017373479810638061 0.004149088040977825 -0.00013787052680030212 -0.0013693060579818175 0.00014855613994146273 0.0021944760586314004
 0.00015075457896588705 0.0021941469919039085 -0.00013787052680030212 -0.0013693060579818175 0.001737018531619245 0.004149398363979478 0.9981485561443727 -0.010440751126216433
 -0.00013786236267189424 -0.0013693044288367088 0.00014855613994146273 0.0021944760586314004 0.9981485561443727 -0.010440751126216433 0.0017373580697485154 0.004149337480000099
0.02501042100875 0.0018948483308637884 0.005573343525555405 0.9979436550696706 -0.013939178370220464 0.00019738281705015116 0.0029271529769532437 -0.00017743151478687757 -0.0018290906573472676
 0.9979436550696706 -0.013939178370220464 0.001895424055604476 0.005573261674480915 -0.00017744592408439725 -0.0018290926352075565 0.00019347727993664608 0.0029276669763700653
 0.00019738281705015116 0.0029271529769532437 -0.00017744592408439725 -0.0018290926352075565 0.0018948386222014458 0.005573680242859031 0.9979436589406504 -0.013938844231737945
 -0.00017743151478687757 -0.0018290906573472676 0.00019347727993664608 0.0029276669763700653 0.9979436589406504 -0.013938844231737945 0.0018954416228962527 0.0055735940122541615
0.03126302626094 0.0020636728050802515 0.007014710764376854 0.9977233682158831 -0.017449313116951633 0.0002508231725005413 0.0036610751507711995 -0.00022244344905565357 -0.0022902172087854666
 0.9977233682158831 -0.017449313116951633 0.0020645715420049776 0.007014602367091534 -0.00022246582932444986 -0.0022902194152905698 0.00024472249288833334 0.00366182027639748
 0.0002508231725005413 0.0036610751507711995 -0.00022246582932444986 -0.0022902194152905698 0.002063657271659566 0.007015131838273719 0.9977233738995637 -0.01744889574827221
 -0.00022244344905565357 -0.0022902172087854666 0.00024472249288833334 0.00366182027639748 0.9977233738995637 -0.01744889574827221 0.0020645986528369086 0.007015017551872894
0.037515631513130004 0.0022437404855788217 0.008472619907085992 0.997487476034776 -0.02097180267176307 0.0003111485275021619 0.004395873551825138 -0.0002729748984561915 -0.0027525796000610015
 0.997487476034776 -0.02097180267176307 0.002245033634397245 0.008472482378190075 -0.0002730069587228151 -0.0027525819010649367 0.00030236356617307657 0.004396901185851107
 0.0003111485275021619 0.004395873551825138 -0.0002730069587228151 -0.0027525819010649367 0.0022437177641220774 0.008473125527019957 0.9974874838646473 -0.020971302178154613
 -0.0002729748984561915 -0.0027525796000610015 0.00030236356617307657 0.004396901185851107 0.9974874838646473 -0.020971302178154613 0.0022450723619193247 0.008472980374964518
0.043768236765320004 0.002435291654640562 0.00994661386450943 0.9972357582131359 -0.024506865907589638 0.0003784314974523589 0.005131494065498944 -0.000329101447241984 -0.0032160835868109998
 0.9972357582131359 -0.024506865907589638 0.002437050545008207 0.009946444550402037 -0.0003291448810046263 -0.003216085834099395 0.0003664719055960984 0.005132860840651822
 0.0003784314974523589 0.005131494065498944 -0.0003291448810046263 -0.003216085834099395 0.0024352603795339657 0.009947204268997877 0.9972357685190127 -0.02450628239655499
 -0.000329101447241984 -0.0032160835868109998 0.0003664719055960984 0.005132860840651822 0.9972357685190127 -0.02450628239655499 0.002437102969078982 0.009947025343301608
0.050020842017509996 0.002638564626758471 0.011436330092149068 0.9969679924441777 -0.02805462004782386 0.00045274421991396474 0.005867873734173886 -0.000390897621703425 -0.0036806398424591774
 0.9969679924441777 -0.02805462004782386 0.002640860536562126 0.011436126273323351 -0.00039095410781314415 -0.0036806418737590145 0.0004371183795375985 0.005869641598814318
 0.00045274421991396474 0.005867873734173886 -0.00039095410781314415 -0.0036806418737590145 0.002638523430376176 0.011437005561006025 0.9969680055516811 -0.028053953637040663
 -0.000390897621703425 -0.0036806398424591774 0.0004371183795375985 0.005869641598814318 0.9969680055516811 -0.028053953637040663 0.0026409287435934952 0.011436789857488807
0.055454545454549996 0.0028249185471297482 0.012743468876947576 0.9967220893281068 -0.031148074712351835 0.000523088804967057 0.006508372902140062 -0.0004492619108746656 -0.004085140252452252
 0.9967220893281068 -0.031148074712351835 0.002827739001628042 0.012743232814257419 -0.0004493310923894852 -0.004085141953369209 0.0005038766241182135 0.006510543813871458
 0.000523088804967057 0.006508372902140062 -0.0004493310923894852 -0.004085141953369209 0.0028248676184252143 0.0127442185287029 0.9967221051327904 -0.03114733636270692
 -0.0004492619108746656 -0.004085140252452252 0.0005038766241182135 0.006510543813871458 0.9967221051327904 -0.03114733636270692 0.002827822625782001 0.012743968350854527
0.056273447269699996 0.002853796291256731 0.012941463250975751 0.9966839551030612 -0.03161511794488795 0.0005341582090714454 0.006604943373971987 -0.00045843692477261027 -0.004146161332646305
 0.9966839551030612 -0.03161511794488795 0.002856700463092757 0.012941222144048978 -0.0004585081280411985 -0.0041461629716556215 0.0005143732071156826 0.006607179658760399
 0.0005341582090714454 0.006604943373971987 -0.0004585081280411985 -0.0041461629716556215 0.002853743806101828 0.012942224106103878 0.9966839713351155 -0.03161436876157507
 -0.00045843692477261027 -0.004146161332646305 0.0005143732071156826 0.006607179658760399 0.9966839713351155 -0.03161436876157507 0.0028567865481426407 0.012941968525937143
0.06252605252188 0.0030812224133658635 0.014461744701835278 0.9963834216834275 -0.03518836852593714 0.0006227442483187346 0.007342629001739564 -0.0005317918370712897 -0.004612561881466059
 0.9963834216834275 -0.03518836852593714 0.003084806070194236 0.014461463460985008 -0.0005318794087004366 -0.004612562937885058 0.0005983058725201457 0.007345406487072904
 0.0006227442483187346 0.007342629001739564 -0.0005318794087004366 -0.004612562937885058 0.0030811572713272655 0.014462591306957626 0.9963834413584153 -0.0351875367074188
 -0.0005317918370712897 -0.004612561881466059 0.0005983058725201457 0.007345406487072904 0.9963834413584153 -0.0351875367074188 0.0030849121359852625 0.01446229265763215
0.06877865777407 0.0033210778014427554 0.015996930263740727 0.9960661671027404 -0.038774348976336664 0.0007185722998481297 0.00808085268798864 -0.0006110338027655473 -0.005079755313840736
 0.9960661671027404 -0.038774348976336664 0.0033254121617947727 0.015996605981877483 -0.0006111393807411375 -0.0050797555833958785 0.0006889850499309343 0.008084249671848589
 0.0007185722998481297 0.00808085268798864 -0.0006111393807411375 -0.0050797555833958785 0.00332099863564026 0.015997863023099163 0.9960661905354085 -0.03877343467141186
 -0.0006110338027655473 -0.005079755313840736 0.0006889850499309343 0.008084249671848589 0.9960661905354085 -0.03877343467141186 0.0033255403198159945 0.015997518019207922
0.07503126302626001 0.003573596400230373 0.017546792454887127 0.9957319659364592 -0.04237301244218391 0.000821711426811729 0.008819533098087053 -0.0006962332035033629 -0.005547654911903423
 0.9957319659364592 -0.04237301244218391 0.0035787526931158413 0.017546422164410373 -0.0006963584128056664 -0.005547654176381516 0.0007864785372581932 0.008823633463963332
 0.000821711426811729 0.008819533098087053 -0.0006963584128056664 -0.005547654176381516 0.0035735018447895684 0.017547811813915574 0.995731993436572 -0.04237201581062301
 -0.0006962332035033629 -0.005547654911903423 0.0007864785372581932 0.008823633463963332 0.995731993436572 -0.04237201581062301 0.003578905063477245 0.017547417077414078
0.08128386827845 0.0038390113327370083 0.019111115334736743 0.995380592602751 -0.045984293133763274 0.0009322297225861916 0.009558585848647466 -0.0007874593254361017 -0.006016173058487874
 0.995380592602751 -0.045984293133763274 0.0038450608123201434 0.019110696007931742 -0.0007876057782643696 -0.006016171085773171 0.0008908531939120405 0.009563479133411212
 0.0009322297225861916 0.009558585848647466 -0.0007876057782643696 -0.006016171085773171 0.0038389000237453136 0.01911222178318668 0.99538062447536 -0.04598321434338313
 -0.0007874593254361017 -0.006016173058487874 0.0008908531939120405 0.009563479133411212 0.99538062447536 -0.04598321434338313 0.003845239524126637 0.019111773843307072
0.08753647353064001 0.004117554911336539 0.020689690927908344 0.9950118215198336 -0.04960810984978348 0.001050194244210799 0.01029792375939451 -0.0008847803215119604 -0.00648522098759598
 0.9950118215198336 -0.04960810984978348 0.00412456887183877 0.020689219476949752 -0.0008849496174976689 -0.006485217531688856 0.0010021748814740196 0.010303705220927176
 0.001050194244210799 0.01029792375939451 -0.0008849496174976689 -0.006485217531688856 0.0041174254879830455 0.020690884992098535 0.9950118580649607 -0.04960694908424044
 -0.0008847803215119604 -0.00648522098759598 0.0010021748814740196 0.010303705220927176 0.9950118580649607 -0.04960694908424044 0.0041247760634897405 0.020690380285004868
0.09378907878283 0.004409458627773234 0.02228231667370688 0.9946254272439933 -0.053244368478306346 0.001175670948897087 0.01103745703021004 -0.0009882631703726488 -0.006954708612160361
 0.9946254272439933 -0.053244368478306346 0.004417508418157251 0.022281789950246354 -0.0009884568966594634 -0.006954703413219732 0.0011205084058960742 0.011044227714739134
 0.001175670948897087 0.01103745703021004 -0.0009884568966594634 -0.006954703413219732 0.004409309732463323 0.02228359892423241 0.9946254687559897 -0.05324312592951077
 -0.0009882631703726488 -0.006954708612160361 0.0011205084058960742 0.011044227714739134 0.9946254687559897 -0.05324312592951077 0.00441774623746362 0.0222830337921051
0.100041684035 0.004714953125299015 0.023888793552614775 0.9942211845923207 -0.056892963823414994 0.0013087246325790669 0.011777093376054273 -0.0010979736323069654 -0.007424544396518002
 0.9942211845923207 -0.056892963823414994 0.0047241101640830545 0.023888208347032393 -0.0010981933636920861 -0.007424537180889354 0.0012459174611578513 0.011784960185047603
 0.0013087246325790669 0.011777093376054273 -0.0010981933636920861 -0.007424537180889354 0.00471478340486705 0.023890164599701596 0.9942212313595574 -0.05689163969622726
 -0.0010979736323069654 -0.007424544396518002 0.0012459174611578513 0.011784960185047603 0.9942212313595574 -0.05689163969622726 0.004724380768659509 0.023889535289577157
0.1059090909091 0.005014192653298379 0.025408723756892182 0.9938254125768982 -0.060327901442338266 0.001440529229353051 0.012471173084348985 -0.0012066466792590358 -0.007865669206972719
 0.9938254125768982 -0.060327901442338266 0.005024453756577796 0.02540808069727265 -0.001206892234963842 -0.007865659837734218 0.0013700913886199408 0.012480170989780626
 0.001440529229353051 0.012471173084348985 -0.001206892234963842 -0.007865659837734218 0.00501400216426273 0.025410178722169212 0.9938254645326338 -0.0603265009587187
 -0.0012066466792590358 -0.007865669206972719 0.0013700913886199408 0.012480170989780626 0.9938254645326338 -0.0603265009587187 0.005024757097873883 0.025409485688295246
0.1062942892872 0.005034268161083128 0.02550892467401133 0.9937988687575134 -0.06055378097342292 0.0014494188701198664 0.012516738126745513 -0.0012139762031757836 -0.007894635266711775
 0.9937988687575134 -0.06055378097342292 0.005044603951127627 0.0255082777141865 -0.001214223502132108 -0.007894625746962529 0.0013784645734396766 0.01252581388338239
 0.0014494188701198664 0.012516738126745513 -0.001214223502132108 -0.007894625746962529 0.0050340762670812046 0.02551038516850294 0.9937989210624212 -0.060552375484794155
 -0.0012139762031757836 -0.007894635266711775 0.0013784645734396766 0.01252581388338239 0.9937989210624212 -0.060552375484794155 0.005044909508652989 0.025509687830589493
0.11254689453939999 0.005367632558263581 0.027142514200879472 0.9933582554163667 -0.06422669633514957 0.0015978159557611406 0.013256294309952673 -0.0013363340668386078 -0.008364886540306832
 0.9933582554163667 -0.06422669633514957 0.005379218702296356 0.027141802150539563 -0.0013366104836977193 -0.008364874415247773 0.0015182110457977469 0.013266697824939375
 0.0015978159557611406 0.013256294309952673 -0.0013366104836977193 -0.008364874415247773 0.0053674171481768685 0.027144064837326058 0.9933583135342338 -0.06422520971095472
 -0.0013363340668386078 -0.008364886540306832 0.0015182110457977469 0.013266697824939375 0.9933583135342338 -0.06422520971095472 0.0053795613903037266 0.027143295522992605
0.11879949979160001 0.005715274152083857 0.02878936650724377 0.9928991208317386 -0.0679115784382749 0.0017539768449436328 0.013995662714272638 -0.001465109046132985 -0.008835201878882214
 0.9928991208317386 -0.0679115784382749 0.005728182367295498 0.028788585963965007 -0.0014654161190320075 -0.00883518683361594 0.0016652169029451338 0.014007518851167472
 0.0017539768449436328 0.013995662714272638 -0.0014654161190320075 -0.00883518683361594 0.005715033890064683 0.02879100801832466 0.9928991850315623 -0.0679100109190036
 -0.001465109046132985 -0.008835201878882214 0.0016652169029451338 0.014007518851167472 0.9928991850315623 -0.0679100109190036 0.005728564374208354 0.028790162677599082
0.1250521050438 0.006077419730216327 0.03044928550848835 0.9924212419537616 -0.07160828857016913 0.0019179610959953494 0.014734741944859924 -0.001600361552714392 -0.009305483250924236
 0.9924212419537616 -0.07160828857016913 0.006091721864101087 0.03044843300109285 -0.0016007008076901242 -0.009305464956866237 0.0018195408363757492 0.014748181684583394
 0.0019179610959953494 0.014734741944859924 -0.0016007008076901242 -0.009305464956866237 0.006077153287464812 0.030451018668824978 0.9924213124966806 -0.07160664040695278
 -0.001600361552714392 -0.009305483250924236 0.0018195408363757492 0.014748181684583394 0.9924213124966806 -0.07160664040695278 0.006092145388565624 0.03045009314749096
0.131304710296 0.006454294968153691 0.03212207412830598 0.9919243965160861 -0.07531668127716504 0.002089826812303424 0.01547342847048883 -0.001742150536107992 -0.009775630906130811
 0.9919243965160861 -0.07531668127716504 0.006470063013650289 0.032121146113914006 -0.0017425234871012833 -0.009775609021045125 0.00198124014926632 0.015488588975229246
 0.002089826812303424 0.01547342847048883 -0.0017425234871012833 -0.009775609021045125 0.006454001024027752 0.0321238997547623 0.9919244736558009 -0.07531495273159862
 -0.001742150536107992 -0.009775630906130811 0.00198124014926632 0.015488588975229246 0.9919244736558009 -0.07531495273159862 0.0064705302653337805 0.03212288979090035
0.1375573155481 0.006754559441384167 0.033588039671536306 0.9914999520021793 -0.07881704562284711 0.002247001661020729 0.01618889958785633 -0.0018680371779483777 -0.010222748487252893
 0.9914999520021793 -0.07881704562284711 0.006771872592217219 0.03358705363643311 -0.0018684461925957709 -0.01022272303575172 0.0021280031641291246 0.016205746615623174
 0.002247001661020729 0.01618889958785633 -0.0018684461925957709 -0.01022272303575172 0.006754237378835612 0.03358995830638767 0.9915000360311667 -0.07881523691640527
 -0.0018680371779483777 -0.010222748487252893 0.0021280031641291246 0.016205746615623174 0.9915000360311667 -0.07881523691640527 0.006772385015730834 0.03358888118655967
0.1438099208003 0.007065195752332236 0.03504708022960069 0.991060910192969 -0.08230936640628654 0.0024105534848774084 0.016901973754131463 -0.0019989818002515243 -0.010667727059737729
 0.991060910192969 -0.08230936640628654 0.007084127355057167 0.03504603387427575 -0.0019994285289609633 -0.010667697707108298 0.0022806831166767307 0.016920631429820403
 0.0024105534848774084 0.016901973754131463 -0.0019994285289609633 -0.010667697707108298 0.007064844391482451 0.03504909270583149 0.9910610013606977 -0.08230747781100438
 -0.0019989818002515243 -0.010667727059737729 0.0022806831166767307 0.016920631429820403 0.9910610013606977 -0.08230747781100438 0.00708468703814175 0.03504794544845405
0.1500625260525 0.007386104795152007 0.036499098199548524 0.990607373401892 -0.08579358192319934 0.0025804336000350638 0.01761259412063533 -0.00213493809885437 -0.011110513990466104
 0.990607373401892 -0.08579358192319934 0.00740672838983725 0.03649798905296587 -0.002135424190703247 -0.011110480388466893 0.0024392335944561595 0.017633191072971125
 0.0025804336000350638 0.01761259412063533 -0.002135424190703247 -0.011110480388466893 0.007385722972826034 0.03650120538522578 0.990607471950543 -0.08579161371979119
 -0.00213493809885437 -0.011110513990466104 0.0024392335944561595 0.017633191072971125 0.990607471950543 -0.08579161371979119 0.007407337422115688 0.036499984811920225
0.15631513130469998 0.007717186881131836 0.03794399906451186 0.9901394443272176 -0.08926963020514893 0.002756592825429225 0.018320704657216715 -0.00227585926904987 -0.011551057677219208
