! Created with skrf 1.8.0 (http://scikit-rf.org).
# GHz S RI R 50.0 
!freq ReS11 ImS11 ReS12 ImS12 ReS13 ImS13
! ReS14 ImS14
! ReS21 ImS21 ReS22 ImS22 ReS23 ImS23
! ReS24 ImS24
! ReS31 ImS31 ReS32 ImS32 ReS33 ImS33
! ReS34 ImS34
! ReS41 ImS41 ReS42 ImS42 ReS43 ImS43
! ReS44 ImS44
!
0.0 0.001623011659739 0.0 0.9983769883289 0.0 6.307635061866e-05 0.0 -6.307635026348e-05 7.724625045206809e-21
 0.9983769883289 0.0 0.001623011659753 0.0 -6.307635026354e-05 7.724625045214158e-21 6.307635061884e-05 0.0
 6.307635061866e-05 0.0 -6.307635026354e-05 7.724625045214158e-21 0.001623011665426 0.0 0.9983769883346 0.0
 -6.307635026348e-05 7.724625045206809e-21 6.307635061884e-05 0.0 0.9983769883346 0.0 0.001623011665442 0.0
0.005 0.0017465588432753728 0.001321216937934917 0.9982206393847797 -0.0033998389225806036 8.941826524406139e-05 0.0007332406811570682 -8.666065550575031e-05 -0.00045350058419925236
 0.9982206393847797 -0.0033998389225806036 0.0017465374472893738 0.0013212293869827327 -8.66614461943062e-05 -0.00045350110652691493 8.954334467268057e-05 0.0007331929128464696
 8.941826524406139e-05 0.0007332406811570682 -8.66614461943062e-05 -0.00045350110652691493 0.0017465584861792276 0.0013211498199703245 0.9982206390165824 -0.0033999059809769108
 -8.666065550575031e-05 -0.00045350058419925236 8.954334467268057e-05 0.0007331929128464696 0.9982206390165824 -0.0033999059809769108 0.0017465370736280887 0.0013211623930208737
0.006252605252188 0.0017790398379875314 0.0016567373329820906 0.9981792658147352 -0.0042506210556502695 9.696880048255654e-05 0.0009168845499474505 -9.336089523451369e-05 -0.00056746609880433
 0.9981792658147352 -0.0042506210556502695 0.0017790063928932469 0.0016567531718847288 -9.336212628336383e-05 -0.0005674667409424157 9.716422329498028e-05 0.0009168225300427936
 9.696880048255654e-05 0.0009168845499474505 -9.336212628336383e-05 -0.0005674667409424157 0.0017790393583586722 0.0016566534227958187 0.9981792653171468 -0.004250704886615518
 -9.336089523451369e-05 -0.00056746609880433 9.716422329498028e-05 0.0009168225300427936 0.9981792653171468 -0.004250704886615518 0.0017790058864013 0.0016566694310653223
0.01250521050438 0.0019504821462847353 0.0033482994896723455 0.9979594023901448 -0.008501995713237247 0.0001404012838860919 0.0018339918125205579 -0.00013159995971960344 -0.0011376677139920673
 0.9979594023901448 -0.008501995713237247 0.0019503486091921884 0.0033483339658846073 -0.00013160481938158635 -0.0011376688785999479 0.00014118052740877244 0.0018338427589797818
 0.0001404012838860919 0.0018339918125205579 -0.00013160481938158635 -0.0011376688785999479 0.001950480805362247 0.0033481318953656764 0.99795940096677 -0.008502163115190477
 -0.00013159995971960344 -0.0011376677139920673 0.00014118052740877244 0.0018338427589797818 0.99795940096677 -0.008502163115190477 0.0019503471439530722 0.0033481668589102724
0.01875781575657 0.00213772900346011 0.005063973162996256 0.9977171133239014 -0.012764459093210745 0.00019347782474268653 0.0027519687783721623 -0.00017791579295235523 -0.0017097192271845413
 0.9977171133239014 -0.012764459093210745 0.002137428957409983 0.005064029269034013 -0.00017792664149670197 -0.0017097207673228225 0.0001952281738037149 0.002751702565560146
 0.00019347782474268653 0.0027519687783721623 -0.00017792664149670197 -0.0017097207673228225 0.0021377264316697567 0.005063721951525131 0.9977171105437973 -0.012764709999235312
 -0.00017791579295235523 -0.0017097192271845413 0.0001952281738037149 0.002751702565560146 0.9977171105437973 -0.012764709999235312 0.0021374260722559655 0.005063779024764155
0.02501042100875 0.002341158339150713 0.006801322749775551 0.9974521022320697 -0.017040056158936064 0.00025630324058797304 0.0036708529651476064 -0.00023242609713854218 -0.002283337343685551
 0.9974521022320697 -0.017040056158936064 0.0023406255111453798 0.006801403651269824 -0.0002324452701859509 -0.0022833390829936785 0.00025941203493155357 0.0036704345295544166
 0.00025630324058797304 0.0036708529651476064 -0.0002324452701859509 -0.0022833390829936785 0.0023411541824567015 0.006800987984821671 0.9974520976648693 -0.017040390539099816
 -0.00023242609713854218 -0.002283337343685551 0.00025941203493155357 0.0036704345295544166 0.9974520976648693 -0.017040390539099816 0.002340620741214917 0.006801070509419532
0.03126302626094 0.0025611324333335607 0.008559083633305738 0.9971640582479646 -0.021329648400408102 0.0003289824845733324 0.004590592428767173 -0.0002952448917729832 -0.002858321212699244
 0.9971640582479646 -0.021329648400408102 0.0025603006569503996 0.008559192665062684 -0.00029527470442361004 -0.002858322945059689 0.00033383747509868085 0.004589981741804423
 0.0003289824845733324 0.004590592428767173 -0.00029527470442361004 -0.002858322945059689 0.002561126352799598 0.008558665380921667 0.9971640514629055 -0.02133006625615223
 -0.0002952448917729832 -0.002858321212699244 0.00033383747509868085 0.004589981741804423 0.9971640514629055 -0.02133006625615223 0.0025602935341449834 0.008558776882238266
0.037515631513130004 0.002798005512958775 0.010336422755616628 0.9968526639062496 -0.025633653200851095 0.00041161967348226936 0.005511099804947364 -0.00036648338561291955 -0.003434498411883512
 0.9968526639062496 -0.025633653200851095 0.002796808702934475 0.010336563419950531 -0.00036652613440462474 -0.0034344999012684892 0.0004186091781534723 0.005510251824945117
 0.00041161967348226936 0.005511099804947364 -0.00036652613440462474 -0.0034344999012684892 0.0027979971819983435 0.010335921103010058 0.9968526544688763 -0.025634154546240157
 -0.00036648338561291955 -0.003434498411883512 0.0004186091781534723 0.005510251824945117 0.9968526544688763 -0.025634154546240157 0.0027967987544177068 0.010336065288742646
0.043768236765320004 0.003052126679742183 0.012132713624395022 0.9965175983561785 -0.02995226875967982 0.0005043176207372829 0.00643226874628957 -0.000446250284166102 -0.004011708527917379
 0.9965175983561785 -0.02995226875967982 0.0030504988118307407 0.012132889590265209 -0.0004463082482347471 -0.004011709508298143 0.0005138305944926918 0.006431133364022048
 0.0005043176207372829 0.00643226874628957 -0.0004463082482347471 -0.004011709508298143 0.0030521157865875466 0.012132128669271007 0.9965175858300122 -0.02995285363214096
 -0.000446250284166102 -0.004011708527917379 0.0005138305944926918 0.006431133364022048 0.9965175858300122 -0.02995285363214096 0.003050485562735083 0.012132309428883568
0.050020842017509996 0.003323841268192854 0.013947443314284307 0.9961585390062749 -0.03428556701999639 0.0006071775485259263 0.007353980719732834 -0.0005346518955552376 -0.004589796377359248
 0.9961585390062749 -0.03428556701999639 0.0033217163610706002 0.013947658417143778 -0.0005347273372605289 -0.004589796552605486 0.0006196036076928402 0.007352502701403585
 0.0006071775485259263 0.007353980719732834 -0.0005347273372605289 -0.004589796552605486 0.0033238275143246125 0.013946775171589716 0.996158522950773 -0.034286235473627746
 -0.0005346518955552376 -0.004589796377359248 0.0006196036076928402 0.007352502701403585 0.996158522950773 -0.034286235473627746 0.003321699333814297 0.013946996576487668
0.055454545454549996 0.00357452336863507 0.015539126175152603 0.995826768522436 -0.03806325338874092 0.000704895977104462 0.008155318615121459 -0.0006185687926311469 -0.005092766015102195
 0.995826768522436 -0.03806325338874092 0.003571912955539569 0.015539378533681225 -0.0006186612474992203 -0.005092765226757198 0.0007201705234310469 0.0081534939553933
 0.000704895977104462 0.008155318615121459 -0.0006186612474992203 -0.005092765226757198 0.0035745068982456604 0.015538385843174424 0.995826749039367 -0.03806399453730352
 -0.0006185687926311469 -0.005092766015102195 0.0007201705234310469 0.0081534939553933 0.995826749039367 -0.03806399453730352 0.0035718922570129267 0.01553864601826833
0.056273447269699996 0.0036134915279790116 0.01578016682849235 0.9957751624985238 -0.03863353923823259 0.0007202988782393176 0.008276108342291479 -0.0006317921468107461 -0.0051686086926468955
 0.9957751624985238 -0.03863353923823259 0.003610803626893084 0.015780425070658587 -0.000631887312122632 -0.0051686077364781905 0.0007360282973143804 0.00827422727146591
 0.0007202988782393176 0.008276108342291479 -0.000631887312122632 -0.0051686077364781905 0.0036134746302739014 0.01577941562651054 0.9957751424696898 -0.03863429134766438
 -0.0006317921468107461 -0.0051686086926468955 0.0007360282973143804 0.00827422727146591 0.9957751424696898 -0.03863429134766438 0.0036107823436876034 0.015779681930640298
0.06252605252188 0.003921416986196388 0.017630482002348322 0.995367145364487 -0.04299612101595252 0.0008437790603401368 0.009198517222253495 -0.0007377725540701792 -0.005747992307369769
 0.995367145364487 -0.04299612101595252 0.00391810014671496 0.017630787553952726 -0.0007378896726714717 -0.005747989863291725 0.0008632027503522738 0.009196167441487662
 0.0008437790603401368 0.009198517222253495 -0.0007378896726714717 -0.005747989863291725 0.003921396675051732 0.01762964789404057 0.995367120913048 -0.04299695686516707
 -0.0007377725540701792 -0.005747992307369769 0.0008632027503522738 0.009196167441487662 0.995367120913048 -0.04299695686516707 0.003918074129022753 0.0176299635350269
0.06877865777407 0.004247954624432233 0.019498014555876905 0.9949341645029356 -0.047373207188055516 0.0009777134243941085 0.010121067063744459 -0.000852692167728456 -0.006327793083559759
 0.9949341645029356 -0.047373207188055516 0.004243942897657419 0.01949837175616257 -0.0008528334531762491 -0.006327788764797458 0.001001222898336572 0.010118177616306383
 0.0009777134243941085 0.010121067063744459 -0.0008528334531762491 -0.006327788764797458 0.004247930645678561 0.019497097709786786 0.9949341351747167 -0.04737412687930889
 -0.000852692167728456 -0.006327793083559759 0.001001222898336572 0.010118177616306383 0.9949341351747167 -0.04737412687930889 0.0042439116678014855 0.019497467310631574
0.07503126302626001 0.004593438952754254 0.021382408609595106 0.9944758975560375 -0.05176466125347819 0.001122195042746537 0.011043612373963927 -0.0009766475006624054 -0.006907855242103917
 0.9944758975560375 -0.05176466125347819 0.004588666369895706 0.02138282196893785 -0.0009768151502928455 -0.006907848631574554 0.0011501823713614045 0.011040106945967704
 0.001122195042746537 0.011043612373963927 -0.0009768151502928455 -0.006907848631574554 0.004593411067274692 0.0213814092144731 0.9944758628911387 -0.05176566490276689
 -0.0009766475006624054 -0.006907855242103917 0.0011501823713614045 0.011040106945967704 0.9944758628911387 -0.05176566490276689 0.004588629451840051 0.021381837585620567
0.08128386827845 0.004958202015398524 0.02328332038488989 0.9939920232236285 -0.05617032162811454 0.0012773146017159489 0.011966002939671252 -0.0011097324463197398 -0.007488020930127265
 0.9939920232236285 -0.05617032162811454 0.00495260257288663 0.023283794587122816 -0.001109928641139047 -0.007488011580389955 0.0013101723613361364 0.011961799802763353
 0.0012773146017159489 0.011966002939671252 -0.001109928641139047 -0.007488011580389955 0.004958169999531827 0.023282238648493166 0.993991982755682 -0.05617140936630458
 -0.0011097324463197398 -0.007488020930127265 0.0013101723613361364 0.011961799802763353 0.993991982755682 -0.05617140936630458 0.004952559493227377 0.0232827307905081
0.08753647353064001 0.005342573352877339 0.02520041384770306 0.9934822215360114 -0.060590005961131795 0.00144316027737177 0.012888084171789748 -0.0012520381897355571 -0.00806812992660898
 0.9934822215360114 -0.060590005961131795 0.005336080997531848 0.025200953753170538 -0.001252265094261777 -0.008068117359846015 0.0014812814919249895 0.012883096126605141
 0.00144316027737177 0.012888084171789748 -0.001252265094261777 -0.008068117359846015 0.0053425369986381 0.025199249997399815 0.9934821747916228 -0.06059117793330881
 -0.0012520381897355571 -0.00806812992660898 0.0014812814919249895 0.012883096126605141 0.9934821747916228 -0.06059117793330881 0.00533603128637543 0.025199811104095214
0.09378907878283 0.0057468799322064916 0.02713335759788331 0.9929461741001928 -0.06502351421315332 0.001619817615228593 0.013809697354310606 -0.0014036531132459052 -0.008648019450405987
 0.9929461741001928 -0.06502351421315332 0.005739428546471987 0.027133968246873957 -0.0014039128753601494 -0.008648003158383101 0.0016635956926497157 0.013803831674743446
 0.001619817615228593 0.013809697354310606 -0.0014039128753601494 -0.008648003158383101 0.00574683904824086 0.027132111878437788 0.9929461205988214 -0.06502477058061858
 -0.0014036531132459052 -0.008648019450405987 0.0016635956926497157 0.013803831674743446 0.9929461205988214 -0.06502477058061858 0.005739371738592424 0.02713274734062375
0.100041684035 0.0061714460563760815 0.029081822595419516 0.9923835643278364 -0.06947063090481274 0.0018073694119897852 0.014730679843729381 -0.0015646626984452039 -0.009227524024488924
 0.9923835643278364 -0.06947063090481274 0.00616296944306317 0.02908250921229888 -0.0015649574490842462 -0.009227503468551109 0.0018571980764559347 0.01472383822221262
 0.0018073694119897852 0.014730679843729381 -0.0015649574490842462 -0.009227503468551109 0.006171400467279483 0.02908049527313151 0.992383503580255 -0.06947197184095684
 -0.0015646626984452039 -0.009227524024488924 0.0018571980764559347 0.01472383822221262 0.992383503580255 -0.06947197184095684 0.006162905078481725 0.02908121068284137
0.1059090909091 0.006588568620785548 0.030924074216334127 0.9918311763337735 -0.07365595094569201 0.001993346511386607 0.0155942024266722 -0.0017243709714900956 -0.009770827650764109
 0.9918311763337735 -0.07365595094569201 0.006579069650904529 0.030924837040531946 -0.0017247004779261824 -0.009770802576587441 0.00204921131629587 0.015586350558384454
 0.001993346511386607 0.0155942024266722 -0.0017247004779261824 -0.009770802576587441 0.006588518472293149 0.030922670577092897 0.9918311083341325 -0.0736573714115347
 -0.0017243709714900956 -0.009770827650764109 0.00204921131629587 0.015586350558384454 0.9918311083341325 -0.0736573714115347 0.006578997782842244 0.030923466278422806
0.1062942892872 0.006616593255666879 0.031045480459038766 0.9917940776495132 -0.07393112680113494 0.0020058955988544176 0.01565086522376603 -0.001735149425684873 -0.009806475391944599
 0.9917940776495132 -0.07393112680113494 0.006607025123549063 0.0310462484568526 -0.0017354812786383594 -0.009806450003005028 0.0020621688187703047 0.015642943717557086
 0.0020058955988544176 0.01565086522376603 -0.0017354812786383594 -0.009806450003005028 0.006616542803330224 0.031044071817825286 0.9917940091581825 -0.07393255249509587
 -0.001735149425684873 -0.009806475391944599 0.0020621688187703047 0.015642943717557086 0.9917940091581825 -0.07393255249509587 0.006606952748969521 0.03104487297312145
0.11254689453939999 0.007082640168216851 0.03302400216088458 0.991177401720577 -0.07840476020778332 0.0022154731263221996 0.01657008344084793 -0.0019151926711059148 -0.010384702458318011
 0.991177401720577 -0.07840476020778332 0.007071914116494229 0.03302485714664848 -0.0019155637226554228 -0.0103846716368617 0.0022785850389663107 0.016560972419490415
 0.0022154731263221996 0.01657008344084793 -0.0019155637226554228 -0.0103846716368617 0.007082584711649418 0.033022512505937754 0.991177324978617 -0.07840627086067604
 -0.0019151926711059148 -0.010384702458318011 0.0022785850389663107 0.016560972419490415 0.991177324978617 -0.07840627086067604 0.0070718332862499626 0.03302340541631893
0.11879949979160001 0.007569902409649955 0.035017057027745595 0.9905332266200374 -0.08289127796911437 0.0024361758495988267 0.017488160918031216 -0.0021048686025124945 -0.01096203126280629
 0.9905332266200374 -0.08289127796911437 0.007557951913317715 0.03501800480828575 -0.0021052809312150354 -0.010961994378906376 0.0025065206825682553 0.01747774501199432
 0.0024361758495988267 0.017488160918031216 -0.0021052809312150354 -0.010961994378906376 0.007569841825575146 0.03501548668176006 0.9905331411102789 -0.0828928737974857
 -0.0021048686025124945 -0.01096203126280629 0.0025065206825682553 0.01747774501199432 0.9905331411102789 -0.0828928737974857 0.007557862190160468 0.03501647757420809
0.1250521050438 0.008078692435723745 0.037024311943922764 0.9898612450442835 -0.08739041627323213 0.002668074415412866 0.01840492065733742 -0.002304250073842595 -0.011538284968396276
 0.9898612450442835 -0.08739041627323213 0.0080654508303861 0.03702535853236358 -0.0023047057401472787 -0.011538241361712227 0.0027460464048206143 0.018393078708026676
 0.002668074415412866 0.01840492065733742 -0.0023047057401472787 -0.011538241361712227 0.00807862661886782 0.03702266124837883 0.9898611502392701 -0.08739209750761831
 -0.002304250073842595 -0.011538284968396276 0.0027460464048206143 0.018393078708026676 0.9898611502392701 -0.08739209750761831 0.008065351786553604 0.03702375657390967
0.131304710296 0.008609319398204977 0.0390454307283257 0.9891611524976917 -0.09190190129147284 0.0029112361490124783 0.019320182337304297 -0.0025134065190237473 -0.01211328386441071
 0.9891611524976917 -0.09190190129147284 0.008594719864832675 0.03904658235124712 -0.0025139075649389304 -0.012113232844231707 0.002997229455300709 0.01930678734832386
 0.0029112361490124783 0.019320182337304297 -0.0025139075649389304 -0.012113232844231707 0.008609248261680595 0.03904370004472461 0.9891610478586202 -0.09190366817482429
 -0.0025134065190237473 -0.01211328386441071 0.002997229455300709 0.01930678734832386 0.9891610478586202 -0.09190366817482429 0.008594611083390843 0.03904490648566254
0.1375573155481 0.009043530465955128 0.04081527230523183 0.9885512609347793 -0.09616049688776289 0.0031355729843412484 0.020207130915199552 -0.0027021606348405043 -0.012660309039095572
 0.9885512609347793 -0.09616049688776289 0.00902749986796253 0.04081650872638703 -0.002702709853800298 -0.012660250510362502 0.0032297895563653334 0.020192197884595864
 0.0031355729843412484 0.020207130915199552 -0.002702709853800298 -0.012660250510362502 0.009043452836122219 0.040813462430391446 0.988551146007899 -0.09616234954789231
 -0.0027021606348405043 -0.012660309039095572 0.0032297895563653334 0.020192197884595864 0.988551146007899 -0.09616234954789231 0.009027381867148368 0.04081475915424272
0.1438099208003 0.009493102186656737 0.042575193972095166 0.9879197546657678 -0.10040772295448529 0.003368953341770077 0.02109026941705058 -0.0028984582002456924 -0.013203786816401195
 0.9879197546657678 -0.10040772295448529 0.009475572510538762 0.042576519789815165 -0.0028990577434582477 -0.01320372010348959 0.003471752532047611 0.021073681711573068
 0.003368953341770077 0.02109026941705058 -0.0028990577434582477 -0.01320372010348959 0.009493017805864905 0.042573305340269776 0.9879196289139196 -0.10040966162746671
 -0.0028984582002456924 -0.013203786816401195 0.003471752532047611 0.021073681711573068 0.9879196289139196 -0.10040966162746671 0.00947544505728636 0.042574697297297036
0.1500625260525 0.00995786815539394 0.04432503146822098 0.9872668047459204 -0.10464345692887302 0.003611291661208077 0.02196950027002013 -0.0031022147446711622 -0.01374362286846775
 0.9872668047459204 -0.10464345692887302 0.009938771199364947 0.04432645156849682 -0.0031028667547831025 -0.01374354726909845 0.003723030533583969 0.02195113699418714
 0.003611291661208077 0.02196950027002013 -0.0031028667547831025 -0.01374354726909845 0.009957776770783487 0.04432306453324812 0.9872666676227512 -0.10464548185839012
 -0.0031022147446711622 -0.01374362286846775 0.003723030533583969 0.02195113699418714 0.9872666676227512 -0.10464548185839012 0.009938634082142298 0.044324556971212944
0.15631513130469998 0.010437660679769398 0.046064625445747534 0.9865925832222393 -0.1088675770498583 0.003862501316383984 0.02284472767405202 -0.003313344698613508 -0.01427972495881005
 0.9865925832222393 -0.1088675770498583 0.010416928048683364 0.04606614501048787 -0.0033140513096080342 -0.014279639744247974 0.003983534608600492 0.022824463717078216
