! Created with skrf 1.8.0 (http://scikit-rf.org).
# GHz S RI R 50.0 
!freq ReS11 ImS11 ReS12 ImS12 ReS13 ImS13
! ReS14 ImS14
! ReS21 ImS21 ReS22 ImS22 ReS23 ImS23
! ReS24 ImS24
! ReS31 ImS31 ReS32 ImS32 ReS33 ImS33
! ReS34 ImS34
! ReS41 ImS41 ReS42 ImS42 ReS43 ImS43
! ReS44 ImS44
!
0.0 0.001765965632924 0.0 0.9982340343671 0.0 6.85001150507e-05 0.0 -6.850011530701e-05 8.388844695195441e-21
 0.9982340343671 0.0 0.001765965632948 0.0 -6.85001153064e-05 8.388844695120738e-21 6.850011505198e-05 0.0
 6.85001150507e-05 0.0 -6.85001153064e-05 8.388844695120738e-21 0.001765965616023 0.0 0.9982340343502 0.0
 -6.850011530701e-05 8.388844695195441e-21 6.850011505198e-05 0.0 0.9982340343502 0.0 0.001765965616078 0.0
0.005 0.0019007702945466145 0.0014437807428438532 0.9980633704175658 -0.0036984859538137004 9.64147790172753e-05 0.0007561169760528025 -9.35855649122609e-05 -0.00047422284633024574
 0.9980633704175658 -0.0036984859538137004 0.001900771368472373 0.0014437802014333767 -9.358507964203169e-05 -0.0004742225568913769 9.640228096404069e-05 0.0007561216695625039
 9.64147790172753e-05 0.0007561169760528025 -9.358507964203169e-05 -0.0004742225568913769 0.0019007704868561357 0.001443847955472514 0.998063370785664 -0.003698418894363786
 -9.35855649122609e-05 -0.00047422284633024574 9.640228096404069e-05 0.0007561216695625039 0.998063370785664 -0.003698418894363786 0.0019007719001949807 0.0014438470955391723
0.006252605252188 0.0019363449295002352 0.0018103758640399287 0.9980180160830441 -0.00462397675240357 0.00010450315906524272 0.0009454980415021493 -0.00010076780740852183 -0.0005933786186999567
 0.9980180160830441 -0.00462397675240357 0.001936346607652778 0.0018103751993649576 -0.00010076705163297903 -0.0005933782637706961 0.00010448363148281394 0.0009455041506135041
 0.00010450315906524272 0.0009454980415021493 -0.00010076705163297903 -0.0005933782637706961 0.00193634517181818 0.001810459879436887 0.9980180166009031 -0.004623892930294637
 -0.00010076780740852183 -0.0005933786186999567 0.00010448363148281394 0.0009455041506135041 0.9980180166009031 -0.004623892930294637 0.0019363473816195469 0.0018104588013700357
0.01250521050438 0.002124894581403939 0.0036583538478288727 0.9977758983817336 -0.009248498860559574 0.00015148661918476349 0.00189125134604853 -0.0001420534955402296 -0.0011894884086868956
 0.9977758983817336 -0.009248498860559574 0.002124901272854854 0.0036583526503750938 -0.00014205050921097578 -0.0011894877761536005 0.0001514087287115325 0.0018912661933448806
 0.00015148661918476349 0.00189125134604853 -0.00014205050921097578 -0.0011894877761536005 0.0021248949760064393 0.003658521642546731 0.9977758998909948 -0.009248331436043759
 -0.0001420534955402296 -0.0011894884086868956 0.0001514087287115325 0.0018912661933448806 0.9977758998909948 -0.009248331436043759 0.002124903808125006 0.0036585194578292192
0.01875781575657 0.002332071653246439 0.0055322560894549375 0.9975073481776942 -0.013884767398092813 0.00020956643520468236 0.0028378582880103924 -0.00019249341917704023 -0.001787435011781644
 0.9975073481776942 -0.013884767398092813 0.0023320866699225637 0.005532254516415104 -0.00019248674876978 -0.0017874341990628852 0.0002093914193207799 0.002837885057922775
 0.00020956643520468236 0.0028378582880103924 -0.00019248674876978 -0.0017874341990628852 0.00233207208788295 0.005532507514852999 0.997507351148914 -0.013884516418454876
 -0.00019249341917704023 -0.001787435011781644 0.0002093914193207799 0.002837885057922775 0.997507351148914 -0.013884516418454876 0.002332091950328579 0.005532504196775725
0.02501042100875 0.00255831691035406 0.007429401558763578 0.9972120180788135 -0.018534970822238747 0.0002788596784445184 0.003785320810770128 -0.0002522183878365501 -0.0023869119029192387
 0.9972120180788135 -0.018534970822238747 0.002558343547926374 0.007429399795034353 -0.0002522065939775113 -0.0023869110287862596 0.0002785487381228178 0.0037853632303268847
 0.0002788596784445184 0.003785320810770128 -0.0002522065939775113 -0.0023869110287862596 0.0025583172588203727 0.00742973645650199 0.9972120229897794 -0.01853463625949065
 -0.0002522183878365501 -0.0023869119029192387 0.0002785487381228178 0.0037853632303268847 0.9972120229897794 -0.01853463625949065 0.0025583525610961416 0.007429731982187295
0.03126302626094 0.0028040527762671196 0.009348380985596719 0.9968895447611218 -0.02320001003358805 0.00035948322501764483 0.004733552587982428 -0.00032135479797323994 -0.0029876922763531592
 0.9968895447611218 -0.02320001003358805 0.002804094317114052 0.009348379244876212 -0.0003213364530623797 -0.0029876914811241793 0.0003589974924769471 0.0047336149311048535
 0.00035948322501764483 0.004733552587982428 -0.0003213364530623797 -0.0029876914811241793 0.0028040528939438066 0.009348799153255195 0.9968895520956457 -0.023199591818804124
 -0.00032135479797323994 -0.0029876922763531592 0.0003589974924769471 0.0047336149311048535 0.9968895520956457 -0.023199591818804124 0.002804108050532705 0.009348793504314326
0.037515631513130004 0.003069691911776779 0.01128825308702891 0.9965395579308254 -0.02788030209294917 0.0004515525901620813 0.005682431838899399 -0.0004000255227752665 -0.003589576266910293
 0.9965395579308254 -0.02788030209294917 0.003069751628840659 0.011288251612513928 -0.0003999992101346825 -0.003589575712589052 0.000450853115627395 0.0056825189324524175
 0.0004515525901620813 0.005682431838899399 -0.0003999992101346825 -0.003589575712589052 0.003069691632161854 0.011288754277478243 0.9965395681765585 -0.02787980011678296
 -0.0004000255227752665 -0.003589576266910293 0.000450853115627395 0.0056825189324524175 0.9965395681765585 -0.02787980011678296 0.0030697710641562287 0.011288747440280397
0.043768236765320004 0.003355640509705544 0.013248299992500372 0.9961616840004773 -0.032576024728699096 0.0005551813635427312 0.00663181739433465 -0.0004883502052917888 -0.004192374920946573
 0.9961616840004773 -0.032576024728699096 0.0033557216683892752 0.013248299057623114 -0.0004883145184676308 -0.004192374791302918 0.0005542291102412844 0.006631934624702683
 0.0005551813635427312 0.00663181739433465 -0.0004883145184676308 -0.004192374791302918 0.0033556396476328776 0.013248883907691592 0.9961616976553781 -0.032575438847679876
 -0.0004883502052917888 -0.004192374920946573 0.0005542291102412844 0.006631934624702683 0.9961616976553781 -0.032575438847679876 0.0033557477854459917 0.013248875873525207
0.050020842017509996 0.0036622998073357876 0.015227926153687352 0.9957555479901499 -0.03728721735954387 0.0006704808509945503 0.007581555351615291 -0.0005864453446260662 -0.004795903582922838
 0.9957555479901499 -0.03728721735954387 0.0036624056687500233 0.015227926062487185 -0.0005863988872358271 -0.004795904083553176 0.000669236694366536 0.007581708671490279
 0.0006704808509945503 0.007581555351615291 -0.0005863988872358271 -0.004795904083553176 0.0036622981556086722 0.01522859244760333 0.9957555655612318 -0.037286547392996895
 -0.0005864453446260662 -0.004795903582922838 0.000669236694366536 0.007581708671490279 0.9957555655612318 -0.037286547392996895 0.0036624394406925766 0.015228583212843129
0.055454545454549996 0.003945924104561666 0.016963774696913323 0.9953793597942902 -0.04139391338124451 0.0007802421813787097 0.008407065929276557 -0.00067971590883701 -0.005320838565745262
 0.9953793597942902 -0.04139391338124451 0.003946054079917458 0.016963775610005526 -0.0006796589651705365 -0.00532083979808411 0.0007787125113366665 0.008407255891299625
 0.0007802421813787097 0.008407065929276557 -0.0006796589651705365 -0.00532083979808411 0.0039459215800342175 0.016964512261030355 0.9953793811881358 -0.0413931701674588
 -0.00067971590883701 -0.005320838565745262 0.0007787125113366665 0.008407255891299625 0.9953793811881358 -0.0413931701674588 0.003946095288105584 0.0169645019838888
0.056273447269699996 0.003990066836301155 0.017226608748176175 0.995320774668994 -0.04201383062756018 0.0007975598110125352 0.00853148234301506 -0.0006944242859984855 -0.00539997867501049
 0.995320774668994 -0.04201383062756018 0.003990200659249592 0.017226609835854282 -0.0006943656715805431 -0.005399980033418399 0.000795984540811544 0.0085316782782232
 0.0007975598110125352 0.00853148234301506 -0.0006943656715805431 -0.005399980033418399 0.003990064164320469 0.01722735702595485 0.9953207966735661 -0.042013076358635854
 -0.0006944242859984855 -0.00539997867501049 0.000795984540811544 0.0085316782782232 0.9953207966735661 -0.042013076358635854 0.003990243051128271 0.017227346591993487
0.06252605252188 0.004339334803493064 0.019243870410087124 0.9948569893347377 -0.04675575361099278 0.0009365242365668254 0.009481427353410479 -0.0008123971638432946 -0.006004415935012409
 0.9948569893347377 -0.04675575361099278 0.004339499847586164 0.019243873043289037 -0.0008123250159293876 -0.006004418400653503 0.0009345785606217145 0.009481673009737665
 0.0009365242365668254 0.009481427353410479 -0.0008123250159293876 -0.006004418400653503 0.0043393308568599465 0.019244700223130205 0.9948570163024305 -0.04675491479168928
 -0.0008123971638432946 -0.006004415935012409 0.0009345785606217145 0.009481673009737665 0.9948570163024305 -0.04675491479168928 0.004339551814710278 0.019244688596366633
0.06877865777407 0.004710493265475225 0.021279262981514103 0.9943638183911131 -0.05151283002453597 0.0010874771632575656 0.01043121281316953 -0.0009404708169866774 -0.006609029387198725
 0.9943638183911131 -0.05151283002453597 0.004710692793147586 0.021279267558671367 -0.0009403837691075949 -0.0066090332315422275 0.0010851217124536437 0.010431515883177533
 0.0010874771632575656 0.01043121281316953 -0.0009403837691075949 -0.0066090332315422275 0.00471048776395748 0.021280173834011925 0.9943638508647741 -0.051511906369377795
 -0.0009404708169866774 -0.006609029387198725 0.0010851217124536437 0.010431515883177533 0.9943638508647741 -0.051511906369377795 0.004710755279127416 0.021280161025690348
0.07503126302626001 0.005103928181089359 0.023332357219311983 0.9938408898096458 -0.05628486847320528 0.0012505184927572941 0.011380655304964056 -0.0010787486867372164 -0.007213630707911848
 0.9938408898096458 -0.05628486847320528 0.005104165460744573 0.02333236417074288 -0.0010786453826784343 -0.007213636224466716 0.0012477138271592414 0.0113810240746934
 0.0012505184927572941 0.011380655304964056 -0.0010786453826784343 -0.007213636224466716 0.005103920818501838 0.023333348563069536 0.9938409283473321 -0.05628385966457361
 -0.0010787486867372164 -0.007213630707911848 0.0012477138271592414 0.0113810240746934 0.9938409283473321 -0.05628385966457361 0.00510423939578682 0.023333334589125766
0.08128386827845 0.005520021889964627 0.02540273595693735 0.9932878335208426 -0.061071649260844574 0.0014257448257925557 0.012329566054147291 -0.001227330704549105 -0.007818028816533084
 0.9932878335208426 -0.061071649260844574 0.005520300197992517 0.02540274574503597 -0.0012272097984043803 -0.007818036320908201 0.0014224514413272232 0.01233000940973755
 0.0014257448257925557 0.012329566054147291 -0.0012272097984043803 -0.007818036320908201 0.00552001233151712 0.025403807189974426 0.9932878786965008 -0.06107055495087706
 -0.001227330704549105 -0.007818028816533084 0.0014224514413272232 0.01233000940973755 0.9932878786965008 -0.06107055495087706 0.005520386496586662 0.02540379207066288
0.08753647353064001 0.005959153036320528 0.027489989376622895 0.9927042817566817 -0.06587292909887685 0.001613249301542283 0.013277751279427766 -0.001386313171796583 -0.008422029615469496
 0.9927042817566817 -0.06587292909887685 0.00595947566016036 0.02749000249582818 -0.0013861733282977309 -0.008422039445379493 0.0016094276374950041 0.013278278713671984
 0.001613249301542283 0.013277751279427766 -0.0013861733282977309 -0.008422039445379493 0.005959140918184454 0.027491139848776984 0.9927043341621639 -0.06587174890422991
 -0.001386313171796583 -0.008422029615469496 0.0016094276374950041 0.013278278713671984 0.9927043341621639 -0.06587174890422991 0.005959575219091746 0.027491123608467973
0.09378907878283 0.006421696460704091 0.029593711649928713 0.992089869365214 -0.07068844445735299 0.0018131214412951085 0.014225012463115964 -0.001555788634873611 -0.009025435820076066
 0.992089869365214 -0.07068844445735299 0.0064220667011425005 0.02959372862667444 -0.0015556285295444201 -0.009025448335382193 0.0018087318882932652 0.014225634081856871
 0.0018131214412951085 0.014225012463115964 -0.0015556285295444201 -0.009025448335382193 0.006421681388656907 0.029594940660022055 0.9920899296115228 -0.07068717796248097
 -0.001555788634873611 -0.009025435820076066 0.0018087318882932652 0.014225634081856871 0.9920899296115228 -0.07068717796248097 0.006422180398103066 0.029594923326662075
0.100041684035 0.006908023064285482 0.0317134984770056 0.9914442341009211 -0.07551791402834256 0.002025446995721719 0.015171146567293937 -0.0017358457560740282 -0.009628046852420195
 0.9914442341009211 -0.07551791402834256 0.0069084442385201434 0.03171351986956546 -0.001735664075594755 -0.009628062435123246 0.0020204499040850535 0.015171873095678665
 0.002025446995721719 0.015171146567293937 -0.001735664075594755 -0.009628062435123246 0.006908004611729292 0.031714805272731475 0.9914443028192728 -0.0755165607862846
 -0.0017358457560740282 -0.009628046852420195 0.0020204499040850535 0.015171873095678665 0.9914443028192728 -0.0755165607862846 0.006908572928722429 0.03171478687741155
0.1059090909091 0.007386346346087839 0.0337169437109336 0.9908096571333042 -0.08006228561895479 0.0022360911972158786 0.016057783332592928 -0.0019145096255926673 -0.010192628575613216
 0.9908096571333042 -0.08006228561895479 0.0073868183500516455 0.033716969783130255 -0.001914306514776462 -0.01019264740391218 0.0022304879060213024 0.01605861861904654
 0.0022360911972158786 0.016057783332592928 -0.001914306514776462 -0.01019264740391218 0.007386324304011959 0.03371832277179614 0.9908097343955783 -0.08006085053860558
 -0.0019145096255926673 -0.010192628575613216 0.0022304879060213024 0.01605861861904654 0.9908097343955783 -0.08006085053860558 0.007386961866835742 0.033718303410517174
0.1062942892872 0.00741849965527038 0.03384894525392888 0.9907670169023178 -0.08036104057312941 0.002250307794015441 0.01611594621261373 -0.0019265691825593632 -0.010229658782273582
 0.9907670169023178 -0.08036104057312941 0.007418975099337258 0.03384897165214528 -0.0019263646249268829 -0.010229677836549246 0.002244663482717323 0.016116789001256772
 0.002250307794015441 0.01611594621261373 -0.0019263646249268829 -0.010229677836549246 0.007418477362563932 0.033850329033920476 0.9907670947460787 -0.08035960010407518
 -0.0019265691825593632 -0.010229658782273582 0.002244663482717323 0.016116789001256772 0.9907670947460787 -0.08035960010407518 0.007419119614664123 0.03385030961028559
0.11254689453939999 0.007953488780750369 0.03599964567672574 0.9900578621572468 -0.08521751234434831 0.0024877815955016993 0.01705919983558688 -0.0021280394130121956 -0.0108300642998322
 0.9900578621572468 -0.08521751234434831 0.00795402185247301 0.03599967770167768 -0.0021278106879640724 -0.010830087251989955 0.002481450361374095 0.017060170866517732
 0.0024877815955016993 0.01705919983558688 -0.0021278106879640724 -0.010830087251989955 0.007953462153414985 0.036001105589076154 0.9900579498030969 -0.08521598413788893
 -0.0021280394130121956 -0.0108300642998322 0.002481450361374095 0.017060170866517732 0.9900579498030969 -0.08521598413788893 0.007954182998559206 0.03600108517265221
0.11879949979160001 0.008513348548139288 0.03816519066639754 0.9893164179616696 -0.0900870041994044 0.002737941942850675 0.018000691829905394 -0.0023403326634567696 -0.011429052714488812
 0.9893164179616696 -0.0900870041994044 0.008513942629531623 0.03816522896996467 -0.002340078492694333 -0.01142908001297312 0.00273088407011621 0.018001803722426945
 0.002737941942850675 0.018000691829905394 -0.002340078492694333 -0.01142908001297312 0.00851331705552609 0.03816672581069882 0.9893165161112369 -0.09008538771333684
 -0.0023403326634567696 -0.011429052714488812 0.00273088407011621 0.018001803722426945 0.9893165161112369 -0.09008538771333684 0.008514121184107387 0.03816670443818501
0.1250521050438 0.009098432437065294 0.04034516753353985 0.9885423363712984 -0.09496917848668723 0.0030008580167616723 0.018940202676758267 -0.002563520732313381 -0.012026409975172691
 0.9885423363712984 -0.09496917848668723 0.009099090937513665 0.04034521279784655 -0.0025632398498707004 -0.012026442090564927 0.0029930337870466644 0.018941468693054842
 0.0030008580167616723 0.018940202676758267 -0.0025632398498707004 -0.012026442090564927 0.009098395511155174 0.04034677696101516 0.988542445752636 -0.09496747314789525
 -0.002563520732313381 -0.012026409975172691 0.0029930337870466644 0.018941468693054842 0.988542445752636 -0.09496747314789525 0.009099287648046857 0.04034675466944526
0.131304710296 0.009709089105494258 0.042539159321418135 0.9877352736494389 -0.09986368576618189 0.0032765944923751856 0.019877509070932265 -0.0027976708653988233 -0.012621918705213462
 0.9877352736494389 -0.09986368576618189 0.00970981546428433 0.04253921225820685 -0.0027973620179275295 -0.012621956130181319 0.003267964194820474 0.01987894312155942
 0.0032765944923751856 0.019877509070932265 -0.0027973620179275295 -0.012621956130181319 0.009709046139182961 0.042540842034221864 0.987735395018606 -0.09986189097238107
 -0.0027976708653988233 -0.012621918705213462 0.003267964194820474 0.01987894312155942 0.987735395018606 -0.09986189097238107 0.009710031045725829 0.04254081886002095
0.1375573155481 0.010213256720869434 0.044461445115841 0.9870273623914009 -0.10448468955727412 0.0035325996883780798 0.020784859816522307 -0.003010250441012852 -0.013187849638126735
 0.9870273623914009 -0.10448468955727412 0.010214056176139975 0.044461505307250196 -0.0030099119892251394 -0.013187892471100375 0.003523145718422258 0.02078646087837174
 0.0035325996883780798 0.020784859816522307 -0.0030099119892251394 -0.013187892471100375 0.01021320832260579 0.044463199740363106 0.9870274963237777 -0.10448280492972688
 -0.003010250441012852 -0.013187849638126735 0.003523145718422258 0.02078646087837174 0.9870274963237777 -0.10448280492972688 0.01021429044117827 0.04446317567448313
0.1438099208003 0.010735384000403476 0.04637217755591272 0.9862941063062531 -0.10909252474267964 0.0037988932249149133 0.021687634088672046 -0.0032312686338668416 -0.013749578339453655
 0.9862941063062531 -0.10909252474267964 0.010736260344056734 0.04637224555729314 -0.0032308992726801725 -0.01374962706279237 0.0037885798644533755 0.02168941495193043
 0.0037988932249149133 0.021687634088672046 -0.0032308992726801725 -0.01374962706279237 0.010735329726528079 0.046374002980988274 0.9862942535608448 -0.10909054968793916
 -0.0032312686338668416 -0.013749578339453655 0.0037885798644533755 0.02168941495193043 0.9862942535608448 -0.10909054968793916 0.010736513798156504 0.0463739780059035
0.1500625260525 0.011275264703965471 0.04827115444837496 0.9855357166490726 -0.11368703327541442 0.0040753683297859765 0.022585710767662446 -0.003460621514989761 -0.014306991391973353
 0.9855357166490726 -0.11368703327541442 0.01127622177390156 0.04827123082287741 -0.003460219946604134 -0.014307046506892131 0.004064160121302167 0.022587684687469196
 0.0040753683297859765 0.022585710767662446 -0.003460219946604134 -0.014307046506892131 0.01127520408712091 0.0482730495184029 0.9855358780089153 -0.1136849671792009
 -0.003460621514989761 -0.014306991391973353 0.004064160121302167 0.022587684687469196 0.9855358780089153 -0.1136849671792009 0.011276494880127453 0.048273023605641764
0.15631513130469998 0.011832690856850374 0.05015817963690929 0.9847524060490511 -0.11826805865346295 0.004361916807094085 0.023478971132017024 -0.0036982037301057148 -0.014859978061161433
 0.9847524060490511 -0.11826805865346295 0.011833732538460134 0.05015826495385491 -0.0036977686643207297 -0.01486004008750387 0.004349778558247918 0.023481151822822368
