! Created with skrf 1.8.0 (http://scikit-rf.org).
# GHz S RI R 50.0 
!freq ReS11 ImS11 ReS12 ImS12 ReS13 ImS13
! ReS14 ImS14
! ReS21 ImS21 ReS22 ImS22 ReS23 ImS23
! ReS24 ImS24
! ReS31 ImS31 ReS32 ImS32 ReS33 ImS33
! ReS34 ImS34
! ReS41 ImS41 ReS42 ImS42 ReS43 ImS43
! ReS44 ImS44
!
0.0 0.001678119177407 0.0 0.9983218808169 0.0 6.53602853863e-05 0.0 -6.536028591995e-05 8.004326494322259e-21
 0.9983218808169 0.0 0.00167811917742 0.0 -6.536028591967e-05 8.004326494287968e-21 6.536028538751e-05 0.0
 6.53602853863e-05 0.0 -6.536028591967e-05 8.004326494287968e-21 0.001678119177409 0.0 0.9983218808169 0.0
 -6.536028591995e-05 8.004326494322259e-21 6.536028538751e-05 0.0 0.9983218808169 0.0 0.001678119177431 0.0
0.005 0.0018060411799987553 0.0013648973320705975 0.9981599538534216 -0.0035151495424960624 9.295504205982481e-05 0.0007658640928822849 -9.000103639679002e-05 -0.00047264360515821853
 0.9981599538534216 -0.0035151495424960624 0.00180602989663719 0.0013649038796086038 -9.00022396529792e-05 -0.00047264443429921577 9.302250973711076e-05 0.0007658383679304138
 9.295504205982481e-05 0.0007658640928822849 -9.00022396529792e-05 -0.00047264443429921577 0.0018060406532295257 0.0013648303011797145 0.9981599534786284 -0.0035152166108851964
 -9.000103639679002e-05 -0.00047264360515821853 9.302250973711076e-05 0.0007658383679304138 0.9981599534786284 -0.0035152166108851964 0.0018060296854213755 0.0013648367865668986
0.006252605252188 0.0018397228571916612 0.0017115078281918611 0.9981170287852112 -0.00439477927651226 0.00010090547185879421 0.0009576717917015928 -9.702780584148396e-05 -0.0005914178482032278
 0.9981170287852112 -0.00439477927651226 0.0018397052195188337 0.0017115161396495512 -9.702967895591148e-05 -0.0005914188682870376 0.00010101088299630498 0.0009576383781017527
 0.00010090547185879421 0.0009576717917015928 -9.702967895591148e-05 -0.0005914188682870376 0.0018397221139801316 0.0017114240361087271 0.9981170282788651 -0.004394863113760093
 -9.702780584148396e-05 -0.0005914178482032278 0.00010101088299630498 0.0009576383781017527 0.9981170282788651 -0.004394863113760093 0.0018397049686007232 0.0017114322853399625
0.01250521050438 0.002017796242403666 0.003458951912167082 0.9978884899443827 -0.008790254574045487 0.00014685214996493497 0.0019155101402032679 -0.0001372711811271872 -0.001185656020085491
 0.9978884899443827 -0.008790254574045487 0.002017725821056813 0.0034589698134441568 -0.00013727857198155387 -0.0011856578786961303 0.00014727248827845467 0.00191542967074546
 0.00014685214996493497 0.0019155101402032679 -0.00013727857198155387 -0.0011856578786961303 0.002017793846987473 0.0034587846004078596 0.9978884884801569 -0.008790421997882592
 -0.0001372711811271872 -0.001185656020085491 0.00014727248827845467 0.00191542967074546 0.9978884884801569 -0.008790421997882592 0.0020177253731823667 0.003458802534087199
0.01875781575657 0.0022127555808575967 0.005231241139454665 0.9976359608475905 -0.013197099536654698 0.00020331120364733868 0.0028741877296647243 -0.0001862215109018 -0.0017817752388588847
 0.9976359608475905 -0.013197099536654698 0.0022125973515800365 0.005231269998725232 -0.00018623800511060354 -0.0017817777131212825 0.00020425540657265556 0.0028740437162412353
 0.00020331120364733868 0.0028741877296647243 -0.00018623800511060354 -0.0017817777131212825 0.002212750648736845 0.005230990446489224 0.9976359579756999 -0.013197350527347992
 -0.0001862215109018 -0.0017817752388588847 0.00020425540657265556 0.0028740437162412353 0.9976359579756999 -0.013197350527347992 0.002212596759770349 0.0052310195959372405
0.02501042100875 0.002425003169182639 0.007025843570134405 0.9973591254091502 -0.01761741488694269 0.00027039464494888507 0.0038337354194250585 -0.00024400474799019816 -0.0023794701771187765
 0.9973591254091502 -0.01761741488694269 0.0024247221821269414 0.007025884832800905 -0.00024403389205258943 -0.0023794729994956665 0.0002720716958371806 0.003833508618143187
 0.00027039464494888507 0.0038337354194250585 -0.00024403389205258943 -0.0023794729994956665 0.0024249948319332226 0.007025509685883 0.9973591206722864 -0.017617749469686195
 -0.00024400474799019816 -0.0023794701771187765 0.0002720716958371806 0.003833508618143187 0.9973591206722864 -0.017617749469686195 0.002424721493179729 0.0070255516674721874
0.03126302626094 0.0026549245882379192 0.008841437705853768 0.9970576524952497 -0.02205207713190742 0.0003482145878861833 0.004794089682063951 -0.00031074271573555126 -0.0029785221133277026
 0.9970576524952497 -0.02205207713190742 0.0026544859464789836 0.008841492892181311 -0.0003107880234148532 -0.0029785249711467066 0.0003508337056559755 0.00479375807681107
 0.0003482145878861833 0.004794089682063951 -0.0003107880234148532 -0.0029785249711467066 0.002654911998905725 0.008841020875458598 0.9970576454322895 -0.02205249537321629
 -0.00031074271573555126 -0.0029785221133277026 0.0003508337056559755 0.00479375807681107 0.9970576454322895 -0.02205249537321629 0.002654485208793931 0.008841077388486827
0.037515631513130004 0.0029028966887563695 0.010677147874971283 0.9967312042335713 -0.0265015031191343 0.0004368821343249923 0.005755149501695015 -0.00038655404714847094 -0.0035787420636469295
 0.9967312042335713 -0.0265015031191343 0.0029022655340270906 0.010677218578964844 -0.0003866190027526807 -0.003578744598899535 0.00044065285543861907 0.005754688276666104
 0.0004368821343249923 0.005755149501695015 -0.0003866190027526807 -0.003578744598899535 0.002902879021638836 0.01067664838565744 0.9967311943775377 -0.026502005140062554
 -0.00038655404714847094 -0.0035787420636469295 0.00044065285543861907 0.005754688276666104 0.9967311943775377 -0.026502005140062554 0.0029022647978329797 0.010676721211569967
0.043768236765320004 0.003169290667210413 0.012532311560537706 0.9963794394127817 -0.0309658826402266 0.0005365068400193349 0.0067167936800799945 -0.00047155451057487557 -0.004179953501013261
 0.9963794394127817 -0.0309658826402266 0.003168432167409497 0.0125323994494866 -0.00047164257063105004 -0.004179955310244934 0.000541639054570477 0.006716175188826865
 0.0005365068400193349 0.0067167936800799945 -0.00047164257063105004 -0.004179955310244934 0.0031692671172193353 0.012531729766828575 0.9963794262878378 -0.030966468591357085
 -0.00047155451057487557 -0.004179953501013261 0.000541639054570477 0.006716175188826865 0.9963794262878378 -0.030966468591357085 0.0031684314859408225 0.012531820768895727
0.050020842017509996 0.003454473478179144 0.014406383246499805 0.9960020152213984 -0.035445274515527085 0.0006471963850428491 0.007678887998872738 -0.0005658571174732623 -0.004781985220260175
 0.9960020152213984 -0.035445274515527085 0.0034533528170185694 0.014406490060751448 -0.0005659717118172985 -0.004781985854471467 0.0006539003484053122 0.007678081732026524
 0.0006471963850428491 0.007678887998872738 -0.0005659717118172985 -0.004781985854471467 0.0034544432621172153 0.014405719557992412 0.9960019983417963 -0.03544594458924662
 -0.0005658571174732623 -0.004781985220260175 0.0006539003484053122 0.007678081732026524 0.9960019983417963 -0.03544594458924662 0.0034533522482484255 0.014405830681374458
0.055454545454549996 0.003717847149648125 0.01604999324697687 0.9956529169399277 -0.0393501758003859 0.0007524569995296811 0.00851523125858774 -0.0006554491259329651 -0.005305703650851374
 0.9956529169399277 -0.0393501758003859 0.003716470391917808 0.016050117978293133 -0.0006555895445571631 -0.0053057028638885395 0.0007606978945051763 0.00851423478355443
 0.0007524569995296811 0.00851523125858774 -0.0006555895445571631 -0.0053057028638885395 0.0037178105229904155 0.01604925877708445 0.9956528963951646 -0.03935091915575289
 -0.0006554491259329651 -0.005305703650851374 0.0007606978945051763 0.00851423478355443 0.9956528963951646 -0.03935091915575289 0.0037164699740658324 0.016049389030036748
0.056273447269699996 0.003758808547690072 0.01629888722345548 0.9955985882916812 -0.03993965372219398 0.0007690563339503268 0.00864128873329284 -0.0006695721335264496 -0.005384667856462627
 0.9955985882916812 -0.03993965372219398 0.0037573909145912215 0.016299014776790466 -0.0006697166659085042 -0.005384666821066008 0.0007775426632318907 0.008640261285758545
 0.0007690563339503268 0.00864128873329284 -0.0006697166659085042 -0.005384666821066008 0.0037587709061201514 0.016298142119934963 0.9955985671616358 -0.039940408137726285
 -0.0006695721335264496 -0.005384667856462627 0.0007775426632318907 0.008640261285758545 0.9955985671616358 -0.039940408137726285 0.003757390524125406 0.016298275392001384
0.06252605252188 0.004082656139717835 0.018209391656427758 0.9951688154018654 -0.04444893726573951 0.0009021899391803484 0.009603844598574352 -0.0007828070413064937 -0.005987831976403203
 0.9951688154018654 -0.04444893726573951 0.004080906720238743 0.018209541836598328 -0.0007829848896904807 -0.005987828731153638 0.0009126696003470556 0.009602559636552904
 0.0009021899391803484 0.009603844598574352 -0.0007829848896904807 -0.005987828731153638 0.004082610337843319 0.018208565669655036 0.9951687895135829 -0.04444977628741262
 -0.0007828070413064937 -0.005987831976403203 0.0009126696003470556 0.009602559636552904 0.9951687895135829 -0.04444977628741262 0.004080906582933868 0.01820872320073358
0.06877865777407 0.004426373534730361 0.020137493109511982 0.9947123539946313 -0.048972999601016406 0.0010466979703959072 0.0105663979175135 -0.0009056664740605833 -0.006591306955455682
 0.9947123539946313 -0.048972999601016406 0.004424257501259698 0.02013766787900375 -0.0009058809907243148 -0.006591300914411352 0.0010593822578438498 0.010564816145590654
 0.0010466979703959072 0.0105663979175135 -0.0009058809907243148 -0.006591300914411352 0.004426318863070468 0.02013658683989424 0.994712322826846 -0.048973923521495204
 -0.0009056664740605833 -0.006591306955455682 0.0010593822578438498 0.010564816145590654 0.994712322826846 -0.048973923521495204 0.004424257703003051 0.020136770824161185
0.07503126302626001 0.004790315093790481 0.02208280676070293 0.9942288625859975 -0.05351168237004398 0.0012026785579577683 0.011528785367756266 -0.001038252132104803 -0.0071949202817088945
 0.9942288625859975 -0.05351168237004398 0.004787797596365965 0.022083008158027405 -0.001038506643649447 -0.007194910813210237 0.0012177790693055895 0.01152686449625527
 0.0012026785579577683 0.011528785367756266 -0.001038506643649447 -0.007194910813210237 0.004790250869508667 0.022081820869789232 0.9942288256026797 -0.05351269151785725
 -0.001038252132104803 -0.0071949202817088945 0.0012177790693055895 0.01152686449625527 0.9942288256026797 -0.05351269151785725 0.0047877982359857225 0.02208203358651161
0.08128386827845 0.005174832253977408 0.02404495988303092 0.9937180011094762 -0.058064800881622344 0.0013702270453952896 0.012490838496668252 -0.0011806626885466802 -0.007798497099899459
 0.9937180011094762 -0.058064800881622344 0.0051718784110657825 0.02404519002417064 -0.001180960495778749 -0.007798483526528324 0.0013879556516492794 0.012488533209323112
 0.0013702270453952896 0.012490838496668252 -0.001180960495778749 -0.007798483526528324 0.00517475782282099 0.02404389509227256 0.9937179577589444 -0.058065895622143135
 -0.0011806626885466802 -0.007798497099899459 0.0013879556516492794 0.012488533209323112 0.9937179577589444 -0.058065895622143135 0.005171879602890077 0.024044138907464454
0.08753647353064001 0.0055802734761379435 0.026023587343102634 0.9931794312173368 -0.06263214858150463 0.001549435847903856 0.01345238408272647 -0.001332993686800584 -0.008401859916419422
 0.9931794312173368 -0.06263214858150463 0.00557684836540191 0.02602384842344328 -0.0013333380644557922 -0.008401841515014278 0.001570004660681491 0.013449646004772017
 0.001549435847903856 0.01345238408272647 -0.0013333380644557922 -0.008401841515014278 0.0055801882125681435 0.026022444440616858 0.9931793809303329 -0.06263332931010428
 -0.001332993686800584 -0.008401859916419422 0.001570004660681491 0.013449646004772017 0.9931793809303329 -0.06263332931010428 0.005576850240827461 0.026022721808804102
0.09378907878283 0.006006984159457631 0.02801832840015832 0.9926128165524869 -0.0672135002310513 0.0017403943148489533 0.014413244411372724 -0.0014953374329438641 -0.00900482839774562
 0.9926128165524869 -0.0672135002310513 0.0060030528088775535 0.028018622696519835 -0.0014957316294907303 -0.00900480439937929 0.0017640156504412766 0.014410022078150873
 0.0017403943148489533 0.014413244411372724 -0.0014957316294907303 -0.00900480439937929 0.006006887468737116 0.028017108233906574 0.9926127587409045 -0.06721476737950012
 -0.0014953374329438641 -0.00900482839774562 0.0017640156504412766 0.014410022078150873 0.9926127587409045 -0.06721476737950012 0.006003055518577963 0.028017421700382617
0.100041684035 0.006455306533443 0.030028824356354174 0.992017823001625 -0.07180861424330756 0.0019431885949999063 0.015373237489345486 -0.0016677828841651459 -0.00960721923844183
 0.992017823001625 -0.07180861424330756 0.006450833912044063 0.03002915422961156 -0.0016682301214480644 -0.009607188828442772 0.0019700749361146156 0.01536947631541692
 0.0019431885949999063 0.015373237489345486 -0.0016682301214480644 -0.009607188828442772 0.006455197852584956 0.030027527836381716 0.9920177570571274 -0.07180996827724836
 -0.0016677828841651459 -0.00960721923844183 0.0019700749361146156 0.01536947631541692 0.9920177570571274 -0.07180996827724836 0.006450837627820343 0.030027880039716893
0.1059090909091 0.00689596709063916 0.031929471207566056 0.9914333789297771 -0.07613293007298996 0.0021443278754137954 0.0162731346961739 -0.0018388682433873613 -0.010171807826294014
 0.9914333789297771 -0.07613293007298996 0.00689095462292955 0.031929836690562305 -0.001839368159922458 -0.010171770618009897 0.002174471441379595 0.01626881542600891
 0.0021443278754137954 0.0162731346961739 -0.001839368159922458 -0.010171770618009897 0.006895846675618704 0.03192810392402443 0.9914333047810516 -0.07613436608971652
 -0.0018388682433873613 -0.010171807826294014 0.002174471441379595 0.01626881542600891 0.9914333047810516 -0.07613436608971652 0.006890959460144154 0.03192849496311205
0.1062942892872 0.006925579532017336 0.03205471679654655 0.9913941189336315 -0.07641723443920885 0.00215790150392033 0.01633217721700763 -0.0018504155342855433 -0.010208846079398051
 0.9913941189336315 -0.07641723443920885 0.006920530540450831 0.03205508469452326 -0.0018509190071151983 -0.010208808397391111 0.0021882654593233662 0.016327819465926843
 0.00215790150392033 0.01633217721700763 -0.0018509190071151983 -0.010208808397391111 0.006925458330949435 0.03205334489820512 0.9913940442264052 -0.07641867585449726
 -0.0018504155342855433 -0.010208846079398051 0.0021882654593233662 0.016327819465926843 0.9913940442264052 -0.07641867585449726 0.0069205354577457 0.032053738573072935
0.11254689453939999 0.007418138654555104 0.034095646263662745 0.9907413754293499 -0.08103909137762777 0.002384612392940856 0.01728987353876525 -0.0020433172972953812 -0.010809519456465189
 0.9907413754293499 -0.08103909137762777 0.00741247811631825 0.034096054724274856 -0.002043880173105757 -0.010809473596369194 0.0024186666549685268 0.01728485829343173
 0.002384612392940856 0.01728987353876525 -0.002043880173105757 -0.010809473596369194 0.00741800443806811 0.03409420002169661 0.9907412913064982 -0.08104062070566706
 -0.0020433172972953812 -0.010809519456465189 0.0024186666549685268 0.01728485829343173 0.9907412913064982 -0.08104062070566706 0.00741248445611553 0.03409463800214727
0.11879949979160001 0.007933315817105917 0.03615125121405239 0.9900592665032072 -0.08567390341530583 0.0026233970196133586 0.018246132571898364 -0.0022465663892522044 -0.01140904677908027
 0.9900592665032072 -0.08567390341530583 0.00792700846879557 0.036151702869061254 -0.0022471918076159042 -0.011408991789205316 0.002661354320129584 0.01824039570566126
 0.0026233970196133586 0.018246132571898364 -0.0022471918076159042 -0.011408991789205316 0.007933168125641344 0.03614973172709176 0.9900591722872096 -0.08567552121794382
 -0.0022465663892522044 -0.01140904677908027 0.002661354320129584 0.01824039570566126 0.9900591722872096 -0.08567552121794382 0.007927016479868295 0.03615021695006589
0.1250521050438 0.008471439195283715 0.03822116721816206 0.9893474693202935 -0.09032137753152622 0.0028743274190811264 0.019200756726143065 -0.0024602372094393245 -0.01200723232697886
 0.9893474693202935 -0.09032137753152622 0.008464449677677191 0.038221664797091895 -0.002460928281605747 -0.012007167210079522 0.002916400483553632 0.01919423087461962
 0.0028743274190811264 0.019200756726143065 -0.002460928281605747 -0.012007167210079522 0.008471277606437339 0.03821957564345151 0.9893473643076849 -0.09032308440572089
 -0.0024602372094393245 -0.01200723232697886 0.002916400483553632 0.01919423087461962 0.9893473643076849 -0.09032308440572089 0.008464459638401952 0.03822011115276719
0.131304710296 0.009032833060350312 0.040305026317394854 0.9886056644085824 -0.09498121000711805 0.0031374717767980558 0.020153544813185185 -0.002684400220572363 -0.012603877265731634
 0.9886056644085824 -0.09498121000711805 0.00902512590886734 0.04030557265198865 -0.0026851600290206316 -0.01260380097905853 0.0031838732771223193 0.020146159346866834
 0.0031374717767980558 0.020153544813185185 -0.0026851600290206316 -0.01260380097905853 0.009032657190398044 0.04030336387478502 0.988605547868528 -0.09498300658000651
 -0.002684400220572363 -0.012603877265731634 0.0031838732771223193 0.020146159346866834 0.988605547868528 -0.09498300658000651 0.009025138129843346 0.040303952825378034
0.1375573155481 0.009493990141655853 0.04212931190959234 0.9879574228067691 -0.09937978342148844 0.003381010186441539 0.021077026821036193 -0.002887190892821026 -0.01317157966768385
 0.9879574228067691 -0.09937978342148844 0.009485526476566699 0.04212989794761013 -0.0028880237604232725 -0.013171492050296158 0.003431847250295729 0.021068788678765608
 0.003381010186441539 0.021077026821036193 -0.0028880237604232725 -0.013171492050296158 0.009493798374955422 0.042127580252128594 0.9879572941887834 -0.09938167009630298
 -0.002887190892821026 -0.01317157966768385 0.003431847250295729 0.021068788678765608 0.9879572941887834 -0.09938167009630298 0.009485542184063946 0.04212821273824174
0.1438099208003 0.00997149966538805 0.043943028521464936 0.9872861128432809 -0.10376627029752866 0.0036343665229409965 0.02199631347751873 -0.003098074292061809 -0.013735401280440266
 0.9872861128432809 -0.10376627029752866 0.009962243345821777 0.04394365642862608 -0.0030989834835785423 -0.013735301308024661 0.003689832704266509 0.02198715768716273
 0.0036343665229409965 0.02199631347751873 -0.0030989834835785423 -0.013735301308024661 0.009971291450793939 0.04394122899939395 0.9872859714135153 -0.10376824769538451
 -0.003098074292061809 -0.013735401280440266 0.003689832704266509 0.02198715768716273 0.9872859714135153 -0.10376824769538451 0.00996226306341613 0.04394190738723172
0.1500625260525 0.010465179516514822 0.04574599682288078 0.9865919214682525 -0.10814053383102443 0.0038974450526642235 0.02291129572296677 -0.0033169564711475713 -0.014295237873725152
 0.9865919214682525 -0.10814053383102443 0.010455094279645086 0.04574666891206635 -0.003317945238709104 -0.014295124481498304 0.0039577326401102125 0.022901154933608423
 0.0038974450526642235 0.02291129572296677 -0.003317945238709104 -0.014295124481498304 0.010464954325711607 0.04574413084273944 0.9865917664692327 -0.10814260259455688
 -0.0033169564711475713 -0.014295237873725152 0.0039577326401102125 0.022901154933608423 0.9865917664692327 -0.10814260259455688 0.010455118573133004 0.04574485764807298
0.15631513130469998 0.010974846109341234 0.047538042839155414 0.985875036781823 -0.11250243831559179 0.004170148815607655 0.023821866544003967 -0.003543742231158712 -0.014850987587512505
 0.985875036781823 -0.11250243831559179 0.010963895566912907 0.047538761575509944 -0.0035448138141069177 -0.014850859670427978 0.004235448811700769 0.023810671052246636
