! Created with skrf 1.8.0 (http://scikit-rf.org).
# GHz S RI R 50.0 
!freq ReS11 ImS11 ReS12 ImS12 ReS13 ImS13
! ReS14 ImS14
! ReS21 ImS21 ReS22 ImS22 ReS23 ImS23
! ReS24 ImS24
! ReS31 ImS31 ReS32 ImS32 ReS33 ImS33
! ReS34 ImS34
! ReS41 ImS41 ReS42 ImS42 ReS43 ImS43
! ReS44 ImS44
!
0.0 0.001902686119861 0.0 0.9980973138794 0.0 7.402815783052e-05 0.0 -7.402815799136e-05 9.065834673089359e-21
 0.9980973138794 0.0 0.001902686119873 0.0 -7.402815799158e-05 9.0658346731163e-21 7.402815783052e-05 0.0
 7.402815783052e-05 0.0 -7.402815799158e-05 9.0658346731163e-21 0.001902686118442 0.0 0.998097313878 0.0
 -7.402815799136e-05 9.065834673089359e-21 7.402815783052e-05 0.0 0.998097313878 0.0 0.001902686118448 0.0
0.005 0.0020483987476269893 0.001554646914456571 0.997912735014511 -0.003984300173509683 0.0001046544043090355 0.0008202030205735081 -0.00010143278828052826 -0.0005138048986637966
 0.997912735014511 -0.003984300173509683 0.0020484268922681555 0.0015546305197282684 -0.0001014345314316939 -0.000513806288607314 0.00010446966749215598 0.0008202734419753997
 0.0001046544043090355 0.0008202030205735081 -0.0001014345314316939 -0.000513806288607314 0.0020483971962984068 0.001554580591055843 0.9979127346173502 -0.003984367236384906
 -0.00010143278828052826 -0.0005138048986637966 0.00010446966749215598 0.0008202734419753997 0.9979127346173502 -0.003984367236384906 0.002048427663501456 0.0015545627317018378
0.006252605252188 0.0020869926233563468 0.0019493743370099085 0.9978634756064402 -0.00498128817166986 0.00011363306122337267 0.00102562269056518 -0.00010934623146395398 -0.0006428980174128878
 0.9978634756064402 -0.00498128817166986 0.00208703661842679 0.0019493535204330162 -0.00010934894350977325 -0.0006428997314994166 0.00011334443179366357 0.001025714232011532
 0.00011363306122337267 0.00102562269056518 -0.00010934894350977325 -0.0006428997314994166 0.002086990283448163 0.0019492914455899062 0.9978634750708618 -0.004981372001246906
 -0.00010934623146395398 -0.0006428980174128878 0.00011334443179366357 0.001025714232011532 0.9978634750708618 -0.004981372001246906 0.0020870379100955314 0.001949268784266223
0.01250521050438 0.0022923581803031205 0.003939035344986247 0.9975993336132649 -0.009962914559356021 0.00016633053123966734 0.0020513870264423886 -0.00015519036594545583 -0.001288658877567852
 0.9975993336132649 -0.009962914559356021 0.002292533851609992 0.003938990455042692 -0.00015520104816056358 -0.0012886620460561729 0.0001651796323213038 0.0020516085747637426
 0.00016633053123966734 0.0020513870264423886 -0.00015520104816056358 -0.0012886620460561729 0.002292349390959125 0.003938869987244103 0.9975993320301336 -0.009963081991025517
 -0.00015519036594545583 -0.001288658877567852 0.0001651796323213038 0.0020516085747637426 0.9975993320301336 -0.009963081991025517 0.002292539579111476 0.0039388212398817814
0.01875781575657 0.0025193092377197154 0.005956362391017387 0.997304504804361 -0.014956907130074021 0.00023225246125340354 0.00307791631022499 -0.00021171734556474665 -0.0019362850050204585
 0.997304504804361 -0.014956907130074021 0.002519703981192652 0.005956289932248937 -0.00021174115855029623 -0.0019362893097118813 0.00022966732024544517 0.0030783151200014743
 0.00023225246125340354 0.00307791631022499 -0.00021174115855029623 -0.0019362893097118813 0.002519289903958065 0.005956114947973111 0.9973045016616914 -0.014957158135238229
 -0.00021171734556474665 -0.0019362850050204585 0.00022966732024544517 0.0030783151200014743 0.9973045016616914 -0.014957158135238229 0.0025197172980883508 0.005956036369002293
0.02501042100875 0.0027683515728361883 0.007998426857638557 0.9969785890821531 -0.01996558222328738 0.0003115325495914654 0.004105183403468515 -0.0002790769288860427 -0.002585418702423963
 0.9969785890821531 -0.01996558222328738 0.002769052620871114 0.007998323127192104 -0.00027911896785767673 -0.002585423761454414 0.0003069411910164094 0.0041058152820589635
 0.0003115325495914654 0.004105183403468515 -0.00027911896785767673 -0.002585423761454414 0.0027683176095265323 0.007998097798780338 0.9969785838642564 -0.019965916838685656
 -0.0002790769288860427 -0.002585418702423963 0.0003069411910164094 0.0041058152820589635 0.9969785838642564 -0.019965916838685656 0.002769076693805097 0.007997985355403981
0.03126302626094 0.0030399696056025906 0.010063669003323847 0.9966211691670416 -0.02498986771565735 0.0004043039699417647 0.0051330643407686465 -0.00035741323702022506 -0.00323578848430572
 0.9966211691670416 -0.02498986771565735 0.0030410640838006036 0.010063530096925575 -0.0003574785425129812 -0.0032357938516007286 0.0003971339310961887 0.005133993701079128
 0.0004043039699417647 0.0051330643407686465 -0.0003574785425129812 -0.0032357938516007286 0.003039916935651383 0.010063258899397423 0.9966211613504068 -0.024990286031036122
 -0.00035741323702022506 -0.00323578848430572 0.0003971339310961887 0.005133993701079128 0.9966211613504068 -0.024990286031036122 0.003041102092888091 0.010063108277273785
0.037515631513130004 0.0033346359631094826 0.0121510320064944 0.9962318206625982 -0.03003016893871017 0.0005106978670613952 0.006161395873029544 -0.00044686575946137585 -0.00388715159119286
 0.9962318206625982 -0.03003016893871017 0.003336210931236384 0.012150853821201119 -0.00044695932266156704 -0.003887156756418735 0.0005003760076197092 0.00616269581633267
 0.0005106978670613952 0.006161395873029544 -0.00044695932266156704 -0.003887156756418735 0.0033345605192317295 0.012150541533874864 0.9962318097147483 -0.03003067109328985
 -0.00044686575946137585 -0.00388715159119286 0.0005003760076197092 0.00616269581633267 0.9962318097147483 -0.03003067109328985 0.0033362660730030867 0.012150348138636462
0.043768236765320004 0.0036528151434601116 0.014259698440908795 0.9958101162256766 -0.035086632152310004 0.000630842617463235 0.007189992988086386 -0.0005475696756306596 -0.004539276537953634
 0.9958101162256766 -0.035086632152310004 0.0036549576304852434 0.014259476675911974 -0.0005476964415862477 -0.004539280926542621 0.0006167950551208225 0.007191745395898627
 0.000630842617463235 0.007189992988086386 -0.0005476964415862477 -0.004539280926542621 0.003652712871187354 0.014259128397974396 0.9958101016048934 -0.03508721831907026
 -0.0005475696756306596 -0.004539276537953634 0.0006167950551208225 0.007191745395898627 0.9958101016048934 -0.03508721831907026 0.003655033120408307 0.01425888735511586
0.050020842017509996 0.00399496517725623 0.016388981411961847 0.9953556277413494 -0.040159253358549765 0.0007648633616552867 0.008218656173118347 -0.0006596559313565288 -0.005191935930327506
 0.9953556277413494 -0.040159253358549765 0.0039977622126877825 0.01638871156825044 -0.000659820800843179 -0.005191938903591219 0.000746515475465299 0.008220951802204219
 0.0007648633616552867 0.008218656173118347 -0.000659820800843179 -0.005191938903591219 0.003994832035452919 0.016388332709817963 0.9953556088933699 -0.04015992375443008
 -0.0006596559313565288 -0.005191935930327506 0.000746515475465299 0.008220951802204219 0.9953556088933699 -0.04015992375443008 0.003997861286132082 0.016388038862938558
0.055454545454549996 0.004312122659201505 0.018255661031259814 0.9949337067262264 -0.044580560668718704 0.0008926949552954845 0.009112486112670836 -0.0007664046301578034 -0.005759374631955162
 0.9949337067262264 -0.044580560668718704 0.004315559218687084 0.01825534559674662 -0.0007666065594247059 -0.0057593758068240665 0.0008701427543046748 0.009115334488245877
 0.0008926949552954845 0.009112486112670836 -0.0007666065594247059 -0.0057593758068240665 0.004311959421847621 0.01825494479819195 0.9949336837445099 -0.044581304474065664
 -0.0007664046301578034 -0.005759374631955162 0.0008701427543046748 0.009115334488245877 0.9949336837445099 -0.044581304474065664 0.004315681431680084 0.018254600654464704
0.056273447269699996 0.0043615384358060665 0.018538271109766864 0.994867927650772 -0.045247931706418935 0.0009128816563162324 0.009247175001350043 -0.0007832512059389525 -0.0058449029679037
 0.994867927650772 -0.045247931706418935 0.0043650770797907705 0.018537948488457304 -0.0007834590367956841 -0.005844903823115545 0.0008896581313759652 0.00925011357963439
 0.0009128816563162324 0.009247175001350043 -0.0007834590367956841 -0.005844903823115545 0.004361370399993637 0.018537544772678632 0.9948679040083988 -0.045248686592339354
 -0.0007832512059389525 -0.0058449029679037 0.0008896581313759652 0.00925011357963439 0.9948679040083988 -0.045248686592339354 0.004365202994332082 0.018537192680796656
0.06252605252188 0.004752982023835625 0.020707005442210026 0.9943465898708586 -0.050352498826790576 0.0010750151869739323 0.010275330125982966 -0.0009184778237643204 -0.006497949551420577
 0.9943465898708586 -0.050352498826790576 0.004757349396568994 0.020706625141713026 -0.0009187334316765656 -0.00649794752194742 0.001046340086441884 0.010279020448108406
 0.0010750151869739323 0.010275330125982966 -0.0009187334316765656 -0.00649794752194742 0.00475277508775876 0.020706202616887964 0.9943465608515965 -0.050353338499148796
 -0.0009184778237643204 -0.006497949551420577 0.001046340086441884 0.010279020448108406 0.9943465608515965 -0.050353338499148796 0.004757505433060838 0.020705786550256643
0.06877865777407 0.00516973793784429 0.022894652558557785 0.9937911904849235 -0.05547273628901215 0.001251377514271553 0.01130289449506692 -0.0010654536342488926 -0.00715084518127258
 0.9937911904849235 -0.05547273628901215 0.005175021247372204 0.0228942094707875 -0.0010657617932339333 -0.007150839436690905 0.0012166743714300157 0.011307454516963087
 0.001251377514271553 0.01130289449506692 -0.0010657617932339333 -0.007150839436690905 0.005169488116076807 0.0228937745109788 0.9937911554893653 -0.055473661083157065
 -0.0010654536342488926 -0.00715084518127258 0.0012166743714300157 0.011307454516963087 0.9937911554893653 -0.055473661083157065 0.005175210711969038 0.02289328844617028
0.07503126302626001 0.005612243089091399 0.02510069977458529 0.9932013083053881 -0.06060838666953556 0.0014420778400762878 0.01232963414775677 -0.0012242918730016158 -0.007803356287266728
 0.9932013083053881 -0.06060838666953556 0.005618529660875656 0.025100188579718265 -0.0012246573157567039 -0.007803345933489626 0.0014007697657080337 0.012335191079628847
 0.0014420778400762878 0.01232963414775677 -0.0012246573157567039 -0.007803345933489626 0.005611946419423132 0.025099747890345265 0.9932012667153063 -0.060609396959897865
 -0.0012242918730016158 -0.007803356287266728 0.0014007697657080337 0.012335191079628847 0.9932012667153063 -0.060609396959897865 0.005618755886070308 0.025099185503742027
0.08128386827845 0.006080929239977797 0.027324646218354686 0.9925765253530571 -0.06575916091402588 0.0016472207878681672 0.013355308769529653 -0.0013951010099631865 -0.008455245812376774
 0.9925765253530571 -0.06575916091402588 0.006088306543887171 0.02732406137875041 -0.0013955284279003615 -0.008455229891806455 0.001598730589159856 0.01336199916710804
 0.0016472207878681672 0.013355308769529653 -0.0013955284279003615 -0.008455229891806455 0.006080581785971793 0.02732362200134455 0.992576476530187 -0.06576025711571228
 -0.0013951010099631865 -0.008455245812376774 0.001598730589159856 0.01336199916710804 0.992576476530187 -0.06576025711571228 0.006088572890743337 0.02732297666177858
0.08753647353064001 0.006576222881893938 0.029565997765887333 0.991916427285111 -0.07092474342494469 0.001866906191077758 0.014379672105042244 -0.0015779845897100787 -0.00910627295233022
 0.991916427285111 -0.07092474342494469 0.006584778561416483 0.029565333518345956 -0.0015784786330429366 -0.009106250443976598 0.0018106565008189374 0.014387641958620988
 0.001866906191077758 0.014379672105042244 -0.0015784786330429366 -0.009106250443976598 0.006575820735854768 0.029564902846370467 0.9919163705692684 -0.07092592598570552
 -0.0015779845897100787 -0.00910627295233022 0.0018106565008189374 0.014387641958620988 0.9919163705692684 -0.07092592598570552 0.006585088420850818 0.029564167606358268
0.09378907878283 0.007098545074483264 0.031824263447289156 0.9912206037879788 -0.07610479569388386 0.0021012288879250713 0.01540247228035617 -0.0017730410665872508 -0.009756192999290252
 0.9912206037879788 -0.07610479569388386 0.007108366974562512 0.03182351379452796 -0.0017736063442083966 -0.009756162818944222 0.0020366423020080748 0.015411877101472668
 0.0021012288879250713 0.01540247228035617 -0.0017736063442083966 -0.009756162818944222 0.007098084359191714 0.031823099573333034 0.9912205384941922 -0.07610606510278611
 -0.0017730410665872508 -0.009756192999290252 0.0020366423020080748 0.015411877101472668 0.9912205384941922 -0.07610606510278611 0.007108723768234618 0.03182226715916633
0.100041684035 0.007648311254673556 0.03409895281559303 0.9904886489433213 -0.08129895898759239 0.0023502785214398266 0.01642345206744549 -0.0019803636358019616 -0.010404757257193798
 0.9904886489433213 -0.08129895898759239 0.007659487450224793 0.034098111516081754 -0.0019810047150119843 -0.010404718257579803 0.002276777743703372 0.016434456973024154
 0.0023502785214398266 0.01642345206744549 -0.0019810047150119843 -0.010404718257579803 0.007647788127081474 0.03409772186079903 0.9904885743616835 -0.08130031576717546
 -0.0019803636358019616 -0.010404757257193798 0.002276777743703372 0.016434456973024154 0.9904885743616835 -0.08130031576717546 0.0076598946334497245 0.03409678466128018
0.1059090909091 0.008189533462367645 0.0362480065672423 0.9897685684696289 -0.08618562860068996 0.0025974542969408963 0.017379644050386715 -0.002186148007444869 -0.011011907881312207
 0.9897685684696289 -0.08618562860068996 0.008202060853134999 0.036247073362909374 -0.0021868643352002167 -0.011011859506293152 0.002515063680071862 0.01739230926546462
 0.0025974542969408963 0.017379644050386715 -0.0021868643352002167 -0.011011859506293152 0.008188948304940479 0.036246714473286035 0.9897684845021354 -0.08618706787992053
 -0.002186148007444869 -0.011011907881312207 0.002515063680071862 0.01739230926546462 0.9897684845021354 -0.08618706787992053 0.008202518494701752 0.036245671710038986
0.1062942892872 0.008225931027327079 0.036389574008413125 0.9897201615806076 -0.0865068563577063 0.0026141393431657087 0.017442349113284836 -0.00220004006239377 -0.011051713006575445
 0.9897201615806076 -0.0865068563577063 0.00823854985115421 0.036388634565105146 -0.0022007614688224274 -0.011051663977529396 0.0025311473366146763 0.017455128906998595
 0.0026141393431657087 0.017442349113284836 -0.0022007614688224274 -0.011051663977529396 0.008225341681071419 0.036388277964284066 0.9897200769736924 -0.08650830107129096
 -0.00220004006239377 -0.011051713006575445 0.0025311473366146763 0.017455128906998595 0.9897200769736924 -0.08650830107129096 0.008239010913633486 0.03638722801832302
0.11254689453939999 0.008831807937275346 0.03869563226734439 0.9889147456131994 -0.0917280942096496 0.002892890020242289 0.018458896144000193 -0.002432152508932469 -0.011696803508572788
 0.9889147456131994 -0.0917280942096496 0.00884595800927175 0.038694587914884865 -0.002432958726144493 -0.011696743177180387 0.0027998301644454656 0.018473635394703446
 0.002892890020242289 0.018458896144000193 -0.002432958726144493 -0.011696743177180387 0.008831148605495416 0.03869427325039633 0.9889146502139333 -0.09172962745390174
 -0.002432152508932469 -0.011696803508572788 0.0027998301644454656 0.018473635394703446 0.9889146502139333 -0.09172962745390174 0.008846476476570974 0.03869310223308562
0.11879949979160001 0.009466339232189149 0.04101662881855164 0.9880720103667947 -0.09696226352760237 0.003186603445739867 0.019472821153857008 -0.0026767773626596276 -0.012339768038383422
 0.9880720103667947 -0.09696226352760237 0.009482109486952165 0.04101547250931008 -0.002677672831814242 -0.012339695069229691 0.0030828996992919985 0.019489714270934478
 0.003186603445739867 0.019472821153857008 -0.002677672831814242 -0.012339695069229691 0.009465606190148631 0.0410152090678813 0.9880719033773063 -0.09696388593439755
 -0.0026767773626596276 -0.012339768038383422 0.0030828996992919985 0.019489714270934478 0.9880719033773063 -0.09696388593439755 0.009482688922437912 0.041013908275295094
0.1250521050438 0.010129915614238332 0.043352060006106204 0.9871915709006317 -0.10220894086452659 0.0034953465516519497 0.020483847585633826 -0.00293398506280788 -0.012980341941989375
 0.9871915709006317 -0.10220894086452659 0.010147395329922829 0.043350784394587324 -0.0029349741823762074 -0.012980254937294692 0.003380423619894486 0.02050309889111167
 0.0034953465516519497 0.020483847585633826 -0.0029349741823762074 -0.012980254937294692 0.010129105182545192 0.04335058188107128 0.9871914514897507 -0.10221065310257887
 -0.00293398506280788 -0.012980341941989375 0.003380423619894486 0.02050309889111167 0.9871914514897507 -0.10221065310257887 0.01014803933587232 0.04334914221370806
0.131304710296 0.010822920985704813 0.04570141661679803 0.9862730483215552 -0.10746768915836821 0.0038191801251258183 0.02149169450605506 -0.0032038399286555093 -0.013618256712326807
 0.9862730483215552 -0.10746768915836821 0.010842199812148205 0.04570001404279547 -0.0032049270538306563 -0.013618154212191994 0.003692463632363215 0.02151351830327378
 0.0038191801251258183 0.02149169450605506 -0.0032049270538306563 -0.013618154212191994 0.010822029533114034 0.045699882601068685 0.9862729156235528 -0.10746949192845273
 -0.0032038399286555093 -0.013618256712326807 0.003692463632363215 0.02151351830327378 0.9862729156235528 -0.10746949192845273 0.01084291203180041 0.04569829454575054
0.1375573155481 0.011399649280423819 0.047758955878942175 0.9854622350242686 -0.11243262549285 0.004121643660736521 0.022467398031723717 -0.003450035063387599 -0.014224476811299779
 0.9854622350242686 -0.11243262549285 0.011420824451047197 0.04775744804719351 -0.003451226870785082 -0.01422435847851505 0.0039828467470685415 0.022491788637728317
 0.004121643660736521 0.022467398031723717 -0.003451226870785082 -0.01422435847851505 0.011398673929681953 0.047757367902088996 0.9854620883901152 -0.1124345192367462
 -0.003450035063387599 -0.014224476811299779 0.0039828467470685415 0.022491788637728317 0.9854620883901152 -0.1124345192367462 0.011421607396596301 0.047755652040077375
0.1438099208003 0.011996997847488209 0.049803130502140455 0.9846221743487044 -0.1173824059832305 0.004436233696224575 0.02343747330672772 -0.0037059480062945887 -0.01482560588161469
 0.9846221743487044 -0.1173824059832305 0.012020160629030833 0.049801511154437164 -0.0037072492060756016 -0.014825470252224401 0.004284835023109635 0.02346462922021742
 0.004436233696224575 0.02343747330672772 -0.0037072492060756016 -0.014825470252224401 0.0119959351709982 0.04980149110594569 0.9846220129071553 -0.11738439139112367
 -0.0037059480062945887 -0.01482560588161469 0.004284835023109635 0.02346462922021742 0.9846220129071553 -0.11738439139112367 0.01202101779974444 0.04979963935260832
0.1500625260525 0.012614713873380838 0.05183369509626167 0.983753124391134 -0.12231683112665112 0.004762814016984076 0.024401767644216463 -0.003971447911812902 -0.015421504506947408
 0.983753124391134 -0.12231683112665112 0.012639955913357597 0.051831957517038445 -0.003972863200278868 -0.015421350057577266 0.00459829640142788 0.024431894600058127
 0.004762814016984076 0.024401767644216463 -0.003972863200278868 -0.015421350057577266 0.012613560498513936 0.05183200692263211 0.983752947241147 -0.12231890890968176
 -0.003971447911812902 -0.015421504506947408 0.00459829640142788 0.024431894600058127 0.983752947241147 -0.12231890890968176 0.012640890835391327 0.051830010664036155
0.15631513130469998 0.01325254224438872 0.05385041167419235 0.982855345116241 -0.1272357039541153 0.005101246499796807 0.025360131619798578 -0.004246402064995792 -0.01601203680092487
 0.982855345116241 -0.1272357039541153 0.01327995557982359 0.05384854867214929 -0.004247936124312479 -0.01601186194911271 0.00492309699148115 0.025393442495689877
