! Created with skrf 1.8.0 (http://scikit-rf.org).
# GHz S RI R 50.0 
!freq ReS11 ImS11 ReS12 ImS12 ReS13 ImS13
! ReS14 ImS14
! ReS21 ImS21 ReS22 ImS22 ReS23 ImS23
! ReS24 ImS24
! ReS31 ImS31 ReS32 ImS32 ReS33 ImS33
! ReS34 ImS34
! ReS41 ImS41 ReS42 ImS42 ReS43 ImS43
! ReS44 ImS44
!
0.0 0.001711545353461 0.0 0.9982884546466 0.0 6.665740106724e-05 0.0 -6.665740091415e-05 8.163177266899566e-21
 0.9982884546466 0.0 0.001711545353437 0.0 -6.66574009139e-05 8.163177266868949e-21 6.665740106616e-05 0.0
 6.665740106724e-05 0.0 -6.66574009139e-05 8.163177266868949e-21 0.001711545345855 0.0 0.998288454639 0.0
 -6.665740091415e-05 8.163177266899566e-21 6.665740106616e-05 0.0 0.998288454639 0.0 0.001711545345847 0.0
0.005 0.0018420898645080054 0.0013929735067876319 0.9981231691961875 -0.003585062747195291 9.481645147212385e-05 0.000774742525441978 -9.17232691334882e-05 -0.0004791597573950858
 0.9981231691961875 -0.003585062747195291 0.0018421160393728648 0.0013929581566547444 -9.172302290074086e-05 -0.00047915949636351767 9.46567077427388e-05 0.0007748033888854551
 9.481645147212385e-05 0.000774742525441978 -9.172302290074086e-05 -0.00047915949636351767 0.001842090710232201 0.0013930402354214672 0.9981231695679593 -0.003584995685249147
 -9.17232691334882e-05 -0.0004791597573950858 9.46567077427388e-05 0.0007748033888854551 0.9981231695679593 -0.003584995685249147 0.001842115934276587 0.0013930255503868645
0.006252605252188 0.0018764877411281888 0.0017467050127848817 0.9980793095039742 -0.004482181934609062 0.0001029775523225508 0.0009687722473139609 -9.888525588753471e-05 -0.000599568077398811
 0.9980793095039742 -0.004482181934609062 0.0018765286579252084 0.0017466855209256774 -9.888487329618177e-05 -0.0005995677540582049 0.000102727969424783 0.0009688513168530739
 0.0001029775523225508 0.0009687722473139609 -9.888487329618177e-05 -0.0005995677540582049 0.0018764889916935595 0.0017467884046895186 0.9980793100132752 -0.004482098118229367
 -9.888525588753471e-05 -0.000599568077398811 0.000102727969424783 0.0009688513168530739 0.9980793100132752 -0.004482098118229367 0.0018765284212764893 0.0017467697580374178
0.01250521050438 0.002058497330126907 0.003530003159808491 0.9978455420297727 -0.008965013338437616 0.00015039141365408046 0.0019376864838365915 -0.0001399772173286897 -0.001201967074007295
 0.9978455420297727 -0.008965013338437616 0.00205866072435855 0.003529961110884655 -0.0001399757165337126 -0.0012019664589863867 0.00014939616791691452 0.0019378771043855264
 0.00015039141365408046 0.0019376864838365915 -0.0001399757165337126 -0.0012019664589863867 0.002058501764339624 0.0035301696120080958 0.9978455434972694 -0.008964845946377503
 -0.0001399772173286897 -0.001201967074007295 0.00014939616791691452 0.0019378771043855264 0.9978455434972694 -0.008964845946377503 0.0020586592039814728 0.0035301294044853557
0.01875781575657 0.0022580062167489724 0.005338576734734836 0.9975868374253647 -0.013459370858974907 0.00020901204965674235 0.0029074050387021553 -0.00019006811159031928 -0.0018062474264683053
 0.9975868374253647 -0.013459370858974907 0.002258373399290712 0.005338508842187121 -0.00019006477441275478 -0.0018062465554284904 0.00020677642239975077 0.0029077465590100645
 0.00020901204965674235 0.0029074050387021553 -0.00019006477441275478 -0.0018062465554284904 0.0022580157711174515 0.005338826020252841 0.9975868403005566 -0.013459119992711249
 -0.00019006811159031928 -0.0018062474264683053 0.00020677642239975077 0.0029077465590100645 0.9975868403005566 -0.013459119992711249 0.0022583695417175767 0.005338761153962731
0.02501042100875 0.002475431572320727 0.007169836137217105 0.9973028676410666 -0.017967388481507068 0.0002789546309616555 0.003877945971480781 -0.00024928735062229834 -0.0024120956964813235
 0.9973028676410666 -0.017967388481507068 0.0024760837122052774 0.007169738921381523 -0.0002492814705007272 -0.0024120946099683094 0.00027498379449253125 0.003878484397581312
 0.0002789546309616555 0.003877945971480781 -0.0002492814705007272 -0.0024120946099683094 0.0024754481873622445 0.007170168047842922 0.9973028723742031 -0.01796705418929534
 -0.00024928735062229834 -0.0024120956964813235 0.00027498379449253125 0.003878484397581312 0.9973028723742031 -0.01796705418929534 0.002476076456356825 0.0071700752688580475
0.03126302626094 0.0027111731722427234 0.009022425847325807 0.9969932892470784 -0.022489951549541868 0.000360334601404946 0.00484923238986233 -0.00031775999838978657 -0.0030192851754739115
 0.9969932892470784 -0.022489951549541868 0.002712191344749213 0.009022295640713668 -0.0003177508783201471 -0.003019283918976194 0.00035413317614068664 0.004850020425497223
 0.000360334601404946 0.00484923238986233 -0.0003177508783201471 -0.003019283918976194 0.0027111987881554603 0.009022840150427371 0.9969932962851238 -0.022489533869227325
 -0.00031775999838978657 -0.0030192851754739115 0.00035413317614068664 0.004850020425497223 0.9969932962851238 -0.022489533869227325 0.0027121796175731162 0.009022716054391032
0.037515631513130004 0.002965621629748399 0.010895444720057722 0.9966577520061692 -0.027027476415447532 0.000453266355342531 0.005821149533891443 -0.00039560771817058704 -0.0036276188175427626
 0.9966577520061692 -0.027027476415447532 0.0029670868499874097 0.010895277669505736 -0.00039559466961319164 -0.0036276174414549786 0.0004443382206979996 0.0058222466469456105
 0.000453266355342531 0.005821149533891443 -0.00039559466961319164 -0.0036276174414549786 0.002965658191993973 0.010895941162618815 0.9966577617991559 -0.027026975369980714
 -0.00039560771817058704 -0.0036276188175427626 0.0004443382206979996 0.0058222466469456105 0.9966577617991559 -0.027026975369980714 0.002967069572328949 0.010895782197448354
0.043768236765320004 0.0032391615561205888 0.012788208721827754 0.9962959023764638 -0.031580147637773844 0.0005578626070424919 0.006793562155225801 -0.00048294909866152403 -0.004236911885912306
 0.9962959023764638 -0.031580147637773844 0.003241154806282637 0.012788000789373007 -0.00048293144075549105 -0.004236910445484825 0.000545710821358099 0.006795034652151292
 0.0005578626070424919 0.006793562155225801 -0.00048293144075549105 -0.004236910445484825 0.0032392110106596013 0.012788787027556479 0.996295915373674 -0.03157956323768444
 -0.00048294909866152403 -0.004236911885912306 0.000545710821358099 0.006795034652151292 0.996295915373674 -0.03157956323768444 0.0032411308892167402 0.012788589494842096
0.050020842017509996 0.0035321730130282204 0.014700152876549974 0.995907385313111 -0.036148015968465466 0.0006742340068570472 0.007766321694818231 -0.0005798997566143556 -0.00484698480738167
 0.995907385313111 -0.036148015968465466 0.0035347752666877396 0.014699899839327015 -0.0005798768156722712 -0.004846983362681937 0.0006583607851506699 0.00776824279818351
 0.0006742340068570472 0.007766321694818231 -0.0005798768156722712 -0.004846983362681937 0.0035322373088174015 0.014700812736208038 0.9959074019662308 -0.03614734822111333
 -0.0005798997566143556 -0.00484698480738167 0.0006583607851506699 0.00776824279818351 0.9959074019662308 -0.03614734822111333 0.0035347436145722094 0.014700572791550284
0.055454545454549996 0.003802914410177396 0.016376881959292097 0.9955478189215412 -0.0401299483156998 0.0007850113201492543 0.008611838188116559 -0.0006720442900126962 -0.0053776518214235436
 0.9955478189215412 -0.0401299483156998 0.0038061116774910364 0.016376586150822735 -0.0006720162161033334 -0.005377650425486032 0.0007654991499688561 0.008614214040398067
 0.0007850113201492543 0.008611838188116559 -0.0006720162161033334 -0.005377650425486032 0.0038029931863102764 0.016377612424442165 0.9955478391190621 -0.040129208130841455
 -0.0006720442900126962 -0.0053776518214235436 0.0007654991499688561 0.008614214040398067 0.9955478391190621 -0.040129208130841455 0.0038060724067516334 0.016377332386749183
0.056273447269699996 0.0038450322424345585 0.016630783134745468 0.9954918453530365 -0.04073104642066668 0.000802488863387603 0.008739269821214883 -0.0006865723425474914 -0.005457659672942886
 0.9954918453530365 -0.04073104642066668 0.0038483244876438786 0.016630480583992472 -0.0006865434516508123 -0.005457658288794252 0.0007823955903714377 0.008741719748450269
 0.000802488863387603 0.008739269821214883 -0.0006865434516508123 -0.005457658288794252 0.003845113328559176 0.016631524217058886 0.9954918661144228 -0.040730295318893196
 -0.0006865723425474914 -0.005457659672942886 0.0007823955903714377 0.008741719748450269 0.9954918661144228 -0.040730295318893196 0.003848283996145116 0.016631237869683436
0.06252605252188 0.004178112038109353 0.018579649937959485 0.9950489273458629 -0.04532914464702473 0.0009427329211010845 0.00971224038314395 -0.0008030764948048475 -0.006068758331383628
 0.9950489273458629 -0.04532914464702473 0.004182175299294134 0.0185792932773541 -0.0008030409934533433 -0.006068757077322791 0.000917920187529865 0.009715306425534568
 0.0009427329211010845 0.00971224038314395 -0.0008030409934533433 -0.006068757077322791 0.004178211864669645 0.018580471879949847 0.9950489526701255 -0.04532831017840017
 -0.0008030764948048475 -0.006068758331383628 0.000917920187529865 0.009715306425534568 0.9950489526701255 -0.04532831017840017 0.004182124857327324 0.018580134991465626
0.06877865777407 0.004531781922496139 0.02054633244348516 0.9945782769952669 -0.049942172664676224 0.0010950691665830828 0.01068506058597505 -0.000929518766332805 -0.006680101266687114
 0.9945782769952669 -0.049942172664676224 0.004536697281486553 0.02054591688668918 -0.0009294760001319185 -0.006680100216925998 0.001065036822301425 0.010688837187369
 0.0010950691665830828 0.01068506058597505 -0.0009294760001319185 -0.006680100216925998 0.0045319024384877496 0.020547234849136616 0.994578307338643 -0.049941254812541906
 -0.000929518766332805 -0.006680101266687114 0.001065036822301425 0.010688837187369 0.994578307338643 -0.049941254812541906 0.004536635770355653 0.020546843131573636
0.07503126302626001 0.004906408206895763 0.022530428541595482 0.9940795412899996 -0.05456995879604638 0.0012595976538138185 0.011657551750244839 -0.0010660025326766987 -0.007291506901441672
 0.9940795412899996 -0.05456995879604638 0.004912256824638771 0.02252994910896277 -0.0010659518531471008 -0.007291506134822944 0.001223844873387331 0.011662140585075795
 0.0012595976538138185 0.011657551750244839 -0.0010659518531471008 -0.007291506134822944 0.004906551360665991 0.02253141098570366 0.9940795771114929 -0.05456895753522593
 -0.0010660025326766987 -0.007291506901441672 0.001223844873387331 0.011662140585075795 0.9940795771114929 -0.05456895753522593 0.004912183119061019 0.02253095999870367
0.08128386827845 0.005302353979653302 0.02453154821042566 0.9935523688656387 -0.059212304280239256 0.0014364153397869348 0.012629529831081744 -0.0012126278895614455 -0.007902791147611814
 0.9935523688656387 -0.059212304280239256 0.005309217116745082 0.024530999725021985 -0.0012125686538697316 -0.007902790747582204 0.0013944406980327092 0.012635039881454587
 0.0014364153397869348 0.012629529831081744 -0.0012125686538697316 -0.007902790747582204 0.005302521717402819 0.024532610237253793 0.9935524106268327 -0.05921121957812607
 -0.0012126278895614455 -0.007902791147611814 0.0013944406980327092 0.012635039881454587 0.9935524106268327 -0.05921121957812607 0.005309130084788469 0.024532095384490523
0.08753647353064001 0.005719979044980691 0.026549308942672177 0.992996410322876 -0.0638689878221044 0.0016256159281125336 0.013600805789216009 -0.0013694915420465492 -0.008513767114313345
 0.992996410322876 -0.0638689878221044 0.005727938082893697 0.02654868602540359 -0.001369423112813159 -0.008513767168883657 0.0015769174837422647 0.01360735342089328
 0.0016256159281125336 0.013600805789216009 -0.001369423112813159 -0.008513767168883657 0.005720173310165212 0.026550450062272003 0.9929964584879831 -0.06386781964193382
 -0.0013694915420465492 -0.008513767114313345 0.0015769174837422647 0.01360735342089328 0.9929964584879831 -0.06386781964193382 0.005727836586410009 0.02654986658710913
0.09378907878283 0.0061596398278203675 0.02858333247169723 0.9924113185148966 -0.06853976885114056 0.0018272897177034472 0.014571185873422305 -0.001536686688353591 -0.009124244912893379
 0.9924113185148966 -0.06853976885114056 0.0061687762898679855 0.028582629535727544 -0.0015366084334600906 -0.00912424551462619 0.0017713651036780477 0.014578894910501307
 0.0018272897177034472 0.014571185873422305 -0.0015366084334600906 -0.00912424551462619 0.006159862560253819 0.02858455216157487 0.9924113735516824 -0.0685385171501368
 -0.001536686688353591 -0.009124244912893379 0.0017713651036780477 0.014578894910501307 0.9924113735516824 -0.0685385171501368 0.006168659184801682 0.028583895141740184
0.100041684035 0.006621689255459671 0.03063324238491861 0.9917967488162434 -0.0732243899032562 0.0020415234546445732 0.015540471843080333 -0.001714302900125539 -0.009734031530887054
 0.9917967488162434 -0.0732243899032562 0.006632084827809359 0.03063245362912207 -0.0017142141925663883 -0.00973403277686976 0.0019778699745738506 0.01554947364123151
 0.0020415234546445732 0.015540471843080333 -0.0017142141925663883 -0.00973403277686976 0.006621942390445542 0.030634540090433093 0.9917968111959052 -0.07322305463195848
 -0.001714302900125539 -0.009734031530887054 0.0019778699745738506 0.01554947364123151 0.9917968111959052 -0.07322305463195848 0.00663195096426147 0.030633804431946226
0.1059090909091 0.007075947060045832 0.032570978671212815 0.9911929259662702 -0.07763275463552656 0.002254056256305925 0.016448868463125793 -0.0018905312208229836 -0.010305448232504526
 0.9911929259662702 -0.07763275463552656 0.007087598629875722 0.03257010390924033 -0.0018904321386255525 -0.01030545017537959 0.002182692654110477 0.016459209618979682
 0.002254056256305925 0.016448868463125793 -0.0018904321386255525 -0.01030545017537959 0.007076230479919401 0.0325723490521755 0.9911929956682907 -0.07763134089209425
 -0.0018905312208229836 -0.010305448232504526 0.002182692654110477 0.016459209618979682 0.9911929956682907 -0.07763134089209425 0.007087447989960862 0.03257153480763463
0.1062942892872 0.0071064766206082874 0.032698662338819864 0.9911523593765749 -0.07792257841112615 0.002268400187410564 0.01650846115039693 -0.001902425999487001 -0.010342930755454458
 0.9911523593765749 -0.07792257841112615 0.007118213173241485 0.03269778174043819 -0.001902326217150354 -0.01034293274729502 0.002196514917016123 0.01651889466850294
 0.002268400187410564 0.01650846115039693 -0.001902326217150354 -0.01034293274729502 0.00710676208805194 0.03270003747201007 0.9911524295740142 -0.07792115951429072
 -0.001902425999487001 -0.010342930755454458 0.002196514917016123 0.01651889466850294 0.9911524295740142 -0.07792115951429072 0.007118061396120826 0.03269921790217612
0.11254689453939999 0.007614347431087912 0.034779214703711814 0.9904778113637273 -0.0826340480751502 0.0025079991237172187 0.017474947097788275 -0.0021011379344771505 -0.010950743130907924
 0.9904778113637273 -0.0826340480751502 0.007627507039010404 0.034778236010157226 -0.002101026459985919 -0.010950745974718337 0.0024273790170773685 0.017486958967921542
 0.0025079991237172187 0.017474947097788275 -0.002101026459985919 -0.010950745974718337 0.007614667154485879 0.03478066664425175 0.9904778898580625 -0.08263254549071139
 -0.0021011379344771505 -0.010950743130907924 0.0024273790170773685 0.017486958967921542 0.9904778898580625 -0.08263254549071139 0.007627336188321475 0.0347797577037089
0.11879949979160001 0.008145643248783594 0.036874519515721266 0.9897727691999845 -0.087358499938387 0.0027603954894670117 0.018439718978438647 -0.002310516652750478 -0.011557265942566794
 0.9897727691999845 -0.087358499938387 0.008160308213814405 0.03687343623523688 -0.0023103928734094087 -0.011557269748951805 0.0026705374896461584 0.018453463574004746
 0.0027603954894670117 0.018439718978438647 -0.0023103928734094087 -0.011557269748951805 0.008145999144713766 0.03687604760774995 0.9897728564747483 -0.08735691360028343
 -0.002310516652750478 -0.011557265942566794 0.0026705374896461584 0.018453463574004746 0.9897728564747483 -0.08735691360028343 0.008160117124629851 0.03687504364161293
0.1250521050438 0.008700701521491536 0.038984193657052184 0.9890369007929073 -0.09209562324369862 0.0030256603893954875 0.019402562202174296 -0.0025306359747798075 -0.012162293224765612
 0.9890369007929073 -0.09209562324369862 0.008716954392743458 0.03898299904880752 -0.002530499282302311 -0.012162298108833734 0.0029260615426379565 0.01941820170420968
 0.0030256603893954875 0.019402562202174296 -0.002530499282302311 -0.012162298108833734 0.008701095498157396 0.03898579721181706 0.9890369973362808 -0.09209395307927605
 -0.0025306359747798075 -0.012162293224765612 0.0029260615426379565 0.01941820170420968 0.9890369973362808 -0.09209395307927605 0.008716741895895882 0.038984692359858394
0.131304710296 0.00927985540660002 0.04110785021475888 0.9882698777612431 -0.09684509612435561 0.0033038606688809255 0.020363258418482477 -0.002761565466347408 -0.012765615781518455
 0.9882698777612431 -0.09684509612435561 0.009297779002248537 0.04110653727766304 -0.002761415256771379 -0.012765621862905821 0.0031940182428209568 0.0203809628798606
 0.0033038606688809255 0.020363258418482477 -0.002761415256771379 -0.012765621862905821 0.009280289363158814 0.041109528509362746 0.9882699840664 -0.09684334205538861
 -0.002761565466347408 -0.012765615781518455 0.0031940182428209568 0.0203809628798606 0.9882699840664 -0.09684334205538861 0.009297543924436128 0.04110831669518606
0.1375573155481 0.009756366053176401 0.04296708562226154 0.9875985018601814 -0.10132842615736062 0.0035623294782606754 0.02129420437507194 -0.00297077170269647 -0.013339566890671596
 0.9875985018601814 -0.10132842615736062 0.009776048162839586 0.04296567516083429 -0.002970606879248188 -0.01333957418176209 0.003441991828366768 0.021313959033896566
 0.0035623294782606754 0.02129420437507194 -0.002970606879248188 -0.01333957418176209 0.009756840965251798 0.04296883843845784 0.9875986183707766 -0.10132658817849807
 -0.00297077170269647 -0.013339566890671596 0.003441991828366768 0.021313959033896566 0.9875986183707766 -0.10132658817849807 0.009775790348024942 0.04296754050993319
0.1438099208003 0.010249785321515595 0.04481536840659781 0.9869031797988306 -0.10579923819526774 0.003831227290017492 0.022220635739128056 -0.003188311177802639 -0.013909457154426508
 0.9869031797988306 -0.10579923819526774 0.010271309824173833 0.044813854975961555 -0.0031881310541788774 -0.01390946578044199 0.0036999372797551664 0.02224259717862849
 0.003831227290017492 0.022220635739128056 -0.0031881310541788774 -0.01390946578044199 0.010250302909002036 0.04481719505774513 0.98690330700423 -0.1057973162378278
 -0.003188311177802639 -0.013909457154426508 0.0036999372797551664 0.02224259717862849 0.98690330700423 -0.1057973162378278 0.010271028278970246 0.04481580641919448
0.1500625260525 0.010759921315975819 0.04665251054456729 0.9861841083082231 -0.11025738685664882 0.004110450447565579 0.023142432947804124 -0.0034140845254957953 -0.014475177051535974
 0.9861841083082231 -0.11025738685664882 0.010783372359593998 0.04665088834074913 -0.0034138884137646314 -0.014475187143516728 0.003967754036878968 0.023166763477744684
 0.004110450447565579 0.023142432947804124 -0.0034138884137646314 -0.014475187143516728 0.010760483279123325 0.046654410316825615 0.9861842467016397 -0.110255380852683
 -0.0034140845254957953 -0.014475177051535974 0.003967754036878968 0.023166763477744684 0.9861842467016397 -0.110255380852683 0.010783066099001886 0.046652926042524044
0.15631513130469998 0.01128658055620929 0.048478329647717616 0.9854414853672048 -0.11470272804841318 0.004399893928637464 0.024059478700431815 -0.003647991034088594 -0.015036619598383462
 0.9854414853672048 -0.11470272804841318 0.011312042564505381 0.048476592495584746 -0.003647778244456356 -0.015036631293343577 0.0042453402260027185 0.024086346291836026
