! Created with skrf 1.8.0 (http://scikit-rf.org).
# GHz S RI R 50.0 
!freq ReS11 ImS11 ReS12 ImS12 ReS13 ImS13
! ReS14 ImS14
! ReS21 ImS21 ReS22 ImS22 ReS23 ImS23
! ReS24 ImS24
! ReS31 ImS31 ReS32 ImS32 ReS33 ImS33
! ReS34 ImS34
! ReS41 ImS41 ReS42 ImS42 ReS43 ImS43
! ReS44 ImS44
!
0.0 0.001408081054984 0.0 0.998591918945 0.0 5.440911316702e-05 0.0 -5.44091130004e-05 6.66319460803865e-21
 0.998591918945 0.0 0.001408081054979 0.0 -5.440911300027e-05 6.66319460802273e-21 5.440911316674e-05 0.0
 5.440911316702e-05 0.0 -5.440911300027e-05 6.66319460802273e-21 0.001408081047962 0.0 0.998591918938 0.0
 -5.44091130004e-05 6.66319460803865e-21 5.440911316674e-05 0.0 0.998591918938 0.0 0.001408081047959 0.0
0.005 0.0015146982089579329 0.0011461243448184293 0.9984570839745747 -0.00295036387380444 7.688858307926879e-05 0.0006358895703602862 -7.452981155175258e-05 -0.00039284066213343433
 0.9984570839745747 -0.00295036387380444 0.001514684070127186 0.0011461326480634829 -7.453364308525772e-05 -0.0003928436069078521 7.695281724818654e-05 0.0006358649404354823
 7.688858307926879e-05 0.0006358895703602862 -7.453364308525772e-05 -0.0003928436069078521 0.001514696598227375 0.001146192574316096 0.9984570843252268 -0.002950296814969735
 -7.452981155175258e-05 -0.00039284066213343433 7.695281724818654e-05 0.0006358649404354823 0.9984570843252268 -0.002950296814969735 0.0015146863804066145 0.0011461985359278904
0.006252605252188 0.0015425587221179807 0.0014372068337811141 0.9984216450310955 -0.0036886955844471834 8.324042381251459e-05 0.0007951607835742823 -8.016534240143079e-05 -0.0004915735167372839
 0.9984216450310955 -0.0036886955844471834 0.0015425366205248654 0.0014372174093223297 -8.017130462310214e-05 -0.000491577148324036 8.334078217356691e-05 0.0007951288443959033
 8.324042381251459e-05 0.0007951607835742823 -8.017130462310214e-05 -0.000491577148324036 0.001542556124641955 0.001437292116782712 0.998421645500158 -0.003688611767261719
 -8.016534240143079e-05 -0.0004915735167372839 8.334078217356691e-05 0.0007951288443959033 0.998421645500158 -0.003688611767261719 0.0015425401530460585 0.00143729975966629
0.01250521050438 0.001688628834007679 0.0029048988441837194 0.9982346982127891 -0.007378331523952068 0.00011929536601671519 0.001590622099034592 -0.00011189771028407372 -0.0009856350160918025
 0.9982346982127891 -0.007378331523952068 0.0016885405807252293 0.0029049219927549503 -0.00011192120786179965 -0.0009856417415832544 0.00011969551934058615 0.0015905458440032506
 0.00011929536601671519 0.001590622099034592 -0.00011192120786179965 -0.0009856417415832544 0.0016886178903506694 0.002905069201355582 0.9982346995187067 -0.007378164135747674
 -0.00011189771028407372 -0.0009856350160918025 0.00011969551934058615 0.0015905458440032506 0.9982346995187067 -0.007378164135747674 0.0016885541232386837 0.002905086399004965
0.01875781575657 0.0018465891136478444 0.004393816171543963 0.9980308612001362 -0.011077916704761439 0.00016265434431248725 0.00238697399728785 -0.00014970029700142812 -0.0014814377327294573
 0.9980308612001362 -0.011077916704761439 0.0018463908024453257 0.0043938540657138805 -0.00014975269968190477 -0.0014814469193468126 0.00016355312520416974 0.002386838752842855
 0.00016265434431248725 0.00238697399728785 -0.00014975269968190477 -0.0014814469193468126 0.0018465640885047064 0.004394071587084495 0.9980308637102475 -0.01107766583839647
 -0.00014970029700142812 -0.0014814377327294573 0.00016355312520416974 0.002386838752842855 0.9980308637102475 -0.01107766583839647 0.0018464208159802192 0.004394100335486657
0.02501042100875 0.002016729690817908 0.005901884183010523 0.9978099087869576 -0.014789266551727373 0.0002133986685827241 0.0031842761571711222 -0.00019366430555980036 -0.0019787605478604068
 0.9978099087869576 -0.014789266551727373 0.002016377506094975 0.005901939158023583 -0.000193756848811915 -0.0019787714561674778 0.0002149949239393948 0.0031840650512915463
 0.0002133986685827241 0.0031842761571711222 -0.000193756848811915 -0.0019787714561674778 0.0020166848555184165 0.005902224700839426 0.9978099128697341 -0.014788932277055324
 -0.00019366430555980036 -0.0019787605478604068 0.0002149949239393948 0.0031840650512915463 0.9978099128697341 -0.014788932277055324 0.0020164304455520224 0.005902267073385504
0.03126302626094 0.0021993285884557767 0.007428045812243548 0.997571603536008 -0.018513170650732633 0.00027161023784870274 0.00398251100810679 -0.00024387849484563604 -0.0024774549234311627
 0.997571603536008 -0.018513170650732633 0.0021987787844304977 0.007428120364651495 -0.00024402230311504296 -0.0024774667058539536 0.0002741030235060973 0.003982204960824158
 0.00027161023784870274 0.00398251100810679 -0.00024402230311504296 -0.0024774667058539536 0.00219925821599532 0.00742847154226917 0.9975716095593319 -0.018512753008232324
 -0.00024387849484563604 -0.0024774549234311627 0.0002741030235060973 0.003982204960824158 0.9975716095593319 -0.018512753008232324 0.002198861099195988 0.0074285296882822495
0.037515631513130004 0.002394657941443118 0.00897161985323661 0.9973157021654172 -0.022250034397888408 0.0003373707730492639 0.0047816308050055885 -0.0003004298887294642 -0.002977397828229634
 0.9973157021654172 -0.022250034397888408 0.002393866829150193 0.008971716640800648 -0.0003006359873209902 -0.002977409528560984 0.00034095944403828444 0.004781208507852915
 0.0003373707730492639 0.0047816308050055885 -0.0003006359873209902 -0.002977409528560984 0.0023945563048377574 0.008972130945876483 0.9973157104964625 -0.022249533424395434
 -0.0003004298887294642 -0.002977397828229634 0.00034095944403828444 0.004781208507852915 0.9973157104964625 -0.022249533424395434 0.0023939849645605075 0.008972207089712398
0.043768236765320004 0.0026029863984152147 0.010532105668433303 0.9970419581154196 -0.02600007422726984 0.0004107614630872959 0.005581571952862307 -0.0003634040375270045 -0.0034784774088551665
 0.9970419581154196 -0.02600007422726984 0.0026019103358961722 0.010532227510550388 -0.00036368335972810777 -0.0034784879620640067 0.0004156457192831743 0.005581009844844106
 0.0004107614630872959 0.005581571952862307 -0.00036368335972810777 -0.0034784879620640067 0.0026028477697913484 0.010532702322948685 0.9970419691204835 -0.025999489948038867
 -0.0003634040375270045 -0.0034784774088551665 0.0004156457192831743 0.005581009844844106 0.9970419691204835 -0.025999489948038867 0.0026020707338999657 0.010532798763278322
0.050020842017509996 0.002824580240162731 0.012109102493067962 0.996750122834097 -0.029763398240782505 0.0004918627567869881 0.0063822609106675915 -0.0004328851203950833 -0.003980587081113146
 0.996750122834097 -0.029763398240782505 0.0028231756249665536 0.012109252371374616 -0.0004332485120789412 -0.003980595313265906 0.0004982426649427753 0.00638153315276819
 0.0004918627567869881 0.0063822609106675915 -0.0004332485120789412 -0.003980595313265906 0.00282439889190335 0.012109784947872427 0.9967501368806179 -0.029762730679731175
 -0.0004328851203950833 -0.003980587081113146 0.0004982426649427753 0.00638153315276819 0.9967501368806179 -0.029762730679731175 0.002823384726160645 0.012109904057003639
0.055454545454549996 0.0030281305799266986 0.01349270394138571 0.9964816228621853 -0.03304466105575734 0.000568666007476264 0.007078628750069765 -0.0004986150859791012 -0.00441769118968838
 0.9964816228621853 -0.03304466105575734 0.003026405057311358 0.01349288073208401 -0.0004990602792110921 -0.004417696366777695 0.0005765084521383143 0.007077734264073879
 0.000568666007476264 0.007078628750069765 -0.0004990602792110921 -0.004417696366777695 0.0030279074543006633 0.013493461189081445 0.9964816398501835 -0.03304392113319438
 -0.0004986150859791012 -0.00441769118968838 0.0005765084521383143 0.007077734264073879 0.9964816398501835 -0.03304392113319438 0.0030266617117672466 0.013493601981568544
0.056273447269699996 0.0030597039651300197 0.01370226981059533 0.9964399465319915 -0.03354004576719324 0.0005807542161031666 0.007183617095637024 -0.0005089559796385565 -0.004483622622454006
 0.9964399465319915 -0.03354004576719324 0.0030579272271578886 0.013702450869809634 -0.0005094142023498688 -0.004483627250665797 0.0005888302177230643 0.007182695544673582
 0.0005807542161031666 0.007183617095637024 -0.0005094142023498688 -0.004483627250665797 0.0030594741679363918 0.013703038349656887 0.9964399639871029 -0.03353929494093993
 -0.0005089559796385565 -0.004483622622454006 0.0005888302177230643 0.007182695544673582 0.9964399639871029 -0.03353929494093993 0.003058191469642334 0.01370318257311968
0.06252605252188 0.0033086206053333143 0.01531130557837913 0.9961111786699574 -0.037330009072515685 0.0006775144019918069 0.007985554472797134 -0.0005916981180595953 -0.0049874805811905305
 0.9961111786699574 -0.037330009072515685 0.0033064282005632966 0.015311521127401743 -0.000592261851133191 -0.004987480213617961 0.0006874873118682702 0.00798440865497194
 0.0006775144019918069 0.007985554472797134 -0.000592261851133191 -0.004987480213617961 0.0033083366289055143 0.015312160531159628 0.9961111999017017 -0.03732917499100214
 -0.0005916981180595953 -0.0049874805811905305 0.0006874873118682702 0.00798440865497194 0.9961111999017017 -0.03732917499100214 0.0033067540212069952 0.015312332387398195
0.06877865777407 0.0035715919015377627 0.016935933247510818 0.9957635683098959 -0.0411332462785237 0.0007822207773609237 0.008787982505377155 -0.0006811916761330146 -0.0054920573274623305
 0.9957635683098959 -0.0411332462785237 0.003568940306201176 0.01693618676054903 -0.0006818715182388346 -0.005492050463320613 0.0007942917754775365 0.008786579589697715
 0.0007822207773609237 0.008787982505377155 -0.0006818715182388346 -0.005492050463320613 0.0035712480145727063 0.016936874979993393 0.9957635936870536 -0.0411323289545332
 -0.0006811916761330146 -0.0054920573274623305 0.0007942917754775365 0.008786579589697715 0.9957635936870536 -0.0411323289545332 0.0035693341403641513 0.01693707706015668
0.07503126302626001 0.003848878391939542 0.018575893521738246 0.9953968643805733 -0.044949689544722525 0.0008949496194053572 0.009590806756887213 -0.0007775153973118066 -0.005997248455326026
 0.9953968643805733 -0.044949689544722525 0.0038457240968350122 0.018576188639755107 -0.000778321867417498 -0.005997233484904795 0.0009093202381757685 0.009589111528631632
 0.0008949496194053572 0.009590806756887213 -0.000778321867417498 -0.005997233484904795 0.0038484688607819573 0.018576922449678117 0.9953968942720043 -0.04494868898124402
 -0.0007775153973118066 -0.005997248455326026 0.0009093202381757685 0.009589111528631632 0.9953968942720043 -0.04494868898124402 0.0038461923775371253 0.018577157417589914
0.08128386827845 0.004140739448273445 0.020230938883540696 0.995010815895005 -0.04877925048639657 0.001015775939472171 0.010393929292909153 -0.000880746583904153 -0.006502948388166344
 0.995010815895005 -0.04877925048639657 0.004137038953282302 0.020231279415748392 -0.000881690121989695 -0.006502923592868648 0.001032648046895542 0.010391904127198662
 0.001015775939472171 0.010393929292909153 -0.000881690121989695 -0.006502923592868648 0.004140258538148656 0.020232055465219626 0.9950108506705327 -0.048778166684368594
 -0.000880746583904153 -0.006502948388166344 0.001032648046895542 0.010391904127198662 0.9950108506705327 -0.048778166684368594 0.004137588112045441 0.02023232605752609
0.08753647353064001 0.0044474332769773965 0.02190082980255261 0.9946051721349963 -0.05262182391341936 0.0011447734054858113 0.011197248962195603 -0.000990961048401585 -0.007009050107968915
 0.9946051721349963 -0.05262182391341936 0.004443143085713662 0.021901219728139458 -0.0009920520158575208 -0.007009013660367149 0.0011643491855490983 0.011194853797718082
 0.0011447734054858113 0.011197248962195603 -0.0009920520158575208 -0.007009013660367149 0.004446875251703868 0.02190203453936516 0.9946052121656452 -0.05262065687183046
 -0.000990961048401585 -0.007009050107968915 0.0011643491855490983 0.011194853797718082 0.9946052121656452 -0.05262065687183046 0.00444377955215056 0.021902343565772604
0.09378907878283 0.004769216895413491 0.023585332031889596 0.9941796828136724 -0.0564772904846562 0.001282014267761498 0.012000661599306262 -0.0011082330600304105 -0.007515444966383616
 0.9941796828136724 -0.0564772904846562 0.004764293509989267 0.02358577550193553 -0.001109481739850256 -0.007515394930280449 0.0013044961981671294 0.01199785391231753
 0.001282014267761498 0.012000661599306262 -0.001109481739850256 -0.007515394930280449 0.004768576017351989 0.023586625469640823 0.9941797284714492 -0.056476040199770705
 -0.0011082330600304105 -0.007515444966383616 0.0013044961981671294 0.01199785391231753 0.9941797284714492 -0.056476040199770705 0.004765023711591629 0.023586975813387978
0.100041684035 0.005106346091524995 0.025284214614665616 0.9937340982247135 -0.06034551865597282 0.0014275692861760866 0.012804060176626577 -0.0012326352883652088 -0.0080220225498248
 0.9937340982247135 -0.06034551865597282 0.005100746007373451 0.025284715954152586 -0.001234051885185104 -0.008021956880330814 0.001453160114117031 0.012800794955176322
 0.0014275692861760866 0.012804060176626577 -0.001234051885185104 -0.008021956880330814 0.0051056166215307204 0.025285597345407508 0.9937341498826299 -0.06034418512013145
 -0.0012326352883652088 -0.0080220225498248 0.001453160114117031 0.012800794955176322 0.9937341498826299 -0.06034418512013145 0.005101576369069515 0.025285991963884417
0.1059090909091 0.005436889446697436 0.026891310355265374 0.9932974661170825 -0.06398692042925141 0.001571780527717621 0.013557853994958876 -0.0013559217170922404 -0.008497458080616301
 0.9932974661170825 -0.06398692042925141 0.005430614774987176 0.026891870089533622 -0.0013575050973134257 -0.008497375784292778 0.0016004733394396813 0.01355411624922692
 0.001571780527717621 0.013557853994958876 -0.0013575050973134257 -0.008497375784292778 0.005436071622007641 0.02689277745798031 0.9932975237462048 -0.06398550876093897
 -0.0013559217170922404 -0.008497458080616301 0.0016004733394396813 0.01355411624922692 0.9932975237462048 -0.06398550876093897 0.00543154496758014 0.026893216380075587
0.1062942892872 0.0054590753692609646 0.02699724839569488 0.9932681693790075 -0.06422636612673222 0.0015815076586273744 0.013607334921278805 -0.001364238744647939 -0.008528670583238727
 0.9932681693790075 -0.06422636612673222 0.005452755069707512 0.02699781210581785 -0.00136583338463011 -0.008528587126862698 0.0016104103743790155 0.013603564639751875
 0.0015815076586273744 0.013607334921278805 -0.00136583338463011 -0.008528587126862698 0.005458251567115232 0.026998721058378777 0.9932682274116523 -0.06422494932828489
 -0.001364238744647939 -0.008528670583238727 0.0016104103743790155 0.013603564639751875 0.9932682274116523 -0.06422494932828489 0.005453692014017887 0.026999162983936214
0.11254689453939999 0.0058276578855881046 0.028724204881427087 0.9927816481364401 -0.06811968094217023 0.0017438969498744833 0.01441037341043408 -0.0015031127212288332 -0.009035274859077222
 0.9927816481364401 -0.06811968094217023 0.0058205738368902245 0.028724835642015768 -0.0015048954518654247 -0.009035171353838904 0.0017763147590859024 0.014406048004437106
 0.0017438969498744833 0.01441037341043408 -0.0015048954518654247 -0.009035171353838904 0.00582673400983918 0.02872576815929244 0.9927817129197213 -0.06811818086875732
 -0.0015031127212288332 -0.009035274859077222 0.0017763147590859024 0.014406048004437106 0.9927817129197213 -0.06811818086875732 0.005821623783150171 0.028726260500203996
0.11879949979160001 0.006212345378675926 0.03046485534086894 0.9922742873312144 -0.07202530235895299 0.0019148030212492468 0.015213060647864797 -0.0016493247293634418 -0.009541719188785306
 0.9922742873312144 -0.07202530235895299 0.006204454024882306 0.030465558013005486 -0.0016513055191656105 -0.009541593264327856 0.0019509393156393862 0.015208127489492828
 0.0019148030212492468 0.015213060647864797 -0.0016513055191656105 -0.009541593264327856 0.006211315686911154 0.030466509965481406 0.9922743592424245 -0.0720237189940503
 -0.0016493247293634418 -0.009541719188785306 0.0019509393156393862 0.015208127489492828 0.9922743592424245 -0.0720237189940503 0.006205623388992571 0.03046705590713155
0.1250521050438 0.006613388090702264 0.03221897011062095 0.9917458408936229 -0.07594306151071359 0.0020942899605410413 0.01601527913057201 -0.0018029404359916764 -0.010047885368028519
 0.9917458408936229 -0.07594306151071359 0.0066046458482839215 0.03221974973952465 -0.0018051291740672959 -0.010047734545769106 0.002134348287094008 0.01600968300407009
 0.0020942899605410413 0.01601527913057201 -0.0018051291740672959 -0.010047734545769106 0.006612246839727003 0.032220716861738795 0.9917459203121473 -0.07594139483445758
 -0.0018029404359916764 -0.010047885368028519 0.002134348287094008 0.01600968300407009 0.9917459203121473 -0.07594139483445758 0.006605941042617867 0.03222131966797878
0.131304710296 0.007031034684850955 0.03398631802711375 0.9911960639692601 -0.07987278195105843 0.0022824200120473478 0.0168169089062647 -0.0019640235993092533 -0.010553653154958265
 0.9911960639692601 -0.07987278195105843 0.007021397937785218 0.03398717984512829 -0.0019664300949500135 -0.010553474848239815 0.0023266040411318925 0.016810591984080213
 0.0022824200120473478 0.0168169089062647 -0.0019664300949500135 -0.010553474848239815 0.007029776130933958 0.03398815773113274 0.9911961512758632 -0.07987103194232868
 -0.0019640235993092533 -0.010553653154958265 0.0023266040411318925 0.016810591984080213 0.9911961512758632 -0.07987103194232868 0.0070228253704197425 0.03398882074591641
0.1375573155481 0.007366809088018449 0.03553443287456388 0.9907234707880113 -0.08358194687291529 0.002454421023195174 0.017593731050956005 -0.0021077574068779905 -0.011034853960245063
 0.9907234707880113 -0.08358194687291529 0.007356231517767134 0.03553536319411866 -0.002110396130909983 -0.011034648143256713 0.002502839366202673 0.01758670542542856
 0.002454421023195174 0.017593731050956005 -0.002110396130909983 -0.011034648143256713 0.00736542802129986 0.035536366508642336 0.9907235663388042 -0.08358011355390485
 -0.0021077574068779905 -0.011034853960245063 0.002502839366202673 0.01758670542542856 0.9907235663388042 -0.08358011355390485 0.007357797109414423 0.035537073946229396
0.1438099208003 0.007714284576474767 0.03707485894960815 0.9902344640873697 -0.08728221920960398 0.002633377884957354 0.01836784888352438 -0.0022572662398227606 -0.011513550602722033
 0.9902344640873697 -0.08728221920960398 0.007702722111702777 0.0370758616989623 -0.002260147726619251 -0.011513314751194274 0.00268621718523582 0.018360061882304452
 0.002633377884957354 0.01836784888352438 -0.002260147726619251 -0.011513314751194274 0.007712775348544433 0.03707688738198729 0.990234568260314 -0.08728030256664497
 -0.0022572662398227606 -0.011513550602722033 0.00268621718523582 0.018360061882304452 0.990234568260314 -0.08728030256664497 0.007704432178576907 0.03707764120631214
0.1500625260525 0.008073345820738266 0.03860748210292446 0.989729162864766 -0.09097352255286645 0.002819233872040696 0.01913919744240163 -0.0024124943276098913 -0.011989679681016767
 0.989729162864766 -0.09097352255286645 0.008060754341532179 0.0386085614087916 -0.002415629091227529 -0.01198941116982612 0.002876679786659828 0.01913059447122092
 0.002819233872040696 0.01913919744240163 -0.002415629091227529 -0.01198941116982612 0.008071702788554772 0.0386096062400896 0.9897292760388662 -0.09097152256975619
 -0.0024124943276098913 -0.011989679681016767 0.002876679786659828 0.01913059447122092 0.9897292760388662 -0.09097152256975619 0.008062615191041438 0.038610408532669165
0.15631513130469998 0.00844387675036018 0.040132191699828214 0.9892076866385657 -0.09465578045705486 0.0030119316457327115 0.019907712778621117 -0.002573385259462437 -0.012463179074703658
 0.9892076866385657 -0.09465578045705486 0.00843021208658042 0.04013335188972619 -0.0025767837934310865 -0.012462875178302779 0.0030741688315692618 0.019898237339899337
