! Created with skrf 1.8.0 (http://scikit-rf.org).
# GHz S RI R 50.0 
!freq ReS11 ImS11 ReS12 ImS12 ReS13 ImS13
! ReS14 ImS14
! ReS21 ImS21 ReS22 ImS22 ReS23 ImS23
! ReS24 ImS24
! ReS31 ImS31 ReS32 ImS32 ReS33 ImS33
! ReS34 ImS34
! ReS41 ImS41 ReS42 ImS42 ReS43 ImS43
! ReS44 ImS44
!
0.0 0.001392573901345 0.0 0.9986074260629 0.0 5.328936906319e-05 0.0 -5.328936784189e-05 6.526065375615649e-21
 0.9986074260629 0.0 0.001392573901332 0.0 -5.328936784122e-05 6.5260653755335974e-21 5.328936906237e-05 0.0
 5.328936906319e-05 0.0 -5.328936784122e-05 6.5260653755335974e-21 0.001392573919171 0.0 0.9986074260808 0.0
 -5.328936784189e-05 6.526065375615649e-21 5.328936906237e-05 0.0 0.9986074260808 0.0 0.001392573919186 0.0
0.005 0.0014978637710191022 0.0011427196899167075 0.9984743081297887 -0.0029174010798829787 7.388465115979766e-05 0.0005678863734273728 -7.19653001025876e-05 -0.0003598780117016247
 0.9984743081297887 -0.0029174010798829787 0.0014978577196690323 0.0011427231674007907 -7.196419222938969e-05 -0.00035987712137598206 7.393662977705047e-05 0.0005678667570870783
 7.388465115979766e-05 0.0005678863734273728 -7.196419222938969e-05 -0.00035987712137598206 0.001497864893392823 0.0011427862647512186 0.9984743084741469 -0.0029173340129978655
 -7.19653001025876e-05 -0.0003598780117016247 7.393662977705047e-05 0.0005678667570870783 0.9984743084741469 -0.0029173340129978655 0.001497857287121011 0.0011427907289457953
0.006252605252188 0.0015253609294208783 0.0014328965454046521 0.9984393475939892 -0.003647481968446338 7.968529499116379e-05 0.0007101505322983705 -7.717997777119935e-05 -0.0004503150791119353
 0.9984393475939892 -0.003647481968446338 0.0015253514702416589 0.0014329009264039466 -7.717825412207565e-05 -0.00045031398031448474 7.976650934206779e-05 0.0007101250460715891
 7.968529499116379e-05 0.0007101505322983705 -7.717825412207565e-05 -0.00045031398031448474 0.0015253626061879214 0.0014329797433965446 0.9984393480542849 -0.003647398151622088
 -7.717997777119935e-05 -0.0004503150791119353 7.976650934206779e-05 0.0007101250460715891 0.9984393480542849 -0.003647398151622088 0.0015253507155804835 0.0014329853674047968
0.01250521050438 0.0016694294530921222 0.0028958667460218346 0.998255080326977 -0.007295865327572665 0.00011251170956283292 0.0014207705763666354 -0.00010645468599199262 -0.0009028683908976651
 0.998255080326977 -0.007295865327572665 0.0016693916885259386 0.0028958758368399875 -0.00010644789669171504 -0.000902866346479503 0.00011283564691006939 0.0014207092677792023
 0.00011251170956283292 0.0014207705763666354 -0.00010644789669171504 -0.000902866346479503 0.0016694356036054748 0.0028960328474791483 0.9982550816132606 -0.007295697950379797
 -0.00010645468599199262 -0.0009028683908976651 0.00011283564691006939 0.0014207092677792023 0.9982550816132606 -0.007295697950379797 0.0016693881180184454 0.0028960445347635468
0.01875781575657 0.0018250694758123814 0.00437977159573918 0.9980544126572082 -0.010954051305527982 0.00015184214776294713 0.0021323305351060064 -0.00014119794303569345 -0.0013570501118411304
 0.9980544126572082 -0.010954051305527982 0.0018249846320085865 0.004379785726976101 -0.00014118280722654958 -0.0013570473008198876 0.0001525700122121953 0.0021322212265108744
 0.00015184214776294713 0.0021323305351060064 -0.00014118280722654958 -0.0013570473008198876 0.001825082891577901 0.004380020453835245 0.9980544151291566 -0.010953800472238102
 -0.00014119794303569345 -0.0013570501118411304 0.0001525700122121953 0.0021322212265108744 0.9980544151291566 -0.010953800472238102 0.0018249761797513755 0.004380038688111429
0.02501042100875 0.0019925637514399967 0.005882567430943413 0.9978371252570474 -0.014623837941290688 0.0001977507438821472 0.0028448718277656357 -0.00018149198741261862 -0.0018126751967272464
 0.9978371252570474 -0.014623837941290688 0.0019924131011333584 0.005882586925825927 -0.00018146526465595222 -0.001812671827391288 0.00019904391274874333 0.0028447005625247437
 0.0001977507438821472 0.0028448718277656357 -0.00018146526465595222 -0.001812671827391288 0.001992587222969193 0.00588289891317417 0.9978371292695222 -0.014623503738168092
 -0.00018149198741261862 -0.0018126751967272464 0.00019904391274874333 0.0028447005625247437 0.9978371292695222 -0.014623503738168092 0.001992397695679578 0.005882924211609829
0.03126302626094 0.0021721832522225044 0.007403215554354851 0.9976029867476592 -0.01830601042413463 0.00025031206976021446 0.0035583732422463593 -0.00022741706037444597 -0.0022696170694314847
 0.9976029867476592 -0.01830601042413463 0.002171948102812994 0.007403240726034384 -0.0002273755436657413 -0.002269613379747619 0.00025233224480523443 0.0035581242724339554
 0.00025031206976021446 0.0035583732422463593 -0.0002273755436657413 -0.002269613379747619 0.0021722195755666807 0.007403629529551583 0.9976029926562513 -0.018305592932239077
 -0.00022741706037444597 -0.0022696170694314847 0.00025233224480523443 0.0035581242724339554 0.9976029926562513 -0.018305592932239077 0.002171923671906845 0.007403662440298116
0.037515631513130004 0.0023641932714266356 0.008941048549664413 0.9973517599550451 -0.022000974721776617 0.0003096005127192221 0.004272788987258665 -0.00027905196444294006 -0.002727769568812912
 0.9973517599550451 -0.022000974721776617 0.0023638549569326133 0.00894107969940951 -0.0002789924766101597 -0.0027277658265514645 0.00031250979108531643 0.004272444753725033
 0.0003096005127192221 0.004272788987258665 -0.0002789924766101597 -0.0027277658265514645 0.0023642452471947122 0.008941544896016092 0.9973517681142442 -0.02200047400869478
 -0.00027905196444294006 -0.002727769568812912 0.00031250979108531643 0.004272444753725033 0.9973517681142442 -0.02200047400869478 0.002363819425717253 0.008941585996768059
0.043768236765320004 0.0025688557773138098 0.010495577472617885 0.9970832044165956 -0.02570895032492965 0.0003756899848596969 0.004988060262477761 -0.00033647426747056595 -0.0031870353722447775
 0.9970832044165956 -0.02570895032492965 0.0025683956515366803 0.01049561488827696 -0.00033639365897356684 -0.0031870318749969368 0.0003796508956982864 0.004987601372502388
 0.0003756899848596969 0.004988060262477761 -0.00033639365897356684 -0.0031870318749969368 0.0025689262090220497 0.010496156059922983 0.9970832151777086 -0.025708366462131697
 -0.00033647426747056595 -0.0031870353722447775 0.0003796508956982864 0.004987601372502388 0.9970832151777086 -0.025708366462131697 0.0025683469408128864 0.010496205957002633
0.050020842017509996 0.002786430515546635 0.012066412136728148 0.9967970776375941 -0.029430049895209465 0.0004486537503593378 0.005704120032456023 -0.0003997603795913939 -0.003647321215245551
 0.9967970776375941 -0.029430049895209465 0.0027858299457737294 0.012066456091479114 -0.0003996555270865043 -0.0036473182904279144 0.00045382927319010026 0.005703525236358105
 0.0004486537503593378 0.005704120032456023 -0.0003996555270865043 -0.0036473182904279144 0.0027865222124150474 0.012067072826054834 0.9967970913512313 -0.029429382958013752
 -0.0003997603795913939 -0.003647321215245551 0.00045382927319010026 0.005703525236358105 0.9967970913512313 -0.029429382958013752 0.0027857659748294107 0.01206713215367974
0.055454545454549996 0.0029861963547737343 0.01344449953541503 0.9965339654804851 -0.03267449256437157 0.0005177005619876607 0.006326981510780889 -0.00045957855046211945 -0.004048080830430591
 0.9965339654804851 -0.03267449256437157 0.0029854586091485735 0.01344454938243766 -0.00045945011224296116 -0.004048078692114914 0.0005240643343469934 0.006326249890639379
 0.0005177005619876607 0.006326981510780889 -0.00045945011224296116 -0.004048078692114914 0.00298630881678674 0.01344523145452654 0.9965339820430443 -0.03267375349668592
 -0.00045957855046211945 -0.004048080830430591 0.0005240643343469934 0.006326249890639379 0.9965339820430443 -0.03267375349668592 0.0029853796848669555 0.013445299513944959
0.056273447269699996 0.003017175583240053 0.013653221998594858 0.9964931358224834 -0.03316431831348717 0.0005285643008810224 0.0064208953748820935 -0.00046898557699183853 -0.004108535538006211
 0.9964931358224834 -0.03316431831348717 0.00301641594462573 0.013653272749817862 -0.0004688533823439743 -0.0041085335428295185 0.0005351178732036548 0.0064201415421438505
 0.0005285643008810224 0.0064208953748820935 -0.0004688533823439743 -0.0041085335428295185 0.003017291359052448 0.013653964645128781 0.9964931528370353 -0.033163568377871655
 -0.00046898557699183853 -0.004108535538006211 0.0005351178732036548 0.0064201415421438505 0.9964931528370353 -0.033163568377871655 0.0030163346301455224 0.013654034064936977
0.06252605252188 0.003261347744613975 0.015255714654595208 0.9961711343500153 -0.036911754118278725 0.0006154932590412166 0.007138308756780217 -0.0005442239945305454 -0.004570587205834373
 0.9961711343500153 -0.036911754118278725 0.0032604104144779707 0.015255772442902183 -0.0005440613841183443 -0.004570586527288903 0.0006235887766052254 0.007137370851890046
 0.0006154932590412166 0.007138308756780217 -0.0005440613841183443 -0.004570586527288903 0.0032614904182610305 0.015256539104248812 0.9961711550120487 -0.036910921263916374
 -0.0005442239945305454 -0.004570587205834373 0.0006235887766052254 0.007137370851890046 0.9961711550120487 -0.036910921263916374 0.003260309671303065 0.015256619304923502
0.06877865777407 0.0035192026044986455 0.01687362300993668 0.9958308281094214 -0.0406723222736164 0.0007095112945816474 0.007856278806436733 -0.000625548603113052 -0.0050333847360941025
 0.9958308281094214 -0.0406723222736164 0.0035180689569828437 0.016873688058384732 -0.0006253525272982849 -0.0050333857909166495 0.0007193131066935056 0.007855129864619633
 0.0007095112945816474 0.007856278806436733 -0.0006253525272982849 -0.0050333857909166495 0.003519374999525912 0.016874529095426825 0.995830852762895 -0.04067140658730398
 -0.000625548603113052 -0.0050333847360941025 0.0007193131066935056 0.007855129864619633 0.995830852762895 -0.04067140658730398 0.003517946698059544 0.01687462079248491
0.07503126302626001 0.0037909947000824406 0.018506697151700703 0.9954719717568137 -0.0444459622351458 0.0008106880488237665 0.00857472079798554 -0.000713031176755672 -0.0054968358149329105
 0.9954719717568137 -0.0444459622351458 0.003789646100384551 0.01850676966511681 -0.0007127986095193823 -0.005496839049575662 0.0008223609499688123 0.008573331900894465
 0.0008106880488237665 0.00857472079798554 -0.0007127986095193823 -0.005496839049575662 0.003791199645257691 0.01850768470142491 0.9954720007438872 -0.04444496380159694
 -0.000713031176755672 -0.0054968358149329105 0.0008223609499688123 0.008573331900894465 0.9954720007438872 -0.04444496380159694 0.0037895002376741784 0.018507788637228066
0.08128386827845 0.004076977540400077 0.020154698938070287 0.9950943199238389 -0.04823259330294316 0.0009190920648964547 0.009293546972970681 -0.0008067422523063519 -0.005960846979649475
 0.9950943199238389 -0.04823259330294316 0.004075395339478969 0.02015477910244312 -0.000806470190955917 -0.005960852870239905 0.0009328012832673497 0.009291887224401099
 0.0009190920648964547 0.009293546972970681 -0.000806470190955917 -0.005960852870239905 0.004077217869881939 0.020155767763640475 0.9950943535844273 -0.04823151221677581
 -0.0008067422523063519 -0.005960846979649475 0.0009328012832673497 0.009291887224401099 0.9950943535844273 -0.04823151221677581 0.004075223784654505 0.020155884707355097
0.08753647353064001 0.004377403611154397 0.021817398254263994 0.9946976273924495 -0.052032118310201436 0.0010347907197366154 0.010012666770138 -0.0009067510856025958 -0.006425323395576593
 0.9946976273924495 -0.052032118310201436 0.0043755691403133375 0.021817486236429196 -0.0009064365506195672 -0.006425332447885232 0.001050701903641343 0.010010703271825377
 0.0010347907197366154 0.010012666770138 -0.0009064365506195672 -0.006425332447885232 0.00437768216418467 0.02181854815706431 0.9946976660637274 -0.052030954669059555
 -0.0009067510856025958 -0.006425323395576593 0.001050701903641343 0.010010703271825377 0.9946976660637274 -0.052030954669059555 0.004375369804599314 0.02181867890497444
0.09378907878283 0.0046925243564759625 0.02349457033229171 0.994281649250818 -0.0558444262515328 0.0011578501594283082 0.010731986984611324 -0.0010131256031207648 -0.006890168706468014
 0.994281649250818 -0.0558444262515328 0.004690418921713773 0.0234946662796222 -0.001012765638015125 -0.006890181455865867 0.001176129361653636 0.01072968481214426
 0.0011578501594283082 0.010731986984611324 -0.001012765638015125 -0.006890181455865867 0.004692843977407709 0.02349580110224473 0.9942816932673324 -0.05584318015675363
 -0.0010131256031207648 -0.006890168706468014 0.001176129361653636 0.01072968481214426 0.9942816932673324 -0.05584318015675363 0.004690189716525623 0.02349594647807943
0.100041684035 0.005022590142358324 0.025185993794939368 0.9938461410328494 -0.05966939419000557 0.001288335235072317 0.011451411892445647 -0.0011259323517964644 -0.0073552849224873115
 0.9938461410328494 -0.05966939419000557 0.005020195018709395 0.02518609783526731 -0.0011255240229866299 -0.0073553019339065 0.0013091488955267556 0.011448734071273869
 0.001288335235072317 0.011451411892445647 -0.0011255240229866299 -0.0073553019339065 0.005022953680820543 0.025187305207841914 0.9938461907268126 -0.05966806574900579
 -0.0011259323517964644 -0.0073552849224873115 0.0013091488955267556 0.011448734071273869 0.9938461907268126 -0.05966806574900579 0.005019933856631035 0.02518746606326002
0.1059090909091 0.005346136260855197 0.026785981272646826 0.9934194831110698 -0.06327011631494359 0.0014175917499406588 0.012126523682778187 -0.0012376975869065803 -0.00779190475493085
 0.9934194831110698 -0.06327011631494359 0.005343452232339442 0.026786093006279148 -0.0012372412262397453 -0.007791926305897839 0.0014409354344559271 0.012123457880051631
 0.0014175917499406588 0.012126523682778187 -0.0012372412262397453 -0.007791926305897839 0.005346543607474409 0.026787368144361022 0.9934195384318631 -0.06326871070287081
 -0.0012376975869065803 -0.00779190475493085 0.0014409354344559271 0.012123457880051631 0.9934195384318631 -0.06326871070287081 0.005343159184560654 0.026787544325767437
0.1062942892872 0.00536785020878019 0.026891449172048085 0.9933908588496042 -0.06350688869561466 0.0014263094397933467 0.012170843344250025 -0.0012452364462970538 -0.007820572342164154
 0.9933908588496042 -0.06350688869561466 0.005365146634820898 0.026891561413699135 -0.0012447768431124208 -0.007820594210051218 0.0014498243670052772 0.012167750825894183
 0.0014263094397933467 0.012170843344250025 -0.0012447768431124208 -0.007820594210051218 0.005368260519445139 0.026892840990483384 0.9933909145498849 -0.06350547802036918
 -0.0012452364462970538 -0.007820572342164154 0.0014498243670052772 0.012167750825894183 0.9933909145498849 -0.06350547802036918 0.005364851429465105 0.026893018205743493
0.11254689453939999 0.0057285526115455196 0.02861071777536268 0.9929155595123225 -0.06735676692843283 0.001571834846156176 0.012890180841130975 -0.0013711015153245745 -0.008285929495199492
 0.9929155595123225 -0.06735676692843283 0.0057255217833737625 0.028610838307392063 -0.001370587749970051 -0.008285956843470185 0.0015982181970015572 0.012886632479597185
 0.001571834846156176 0.012890180841130975 -0.001370587749970051 -0.008285956843470185 0.005729012554199934 0.028612189747758105 0.9929156215450217 -0.06735527413609567
 -0.0013711015153245745 -0.008285929495199492 0.0015982181970015572 0.012886632479597185 0.9929156215450217 -0.06735527413609567 0.005725190450323355 0.028612384232545172
0.11879949979160001 0.006104944156800413 0.030343580812394688 0.9924200006511134 -0.07121887748667505 0.0017249720440053657 0.01360932159627562 -0.0015035896459496953 -0.008751253102901507
 0.9924200006511134 -0.07121887748667505 0.006101567222482008 0.03034370970495572 -0.001503018853521436 -0.008751286584894075 0.001754391302813471 0.013605274124653443
 0.0017249720440053657 0.01360932159627562 -0.001503018853521436 -0.008751286584894075 0.006105456596118516 0.030345132673468687 0.9924200693390358 -0.07121730269863492
 -0.0015035896459496953 -0.008751253102901507 0.001754391302813471 0.013605274124653443 0.9924200693390358 -0.07121730269863492 0.006101197679624614 0.03034534536782839
0.1250521050438 0.006497270328972805 0.03208981869224699 0.9919039408297727 -0.07509306106675048 0.001885780078327126 0.014328160589431536 -0.0016427613275309966 -0.009216438048971903
 0.9919039408297727 -0.07509306106675048 0.00649352838270161 0.03208995599709711 -0.001642130666053866 -0.009216478347388996 0.00191840303459313 0.014323568596733189
 0.001885780078327126 0.014328160589431536 -0.001642130666053866 -0.009216478347388996 0.006497838134610668 0.0320914501611526 0.9919040164923406 -0.07509140440999025
 -0.0016427613275309966 -0.009216438048971903 0.00191840303459313 0.014323568596733189 0.9919040164923406 -0.07509140440999025 0.0064931185508128805 0.03209168203663311
0.131304710296 0.006905775214842666 0.03384921046460562 0.9913671396582109 -0.07897915099377494 0.0020543163875918584 0.015046590612397099 -0.0017886753941313302 -0.009681377362763918
 0.9913671396582109 -0.07897915099377494 0.006901649290844279 0.033849356215856975 -0.0017879820446725994 -0.009681425189613438 0.002090311112824656 0.015041406520589821
 0.0020543163875918584 0.015046590612397099 -0.0017879820446725994 -0.009681425189613438 0.006906401261437972 0.03385092124649492 0.9913672226114183 -0.07897741259883745
 -0.0017886753941313302 -0.009681377362763918 0.002090311112824656 0.015041406520589821 0.9913672226114183 -0.07897741259883745 0.006901197094120412 0.03385117330745645
0.1375573155481 0.007233306852288674 0.03539271475237503 0.9909067857080547 -0.08264806741175172 0.002208064610816835 0.01574143154990637 -0.0019187746812605055 -0.010122932394548595
 0.9909067857080547 -0.08264806741175172 0.007228775016125234 0.03539286601445048 -0.0019180143710729003 -0.010122987750162548 0.0022475093507787116 0.01573566563140456
 0.002208064610816835 0.01574143154990637 -0.0019180143710729003 -0.010122987750162548 0.0072339932862275375 0.03539450477996435 0.9909068762768131 -0.08264624740848023
 -0.0019187746812605055 -0.010122932394548595 0.0022475093507787116 0.01573566563140456 0.9909068762768131 -0.08264624740848023 0.007228279097718867 0.03539477462284706
0.1438099208003 0.00757224956271104 0.03692875316688869 0.9904304716892728 -0.08630833981439542 0.0023680124264540406 0.01643383418591787 -0.0020540829148892633 -0.010562221160131677
 0.9904304716892728 -0.08630833981439542 0.007567292274826958 0.0369289099032157 -0.002053252596199474 -0.010562284741911288 0.0024110594038835955 0.01642744326314042
 0.0023680124264540406 0.01643383418591787 -0.002053252596199474 -0.010562284741911288 0.007572999134827463 0.03693062217409846 0.9904305701854911 -0.08630643834232381
 -0.0020540829148892633 -0.010562221160131677 0.0024110594038835955 0.01642744326314042 0.9904305701854911 -0.08630643834232381 0.007566750695152565 0.03693091071365473
0.1500625260525 0.007922492947708457 0.03845721666381429 0.9899383115441909 -0.08995989679229101 0.002534109183633046 0.01712374060451847 -0.00219455033152392 -0.010999187435063526
 0.9899383115441909 -0.08995989679229101 0.007917090586182993 0.03845737886434368 -0.0021936469611147148 -0.010999259968507256 0.002580909846660086 0.017116679926335844
 0.002534109183633046 0.01712374060451847 -0.0021936469611147148 -0.010999259968507256 0.007923308405316874 0.03845916437610781 0.9899384182763565 -0.08995791399537618
 -0.00219455033152392 -0.010999187435063526 0.002580909846660086 0.017116679926335844 0.9899384182763565 -0.08995791399537618 0.007916501417864248 0.03845947259037236
0.15631513130469998 0.008283925932555178 0.03997799957709912 0.9894304196764877 -0.09360266680875419 0.002706303691963786 0.017811093795052507 -0.0023401266098520704 -0.011433776111592775
