! Created with skrf 1.8.0 (http://scikit-rf.org).
# GHz S RI R 50.0 
!freq ReS11 ImS11 ReS12 ImS12 ReS13 ImS13
! ReS14 ImS14
! ReS21 ImS21 ReS22 ImS22 ReS23 ImS23
! ReS24 ImS24
! ReS31 ImS31 ReS32 ImS32 ReS33 ImS33
! ReS34 ImS34
! ReS41 ImS41 ReS42 ImS42 ReS43 ImS43
! ReS44 ImS44
!
0.0 0.001374825134891 0.0 0.9986251748491 0.0 5.321700083956e-05 0.0 -5.321700156067e-05 6.5172030621494215e-21
 0.9986251748491 0.0 0.001374825134905 0.0 -5.321700156106e-05 6.517203062197183e-21 5.321700083889e-05 0.0
 5.321700083956e-05 0.0 -5.321700156106e-05 6.517203062197183e-21 0.001374825142897 0.0 0.9986251748571 0.0
 -5.321700156067e-05 6.5172030621494215e-21 5.321700083889e-05 0.0 0.9986251748571 0.0 0.001374825142887 0.0
0.005 0.001478874993597967 0.0011163001229587421 0.9984935944554656 -0.0028808888318268143 7.55510038829436e-05 0.0006392563515221563 -7.317455347322264e-05 -0.0003920861484732271
 0.9984935944554656 -0.0028808888318268143 0.0014788535395039576 0.0011163126054447388 -7.317253304708402e-05 -0.0003920845660051617 7.569346098286055e-05 0.0006392022253607473
 7.55510038829436e-05 0.0006392563515221563 -7.317253304708402e-05 -0.0003920845660051617 0.0014788758271107793 0.0011162323368378822 0.9984935941179578 -0.0028809558991628468
 -7.317455347322264e-05 -0.0003920861484732271 7.569346098286055e-05 0.0006392022253607473 0.9984935941179578 -0.0028809558991628468 0.0014788520312978481 0.0011162462554081274
0.006252605252188 0.0015060413459327578 0.0013998248440179855 0.99845904448119 -0.0036018395078103453 8.18393733297233e-05 0.0007993653888552 -7.87559921366928e-05 -0.0004906346777385788
 0.99845904448119 -0.0036018395078103453 0.0015060078094184981 0.0013998406930559105 -7.87528483912778e-05 -0.0004906327254860782 8.206195226148718e-05 0.0007992951302941521
 8.18393733297233e-05 0.0007993653888552 -7.87528483912778e-05 -0.0004906327254860782 0.0015060427144489889 0.0013997401153937417 0.9984590440188928 -0.0036019233334922125
 -7.87559921366928e-05 -0.0004906346777385788 8.206195226148718e-05 0.0007992951302941521 0.9984590440188928 -0.0036019233334922125 0.0015060055166859385 0.0013997577674629844
0.01250521050438 0.0016483357608916144 0.0028294840988783115 0.9982769801661923 -0.00720465458138326 0.00011741503645950645 0.0015989978321032134 -0.00011013824867574958 -0.0009837845226139577
 0.9982769801661923 -0.00720465458138326 0.001648201852032061 0.002829518242547952 -0.00011012586173451332 -0.0009837808985114957 0.00011830270198952697 0.0015988294639940688
 0.00011741503645950645 0.0015989978321032134 -0.00011012586173451332 -0.0009837808985114957 0.001648341791688623 0.0028293148496530253 0.9982769788807332 -0.007204821967843602
 -0.00011013824867574958 -0.0009837845226139577 0.00011830270198952697 0.0015988294639940688 0.9982769788807332 -0.007204821967843602 0.001648193252168056 0.0028293526968389535
0.01875781575657 0.0018019932056671172 0.004279936456226294 0.998078774063753 -0.010817250534557009 0.00016002263651668661 0.0023995130915709655 -0.0001474558080100813 -0.0014786844971812008
 0.998078774063753 -0.010817250534557009 0.001801692312212976 0.0042799914401493696 -0.00014742818729683102 -0.0014786795289869986 0.0001620168554654697 0.0023992137861046843
 0.00016002263651668661 0.0023995130915709655 -0.00014742818729683102 -0.0014786795289869986 0.0018020071886275177 0.004279682697135734 0.9980787715961722 -0.010817501378419282
 -0.0001474558080100813 -0.0014786844971812008 0.0001620168554654697 0.0023992137861046843 0.9980787715961722 -0.010817501378419282 0.0018016733975053832 0.004279743438378545
0.02501042100875 0.0019672915332382846 0.005749160011850409 0.9978642109163426 -0.014441405565387871 0.00020974142398667324 0.003200979820602431 -0.0001907979341157529 -0.001975112086340102
 0.9978642109163426 -0.014441405565387871 0.001966757179888879 0.005749238457687384 -0.00019074916085793565 -0.001975106155341804 0.00021328395710693666 0.0032005119654008405
 0.00020974142398667324 0.003200979820602431 -0.00019074916085793565 -0.001975106155341804 0.001967316759730036 0.005748821687065597 0.997864206910386 -0.014441739795776266
 -0.0001907979341157529 -0.001975112086340102 0.00021328395710693666 0.0032005119654008405 0.997864206910386 -0.014441739795776266 0.0019667239456127882 0.005748908150095854
0.03126302626094 0.002144496961155131 0.007236127092560591 0.9976330636008438 -0.018077895888141886 0.00026665119867313623 0.004003387132265655 -0.00024025150683409184 -0.0024729198467846195
 0.9976330636008438 -0.018077895888141886 0.0021436627730123444 0.007236231692342157 -0.0002401757216302779 -0.0024729133885903194 0.00027218452222632725 0.004002708303058344
 0.00026665119867313623 0.004003387132265655 -0.0002401757216302779 -0.0024729133885903194 0.002144536723078255 0.007235704107168508 0.9976330577002762 -0.018078313439199585
 -0.00024025150683409184 -0.0024729198467846195 0.00027218452222632725 0.004002708303058344 0.9976330577002762 -0.018078313439199585 0.002143611212966328 0.007235819243023549
0.037515631513130004 0.002333870085527472 0.008740177359020317 0.9973850992984801 -0.021727122574915367 0.0003308315961864356 0.004806693190140485 -0.00029590173596080326 -0.0029719868220051066
 0.9973850992984801 -0.021727122574915367 0.0023326697631126793 0.008740310871818098 -0.0002957931323005039 -0.002971980326783853 0.00033879909830996545 0.004805756101053278
 0.0003308315961864356 0.004806693190140485 -0.0002957931323005039 -0.002971980326783853 0.002333927677460057 0.008739669568271791 0.9973850911491701 -0.021727623396444747
 -0.00029590173596080326 -0.0029719868220051066 0.00033879909830996545 0.004805756101053278 0.9973850911491701 -0.021727623396444747 0.0023325958705811656 0.008739816448525044
0.043768236765320004 0.0025356682030311583 0.010260827036687624 0.9971200819713019 -0.025389302263069666 0.00040236176116487663 0.005610839979293715 -0.0003578324244963076 -0.003472203767449803
 0.9971200819713019 -0.025389302263069666 0.0025340355027702855 0.010260992286163203 -0.0003576852449068676 -0.0034721977800265887 0.0004132078422275988 0.005609592426142724
 0.00040236176116487663 0.005610839979293715 -0.0003576852449068676 -0.0034721977800265887 0.0025357469204189964 0.0102602342732869 0.9971200712186279 -0.025389886292915765
 -0.0003578324244963076 -0.003472203767449803 0.0004132078422275988 0.005609592426142724 0.9971200712186279 -0.025389886292915765 0.002533935267912628 0.010260416088306516
0.050020842017509996 0.0027501463986176785 0.011797690092069508 0.9968377736033178 -0.029064545915434815 0.0004813201533341825 0.006415759411295805 -0.0004261260757569868 -0.003973467040203677
 0.9968377736033178 -0.029064545915434815 0.0027480151152742245 0.011797889964520192 -0.000425934609232603 -0.0039734621600882175 0.0004954902752552172 0.006414144211946442
 0.0004813201533341825 0.006415759411295805 -0.000425934609232603 -0.0039734621600882175 0.002750249540140666 0.01179701213958288 0.9968377598951338 -0.029065213105837286
 -0.0004261260757569868 -0.003973467040203677 0.0004954902752552172 0.006414144211946442 0.9968377598951338 -0.029065213105837286 0.002747884527348088 0.011797232197400365
0.055454545454549996 0.0029470290926460556 0.013146182871016989 0.9965782108302063 -0.03226908893665658 0.0005560303388159883 0.0071158280263252174 -0.0004907059586366455 -0.004409851261676455
 0.9965782108302063 -0.03226908893665658 0.0029444107767392772 0.013146415223464387 -0.0004904714021918722 -0.004409847873194509 0.0005734517615310595 0.007113842980358353
 0.0005560303388159883 0.0071158280263252174 -0.0004904714021918722 -0.004409847873194509 0.0029471561394445447 0.013145430689946709 0.996578194267646 -0.0322698283509765
 -0.0004907059586366455 -0.004409851261676455 0.0005734517615310595 0.007113842980358353 0.996578194267646 -0.0322698283509765 0.002944250551413518 0.013145686759338754
0.056273447269699996 0.002977558110769273 0.013350439508977638 0.9965379349231793 -0.032752897480972626 0.0005677844126032619 0.007221376308588627 -0.0005008639297623837 -0.004475675610155696
 0.9965379349231793 -0.032752897480972626 0.002974862061720298 0.013350676951890553 -0.0005006225100630976 -0.004475672491546556 0.0005857251178221828 0.007219331241903055
 0.0005677844126032619 0.007221376308588627 -0.0005006225100630976 -0.004475672491546556 0.002977688976206568 0.013349676123789594 0.9965379179072035 -0.03275364777627022
 -0.0005008639297623837 -0.004475675610155696 0.0005857251178221828 0.007219331241903055 0.9965379179072035 -0.03275364777627022 0.002974697106586994 0.013349937849464763
0.06252605252188 0.003218155441001964 0.0149187860339065 0.9962203258721019 -0.03645435508764764 0.0006618312528954482 0.008027610053309946 -0.0005821259645148299 -0.0049787294084525585
 0.9962203258721019 -0.03645435508764764 0.003214828451096033 0.01491906405488982 -0.0005818289689183599 -0.004978728760237319 0.0006839901630781268 0.008025067797431102
 0.0006618312528954482 0.008027610053309946 -0.0005818289689183599 -0.004978728760237319 0.0032183173325859636 0.014917936931560582 0.9962203051978256 -0.03645518843764338
 -0.0005821259645148299 -0.0049787294084525585 0.0006839901630781268 0.008025067797431102 0.9962203051978256 -0.03645518843764338 0.003214625112757228 0.01491824386696636
0.06877865777407 0.0034721893264537456 0.01650246548248746 0.9958847059378745 -0.04016888367622291 0.0007635363721124636 0.008834375562562866 -0.0006699908765477077 -0.005482528351764247
 0.9958847059378745 -0.04016888367622291 0.003468165213261963 0.016502787148571226 -0.0006696327249900891 -0.005482530937494377 0.0007903621728665708 0.008831263632932507
 0.0007635363721124636 0.008834375562562866 -0.0006696327249900891 -0.005482530937494377 0.0034723855477268003 0.016501530348331055 0.9958846812557082 -0.040169800025217965
 -0.0006699908765477077 -0.005482528351764247 0.0007903621728665708 0.008831263632932507 0.9958846812557082 -0.040169800025217965 0.0034679194727495677 0.01650188615233514
0.07503126302626001 0.003739909628636248 0.018101230696369288 0.9955308344083645 -0.043896422985987095 0.000872974371390475 0.00964158390995203 -0.0007645360490953525 -0.005986971722801328
 0.9955308344083645 -0.043896422985987095 0.0037351221881485853 0.01810159913369003 -0.0007641112035231615 -0.005986978360679504 0.0009049167864205626 0.009637824597327383
 0.000872974371390475 0.00964158390995203 -0.0007641112035231615 -0.005986978360679504 0.0037401434844701455 0.018100209176905524 0.9955308053694425 -0.04389742228111993
 -0.0007645360490953525 -0.005986971722801328 0.0009049167864205626 0.009637824597327383 0.9955308053694425 -0.04389742228111993 0.0037348300238194934 0.018100617625905844
0.08128386827845 0.004021565171863938 0.019714846195024015 0.9951584705762043 -0.04763689284834868 0.000990218679759718 0.010449142739362793 -0.0008658375122457922 -0.00649195776134041
 0.9951584705762043 -0.04763689284834868 0.004015948164099566 0.019715264588922202 -0.000865340476195871 -0.006491969324179514 0.0010277284369029922 0.010444653048015345
 0.000990218679759718 0.010449142739362793 -0.000865340476195871 -0.006491969324179514 0.004021839968424012 0.019713737904608827 0.9951584368331752 -0.04763797503253511
 -0.0008658375122457922 -0.00649195776134041 0.0010277284369029922 0.010444653048015345 0.9951584368331752 -0.04763797503253511 0.0040156055518687644 0.019714202893523384
0.08753647353064001 0.004317403749036402 0.021343084466797373 0.9947673739144584 -0.051390196844016287 0.0011153414825529474 0.011256956552677404 -0.0009739698972727201 -0.0069973833842243765
 0.9947673739144584 -0.051390196844016287 0.004310890883591941 0.021343556062306902 -0.0009733952155158477 -0.006997400799428524 0.0011588702733463798 0.01125164813887683
 0.0011153414825529474 0.011256956552677404 -0.0009733952155158477 -0.006997400799428524 0.00431772279270799 0.021341888984015338 0.9947673351203711 -0.05139136185932179
 -0.0009739698972727201 -0.0069973833842243765 0.0011588702733463798 0.01125164813887683 0.9947673351203711 -0.05139136185932179 0.004310493796470692 0.021342414527594628
0.09378907878283 0.004627672100976716 0.02298572333382915 0.9943573042276586 -0.05515622488959309 0.0012484136519262088 0.012064926917862536 -0.0010890063870262878 -0.007503143987978702
 0.9943573042276586 -0.05515622488959309 0.004620197022922373 0.022986251436527022 -0.0010883486454371523 -0.007503168237495313 0.0012984140856865986 0.012058706028781587
 0.0012484136519262088 0.012064926917862536 -0.0010883486454371523 -0.007503168237495313 0.004628038699123629 0.022984440201516954 0.994357260037296 -0.05515747267687247
 -0.0010890063870262878 -0.007503143987978702 0.0012984140856865986 0.012058706028781587 0.994357260037296 -0.05515747267687247 0.004619741431766044 0.02298503043612558
0.100041684035 0.004952615882526911 0.024642544000428056 0.9939280217929295 -0.058934855143863187 0.001389504679132504 0.012872952622477203 -0.0012110186630183055 -0.008009133309253205
 0.9939280217929295 -0.058934855143863187 0.004944112157770071 0.024643131977741074 -0.001210272488423354 -0.008009165429534986 0.0014464302325342424 0.01286572003557069
 0.001389504679132504 0.012872952622477203 -0.001210272488423354 -0.008009165429534986 0.004953033342304485 0.02464117272559398 0.9939279718619444 -0.05893618564248692
 -0.0012110186630183055 -0.008009133309253205 0.0014464302325342424 0.01286572003557069 0.9939279718619444 -0.05893618564248692 0.00494359403089682 0.024641831911396943
0.1059090909091 0.005271106130033747 0.026209999454926757 0.9935074989605298 -0.062492042814732814 0.0015292573377327918 0.013631156882556505 -0.0013319211315021898 -0.008484062430585653
 0.9935074989605298 -0.062492042814732814 0.005261576625373304 0.0262106467374913 -0.001331087121546719 -0.008484102927894024 0.001593094538230644 0.013622879757641416
 0.0015292573377327918 0.013631156882556505 -0.001331087121546719 -0.008484102927894024 0.00527157432591425 0.02620854498888263 0.9935074433306603 -0.062493450871026986
 -0.0013319211315021898 -0.008484062430585653 0.001593094538230644 0.013622879757641416 0.9935074433306603 -0.062493450871026986 0.005260996146807576 0.02620927286518221
0.1062942892872 0.005292479613089809 0.026313329600231295 0.9934792874876514 -0.06272595541888036 0.0015386826074085117 0.013680929795063477 -0.0013400768504782388 -0.0085152433204772
 0.9934792874876514 -0.06272595541888036 0.005282880714062768 0.02631398088320317 -0.0013392369106486992 -0.00851528440242817 0.0016029875700193132 0.013672580758062073
 0.0015386826074085117 0.013680929795063477 -0.0013392369106486992 -0.00851528440242817 0.005292951241634774 0.026311869654158646 0.9934792314731147 -0.06272736856641208
 -0.0013400768504782388 -0.0085152433204772 0.0016029875700193132 0.013672580758062073 0.9934792314731147 -0.06272736856641208 0.005282296017742103 0.026312602177692643
0.11254689453939999 0.005647506620110444 0.027997864077148733 0.9930108629124635 -0.06652938426082279 0.0016960139656805302 0.014488751997625263 -0.0014762494613803502 -0.009021364157953496
 0.9930108629124635 -0.06652938426082279 0.005636745911086226 0.02799858216257194 -0.0014753104650548146 -0.00902141534687737 0.0017681533819505465 0.014479176169111813
 0.0016960139656805302 0.014488751997625263 -0.0014753104650548146 -0.00902141534687737 0.005648035723849391 0.02799631489542507 0.9930108004726239 -0.06653087999261971
 -0.0014762494613803502 -0.009021364157953496 0.0017681533819505465 0.014479176169111813 0.9930108004726239 -0.06653087999261971 0.005636090609361366 0.027997125272674905
0.11879949979160001 0.0060179389740089 0.029695931314315888 0.9925225105082066 -0.07034499178659165 0.0018615637027012734 0.015296310305121727 -0.0016196033359513833 -0.00952738406618014
 0.9925225105082066 -0.07034499178659165 0.006005949696223482 0.029696719767376874 -0.0016185600329067249 -0.009527446561716545 0.0019419933106856928 0.015285391695858736
 0.0018615637027012734 0.015296310305121727 -0.0016185600329067249 -0.009527446561716545 0.006018528858268043 0.029694292296733055 0.9925224413023421 -0.0703465700356508
 -0.0016196033359513833 -0.00952738406618014 0.0019419933106856928 0.015285391695858736 0.9925224413023421 -0.0703465700356508 0.006005219751166309 0.02969518517661067
0.1250521050438 0.006404017417013761 0.03140731444841993 0.9920139936690209 -0.07417262033887459 0.0020353951213039232 0.016103493369373997 -0.0017702035830134927 -0.010033189361423198
 0.9920139936690209 -0.07417262033887459 0.006390732673904639 0.03140817690584568 -0.0017690507641713977 -0.010033264417486107 0.002124571288560824 0.016091110284376712
 0.0020353951213039232 0.016103493369373997 -0.0017690507641713977 -0.010033264417486107 0.006404671385754023 0.03140558495588178 0.9920139173579772 -0.07417428103863496
 -0.0017702035830134927 -0.010033189361423198 0.002124571288560824 0.016091110284376712 0.9920139173579772 -0.07417428103863496 0.006389924046005415 0.031406565124219854
0.131304710296 0.006805981288171226 0.0331317953128341 0.9914850768537475 -0.07801210501637067 0.002217569812883306 0.016910187476180324 -0.0019281135193103306 -0.010538664405608151
 0.9914850768537475 -0.07801210501637067 0.006791334030273857 0.033132735486465226 -0.001926846016909179 -0.010538753330284175 0.002315949469585055 0.016896212457561857
 0.002217569812883306 0.016910187476180324 -0.001926846016909179 -0.010538753330284175 0.0068067026436137434 0.033129974671858915 0.991484993099717 -0.0780138480959106
 -0.0019281135193103306 -0.010538664405608151 0.002315949469585055 0.016896212457561857 0.991484993099717 -0.0780138480959106 0.006790442678480406 0.03313104705586186
0.1375573155481 0.00712832961207331 0.034641727647549726 0.9910312981876922 -0.08163575147940758 0.002383617532245462 0.017692313178091945 -0.0020687529113314167 -0.01101982388676836
 0.9910312981876922 -0.08163575147940758 0.007112246913913304 0.034642726047132415 -0.0020673630264426398 -0.011019926657888314 0.0024914260413558295 0.017676775096864588
 0.002383617532245462 0.017692313178091945 -0.0020673630264426398 -0.011019926657888314 0.007129121006120352 0.034639815259571334 0.9910312066566268 -0.0816375768526112
 -0.0020687529113314167 -0.01101982388676836 0.0024914260413558295 0.017676775096864588 0.9910312066566268 -0.0816375768526112 0.0071112694369812966 0.03464096137912119
0.1438099208003 0.007461876650345701 0.03614426033788734 0.990561820111827 -0.08525082386732032 0.0025563741804451863 0.0184718437294718 -0.002215050953215496 -0.011498559823704489
 0.990561820111827 -0.08525082386732032 0.007444290337142468 0.03614531920046928 -0.002213533121341025 -0.011498677716378039 0.0026740273683818093 0.018454626935102886
 0.0025563741804451863 0.0184718437294718 -0.002213533121341025 -0.011498677716378039 0.0074627412640039924 0.036142255509421 0.9905617204692246 -0.0852527314563835
 -0.002215050953215496 -0.011498559823704489 0.0026740273683818093 0.018454626935102886 0.9905617204692246 -0.0852527314563835 0.007443222806095422 0.03614347882656313
0.1500625260525 0.007806513318998637 0.037639285426507886 0.9900767553656733 -0.08885725106970248 0.002735785783400273 0.019248717674599573 -0.0023669540685652855 -0.011974811113061814
 0.9900767553656733 -0.08885725106970248 0.007787355030928806 0.037640407157166725 -0.0023653027342516652 -0.011974945453493839 0.002863697320917736 0.019229702315483356
 0.002735785783400273 0.019248717674599573 -0.0023653027342516652 -0.011974945453493839 0.0078074543238616356 0.037637187435158634 0.9900766472787361 -0.08885924079458807
 -0.0023669540685652855 -0.011974811113061814 0.002863697320917736 0.019229702315483356 0.9900766472787361 -0.08885924079458807 0.007786193522337591 0.037638491628550506
0.15631513130469998 0.008162129850429169 0.03912669830414555 0.9895762171662162 -0.09245496186253908 0.0029217977937291547 0.02002287449596964 -0.002524408075095132 -0.012448517875611189
