! Created with skrf 1.8.0 (http://scikit-rf.org).
# GHz S RI R 50.0 
!freq ReS11 ImS11 ReS12 ImS12 ReS13 ImS13
! ReS14 ImS14
! ReS21 ImS21 ReS22 ImS22 ReS23 ImS23
! ReS24 ImS24
! ReS31 ImS31 ReS32 ImS32 ReS33 ImS33
! ReS34 ImS34
! ReS41 ImS41 ReS42 ImS42 ReS43 ImS43
! ReS44 ImS44
!
0.0 0.001791219890569 0.0 0.9982087801038 0.0 6.971133677505e-05 0.0 -6.971133730854e-05 8.537176609918497e-21
 0.9982087801038 0.0 0.00179121989057 0.0 -6.971133730842e-05 8.537176609903803e-21 6.971133677614e-05 0.0
 6.971133677505e-05 0.0 -6.971133730842e-05 8.537176609903803e-21 0.001791219880625 0.0 0.9982087800938 0.0
 -6.971133730854e-05 8.537176609918497e-21 6.971133677614e-05 0.0 0.9982087800938 0.0 0.001791219880626 0.0
0.005 0.0019280788175327882 0.0014607700918646599 0.998035482081338 -0.0037514306596350333 9.876179613470688e-05 0.0007914003330969492 -9.569988041120446e-05 -0.0004925176996905663
 0.998035482081338 -0.0037514306596350333 0.0019280835702249715 0.0014607672796700937 -9.570036459007502e-05 -0.0004925179852645295 9.872712993905944e-05 0.0007914134558192628
 9.876179613470688e-05 0.0007914003330969492 -9.570036459007502e-05 -0.0004925179852645295 0.0019280786229630507 0.0014607028548523438 0.9980354817081148 -0.003751497733949217
 -9.569988041120446e-05 -0.0004925176996905663 9.872712993905944e-05 0.0007914134558192628 0.9980354817081148 -0.003751497733949217 0.0019280830228579006 0.0014607003709836708
0.006252605252188 0.0019642218707243285 0.001831691875141711 0.9979893868448382 -0.004690167344439984 0.00010720325455150726 0.0009896063228440576 -0.00010315815613932122 -0.0006162736989274322
 0.9979893868448382 -0.004690167344439984 0.0019642293006371897 0.0018316883241209917 -0.00010315891023440895 -0.0006162740490163937 0.00010714909151329594 0.0009896233890043299
 0.00010720325455150726 0.0009896063228440576 -0.00010315891023440895 -0.0006162740490163937 0.0019642216351546016 0.0018316078372612415 0.9979893863293721 -0.004690251172837123
 -0.00010315815613932122 -0.0006162736989274322 0.00010714909151329594 0.0009896233890043299 0.9979893863293721 -0.004690251172837123 0.001964228512538867 0.0018316047120784005
0.01250521050438 0.0021559364081545256 0.0037015196421993344 0.9977430815311006 -0.009380862099230591 0.00015636190378326046 0.0019793786204978223 -0.0001461230588862879 -0.0012353863031191233
 0.9977430815311006 -0.009380862099230591 0.002155966086068435 0.003701512185641068 -0.0001461260389449368 -0.0012353869257047557 0.00015614589611317854 0.001979419964522834
 0.00015636190378326046 0.0019793786204978223 -0.0001461260389449368 -0.0012353869257047557 0.0021559360254029634 0.0037013517746822345 0.9977430800193411 -0.009381029492812727
 -0.0001461230588862879 -0.0012353863031191233 0.00015614589611317854 0.001979419964522834 0.9977430800193411 -0.009381029492812727 0.002155963478381103 0.0037013453334054512
0.01875781575657 0.0023668337368641574 0.005597625035830578 0.9974695215875851 -0.014083442202643891 0.00021730855937233983 0.002969963289854216 -0.0001987496005872954 -0.0018563743327169606
 0.9974695215875851 -0.014083442202643891 0.002366900444151048 0.00559761330072315 -0.00019875625739385744 -0.0018563751296964207 0.00021682328212926707 0.002970037682060352
 0.00021730855937233983 0.002969963289854216 -0.00019875625739385744 -0.0018563751296964207 0.0023668333228911735 0.0055973733728632005 0.9974695186139277 -0.01408369308724201
 -0.0001987496005872954 -0.0018563743327169606 0.00021682328212926707 0.002970037682060352 0.9974695186139277 -0.01408369308724201 0.0023668949942542176 0.005597363430513706
0.02501042100875 0.002597366976067578 0.007517279177024955 0.9971683496773831 -0.01880011967833872 0.0002901658830097729 0.003961363466749397 -0.0002611753292679594 -0.002478908402393333
 0.9971683496773831 -0.01880011967833872 0.002597485478332538 0.0075172627777799995 -0.0002611870997087325 -0.002478909253893589 0.0002893038577506652 0.003961481195695391
 0.0002901658830097729 0.003961363466749397 -0.0002611870997087325 -0.002478909253893589 0.0025973666539923558 0.007516943739809785 0.9971683447694988 -0.01880045400746635
 -0.0002611753292679594 -0.002478908402393333 0.0002893038577506652 0.003961481195695391 0.9971683447694988 -0.01880045400746635 0.0025974761515382143 0.0075169301242130485
0.03126302626094 0.002847970299125227 0.009459043456068154 0.9968391922973796 -0.02353179974744132 0.0003750563386243186 0.004953487121554984 -0.00033353297224947536 -0.0031027451647130827
 0.9968391922973796 -0.02353179974744132 0.0028481553559642566 0.009459021996071178 -0.00033355128149089084 -0.0031027459288877836 0.00037370994172226143 0.004953660004609634
 0.0003750563386243186 0.004953487121554984 -0.00033355128149089084 -0.0031027459288877836 0.0028479702064021163 0.009458624256443025 0.9968391849832892 -0.023532217498815927
 -0.00033353297224947536 -0.0031027451647130827 0.00037370994172226143 0.004953660004609634 0.9968391849832892 -0.023532217498815927 0.0028481411134042302 0.009458606809989745
0.037515631513130004 0.0031190677095886674 0.011421953907822122 0.9964816689609267 -0.028278896401498277 0.0004721009074694749 0.005946204028985567 -0.00041595140691807255 -0.0037276703827986615
 0.9964816689609267 -0.028278896401498277 0.0031193340822291246 0.011421926980039706 -0.000415977669465085 -0.003727670895688811 0.0004701623325671598 0.005946445428242051
 0.0004721009074694749 0.005946204028985567 -0.000415977669465085 -0.003727670895688811 0.00311906799688991 0.011421450956052183 0.996481658767115 -0.02827939756912256
 -0.00041595140691807255 -0.0037276703827986615 0.0004701623325671598 0.005946445428242051 0.996481658767115 -0.02827939756912256 0.0031193138800128 0.011421429536951069
0.043768236765320004 0.0034110764093528223 0.013405273020321615 0.9960953959735964 -0.03304158053062524 0.0005814184649187268 0.006939363100121975 -0.0005085559832190349 -0.004353481642411265
 0.9960953959735964 -0.03304158053062524 0.0034114388672008434 0.013405240207606533 -0.0005085916034959964 -0.004353481717850702 0.0005787797084866956 0.006939687939857285
 0.0005814184649187268 0.006939363100121975 -0.0005085916034959964 -0.004353481717850702 0.003411077241844944 0.013404686322143578 0.9960953824257096 -0.03304216512767936
 -0.0005085559832190349 -0.004353481642411265 0.0005787797084866956 0.006939687939857285 0.9960953824257096 -0.03304216512767936 0.003411411657608611 0.013404660805263828
0.050020842017509996 0.0037244083356513125 0.015408387156747791 0.9956799883827617 -0.03781988243830502 0.0007031253907179056 0.007932799557985053 -0.0006114686156357531 -0.004979981225891048
 0.9956799883827617 -0.03781988243830502 0.0037248816616559256 0.01540834803203452 -0.000611514988144114 -0.004979980655433325 0.0006996782500955893 0.007933224342742875
 0.0007031253907179056 0.007932799557985053 -0.000611514988144114 -0.004979980655433325 0.00372440989001098 0.015407716727854404 0.9956799710019189 -0.03782055048267117
 -0.0006114686156357531 -0.004979981225891048 0.0006996782500955893 0.007933224342742875 0.9956799710019189 -0.03782055048267117 0.00372484639129709 0.015407687005245398
0.055454545454549996 0.004014336882934836 0.017164809275924488 0.9952950266909808 -0.04198501022150565 0.000819042376742792 0.008796215573275637 -0.0007093663116387705 -0.00552483474319393
 0.9952950266909808 -0.04198501022150565 0.004014918577415323 0.017164764311206695 -0.0007094231530882716 -0.005524833424770736 0.0008148047013672237 0.008796741858066176
 0.000819042376742792 0.008796215573275637 -0.0007094231530882716 -0.005524833424770736 0.004014339220253375 0.017164066091477033 0.9952950055894572 -0.04198575081368869
 -0.0007093663116387705 -0.00552483474319393 0.0008148047013672237 0.008796741858066176 0.9952950055894572 -0.04198575081368869 0.004014875445271246 0.01716403264003079
0.056273447269699996 0.004059470923167184 0.017430756237466177 0.9952350611582561 -0.04261374210141059 0.0008373352796710017 0.008926338476888857 -0.0007248077746802204 -0.005606972629635037
 0.9952350611582561 -0.04261374210141059 0.004060069919958016 0.017430710363545942 -0.0007248662841828115 -0.005606971182457509 0.0008329713585322114 0.008926881309762803
 0.0008373352796710017 0.008926338476888857 -0.0007248662841828115 -0.005606971182457509 0.004059473391646532 0.017430002089858187 0.9952350394643313 -0.04261449362915398
 -0.0007248077746802204 -0.005606972629635037 0.0008329713585322114 0.008926881309762803 0.9952350394643313 -0.04261449362915398 0.004060025533634135 0.017429968071257622
0.06252605252188 0.004416667487723808 0.019471886063908903 0.9947602299993615 -0.047423036795566656 0.0009841587046452195 0.009919796736931023 -0.0008486884251376244 -0.006234258674789534
 0.9947602299993615 -0.047423036795566656 0.0044174069830243395 0.019471832993155462 -0.000848760446600614 -0.006234256097638669 0.0009787694236989219 0.009920477337826842
 0.0009841587046452195 0.009919796736931023 -0.000848760446600614 -0.006234256097638669 0.004416671076130163 0.01947104821382425 0.9947602035087697 -0.047423871852967786
 -0.0008486884251376244 -0.006234258674789534 0.0009787694236989219 0.009920477337826842 0.9947602035087697 -0.047423871852967786 0.004417352422379941 0.019471009826729346
0.06877865777407 0.004796397396270921 0.02153131183671577 0.9942551119344775 -0.052247597535456734 0.0011437030079575307 0.010912984207588669 -0.0009832219347446754 -0.006861640397871312
 0.9942551119344775 -0.052247597535456734 0.004797292248673449 0.021531251110476834 -0.0009833088333404093 -0.006861636414987257 0.001137179619085994 0.010913823931361744
 0.0011437030079575307 0.010912984207588669 -0.0009833088333404093 -0.006861636414987257 0.0047964023243585304 0.02153039030749322 0.9942550801592005 -0.05224851617591437
 -0.0009832219347446754 -0.006861640397871312 0.001137179619085994 0.010913823931361744 0.9942550801592005 -0.05224851617591437 0.004797226452405279 0.0215303474971469
0.07503126302626001 0.005199056114266552 0.02360858771925733 0.9937193258026242 -0.05708721947943403 0.0013160721097898146 0.011905704515536271 -0.0011285159646955269 -0.007488916366664498
 0.9937193258026242 -0.05708721947943403 0.005200121218019817 0.023608518867228343 -0.001128619095549575 -0.007488910679724266 0.0013083057129692965 0.011906726369971917
 0.0013160721097898146 0.011905704515536271 -0.001128619095549575 -0.007488910679724266 0.005199062616511233 0.023607582536295368 0.9937192882505527 -0.05708822176847843
 -0.0011285159646955269 -0.007488916366664498 0.0013083057129692965 0.011906726369971917 0.9937192882505527 -0.05708822176847843 0.005200043123933013 0.023607535265491447
0.08128386827845 0.005625035174081064 0.025703279894521806 0.9931524926614289 -0.06194166885181352 0.0015013663269752965 0.01289775557267565 -0.0012846743484931182 -0.008115882245832403
 0.9931524926614289 -0.06194166885181352 0.005626285465351501 0.025703202433669792 -0.0012847950566125413 -0.008115874533894958 0.0014922478894741035 0.012898984236109617
 0.0015013663269752965 0.01289775557267565 -0.0012847950566125413 -0.008115874533894958 0.005625043500023251 0.025702191086633838 0.9931524488361964 -0.06194275486548553
 -0.0012846743484931182 -0.008115882245832403 0.0014922478894741035 0.012898984236109617 0.9931524488361964 -0.06194275486548553 0.005626194010334969 0.025702139335166463
0.08753647353064001 0.0060747220921153495 0.027814961778878773 0.9925542361485847 -0.06681068771922581 0.00169968219944503 0.013888929961989226 -0.0014517969626513289 -0.008742330514856443
 0.9925542361485847 -0.06681068771922581 0.006076172553935761 0.027814875212403514 -0.0014519365826271935 -0.008742320434318997 0.0016891025766841896 0.013890391800732284
 0.00169968219944503 0.013888929961989226 -0.0014519365826271935 -0.008742320434318997 0.0060747325059040975 0.02781378938042054 0.9925541855482858 -0.06681185754176946
 -0.0014517969626513289 -0.008742330514856443 0.0016891025766841896 0.013890391800732284 0.9925541855482858 -0.06681185754176946 0.006076066674575329 0.02781373314451153
0.09378907878283 0.006548500247874224 0.029943210618070534 0.9919241828097373 -0.07169399739681612 0.0019111123214294197 0.01487901522940378 -0.001629979591859317 -0.009368050290432186
 0.9919241828097373 -0.07169399739681612 0.0065501659160455295 0.0299431144339318 -0.0016301394477293459 -0.009368037474980627 0.001898962279395412 0.014880738314762262
 0.0019111123214294197 0.01487901522940378 -0.0016301394477293459 -0.009368037474980627 0.006548513029216051 0.029941954664635364 0.9919241249268402 -0.07169525112479654
 -0.001629979591859317 -0.009368050290432186 0.001898962279395412 0.014880738314762262 0.9919241249268402 -0.07169525112479654 0.006550044549272299 0.02994189395602689
0.100041684035 0.00704674873857857 0.03208760499367377 0.9912619624050677 -0.07659130095599902 0.002135745176216137 0.01586779411976952 -0.0018193137906242366 -0.009992827215477725
 0.9912619624050677 -0.07659130095599902 0.007048644706858113 0.032087498663089936 -0.001819495195502968 -0.009992811276064884 0.002121915415249924 0.01586980824469785
 0.002135745176216137 0.01586779411976952 -0.001819495195502968 -0.009992811276064884 0.007046764182393305 0.03208626552635464 0.991261896725793 -0.07659263869374697
 -0.0018193137906242366 -0.009992827215477725 0.002121915415249924 0.01586980824469785 0.991261896725793 -0.07659263869374697 0.007048506790900988 0.032086200371096905
0.1059090909091 0.007536891397586914 0.034114200017584986 0.9906109564704758 -0.08119934933433295 0.0023586220959064103 0.01679427253015715 -0.0020072038053774483 -0.010578062530847063
 0.9906109564704758 -0.08119934933433295 0.007539017262405279 0.03411408366811476 -0.002007406616067967 -0.01057804328581107 0.002343116653428075 0.01679658840907674
 0.0023586220959064103 0.01679427253015715 -0.002007406616067967 -0.01057804328581107 0.007536909622614172 0.03411278222156578 0.9906108830024186 -0.0812007660099518
 -0.0020072038053774483 -0.010578062530847063 0.002343116653428075 0.01679658840907674 0.9906108830024186 -0.0812007660099518 0.007538862853115155 0.034112712928949455
0.1062942892872 0.007569842213810219 0.03424772296975106 0.9905672082009721 -0.08150228510460428 0.0023736649738727686 0.016855044775046922 -0.0020198867419190187 -0.010616443396785129
 0.9905672082009721 -0.08150228510460428 0.007571983639725977 0.034247605945263195 -0.002020090997804633 -0.01061642392159567 0.0023580461535449133 0.016857381470341003
 0.0023736649738727686 0.016855044775046922 -0.002020090997804633 -0.01061642392159567 0.007569860631386671 0.03424630003229211 0.9905671342052987 -0.08150370696678097
 -0.0020198867419190187 -0.010616443396785129 0.0023580461535449133 0.016857381470341003 0.9905671342052987 -0.08150370696678097 0.007571828115080232 0.03424623046949267
0.11254689453939999 0.008118150696364925 0.03642314068527451 0.9898395572502151 -0.08642662163418492 0.0026249514912558055 0.017840540906416662 -0.002231781114320794 -0.011238677379752511
 0.9898395572502151 -0.08642662163418492 0.008120552806683489 0.03642301239881898 -0.002232009511775239 -0.011238653934187878 0.002607434256353307 0.01784323345656533
 0.0026249514912558055 0.017840540906416662 -0.002232009511775239 -0.011238653934187878 0.008118172414597405 0.036421634324880395 0.9898394744107342 -0.08642812774471496
 -0.002231781114320794 -0.011238677379752511 0.002607434256353307 0.01784323345656533 0.9898394744107342 -0.08642812774471496 0.008120378616146472 0.03642156040505136
0.11879949979160001 0.008692039390954736 0.03861343126913156 0.9890786506633081 -0.09136396855805531 0.0028896799140723456 0.01882405195029889 -0.002455074917804858 -0.011859304150490878
 0.9890786506633081 -0.09136396855805531 0.008694717487463794 0.038613291129588945 -0.002455328735604958 -0.01185927627714707 0.0028701549215872113 0.018827135408766665
 0.0028896799140723456 0.01882405195029889 -0.002455328735604958 -0.01185927627714707 0.00869206475339058 0.038611841535486295 0.9890785584453552 -0.09136555905069926
 -0.002455074917804858 -0.011859304150490878 0.0028701549215872113 0.018827135408766665 0.9890785584453552 -0.09136555905069926 0.008694523577635394 0.038611763318698034
0.1250521050438 0.009291868485456326 0.040818163999252664 0.9882841338749244 -0.09631397101847017 0.0031679206809390368 0.019805343212124734 -0.0026898413590896197 -0.012478095161508208
 0.9882841338749244 -0.09631397101847017 0.00929483795055436 0.04081801139000529 -0.0026901218639634687 -0.012478062380202921 0.0031462786277852194 0.01980885441623303
 0.0031679206809390368 0.019805343212124734 -0.0026901218639634687 -0.012478062380202921 0.009291897852289071 0.040816490946015 0.9882840317354197 -0.09631564603501235
 -0.0026898413590896197 -0.012478095161508208 0.0031462786277852194 0.01980885441623303 0.9882840317354197 -0.09631564603501235 0.00929462327223288 0.04081640849979192
0.131304710296 0.00991799294428453 0.043036903643529335 0.9874556569041003 -0.10127626202600801 0.0034597393290193216 0.020784176007369936 -0.002936148697014011 -0.013094818371578757
 0.9874556569041003 -0.10127626202600801 0.009921269246592587 0.04303673791962155 -0.0029364571432578487 -0.013094780179332795 0.0034358709808726766 0.02078815359256139
 0.0034597393290193216 0.020784176007369936 -0.0029364571432578487 -0.013094780179332795 0.009918026692579164 0.04303514732589219 0.9874555442916463 -0.1012780217182882
 -0.002936148697014011 -0.013094818371578757 0.0034358709808726766 0.02078815359256139 0.9874555442916463 -0.1012780217182882 0.0099210327557716 0.04303506072287138
0.1375573155481 0.010435873524330643 0.04497981753403219 0.9867278339192792 -0.10596088739960133 0.0037310860692930403 0.021732295445209764 -0.0031599852658641516 -0.013681231852372723
 0.9867278339192792 -0.10596088739960133 0.010439472624375484 0.044979640911488296 -0.0031603232873790438 -0.013681188143055559 0.0037049397206263502 0.02173673696765158
 0.0037310860692930403 0.021732295445209764 -0.0031603232873790438 -0.013681188143055559 0.010435910892896447 0.044977978475132484 0.9867277103534644 -0.1059627318190195
 -0.0031599852658641516 -0.013681231852372723 0.0037049397206263502 0.02173673696765158 0.9867277103534644 -0.1059627318190195 0.010439214285740982 0.044977889545725694
0.1438099208003 0.010972207474843372 0.04691081491003572 0.9859739169571704 -0.1106319435095799 0.0040133424618637855 0.0226755477937139 -0.003392706892172008 -0.014263187813932052
 0.9859739169571704 -0.1106319435095799 0.010976145007337651 0.046910626818492715 -0.003393075794474088 -0.01426313809440695 0.00398481933798254 0.02268048886437448
 0.0040133424618637855 0.0226755477937139 -0.003393075794474088 -0.01426313809440695 0.010972248659128462 0.04690889322554041 0.9859737818897296 -0.11063387279526306
 -0.003392706892172008 -0.014263187813932052 0.00398481933798254 0.02268048886437448 0.9859737818897296 -0.11063387279526306 0.01097586396440247 0.04690880201618029
0.1500625260525 0.011526779253753434 0.04882968488668852 0.9851941266859783 -0.11528926378928071 0.00430639404763339 0.023613803484667257 -0.003634202335503864 -0.014840565179366659
 0.9851941266859783 -0.11528926378928071 0.011531070931789915 0.048829484699347385 -0.00363460341693577 -0.01484050893703795 0.004275396098245141 0.023619281012477285
 0.00430639404763339 0.023613803484667257 -0.00363460341693577 -0.01484050893703795 0.011526824452233601 0.0488276806955441 0.985193979561924 -0.1152912780865439
 -0.003634202335503864 -0.014840565179366659 0.004275396098245141 0.023619281012477285 0.985193979561924 -0.1152912780865439 0.011530766343890912 0.04882758721812984
0.15631513130469998 0.012099371464113284 0.05073622288529782 0.9843886852563398 -0.11993268342541283 0.004610124826057386 0.02454693555121859 -0.0038843588135973697 -0.01541324577455391
 0.9843886852563398 -0.11993268342541283 0.01210403308062601 0.05073600991572895 -0.0038847933651968767 -0.015413182477501189 0.00457655473771703 0.02455298772739198
