! Created with skrf 1.8.0 (http://scikit-rf.org).
# GHz S RI R 50.0 
!freq ReS11 ImS11 ReS12 ImS12 ReS13 ImS13
! ReS14 ImS14
! ReS21 ImS21 ReS22 ImS22 ReS23 ImS23
! ReS24 ImS24
! ReS31 ImS31 ReS32 ImS32 ReS33 ImS33
! ReS34 ImS34
! ReS41 ImS41 ReS42 ImS42 ReS43 ImS43
! ReS44 ImS44
!
0.0 0.001212054215412 0.0 0.9987879457726 0.0 4.604123478815e-05 0.0 -4.604123470471e-05 5.638425070991514e-21
 0.9987879457726 0.0 0.001212054215383 0.0 -4.604123470459e-05 5.638425070976818e-21 4.60412347877e-05 0.0
 4.604123478815e-05 0.0 -4.604123470459e-05 5.638425070976818e-21 0.001212054221406 0.0 0.9987879457786 0.0
 -4.604123470471e-05 5.638425070991514e-21 4.60412347877e-05 0.0 0.9987879457786 0.0 0.001212054221382 0.0
0.005 0.0013032664214503314 0.0009948858588615065 0.9986726814758842 -0.0025397825957479627 6.362697345323892e-05 0.0004903464918951133 -6.198341504715243e-05 -0.00031087038926435706
 0.9986726814758842 -0.0025397825957479627 0.001303269374195853 0.0009948840819780486 -6.198181572412456e-05 -0.0003108691360365376 6.36126946625973e-05 0.0004903518792889799
 6.362697345323892e-05 0.0004903464918951133 -6.198181572412456e-05 -0.0003108691360365376 0.001303267704119734 0.000994952329278764 0.9986726818084212 -0.002539715537882879
 -6.198341504715243e-05 -0.00031087038926435706 6.36126946625973e-05 0.0004903518792889799 0.9986726818084212 -0.002539715537882879 0.001303268753525706 0.0009949517249607381
0.006252605252188 0.0013269634442221975 0.0012475396685518829 0.9986425847590441 -0.003175383021412607 6.852275412971906e-05 0.0006131926725146386 -6.638033052583614e-05 -0.00038899864303970817
 0.9986425847590441 -0.003175383021412607 0.0013269680605531992 0.001247537431024619 -6.63778420021522e-05 -0.00038899709664205826 6.850044391993849e-05 0.0006131996686705292
 6.852275412971906e-05 0.0006131926725146386 -6.63778420021522e-05 -0.00038899709664205826 0.0013269653686504854 0.0012476227526306502 0.9986425851978739 -0.003175299198253692
 -6.638033052583614e-05 -0.00038899864303970817 6.850044391993849e-05 0.0006131996686705292 0.9986425851978739 -0.003175299198253692 0.0013269670089805052 0.0012476219879673982
0.01250521050438 0.0014503985895387252 0.002521442957906557 0.9984849603481379 -0.006351747911144947 9.592117074663958e-05 0.0012268648695166456 -9.076862963096206e-05 -0.0007800042849996354
 0.9984849603481379 -0.006351747911144947 0.0014504170305146397 0.0025214383113598745 -9.075882404256478e-05 -0.0007800014091588867 9.583217787452201e-05 0.0012268816420614222
 9.592117074663958e-05 0.0012268648695166456 -9.075882404256478e-05 -0.0007800014091588867 0.0014504057271547276 0.00252160881651657 0.9984849615498192 -0.006351580511686726
 -9.076862963096206e-05 -0.0007800042849996354 9.583217787452201e-05 0.0012268816420614222 0.9984849615498192 -0.006351580511686726 0.001450412274705044 0.0025216072012458697
0.01875781575657 0.0015825817105471103 0.0038137764112588703 0.9983149106653654 -0.009536868690091906 0.00012829290955195826 0.001841435838247122 -0.00011927066129860126 -0.0011725045205688536
 0.9983149106653654 -0.009536868690091906 0.0015826231625485066 0.0038137691519358453 -0.00011924879576816835 -0.0011725005650638858 0.00012809293803327216 0.0018414656102895
 0.00012829290955195826 0.001841435838247122 -0.00011924879576816835 -0.0011725005650638858 0.0015825973306728826 0.003814024851821893 0.9983149129401504 -0.009536617802352087
 -0.00011927066129860126 -0.0011725045205688536 0.00012809293803327216 0.0018414656102895 0.9983149129401504 -0.009536617802352087 0.0015826120377778927 0.0038140223113120254
0.02501042100875 0.0017237306930458305 0.00512278490822652 0.9981322688387831 -0.012732335820414 0.0001656951051774239 0.002456955271968449 -0.0001519496412260589 -0.0015663537323520721
 0.9981322688387831 -0.012732335820414 0.0017238043325192658 0.005122774804384266 -0.00015191102918790818 -0.0015663489847232153 0.00016533980448831356 0.002457001691669181
 0.0001656951051774239 0.002456955271968449 -0.00015191102918790818 -0.0015663489847232153 0.0017237580702606527 0.005123115740740369 0.9981322725044626 -0.01273200148909003
 -0.0001519496412260589 -0.0015663537323520721 0.00016533980448831356 0.002457001691669181 0.9981322725044626 -0.01273200148909003 0.0017237841791503934 0.005123112213413007
0.03126302626094 0.0018740540714123676 0.006447589141032729 0.9979368579191924 -0.01593885870183278 0.00020818551020489417 0.0030734192340361784 -0.00018886744865945142 -0.001961457155161208
 0.9979368579191924 -0.01593885870183278 0.0018741690694861397 0.006447575933637361 -0.00018880744993710375 -0.0019614519413698192 0.00020763043385464147 0.003073486377186454
 0.00020818551020489417 0.0030734192340361784 -0.00018880744993710375 -0.0019614519413698192 0.001874096479299234 0.0064480021592175085 0.9979368632938408 -0.01593844094697698
 -0.00018886744865945142 -0.001961457155161208 0.00020763043385464147 0.003073486377186454 0.9979368632938408 -0.01593844094697698 0.0018741372241144636 0.006447997597288679
0.037515631513130004 0.002033756052520246 0.007787633901419413 0.9977284959914094 -0.019156817339752535 0.0002558219832806044 0.0036908029800359968 -0.00023008506552178598 -0.0023577380428526163
 0.9977284959914094 -0.019156817339752535 0.002033921577677845 0.00778761730444334 -0.0002299990811842538 -0.0023577327274976268 0.00025502256943596126 0.003690895354640725
 0.0002558219832806044 0.0036908029800359968 -0.0002299990811842538 -0.0023577327274976268 0.0020338167640847767 0.0077881288606882005 0.9977285033936862 -0.019156316178516878
 -0.00023008506552178598 -0.0023577380428526163 0.00025502256943596126 0.003690895354640725 0.9977285033936862 -0.019156316178516878 0.0020338753723318655 0.007788123230725787
0.043768236765320004 0.002203038458079893 0.009142520180123482 0.9975069982051846 -0.022386430195466246 0.0003086622568516587 0.004309070933779917 -0.0002756627428411489 -0.0027551276804747373
 0.9975069982051846 -0.022386430195466246 0.0022032636780993857 0.009142499880487535 -0.0002755462120451719 -0.0027551226668721717 0.00030757381848535605 0.004309193485240248
 0.0003086622568516587 0.004309070933779917 -0.0002755462120451719 -0.0027551226668721717 0.0022031207448742827 0.00914309681864315 0.9975070079537165 -0.022385845620553572
 -0.0002756627428411489 -0.0027551276804747373 0.00030757381848535605 0.004309193485240248 0.9975070079537165 -0.022385845620553572 0.0022032004390849973 0.0091430901021168
0.050020842017509996 0.0023821016403414302 0.010511935795074298 0.9972721777809164 -0.02562782350547639 0.00036676380244264747 0.0049281808021572815 -0.0003256600714723277 -0.0031535612577166692
 0.9972721777809164 -0.02562782350547639 0.002382395723846663 0.010511911452631115 -0.00032550846945758247 -0.0031535569879427867 0.0003653415223029888 0.004928338918731221
 0.00036676380244264747 0.0049281808021572815 -0.00032550846945758247 -0.0031535569879427867 0.0023822087748953044 0.010512593810979224 0.997272190196585 -0.025627155507512
 -0.0003256600714723277 -0.0031535612577166692 0.0003653415223029888 0.004928338918731221 0.997272190196585 -0.025627155507512 0.002382312773364358 0.010512586004769987
0.055454545454549996 0.0025458110158294656 0.011713596627207178 0.9970571460178542 -0.028454313598550565 0.0004215729750459112 0.005466853370649783 -0.00037274436692647797 -0.003500611017305404
 0.9970571460178542 -0.028454313598550565 0.002546172391234955 0.01171356847411209 -0.0003725586391929635 -0.0035006077830772543 0.0004198240764946241 0.005467047118450664
 0.0004215729750459112 0.005466853370649783 -0.0003725586391929635 -0.0035006077830772543 0.002545942400216348 0.011714325095660592 0.9970571610122908 -0.028453573084520487
 -0.00037274436692647797 -0.003500611017305404 0.0004198240764946241 0.005467047118450664 0.9970571610122908 -0.028453573084520487 0.0025460701313509953 0.011714316352257394
0.056273447269699996 0.002571144965085353 0.011895621318994467 0.9970238465839509 -0.028881065301087232 0.00043018374079926134 0.005548085587952927 -0.00038013600819134235 -0.003552975845078133
 0.9970238465839509 -0.028881065301087232 0.0025715170825854044 0.011895592566427492 -0.000379944844788636 -0.0035529727999865047 0.0004283826693905054 0.005548285106330632
 0.00043018374079926134 0.005548085587952927 -0.000379944844788636 -0.0035529727999865047 0.002571280218187049 0.011896360383968428 0.9970238619880564 -0.02888031385464695
 -0.00038013600819134235 -0.003552975845078133 0.0004283826693905054 0.005548285106330632 0.9970238619880564 -0.02888031385464695 0.0025714117365184287 0.011896351500807234
0.06252605252188 0.002770367081236304 0.013293351373586669 0.9967618154879477 -0.03214618406169451 0.0004989787718962355 0.006168734702444621 -0.0004391488814005397 -0.003953309271183276
 0.9967618154879477 -0.03214618406169451 0.002770826406519346 0.013293317816243686 -0.0004389137000649842 -0.003953307970411048 0.0004967538275321988 0.006168981913366735
 0.0004989787718962355 0.006168734702444621 -0.0004389137000649842 -0.003953307970411048 0.002770533724161204 0.01329417112189823 0.9967618342045105 -0.03214534913570097
 -0.0004391488814005397 -0.003953309271183276 0.0004967538275321988 0.006168981913366735 0.9967618342045105 -0.03214534913570097 0.0027706959760921135 0.013294161190849156
0.06877865777407 0.002979966080890538 0.014704923450081498 0.9964858946303226 -0.035423179842318755 0.0005732051187966707 0.006790074616443797 -0.0005027563826022053 -0.004354499462759193
 0.9964858946303226 -0.035423179842318755 0.002980521791831101 0.014704884665790587 -0.0005024727596204454 -0.0043545004647248505 0.0005705110888960013 0.006790376270340082
 0.0005732051187966707 0.006790074616443797 -0.0005024727596204454 -0.0043545004647248505 0.002980167383182134 0.014705823480261148 0.9964859169845477 -0.03542226139809288
 -0.0005027563826022053 -0.004354499462759193 0.0005705110888960013 0.006790376270340082 0.9964859169845477 -0.03542226139809288 0.002980363581814155 0.014705812547078563
0.07503126302626001 0.003200139587699947 0.01613015083946123 0.9961958935978799 -0.038712031292562114 0.0006529184774612213 0.007412049277339123 -0.0005710155509581342 -0.004756484019825098
 0.9961958935978799 -0.038712031292562114 0.0032008008673483643 0.016130106378312747 -0.0005706790949066857 -0.004756487921720713 0.000649710020977065 0.007412412589970601
 0.0006529184774612213 0.007412049277339123 -0.0005706790949066857 -0.004756487921720713 0.003200378818132282 0.01613113071838388 0.9961959199173605 -0.03871102927910008
 -0.0005710155509581342 -0.004756484019825098 0.000649710020977065 0.007412412589970601 0.9961959199173605 -0.03871102927910008 0.0032006121770752085 0.01613111884597125
0.08128386827845 0.003431084808027107 0.01756885791695379 0.9958916215764733 -0.04201270032233133 0.0007381739710160988 0.008034600383443556 -0.0006439827527659891 -0.005159199934884646
 0.9958916215764733 -0.04201270032233133 0.0034318608454358035 0.017568807301017994 -0.0006435891041103361 -0.005159207372662252 0.0007344056215008578 0.008035033041534995
 0.0007381739710160988 0.008034600383443556 -0.0006435891041103361 -0.005159207372662252 0.003431365233815489 0.017569917173506765 0.9958916521914137 -0.04201161468237348
 -0.0006439827527659891 -0.005159199934884646 0.0007344056215008578 0.008035033041534995 0.9958916521914137 -0.04201161468237348 0.0034316389681285165 0.017569904442260423
0.08753647353064001 0.0036729985512976185 0.019020876886549798 0.995572887473174 -0.04532513530895342 0.0008290261069853778 0.008657667573203041 -0.0007217136569764268 -0.005562583398651071
 0.995572887473174 -0.04532513530895342 0.00367389854237081 0.019020819609669427 -0.0007212584877533907 -0.005562595047017844 0.0008246522764676056 0.008658177740028108
 0.0008290261069853778 0.008657667573203041 -0.0007212584877533907 -0.005562595047017844 0.0036733234378909965 0.01902201501314971 0.9955729227162848 -0.04532396597689139
 -0.0007217136569764268 -0.005562583398651071 0.0008246522764676056 0.008658177740028108 0.9955729227162848 -0.04532396597689139 0.003673640765381221 0.01902200152128358
0.09378907878283 0.003926077233045602 0.020486045447167183 0.995239500021339 -0.04864927338401982 0.0009255287361144033 0.009281188559518375 -0.0008042632084130041 -0.005966569662106076
 0.995239500021339 -0.04864927338401982 0.0039271103816388535 0.020485980974549137 -0.0008037422220616413 -0.005966586234488841 0.0009205037193640965 0.009281784880459675
 0.0009255287361144033 0.009281188559518375 -0.0008037422220616413 -0.005966586234488841 0.003926449843746624 0.020487261898010638 0.9952395402283932 -0.04864802028731647
 -0.0008042632084130041 -0.005966569662106076 0.0009205037193640965 0.009281784880459675 0.9952395402283932 -0.04864802028731647 0.0039268139859561894 0.020487247761920947
0.100041684035 0.0041905168647496825 0.021964205079382848 0.9948912678752144 -0.051985042101236514 0.0010277350124737801 0.009905099230047835 -0.0008916855988856564 -0.006371092934069776
 0.9948912678752144 -0.051985042101236514 0.004191692383085879 0.021964132847384913 -0.0008910945300247027 -0.006371115182611303 0.0010220129917435713 0.009905790838110384
 0.0010277350124737801 0.009905099230047835 -0.0008910945300247027 -0.006371115182611303 0.00419094045996929 0.021965499273218846 0.9948913133849233 -0.05198370515720485
 -0.0008916855988856564 -0.006371092934069776 0.0010220129917435713 0.009905790838110384 0.9948913133849233 -0.05198370515720485 0.00419135464356096 0.021965484627702973
0.1059090909091 0.00444917230282268 0.023362977344302833 0.99455081741118 -0.055125813322388306 0.0011288788697430957 0.010490868986722772 -0.0009782016196816696 -0.006751123937469551
 0.99455081741118 -0.055125813322388306 0.004450489807001564 0.02336289729217388 -0.000977540934292774 -0.006751152231000615 0.0011224610182613876 0.010491658757173453
 0.0011288788697430957 0.010490868986722772 -0.000977540934292774 -0.006751152231000615 0.004449646704461366 0.023364343927898434 0.9945508682081512 -0.05512439761549731
 -0.0009782016196816696 -0.006751123937469551 0.0011224610182613876 0.010491658757173453 0.9945508682081512 -0.05512439761549731 0.004450110786387256 0.023364328943611037
0.1062942892872 0.004466513032275855 0.02345519976429779 0.994527999694877 -0.0553323606738125 0.001135697354028505 0.010529333721064623 -0.000984034236904183 -0.0067760863067994805
 0.994527999694877 -0.0553323606738125 0.004467840142141469 0.023455119179922136 -0.0009833688513427813 -0.006776115022316991 0.0011292324041959866 0.01053013024233969
 0.001135697354028505 0.010529333721064623 -0.0009833688513427813 -0.006776115022316991 0.004466990869621372 0.023456571079812145 0.9945280508495069 -0.055330939793815995
 -0.000984034236904183 -0.0067760863067994805 0.0011292324041959866 0.01053013024233969 0.9945280508495069 -0.055330939793815995 0.0044674583271245415 0.023456556078384646
0.11254689453939999 0.00475426086855936 0.024958874990172096 0.9941495042267577 -0.058691140925664215 0.0012494674039239065 0.0111538244749611 -0.001081361716072883 -0.007181481699541507
 0.9941495042267577 -0.058691140925664215 0.004755748801935985 0.024958785430803997 -0.001080617810696465 -0.007181517711506816 0.0012422134979536586 0.011154736034016385
 0.0012494674039239065 0.0111538244749611 -0.001080617810696465 -0.007181517711506816 0.004754796201956114 0.02496032276912684 0.9941495613722314 -0.058689636011618
 -0.001081361716072883 -0.007181481699541507 0.0012422134979536586 0.011154736034016385 0.9941495613722314 -0.058689636011618 0.004755320173419993 0.024960307584219212
0.11879949979160001 0.005053955019126507 0.026475076983051547 0.9937555903794111 -0.0620612880206394 0.0013690959920334925 0.011778502286935243 -0.0011837197822940633 -0.007587209814542462
 0.9937555903794111 -0.0620612880206394 0.005055613019042072 0.0264749777959803 -0.001182893185091761 -0.007587253991046049 0.0013610070068155557 0.011779539512187137
 0.0013690959920334925 0.011778502286935243 -0.001182893185091761 -0.007587253991046049 0.0050545510986741045 0.02647660052692815 0.9937556538654662 -0.06205969896795874
 -0.0011837197822940633 -0.007587209814542462 0.0013610070068155557 0.011779539512187137 0.9937556538654662 -0.06205969896795874 0.005055134832567393 0.02647658535009695
0.1250521050438 0.005365789603594992 0.028003652096257135 0.9933460672962147 -0.06544270103455388 0.00149463309653778 0.012403296340690305 -0.0012911593003853002 -0.00799320010577992
 0.9933460672962147 -0.06544270103455388 0.005367626924993583 0.028003542598202966 -0.0012902458704928156 -0.00799325335348953 0.0014856628188486536 0.012404470369641518
 0.00149463309653778 0.012403296340690305 -0.0012902458704928156 -0.00799325335348953 0.005366449674859394 0.028005250667413155 0.9933461374767051 -0.06544102773065694
 -0.0012911593003853002 -0.00799320010577992 0.0014856628188486536 0.012404470369641518 0.9933461374767051 -0.06544102773065694 0.005367096429372816 0.02800523570949886
0.131304710296 0.005689958173274773 0.029544446315376217 0.9929207444265441 -0.06883527341381626 0.0016261278054869868 0.013028134241418044 -0.0014037302198485467 -0.008399380752159145
 0.9929207444265441 -0.06883527341381626 0.005691984083728999 0.029544325792047806 -0.001402725847592596 -0.008399444016280764 0.0016162299383897854 0.013029456725905124
 0.0016261278054869868 0.013028134241418044 -0.001402725847592596 -0.008399444016280764 0.005690685476918548 0.02954611913815796 0.992920821659772 -0.06883351573658149
 -0.0014037302198485467 -0.008399380752159145 0.0016162299383897854 0.013029456725905124 0.992920821659772 -0.06883351573658149 0.005691398521240244 0.02954610462941544
0.1375573155481 0.00594492420171211 0.030896492192886805 0.9925611817315009 -0.0720380244031442 0.0017449980653906098 0.013632348245901668 -0.0015028659013391877 -0.008785083773766118
 0.9925611817315009 -0.0720380244031442 0.0059471475945768685 0.030896361008870495 -0.0015017644878469495 -0.00878515694962085 0.0017341513745840597 0.013633815467652802
 0.0017449980653906098 0.013632348245901668 -0.0015017644878469495 -0.00878515694962085 0.005945721432762909 0.030898238627760314 0.9925612663357248 -0.07203618229712944
 -0.0015028659013391877 -0.008785083773766118 0.0017341513745840597 0.013633815467652802 0.9925612663357248 -0.07203618229712944 0.005946504824134587 0.030898225704147478
0.1438099208003 0.006208596914674922 0.03224262124590842 0.9921894563333027 -0.07523386479385992 0.001868660289289223 0.01423478075304656 -0.0016059717798004814 -0.009169154421369959
 0.9921894563333027 -0.07523386479385992 0.006211026996230989 0.03224247872184112 -0.0016047689015945203 -0.009169238421357187 0.0018568228992448463 0.01423640316387975
 0.001868660289289223 0.01423478075304656 -0.0016047689015945203 -0.009169238421357187 0.006209467207907195 0.03224444050254048 0.9921895486647452 -0.07523193814091403
 -0.0016059717798004814 -0.009169154421369959 0.0018568228992448463 0.01423640316387975 0.9921895486647452 -0.07523193814091403 0.006210324362766226 0.03224442943922984
0.1500625260525 0.0064808980214900586 0.03358275665964398 0.9918056493246968 -0.07842275132428658 0.0019970798130911445 0.0148353925394945 -0.0017130141978947677 -0.009551554884417997
 0.9918056493246968 -0.07842275132428658 0.006483544003590443 0.033582602084076554 -0.0017117054373574888 -0.009551650657262085 0.0019842100617189014 0.014837180962999042
 0.0019970798130911445 0.0148353925394945 -0.0017117054373574888 -0.009551650657262085 0.0064818445006960415 0.033584647913982704 0.991805749743462 -0.0784207400037517
 -0.0017130141978947677 -0.009551554884417997 0.0019842100617189014 0.014837180962999042 0.991805749743462 -0.0784207400037517 0.00648277885273093 0.03358463899187601
0.15631513130469998 0.006761748844545332 0.03491682415314002 0.9914098420240584 -0.08160464022635863 0.002130221659401454 0.0154341449125255 -0.0018239591736879186 -0.009932248059077945
