! Created with skrf 1.8.0 (http://scikit-rf.org).
# GHz S RI R 50.0 
!freq ReS11 ImS11 ReS12 ImS12 ReS13 ImS13
! ReS14 ImS14
! ReS21 ImS21 ReS22 ImS22 ReS23 ImS23
! ReS24 ImS24
! ReS31 ImS31 ReS32 ImS32 ReS33 ImS33
! ReS34 ImS34
! ReS41 ImS41 ReS42 ImS42 ReS43 ImS43
! ReS44 ImS44
!
0.0 0.001645911741726 0.0 0.9983540882413 0.0 6.371683255613e-05 0.0 -6.371683100098e-05 7.8030613137163e-21
 0.9983540882413 0.0 0.001645911741697 0.0 -6.371683100022e-05 7.803061313623226e-21 6.371683255366e-05 0.0
 6.371683255613e-05 0.0 -6.371683100022e-05 7.803061313623226e-21 0.001645911731762 0.0 0.9983540882313 0.0
 -6.371683100098e-05 7.8030613137163e-21 6.371683255366e-05 0.0 0.9983540882313 0.0 0.00164591173177 0.0
0.005 0.0017711920375515673 0.0013450768725030713 0.9981955369016224 -0.003447496429305642 8.962963499906374e-05 0.000708686877866835 -8.697426157442656e-05 -0.00044361365520847253
 0.9981955369016224 -0.003447496429305642 0.001771201480381508 0.0013450714438525038 -8.697273312399511e-05 -0.0004436125767781609 8.956592465946339e-05 0.0007087110394996156
 8.962963499906374e-05 0.000708686877866835 -8.697273312399511e-05 -0.0004436125767781609 0.0017711927071845592 0.0013451438064485998 0.9981955372696171 -0.0034474293725261286
 -8.697426157442656e-05 -0.00044361365520847253 8.956592465946339e-05 0.0007087110394996156 0.9981955372696171 -0.0034474293725261286 0.0017712015365406247 0.0013451386132454913
0.006252605252188 0.0018041426199167426 0.001686629308158647 0.9981535572606395 -0.004310199038928792 9.708582668407585e-05 0.0008861926208096119 -9.358414671838705e-05 -0.000555086342418874
 0.9981535572606395 -0.004310199038928792 0.0018041573804051252 0.0016866224518359515 -9.35817675797727e-05 -0.000555085014986483 9.698628443985936e-05 0.0008862240205237408
 9.708582668407585e-05 0.0008861926208096119 -9.35817675797727e-05 -0.000555085014986483 0.0018041435891112813 0.0016867129762016936 0.998153557758981 -0.004310115220204905
 -9.358414671838705e-05 -0.000555086342418874 9.698628443985936e-05 0.0008862240205237408 0.998153557758981 -0.004310115220204905 0.001804157391595507 0.0016867063987209734
0.01250521050438 0.001978144962334204 0.003408489354488175 0.9979303401366578 -0.0086210997750567 0.00014012524132381795 0.00177267983836828 -0.00013132071810019176 -0.0011128068122524374
 0.9979303401366578 -0.0086210997750567 0.0019782038920084914 0.003408474938883113 -0.0001313113329478018 -0.0011128043857860542 0.00013972826067122377 0.0017727556014977238
 0.00014012524132381795 0.00177267983836828 -0.0001313113329478018 -0.0011128043857860542 0.001978148270474243 0.003408656468992315 0.9979303415784789 -0.00862093235536446
 -0.00013132071810019176 -0.0011128068122524374 0.00013972826067122377 0.0017727556014977238 0.9979303415784789 -0.00862093235536446 0.001978203393579184 0.0034086424564689767
0.01875781575657 0.0021683189056913104 0.005154720966923664 0.9976841451098977 -0.012943172138932707 0.00019293770833895237 0.0026600465575848968 -0.00017704700252764216 -0.0016723349099208363
 0.9976841451098977 -0.012943172138932707 0.002168451304490971 0.005154698240793493 -0.00017702606081760567 -0.0016723316632452309 0.00019204586702551406 0.002660182290478027
 0.00019293770833895237 0.0026600465575848968 -0.00017702606081760567 -0.0016723316632452309 0.0021683258911480677 0.005154971383294043 0.9976841479315205 -0.01294292117641953
 -0.00017704700252764216 -0.0016723349099208363 0.00019204586702551406 0.002660182290478027 0.9976841479315205 -0.01294292117641953 0.0021684497731525717 0.0051549490326768515
0.02501042100875 0.002375051545478198 0.006922852866213813 0.9974146683579227 -0.017278485279312826 0.00025562732148444147 0.003548314688614991 -0.00023087912188567115 -0.002233400111800296
 0.9974146683579227 -0.017278485279312826 0.0023752866456850804 0.006922821042682761 -0.00023084212363622125 -0.002233396378497293 0.00025404308938663695 0.00354852856139667
 0.00025562732148444147 0.003548314688614991 -0.00023084212363622125 -0.002233396378497293 0.002375063529359929 0.006923186430837775 0.9974146730008724 -0.01727815075943878
 -0.00023087912188567115 -0.002233400111800296 0.00025404308938663695 0.00354852856139667 0.9974146730008724 -0.01727815075943878 0.0023752835655951243 0.006923154804015378
0.03126302626094 0.00259871395729771 0.008711600231448976 0.9971215913177984 -0.021627908977426204 0.0003282984472241348 0.004437423255771814 -0.0002929296349396434 -0.0027958077489420455
 0.9971215913177984 -0.021627908977426204 0.0025990809423759903 0.008711558490900124 -0.0002928721223359024 -0.0027958039179456985 0.00032582400906474787 0.004437736019329016
 0.0003282984472241348 0.004437423255771814 -0.0002928721223359024 -0.0027958039179456985 0.002598732243760997 0.008712016740310627 0.9971215982301395 -0.021627490854208082
 -0.0002929296349396434 -0.0027958077489420455 0.00032582400906474787 0.004437736019329016 0.9971215982301395 -0.021627490854208082 0.0025990758030964654 0.008711974866681882
0.037515631513130004 0.002839668950883289 0.010520115435193619 0.9968045887291649 -0.02599186285077323 0.0004110546623023987 0.005327278282474002 -0.00036330834478181737 -0.003359389134486235
 0.9968045887291649 -0.02599186285077323 0.0028401969683898645 0.010520062926917689 -0.00036322589795630106 -0.0033593856503095713 0.00040749184015406693 0.005327713295370854
 0.0004110546623023987 0.005327278282474002 -0.00036322589795630106 -0.0033593856503095713 0.002839694823047445 0.010520614639632697 0.9968045983627511 -0.0259913610408742
 -0.00036330834478181737 -0.003359389134486235 0.00040749184015406693 0.005327713295370854 0.9968045983627511 -0.0259913610408742 0.0028401892598108568 0.010520561517572708
0.043768236765320004 0.003098274056169769 0.01234776002994226 0.996463331912974 -0.03037054429530216 0.0005039982474311438 0.006217767965654526 -0.00044212257805889137 -0.003923986403438243
 0.996463331912974 -0.03037054429530216 0.0030989922293218346 0.012347695873166463 -0.0004420108128054426 -0.003923983766298346 0.0004991484662414568 0.006218351224103141
 0.0005039982474311438 0.006217767965654526 -0.0004420108128054426 -0.003923983766298346 0.0030983087775401643 0.012348341637139238 0.9964633447264284 -0.03036995867726094
 -0.00044212257805889137 -0.003923986403438243 0.0004991484662414568 0.006218351224103141 0.9964633447264284 -0.03036995867726094 0.003098981441387381 0.012348276234945013
0.050020842017509996 0.00337488290419249 0.01419401052602454 0.996097490447822 -0.034764022634388395 0.0006072298777086062 0.007108768944478589 -0.0005294772760744289 -0.004489446261607682
 0.996097490447822 -0.034764022634388395 0.0033758203411076377 0.014193933810703493 -0.0005293318422848723 -0.004489445027535889 0.0006008941536454523 0.007109529113520301
 0.0006072298777086062 0.007108768944478589 -0.0005293318422848723 -0.004489445027535889 0.0033749277172466542 0.01419467418411931 0.9960975069072662 -0.03476335306348048
 -0.0005294772760744289 -0.004489446261607682 0.0006008941536454523 0.007109529113520301 0.9960975069072662 -0.03476335306348048 0.003375805962672927 0.014194595440505215
0.055454545454549996 0.003630157850417604 0.01581321398925418 0.9957593401937498 -0.03859409711665561 0.0007053732597829918 0.00788338882365349 -0.0006124067748629019 -0.004981430645400861
 0.9957593401937498 -0.03859409711665561 0.0036313094691815496 0.015813125598579694 -0.0006122285752181601 -0.004981431125588213 0.0006975842908033447 0.007884328109508908
 0.0007053732597829918 0.00788338882365349 -0.0006122285752181601 -0.004981431125588213 0.0036302124250282607 0.015813948628665104 0.995759360205935 -0.038593354444089435
 -0.0006124067748629019 -0.004981430645400861 0.0006975842908033447 0.007884328109508908 0.995759360205935 -0.038593354444089435 0.0036312915519872246 0.01581385740637755
0.056273447269699996 0.0036698459231337415 0.016058412127757323 0.995706733167505 -0.03917228531252011 0.0007208483975496786 0.008000149393492882 -0.000625475003854955 -0.005055616914702511
 0.995706733167505 -0.03917228531252011 0.0036710317266448124 0.016058321914855046 -0.0006252915847968546 -0.005055617695592141 0.0007128273397405234 0.008001117838737856
 0.0007208483975496786 0.008000149393492882 -0.0006252915847968546 -0.005055617695592141 0.0036699020482446093 0.01605915743621015 0.995706753746957 -0.03917153161006646
 -0.000625475003854955 -0.005055616914702511 0.0007128273397405234 0.008001117838737856 0.995706753746957 -0.03917153161006646 0.0036710132426176693 0.016059064260685436
0.06252605252188 0.003983510702817266 0.01794055332378952 0.9952907288312586 -0.043595263238580914 0.000844950640303982 0.00889177071163398 -0.0007302159146821834 -0.005622346406873913
 0.9952907288312586 -0.043595263238580914 0.0039849739793073324 0.017940448645375688 -0.0007299902264493341 -0.005622349870544681 0.0008350444621904375 0.0088929815311352
 0.000844950640303982 0.00889177071163398 -0.0007299902264493341 -0.005622349870544681 0.0039835793384152916 0.01794137982588457 0.9952907540147683 -0.043594425199459295
 -0.0007302159146821834 -0.005622346406873913 0.0008350444621904375 0.0088929815311352 0.9952907540147683 -0.043594425199459295 0.003984950870541024 0.017941271098765303
0.06877865777407 0.0043162221761602945 0.019840050721755386 0.9948491466148744 -0.048032845890617626 0.0009796312713176625 0.00978348855044915 -0.0008437976908554706 -0.0061894816258425125
 0.9948491466148744 -0.048032845890617626 0.004317992044285122 0.019839930580816765 -0.000843525482121202 -0.006189488496079212 0.0009676398082202589 0.009784978606521267
 0.0009796312713176625 0.00978348855044915 -0.000843525482121202 -0.006189488496079212 0.004316304497105234 0.01984095790879843 0.994849176897163 -0.04803192327890916
 -0.0008437976908554706 -0.0061894816258425125 0.0009676398082202589 0.009784978606521267 0.994849176897163 -0.04803192327890916 0.0043179637853613855 0.019840832480913114
0.07503126302626001 0.004668322689792456 0.021756539447436364 0.994381656496879 -0.05248489086223708 0.0011249826446433741 0.01067515346895629 -0.0009663154696095652 -0.006756867687500213
 0.994381656496879 -0.05248489086223708 0.004670428289387865 0.021756402817362422 -0.0009659925215813179 -0.006756878744085616 0.0011107053764478488 0.010676962419826226
 0.0011249826446433741 0.01067515346895629 -0.0009659925215813179 -0.006756878744085616 0.004668419846630401 0.02175752675362375 0.9943816923841773 -0.05248388341638022
 -0.0009663154696095652 -0.006756867687500213 0.0011107053764478488 0.010676962419826226 0.9943816923841773 -0.05248388341638022 0.004670394347166967 0.021757383445844193
0.08128386827845 0.0050401520088595025 0.02368966675464231 0.9938879295818381 -0.05695123020503975 0.00128109466949284 0.011566611375272038 -0.0010978617584296829 -0.007324347540165578
 0.9938879295818381 -0.05695123020503975 0.005042622509636909 0.023689512578421897 -0.0010974838849344424 -0.0073243636188941716 0.001264330747031859 0.011568781706449257
 0.00128109466949284 0.011566611375272038 -0.0010974838849344424 -0.0073243636188941716 0.005040265126882873 0.023690733563743877 0.9938879715935939 -0.056950137631093016
 -0.0010978617584296829 -0.007324347540165578 0.001264330747031859 0.011568781706449257 0.9938879715935939 -0.056950137631093016 0.005042582341596751 0.023690571166194833
0.08753647353064001 0.005432047274623168 0.02563908761809494 0.9933676383819093 -0.06143167479529932 0.001448054681598895 0.012457703846672644 -0.0012385263443473822 -0.007891761697020959
 0.9933676383819093 -0.06143167479529932 0.005434911884863469 0.025638914807256247 -0.0012380893919883126 -0.007891783689719246 0.0014286029561157744 0.012460280901950284
 0.001448054681598895 0.012457703846672644 -0.0012380893919883126 -0.007891783689719246 0.0054321774525695424 0.02564023325560511 0.9933676870510411 -0.06143049677492562
 -0.0012385263443473822 -0.007891761697020959 0.0014286029561157744 0.012460280901950284 0.9933676870510411 -0.06143049677492562 0.005434864937439108 0.025640050526548726
0.09378907878283 0.005844342930939047 0.027604461574479232 0.9928204570703033 -0.06592601746012923 0.0016259473187310138 0.013348268367530128 -0.0013883961979177704 -0.008458948057521527
 0.9928204570703033 -0.06592601746012923 0.005847630906283003 0.027604269007707405 -0.0013878960463715225 -0.00845897691202826 0.0016036063742554659 0.013351300379626936
 0.0016259473187310138 0.013348268367530128 -0.0013878960463715225 -0.00845897691202826 0.005844491240506529 0.027605685313460242 0.9928205129452894 -0.06592475364490388
 -0.0013883961979177704 -0.008458948057521527 0.0016036063742554659 0.013351300379626936 0.9928205129452894 -0.06592475364490388 0.005847576613481438 0.027605480977967594
0.100041684035 0.006277370628279666 0.029585450427163415 0.9922460617168087 -0.07043403524785931 0.0018148543990560426 0.014238138512089257 -0.0015475553738868606 -0.009025741791008185
 0.9922460617168087 -0.07043403524785931 0.006281111280365365 0.029585236948606153 -0.0015469879362011415 -0.009025778511178494 0.0017894225867188165 0.014241676632736901
 0.0018148543990560426 0.014238138512089257 -0.0015469879362011415 -0.009025778511178494 0.006277538112657149 0.029586751485293834 0.9922461253622851 -0.07043268526237566
 -0.0015475553738868606 -0.009025741791008185 0.0017894225867188165 0.014241676632736901 0.9922461253622851 -0.07043268526237566 0.00628104906206214 0.02958652423358594
0.1059090909091 0.006702869639904706 0.031458299144116714 0.991682015033757 -0.07467655822895612 0.00200221147609473 0.015072404182770645 -0.0017054301436035216 -0.009557111210495866
 0.991682015033757 -0.07467655822895612 0.006707061797605948 0.0314580649582924 -0.0017047958780520998 -0.009557156274613312 0.0019736956393855104 0.015076466380842946
 0.00200221147609473 0.015072404182770645 -0.0017047958780520998 -0.009557156274613312 0.006703056040073651 0.03145967199790264 0.9916820864999489 -0.0746751270159035
 -0.0017054301436035216 -0.009557111210495866 0.0019736956393855104 0.015076466380842946 0.9916820864999489 -0.0746751270159035 0.006706991600152482 0.031459422017728556
0.1062942892872 0.006731459111004449 0.031581716514226144 0.9916441305101007 -0.07495549114333241 0.002014854801188551 0.015127144095546028 -0.001716084909134262 -0.009591975259132924
 0.9916441305101007 -0.07495549114333241 0.006735681816666774 0.031581480931459696 -0.0017154461321284094 -0.009592020904792897 0.00198613027585432 0.015131242425155593
 0.002014854801188551 0.015127144095546028 -0.0017154461321284094 -0.009592020904792897 0.006731646783590199 0.03158309405405357 0.9916442025080313 -0.07495405458521204
 -0.001716084909134262 -0.009591975259132924 0.00198613027585432 0.015131242425155593 0.9916442025080313 -0.07495405458521204 0.006735611076573776 0.03158284253950906
0.11254689453939999 0.007206934091586989 0.03359292139292957 0.9910143439701161 -0.07949013537523553 0.002226024346011046 0.01601511130319935 -0.001894062718650873 -0.01015747796755665
 0.9910143439701161 -0.07949013537523553 0.007211668301526123 0.03359266247460417 -0.0018933485834104077 -0.010157533654462985 0.002193805104492349 0.01601982691991399
 0.002226024346011046 0.01601511130319935 -0.0018933485834104077 -0.010157533654462985 0.00720714293558093 0.03359437452338595 0.9910144249210677 -0.07948861181391818
 -0.001894062718650873 -0.01015747796755665 0.002193805104492349 0.01601982691991399 0.9910144249210677 -0.07948861181391818 0.007211588426031703 0.033594097360318514
0.11879949979160001 0.007704118114987863 0.03561872482241656 0.9903563851540589 -0.08403770643391592 0.0024484356792130197 0.016901862798828035 -0.0020815634904471757 -0.010722076545924072
 0.9903563851540589 -0.08403770643391592 0.007709393362810316 0.03561844129562137 -0.0020807700126540224 -0.010722143445706333 0.0024125196003305133 0.016907255786987145
 0.0024484356792130197 0.016901862798828035 -0.0020807700126540224 -0.010722143445706333 0.0077043490813558145 0.03562025259734648 0.9903564756781479 -0.08403609541256463
 -0.0020815634904471757 -0.010722076545924072 0.0024125196003305133 0.016907255786987145 0.9903564756781479 -0.08403609541256463 0.007709303718986172 0.03561994835831835
0.1250521050438 0.008223330415033588 0.03765878396355296 0.9896699398570223 -0.08859793188101159 0.002682158155415121 0.0177872178285037 -0.002278658578942454 -0.011285594739884048
 0.9896699398570223 -0.08859793188101159 0.00822917632625912 0.037658474510764435 -0.0022777818095559817 -0.01128567407997361 0.002642343041286004 0.017793351306492143
 0.002682158155415121 0.0177872178285037 -0.0022777818095559817 -0.01128567407997361 0.008223584422149202 0.03766038538318674 0.9896700405956907 -0.08859623291548316
 -0.002278658578942454 -0.011285594739884048 0.002642343041286004 0.017793351306492143 0.9896700405956907 -0.08859623291548316 0.008229076260339908 0.03766005259613922
0.131304710296 0.008764886764635903 0.03971275274412902 0.9889546968099022 -0.09317052900291 0.00292725772275136 0.018670992313286335 -0.0024854158979162326 -0.011847853421948188
 0.9889546968099022 -0.09317052900291 0.008771333065851965 0.039712415999816425 -0.0024844519235765906 -0.011847946485515667 0.0028833413419023916 0.01867793246071104
 0.00292725772275136 0.018670992313286335 -0.0024844519235765906 -0.011847946485515667 0.00876516469683404 0.03971442675534918 0.9889548084265035 -0.09316874158201066
 -0.0024854158979162326 -0.011847853421948188 0.0028833413419023916 0.01867793246071104 0.9889548084265035 -0.09316874158201066 0.008771221901334503 0.03971406390032822
0.1375573155481 0.009208334684849998 0.041512624267077976 0.988331164836476 -0.09748740835403832 0.0031540446673635155 0.019526643002665003 -0.0026722061411678976 -0.012382298148086534
 0.988331164836476 -0.09748740835403832 0.009215414975355081 0.04151226519553573 -0.002671149413381687 -0.012382405119658782 0.0031059293502308997 0.019534382516764516
 0.0031540446673635155 0.019526643002665003 -0.002671149413381687 -0.012382405119658782 0.009208638640202495 0.04151436933756119 0.9883312878452433 -0.09748553216139423
 -0.0026722061411678976 -0.012382298148086534 0.0031059293502308997 0.019534382516764516 0.9883312878452433 -0.09748553216139423 0.00921529108175754 0.04151398246047498
0.1438099208003 0.009667489428800712 0.043302372892171724 0.9876854917645846 -0.10179269596273213 0.003389982560406857 0.02037842499495754 -0.002866447343602903 -0.01291320644191456
 0.9876854917645846 -0.10179269596273213 0.009675234201226469 0.04330199035461521 -0.002865293705578586 -0.01291332858294129 0.0033374848955915683 0.020387024627505513
 0.003389982560406857 0.02037842499495754 -0.002865293705578586 -0.01291332858294129 0.009667820462385367 0.04330418784719826 0.9876856268304778 -0.10179073049550781
 -0.002866447343602903 -0.01291320644191456 0.0033374848955915683 0.020387024627505513 0.9876856268304778 -0.10179073049550781 0.009675096696576567 0.0433037757892643
0.1500625260525 0.010142179765468426 0.04508182989880957 0.9870178533035433 -0.10608626536153966 0.0036349843602661706 0.02122623816903082 -0.0030680551375381854 -0.01344048446590586
 0.9870178533035433 -0.10608626536153966 0.010150619637972723 0.045081422656888276 -0.003066800446960955 -0.01344062308801166 0.0035779221086848713 0.021235760893958604
 0.0036349843602661706 0.02122623816903082 -0.003066800446960955 -0.01344062308801166 0.010142538913853319 0.04508371351510682 0.9870180011102913 -0.1060842100984983
 -0.0030680551375381854 -0.01344048446590586 0.0035779221086848713 0.021235760893958604 0.9870180011102913 -0.1060842100984983 0.010150467606783438 0.04508327502243421
0.15631513130469998 0.010632233132484945 0.046850831606668634 0.9863284261826931 -0.11036799095213252 0.0038889619300844724 0.022069984231185086 -0.003276944054771117 -0.013964040471938104
 0.9863284261826931 -0.11036799095213252 0.010641398852223285 0.046850398317565434 -0.003275584184204527 -0.0139641969365005 0.003827154043303662 0.022080495220617745
