! Created with skrf 1.8.0 (http://scikit-rf.org).
# GHz S RI R 50.0 
!freq ReS11 ImS11 ReS12 ImS12 ReS13 ImS13
! ReS14 ImS14
! ReS21 ImS21 ReS22 ImS22 ReS23 ImS23
! ReS24 ImS24
! ReS31 ImS31 ReS32 ImS32 ReS33 ImS33
! ReS34 ImS34
! ReS41 ImS41 ReS42 ImS42 ReS43 ImS43
! ReS44 ImS44
!
0.0 0.001449864633407 0.0 0.9985501353666 0.0 5.590391402798e-05 0.0 -5.590391376098e-05 6.846254904719383e-21
 0.9985501353666 0.0 0.001449864633422 0.0 -5.590391376201e-05 6.846254904845521e-21 5.590391402793e-05 0.0
 5.590391402798e-05 0.0 -5.590391376201e-05 6.846254904845521e-21 0.001449864626324 0.0 0.9985501353595 0.0
 -5.590391376098e-05 6.846254904719383e-21 5.590391402793e-05 0.0 0.9985501353595 0.0 0.001449864626286 0.0
0.005 0.0015597170858276353 0.0011837919348923324 0.9984112052122092 -0.003037496009932856 7.849543570196316e-05 0.0006313256413412389 -7.622866752716092e-05 -0.0003936266170921516
 0.9984112052122092 -0.003037496009932856 0.0015597042350659325 0.0011837994043371746 -7.622712665074915e-05 -0.00039362539576210255 7.858240060381504e-05 0.0006312925862425003
 7.849543570196316e-05 0.0006313256413412389 -7.622712665074915e-05 -0.00039362539576210255 0.0015597177088740794 0.0011837242574749434 0.9984112048568683 -0.003037563076281695
 -7.622866752716092e-05 -0.0003936266170921516 7.858240060381504e-05 0.0006312925862425003 0.9984112048568683 -0.003037563076281695 0.001559702901830813 0.001183732947813607
0.006252605252188 0.0015884553363011192 0.0014844187968330938 0.9983746454351107 -0.0037976258724235937 8.488980866202792e-05 0.0007894617567864343 -8.193351963096023e-05 -0.0004925501418324315
 0.9983746454351107 -0.0037976258724235937 0.0015884352484599744 0.0014844282823518982 -8.193112218511704e-05 -0.0004925486349658608 8.502568452451793e-05 0.0007894188400085506
 8.488980866202792e-05 0.0007894617567864343 -8.193112218511704e-05 -0.0004925486349658608 0.0015884564021477878 0.0014843342104224433 0.9983746449711808 -0.0037977096898405135
 -8.193351963096023e-05 -0.0004925501418324315 8.502568452451793e-05 0.0007894188400085506 0.9983746449711808 -0.0037977096898405135 0.0015884332554828367 0.0014843452315931162
0.01250521050438 0.0017393161586242174 0.003000136581448442 0.9981815301974652 -0.007596144885719757 0.0001212446820746788 0.0015792776804943445 -0.0001141218020693469 -0.0009875512211731505
 0.9981815301974652 -0.007596144885719757 0.0017392359518737014 0.0030001570379814056 -0.00011411235722491196 -0.0009875484231164613 0.00012178655799971055 0.0015791746804314822
 0.0001212446820746788 0.0015792776804943445 -0.00011411235722491196 -0.0009875484231164613 0.0017393209498683762 0.002999967590766968 0.9981815288742134 -0.007596312275905085
 -0.0001141218020693469 -0.0009875512211731505 0.00012178655799971055 0.0015791746804314822 0.9981815288742134 -0.007596312275905085 0.001739228517007342 0.0029999912309802536
0.01875781575657 0.0019027613486299869 0.0045376189473329345 0.9979705603007246 -0.01140482066445038 0.00016505123360941682 0.002370005423074332 -0.00015256490303936578 -0.0014842793832429016
 0.9979705603007246 -0.01140482066445038 0.0019025811290733301 0.0045376519369321085 -0.0001525438450108723 -0.0014842755478125655 0.00016626858183350408 0.0023698219764698774
 0.00016505123360941682 0.002370005423074332 -0.0001525438450108723 -0.0014842755478125655 0.0019027725493567238 0.00453736557228972 0.9979705577500168 -0.011405071512694221
 -0.00015256490303936578 -0.0014842793832429016 0.00016626858183350408 0.0023698219764698774 0.9979705577500168 -0.011405071512694221 0.0019025648332279142 0.004537403558564845
0.02501042100875 0.00207909673605289 0.006094724780404181 0.9977414977865764 -0.015225514627140708 0.00021639286761724122 0.00316169378582911 -0.00019735604848627677 -0.00198251460818074
 0.9977414977865764 -0.015225514627140708 0.0020787766947907116 0.0060947719272737896 -0.0001973188671872787 -0.001982510032054385 0.00021855532008872308 0.00316140644882164
 0.00021639286761724122 0.00316169378582911 -0.0001973188671872787 -0.001982510032054385 0.0020791170229095776 0.006094386969359914 0.9977414936321538 -0.015225848859363435
 -0.00019735604848627677 -0.00198251460818074 0.00021855532008872308 0.00316140644882164 0.9977414936321538 -0.015225848859363435 0.0020787481092481193 0.00609444114098859
0.03126302626094 0.002268615450712077 0.007670359801929126 0.9974940920276929 -0.019059032405162463 0.00027535341636087817 0.0039543172693242415 -0.00024858596675346873 -0.0024821062395081594
 0.9974940920276929 -0.019059032405162463 0.0022681158413672374 0.007670422788993633 -0.00024852819815965294 -0.0024821012628016793 0.00027873101891561446 0.0039538994992513584
 0.00027535341636087817 0.0039543172693242415 -0.00024852819815965294 -0.0024821012628016793 0.002268647505334061 0.00766993745255919 0.997494085896323 -0.019059449967105523
 -0.00024858596675346873 -0.0024821062395081594 0.00027873101891561446 0.0039538994992513584 0.997494085896323 -0.019059449967105523 0.002268071538267993 0.007670009757832827
0.037515631513130004 0.0024716043870734966 0.009263816243467133 0.9972280863760664 -0.022905784108444193 0.00034201640251839996 0.004747821217150667 -0.00030634356583422224 -0.002982927845090681
 0.9972280863760664 -0.022905784108444193 0.0024708855106180664 0.009263896810445066 -0.0003062607870708646 -0.0029829228515246917 0.0003468797318100028 0.004747243340694319
 0.00034201640251839996 0.004747821217150667 -0.0003062607870708646 -0.0029829228515246917 0.0024716508922161466 0.009263309228136814 0.9972280778934074 -0.02290628494012225
 -0.00030634356583422224 -0.002982927845090681 0.0003468797318100028 0.004747243340694319 0.9972280778934074 -0.02290628494012225 0.0024708220578714708 0.009263401722966006
0.043768236765320004 0.0026883467041680306 0.010874571936116335 0.9969432208456411 -0.026765985169548628 0.00041646469026690225 0.005542135552938982 -0.0003707161830585739 -0.0034848634784804084
 0.9969432208456411 -0.026765985169548628 0.002687368896539573 0.010874671878053677 -0.0003706040093997101 -0.0034848588954191294 0.00042308491164040157 0.0055413647299600065
 0.00041646469026690225 0.005542135552938982 -0.0003706040093997101 -0.0034848588954191294 0.0026884103472995424 0.010873980083952026 0.9969432096400843 -0.02676656922297304
 -0.0003707161830585739 -0.0034848634784804084 0.00042308491164040157 0.0055413647299600065 0.9969432096400843 -0.02676656922297304 0.002687282861319823 0.010874094931103952
0.050020842017509996 0.0029191229918899657 0.012502207237758462 0.9966392334631134 -0.030639739347827412 0.0004987802781576639 0.006337180443953523 -0.00044178967766749357 -0.003987802013429789
 0.9966392334631134 -0.030639739347827412 0.0029178466135697787 0.012502328403926836 -0.000441643760607339 -0.003987798311894913 0.0005074291726601669 0.006336180629491042
 0.0004987802781576639 0.006337180443953523 -0.000441643760607339 -0.003987798311894913 0.002919206462329833 0.012501530349607127 0.9966392191627179 -0.030640406571783886
 -0.00044178967766749357 -0.003987802013429789 0.0005074291726601669 0.006336180629491042 0.9966392191627179 -0.030640406571783886 0.0029177345593023414 0.012501669818268838
0.055454545454549996 0.003131288314788298 0.013930100906264571 0.9963593255618529 -0.03401718267535999 0.0005767671521629903 0.00702862457072965 -0.0005090622215876429 -0.004425600574912348
 0.9963593255618529 -0.03401718267535999 0.003129720288824041 0.013930242060308415 -0.0005088834760936366 -0.00442559805586682 0.0005874002290541043 0.007027393964585568
 0.0005767671521629903 0.00702862457072965 -0.0005088834760936366 -0.00442559805586682 0.003131391202205418 0.013929349930736466 0.9963593082707755 -0.034017922137589245
 -0.0005090622215876429 -0.004425600574912348 0.0005874002290541043 0.007027393964585568 0.9963593082707755 -0.034017922137589245 0.0031295828304721053 0.013929512721791229
0.056273447269699996 0.003164211872104146 0.014146364282615441 0.9963158610562681 -0.034527079411912125 0.0005890441507354519 0.007132869083472862 -0.0005196484571559575 -0.004491634361251856
 0.9963158610562681 -0.034527079411912125 0.003162597298089325 0.014146508575731982 -0.0005194644830804002 -0.0044916320558965606 0.0005999941233235268 0.007131600988925239
 0.0005890441507354519 0.007132869083472862 -0.0005194644830804002 -0.0044916320558965606 0.003164317862193912 0.014145602125657773 0.9963158432902006 -0.03452782975710027
 -0.0005196484571559575 -0.004491634361251856 0.0005999941233235268 0.007131600988925239 0.9963158432902006 -0.03452782975710027 0.0031624557857535024 0.014145768591505755
0.06252605252188 0.0034238903259733245 0.015806724572603934 0.995972839770893 -0.038427989482223986 0.0006873361611345047 0.007929109219315857 -0.0006043754678999974 -0.00499625194447258
 0.995972839770893 -0.038427989482223986 0.0034218979361706355 0.015806893948352843 -0.0006041491571425005 -0.004996251593568203 0.0007008602364191061 0.007927530273249748
 0.0006873361611345047 0.007929109219315857 -0.0006041491571425005 -0.004996251593568203 0.0034240215309372184 0.01580587687997456 0.9959728181695697 -0.03842882290142933
 -0.0006043754678999974 -0.00499625194447258 0.0007008602364191061 0.007927530273249748 0.9959728181695697 -0.03842882290142933 0.00342172352456687 0.015806072825282513
0.06877865777407 0.0036984338719631546 0.017482995607713214 0.9956099054429233 -0.04234241833730878 0.0007937349295749238 0.008725804064381653 -0.0006960521662608982 -0.005501545791413198
 0.9956099054429233 -0.04234241833730878 0.0036960240423664675 0.01748319207436608 -0.0006957792724367051 -0.005501547996810834 0.0008101067392251909 0.00872386837322142
 0.0007937349295749238 0.008725804064381653 -0.0006957792724367051 -0.005501547996810834 0.0036985929889634143 0.017482062081824085 0.9956098796371166 -0.04234333478172186
 -0.0006960521662608982 -0.005501545791413198 0.0008101067392251909 0.00872386837322142 0.9956098796371166 -0.04234333478172186 0.00369581328739651 0.017482290096046384
0.07503126302626001 0.0039881166528926044 0.019174902423953883 0.995226793880829 -0.04627028781533096 0.0009083177519855903 0.00952285287981697 -0.0007947584774515982 -0.006007405961314283
 0.995226793880829 -0.04627028781533096 0.003985249746344748 0.019175128042450015 -0.0007944347869930184 -0.006007411368416914 0.0009278115149725107 0.00952051118858629
 0.0009083177519855903 0.00952285287981697 -0.0007944347869930184 -0.006007411368416914 0.003988306381288412 0.01917388273423975 0.9952267635028867 -0.046271287236623236
 -0.0007947584774515982 -0.006007405961314283 0.0009278115149725107 0.00952051118858629 0.9952267635028867 -0.046271287236623236 0.003984999201779075 0.019174145514700983
0.08128386827845 0.004293211469298568 0.02088218194664929 0.9948232410994025 -0.0502114984040392 0.0010311605144436293 0.010320151356951886 -0.0009005727456529832 -0.006513721174165828
 0.9948232410994025 -0.0502114984040392 0.004289847826603872 0.020882438830791626 -0.0009001940774627776 -0.0065137304718842935 0.0010540510131422708 0.01031735101015254
 0.0010311605144436293 0.010320151356951886 -0.0009001940774627776 -0.0065137304718842935 0.004293434509575731 0.020881075731054726 0.9948232057818208 -0.050212580752586895
 -0.0009005727456529832 -0.006513721174165828 0.0010540510131422708 0.01031735101015254 0.9948232057818208 -0.050212580752586895 0.004289554043503228 0.02088137608398765
0.08753647353064001 0.0046139897748990084 0.022604579100414208 0.9943989835173642 -0.05416593307763391 0.0011623376112224605 0.011117591895232816 -0.0010135716795238127 -0.007020378548050957
 0.9943989835173642 -0.05416593307763391 0.004610089705704877 0.022604869417390504 -0.001013133884759993 -0.007020392468769433 0.0011889001625690024 0.011114276798006507
 0.0011623376112224605 0.011117591895232816 -0.001013133884759993 -0.007020392468769433 0.004614248828664773 0.02260338596622932 0.9943989428933652 -0.0541670983014325
 -0.0010135716795238127 -0.007020378548050957 0.0011889001625690024 0.011114276798006507 0.9943989428933652 -0.0541670983014325 0.004609749232930222 0.022603726808029696
0.09378907878283 0.004950721646712663 0.024341844018796462 0.993953758133188 -0.05813346003798978 0.0013019218653347196 0.011915063794944006 -0.001133830292842194 -0.0075272634255421226
 0.993953758133188 -0.05813346003798978 0.0049462454207644295 0.024342169989958452 -0.001133329254759184 -0.007527282745068322 0.001332432289268627 0.011911174374490387
 0.0013019218653347196 0.011915063794944006 -0.001133329254759184 -0.007527282745068322 0.0049510194167806925 0.02434056353968222 0.9939537118375924 -0.05813470808546171
 -0.001133830292842194 -0.0075272634255421226 0.001332432289268627 0.011911174374490387 0.9939537118375924 -0.05813470808546171 0.0049458548057780185 0.02434094789841624
0.100041684035 0.005303675737566148 0.026093730001832183 0.99348730268623 -0.06211393471221823 0.0014499844506931942 0.012712453409013929 -0.0012614218425784957 -0.008034259244734235
 0.99348730268623 -0.06211393471221823 0.005298583575458731 0.026094093903724438 -0.0012608534764716136 -0.008034284782252647 0.0014847190353522014 0.012707926576462105
 0.0014499844506931942 0.012712453409013929 -0.0012608534764716136 -0.008034284782252647 0.005304014926747562 0.026092361719364025 0.9934872503542734 -0.062115265530244886
 -0.0012614218425784957 -0.008034259244734235 0.0014847190353522014 0.012707926576462105 0.9934872503542734 -0.062115265530244886 0.005298139363605719 0.026092792736617753
0.1059090909091 0.005649877656039877 0.02775076856455513 0.9930300423768879 -0.06586082512431475 0.0015966983182443407 0.013460540427745409 -0.0013878858629589126 -0.00851001636846108
 0.9930300423768879 -0.06586082512431475 0.0056441712726150155 0.027751170181281853 -0.0013872506301489675 -0.00851004852454136 0.0016356484951318105 0.01345535490762217
 0.0015966983182443407 0.013460540427745409 -0.0013872506301489675 -0.00851004852454136 0.005650258170639516 0.02774931744115853 0.9930299840491352 -0.06586223356531529
 -0.0013878858629589126 -0.00851001636846108 0.0016356484951318105 0.01345535490762217 0.9930299840491352 -0.06586223356531529 0.005643673622559566 0.027749795202630972
0.1062942892872 0.005673119213803175 0.02785999198279039 0.992999355806116 -0.0661072012452557 0.0016065948152070011 0.01350964425703847 -0.0013964177645504113 -0.008541247452140233
 0.992999355806116 -0.0661072012452557 0.005667371278061869 0.02786039614853194 -0.0013957780177194946 -0.008541280070160695 0.001645830279722193 0.013504413369658288
 0.0016065948152070011 0.01350964425703847 -0.0013957780177194946 -0.008541280070160695 0.005673502524730677 0.027858535404955316 0.9929992970736774 -0.06610861478067409
 -0.0013964177645504113 -0.008541247452140233 0.001645830279722193 0.013504413369658288 0.9929992970736774 -0.06610861478067409 0.005666870013260104 0.02785901633787905
0.11254689453939999 0.006059317683735437 0.029640385350892355 0.9924896571549143 -0.07011309364125601 0.0017718206048976137 0.01430651711962578 -0.0015388876069454556 -0.009048107439315419
 0.9924896571549143 -0.07011309364125601 0.006052874069526709 0.029640832171800024 -0.0015381724587395706 -0.009048148043616621 0.0018158340599846088 0.014300511943564923
 0.0017718206048976137 0.01430651711962578 -0.0015381724587395706 -0.009048148043616621 0.006059747818688879 0.029638839953313262 0.9924895916591385 -0.0701145898392201
 -0.0015388876069454556 -0.009048107439315419 0.0018158340599846088 0.014300511943564923 0.9924895916591385 -0.0701145898392201 0.006052312294609789 0.029639374177045645
0.11879949979160001 0.006462535117565624 0.031434665038219484 0.9919579475646914 -0.07413143664537825 0.0019457275880226225 0.015102950118662644 -0.001688898962983507 -0.009554716497684607
 0.9919579475646914 -0.07413143664537825 0.006455355843635453 0.03143515696574425 -0.0016881044248752226 -0.009554766037249307 0.001994796494385981 0.015096096792178946
 0.0019457275880226225 0.015102950118662644 -0.0016881044248752226 -0.009554766037249307 0.006463014777986525 0.03143303026464899 0.9919578749435698 -0.0741330154487168
 -0.001688898962983507 -0.009554716497684607 0.001994796494385981 0.015096096792178946 0.9919578749435698 -0.0741330154487168 0.006454730100632657 0.031433621274966274
0.1250521050438 0.006883033761067824 0.033242584798480364 0.9914039691701033 -0.07816204643846762 0.0021283795799548226 0.015898818782911328 -0.0018465174018532004 -0.010060949792368868
 0.9914039691701033 -0.07816204643846762 0.006875078760152204 0.03324312434651337 -0.0018456395174995344 -0.01006100925932634 0.002182781704959129 0.015891039780145833
 0.0021283795799548226 0.015898818782911328 -0.0018456395174995344 -0.01006100925932634 0.0068835656468975315 0.03324086005828141 0.991403889062534 -0.07816370779004869
 -0.0018465174018532004 -0.010060949792368868 0.002182781704959129 0.015891039780145833 0.991403889062534 -0.07816370779004869 0.006874385590482231 0.03324151147458882
0.131304710296 0.0073210740432912026 0.035063896628595076 0.9908274655383199 -0.0822047311942374 0.0023198383680482397 0.016693996108665458 -0.0020118063989688437 -0.010566680345264888
 0.9908274655383199 -0.0822047311942374 0.007312303153002243 0.035064486376027264 -0.0020108412443697204 -0.010566750774808934 0.002379851740652198 0.016685210204045224
 0.0023198383680482397 0.016693996108665458 -0.0020108412443697204 -0.010566750774808934 0.007321660852587349 0.03506208129718767 0.9908273775842824 -0.08220647503617544
 -0.0020118063989688437 -0.010566680345264888 0.002379851740652198 0.016685210204045224 0.9908273775842824 -0.08220647503617544 0.007311539097772303 0.03506279686585032
0.1375573155481 0.007674407008768151 0.03666011190094497 0.990330727252195 -0.08602094807592311 0.002495079567157028 0.017464038145942454 -0.002159676423150138 -0.011047528604820915
 0.990330727252195 -0.08602094807592311 0.007664776268954029 0.036660740473476734 -0.0021586180942828664 -0.01104761002913192 0.0025608414444744246 0.017454260720621444
 0.002495079567157028 0.017464038145942454 -0.0021586180942828664 -0.01104761002913192 0.007675050708158487 0.03665820551625066 0.990330631099763 -0.08602277432622311
 -0.002159676423150138 -0.011047528604820915 0.0025608414444744246 0.017454260720621444 0.990330631099763 -0.08602277432622311 0.007663938580784494 0.03665897465103217
0.1438099208003 0.00804010132520595 0.03824826782786399 0.9898166592084899 -0.0898278572940693 0.002677393983298045 0.018231257216544342 -0.0023134748647995742 -0.011525754667076263
 0.9898166592084899 -0.0898278572940693 0.008029569848748638 0.038248936959101476 -0.002312319127463116 -0.0115258481019172 0.0027491573091959396 0.018220414269918963
 0.002677393983298045 0.018231257216544342 -0.002312319127463116 -0.0115258481019172 0.008040804476728827 0.038246269757087545 0.989816554501419 -0.08982976588628512
 -0.0023134748647995742 -0.011525754667076263 0.0027491573091959396 0.018220414269918963 0.989816554501419 -0.08982976588628512 0.008028655195956661 0.038247095350385875
0.1500625260525 0.00841803349436476 0.039828242304189694 0.989285388777336 -0.09362537531713638 0.0028667216713128326 0.01899558454602211 -0.0024731426827442784 -0.012001291680898349
 0.989285388777336 -0.09362537531713638 0.008406560277861434 0.03982895384987479 -0.002471885309916612 -0.012001398182964548 0.002944738006092863 0.018983599379386058
 0.0028667216713128326 0.01899558454602211 -0.002471885309916612 -0.012001398182964548 0.008418798649394228 0.039826151888987735 0.9892852751607596 -0.09362736618259859
 -0.0024731426827442784 -0.012001291680898349 0.002944738006092863 0.018983599379386058 0.9892852751607596 -0.09362736618259859 0.008405565336404531 0.03982703700045651
0.15631513130469998 0.008808079201004555 0.041399916961204715 0.988737043913944 -0.09741341868582168 0.003063002013263127 0.019756952472170314 -0.0026386201393745995 -0.012474074165054519
