! Created with skrf 1.8.0 (http://scikit-rf.org).
# GHz S RI R 50.0 
!freq ReS11 ImS11 ReS12 ImS12 ReS13 ImS13
! ReS14 ImS14
! ReS21 ImS21 ReS22 ImS22 ReS23 ImS23
! ReS24 ImS24
! ReS31 ImS31 ReS32 ImS32 ReS33 ImS33
! ReS34 ImS34
! ReS41 ImS41 ReS42 ImS42 ReS43 ImS43
! ReS44 ImS44
!
0.0 0.001447667234561 0.0 0.998552332723 0.0 5.555438091248e-05 0.0 -5.555438172447e-05 6.80344957574824e-21
 0.998552332723 0.0 0.001447667234593 0.0 -5.555438172441e-05 6.803449575740892e-21 5.555438091544e-05 0.0
 5.555438091248e-05 0.0 -5.555438172441e-05 6.803449575740892e-21 0.001447667247179 0.0 0.9985523327356 0.0
 -5.555438172447e-05 6.80344957574824e-21 5.555438091544e-05 0.0 0.9985523327356 0.0 0.001447667247209 0.0
0.005 0.001557284681106529 0.0011868101327338685 0.9984137137428668 -0.003032689784848196 7.729748162616987e-05 0.000598124344562283 -7.520472919036475e-05 -0.0003779159749032762
 0.9984137137428668 -0.003032689784848196 0.0015572817530891251 0.0011868118721540858 -7.520798276901207e-05 -0.00037791848182125004 7.729042991644805e-05 0.000598126795269983
 7.729748162616987e-05 0.000598124344562283 -7.520798276901207e-05 -0.00037791848182125004 0.0015572833110638487 0.0011868782239101787 0.9984137140910563 -0.0030326227262224
 -7.520472919036475e-05 -0.0003779159749032762 7.729042991644805e-05 0.000598126795269983 0.9984137140910563 -0.0030326227262224 0.0015572838175632868 0.0011868778973194763
0.006252605252188 0.0015859564478133928 0.0014881814678961711 0.9983772436518924 -0.0037916151850312355 8.345598182696281e-05 0.0007479571816908476 -8.07124356017703e-05 -0.00047288485467306373
 0.9983772436518924 -0.0037916151850312355 0.0015859518710886443 0.00148818372395735 -8.071749842269914e-05 -0.00047288794621693224 8.344496130215215e-05 0.0007479604015690358
 8.345598182696281e-05 0.0007479571816908476 -8.071749842269914e-05 -0.00047288794621693224 0.0015859542313894361 0.0014882665786576023 0.9983772441218086 -0.0037915313679775407
 -8.07124356017703e-05 -0.00047288485467306373 8.344496130215215e-05 0.0007479604015690358 0.9983772441218086 -0.0037915313679775407 0.0015859550240678595 0.001488266245005332
0.01250521050438 0.0017364391178514495 0.003007567343216594 0.9981846468488004 -0.007584099444730057 0.0001184921364045348 0.0014963491516669823 -0.0001117460671525764 -0.000948098289529615
 0.9981846468488004 -0.007584099444730057 0.0017364208429030959 0.003007572708578773 -0.00011176601929841058 -0.0009481040129015905 0.00011844810046060478 0.0014963572452865975
 0.0001184921364045348 0.0014963491516669823 -0.00011176601929841058 -0.0009481040129015905 0.0017364297065707948 0.0030077373660687932 0.9981846481700375 -0.007583932049685013
 -0.0001117460671525764 -0.000948098289529615 0.00011844810046060478 0.0014963572452865975 0.9981846481700375 -0.007583932049685013 0.0017364328817590226 0.003007737451670689
0.01875781575657 0.0018994278482965582 0.004548646713581474 0.997974314218052 -0.011386697106547857 0.00016074233281535775 0.002245671444941025 -0.00014874718871826166 -0.0014249856423676319
 0.997974314218052 -0.011386697106547857 0.0018993867806009034 0.004548656154235515 -0.00014879168326051192 -0.0014249934538315865 0.0001606432009749422 0.002245686326197374
 0.00016074233281535775 0.002245671444941025 -0.00014879168326051192 -0.0014249934538315865 0.0018994062699644804 0.004548901621593777 0.9979743167677039 -0.011386446234375033
 -0.00014874718871826166 -0.0014249856423676319 0.0001606432009749422 0.002245686326197374 0.9979743167677039 -0.011386446234375033 0.0018994134206996346 0.0045489029049335
0.02501042100875 0.002075226863239317 0.0061092849958149665 0.9977460090634012 -0.015201267357832338 0.0002102870062904052 0.0029959621284195758 -0.0001918050717789971 -0.0019033450044721087
 0.9977460090634012 -0.015201267357832338 0.0020751539267543856 0.006109299591001149 -0.00019188364721038392 -0.0019033542664597689 0.0002101105616357036 0.0029959859751649115
 0.0002102870062904052 0.0029959621284195758 -0.00019188364721038392 -0.0019033542664597689 0.0020751881491029973 0.006109624826608564 0.9977460132184283 -0.015200933075683263
 -0.0001918050717789971 -0.0019033450044721087 0.0002101105616357036 0.0029959859751649115 0.9977460132184283 -0.015200933075683263 0.0020752008769101753 0.0061096281173691645
0.03126302626094 0.0022641277653596336 0.007688392104810427 0.9974994820391898 -0.019028616043055228 0.0002672070754140293 0.0037471923466898646 -0.000241006692429172 -0.0023830366780963025
 0.9974994820391898 -0.019028616043055228 0.0022640139003485362 0.0076884130485384014 -0.00024112879222456404 -0.002383046657966026 0.0002669309466941584 0.003747227606272239
 0.0002672070754140293 0.0037471923466898646 -0.00024112879222456404 -0.002383046657966026 0.0022640669441776067 0.007688816970548998 0.9974994881741495 -0.019028198374346356
 -0.000241006692429172 -0.0023830366780963025 0.0002669309466941584 0.003747227606272239 0.9974994881741495 -0.019028198374346356 0.0022640868630577167 0.007688823110871394
0.037515631513130004 0.0024664159821858956 0.009285263646207917 0.997234477774193 -0.022869154411723096 0.0003315832068804859 0.004499306902778864 -0.0002964373473965814 -0.0028639425921718224
 0.997234477774193 -0.022869154411723096 0.0024662521454345675 0.009285292248838544 -0.00029661233025511825 -0.002863952461826359 0.00033118485883706824 0.004499356297791983
 0.0003315832068804859 0.004499306902778864 -0.00029661233025511825 -0.002863952461826359 0.002466328085571206 0.009285773677582824 0.9972344862670434 -0.022868653392370864
 -0.0002964373473965814 -0.0028639425921718224 0.00033118485883706824 0.004499356297791983 0.9972344862670434 -0.022868653392370864 0.002466356823264677 0.009285783542968
0.043768236765320004 0.0026823732564376515 0.010899380422009159 0.9969507375391546 -0.026723099545457086 0.0004034954744484396 0.005252236582460881 -0.00035818087456089407 -0.003345953973183214
 0.9969507375391546 -0.026723099545457086 0.002682150422095341 0.010899418111661499 -0.00035841802035183214 -0.003345962808926145 0.00040295220150757537 0.00525230311653732
 0.0004034954744484396 0.005252236582460881 -0.00035841802035183214 -0.003345962808926145 0.0026822533131365517 0.01089997579579438 0.9969507487666635 -0.02672251519666342
 -0.00035818087456089407 -0.003345953973183214 0.00040295220150757537 0.00525230311653732 0.9969507487666635 -0.02672251519666342 0.0026822925137008043 0.010899990295461355
0.050020842017509996 0.0029122788074119185 0.012530325575717422 0.9966480005878443 -0.03059055714345856 0.00048302315020947253 0.006005903254818442 -0.0004263197392557127 -0.0038289662406999865
 0.9966480005878443 -0.03059055714345856 0.0029119879680130903 0.012530373899744304 -0.0004266282529019643 -0.0038289730231663563 0.00048231207196251693 0.006005990218562635
 0.00048302315020947253 0.006005903254818442 -0.0004266282529019643 -0.0038289730231663563 0.002912121843993958 0.012531006512149482 0.9966480149270762 -0.030589889474692586
 -0.0004263197392557127 -0.0038289662406999865 0.00048231207196251693 0.006005990218562635 0.9966480149270762 -0.030589889474692586 0.002912173169388099 0.012531026589461333
0.055454545454549996 0.0031236168089689583 0.013961056095451941 0.9963692819016192 -0.03396249719001269 0.0005583806111432561 0.006661395423109145 -0.0004907913034553417 -0.004249451460205637
 0.9963692819016192 -0.03396249719001269 0.0031232595714179106 0.013961115011337717 -0.0004911692572056347 -0.004249455556161294 0.0005575049849301641 0.00666150304058193
 0.0005583806111432561 0.006661395423109145 -0.0004911692572056347 -0.004249455556161294 0.0031234236339347165 0.013961811591835318 0.9963692992524257 -0.033961757121841026
 -0.0004907913034553417 -0.004249451460205637 0.0005575049849301641 0.00666150304058193 0.9963692992524257 -0.033961757121841026 0.0031234868612752954 0.013961837309056462
0.056273447269699996 0.0031564099313306808 0.014177743936659914 0.9963260049402803 -0.03447156210913546 0.0005702445610309899 0.006760222365831203 -0.0005009350537332876 -0.004312876511865517
 0.9963260049402803 -0.03447156210913546 0.0031560420994047184 0.014177804563008576 -0.0005013240678019169 -0.0043128801260230625 0.0005693426187938954 0.006760333342784065
 0.0005702445610309899 0.006760222365831203 -0.0005013240678019169 -0.0043128801260230625 0.003156210973058535 0.014178510689397577 0.9963260227697515 -0.03447081112870276
 -0.0005009350537332876 -0.004312876511865517 0.0005693426187938954 0.006760333342784065 0.9963260227697515 -0.03447081112870276 0.003156276105157545 0.014178537322023331
0.06252605252188 0.0034150423295637978 0.01584131964428051 0.9959844878965817 -0.03836610085859365 0.00066523697209741 0.0075151043136751205 -0.0005821065678303097 -0.004797582226666442
 0.9959844878965817 -0.03836610085859365 0.003414588539521839 0.015841394362892537 -0.00058258514433637 -0.004797581461807989 0.0006641209262134382 0.0075152431864127815
 0.00066523697209741 0.0075151043136751205 -0.00058258514433637 -0.004797581461807989 0.003414796398772808 0.015842172507632615 0.9959845095950673 -0.03836526656681104
 -0.0005821065678303097 -0.004797582226666442 0.0006641209262134382 0.0075152431864127815 0.9959845095950673 -0.03836526656681104 0.003414877041191984 0.015842206707789127
0.06877865777407 0.0036884502856276142 0.017520762823866103 0.995623186403138 -0.04227412458019014 0.0007680764885377144 0.008270455266057457 -0.0006699126400323088 -0.005282980334012039
 0.995623186403138 -0.04227412458019014 0.0036879015954899 0.01752085354800808 -0.0006704897716454334 -0.005282973883792854 0.0007667229161263107 0.008270626222346762
 0.0007680764885377144 0.008270455266057457 -0.0006704897716454334 -0.005282973883792854 0.0036881524030252287 0.01752170212906253 0.9956232123509448 -0.042273206973557874
 -0.0006699126400323088 -0.005282980334012039 0.0007667229161263107 0.008270626222346762 0.9956232123509448 -0.042273206973557874 0.003688250282985924 0.017521744943604457
0.07503126302626001 0.003976906755521157 0.019215801132472655 0.9952418373346766 -0.04619555762663922 0.000878837966390215 0.009026177680557586 -0.0007644301976484596 -0.0057689667778699875
 0.9952418373346766 -0.04619555762663922 0.003976254248916623 0.019215909900066514 -0.0007651148085255548 -0.005768953240340063 0.0008772232594179185 0.009026385219625746
 0.000878837966390215 0.009026177680557586 -0.0007651148085255548 -0.005768953240340063 0.003976551939164278 0.0192168272516743 0.9952418679131764 -0.04619455669445307
 -0.0007644301976484596 -0.0057689667778699875 0.0008772232594179185 0.009026385219625746 0.9952418679131764 -0.04619455669445307 0.003976668809225266 0.01921687976216453
0.08128386827845 0.004280683400627547 0.020926174135627102 0.9948401777231787 -0.050130303079970975 0.000997594929920943 0.009782170653357512 -0.0008657346891384017 -0.00625543615830949
 0.9948401777231787 -0.050130303079970975 0.004279918189110974 0.02092630311049404 -0.0008665356354781405 -0.006255414035958831 0.0009956952936006176 0.009782419592199875
 0.000997594929920943 0.009782170653357512 -0.0008665356354781405 -0.006255414035958831 0.004280266666502867 0.020927287478149117 0.99484021331523 -0.050129218808472154
 -0.0008657346891384017 -0.00625543615830949 0.0009956952936006176 0.009782419592199875 0.99484021331523 -0.050129218808472154 0.00428040430643562 0.020927350800895687
0.08753647353064001 0.004600050585485959 0.02265162941160804 0.9944179449534735 -0.0540782465921599 0.0011244194921403742 0.010538330163660953 -0.000973900031923764 -0.006742281500201886
 0.9944179449534735 -0.0540782465921599 0.004599163810748932 0.02265178088471965 -0.0009748261022748203 -0.006742249200017342 0.0011222109435675021 0.0105386256434783
 0.0011244194921403742 0.010538330163660953 -0.0009748261022748203 -0.006742249200017342 0.004599566947212473 0.022652830426963096 0.9944179859434161 -0.05407707896207167
 -0.000973900031923764 -0.006742281500201886 0.0011222109435675021 0.0105386256434783 0.9944179859434161 -0.05407707896207167 0.004599727165755846 0.02265290571303558
0.09378907878283 0.004935277349526174 0.024391919777587433 0.9939748769368479 -0.05803925910811648 0.0012593822785564525 0.01129454924808378 -0.0010889985557671852 -0.007229394095546635
 0.9939748769368479 -0.05803925910811648 0.004934260185736005 0.02439209616825697 -0.0010900584711240743 -0.007229349929089287 0.0012568406453951327 0.011294896740765038
 0.0012593822785564525 0.01129454924808378 -0.0010900584711240743 -0.007229349929089287 0.0049347218186718885 0.024393208955100817 0.9939749237109514 -0.05803800809553152
 -0.0010889985557671852 -0.007229394095546635 0.0012568406453951327 0.011294896740765038 0.9939749237109514 -0.05803800809553152 0.004934906455755746 0.024393297390234943
0.100041684035 0.005286631360854297 0.026146801245587478 0.9935107122693094 -0.06201319886252479 0.0014025523519639897 0.012050718137723135 -0.001211100943727932 -0.007716663386709682
 0.9935107122693094 -0.06201319886252479 0.005285475017090121 0.026147005102663008 -0.0012123033575600329 -0.0077166055701908265 0.0013996532714451394 0.012051123452433178
 0.0014025523519639897 0.012050718137723135 -0.0012123033575600329 -0.0077166055701908265 0.005285998947070724 0.026148179113159736 0.9935107652157479 -0.062011864440659106
 -0.001211100943727932 -0.007716663386709682 0.0013996532714451394 0.012051123452433178 0.9935107652157479 -0.062011864440659106 0.00528620987531933 0.026148281917709338
0.1059090909091 0.005631244569787644 0.027806625945579942 0.993055723661827 -0.06575394087687503 0.0015444268020704806 0.012760156634017807 -0.0013321124868622303 -0.008173956273142966
 0.993055723661827 -0.06575394087687503 0.00562994965846205 0.027806858011462914 -0.0013334564303331485 -0.008173883940302551 0.001541169967003119 0.012760621798213781
 0.0015444268020704806 0.012760156634017807 -0.0013334564303331485 -0.008173883940302551 0.0056305354691976945 0.027808087555677027 0.9930557827553979 -0.0657525281560228
 -0.0013321124868622303 -0.008173956273142966 0.001541169967003119 0.012760621798213781 0.9930557827553979 -0.0657525281560228 0.005630772803181459 0.027808204984999106
0.1062942892872 0.005654378856167211 0.027916031492082213 0.9930251903784933 -0.06599991286750069 0.0015539971385508272 0.01280672436035096 -0.001340276170911019 -0.00820397688836568
 0.9930251903784933 -0.06599991286750069 0.005653074578988397 0.027916265495041982 -0.0013416296690000255 -0.008203903542746242 0.0015507160565344472 0.012807193650181938
 0.0015539971385508272 0.01280672436035096 -0.0013416296690000255 -0.008203903542746242 0.005653664567233862 0.02791749861793539 0.9930252498877781 -0.06599849500555259
 -0.001340276170911019 -0.00820397688836568 0.0015507160565344472 0.012807193650181938 0.9930252498877781 -0.06599849500555259 0.005653903694248574 0.02791761704670865
0.11254689453939999 0.006038784570818288 0.02969936868329502 0.992518051664679 -0.06999923804894591 0.0017137823548200699 0.013562452825487204 -0.0014765914413540258 -0.008691220130321592
 0.992518051664679 -0.06999923804894591 0.006037323646894124 0.029699635643312756 -0.0014781045415920558 -0.008691129281414897 0.0017100945248828222 0.013562992594225373
 0.0017137823548200699 0.013562452825487204 -0.0014781045415920558 -0.008691129281414897 0.006037983412922268 0.02970092567768662 0.9925181181293192 -0.06999773671082175
 -0.0014765914413540258 -0.008691220130321592 0.0017100945248828222 0.013562992594225373 0.9925181181293192 -0.06999773671082175 0.0060382526830614165 0.0297010610198034
0.11879949979160001 0.00644011166067822 0.03149657056211425 0.9919890376346129 -0.07401100212563294 0.0018819719347681247 0.01431778589586482 -0.0016201121236733864 -0.009178276618010602
 0.9919890376346129 -0.07401100212563294 0.006438485419510325 0.03149687342315354 -0.0016217932757279926 -0.009178166196609983 0.0018778524176130652 0.014318403004782659
 0.0018819719347681247 0.01431778589586482 -0.0016217932757279926 -0.009178166196609983 0.006439218638180779 0.031498218077712005 0.9919891114497924 -0.07400941727022073
 -0.0016201121236733864 -0.009178276618010602 0.0018778524176130652 0.014318403004782659 0.9919891114497924 -0.07400941727022073 0.006439520034750328 0.031498371656346974
0.1250521050438 0.006858621616903969 0.03330739372860591 0.9914378910326491 -0.07803502429961297 0.0020586279576851503 0.015072603447647964 -0.0017709016854768544 -0.009665027808181402
 0.9914378910326491 -0.07803502429961297 0.006856821433517496 0.033307735568370606 -0.0017727592704737637 -0.009664895650184567 0.0020540516204329553 0.015073305122434454
 0.0020586279576851503 0.015072603447647964 -0.0017727592704737637 -0.009664895650184567 0.006857631733265928 0.03330913245909861 0.9914379725961651 -0.07803335588268266
 -0.0017709016854768544 -0.009665027808181402 0.0020540516204329553 0.015073305122434454 0.9914379725961651 -0.07803335588268266 0.006857967280209508 0.03330930563129464
0.131304710296 0.007294574176628457 0.03513159305860876 0.9908643559691649 -0.08207111581327492 0.0022438105759618244 0.015826782924900043 -0.0019290216270455946 -0.010151353094488419
 0.9908643559691649 -0.08207111581327492 0.007292591474646888 0.03513197708945437 -0.001931063957091783 -0.010151196941055788 0.002238752091640415 0.01582757676259904
 0.0022438105759618244 0.015826782924900043 -0.001931063957091783 -0.010151196941055788 0.007293482434011831 0.03513342374079339 0.9908644456816105 -0.08206936378598512
 -0.0019290216270455946 -0.010151353094488419 0.002238752091640415 0.01582757676259904 0.9908644456816105 -0.08206936378598512 0.007293854198313876 0.03513361789707635
0.1375573155481 0.007645888477119054 0.036731562187696916 0.9903705524850461 -0.08588162030205136 0.002413472545340169 0.016556384740838908 -0.0020704372978132056 -0.010613321701830566
 0.9903705524850461 -0.08588162030205136 0.007643715299652348 0.036731983511564946 -0.00207267667433809 -0.010613141461904799 0.002407927656853118 0.01655726924171405
 0.002413472545340169 0.016556384740838908 -0.00207267667433809 -0.010613141461904799 0.007644690479870614 0.03673348562785 0.9903706507147644 -0.08587978466735663
 -0.0020704372978132056 -0.010613321701830566 0.002407927656853118 0.01655726924171405 0.9903706507147644 -0.08587978466735663 0.007645100004612293 0.03673369400480416
0.1438099208003 0.00800949625495245 0.038323533894444296 0.9898595241988632 -0.08968289008185934 0.0025899854701309693 0.017283258754122132 -0.00221751263973795 -0.011072782089992163
 0.9898595241988632 -0.08968289008185934 0.00800712420927368 0.03832399507058371 -0.0022199579942807366 -0.011072575550980837 0.0025839323798343707 0.017284240739862105
 0.0025899854701309693 0.017283258754122132 -0.0022199579942807366 -0.011072575550980837 0.008008187112698364 0.0383255508581223 0.9898596313435921 -0.08968097080018632
 -0.00221751263973795 -0.011072782089992163 0.0025839323798343707 0.017284240739862105 0.9898596313435921 -0.08968097080018632 0.008008636435332776 0.03832577413162936
0.1500625260525 0.008385275441409462 0.039907387543501815 0.9893313968829713 -0.09347484330010619 0.0027732917255525185 0.01800733846375629 -0.002370191499987021 -0.011529670916103235
 0.9893313968829713 -0.09347484330010619 0.008382696187631362 0.03990789123295237 -0.0023728517459393 -0.01152943577673775 0.002766708693806023 0.01800842501274837
 0.0027732917255525185 0.01800733846375629 -0.0023728517459393 -0.01152943577673775 0.008383850269407302 0.03990949883171387 0.9893315133423344 -0.09347284032680157
 -0.002370191499987021 -0.011529670916103235 0.002766708693806023 0.01800842501274837 0.9893315133423344 -0.09347284032680157 0.008384341462440255 0.03990973770250619
0.15631513130469998 0.008773103172920762 0.04148300619169959 0.9887862968688959 -0.09725739814235393 0.002963333046625353 0.018728558439308454 -0.002528417071065362 -0.011983926126165926
