! Created with skrf 1.8.0 (http://scikit-rf.org).
# GHz S RI R 50.0 
!freq ReS11 ImS11 ReS12 ImS12 ReS13 ImS13
! ReS14 ImS14
! ReS21 ImS21 ReS22 ImS22 ReS23 ImS23
! ReS24 ImS24
! ReS31 ImS31 ReS32 ImS32 ReS33 ImS33
! ReS34 ImS34
! ReS41 ImS41 ReS42 ImS42 ReS43 ImS43
! ReS44 ImS44
!
0.0 0.001714126330435 0.0 0.998285873661 0.0 6.663585900369e-05 0.0 -6.663585882594e-05 8.160539121962233e-21
 0.998285873661 0.0 0.001714126330481 0.0 -6.663585882683e-05 8.160539122071225e-21 6.663585900435e-05 0.0
 6.663585900369e-05 0.0 -6.663585882683e-05 8.160539122071225e-21 0.00171412632478 0.0 0.9982858736553 0.0
 -6.663585882594e-05 8.160539121962233e-21 6.663585900435e-05 0.0 0.9982858736553 0.0 0.001714126324776 0.0
0.005 0.001844864881416454 0.0013974087947609078 0.9981203742793349 -0.003590326373639703 9.431048773978936e-05 0.0007604587802643336 -9.143110461859451e-05 -0.00047262840477495276
 0.9981203742793349 -0.003590326373639703 0.0018448555114199297 0.0013974143502775334 -9.143005159654343e-05 -0.0004726276885623167 9.437127443369605e-05 0.0007604356602918102
 9.431048773978936e-05 0.0007604587802643336 -9.143005159654343e-05 -0.0004726276885623167 0.0018448653388747256 0.001397475854983267 0.998120374656334 -0.0035902593192667868
 -9.143110461859451e-05 -0.00047262840477495276 9.437127443369605e-05 0.0007604356602918102 0.998120374656334 -0.0035902593192667868 0.0018448557973108739 0.0013974813879221249
0.006252605252188 0.0018793205442575057 0.001752255276017711 0.998076457525882 -0.004488761455590978 0.00010229879663778753 0.0009509194613906212 -9.851357220561721e-05 -0.0005913922437506013
 0.998076457525882 -0.004488761455590978 0.001879305896346739 0.0017522623262685784 -9.851193289940102e-05 -0.0005913913628917692 0.00010239377000899594 0.000950889417960012
 0.00010229879663778753 0.0009509194613906212 -9.851193289940102e-05 -0.0005913913628917692 0.0018793211783241517 0.0017523391043417014 0.9980764580349459 -0.004488677637136469
 -9.851357220561721e-05 -0.0005913922437506013 0.00010239377000899594 0.000950889417960012 0.9980764580349459 -0.004488677637136469 0.0018793062631715463 0.001752346110872898
0.01250521050438 0.0020616737262494932 0.0035411292426287847 0.9978423841549497 -0.008978157700472344 0.0001485423535445093 0.0019020479053577016 -0.0001391375884114306 -0.0011855628858489981
 0.9978423841549497 -0.008978157700472344 0.0020616152226106735 0.0035411444087782274 -0.0001391311192816957 -0.0011855612846429148 0.0001489210884986931 0.0019019754024895098
 0.0001485423535445093 0.0019020479053577016 -0.0001391311192816957 -0.0011855612846429148 0.002061675693834801 0.0035412966747394633 0.997842385637302 -0.008977990281132308
 -0.0001391375884114306 -0.0011855628858489981 0.0001489210884986931 0.0019019754024895098 0.997842385637302 -0.008977990281132308 0.002061616141415701 0.0035413115946787365
0.01875781575657 0.0022616186062486944 0.005355290993839864 0.997583338148386 -0.013479078654523692 0.0002054793249885502 0.0028540247273575155 -0.00018864081089937302 -0.0017815937773855747
 0.997583338148386 -0.013479078654523692 0.002261487116798485 0.005355315416422306 -0.000188626372583173 -0.0017815916539291401 0.0002063301150428473 0.002853894732598341
 0.0002054793249885502 0.0028540247273575155 -0.000188626372583173 -0.0017815916539291401 0.0022616225716797105 0.0053555418905592515 0.9975833410544435 -0.013478827684964617
 -0.00018864081089937302 -0.0017815937773855747 0.0002063301150428473 0.002853894732598341 0.9975833410544435 -0.013478827684964617 0.0022614887620970047 0.00535556569587779
0.02501042100875 0.002479573012406331 0.007192148034338774 0.9972989907850042 -0.017993661274306755 0.00027322349975826164 0.0038068682823662035 -0.000247150894583668 -0.002379179623387782
 0.9972989907850042 -0.017993661274306755 0.002479339446478451 0.007192182918134467 -0.0002471253817037351 -0.0023791772162813107 0.0002747346974321703 0.0038066632244573694
 0.00027322349975826164 0.0038068682823662035 -0.0002471253817037351 -0.0023791772162813107 0.002479579636623306 0.0071924822372111735 0.9972989955831848 -0.017993326743412915
 -0.000247150894583668 -0.002379179623387782 0.0002747346974321703 0.0038066632244573694 0.9972989955831848 -0.017993326743412915 0.0024793420108419895 0.007192515953000118
0.03126302626094 0.0027159374187805617 0.00905034342091696 0.9969889979471855 -0.022522792390081783 0.00035188858736557633 0.004760505386801766 -0.0003147912594408638 -0.0029780985750442364
 0.9969889979471855 -0.022522792390081783 0.002715572707186419 0.009050390032856171 -0.0003147515950187228 -0.0029780961637913424 0.00035424876901597236 0.004760205139957224
 0.00035188858736557633 0.004760505386801766 -0.0003147515950187228 -0.0029780961637913424 0.0027159473354645166 0.009050760737386523 0.9969890051021729 -0.022522374239596424
 -0.0003147912594408638 -0.0029780985750442364 0.00035424876901597236 0.004760205139957224 0.9969890051021729 -0.022522374239596424 0.002715576376166201 0.009050805439474393
0.037515631513130004 0.0029711031524757956 0.010928975124599786 0.99665300867596 -0.02706688928552661 0.00044158711932319077 0.005714826312762033 -0.0003916819906450095 -0.003578157269840762
 0.99665300867596 -0.02706688928552661 0.0029705782357746665 0.010929034792918523 -0.00039162512333119616 -0.0035781551750498283 0.00044498515423506223 0.005714408171303771
 0.00044158711932319077 0.005714826312762033 -0.00039162512333119616 -0.0035781551750498283 0.0029711169782599012 0.010929475316765974 0.9966530186610096 -0.02706638742137614
 -0.0003916819906450095 -0.003578157269840762 0.00044498515423506223 0.005714408171303771 0.9966530186610096 -0.02706638742137614 0.0029705831973128012 0.010929532130383416
0.043768236765320004 0.0032454555680962284 0.012827358486834688 0.9962906686928686 -0.0316261371736386 0.0005424299031843464 0.00666970154394882 -0.00047794015770491043 -0.004179174106175825
 0.9962906686928686 -0.0316261371736386 0.0032447413864611662 0.012827432600690731 -0.000477863060361336 -0.004179172689650765 0.0005470549812583371 0.006669140194043611
 0.0005424299031843464 0.00666970154394882 -0.000477863060361336 -0.004179172689650765 0.0032454738994468165 0.01282794126160741 0.9962906819876656 -0.031625551475459014
 -0.00047794015770491043 -0.004179174106175825 0.0005470549812583371 0.006669140194043611 0.9962906819876656 -0.031625551475459014 0.0032447478262501114 0.01282801136092557
0.050020842017509996 0.0035393754964930134 0.014744928039071568 0.9959016221987265 -0.03620058730831215 0.000654525690131527 0.007624988696455186 -0.0005736799084648181 -0.004780972356114332
 0.9959016221987265 -0.03620058730831215 0.003538442980806972 0.014745018048590007 -0.0005735795772184157 -0.004780972020946721 0.000660567327643478 0.0076242561867269085
 0.000654525690131527 0.007624988696455186 -0.0005735795772184157 -0.004780972020946721 0.0035393989078900544 0.01474559306416787 0.9959016392905282 -0.036199917613500464
 -0.0005736799084648181 -0.004780972356114332 0.000660567327643478 0.0076242561867269085 0.9959016392905282 -0.036199917613500464 0.0035384510803251603 0.014745677671975188
0.055454545454549996 0.0038109849483648427 0.016426550357422312 0.9955415633808453 -0.040188243914728555 0.0007611618738336392 0.00845537897609934 -0.0006646673184502709 -0.005304451788343409
 0.9955415633808453 -0.040188243914728555 0.0038098390723429313 0.016426655406057495 -0.0006645443744359729 -0.005304452752386318 0.0007685887027340323 0.008454472952534561
 0.0007611618738336392 0.00845537897609934 -0.0006645443744359729 -0.005304452752386318 0.003811013224737037 0.016427286547021185 0.9955415841761047 -0.040187501072598865
 -0.0006646673184502709 -0.005304451788343409 0.0007685887027340323 0.008454472952534561 0.9955415841761047 -0.040187501072598865 0.0038098487584589395 0.0164273847940647
0.056273447269699996 0.003853239973988191 0.016681189334647628 0.9954855129584165 -0.040790205087684994 0.0007779809273761954 0.008580535922895647 -0.0006790124717092696 -0.005383376800181287
 0.9954855129584165 -0.040790205087684994 0.003852060037125576 0.0166812967512819 -0.0006788859254867064 -0.005383377990816932 0.000785628959384172 0.008579601634683708
 0.0007779809273761954 0.008580535922895647 -0.0006788859254867064 -0.005383377990816932 0.0038532690188093207 0.016681936222742912 0.995485534344758 -0.040789451207164575
 -0.0006790124717092696 -0.005383376800181287 0.000785628959384172 0.008579601634683708 0.995485534344758 -0.040789451207164575 0.0038520699735725508 0.016682036610580337
0.06252605252188 0.004187422615782368 0.018635692457673086 0.995041985034702 -0.04539489648614301 0.0009128995549652774 0.009536183799393088 -0.0007940461110462262 -0.0059862118858614545
 0.995041985034702 -0.04539489648614301 0.004185966145277658 0.0186358188547483 -0.0007938903913263155 -0.005986215088150213 0.0009223441189102499 0.00953501441694868
 0.0009128995549652774 0.009536183799393088 -0.0007938903913263155 -0.005986215088150213 0.004187457824410706 0.01863652076907805 0.9950420112234725 -0.0453940582016671
 -0.0007940461110462262 -0.0059862118858614545 0.0009223441189102499 0.00953501441694868 0.9950420112234725 -0.0453940582016671 0.004185978089055065 0.018636638257669307
0.06877865777407 0.004542293792254372 0.020608016236536218 0.9945706833285612 -0.050014523788644454 0.0010593828275953481 0.010491766458169917 -0.0009188860506573713 -0.006589300647688055
 0.9945706833285612 -0.050014523788644454 0.0045405316415877825 0.020608163250246832 -0.0009186982214226918 -0.0065893063889319375 0.0010708143404536807 0.010490325939058485
 0.0010593828275953481 0.010491766458169917 -0.0009186982214226918 -0.0065893063889319375 0.004542335670724377 0.020608925484004195 0.9945707148389474 -0.05001360084807128
 -0.0009188860506573713 -0.006589300647688055 0.0010708143404536807 0.010490325939058485 0.9945707148389474 -0.05001360084807128 0.00454054575412709 0.020609061443989597
0.07503126302626001 0.004918220689735143 0.022597758252250962 0.9940712540106047 -0.05464891553838758 0.0012175291509337605 0.011447112314718871 -0.001053634384023573 -0.007192464040439843
 0.9940712540106047 -0.05464891553838758 0.004916123670966076 0.02259792758285442 -0.0010534115317548099 -0.007192472889438703 0.0012311382815669862 0.011445361860532894
 0.0012175291509337605 0.011447112314718871 -0.0010534115317548099 -0.007192472889438703 0.004918269719241996 0.02259874789477801 0.994071291375139 -0.05464790766203312
 -0.001053634384023573 -0.007192464040439843 0.0012311382815669862 0.011445361860532894 0.994071291375139 -0.05464790766203312 0.004916140103940601 0.022598903747693168
0.08128386827845 0.005315567298173604 0.024604528183620564 0.9935433448826728 -0.0592978731560438 0.0013874339265360313 0.01240204457392867 -0.0011983899718877016 -0.0077955205014256556
 0.9935433448826728 -0.0592978731560438 0.005313106174507254 0.024604721596946395 -0.0011981292058123073 -0.007795533068487497 0.0014034115643475613 0.012399942601446523
 0.0013874339265360313 0.01240204457392867 -0.0011981292058123073 -0.007795533068487497 0.005315623933872101 0.02460559763062463 0.9935433886479584 -0.059296780032610304
 -0.0011983899718877016 -0.0077955205014256556 0.0014034115643475613 0.012399942601446523 0.9935433886479584 -0.059296780032610304 0.005313125067181196 0.024605774850349975
0.08753647353064001 0.00573469435122833 0.026627943220276493 0.9929866056966485 -0.06396117550034884 0.0015691894036622626 0.013356381582988876 -0.0013532483320528967 -0.008398285674323979
 0.9929866056966485 -0.06396117550034884 0.00573183982857049 0.02662816254957307 -0.0013529467842667972 -0.00839830261129423 0.001587726623971273 0.013353883695785515
 0.0015691894036622626 0.013356381582988876 -0.0013529467842667972 -0.00839830261129423 0.005734759020596664 0.02662909182785094 0.9929866564242664 -0.06395999679093621
 -0.0013532483320528967 -0.008398285674323979 0.001587726623971273 0.013353883695785515 0.9929866564242664 -0.06395999679093621 0.0057318613062319 0.026629291942262944
0.09378907878283 0.006175959230381455 0.02866762478917141 0.9924006884417461 -0.06863858212460656 0.0017628845339093756 0.01430993710768635 -0.0015183015247805867 -0.009000572218116702
 0.9924006884417461 -0.06863858212460656 0.006172681949965939 0.028667871937251375 -0.0015179563505405376 -0.009000594218383394 0.0017841725609212843 0.014306996068351174
 0.0017628845339093756 0.01430993710768635 -0.0015179563505405376 -0.009000594218383394 0.006176032332734818 0.02866885186320099 0.9924007467102438 -0.0686373174599429
 -0.0015183015247805867 -0.009000572218116702 0.0017841725609212843 0.014306996068351174 0.9924007467102438 -0.0686373174599429 0.006172706122709704 0.02866907645612426
0.100041684035 0.006639715847006951 0.03072319616314907 0.9917852476132444 -0.07332983566109856 0.001968604829843894 0.015262520540288295 -0.0016936380335489788 -0.00960218969326645
 0.9917852476132444 -0.07332983566109856 0.006635986377738194 0.030723473104814398 -0.0016932464116484788 -0.009602217491751596 0.0019928349971932843 0.015259086243253223
 0.001968604829843894 0.015262520540288295 -0.0016932464116484788 -0.009602217491751596 0.00663979775234448 0.03072450095754213 0.9917853140190354 -0.07332848464365933
 -0.0016936380335489788 -0.00960218969326645 0.0019928349971932843 0.015259086243253223 0.9917853140190354 -0.07332848464365933 0.006636013338107152 0.03072475167116337
0.1059090909091 0.00709567032982469 0.032666247950346436 0.9911805649555975 -0.07774443060541539 0.002172661297316403 0.01615536148239617 -0.0018676008891080995 -0.010165962940668431
 0.9911805649555975 -0.07774443060541539 0.007091489690738269 0.032666554712788384 -0.0018671631363989642 -0.010165996885549242 0.002199826428276229 0.016151416166634954
 0.002172661297316403 0.01615536148239617 -0.0018671631363989642 -0.010165996885549242 0.007095760804765834 0.03266762495307632 0.9911806395566123 -0.07774299816783764
 -0.0018676008891080995 -0.010165962940668431 0.002199826428276229 0.016151416166634954 0.9911806395566123 -0.07774299816783764 0.007091519333787984 0.03266790172607257
0.1062942892872 0.007126314505576252 0.03279428067163191 0.9911399404664571 -0.07803466361353034 0.002186432224945433 0.016213937083966228 -0.0018793426439090363 -0.010202944480241526
 0.9911399404664571 -0.07803466361353034 0.0071221033361707755 0.03279458945648959 -0.0018789017770105573 -0.010202978853379844 0.0022137959342961792 0.016209956528995217
 0.002186432224945433 0.016213937083966228 -0.0018789017770105573 -0.010202978853379844 0.007126405552935924 0.0327956623896603 0.9911400156248162 -0.07803322581663823
 -0.0018793426439090363 -0.010202944480241526 0.0022137959342961792 0.016209956528995217 0.9911400156248162 -0.07803322581663823 0.007122133157169232 0.03279594092718685
0.11254689453939999 0.007636101753524863 0.034880500342610414 0.9904644272597504 -0.08275277972859355 0.002416444936062023 0.01716398789741312 -0.0020754963196799865 -0.010802639747007124
 0.9904644272597504 -0.08275277972859355 0.007631379284546317 0.03488084309822548 -0.0020750034346319166 -0.010802681512742811 0.0024471336138625578 0.0171594051638221
 0.002416444936062023 0.01716398789741312 -0.0020750034346319166 -0.010802681512742811 0.007636202250060055 0.0348819581375608 0.9904645118067722 -0.08275125469635088
 -0.0020754963196799865 -0.010802639747007124 0.0024471336138625578 0.0171594051638221 0.9904645118067722 -0.08275125469635088 0.007631412018433147 0.034882266266222046
0.11879949979160001 0.008169420220284043 0.03698147484909782 0.9897583714915195 -0.08748388507394561 0.0026587173266887695 0.01811247023222414 -0.002282176078292666 -0.011401075432929569
 0.9897583714915195 -0.08748388507394561 0.008164156756427923 0.036981853784450944 -0.0022816284266976646 -0.011401125450659263 0.0026929223792612087 0.018107226453871045
 0.0026587173266887695 0.01811247023222414 -0.0022816284266976646 -0.011401125450659263 0.008169530439996938 0.03698300782329892 0.9897584660844441 -0.08748227232275557
 -0.002282176078292666 -0.011401075432929569 0.0026929223792612087 0.018107226453871045 0.9897584660844441 -0.08748227232275557 0.008164192432130466 0.03698334737789601
0.1250521050438 0.008726608448549701 0.039096820694543774 0.9890214401300742 -0.09222766888812706 0.002913319772026208 0.01905917755611482 -0.0024994548650566066 -0.011998048256336654
 0.9890214401300742 -0.09222766888812706 0.008720774190805048 0.0390972381039108 -0.002498849723569717 -0.011998107426839755 0.0029512325392347565 0.019053210897188283
 0.002913319772026208 0.01905917755611482 -0.002498849723569717 -0.011998107426839755 0.00872672863110522 0.039098427900199115 0.9890215454496386 -0.09222596790663425
 -0.0024994548650566066 -0.011998048256336654 0.0029512325392347565 0.019053210897188283 0.9890215454496386 -0.09222596790663425 0.008720812812482957 0.03909880078670968
0.131304710296 0.009308000718296405 0.04122615056105433 0.9882533038406257 -0.09698380927910732 0.0031803185249674256 0.020003899669826828 -0.0027274014272496523 -0.012593351737719683
 0.9882533038406257 -0.09698380927910732 0.00930156575617735 0.04122660882816201 -0.0027267360981811186 -0.01259342100312672 0.003222130232229664 0.01999714530147117
 0.0031803185249674256 0.020003899669826828 -0.0027267360981811186 -0.01259342100312672 0.009308131067915186 0.041227830999974596 0.9882534205917218 -0.09698201952917626
 -0.0027274014272496523 -0.012593351737719683 0.003222130232229664 0.01999714530147117 0.9882534205917218 -0.09698201952917626 0.009301607301123335 0.0412282391998716
0.1375573155481 0.009786604032566478 0.043090953014012355 0.987581021489131 -0.10147368738671106 0.003427667630282273 0.020919057875272835 -0.0029339288771469845 -0.013159470626444026
 0.987581021489131 -0.10147368738671106 0.009779537749884694 0.043091445204624046 -0.002933199598755497 -0.013159550148501816 0.003473472117332668 0.020911521493156948
 0.003427667630282273 0.020919057875272835 -0.002933199598755497 -0.013159550148501816 0.00978674597402332 0.043092705253750356 0.9875811502154217 -0.10147180853154808
 -0.0029339288771469845 -0.013159470626444026 0.003473472117332668 0.020911521493156948 0.9875811502154217 -0.10147180853154808 0.009779581255672808 0.04309314260048064
0.1438099208003 0.010282213083676101 0.04494479466534099 0.9868847546022339 -0.10595104401619894 0.003684969016873788 0.02182986648316118 -0.0031486777227447264 -0.013721576264921355
 0.9868847546022339 -0.10595104401619894 0.010274485364599508 0.0449453226645622 -0.003147881642029772 -0.013721666970167417 0.003734939786497921 0.021821488436713776
 0.003684969016873788 0.02182986648316118 -0.003147881642029772 -0.013721666970167417 0.01028236699078569 0.044946617591208354 0.9868848960104696 -0.10594907552668048
 -0.0031486777227447264 -0.013721576264921355 0.003734939786497921 0.021821488436713776 0.9868848960104696 -0.10594907552668048 0.010274530599734178 0.04494708568716057
0.1500625260525 0.010794636157566049 0.04678748720065547 0.9861646998887413 -0.11041573391666683 0.003952122501618258 0.022736211449534416 -0.0033715498496076357 -0.014279560621533113
 0.9861646998887413 -0.11041573391666683 0.01078621678879555 0.04678805302043907 -0.003370684125233647 -0.01427966347319196 0.004006431827746703 0.022726929919068
 0.003952122501618258 0.022736211449534416 -0.003370684125233647 -0.01427966347319196 0.010794802384011488 0.046789379653508927 0.9861648547066224 -0.11041367524390955
 -0.0033715498496076357 -0.014279560621533113 0.004006431827746703 0.022726929919068 0.9861648547066224 -0.11041367524390955 0.010786263484499143 0.046789880221546204
0.15631513130469998 0.01132367996651276 0.048618847931756255 0.9854210552978433 -0.11486761311344695 0.0042290265899599415 0.023637980920967687 -0.0036024458163215695 -0.014833318167565716
 0.9854210552978433 -0.11486761311344695 0.011314538634912165 0.04861945371550183 -0.0036015076187998507 -0.014833434165281767 0.004287845496320217 0.0236277319437993
