! Created with skrf 1.8.0 (http://scikit-rf.org).
# GHz S RI R 50.0 
!freq ReS11 ImS11 ReS12 ImS12 ReS13 ImS13
! ReS14 ImS14
! ReS21 ImS21 ReS22 ImS22 ReS23 ImS23
! ReS24 ImS24
! ReS31 ImS31 ReS32 ImS32 ReS33 ImS33
! ReS34 ImS34
! ReS41 ImS41 ReS42 ImS42 ReS43 ImS43
! ReS44 ImS44
!
0.0 0.001258292905058 0.0 0.9987417070871 0.0 4.831296053662e-05 0.0 -4.831296080307e-05 5.916631280481121e-21
 0.9987417070871 0.0 0.001258292905068 0.0 -4.831296080324e-05 5.916631280501941e-21 4.831296053672e-05 0.0
 4.831296053662e-05 0.0 -4.831296080324e-05 5.916631280501941e-21 0.00125829289884 0.0 0.9987417070809 0.0
 -4.831296080307e-05 5.916631280481121e-21 4.831296053672e-05 0.0 0.9987417070809 0.0 0.001258292898843 0.0
0.005 0.0013531995205239198 0.0010250150155529222 0.9986217430476292 -0.002636953490315305 6.794294886283936e-05 0.0005614185340953821 -6.594528571510978e-05 -0.0003474288771220937
 0.9986217430476292 -0.002636953490315305 0.0013531806641160348 0.001025026051777137 -6.59452310634922e-05 -0.00034742889107995906 6.806072672873815e-05 0.0005613738337724175
 6.794294886283936e-05 0.0005614185340953821 -6.59452310634922e-05 -0.00034742889107995906 0.001353199603389181 0.001025082257752423 0.9986217433812047 -0.002636886430660524
 -6.594528571510978e-05 -0.0003474288771220937 6.806072672873815e-05 0.0005613738337724175 0.9986217433812047 -0.002636886430660524 0.0013531812420480075 0.0010250929224689894
0.006252605252188 0.0013778948044131758 0.0012853515134798438 0.9985903649997177 -0.003296869997135589 7.341871720285144e-05 0.0007020458786086595 -7.08329791014084e-05 -0.0004347540030924963
 0.9985903649997177 -0.003296869997135589 0.001377865328032119 0.0012853655160559693 -7.083289361671567e-05 -0.00043475402144449297 7.360273799888241e-05 0.0007019878711245593
 7.341871720285144e-05 0.0007020458786086595 -7.083289361671567e-05 -0.00043475402144449297 0.0013778948608478775 0.0012854355653868653 0.9985903654484546 -0.003296786175420486
 -7.08329791014084e-05 -0.0004347540030924963 7.360273799888241e-05 0.0007019878711245593 0.9985903654484546 -0.003296786175420486 0.0013778661590191279 0.0012854490934550392
0.01250521050438 0.0015067554533654468 0.0025981029296124475 0.9984257161806834 -0.0065947494895301165 0.0001041226056774106 0.0014044481128696674 -9.807900470080534e-05 -0.0008717742525396165
 0.9984257161806834 -0.0065947494895301165 0.0015066377466740229 0.002598133009557545 -9.807866231100596e-05 -0.0008717742995434128 0.00010485652856420835 0.001404309384197587
 0.0001041226056774106 0.0014044481128696674 -9.807866231100596e-05 -0.0008717742995434128 0.0015067551077660366 0.0025982708064931546 0.9984257174103657 -0.006594582075612194
 -9.807900470080534e-05 -0.0008717742525396165 0.00010485652856420835 0.001404309384197587 0.9984257174103657 -0.006594582075612194 0.001506640506869164 0.00259829983082247
0.01875781575657 0.0016451146084486546 0.003929999409442895 0.9982475857239675 -0.00990171209563291 0.00014048957130925182 0.0021077386492086457 -0.00013012630550887346 -0.0013104178569466073
 0.9982475857239675 -0.00990171209563291 0.0016448501033985618 0.003930047761569663 -0.00013012553423589115 -0.0013104179462551067 0.00014213846769779877 0.002107492697300202
 0.00014048957130925182 0.0021077386492086457 -0.00013012553423589115 -0.0013104179462551067 0.001645113398289295 0.003930250998434645 0.998247588073057 -0.009901461162648149
 -0.00013012630550887346 -0.0013104178569466073 0.00014213846769779877 0.002107492697300202 0.998247588073057 -0.009901461162648149 0.0016448558979024095 0.003930297590255266
0.02501042100875 0.0017932071286624887 0.005279208661455627 0.9980557930802029 -0.013219402980412362 0.000182584979715032 0.0028119843152547073 -0.00016704823770864597 -0.0017505036109787557
 0.9980557930802029 -0.013219402980412362 0.001792737368633435 0.005279277579223124 -0.00016704686506708078 -0.0017505037596153867 0.0001855142193852459 0.0028116010102082123
 0.000182584979715032 0.0028119843152547073 -0.00016704686506708078 -0.0017505037596153867 0.001793204574974076 0.005279543863675748 0.998055796882142 -0.01321906854488339
 -0.00016704823770864597 -0.0017505036109787557 0.0001855142193852459 0.0028116010102082123 0.998055796882142 -0.01321906854488339 0.001792747297833601 0.005279610176205132
0.03126302626094 0.001951257886601728 0.006644808593732081 0.9978501471045275 -0.016548551164359167 0.00023047476490684234 0.0035171845157125187 -0.0002089163989306246 -0.0021919143881400775
 0.9978501471045275 -0.016548551164359167 0.0019505244961772511 0.006644900464726776 -0.0002089142519699582 -0.0021919146165319692 0.00023505037034415727 0.003516630080082487
 0.00023047476490684234 0.0035171845157125187 -0.0002089142519699582 -0.0021919146165319692 0.0019512535027381382 0.006645227299999923 0.9978501526974908 -0.016548133210346923
 -0.0002089163989306246 -0.0021919143881400775 0.00023505037034415727 0.003516630080082487 0.9978501526974908 -0.016548133210346923 0.0019505396647141685 0.006645315563690335
0.037515631513130004 0.00211948706747943 0.008026213773796956 0.9976304514661404 -0.01988954301462026 0.00028422487260333564 0.004223312554380141 -0.00025580120321840407 -0.00263455581821198
 0.9976304514661404 -0.01988954301462026 0.002118431733036318 0.008026331077344679 -0.0002557981085765239 -0.0026345561502519885 0.0002908136874177178 0.0042225495253054275
 0.00028422487260333564 0.004223312554380141 -0.0002557981085765239 -0.0026345561502519885 0.00211948035622651 0.008026715854521511 0.9976304591913759 -0.01988904150378197
 -0.00025580120321840407 -0.00263455581821198 0.0002908136874177178 0.0042225495253054275 0.9976304591913759 -0.01988904150378197 0.0021184532467785197 0.00802682837432635
0.043768236765320004 0.002298112226134015 0.009423000907826837 0.9973965068138968 -0.023242596711734023 0.0003439010071542109 0.004930328193153729 -0.0003077720980271098 -0.0030783437199080237
 0.9973965068138968 -0.023242596711734023 0.0022966766810834024 0.009423146213197068 -0.0003077678820002142 -0.0030783441829806656 0.0003528707855088731 0.004929315378775374
 0.0003439010071542109 0.004930328193153729 -0.0003077678820002142 -0.0030783441829806656 0.0022981026787932007 0.009423586211408777 0.9973965170154632 -0.023242011584755324
 -0.0003077720980271098 -0.0030783437199080237 0.0003528707855088731 0.004929315378775374 0.9973965170154632 -0.023242011584755324 0.0022967056459947746 0.00942372536478806
0.050020842017509996 0.002487349246959697 0.01083483669735425 0.9971481118446683 -0.026607834337046984 0.0004095684840541602 0.005638182842887252 -0.0003648976559858016 -0.003523198900131982
 0.9971481118446683 -0.026607834337046984 0.0024854752590688176 0.010835012662576436 -0.0003648921445729157 -0.0035231995251720875 0.00042128793820530046 0.005636875276389885
 0.0004095684840541602 0.005638182842887252 -0.0003648921445729157 -0.0035231995251720875 0.0024873363422898954 0.010835505056712842 0.9971481248694428 -0.02660716550708393
 -0.0003648976559858016 -0.003523198900131982 0.00042128793820530046 0.005636875276389885 0.9971481248694428 -0.02660716550708393 0.002485512780090444 0.010835673292069605
0.055454545454549996 0.002660586869051415 0.012073768701807177 0.9969203563118182 -0.02954227139794994 0.0004715515744446364 0.0062539692260409115 -0.00041878033945605506 -0.003910598651793058
 0.9969203563118182 -0.02954227139794994 0.002658284587722689 0.012073973538204233 -0.0004187735608526337 -0.0039105994454973645 0.0004859607809712912 0.006252366025163515
 0.0004715515744446364 0.0062539692260409115 -0.0004187735608526337 -0.0039105994454973645 0.0026605706148180412 0.01207450907858222 0.9969203720758116 -0.02954152974839494
 -0.00041878033945605506 -0.003910598651793058 0.0004859607809712912 0.006252366025163515 0.9969203720758116 -0.02954152974839494 0.002658330441468371 0.012074704629609497
0.056273447269699996 0.0026874128505167106 0.012261442446962968 0.9968850639196497 -0.029985317209042107 0.0004812921291531835 0.006346822098999951 -0.0004272456102766936 -0.003969044608815392
 0.9968850639196497 -0.029985317209042107 0.0026850422107765858 0.012261651817834552 -0.00042723862927410367 -0.00396904543034781 0.000496130952026663 0.006345170991428139
 0.0004812921291531835 0.006346822098999951 -0.00042723862927410367 -0.00396904543034781 0.002687396056061032 0.012262193664264459 0.9968850801196878 -0.02998456457683055
 -0.0004272456102766936 -0.003969044608815392 0.000496130952026663 0.006345170991428139 0.9968850801196878 -0.02998456457683055 0.002685089392640168 0.012262393499694265
0.06252605252188 0.0028985168764936588 0.013702574590405234 0.9966071594594402 -0.033375065301687754 0.000559136200418708 0.00705618713970908 -0.0004948828621197672 -0.004415805132043061
 0.9966071594594402 -0.033375065301687754 0.002895591388617674 0.01370282019977582 -0.0004948742371708066 -0.00441580618821482 0.0005774650716586633 0.0070541398321958045
 0.000559136200418708 0.00705618713970908 -0.0004948742371708066 -0.00441580618821482 0.002898495647190928 0.013703408446352648 0.9966071791912917 -0.03337422874624325
 -0.0004948828621197672 -0.004415805132043061 0.0005774650716586633 0.0070541398321958045 0.9966071791912917 -0.03337422874624325 0.002895649334291794 0.01370364246868395
0.06877865777407 0.003120874445535233 0.015158013088141582 0.9963141942196496 -0.03677706879256562 0.0006431643227816589 0.007766215552302663 -0.0005678754714490547 -0.0048634049584427505
 0.9963141942196496 -0.03677706879256562 0.0031173359158535997 0.015158297855515718 -0.0005678650281354048 -0.004863406291076959 0.0006653549033079285 0.00776371546798415
 0.0006431643227816589 0.007766215552302663 -0.0005678650281354048 -0.004863406291076959 0.003120848223145828 0.015158929342174837 0.9963142178449939 -0.03677614817095933
 -0.0005678754714490547 -0.0048634049584427505 0.0006653549033079285 0.00776371546798415 0.9963142178449939 -0.03677614817095933 0.0031174057255668815 0.015159200206210754
0.07503126302626001 0.00335469804959582 0.016627554070895296 0.9960059634966926 -0.040191295366337094 0.0007334394301949533 0.008476841859269585 -0.0006462886376870315 -0.0053117682472647474
 0.9960059634966926 -0.040191295366337094 0.003350488277293602 0.016627881002198613 -0.0006462762015915479 -0.005311769901890323 0.0007598643484201858 0.008473828455110808
 0.0007334394301949533 0.008476841859269585 -0.0006462762015915479 -0.005311769901890323 0.0033546662629362657 0.016628552457334033 0.9960059913833214 -0.040190290517395394
 -0.0006462886376870315 -0.0053117682472647474 0.0007598643484201858 0.008473828455110808 0.9960059913833214 -0.040190290517395394 0.00335057104848089 0.016628862885405996
0.08128386827845 0.003600199599135156 0.01811100494321053 0.9956822622929404 -0.043617695059594806 0.000830023711653957 0.009187997863979966 -0.0007301866745983526 -0.005760818478557713
 0.9956822622929404 -0.043617695059594806 0.0035952603666368943 0.018111377130870236 -0.0007301720713507626 -0.005760820504454525 0.0008610565430562514 0.009184406582606337
 0.000830023711653957 0.009187997863979966 -0.0007301720713507626 -0.005760820504454525 0.003600161663112921 0.018112085168845504 0.9956822948149262 -0.04361660580644619
 -0.0007301866745983526 -0.005760818478557713 0.0008610565430562514 0.009184406582606337 0.9956822948149262 -0.04361660580644619 0.003595357192885569 0.01811243795051865
0.08753647353064001 0.003857590439595476 0.019608180989093355 0.9953428854527342 -0.047056203605596134 0.0009329785606221131 0.009899612893226491 -0.0008196329799040904 -0.0062104782082787234
 0.9953428854527342 -0.047056203605596134 0.003851863503082943 0.01960860161228657 -0.0008196160352961923 -0.006210480658510206 0.0009689938021060133 0.009895375114901713
 0.0009329785606221131 0.009899612893226491 -0.0008196160352961923 -0.006210480658510206 0.003857545754550873 0.01960934273803923 0.9953429229910116 -0.04705502975071777
 -0.0008196329799040904 -0.0062104782082787234 0.0009689938021060133 0.009895375114901713 0.9953429229910116 -0.04705502975071777 0.0038519754727751854 0.019609740730163566
0.09378907878283 0.0041270813482619725 0.02111890295744685 0.9949876277817853 -0.0505067448010506 0.0010423645259174654 0.010611613967531998 -0.0009146900019544257 -0.006660668897503387
 0.9949876277817853 -0.0505067448010506 0.0041205084282203075 0.021119375282650045 -0.0009146705420138326 -0.006660671828958731 0.0010837375659387366 0.01060665696231955
 0.0010423645259174654 0.010611613967531998 -0.0009146705420138326 -0.006660671828958731 0.004127029300290379 0.021120145887862558 0.9949876707247972 -0.050505486129632605
 -0.0009146900019544257 -0.006660668897503387 0.0010837375659387366 0.01060665696231955 0.9949876707247972 -0.050505486129632605 0.0041206366245570974 0.021120592014779904
0.100041684035 0.004408882517573315 0.02264299527450489 0.9946162841533636 -0.0539692322478123 0.0011582412636505 0.011323925928877824 -0.0010154192040189131 -0.007111310786205868
 0.9946162841533636 -0.0539692322478123 0.004401405289249016 0.02264352265625393 -0.0010153970550738438 -0.007111314259622219 0.001205348348733996 0.011318172809028573
 0.0011582412636505 0.011323925928877824 -0.0010153970550738438 -0.007111314259622219 0.004408822477286482 0.022644319021082195 0.9946163328976699 -0.053967888525245304
 -0.0010154192040189131 -0.007111310786205868 0.001205348348733996 0.011318172809028573 0.9946163328976699 -0.053967888525245304 0.004401550788788169 0.02264481627517192
0.1059090909091 0.0046847057722859435 0.024085200115823557 0.9942530049631749 -0.05722918967126722 0.0012729348939939384 0.011992569124880142 -0.0011151555149906743 -0.007534528562178886
 0.9942530049631749 -0.05722918967126722 0.004676326852135814 0.024085782292601658 -0.0011151306851027198 -0.007534532602872078 0.001325765696314863 0.011985995262141157
 0.0012729348939939384 0.011992569124880142 -0.0011151306851027198 -0.007534532602872078 0.004684637645827135 0.024086599345622305 0.9942530595198148 -0.05722776590741161
 -0.0011151555149906743 -0.007534528562178886 0.001325765696314863 0.011985995262141157 0.9942530595198148 -0.05722776590741161 0.004676489561582132 0.024087147359977374
0.1062942892872 0.004703203526310286 0.0241802847157904 0.9942286496058429 -0.05744357063720759 0.0012806674902055256 0.012036471536088611 -0.0011218810263936936 -0.007562322801314799
 0.9942286496058429 -0.05744357063720759 0.004694763610064788 0.024180870597765594 -0.001121856015164524 -0.007562326881319866 0.0013338856881917613 0.012029841208853007
 0.0012806674902055256 0.012036471536088611 -0.001121856015164524 -0.007562326881319866 0.004703134848782385 0.024181688888005832 0.9942287045567189 -0.0574421416110191
 -0.0011218810263936936 -0.007562322801314799 0.0013338856881917613 0.012029841208853007 0.9942287045567189 -0.0574421416110191 0.004694927482140353 0.024182240330473937
0.11254689453939999 0.005010253303735082 0.025730599374365816 0.9938245194348656 -0.06092965674039919 0.001409700935192501 0.012749171539556818 -0.0012341348472714913 -0.008013622487662056
 0.9938245194348656 -0.06092965674039919 0.005000792255663199 0.025731247290660567 -0.0012341068009494437 -0.008013627242798936 0.0014694080959388373 0.012741578660228995
 0.001409700935192501 0.012749171539556818 -0.0012341068009494437 -0.008013627242798936 0.005010175328060899 0.025732083557331593 0.993824581006837 -0.060928142139444884
 -0.0012341348472714913 -0.008013622487662056 0.0014694080959388373 0.012741578660228995 0.993824581006837 -0.060928142139444884 0.005000975561671425 0.025732692319216887
0.11879949979160001 0.0053302400876085385 0.02729376786319056 0.993403689280404 -0.0644273801668372 0.0015453982950967555 0.013461944741148065 -0.0013522389421300187 -0.008465125955767204
 0.993403689280404 -0.0644273801668372 0.0053196993896909425 0.027294481439917168 -0.0013522076884595372 -0.00846513145852851 0.0016119730084514377 0.013453299666593067
 0.0015453982950967555 0.013461944741148065 -0.0013522076884595372 -0.00846513145852851 0.005330152135925748 0.027295331616864565 0.9934037578975927 -0.0644257797021425
 -0.0013522389421300187 -0.008465125955767204 0.0016119730084514377 0.013453299666593067 0.9934037578975927 -0.0644257797021425 0.005319903181658309 0.027296000900409793
0.1250521050438 0.005663371375822664 0.02886961867970282 0.9929659552105733 -0.06793662396289607 0.001687815186729414 0.014174708043491769 -0.0014762504421755621 -0.008916747842580824
 0.9929659552105733 -0.06793662396289607 0.005651692426251855 0.028870401636922192 -0.0014762158095463327 -0.008916754169434816 0.0017616367384372148 0.01416491678606827
 0.001687815186729414 0.014174708043491769 -0.0014762158095463327 -0.008916754169434816 0.005663272753451697 0.028871261540385315 0.9929660313077708 -0.06793493732646363
 -0.0014762504421755621 -0.008916747842580824 0.0017616367384372148 0.01416491678606827 0.9929660313077708 -0.06793493732646363 0.0056519177465411885 0.028871994620639985
0.131304710296 0.006009853875968884 0.030457979696815372 0.9925111138044814 -0.07145726508667717 0.0018370061008467988 0.01488737649049553 -0.0016062252919496322 -0.009368401283120982
 0.9925111138044814 -0.07145726508667717 0.005996977979237746 0.030458835850641026 -0.0016061871094631822 -0.009368408514534347 0.0019184544262057695 0.014876340672584906
 0.0018370061008467988 0.01488737649049553 -0.0016061871094631822 -0.009368408514534347 0.006009743870450947 0.030459701174753263 0.9925111978274836 -0.0714554919539508
 -0.0016062252919496322 -0.009368401283120982 0.0019184544262057695 0.014876340672584906 0.9925111978274836 -0.0714554919539508 0.005997225859331738 0.030460501401522923
0.1375573155481 0.006284293491618997 0.03184976388405802 0.9921245871617417 -0.07478018677183143 0.0019719723092973098 0.015577815336285194 -0.0017210708181417465 -0.0097980250156679
 0.9921245871617417 -0.07478018677183143 0.006270158410775433 0.0318506778570492 -0.0017210290007158126 -0.009798033159199969 0.0020612335449559658 0.01556556326870059
 0.0019719723092973098 0.015577815336285194 -0.0017210290007158126 -0.009798033159199969 0.006284172217176331 0.031851563261809906 0.9921246794707138 -0.07477832693920713
 -0.0017210708181417465 -0.0097980250156679 0.0020612335449559658 0.01556556326870059 0.9921246794707138 -0.07477832693920713 0.0062704292047215445 0.03185241543188392
0.1438099208003 0.006568156869511441 0.03323520163834814 0.9917248917441093 -0.07809571494154548 0.0021123817337747263 0.016266211038441645 -0.0018405344790166337 -0.010225741045082523
 0.9917248917441093 -0.07809571494154548 0.00655270325073444 0.033236175999603795 -0.0018404888721671201 -0.010225750176115492 0.002209801633556664 0.016252654036981163
 0.0021123817337747263 0.016266211038441645 -0.0018404888721671201 -0.010225750176115492 0.006568023738062491 0.03323707836377544 0.9917249927836724 -0.07809376808651829
 -0.0018405344790166337 -0.010225741045082523 0.002209801633556664 0.016252654036981163 0.9917249927836724 -0.07809376808651829 0.006552997851240891 0.033237984636289894
0.1500625260525 0.006861357100843839 0.034614207238110775 0.9913121175634607 -0.08140379835903741 0.0022581936722720583 0.0169525178209204 -0.0019645758715150586 -0.01065150347561664
 0.9913121175634607 -0.08140379835903741 0.006844525481063577 0.03461524471104187 -0.00196452632244549 -0.010651513672394895 0.002364116348221809 0.01693756399934972
 0.0022581936722720583 0.0169525178209204 -0.00196452632244549 -0.010651513672394895 0.0068612115170535145 0.03461616073505891 0.9913122277875323 -0.08140176414671223
 -0.0019645758715150586 -0.01065150347561664 0.002364116348221809 0.01693756399934972 0.9913122277875323 -0.08140176414671223 0.006844844762017926 0.03461712340925348
0.15631513130469998 0.00716380680700654 0.035986697724072335 0.9908863549291564 -0.08470438538511739 0.0024093670349816395 0.017636690548041435 -0.0020931541788136994 -0.011075267291784957
