! Created with skrf 1.8.0 (http://scikit-rf.org).
# GHz S RI R 50.0 
!freq ReS11 ImS11 ReS12 ImS12 ReS13 ImS13
! ReS14 ImS14
! ReS21 ImS21 ReS22 ImS22 ReS23 ImS23
! ReS24 ImS24
! ReS31 ImS31 ReS32 ImS32 ReS33 ImS33
! ReS34 ImS34
! ReS41 ImS41 ReS42 ImS42 ReS43 ImS43
! ReS44 ImS44
!
0.0 0.001478870744128 0.0 0.9985211292432 0.0 5.728824398157e-05 0.0 -5.72882437821e-05 7.015786437652203e-21
 0.9985211292432 0.0 0.001478870744124 0.0 -5.728824378175e-05 7.01578643760934e-21 5.728824398195e-05 0.0
 5.728824398157e-05 0.0 -5.728824378175e-05 7.01578643760934e-21 0.001478870750431 0.0 0.9985211292496 0.0
 -5.72882437821e-05 7.015786437652203e-21 5.728824398195e-05 0.0 0.9985211292496 0.0 0.001478870750449 0.0
0.005 0.0015910323542549219 0.0012034240577366423 0.9983792263453731 -0.0030983953319188647 8.121912232147578e-05 0.0006708854399667057 -7.859977124473456e-05 -0.0004142190993161356
 0.9983792263453731 -0.0030983953319188647 0.0015910549603875958 0.0012034108992330832 -7.860115513057641e-05 -0.0004142202058276827 8.107962425748933e-05 0.0006709386276546841
 8.121912232147578e-05 0.0006708854399667057 -7.860115513057641e-05 -0.0004142202058276827 0.0015910310899534428 0.0012033575777386323 0.9983792259933475 -0.0030984623941973733
 -7.859977124473456e-05 -0.0004142190993161356 8.107962425748933e-05 0.0006709386276546841 0.9983792259933475 -0.0030984623941973733 0.0015910555306597252 0.001203343265521502
0.006252605252188 0.0016203950007179404 0.0015090518481126183 0.9983418451467461 -0.0038737629792149806 8.804516177643403e-05 0.0008389156313013231 -8.459805391827733e-05 -0.0005183216552067785
 0.9983418451467461 -0.0038737629792149806 0.0016204303376246545 0.0015090351026782033 -8.460020703503963e-05 -0.0005183230205626837 8.782720922342191e-05 0.0008389846666977099
 8.804516177643403e-05 0.0008389156313013231 -8.460020703503963e-05 -0.0005183230205626837 0.0016203930987997378 0.0015089687649719687 0.9983418446710991 -0.003873846800293533
 -8.459805391827733e-05 -0.0005183216552067785 8.782720922342191e-05 0.0008389846666977099 0.9983418446710991 -0.003873846800293533 0.0016204313042041394 0.0015089505674238315
0.01250521050438 0.0017746527412444756 0.0030500346505566408 0.9981441662340813 -0.007748417729933777 0.00012713200655110917 0.0016780804538509364 -0.00011853099350582297 -0.0010392280597696939
 0.9981441662340813 -0.007748417729933777 0.0017747938341069797 0.003049998178722323 -0.00011853947475549666 -0.0010392305966170198 0.00012626287437094154 0.001678245980572129
 0.00012713200655110917 0.0016780804538509364 -0.00011853947475549666 -0.0010392305966170198 0.0017746456880897029 0.0030498688472279114 0.9981441648778965 -0.0077485851521271075
 -0.00011853099350582297 -0.0010392280597696939 0.00012626287437094154 0.001678245980572129 0.9981441648778965 -0.0077485851521271075 0.0017747982479844717 0.003049829354839244
0.01875781575657 0.0019419712577077503 0.0046132111590744705 0.9979278538328322 -0.011633412238731012 0.00017463601252679694 0.0025181058390758284 -0.00015919044901374947 -0.0015619216329958055
 0.9979278538328322 -0.011633412238731012 0.0019422882850844286 0.00461315181291618 -0.0001592093571477017 -0.001561925113040387 0.00017268362634560247 0.0025184005354856012
 0.00017463601252679694 0.0025181058390758284 -0.0001592093571477017 -0.001561925113040387 0.0019419558270882386 0.004612962938828718 0.9979278512047861 -0.011633663211719771
 -0.00015919044901374947 -0.0015619216329958055 0.00017268362634560247 0.0025184005354856012 0.9979278512047861 -0.011633663211719771 0.001942298646820097 0.004612898837101573
0.02501042100875 0.002122668675831443 0.006196389646126728 0.9976926601603365 -0.015530639444113297 0.00023064637790140016 0.003359042266208231 -0.00020667641548827785 -0.002086160365229108
 0.9976926601603365 -0.015530639444113297 0.002123231665017717 0.006196304133123049 -0.0002067097987338628 -0.0020861645214967067 0.0002271785035797012 0.003359503838713223
 0.00023064637790140016 0.003359042266208231 -0.0002067097987338628 -0.0020861645214967067 0.002122641639850371 0.006196059357299578 0.9976926558592936 -0.015530973981588711
 -0.00020667641548827785 -0.002086160365229108 0.0002271785035797012 0.003359503838713223 0.9976926558592936 -0.015530973981588711 0.002123250477057011 0.006195967139043227
0.03126302626094 0.0023170498919555253 0.007798446597788292 0.9974383244566751 -0.019440914520882802 0.0002952531094040831 0.004200858277504981 -0.0002610860663532937 -0.0026117787636460834
 0.9974383244566751 -0.019440914520882802 0.002317928757071528 0.0077983314854175876 -0.00026113793104102384 -0.002611783289963988 0.0002898369430697035 0.004201529488050541
 0.0002952531094040831 0.004200858277504981 -0.00026113793104102384 -0.002611783289963988 0.002317008027686906 0.007798034653410757 0.9974383180776242 -0.019441332681316835
 -0.0002610860663532937 -0.0026117787636460834 0.0002898369430697035 0.004201529488050541 0.9974383180776242 -0.019441332681316835 0.0023179585328604 0.007797910623152681
0.037515631513130004 0.002525413233597202 0.009418652772032974 0.9971645798364484 -0.023364648764003293 0.00036854600680039524 0.005043490254518072 -0.0003225145186269204 -0.003138638064956643
 0.9971645798364484 -0.023364648764003293 0.0025266778012913616 0.009418504490352406 -0.00032258883371365075 -0.0031386426158319007 0.00036074798751752426 0.00504441897096028
 0.00036854600680039524 0.005043490254518072 -0.00032258883371365075 -0.0031386426158319007 0.0025253533247767213 0.00941815966412166 0.9971645709704876 -0.02336515063696503
 -0.0003225145186269204 -0.003138638064956643 0.00036074798751752426 0.00504441897096028 0.9971645709704876 -0.02336515063696503 0.0025267210674275544 0.009417999940075028
0.043768236765320004 0.002748053041437066 0.011056468135104058 0.996871156066075 -0.027302054585596848 0.0004506141944959244 0.005886857547515926 -0.0003910551121246347 -0.003666611101156726
 0.996871156066075 -0.027302054585596848 0.0027497730709777736 0.011056282978403366 -0.00039115581181245533 -0.003666615291750048 0.0004399999124919229 0.005888096801071808
 0.0004506141944959244 0.005886857547515926 -0.00039115581181245533 -0.003666615291750048 0.002747971876442168 0.0110558944292234 0.996871144296666 -0.027302640297825927
 -0.0003910551121246347 -0.003666611101156726 0.0004399999124919229 0.005888096801071808 0.996871144296666 -0.027302640297825927 0.0027498323659474557 0.01105569494422159
0.050020842017509996 0.002985260869117508 0.012711457083325411 0.9965577809632299 -0.03125323022456503 0.000541545848517915 0.006730868728386687 -0.00046679951381535956 -0.004195576045021472
 0.9965577809632299 -0.03125323022456503 0.00298750607052954 0.012711231211175004 -0.0004669304993479685 -0.004195579451150977 0.0005276800033008287 0.006732476774111121
 0.000541545848517915 0.006730868728386687 -0.0004669304993479685 -0.004195579451150977 0.0029851552441178676 0.012710803426075617 0.9965577658675534 -0.03125389993318728
 -0.00046679951381535956 -0.004195576045021472 0.0005276800033008287 0.006732476774111121 0.9965577658675534 -0.03125389993318728 0.00298758394768591 0.01271055992791054
0.055454545454549996 0.003203457471457375 0.014163349062415764 0.9962690333329706 -0.03469812558380105 0.0006278340571028125 0.007464786097282082 -0.0005385440264394049 -0.004655975287113396
 0.9962690333329706 -0.03469812558380105 0.0032062156501749843 0.014163084584220395 -0.0005387044748633139 -0.004655977636503228 0.0006107882874281155 0.007466766048393109
 0.0006278340571028125 0.007464786097282082 -0.0005387044748633139 -0.004655977636503228 0.00320332799434515 0.014162626511859644 0.9962690149965931 -0.034698868440594464
 -0.0005385440264394049 -0.004655975287113396 0.0006107882874281155 0.007466766048393109 0.9962690149965931 -0.034698868440594464 0.0032063117612091993 0.014162341167794853
0.056273447269699996 0.0032373261003839785 0.01438324686226481 0.9962241812176255 -0.035218201259747686 0.0006414280046365384 0.007575424656870721 -0.0005498377485749894 -0.004725413345533337
 0.9962241812176255 -0.035218201259747686 0.003240166150723469 0.014382976300106787 -0.0005500028894018446 -0.004725415503711432 0.0006238743941298185 0.007577465035465747
 0.0006414280046365384 0.007575424656870721 -0.0005500028894018446 -0.004725415503711432 0.003237192819511097 0.014382513980147563 0.9962241623640812 -0.035218955153907716
 -0.0005498377485749894 -0.004725413345533337 0.0006238743941298185 0.007577465035465747 0.9962241623640812 -0.035218955153907716 0.0032402651784778497 0.014382222031423855
0.06252605252188 0.0035045362829602203 0.01607150467953104 0.995870082931201 -0.0391969434314647 0.0007503464112283868 0.008420420167516244 -0.000640258189063425 -0.00525600404603994
 0.995870082931201 -0.0391969434314647 0.0035080408417981776 0.016071185318870692 -0.0006404613236740036 -0.005256004453503783 0.0007286679402757301 0.008422961767708707
 0.0007503464112283868 0.008420420167516244 -0.0006404613236740036 -0.005256004453503783 0.003504372160375796 0.01607069338202261 0.995870059879935 -0.03919778172999165
 -0.000640258189063425 -0.00525600404603994 0.0007286679402757301 0.008422961767708707 0.995870059879935 -0.03919778172999165 0.00350816360556169 0.016070348359534223
0.06877865777407 0.0037871773073715424 0.017775924081667917 0.9954952120081347 -0.04318939620228613 0.0008683854043808664 0.009265745077279178 -0.0007381475238899526 -0.005787228785419113
 0.9954952120081347 -0.04318939620228613 0.003791416031951412 0.017775551679819167 -0.0007383924604248098 -0.005787226900180387 0.0008421441080301346 0.009268862198380865
 0.0008683854043808664 0.009265745077279178 -0.0007383924604248098 -0.005787226900180387 0.003786979167184392 0.017775035260196952 0.9954951843082466 -0.043190319155180915
 -0.0007381475238899526 -0.005787228785419113 0.0008421441080301346 0.009268862198380865 0.9954951843082466 -0.043190319155180915 0.0037915651336354094 0.01777463235390713
0.07503126302626001 0.004085533491644634 0.019496216299671455 0.9950992944536229 -0.04719547135255107 0.0009956277976786803 0.010111284825991806 -0.0008435907118642771 -0.006318967170292891
 0.9950992944536229 -0.04719547135255107 0.004090576051661859 0.019495786479050235 -0.0008438812285448834 -0.006318962411179579 0.000964384874362971 0.01011505724030561
 0.0009956277976786803 0.010111284825991806 -0.0008438812285448834 -0.006318962411179579 0.004085298170358337 0.019495250930375897 0.9950992616431176 -0.04719647923875524
 -0.0008435907118642771 -0.006318967170292891 0.000964384874362971 0.01011505724030561 0.9950992616431176 -0.04719647923875524 0.004090754111748669 0.01949478514192033
0.08128386827845 0.004399887610468076 0.021232104503457215 0.9946820566203378 -0.05121505867095374 0.0011321547798340875 0.01095692090600415 -0.0009566709273475489 -0.006851097362091777
 0.9946820566203378 -0.05121505867095374 0.004405803702829323 0.02123161275045207 -0.0009570107727180538 -0.006851089108808964 0.0010954706334595143 0.010961433920948357
 0.0011321547798340875 0.01095692090600415 -0.0009570107727180538 -0.006851089108808964 0.00439961195839572 0.02123106364617538 0.9946820182255259 -0.0512161517998865
 -0.0009566709273475489 -0.006851097362091777 0.0010954706334595143 0.010961433920948357 0.9946820182255259 -0.0512161517998865 0.004406013361707014 0.021230529786900272
0.08753647353064001 0.004730520885405522 0.02298331982181866 0.9942432254197102 -0.05524802988407783 0.0012780458184764253 0.011802531165278256 -0.0010774694993673532 -0.00738349579488457
 0.9942432254197102 -0.05524802988407783 0.0047373802489295925 0.022982761485165593 -0.0010778623925554707 -0.0073834833880562145 0.0012354801064747368 0.011807875685028318
 0.0012780458184764253 0.011802531165278256 -0.0010778623925554707 -0.0073834833880562145 0.004730201767563887 0.022982204621117074 0.9942431809531936 -0.055249208594960894
 -0.0010774694993673532 -0.00738349579488457 0.0012354801064747368 0.011807875685028318 0.9942431809531936 -0.055249208594960894 0.004737624166935528 0.022981597309764113
0.09378907878283 0.005077712948339876 0.024749598505004553 0.9937825285092673 -0.05929424144760492 0.0014333785672770805 0.012647990025461702 -0.0012060658461432094 -0.007916036982558876
 0.9937825285092673 -0.05929424144760492 0.005085585378408274 0.02474896879377513 -0.001206515476969446 -0.007916019723792845 0.0013844902545875808 0.01265426261199948
 0.0014333785672770805 0.012647990025461702 -0.001206515476969446 -0.007916019723792845 0.005077347246445687 0.024748410192305694 0.9937824774695024 -0.05929550610765906
 -0.0012060658461432094 -0.007916036982558876 0.0013844902545875808 0.01265426261199948 0.9937824774695024 -0.05929550610765906 0.005085866237334383 0.024747723852186387
0.100041684035 0.0054417417867301775 0.026530679839299062 0.9932996944650765 -0.06335353659039372 0.0015982287757834667 0.013493168649307868 -0.0013425374064188658 -0.008448593381115211
 0.9932996944650765 -0.06335353659039372 0.005450697149781481 0.02652997382039803 -0.0013430474354137875 -0.008448570533066097 0.001542576193247781 0.013500471582857821
 0.0015982287757834667 0.013493168649307868 -0.0013430474354137875 -0.008448570533066097 0.0054413264001455216 0.026529419729583142 0.9932996363349137 -0.06335488759856821
 -0.0013425374064188658 -0.008448593381115211 0.001542576193247781 0.013500471582857821 0.9932996363349137 -0.06335488759856821 0.005451017653647255 0.02652864858521129
0.1059090909091 0.0057989032284234765 0.028215267667843914 0.9928262316108546 -0.06717450398913508 0.0017616449647396852 0.014285906761513374 -0.0014778310934926624 -0.008948239405328334
 0.9928262316108546 -0.06717450398913508 0.005808938428595412 0.028214485426377976 -0.001478401102945441 -0.008948210607082431 0.0016992426295365216 0.014294274735329269
 0.0017616449647396852 0.014285906761513374 -0.001478401102945441 -0.008948210607082431 0.005798438415883802 0.028213941458776523 0.9928261663422977 -0.06717593641287978
 -0.0014778310934926624 -0.008948239405328334 0.0016992426295365216 0.014294274735329269 0.9928261663422977 -0.06717593641287978 0.005809298615323981 0.02821308530151218
0.1062942892872 0.005822883673293906 0.028326304582758983 0.992794452941724 -0.06742574684251244 0.0017726702007327894 0.01433793507155846 -0.0014869595681522045 -0.00898103529210625
 0.992794452941724 -0.06742574684251244 0.005832991921930539 0.028325517177884597 -0.001487533626614227 -0.008981006078544266 0.0017098111078651629 0.014346376410211442
 0.0017726702007327894 0.01433793507155846 -0.001487533626614227 -0.008981006078544266 0.0058224155213112035 0.028324974078136403 0.9927943871876564 -0.06742718462599331
 -0.0014869595681522045 -0.00898103529210625 0.0017098111078651629 0.014346376410211442 0.9927943871876564 -0.06742718462599331 0.005833354798335312 0.028324112151498267
0.11254689453939999 0.006221413086734675 0.030136213772243056 0.9922665348259302 -0.07151069319685859 0.0019567745187383787 0.015182154305949502 -0.0016394055953327946 -0.009513230794609532
 0.9922665348259302 -0.07151069319685859 0.00623274427447247 0.03013533975429913 -0.0016400472852621986 -0.009513194400484974 0.0018862661700600452 0.01519184794444866
 0.0019567745187383787 0.015182154305949502 -0.0016400472852621986 -0.009513194400484974 0.0062208891097016075 0.030134814362053144 0.9922664608968422 -0.07151221821123487
 -0.0016394055953327946 -0.009513230794609532 0.0018862661700600452 0.01519184794444866 0.9922664608968422 -0.07151221821123487 0.006233152275400423 0.03013385546825629
0.11879949979160001 0.006637602622828815 0.031960147789465924 0.991715672383753 -0.0756081870172699 0.002150611239990726 0.01602568843314433 -0.0017999465530634372 -0.010045045701038617
 0.991715672383753 -0.0756081870172699 0.006650226919157356 0.03195918177859423 -0.0018006594471268562 -0.01004500127256799 0.0020720104545660194 0.016036754160819774
 0.002150611239990726 0.01602568843314433 -0.0018006594471268562 -0.01004500127256799 0.006637019784094131 0.03195868104947219 0.9917155897098014 -0.07560979974745155
 -0.0017999465530634372 -0.010045045701038617 0.0020720104545660194 0.016036754160819774 0.9917155897098014 -0.07560979974745155 0.006650682822035355 0.03195761879194178
0.1250521050438 0.007071722899760031 0.033797845632115776 0.9911415994038818 -0.07971803074700508 0.0023542476223290124 0.016868396679369832 -0.0019686512315450692 -0.010576343527267041
 0.9911415994038818 -0.07971803074700508 0.0070857106052169124 0.033796782091043615 -0.001969438872982499 -0.010576290171978985 0.0022671108565178034 0.01688096023702525
 0.0023542476223290124 0.016868396679369832 -0.001969438872982499 -0.010576290171978985 0.007071078186961948 0.0337963132235779 0.9911415073951519 -0.07971973170811893
 -0.0019686512315450692 -0.010576343527267041 0.0022671108565178034 0.01688096023702525 0.9911415073951519 -0.07971973170811893 0.0070862172136164905 0.03379514098873814
0.131304710296 0.007524042456846644 0.035649044325688634 0.9905440513376441 -0.08384001848201711 0.00256774858608678 0.01771013548585522 -0.0021455860691285632 -0.011106985476718897
 0.9905440513376441 -0.08384001848201711 0.007539464018058048 0.035647877554632244 -0.0021464519715755043 -0.011106922263590523 0.0024716320089852918 0.017724328621649216
 0.00256774858608678 0.01771013548585522 -0.0021464519715755043 -0.011106922263590523 0.007523332883926299 0.03564744799875373 0.9905439493835346 -0.08384180821610697
 -0.0021455860691285632 -0.011106985476718897 0.0024716320089852918 0.017724328621649216 0.9905439493835346 -0.08384180821610697 0.0075400241633377775 0.03564615895008441
0.1375573155481 0.007889697129619639 0.037270347556502895 0.990027931591335 -0.0877307150451112 0.002764364519230918 0.018525873862387812 -0.002304115627128353 -0.011611881904940446
 0.990027931591335 -0.0877307150451112 0.007906629541689508 0.03726910035655464 -0.0023050651097294888 -0.01161180879726014 0.002659042878590624 0.018541673303346464
 0.002764364519230918 0.018525873862387812 -0.0023050651097294888 -0.01161180879726014 0.0078889203374648 0.037268688701579455 0.9900278192267368 -0.08773259390147178
 -0.002304115627128353 -0.011611881904940446 0.002659042878590624 0.018541673303346464 0.9900278192267368 -0.08773259390147178 0.007907245174573592 0.037267304947477445
0.1438099208003 0.008268150626605273 0.038883269502537836 0.9894937522244602 -0.09161174341322027 0.0029689528215746963 0.019338463439316143 -0.0024690068374903884 -0.012113946757808814
 0.9894937522244602 -0.09161174341322027 0.008286665558799046 0.03888193801750494 -0.00247004369644876 -0.01211386284066164 0.0028540213974056114 0.019355989442094223
 0.0029689528215746963 0.019338463439316143 -0.00247004369644876 -0.01211386284066164 0.00826730378015459 0.03888154991950471 0.9894936288376206 -0.0916137119312412
 -0.0024690068374903884 -0.012113946757808814 0.0028540213974056114 0.019355989442094223 0.9894936288376206 -0.0916137119312412 0.008287339391688301 0.03888006648422219
0.1500625260525 0.008659271996856815 0.04048768091600104 0.9889416480438955 -0.09548301321012724 0.0031814461400626495 0.020147825522715324 -0.002640195169515124 -0.012613106919855486
 0.9889416480438955 -0.09548301321012724 0.008679441302335352 0.04048626104334264 -0.002641323194401985 -0.012613011241506114 0.003056502470940228 0.020167202735638566
 0.0031814461400626495 0.020147825522715324 -0.002641323194401985 -0.012613011241506114 0.008658352294157023 0.04048590247780855 0.9889415130051638 -0.0954850719480284
 -0.002640195169515124 -0.012613106919855486 0.003056502470940228 0.020167202735638566 0.9889415130051638 -0.0954850719480284 0.008680176064129937 0.04048431409543749
0.15631513130469998 0.00906292938424176 0.042083456486668745 0.9883717545132717 -0.09934443425738904 0.003401776346674148 0.02095388268905057 -0.0028176153154054772 -0.01310929079570426
