! Created with skrf 1.8.0 (http://scikit-rf.org).
# GHz S RI R 50.0 
!freq ReS11 ImS11 ReS12 ImS12 ReS13 ImS13
! ReS14 ImS14
! ReS21 ImS21 ReS22 ImS22 ReS23 ImS23
! ReS24 ImS24
! ReS31 ImS31 ReS32 ImS32 ReS33 ImS33
! ReS34 ImS34
! ReS41 ImS41 ReS42 ImS42 ReS43 ImS43
! ReS44 ImS44
!
0.0 0.001472986256275 0.0 0.9985270137379 0.0 5.664763106413e-05 0.0 -5.664763102551e-05 6.937334001467112e-21
 0.9985270137379 0.0 0.001472986256255 0.0 -5.66476310247e-05 6.937334001367915e-21 5.664763106382e-05 0.0
 5.664763106413e-05 0.0 -5.66476310247e-05 6.937334001367915e-21 0.001472986256158 0.0 0.9985270137378 0.0
 -5.664763102551e-05 6.937334001467112e-21 5.664763106382e-05 0.0 0.9985270137378 0.0 0.001472986256179 0.0
0.005 0.0015846086483533644 0.0012060882064653569 0.998385842729977 -0.0030857258861718604 7.90662864008156e-05 0.0006184957096296283 -7.68796224408379e-05 -0.00038923736468603453
 0.998385842729977 -0.0030857258861718604 0.0015846048758018164 0.0012060904795800653 -7.687820842905507e-05 -0.00038923636279687674 7.908642329825072e-05 0.0006184879696728477
 7.90662864008156e-05 0.0006184957096296283 -7.687820842905507e-05 -0.00038923636279687674 0.0015846092924013968 0.0012061551519347577 0.9983858430821577 -0.0030856588200661884
 -7.68796224408379e-05 -0.00038923736468603453 7.908642329825072e-05 0.0006184879696728477 0.9983858430821577 -0.0030856588200661884 0.0015846049292518346 0.0012061576596269763
0.006252605252188 0.001613826289442219 0.0015123585484371597 0.9983486698847873 -0.0038579207830541323 8.542605942010361e-05 0.0007734263656650386 -8.25624983325432e-05 -0.00048705199512464215
 0.9983486698847873 -0.0038579207830541323 0.0016138203918038365 0.0015123614655227079 -8.256029732722596e-05 -0.0004870507614754962 8.545752075213498e-05 0.0007734163293802768
 8.542605942010361e-05 0.0007734263656650386 -8.256029732722596e-05 -0.0004870507614754962 0.0016138272178429836 0.0015124422231729562 0.9983486703575977 -0.003857836961244479
 -8.25624983325432e-05 -0.00048705199512464215 8.545752075213498e-05 0.0007734163293802768 0.9983486703575977 -0.003857836961244479 0.001613820397974618 0.0015124454195831847
0.01250521050438 0.0017672991436136678 0.0030564495979905565 0.9981521818455084 -0.007716698777700175 0.0001216602773361939 0.0015472580332569227 -0.00011464869196729393 -0.0009764966514208829
 0.9981521818455084 -0.007716698777700175 0.0017672755861125194 0.0030564562000201237 -0.00011464000954326642 -0.000976494389694922 0.00012178571610608506 0.0015472340647797323
 0.0001216602773361939 0.0015472580332569227 -0.00011464000954326642 -0.000976494389694922 0.001767302297858979 0.0030566167313324636 0.998152183191957 -0.007716531365480373
 -0.00011464869196729393 -0.0009764966514208829 0.00012178571610608506 0.0015472340647797323 0.998152183191957 -0.007716531365480373 0.0017672750746137716 0.0030566237539741935
0.01875781575657 0.0019337281959018974 0.004622589207284463 0.9979373136363584 -0.011585736822407867 0.00016543323291360053 0.002322014839793053 -0.00015300229529920272 -0.0014676447527721618
 0.9979373136363584 -0.011585736822407867 0.0019336752440446334 0.004622600317154135 -0.00015298292121954075 -0.001467641709616712 0.00016571496903451004 0.002321972290643571
 0.00016543323291360053 0.002322014839793053 -0.00015298292121954075 -0.001467641709616712 0.001933734834881657 0.004622839690599441 0.9979373162375762 -0.011585485887898473
 -0.00015300229529920272 -0.0014676447527721618 0.00016571496903451004 0.002321972290643571 0.9979373162375762 -0.011585485887898473 0.0019336736794825654 0.004622851228121984
0.02501042100875 0.002113427918727677 0.006208600121771154 0.9977038202678137 -0.015466921779816538 0.00021682877063255827 0.003097735886578171 -0.0001977165418854671 -0.0019602827753643307
 0.9977038202678137 -0.015466921779816538 0.0021133338526234213 0.006208616615216453 -0.0001976823121485331 -0.0019602792425589505 0.0002173291246231919 0.003097669386621604
 0.00021682877063255827 0.003097735886578171 -0.0001976823121485331 -0.0019602792425589505 0.002113439296422546 0.006208933838317548 0.9977038245175394 -0.015466587344207982
 -0.0001977165418854671 -0.0019602827753643307 0.0002173291246231919 0.003097669386621604 0.9977038245175394 -0.015466587344207982 0.0021133307172592985 0.006208950634130951
0.03126302626094 0.002306699764262233 0.00781336787777615 0.9974514438367902 -0.019361068398743762 0.00027593117230141075 0.0038743899250339715 -0.00024888220153187774 -0.0024542625316609046
 0.9974514438367902 -0.019361068398743762 0.002306552873565417 0.007813390683154222 -0.00024882899041758425 -0.0024542588466802216 0.00027671252890163606 0.0038742933789898053
 0.00027593117230141075 0.0038743899250339715 -0.00024882899041758425 -0.0024542588466802216 0.0023067171163861705 0.007813784695132832 0.9974514501286902 -0.01936065044376982
 -0.00024888220153187774 -0.0024542625316609046 0.00027671252890163606 0.0038742933789898053 0.9974514501286902 -0.01936065044376982 0.002306547652263682 0.007813807546884008
0.037515631513130004 0.0025138387579649066 0.009436170366444825 0.997179920310313 -0.023268589689886696 0.0003428243958943234 0.004651917994547429 -0.0003065882262202322 -0.0029494585333716076
 0.997179920310313 -0.023268589689886696 0.0025136273386134073 0.009436200464934817 -0.000306511942319274 -0.0029494550796296064 0.00034394923447562026 0.004651784574847255
 0.0003428243958943234 0.004651917994547429 -0.000306511942319274 -0.0029494550796296064 0.002513863305339134 0.009436670123381797 0.9971799290420214 -0.023268088170851523
 -0.0003065882262202322 -0.0029494585333716076 0.00034394923447562026 0.004651784574847255 0.9971799290420214 -0.023268088170851523 0.002513619520903032 0.009436699882924351
0.043768236765320004 0.0027351360616874555 0.011076473790119659 0.9968889822796144 -0.027189700900986113 0.00041759171619351176 0.005430246387337309 -0.00037092198439398605 -0.0034457550243468965
 0.9968889822796144 -0.027189700900986113 0.002734848413385825 0.011076512215888686 -0.0003708185682589866 -0.003445752231328084 0.00041912262742577184 0.00543006852584015
 0.00041759171619351176 0.005430246387337309 -0.0003708185682589866 -0.003445752231328084 0.0027351690085077366 0.011077056291983122 0.9968889938516108 -0.027189115751176312
 -0.00037092198439398605 -0.0034457550243468965 0.00041912262742577184 0.00543006852584015 0.9968889938516108 -0.027189115751176312 0.0027348374911101976 0.011077093865369628
0.050020842017509996 0.002970880158331249 0.012733848342284413 0.9965783603373181 -0.031124503766594317 0.000500315509934505 0.006209291999495459 -0.00044196934628492235 -0.003943040628026373
 0.9965783603373181 -0.031124503766594317 0.0029705045828355746 0.01273389618255069 -0.0004418347690519953 -0.00394303897138119 0.0005023152049531575 0.006209061378636649
 0.000500315509934505 0.006209291999495459 -0.0004418347690519953 -0.00394303897138119 0.0029709226933543648 0.012734513356465886 0.9965783751553027 -0.03112383490158853
 -0.00044196934628492235 -0.003943040628026373 0.0005023152049531575 0.006209061378636649 0.9965783751553027 -0.03112383490158853 0.002970490050207776 0.012734559704021335
0.055454545454549996 0.003187703977889815 0.014187734590456705 0.9962922245762537 -0.034555110279374926 0.000578729812260395 0.006886819054708164 -0.0005092295050469678 -0.004375915010926677
 0.9962922245762537 -0.034555110279374926 0.0031872424906755955 0.014187791536663228 -0.0005090645989687846 -0.004375914764019615 0.0005811879208304366 0.006886535240616642
 0.000578729812260395 0.006886819054708164 -0.0005090645989687846 -0.004375914764019615 0.003187755797720084 0.01418847109711188 0.9962922425482514 -0.03455436857576211
 -0.0005092295050469678 -0.004375915010926677 0.0005811879208304366 0.006886535240616642 0.9962922425482514 -0.03455436857576211 0.0031872244103415045 0.014188525891934124
0.056273447269699996 0.003221357466943125 0.014407926817566802 0.996247783888713 -0.03507302782807021 0.0005910771021779072 0.0069889649602548915 -0.0005198147050653723 -0.004441205718685862
 0.996247783888713 -0.03507302782807021 0.003220882265983723 0.01440798521298805 -0.0005196449674765209 -0.0044412057203015495 0.0005936084172897089 0.006988672503960397
 0.0005910771021779072 0.0069889649602548915 -0.0005196449674765209 -0.0044412057203015495 0.0032214107619319937 0.014408674080767351 0.9962478023629963 -0.03507227513835546
 -0.0005198147050653723 -0.004441205718685862 0.0005936084172897089 0.006988672503960397 0.9962478023629963 -0.03507227513835546 0.0032208636178507897 0.014408730217338288
0.06252605252188 0.0034868526759197693 0.01609838186262526 0.9958969816845686 -0.039035253115011326 0.0006899566445113202 0.007769170072821557 -0.0006045409636415099 -0.004940140983856061
 0.9958969816845686 -0.039035253115011326 0.003486266149822849 0.01609845200746486 -0.0006043320955292246 -0.004940143211929074 0.0006930825430139374 0.007768805937236939
 0.0006899566445113202 0.007769170072821557 -0.0006043320955292246 -0.004940143211929074 0.0034869178857156557 0.016099211074650042 0.9958970042310775 -0.03903441647200308
 -0.0006045409636415099 -0.004940140983856061 0.0006930825430139374 0.007768805937236939 0.9958970042310775 -0.03903441647200308 0.003486242880744939 0.01609927806973724
0.06877865777407 0.003767648920622022 0.017804912402389947 0.995525682201148 -0.04301112365398114 0.0007970330099444627 0.00854980767856362 -0.000696229502869881 -0.005439736566509721
 0.995525682201148 -0.04301112365398114 0.0037669393664769863 0.01780499554493625 -0.0006959775627493461 -0.0054397416356007896 0.0008008165819413277 0.0085493612426952
 0.0007970330099444627 0.00854980767856362 -0.0006959775627493461 -0.0054397416356007896 0.0037677271828480165 0.017805823226542793 0.995525709242593 -0.04301020290952103
 -0.000696229502869881 -0.005439736566509721 0.0008008165819413277 0.0085493612426952 0.995525709242593 -0.04301020290952103 0.0037669109703316076 0.017805902204636494
0.07503126302626001 0.004064027872036218 0.019527235042651896 0.995133613935057 -0.04700055600421266 0.0009123836982623674 0.009330774202970708 -0.0007949601374131167 -0.005939881528851771
 0.995133613935057 -0.04700055600421266 0.004063183582499674 0.019527332485474117 -0.0007946612123573218 -0.005939890099931711 0.000916888158929511 0.009330234059282875
 0.0009123836982623674 0.009330774202970708 -0.0007946612123573218 -0.005939890099931711 0.004064120306222965 0.019528227107418944 0.9951336459008713 -0.046999550988689694
 -0.0007949601374131167 -0.005939881528851771 0.000916888158929511 0.009330234059282875 0.9951336459008713 -0.046999550988689694 0.004063149550775121 0.01952831924829214
0.08128386827845 0.0043762697670342784 0.021265078347030966 0.9947205056432008 -0.05100344492255702 0.0010360847473683378 0.01011196252614125 -0.0009008110640277387 -0.006440463495193529
 0.9947205056432008 -0.05100344492255702 0.004375279028760009 0.021265191447412863 -0.0009004612695821878 -0.006440476275677272 0.0010413734341283998 0.010111316471118988
 0.0010360847473683378 0.01011196252614125 -0.0009004612695821878 -0.006440476275677272 0.004376377474608888 0.021266151240463244 0.9947205429708353 -0.05100235545056294
 -0.0009008110640277387 -0.006440463495193529 0.0010413734341283998 0.010111316471118988 0.9947205429708353 -0.05100235545056294 0.004375238850167511 0.021266257779587548
0.08753647353064001 0.004704653402117912 0.023018178870931702 0.9942860865485137 -0.05501966727559232 0.0011682106487071586 0.01089326223672898 -0.0010138588042621804 -0.006941368415110824
 0.9942860865485137 -0.05501966727559232 0.004703504494239165 0.023018309041345855 -0.0010134542845113216 -0.006941386158892582 0.0011743470173920458 0.010892497261419684
 0.0011682106487071586 0.01089326223672898 -0.0010134542845113216 -0.006941386158892582 0.0047047774655887475 0.023019332147280403 0.9942861296839082 -0.05501849313909214
 -0.0010138588042621804 -0.006941368415110824 0.0011743470173920458 0.010892497261419684 0.9942861296839082 -0.05501849313909214 0.004703457653322609 0.02301945437625961
0.09378907878283 0.005049456100276836 0.024786278344389557 0.9938300865232975 -0.05904908480689739 0.0013088342651586644 0.011674559823452349 -0.0011341781433103662 -0.007442480392932982
 0.9938300865232975 -0.05904908480689739 0.005048137292990638 0.024786427052923735 -0.0011337150709706657 -0.007442503900416124 0.0013158818854860858 0.011673662104028305
 0.0013088342651586644 0.011674559823452349 -0.0011337150709706657 -0.007442503900416124 0.005049597582283857 0.024787511519031656 0.9938301359211819 -0.059047825780356805
 -0.0011341781433103662 -0.007442480392932982 0.0013158818854860858 0.011673662104028305 0.9938301359211819 -0.059047825780356805 0.005048083268875566 0.024787650786055097
0.100041684035 0.005410953658475351 0.026569121590067846 0.993352236255213 -0.06309154617374592 0.0014580267505107183 0.01245573881422633 -0.001261842066013505 -0.007943681573643557
 0.993352236255213 -0.06309154617374592 0.00540945321165788 0.026569290360975106 -0.0012613166426312312 -0.007943711691744092 0.0014660493009032347 0.012454693702594536
 0.0014580267505107183 0.01245573881422633 -0.0012613166426312312 -0.007943711691744092 0.005411113602135168 0.02657043414184595 0.9933522923806846 -0.06309020201178948
 -0.001261842066013505 -0.007943681573643557 0.0014660493009032347 0.012454693702594536 0.9933522923806846 -0.06309020201178948 0.005409391477810338 0.026570591852240814
0.1059090909091 0.005765608849188831 0.028255314223109014 0.9928837128585724 -0.06689668566209579 0.0016058831798841 0.013188578330920924 -0.0013883843113337681 -0.00841398007364718
 0.9928837128585724 -0.06689668566209579 0.005763927264876431 0.028255503257247228 -0.0013877969493332701 -0.008414017206819592 0.0016148786052804392 0.0131873808425393
 0.0016058831798841 0.013188578330920924 -0.0013877969493332701 -0.008414017206819592 0.00576578704698023 0.028256700755004326 0.9928837757292787 -0.0668952613690805
 -0.0013883843113337681 -0.00841398007364718 0.0016148786052804392 0.0131873808425393 0.9928837757292787 -0.0668952613690805 0.005763857810530525 0.028256877102130554
0.1062942892872 0.005789420282905898 0.028366454965822168 0.9928522674046589 -0.06714688846385389 0.0016158574703004067 0.013236679890896231 -0.0013969216904292866 -0.008444852057305751
 0.9928522674046589 -0.06714688846385389 0.005787726444624856 0.02836664538008898 -0.0013963301466051693 -0.0084448896794673 0.0016249187321037764 0.013235471905285184
 0.0016158574703004067 0.013236679890896231 -0.0013963301466051693 -0.0084448896794673 0.005789599710092362 0.028367846336729403 0.9928523307329291 -0.06714545890156323
 -0.0013969216904292866 -0.008444852057305751 0.0016249187321037764 0.013235471905285184 0.9928523307329291 -0.06714545890156323 0.005787656466689768 0.028368023953589807
0.11254689453939999 0.006185128511372961 0.030178025175413042 0.9923299127520266 -0.07121493834877385 0.00178239392322163 0.01401726097778538 -0.001539486199761993 -0.008945869843970732
 0.9923299127520266 -0.07121493834877385 0.006183229516360361 0.030178238871407772 -0.0015388247954052233 -0.008945915910152829 0.001792557774523751 0.014015873793413545
 0.00178239392322163 0.01401726097778538 -0.0015388247954052233 -0.008945915910152829 0.00618532842322776 0.030179494768598145 0.9923299837699378 -0.07121342310381254
 -0.001539486199761993 -0.008945869843970732 0.001792557774523751 0.014015873793413545 0.9923299837699378 -0.07121342310381254 0.00618315075242175 0.03017969381339987
0.11879949979160001 0.006598349129909784 0.032003578338757895 0.9917849063419047 -0.07529551298284796 0.001957701663142454 0.014797357318997237 -0.0016896027728083825 -0.009446610794100219
 0.9917849063419047 -0.07529551298284796 0.006596233198420445 0.03200381701286885 -0.0016888677975130568 -0.00944666629076448 0.001969032072119981 0.014795773758746163
 0.001957701663142454 0.014797357318997237 -0.0016888677975130568 -0.00944666629076448 0.006598570505317084 0.03200512552111084 0.9917849855480598 -0.07529391175289789
 -0.0016896027728083825 -0.009446610794100219 0.001969032072119981 0.014795773758746163 0.9917849855480598 -0.07529391175289789 0.006596145096500662 0.03200534757447894
0.1250521050438 0.007029351080534295 0.03384285925869745 0.9912169836211207 -0.07938842071064384 0.0021418442216739704 0.015576841545110678 -0.0018473365132995123 -0.00994694860403548
 0.9912169836211207 -0.07938842071064384 0.007027006416379366 0.033843124666114346 -0.0018465242865615588 -0.009947014564133324 0.002154405239406639 0.015575043570327678
 0.0021418442216739704 0.015576841545110678 -0.0018465242865615588 -0.009947014564133324 0.007029594875779583 0.03384448335907302 0.9912170715268043 -0.0793867331754502
 -0.0018473365132995123 -0.00994694860403548 0.002154405239406639 0.015575043570327678 0.9912170715268043 -0.0793867331754502 0.00702690841439442 0.03384473006149802
0.131304710296 0.007478401364517516 0.035695610837102404 0.9906258815748253 -0.08349346163050506 0.0023348830306973265 0.016355583732233097 -0.0020127503782828658 -0.010446754793756109
 0.9906258815748253 -0.08349346163050506 0.007475816153963775 0.03569590479253611 -0.002011857250013876 -0.010446832296679174 0.0023487387838466178 0.016353552433513812
 0.0023348830306973265 0.016355583732233097 -0.002011857250013876 -0.010446832296679174 0.007478668512990884 0.035697311148395985 0.9906259787052277 -0.08349168744987376
 -0.0020127503782828658 -0.010446754793756109 0.0023487387838466178 0.016353552433513812 0.9906259787052277 -0.08349168744987376 0.007475707678368915 0.03569758420116024
0.1375573155481 0.007841134017069415 0.03732019735222406 0.9901160076221112 -0.08736894585698714 0.0025119050238323775 0.017109189217072603 -0.002160921919836801 -0.01092166221230841
 0.9901160076221112 -0.08736894585698714 0.007838296739834607 0.03732051447231707 -0.0021599427397245605 -0.010921751330558642 0.002527090387204429 0.01710692780038691
 0.0025119050238323775 0.017109189217072603 -0.0021599427397245605 -0.010921751330558642 0.007841426520981968 0.03732197271195139 0.9901161144032298 -0.08736708482907435
 -0.002160921919836801 -0.01092166221230841 0.002527090387204429 0.01710692780038691 0.9901161144032298 -0.08736708482907435 0.007838176320763272 0.03732226773021212
0.1438099208003 0.008216582788445177 0.038936526919054096 0.989588301791913 -0.09123490522922349 0.0026960733841699526 0.017859926803503692 -0.002315024972418535 -0.011393921567390823
 0.989588301791913 -0.09123490522922349 0.008213481685957999 0.038936868490343904 -0.0023139558634165044 -0.011394023354041537 0.0027126472991099225 0.01785741795059928
 0.0026960733841699526 0.017859926803503692 -0.0023139558634165044 -0.011394023354041537 0.008216901741524936 0.0389383765263581 0.9895884187480931 -0.09123295701863333
 -0.002315024972418535 -0.011393921567390823 0.0027126472991099225 0.01785741795059928 0.9895884187480931 -0.09123295701863333 0.008213348570861078 0.03893869480369967
0.1500625260525 0.00860461982427983 0.04054447316684868 0.9890428957919342 -0.09509125257113679 0.002887326891929869 0.018607726059322673 -0.0024749997116154444 -0.0118634653402218
 0.9890428957919342 -0.09509125257113679 0.008601243129633064 0.04054484053745789 -0.002473836807648842 -0.011863580890201465 0.0029053480336375384 0.018604951805483258
 0.002887326891929869 0.018607726059322673 -0.002473836807648842 -0.011863580890201465 0.008604966310762687 0.0405463961835072 0.9890430234589068 -0.09508921683314756
 -0.0024749997116154444 -0.0118634653402218 0.0029053480336375384 0.018604951805483258 0.9890430234589068 -0.09508921683314756 0.008601096543645402 0.040546739079758386
0.15631513130469998 0.009005116415145415 0.04214391357083503 0.9884799219427107 -0.09893790083849541 0.003085603632830529 0.01935251770760186 -0.0026407856025902486 -0.012330227402444913
