! Created with skrf 1.8.0 (http://scikit-rf.org).
# GHz S RI R 50.0 
!freq ReS11 ImS11 ReS12 ImS12 ReS13 ImS13
! ReS14 ImS14
! ReS21 ImS21 ReS22 ImS22 ReS23 ImS23
! ReS24 ImS24
! ReS31 ImS31 ReS32 ImS32 ReS33 ImS33
! ReS34 ImS34
! ReS41 ImS41 ReS42 ImS42 ReS43 ImS43
! ReS44 ImS44
!
0.0 0.001770914831592 0.0 0.9982290851554 0.0 6.888183593963e-05 0.0 -6.888183588447e-05 8.435591983530949e-21
 0.9982290851554 0.0 0.00177091483162 0.0 -6.888183588451e-05 8.435591983535846e-21 6.888183594043e-05 0.0
 6.888183593963e-05 0.0 -6.888183588451e-05 8.435591983535846e-21 0.001770914824489 0.0 0.9982290851483 0.0
 -6.888183588447e-05 8.435591983530949e-21 6.888183594043e-05 0.0 0.9982290851483 0.0 0.00177091482451 0.0
0.005 0.001906162161253408 0.001444395766648529 0.9980578511812195 -0.003709028636302706 9.746451449208479e-05 0.0007808574077244773 -9.450468452257415e-05 -0.00048615044049968255
 0.9980578511812195 -0.003709028636302706 0.0019061489325611876 0.0014444035612497792 -9.45076117094328e-05 -0.0004861527162448767 9.753149280734441e-05 0.000780831795363337
 9.746451449208479e-05 0.0007808574077244773 -9.45076117094328e-05 -0.0004861527162448767 0.001906160891971807 0.0014444638292812893 0.9980578515605318 -0.003708961575692686
 -9.450468452257415e-05 -0.00048615044049968255 9.753149280734441e-05 0.000780831795363337 0.9980578515605318 -0.003708961575692686 0.0019061509538802173 0.0014444696147476739
0.006252605252188 0.0019418621947785524 0.0018111618782190788 0.9980123337800764 -0.004637158047494047 0.0001057446350326779 0.0009764257281719837 -0.000101848013669555 -0.0006083075359747873
 0.9980123337800764 -0.004637158047494047 0.0019418415154749207 0.0018111717839768132 -0.0001018525683583142 -0.0006083103416796143 0.00010584928021503364 0.0009763924621843768
 0.0001057446350326779 0.0009764257281719837 -0.0001018525683583142 -0.0006083103416796143 0.001941860132062295 0.0018112469563168262 0.9980123342948471 -0.004637074224863896
 -0.000101848013669555 -0.0006083075359747873 0.00010584928021503364 0.0009763924621843768 0.9980123342948471 -0.004637074224863896 0.0019418445974458182 0.0018112543395988744
0.01250521050438 0.002131125725765073 0.003660056871053115 0.9977692796221822 -0.009274871006907668 0.0001538327754296196 0.001953044140770048 -0.00014409805237312656 -0.0012194301827364211
 0.9977692796221822 -0.009274871006907668 0.0021310431459360666 0.0036600783460682927 -0.0001441159986088352 -0.0012194353624202714 0.0001542500223421679 0.0019529639826382833
 0.0001538327754296196 0.001953044140770048 -0.0001441159986088352 -0.0012194353624202714 0.0021311169263344316 0.003660226812558605 0.9977692811239656 -0.009274703605285916
 -0.00014409805237312656 -0.0012194301827364211 0.0001542500223421679 0.0019529639826382833 0.9977692811239656 -0.009274703605285916 0.002131054902466949 0.0036602430982895884
0.01875781575657 0.002339165536898532 0.005534966355494874 0.9974995874341454 -0.013924373526963244 0.00021326536259341395 0.002930497084801075 -0.00019577237123402812 -0.0018324217010141422
 0.9974995874341454 -0.013924373526963244 0.00233897996198212 0.005535001241914625 -0.00019581238648516057 -0.001832428729607446 0.0002142025282641404 0.0029303534368087534
 0.00021326536259341395 0.002930497084801075 -0.00019581238648516057 -0.001832428729607446 0.0023391453263771718 0.005535221126229973 0.9974995903902958 -0.013924122616038434
 -0.00019577237123402812 -0.0018324217010141422 0.0002142025282641404 0.0029303534368087534 0.9974995903902958 -0.013924122616038434 0.0023390059664745045 0.005535247912065144
0.02501042100875 0.0025664252276255944 0.007433197821179613 0.9972029075572648 -0.01858785816672817 0.00028416241629475135 0.003908792739238615 -0.00025700559298048425 -0.0024469605911374157
 0.9972029075572648 -0.01858785816672817 0.0025660956369254018 0.00743324812662829 -0.0002570762483797144 -0.0024469688415699464 0.0002858267924535473 0.003908566125414462
 0.00028416241629475135 0.003908792739238615 -0.0002570762483797144 -0.0024469688415699464 0.0025663889302845605 0.007433537425101449 0.9972029124366989 -0.018587523782260307
 -0.00025700559298048425 -0.0024469605911374157 0.0002858267924535473 0.003908566125414462 0.9972029124366989 -0.018587523782260307 0.002566141455429617 0.0074335763783209855
0.03126302626094 0.0028133299014460496 0.009353334560837093 0.9968788743683463 -0.023266225689112834 0.0003666436845507808 0.004887845631420215 -0.0003279276863511542 -0.003062810186127123
 0.9968788743683463 -0.023266225689112834 0.0028128153257202734 0.009353402456864427 -0.000328037464320781 -0.003062818928353524 0.00036924271652527416 0.004887513682485044
 0.0003666436845507808 0.004887845631420215 -0.000328037464320781 -0.003062818928353524 0.0028132728376576007 0.009353759043819247 0.9968788816421469 -0.023265807829149714
 -0.0003279276863511542 -0.003062810186127123 0.00036924271652527416 0.004887513682485044 0.9968788816421469 -0.023265807829149714 0.002812886518486244 0.00935381189924519
0.037515631513130004 0.003080294786796061 0.011294429304296581 0.996527115294264 -0.027959891371995962 0.0004608274731596068 0.005867532754871586 -0.00040866491915288845 -0.003679762579539037
 0.996527115294264 -0.027959891371995962 0.00307955429376984 0.01129451712640527 -0.00040882222230316566 -0.0036797709803019375 0.0004645688314330665 0.005867070182084185
 0.0004608274731596068 0.005867532754871586 -0.00040882222230316566 -0.0036797709803019375 0.0030802122704964583 0.011294938741644828 0.996527125435582 -0.027959390009693226
 -0.00040866491915288845 -0.003679762579539037 0.0004645688314330665 0.005867070182084185 0.996527125435582 -0.027959390009693226 0.003079656414398556 0.0112950073005883
0.043768236765320004 0.0033677285475152514 0.013255758856827173 0.9961472545151414 -0.03266903030468654 0.0005668300747063672 0.006847710648778683 -0.0004993401772573433 -0.004297621587821047
 0.9961472545151414 -0.03266903030468654 0.0033667212304003026 0.013255869105042768 -0.0004995533336637164 -0.004297628710606756 0.0005719216796391497 0.006847089214487326
 0.0005668300747063672 0.006847710648778683 -0.0004995533336637164 -0.004297628710606756 0.0033676158867517046 0.01325635334011266 0.9961472680007242 -0.032668445401757264
 -0.0004993401772573433 -0.004297621587821047 0.0005719216796391497 0.006847089214487326 0.9961472680007242 -0.032668445401757264 0.003366859826362869 0.013256439469822787
0.050020842017509996 0.0036760347969714315 0.015236722668399141 0.9957389148744069 -0.03739367875322779 0.0006847654075906012 0.007828222467317002 -0.0006000730590961415 -0.004916195726475978
 0.9957389148744069 -0.03739367875322779 0.0036747197645782648 0.015236858008464806 -0.000600350325467131 -0.004916200531576893 0.0006914154300787796 0.00782741095432671
 0.0006847654075906012 0.007828222467317002 -0.000600350325467131 -0.004916200531576893 0.0036758872929816837 0.015237402315764597 0.9957389321853491 -0.03739301025031919
 -0.0006000730590961415 -0.004916195726475978 0.0006914154300787796 0.00782741095432671 0.9957389321853491 -0.03739301025031919 0.0036749003770941645 0.015237507949013995
0.055454545454549996 0.003961223514261716 0.016973774578660186 0.995360633964288 -0.0415120976702738 0.0007970321159545671 0.008680458836703901 -0.0006958714181430048 -0.005454188447396617
 0.995360633964288 -0.0415120976702738 0.003959607864485723 0.01697393401901618 -0.0006962110497118472 -0.005454190313874867 0.0008052056941333117 0.00867945445008682
 0.0007970321159545671 0.008680458836703901 -0.0006962110497118472 -0.005454190313874867 0.003961041908589558 0.016974528351384282 0.995360654993705 -0.04151135645355234
 -0.0006958714181430048 -0.005454188447396617 0.0008052056941333117 0.00867945445008682 0.995360654993705 -0.04151135645355234 0.00395982948461277 0.01697465255450875
0.056273447269699996 0.004005612851406417 0.017236793076607276 0.9953017190329102 -0.042133783857003365 0.000814744748801682 0.00880890145737569 -0.0007109798693217045 -0.005535294784158498
 0.9953017190329102 -0.042133783857003365 0.004003949219074065 0.017236956341423904 -0.0007113294332120357 -0.005535296128717716 0.0008231615952066161 0.008807865638075901
 0.000814744748801682 0.00880890145737569 -0.0007113294332120357 -0.005535296128717716 0.004005425797973145 0.0172375580320332 0.9953017406548651 -0.04213303167480658
 -0.0007109798693217045 -0.005535294784158498 0.0008231615952066161 0.008807865638075901 0.9953017406548651 -0.04213303167480658 0.004004177381414349 0.0172376851673409
0.06252605252188 0.004356858110810846 0.019255487957804015 0.994835290256304 -0.04688923092388049 0.0009568765118502823 0.00978957288748217 -0.000832173561951247 -0.006154727953203542
 0.994835290256304 -0.04688923092388049 0.0043548049920419185 0.019255682149357266 -0.0008326035430399143 -0.006154724591326997 0.0009672687995790284 0.009788275493030183
 0.0009568765118502823 0.00978957288748217 -0.0008326035430399143 -0.006154724591326997 0.0043566267935625175 0.019256338385085784 0.9948353166800981 -0.0468883949698465
 -0.000832173561951247 -0.006154727953203542 0.0009672687995790284 0.009788275493030183 0.9948353166800981 -0.0468883949698465 0.004355086228958558 0.019256489087017145
0.06877865777407 0.004730162229948814 0.021292354427003904 0.9943392529970856 -0.05165985968523394 0.0011112660515835938 0.010770055208835182 -0.00096376365363931 -0.0067743027364123585
 0.9943392529970856 -0.05165985968523394 0.004727678728328457 0.021292582718477213 -0.000964282104672059 -0.006774293319262517 0.00112384257679395 0.010768455898776503
 0.0011112660515835938 0.010770055208835182 -0.000964282104672059 -0.006774293319262517 0.004729881926694663 0.021293290512512525 0.9943392847200334 -0.051658939851322756
 -0.00096376365363931 -0.0067743027364123585 0.00112384257679395 0.010768455898776503 0.9943392847200334 -0.051658939851322756 0.0047280185550815585 0.021293466912539114
0.07503126302626001 0.005125913170397243 0.02334695850725415 0.9938132333636623 -0.05644547459068475 0.0012780154831874798 0.011750160809513662 -0.0011058561196870625 -0.007393824269607032
 0.9938132333636623 -0.05644547459068475 0.005122958371955131 0.023347224245571924 -0.0011064710269470227 -0.007393807345511069 0.001292985183575886 0.011748216141892883
 0.0012780154831874798 0.011750160809513662 -0.0011064710269470227 -0.007393807345511069 0.005125579150749132 0.023347980463741574 0.9938132708898824 -0.05644447075030439
 -0.0011058561196870625 -0.007393824269607032 0.001292985183575886 0.011748216141892883 0.9938132708898824 -0.05644447075030439 0.005123362293355344 0.023348184761245817
0.08128386827845 0.005544495175418434 0.025418878268198226 0.9932568595158329 -0.061245851643909555 0.0014572235111859804 0.012729696531961456 -0.0012585532784076265 -0.008013094890136213
 0.9932568595158329 -0.061245851643909555 0.005541028140446715 0.02541918497701271 -0.001259272561917224 -0.008013068904729855 0.0014747954241859818 0.012727359934135101
 0.0014572235111859804 0.012729696531961456 -0.001259272561917224 -0.008013068904729855 0.005544102699649494 0.02541998633052896 0.9932569033563431 -0.0612447636568167
 -0.0012585532784076265 -0.008013094890136213 0.0014747954241859818 0.012727359934135101 0.9932569033563431 -0.0612447636568167 0.005541501648895364 0.02542022079431546
0.08753647353064001 0.005986288691375157 0.027507699100852313 0.9926697620129207 -0.0660607431127263 0.0016489852654177834 0.013708464046197907 -0.0014219536669283575 -0.008631913859352264
 0.9926697620129207 -0.0660607431127263 0.00598226844731042 0.027508050483707976 -0.0014227851805344199 -0.00863187715570306 0.001669368482690026 0.013705685786364519
 0.0016489852654177834 0.013708464046197907 -0.0014227851805344199 -0.00863187715570306 0.005985833010931364 0.027508893529794128 0.9926698126869478 -0.06605957082200302
 -0.0014219536669283575 -0.008631913859352264 0.001669368482690026 0.013705685786364519 0.9926698126869478 -0.06605957082200302 0.005982817021761725 0.02750916049989314
0.09378907878283 0.0064516702546836705 0.02961301033231455 0.9920515741304683 -0.07088988091054842 0.001853392140209101 0.014686260137126024 -0.0015961519125784673 -0.009250077180768418
 0.9920515741304683 -0.07088988091054842 0.0064470557883663845 0.02961341027633375 -0.0015971034437565399 -0.009250027999531802 0.0018767957595297374 0.01468298729674636
 0.001853392140209101 0.014686260137126024 -0.0015971034437565399 -0.009250027999531802 0.006451146612295524 0.029614291412117702 0.9920516321662922 -0.07088862414573578
 -0.0015961519125784673 -0.009250077180768418 0.0018767957595297374 0.01468298729674636 0.9920516321662922 -0.07088862414573578 0.006447684893747335 0.02961459330197534
0.100041684035 0.00694101235526997 0.03173440276901363 0.9914019321582422 -0.0757329790606819 0.0020705316377382516 0.015662876931459603 -0.0017812385997828006 -0.009867377488757585
 0.9914019321582422 -0.0757329790606819 0.006935762605462705 0.0317348553488709 -0.0017823178693961127 -0.009867313968340575 0.002097164711837893 0.01565905337855601
 0.0020705316377382516 0.015662876931459603 -0.0017823178693961127 -0.009867313968340575 0.006940415984248293 0.031735770811699204 0.9914019980935688 -0.0757316376343183
 -0.0017812385997828006 -0.009867377488757585 0.002097164711837893 0.01565905337855601 0.9914019980935688 -0.0757316376343183 0.0069364776904189155 0.03173611011077942
0.1059090909091 0.007422327983159636 0.033739365431641286 0.990763383822148 -0.08029014096573232 0.0022859486011459914 0.016578066560476005 -0.001964902768626912 -0.010445675719311922
 0.990763383822148 -0.08029014096573232 0.00741644469317856 0.03373987128145594 -0.0019661088695864934 -0.010445596959079803 0.0023158022204185415 0.016573672285740512
 0.0022859486011459914 0.016578066560476005 -0.0019661088695864934 -0.010445596959079803 0.007421659020358474 0.03374081538563898 0.9907634576683908 -0.08028871991125569
 -0.001964902768626912 -0.010445675719311922 0.0023158022204185415 0.016573672285740512 0.9907634576683908 -0.08028871991125569 0.00741724540095355 0.0337411921237758
0.1062942892872 0.00745468327772588 0.03387146685645478 0.9907204756794113 -0.08058973555602893 0.00230048721335381 0.016638102089624074 -0.001977300134489802 -0.0104836039825032
 0.9907204756794113 -0.08058973555602893 0.0074487571277319885 0.03387197633879278 -0.0019785147964022573 -0.010483524159250506 0.002330558696768962 0.01663366845305913
 0.00230048721335381 0.016638102089624074 -0.0019785147964022573 -0.010483524159250506 0.007454009401920831 0.03387292219928118 0.9907205500620778 -0.0805883092670448
 -0.001977300134489802 -0.0104836039825032 0.002330558696768962 0.01663366845305913 0.9907205500620778 -0.0805883092670448 0.007449563623630257 0.033873301476049784
0.11254689453939999 0.007993046930644999 0.03602379128227054 0.9900068478412769 -0.08545983378785249 0.0025433381230561074 0.017611718968407238 -0.0021844186068178508 -0.011098542399756816
 0.9900068478412769 -0.08545983378785249 0.007986403201267455 0.03602436213041145 -0.002185776247410657 -0.011098444208151124 0.0025770568167965894 0.017606612613207322
 0.0025433381230561074 0.017611718968407238 -0.002185776247410657 -0.011098444208151124 0.007992290764440637 0.03602533429043747 0.990006931230033 -0.08545832241967917
 -0.0021844186068178508 -0.011098542399756816 0.0025770568167965894 0.017606612613207322 0.990006931230033 -0.08545832241967917 0.007987306520339275 0.036025756195740034
0.11879949979160001 0.008556462664395303 0.03819096190253929 0.9892606956171318 -0.09034294366356581 0.002799159272902532 0.018583506772770077 -0.002402671652385967 -0.011711975011967036
 0.9892606956171318 -0.09034294366356581 0.008549060106452216 0.03819159878172127 -0.002404179790074203 -0.011711856284803191 0.0028367337670065222 0.018577661776539505
 0.002799159272902532 0.018583506772770077 -0.002404179790074203 -0.011711856284803191 0.008555619412654212 0.038192592968128124 0.9892607885822184 -0.09034134698612513
 -0.002402671652385967 -0.011711975011967036 0.0028367337670065222 0.018577661776539505 0.9892607885822184 -0.09034134698612513 0.008550065640490852 0.038193060239034425
0.1250521050438 0.009145285080047789 0.040372560904445444 0.9884816700621065 -0.09523872250106116 0.00306802106973536 0.01955324069068268 -0.0026321323132102634 -0.012323680647207326
 0.9884816700621065 -0.09523872250106116 0.009137082366742382 0.0403732686874634 -0.002633798397725878 -0.012323539115873323 0.0031096596843614255 0.01954658782111889
 0.00306802106973536 0.01955324069068268 -0.002633798397725878 -0.012323539115873323 0.009144349937780885 0.04037428044806554 0.9884817731863424 -0.09523704027013676
 -0.0026321323132102634 -0.012323680647207326 0.0031096596843614255 0.01954658782111889 0.9884817731863424 -0.09523704027013676 0.009138195485669916 0.04037479591210918
0.131304710296 0.009759863831337416 0.04256816614761084 0.9876694265646135 -0.1001468157575146 0.0033499892738284823 0.02052069202754893 -0.002872868898154699 -0.012933434724298025
 0.9876694265646135 -0.1001468157575146 0.009750819552067186 0.04256894992067241 -0.002874700310044936 -0.012933268018965948 0.003395899998567642 0.02051315872122371
 0.0033499892738284823 0.02052069202754893 -0.002874700310044936 -0.012933268018965948 0.009758831984075147 0.042569974620990575 0.9876695404438092 -0.10014504771305281
 -0.002872868898154699 -0.012933434724298025 0.003395899998567642 0.02051315872122371 0.9876695404438092 -0.10014504771305281 0.009752045601780007 0.04257054120079883
0.1375573155481 0.010267661434554211 0.04449096275664909 0.9869565760844501 -0.10478028380213276 0.0036116867897253266 0.021457763196625478 -0.003091460438382689 -0.013513208894216543
 0.9869565760844501 -0.10478028380213276 0.010257732266857751 0.044491812706082365 -0.003093468273722136 -0.0135130165831927 0.0036619763978862 0.021449354447545043
 0.0036116867897253266 0.021457763196625478 -0.003093468273722136 -0.0135130165831927 0.01026652893070924 0.044492860536215276 0.986956701218044 -0.10477842981435578
 -0.003091460438382689 -0.013513208894216543 0.0036619763978862 0.021449354447545043 0.986956701218044 -0.10477842981435578 0.01025907590182757 0.044493466611726554
0.1438099208003 0.010793547148189682 0.04640210240224638 0.986218199749374 -0.10940046866389654 0.0038838992998352063 0.022390153202161603 -0.00331873381635943 -0.01408865548602954
 0.986218199749374 -0.10940046866389654 0.010782691311434221 0.04640302275837519 -0.0033209260245054936 -0.014088435210877048 0.003938757071394454 0.02238080206262222
 0.0038838992998352063 0.022390153202161603 -0.0033209260245054936 -0.014088435210877048 0.010792309314351944 0.04640408992850027 0.9862183367316838 -0.10939852848441033
 -0.00331873381635943 -0.01408865548602954 0.003938757071394454 0.02238080206262222 0.9862183367316838 -0.10939852848441033 0.010784157721450069 0.046404737544288484
0.1500625260525 0.011337312067429406 0.04830138030516795 0.9854545116215124 -0.11400720967578536 0.004166517254511384 0.023317738235442195 -0.0035545815900073965 -0.01465965726410641
 0.9854545116215124 -0.11400720967578536 0.01132548769850406 0.04830237553397775 -0.0035569660983733125 -0.014659406571013833 0.004226130991703236 0.02330737533953791
 0.004166517254511384 0.023317738235442195 -0.0035569660983733125 -0.014659406571013833 0.011335964230693696 0.048303458036140154 0.9854546610574068 -0.11400518304892421
 -0.0035545815900073965 -0.01465965726410641 0.004226130991703236 0.02330737533953791 0.9854546610574068 -0.11400518304892421 0.011327082042888905 0.04830414938510069
0.15631513130469998 0.011898745513044916 0.050188597801579006 0.9846657271765534 -0.11860034778759601 0.004459429642469295 0.024240396954737176 -0.003798894836841839 -0.015226099779704835
 0.9846657271765534 -0.11860034778759601 0.011885910664195663 0.05018967260979368 -0.003801479550412427 -0.01522581612002315 0.004523985641620262 0.02422895055074791
