! Created with skrf 1.8.0 (http://scikit-rf.org).
# GHz S RI R 50.0 
!freq ReS11 ImS11 ReS12 ImS12 ReS13 ImS13
! ReS14 ImS14
! ReS21 ImS21 ReS22 ImS22 ReS23 ImS23
! ReS24 ImS24
! ReS31 ImS31 ReS32 ImS32 ReS33 ImS33
! ReS34 ImS34
! ReS41 ImS41 ReS42 ImS42 ReS43 ImS43
! ReS44 ImS44
!
0.0 0.001215165009713 0.0 0.9987848349803 0.0 4.65419473588e-05 0.0 -4.654194693683e-05 5.6997446342274825e-21
 0.9987848349803 0.0 0.001215165009729 0.0 -4.654194693694e-05 5.6997446342409535e-21 4.654194735866e-05 0.0
 4.65419473588e-05 0.0 -4.654194693694e-05 5.6997446342409535e-21 0.001215165011495 0.0 0.9987848349821 0.0
 -4.654194693683e-05 5.6997446342274825e-21 4.654194735866e-05 0.0 0.9987848349821 0.0 0.001215165011507 0.0
0.005 0.0013067074419723624 0.0009904821785053613 0.9986691366003015 -0.002546621767464461 6.534151600782537e-05 0.0005380569852909899 -6.342871256796839e-05 -0.00033345426096760024
 0.9986691366003015 -0.002546621767464461 0.0013066950511787456 0.0009904893712027768 -6.342880919847048e-05 -0.0003334542808597773 6.54166462538e-05 0.0005380283992868302
 6.534151600782537e-05 0.0005380569852909899 -6.342880919847048e-05 -0.0003334542808597773 0.001306707334243413 0.0009904149585160827 0.9986691362696077 -0.0025466888223388004
 -6.342871256796839e-05 -0.00033345426096760024 6.54166462538e-05 0.0005380283992868302 0.9986691362696077 -0.0025466888223388004 0.0013066945036351646 0.000990422488015915
0.006252605252188 0.0013304967954108177 0.0012420496257158481 0.9986389171188876 -0.003183936416597905 7.057319034885406e-05 0.0006728354178005616 -6.809505437562747e-05 -0.000417268058548192
 0.9986389171188876 -0.003183936416597905 0.001330477426808713 0.001242058770084461 -6.809520518292648e-05 -0.0004172680819887764 7.06905760776912e-05 0.0006727983387080355
 7.057319034885406e-05 0.0006728354178005616 -6.809520518292648e-05 -0.0004172680819887764 0.0013304966979419278 0.0012419655982839034 0.9986389166722444 -0.0031840202358186286
 -6.809505437562747e-05 -0.000417268058548192 7.06905760776912e-05 0.0006727983387080355 0.9986389166722444 -0.0031840202358186286 0.001330476641056008 0.0012419751735166871
0.01250521050438 0.001454451084174055 0.00251060025459784 0.9984805951927624 -0.006368892509378866 9.984069964088378e-05 0.0013460388866067536 -9.402688802259969e-05 -0.000836727654990832
 0.9984805951927624 -0.006368892509378866 0.0014543737523350568 0.002510620080776144 -9.402748772307177e-05 -0.0008367276860188527 0.00010030884039600457 0.0013459504020815883
 9.984069964088378e-05 0.0013460388866067536 -9.402748772307177e-05 -0.0008367276860188527 0.0014544512778413262 0.0025104324262074512 0.9984805939832921 -0.0063690599216823665
 -9.402688802259969e-05 -0.000836727654990832 0.00010030884039600457 0.0013459504020815883 0.9984805939832921 -0.0063690599216823665 0.0014543711850584216 0.0025104532169960784
0.01875781575657 0.0015872520021896382 0.0037976856170193946 0.9983097057693622 -0.009562670800387507 0.0001344049535996094 0.002020120354070911 -0.00012440745593759417 -0.0012577689612612594
 0.9983097057693622 -0.009562670800387507 0.001587078248931077 0.0037977177464305206 -0.00012440880085533323 -0.0012577689799548796 0.0001354566640577109 0.0020199637979721003
 0.0001344049535996094 0.002020120354070911 -0.00012440880085533323 -0.0012577689799548796 0.0015872528769577808 0.0037974341041772212 0.9983097034720781 -0.009562921733902354
 -0.00012440745593759417 -0.0012577689612612594 0.0001354566640577109 0.0020199637979721003 0.9983097034720781 -0.009562921733902354 0.001587072894741848 0.003797467849915368
0.02501042100875 0.0017291194357538576 0.005101541968742081 0.9981260803690208 -0.012766865958038116 0.00017432696138050974 0.00269514642893869 -0.0001593051046310968 -0.0016802224264251247
 0.9981260803690208 -0.012766865958038116 0.0017288108914165763 0.005101588093988711 -0.0001593074901239874 -0.0016802224086487065 0.00017619521514498335 0.002694902902699665
 0.00017432696138050974 0.00269514642893869 -0.0001593074901239874 -0.0016802224086487065 0.0017291213925156868 0.0051012068733277075 0.9981260766583184 -0.012767200400072093
 -0.0001593051046310968 -0.0016802224264251247 0.00017619521514498335 0.002694902902699665 0.9981260766583184 -0.012767200400072093 0.0017288017438999831 0.005101255399514901
0.03126302626094 0.0018802638435781748 0.006421284722672077 0.9979295403911456 -0.015982188131054075 0.000219668360764764 0.003371119531510622 -0.00019878659827784467 -0.002103979682462071
 0.9979295403911456 -0.015982188131054075 0.0018797822076397409 0.006421346604897874 -0.0001987903189141633 -0.002103979599796561 0.00022258651912795225 0.0033707678935967983
 0.000219668360764764 0.003371119531510622 -0.0001987903189141633 -0.002103979599796561 0.0018802672942388023 0.006420866164915626 0.997929534940176 -0.015982606095234064
 -0.00019878659827784467 -0.002103979682462071 0.00022258651912795225 0.0033707678935967983 0.997929534940176 -0.015982606095234064 0.001879768259771606 0.006420931380753024
0.037515631513130004 0.0020408912992039285 0.0077563546096307565 0.9977199022529513 -0.019209016741997712 0.0002704908788135235 0.00404801727868511 -0.00024291765332684146 -0.002528954154959056
 0.9977199022529513 -0.019209016741997712 0.0020401983280292696 0.007756434077039393 -0.00024292300299233715 -0.0025289539746738087 0.0002746927996058961 0.004047534122162188
 0.0002704908788135235 0.00404801727868511 -0.00024292300299233715 -0.0025289539746738087 0.002040896666396058 0.007755852728920485 0.9977198947318904 -0.019209518267619186
 -0.00024291765332684146 -0.002528954154959056 0.0002746927996058961 0.004047534122162188 0.9977198947318904 -0.019209518267619186 0.002040178571787134 0.007755936625982929
0.043768236765320004 0.0022112054515595445 0.009106349128685833 0.9974969794432518 -0.022447568986253514 0.0003268560854688463 0.004725804462412048 -0.00029176314469812745 -0.002955069074760602
 0.9974969794432518 -0.022447568986253514 0.0022102629493505935 0.009106448075438447 -0.00029177041662363843 -0.002955068759749797 0.0003325761813617701 0.004725164088825618
 0.0003268560854688463 0.004725804462412048 -0.00029177041662363843 -0.002955068759749797 0.002211213169268142 0.009105764083696757 0.9974969695196004 -0.022448154138292983
 -0.00029176314469812745 -0.002955069074760602 0.0003325761813617701 0.004725164088825618 0.9974969695196004 -0.022448154138292983 0.002210236376500778 0.009105868735207866
0.050020842017509996 0.0023914084414975285 0.010470952885571868 0.9972605835335318 -0.02569796944126825 0.00038882525367734164 0.005404437993452406 -0.000345387192744181 -0.003382252523257719
 0.9972605835335318 -0.02569796944126825 0.0023901782523935203 0.010471073270963128 -0.0003453966794928795 -0.003382252032005798 0.0003962985233246944 0.005403612385140252
 0.00038882525367734164 0.005404437993452406 -0.0003453966794928795 -0.003382252032005798 0.002391418955311506 0.010470284856755975 0.9972605708709944 -0.025698638307925913
 -0.000345387192744181 -0.003382252523257719 0.0003962985233246944 0.005403612385140252 0.9972605708709944 -0.025698638307925913 0.002390143855027767 0.010470412416978433
0.055454545454549996 0.002556197464153688 0.0116684945872551 0.9970440591652903 -0.028532340543859017 0.0004472767351874638 0.005994840836366328 -0.00039591814565998466 -0.003754301650646393
 0.9970440591652903 -0.028532340543859017 0.002554686305107707 0.011668635244782417 -0.00039592979419967813 -0.0037543009690646396 0.00045646488037734065 0.005993829677094644
 0.0004472767351874638 0.005994840836366328 -0.00039592979419967813 -0.0037543009690646396 0.002556210778928644 0.011667754614043986 0.9970440438461708 -0.028533082243270204
 -0.00039591814565998466 -0.003754301650646393 0.00045646488037734065 0.005993829677094644 0.9970440438461708 -0.028533082243270204 0.002554644290257464 0.011667903894800127
0.056273447269699996 0.002581701386111048 0.011849903407373559 0.9970105247583673 -0.02896028419904236 0.00045645926484200823 0.006083869321255603 -0.0004038531981632455 -0.003810435001819584
 0.9970105247583673 -0.02896028419904236 0.002580145387426079 0.011850047255208794 -0.00040386519159119766 -0.0038104342883610396 0.0004659213081853196 0.006082828112907657
 0.00045645926484200823 0.006083869321255603 -0.00040386519159119766 -0.0038104342883610396 0.002581715153386616 0.011849152605741636 0.9970105090162581 -0.028961036883155968
 -0.0004038531981632455 -0.003810435001819584 0.0004659213081853196 0.006082828112907657 0.9970105090162581 -0.028961036883155968 0.002580102158545504 0.011849305309576667
0.06252605252188 0.0027822846510729645 0.013242972350643256 0.9967466123849097 -0.03223453960574527 0.0005298185361380848 0.006764045763901021 -0.00046722385143711136 -0.004239548091991592
 0.9967466123849097 -0.03223453960574527 0.0027803647469426523 0.013243141748695153 -0.0004672386426690664 -0.004239547105864904 0.0005415055589231849 0.006762756213721169
 0.0005298185361380848 0.006764045763901021 -0.0004672386426690664 -0.004239547105864904 0.00278230214168835 0.013242139008174196 0.9967465932182163 -0.032235376234413
 -0.00046722385143711136 -0.004239548091991592 0.0005415055589231849 0.006762756213721169 0.9967465932182163 -0.032235376234413 0.002780311681304313 0.013242319170979962
0.06877865777407 0.0029933580083118714 0.01464995428623329 0.9964686549700473 -0.035520733425313 0.0006089629606029986 0.007444911297059898 -0.0005355611266670734 -0.004669523657746889
 0.9964686549700473 -0.035520733425313 0.0029910361236177153 0.014650151385911272 -0.0005355790060574644 -0.0046695223439610955 0.0006231117717160358 0.007443338257733919
 0.0006089629606029986 0.007444911297059898 -0.0005355790060574644 -0.0046695223439610955 0.0029933797047787952 0.014649038663784529 0.9964686320280556 -0.035521654142120204
 -0.0005355611266670734 -0.004669523657746889 0.0006231117717160358 0.007443338257733919 0.9964686320280556 -0.035521654142120204 0.002990972218109143 0.014649248681216339
0.07503126302626001 0.003215120725547423 0.016070659599423418 0.9961764605508538 -0.038818841888858084 0.0006939518546832823 0.008126407052414726 -0.0006089262660914137 -0.005100293339553617
 0.9961764605508538 -0.038818841888858084 0.0032123588001902086 0.01607088661549799 -0.0006089475231572861 -0.005100291638546452 0.0007107998579575444 0.008124512942029203
 0.0006939518546832823 0.008126407052414726 -0.0006089475231572861 -0.005100291638546452 0.003215147123604921 0.016069661981220867 0.9961764334771858 -0.03881984685940852
 -0.0006089262660914137 -0.005100293339553617 0.0007107998579575444 0.008124512942029203 0.9961764334771858 -0.03881984685940852 0.0032122830548195294 0.016069904329299774
0.08128386827845 0.0034477716146599025 0.017504909757276983 0.9958698367959357 -0.042128824378152456 0.0007848439097368693 0.00880847164847571 -0.0006873797588853877 -0.005531788217450929
 0.9958698367959357 -0.042128824378152456 0.003444531597681912 0.01750516896784281 -0.00068740468223986 -0.005531786065055985 0.0008046290917142636 0.008806216421428315
 0.0007848439097368693 0.00880847164847571 -0.00068740468223986 -0.005531786065055985 0.003447803223738985 0.017503830455808406 0.9958698052280325 -0.04212991378521606
 -0.0006873797588853877 -0.005531788217450929 0.0008046290917142636 0.008806216421428315 0.9958698052280325 -0.04212991378521606 0.0034444430164843032 0.017504107691037538
0.08753647353064001 0.003691509051889043 0.018952534036397087 0.9955485911304155 -0.04545062665009093 0.0008816971465495415 0.009491041419840238 -0.0007709813156925009 -0.0059639385771508395
 0.9955485911304155 -0.04545062665009093 0.0036877528959535005 0.01895282778289453 -0.0007710101929873278 -0.005963935904562629 0.0009046580607329715 0.009488382537855855
 0.0008816971465495415 0.009491041419840238 -0.0007710101929873278 -0.005963935904562629 0.003691546395324148 0.018951373391469416 0.9955485546984337 -0.045451800694603445
 -0.0007709813156925009 -0.0059639385771508395 0.0009046580607329715 0.009488382537855855 0.9955485546984337 -0.045451800694603445 0.0036876504873441566 0.01895168815117561
0.09378907878283 0.003946530979193982 0.020413367189728648 0.9952125308436928 -0.048784183123636464 0.0009845688717654377 0.01017405057723114 -0.0008597898398517507 -0.006396673746943758
 0.9952125308436928 -0.048784183123636464 0.003942220634948363 0.020413697877095977 -0.0008598229577166472 -0.006396670480679067 0.0010109446202335101 0.010170942980486763
 0.0009845688717654377 0.01017405057723114 -0.0008598229577166472 -0.006396670480679067 0.003946574595491321 0.020412125563425674 0.9952124891708879 -0.04878544202968918
 -0.0008597898398517507 -0.006396673746943758 0.0010109446202335101 0.010170942980486763 0.9952124891708879 -0.04878544202968918 0.0039421034133303515 0.020412480566173206
0.100041684035 0.004213034892220037 0.021887247717209242 0.9948614631857434 -0.05212941856464153 0.0010935156350179297 0.010857431328863097 -0.0009538633967736324 -0.006829921974907265
 0.9948614631857434 -0.05212941856464153 0.004208132302708548 0.02188761781425992 -0.0009539010407361372 -0.006829918036780288 0.001123545847877925 0.010853827407280144
 0.0010935156350179297 0.010857431328863097 -0.0009539010407361372 -0.006829918036780288 0.0042130853344077126 0.021885925503826956 0.9948614158870437 -0.05213076256960107
 -0.0009538633967736324 -0.006829921974907265 0.001123545847877925 0.010853827407280144 0.9948614158870437 -0.05213076256960107 0.004207999288271509 0.021886323550014793
0.1059090909091 0.0044737388043972134 0.023282053019489633 0.9945182027284863 -0.05527911470238505 0.0012013254700252267 0.011498987576831923 -0.001046980901614885 -0.007236881164376141
 0.9945182027284863 -0.05527911470238505 0.004468245831312628 0.02328246240101273 -0.0010470230514732645 -0.0072368765204438865 0.001235003401348402 0.011494872309403987
 0.0012013254700252267 0.011498987576831923 -0.0010470230514732645 -0.0072368765204438865 0.004473796169033808 0.02328065556185942 0.9945181497927814 -0.05528053880038451
 -0.001046980901614885 -0.007236881164376141 0.001235003401348402 0.011494872309403987 0.9945181497927814 -0.05528053880038451 0.004468097112497094 0.02328109662016128
0.1062942892872 0.0044912178178714394 0.023374016587649937 0.9944951954550768 -0.05548624932119426 0.0012085931872723985 0.011541113969937697 -0.001053259181231241 -0.0072636103396725325
 0.9944951954550768 -0.05548624932119426 0.004485684912793619 0.023374428627526703 -0.0010533016356322382 -0.007263605646756006 0.0012425179998780357 0.0115369635346633
 0.0012085931872723985 0.011541113969937697 -0.0010533016356322382 -0.007263605646756006 0.004491275654875112 0.02337261420325927 0.9944951421371954 -0.05548767868604772
 -0.001053259181231241 -0.0072636103396725325 0.0012425179998780357 0.0115369635346633 0.9944951421371954 -0.05548767868604772 0.004485535133286082 0.023373058175775317
0.11254689453939999 0.004781276284786188 0.024873516236608727 0.9941135350814116 -0.058854584284663496 0.00132985643936714 0.012225026952305153 -0.0011580334833258927 -0.00769766468279072
 0.9941135350814116 -0.058854584284663496 0.0047750749750137935 0.024873972817429688 -0.0011580810312727828 -0.007697659147396241 0.0013679164678324395 0.01222027720747261
 0.00132985643936714 0.012225026952305153 -0.0011580810312727828 -0.007697659147396241 0.00478134210130109 0.02487203412619924 0.9941134753413178 -0.0588560992868053
 -0.0011580334833258927 -0.00769766468279072 0.0013679164678324395 0.01222027720747261 0.9941134753413178 -0.0588560992868053 0.004774907465690335 0.024872526991386423
0.11879949979160001 0.005083406287228645 0.026385589798629927 0.9937162897024449 -0.06223432561851385 0.0014573594207256105 0.01290909693971771 -0.0012682416533141552 -0.008132009557307255
 0.9937162897024449 -0.06223432561851385 0.0050764984589586 0.026386093584269795 -0.001268294576564531 -0.008132003086951825 0.0014997957360849009 0.012903692454365946
 0.0014573594207256105 0.01290909693971771 -0.001268294576564531 -0.008132003086951825 0.005083480684627186 0.026384028434338725 0.9937162231279993 -0.06223592655345312
 -0.0012682416533141552 -0.008132009557307255 0.0014997957360849009 0.012903692454365946 0.9937162231279993 -0.06223592655345312 0.00507631226423711 0.026384573242934493
0.1250521050438 0.005397803244961021 0.02791008049456598 0.9933032672401152 -0.06562536933381431 0.001591155238445702 0.013593248852183722 -0.0013839380654082274 -0.008566568189103129
 0.9933032672401152 -0.06562536933381431 0.005390150754100582 0.027910634215603358 -0.0013839966442942848 -0.008566560686485787 0.0016382093391306865 0.013587131532572273
 0.001591155238445702 0.013593248852183722 -0.0013839966442942848 -0.008566560686485787 0.005397886841552099 0.027908440372373663 0.9933031934083717 -0.06562705651837626
 -0.0013839380654082274 -0.008566568189103129 0.0016382093391306865 0.013587131532572273 0.9933031934083717 -0.06562705651837626 0.005389944928059951 0.02790904026074118
0.131304710296 0.005724661958993321 0.029446831133398823 0.992874275972991 -0.06902760575258604 0.0017312960362403013 0.014277405903834202 -0.00150517608068892 -0.00900126244663244
 0.992874275972991 -0.06902760575258604 0.0057162266254542965 0.029447437588256502 -0.0015052405940673965 -0.009001253809609096 0.0017832098194571374 0.014270514965942024
 0.0017312960362403013 0.014277405903834202 -0.0015052405940673965 -0.009001253809609096 0.00572475539076342 0.029445112777686862 0.9928741944503944 -0.06902937952015523
 -0.00150517608068892 -0.00900126244663244 0.0017832098194571374 0.014270514965942024 0.9928741944503944 -0.06902937952015523 0.005716000232704139 0.029445770969135084
0.1375573155481 0.005982243978875677 0.030793589663782973 0.9925110798786564 -0.07223876030270925 0.0018578364304573096 0.014940126256679873 -0.0016119527140657543 -0.009414699247914259
 0.9925110798786564 -0.07223876030270925 0.0059729839471053614 0.03079423679969264 -0.001612023408914525 -0.00941468947342182 0.0019147311036871635 0.01493248078038092
 0.0018578364304573096 0.014940126256679873 -0.001612023408914525 -0.00941468947342182 0.005982347076213172 0.030791793819092222 0.9925109903169176 -0.07224062086397255
 -0.0016119527140657543 -0.009414699247914259 0.0019147311036871635 0.01493248078038092 0.9925109903169176 -0.07224062086397255 0.005972736709304973 0.030792498061327025
0.1438099208003 0.006248622594694203 0.03213435773207174 0.992135590406837 -0.07544292219970995 0.0019894810268691054 0.015600960454085856 -0.0017230219434873353 -0.00982638673304224
 0.992135590406837 -0.07544292219970995 0.00623849904289201 0.03213504733059806 -0.0017230990908151161 -0.009826375724819463 0.002051577182551245 0.015592505768500643
 0.0019894810268691054 0.015600960454085856 -0.0017230990908151161 -0.009826375724819463 0.006248735872917791 0.03213248498671918 0.9921354923735682 -0.07544486988598711
 -0.0017230219434873353 -0.00982638673304224 0.002051577182551245 0.015592505768500643 0.9921354923735682 -0.07544486988598711 0.006238230159642564 0.03213323743057414
0.1500625260525 0.006523718084606184 0.03346905683156866 0.9917478901747655 -0.0786400464784148 0.0021261928822862964 0.016259867073807624 -0.001838347315605286 -0.010236283620069675
 0.9917478901747655 -0.0786400464784148 0.0065126921268498245 0.03346979077907905 -0.0018384311846439596 -0.010236271278160769 0.00219371008288667 0.01625054654099139
 0.0021261928822862964 0.016259867073807624 -0.0018384311846439596 -0.010236271278160769 0.006523842066413992 0.03346710779827923 0.9917477832282803 -0.07864208163510805
 -0.001838347315605286 -0.010236283620069675 0.00219371008288667 0.01625054654099139 0.9917477832282803 -0.07864208163510805 0.006512400815942419 0.03346791071203184
0.15631513130469998 0.0068074503195349806 0.03479761103041609 0.9913480620460898 -0.08183008769233391 0.002267934717969508 0.01691680525097464 -0.0019578920191660144 -0.010644349407562521
