! Created with skrf 1.8.0 (http://scikit-rf.org).
# GHz S RI R 50.0 
!freq ReS11 ImS11 ReS12 ImS12 ReS13 ImS13
! ReS14 ImS14
! ReS21 ImS21 ReS22 ImS22 ReS23 ImS23
! ReS24 ImS24
! ReS31 ImS31 ReS32 ImS32 ReS33 ImS33
! ReS34 ImS34
! ReS41 ImS41 ReS42 ImS42 ReS43 ImS43
! ReS44 ImS44
!
0.0 0.001607064967107 0.0 0.9983929350196 0.0 6.217201048218e-05 0.0 -6.217200999399e-05 7.61387530356971e-21
 0.9983929350196 0.0 0.001607064967087 0.0 -6.217200999376e-05 7.613875303541544e-21 6.217201048264e-05 0.0
 6.217201048218e-05 0.0 -6.217200999376e-05 7.613875303541544e-21 0.001607064969144 0.0 0.9983929350216 0.0
 -6.217200999399e-05 7.61387530356971e-21 6.217201048264e-05 0.0 0.9983929350216 0.0 0.001607064969137 0.0
0.005 0.0017293023247003055 0.0013131154713550057 0.9982382864450007 -0.0033662111337840676 8.727066155232462e-05 0.0006937996556126777 -8.485175922373848e-05 -0.00043389048663892776
 0.9982382864450007 -0.0033662111337840676 0.0017292600591948422 0.0013131401040232646 -8.4848265637149e-05 -0.0004338877919852816 8.755681356329036e-05 0.0006936909066604836
 8.727066155232462e-05 0.0006937996556126777 -8.4848265637149e-05 -0.0004338877919852816 0.0017293038227586992 0.0013130472922117812 0.9982382860829426 -0.003366278199229009
 -8.485175922373848e-05 -0.00043389048663892776 8.755681356329036e-05 0.0006936909066604836 0.9982382860829426 -0.003366278199229009 0.001729257846976836 0.0013130741614300408
0.006252605252188 0.0017614256952281095 0.0016465581344683891 0.9981973894524372 -0.004208578625036435 9.442592619806549e-05 0.0008675809836690469 -9.128214772179405e-05 -0.0005429224938394695
 0.9981973894524372 -0.004208578625036435 0.0017613596263937588 0.001646589378632333 -9.127671151284459e-05 -0.0005429191714314845 9.48730138777523e-05 0.0008674397113073882
 9.442592619806549e-05 0.0008675809836690469 -9.127671151284459e-05 -0.0005429191714314845 0.0017614281156515528 0.0016464729106551088 0.9981973889643823 -0.004208662456915637
 -9.128214772179405e-05 -0.0005429224938394695 9.48730138777523e-05 0.0008674397113073882 0.9981973889643823 -0.004208662456915637 0.0017613562460644342 0.0016465069590219132
0.01250521050438 0.001930902997330766 0.0033275714967027697 0.997980210633299 -0.00841790359612553 0.0001353819209390085 0.0017355016594080383 -0.0001279122607843422 -0.0010884462322628833
 0.997980210633299 -0.00841790359612553 0.0019306391825258833 0.003327638524632213 -0.0001278908382861423 -0.0010884400923701766 0.00013716487458308025 0.0017351614202662203
 0.0001353819209390085 0.0017355016594080383 -0.0001278908382861423 -0.0010884400923701766 0.0019309132000220948 0.003327401307366071 0.9979802092130073 -0.008418071016082072
 -0.0001279122607843422 -0.0010884462322628833 0.00013716487458308025 0.0017351614202662203 0.9979802092130073 -0.008418071016082072 0.0019306262116780628 0.003327474062791976
0.01875781575657 0.0021158790018900226 0.005032444452966095 0.9977411196625805 -0.012638206820603562 0.00018513976403444491 0.002604349029675032 -0.00017217778729031083 -0.0016357647188608943
 0.9977411196625805 -0.012638206820603562 0.0021152861951777907 0.00503255207846002 -0.00017213001606520374 -0.0016357563675778674 0.000189145139243953 0.0026037405327244277
 0.00018513976403444491 0.002604349029675032 -0.00017213001606520374 -0.0016357563675778674 0.002115902366255169 0.005032189387506673 0.9977411168888592 -0.012638457777224258
 -0.00017217778729031083 -0.0016357647188608943 0.000189145139243953 0.0026037405327244277 0.9977411168888592 -0.012638457777224258 0.0021152574669913342 0.005032305884345901
0.02501042100875 0.0023167239067448603 0.00675877216408667 0.9974798263135195 -0.016871517412554063 0.0002437990714719682 0.0034741570492441884 -0.00022419014822153707 -0.0021846177029178552
 0.9974798263135195 -0.016871517412554063 0.0023156711176647014 0.006758925425810313 -0.00022410579054049913 -0.0021846078579185325 0.00025091383784107854 0.0034731997756553266
 0.0002437990714719682 0.0034741570492441884 -0.00022410579054049913 -0.0021846078579185325 0.0023167658053621786 0.006758432282856284 0.9974798217542872 -0.01687185190972609
 -0.00022419014822153707 -0.0021846177029178552 0.00025091383784107854 0.0034731997756553266 0.9974798217542872 -0.01687185190972609 0.002315620468230626 0.006758597876790657
0.03126302626094 0.002533792631956889 0.00850530862185493 0.9971960260200217 -0.021118693609635582 0.00031145932397124516 0.004344878463310529 -0.00028405743431011196 -0.0027348195922957965
 0.9971960260200217 -0.021118693609635582 0.0025321490472830018 0.008505512772225226 -0.0002839263560287701 -0.002734809084082588 0.00032257167282010845 0.004343480596190494
 0.00031145932397124516 0.004344878463310529 -0.0002839263560287701 -0.002734809084082588 0.0025338584428897903 0.008504883972003888 0.9971960192403417 -0.02111911169092047
 -0.00028405743431011196 -0.0027348195922957965 0.00032257167282010845 0.004343480596190494 0.9971960192403417 -0.02111911169092047 0.002532070323603771 0.008505104329115078
0.037515631513130004 0.0027674322993116855 0.010271235008925909 0.9968894076347244 -0.025380154348881318 0.0003882191242017467 0.005216433814345589 -0.00035188518297755967 -0.003286210481693559
 0.9968894076347244 -0.025380154348881318 0.002765067229018098 0.010271495507912612 -0.00035169734294053116 -0.0032862002539609013 0.00040421882489388787 0.005214492123121109
 0.0003882191242017467 0.005216433814345589 -0.00035169734294053116 -0.0032862002539609013 0.002767527407011337 0.010270725632390558 0.9968893981945943 -0.02538065608929532
 -0.00035188518297755967 -0.003286210481693559 0.00040421882489388787 0.005214492123121109 0.9968893981945943 -0.02538065608929532 0.0027649542869228414 0.010271006724021023
0.043768236765320004 0.00301798511802915 0.012055937053455746 0.9965596565876395 -0.02965610183942384 0.0004741758261242234 0.006088726369875442 -0.0004277766558320163 -0.0038386412427501722
 0.9965596565876395 -0.02965610183942384 0.0030147679503469355 0.012056259564624477 -0.00042752209950793895 -0.0038386323524913415 0.0004959543887540732 0.006086126080544307
 0.0004741758261242234 0.006088726369875442 -0.00042752209950793895 -0.0038386323524913415 0.003018114915380685 0.012055342988067815 0.9965596440416948 -0.029656687344135006
 -0.0004277766558320163 -0.0038386412427501722 0.0004959543887540732 0.006086126080544307 0.9965596440416948 -0.029656687344135006 0.003014614655942058 0.012055691087976793
0.050020842017509996 0.0032857897178692175 0.013858913008436604 0.9962064564929838 -0.03394661350962825 0.0005694253080552915 0.006961648275578273 -0.0005118329257238865 -0.00439196738682453
 0.9962064564929838 -0.03394661350962825 0.0032815898797743464 0.01385930339630059 -0.0005115017812402858 -0.004391961004344047 0.000597876043662646 0.006958262935304489
 0.0005694253080552915 0.006961648275578273 -0.0005115017812402858 -0.004391961004344047 0.0032859596058715176 0.013858234292966258 0.9962064403880972 -0.03394728290834165
 -0.0005118329257238865 -0.00439196738682453 0.000597876043662646 0.006958262935304489 0.9962064403880972 -0.03394728290834165 0.003281390108411499 0.013858655976211968
0.055454545454549996 0.003532791395143286 0.015440255845062931 0.9958802250328489 -0.03768702579116334 0.0006598200929787195 0.00772066509105622 -0.0005915880495685408 -0.004873440772531514
 0.9958802250328489 -0.03768702579116334 0.0035276315477596474 0.015440710137665627 -0.0005911823927304626 -0.004873437607793872 0.0006947960246231872 0.0077164856484909505
 0.0006598200929787195 0.00772066509105622 -0.0005911823927304626 -0.004873437607793872 0.0035330005183000592 0.015439503592381809 0.9958802054617472 -0.03768776822634601
 -0.0005915880495685408 -0.004873440772531514 0.0006947960246231872 0.0077164856484909505 0.9958802054617472 -0.03768776822634601 0.0035273864219805256 0.015439994795610585
0.056273447269699996 0.0035711818253503598 0.015679728495779904 0.9958294901024053 -0.03825168709123757 0.0006740617969459845 0.007835083584838212 -0.0006041528909876649 -0.00494604605349289
 0.9958294901024053 -0.03825168709123757 0.0035658687455615 0.01568019282457545 -0.0006037353665503969 -0.004946043462368997 0.0007100798153261257 0.007830774924109805
 0.0006740617969459845 0.007835083584838212 -0.0006037353665503969 -0.004946043462368997 0.0035713972166504394 0.015678965160397355 0.9958294699785495 -0.038252440547348755
 -0.0006041528909876649 -0.00494604605349289 0.0007100798153261257 0.007830774924109805 0.9958294699785495 -0.038252440547348755 0.0035656163848917784 0.01567946730345471
0.06252605252188 0.0038744946223652162 0.017517991675690257 0.9954284399436509 -0.042571265382393544 0.0007881777236540382 0.008708909928530968 -0.0007048332462268539 -0.005500734362600566
 0.9954284399436509 -0.042571265382393544 0.003867937695503714 0.017518536209169856 -0.0007043196283502313 -0.00550073695964154 0.0008326598901966445 0.008703527722478437
 0.0007881777236540382 0.008708909928530968 -0.0007043196283502313 -0.00550073695964154 0.003874760940771684 0.017517143753088864 0.995428415332158 -0.04257210308130284
 -0.0007048332462268539 -0.005500734362600566 0.0008326598901966445 0.008703527722478437 0.995428415332158 -0.04257210308130284 0.0038676266453179426 0.017517733535110123
0.06877865777407 0.004196058926875604 0.01937333843979808 0.9950029887857671 -0.04690525099131444 0.000911863595289665 0.009582999511203345 -0.0008139684284935632 -0.006055888444549977
 0.9950029887857671 -0.04690525099131444 0.00418812747816533 0.01937396964221951 -0.0008133490808354435 -0.00605589773970883 0.0009657084583300437 0.009576381441081647
 0.000911863595289665 0.009582999511203345 -0.0008133490808354435 -0.00605589773970883 0.0041963816092395224 0.019372405954973918 0.9950029592088373 -0.04690617315008926
 -0.0008139684284935632 -0.006055888444549977 0.0009657084583300437 0.009576381441081647 0.9950029592088373 -0.04690617315008926 0.004187751652636806 0.019373090860287948
0.07503126302626001 0.0045362032677868265 0.021245423039102793 0.994552820002756 -0.051253515651068726 0.0010452078742338923 0.010457219756065334 -0.0009316505512109305 -0.006611362826948379
 0.994552820002756 -0.051253515651068726 0.00452676651893728 0.021246147577303923 -0.0009309159138888408 -0.006611380443255028 0.0011093155706567578 0.010449191271341352
 0.0010452078742338923 0.010457219756065334 -0.0009309159138888408 -0.006611380443255028 0.004536587763177048 0.021244406017913813 0.9945527849709229 -0.05125452250922922
 -0.0009316505512109305 -0.006611362826948379 0.0011093155706567578 0.010449191271341352 0.9945527849709229 -0.05125452250922922 0.00452631984607964 0.021245193839502883
0.08128386827845 0.004895253896251762 0.023133911836139245 0.9940776178771248 -0.05561590641582018 0.0011882968650607235 0.011331433731556474 -0.0010579693264034164 -0.007167010045190109
 0.9940776178771248 -0.05561590641582018 0.004884180930918021 0.023134736582717787 -0.00105710991563721 -0.007167037718628636 0.0012635690086719477 0.011321807913146322
 0.0011882968650607235 0.011331433731556474 -0.00105710991563721 -0.007167037718628636 0.004895705668928496 0.023132810298370433 0.9940775768901637 -0.05561699824151169
 -0.0010579693264034164 -0.007167010045190109 0.0012635690086719477 0.011321807913146322 0.9940775768901637 -0.05561699824151169 0.004883657355748536 0.02313370914269407
0.08753647353064001 0.005273534752465893 0.025038478994979515 0.993577067862738 -0.05999224992567102 0.0013412146033030827 0.012205500464598949 -0.0011930119821133719 -0.00772268037202762
 0.993577067862738 -0.05999224992567102 0.005260694481751648 0.025039411032714034 -0.001192018390009719 -0.007722719951433174 0.0014285541591628243 0.012194077889616638
 0.0013412146033030827 0.012205500464598949 -0.001192018390009719 -0.007722719951433174 0.005274059281393586 0.025037292959173053 0.9935770204076328 -0.05999342701019441
 -0.0011930119821133719 -0.00772268037202762 0.0014285541591628243 0.012194077889616638 0.9935770204076328 -0.05999342701019441 0.005260087967046026 0.025038311252008186
0.09378907878283 0.005671367402710204 0.02695880340697769 0.9930508568225427 -0.06438235544269962 0.0015040427475679706 0.013079275164375468 -0.001336863174008056 -0.00827822164279444
 0.9930508568225427 -0.06438235544269962 0.005656628530514097 0.026959850034429706 -0.001335726068631744 -0.008278275089723133 0.0016043538945567219 0.013065843772465646
 0.0015040427475679706 0.013079275164375468 -0.001335726068631744 -0.008278275089723133 0.005671970182912263 0.026957532883887754 0.9930508023727518 -0.06438361810615238
 -0.001336863174008056 -0.00827822164279444 0.0016043538945567219 0.013065843772465646 0.9930508023727518 -0.06438361810615238 0.005655933058631477 0.026958679377408225
0.100041684035 0.006089070954415981 0.028894566429572624 0.9924986732468124 -0.06878601708073248 0.0016768604725199883 0.013952609401081008 -0.0014896048942852347 -0.008833479131601945
 0.9924986732468124 -0.06878601708073248 0.006072301942670934 0.028895735167919302 -0.001488315019861385 -0.008833548520181877 0.0017910484557209518 0.01393694436284174
 0.0016768604725199883 0.013952609401081008 -0.001488315019861385 -0.008833548520181877 0.006089757497055904 0.02889321142379706 0.9924986112608618 -0.0687873656695488
 -0.0014896048942852347 -0.008833479131601945 0.0017910484557209518 0.01393694436284174 0.9924986112608618 -0.0687873656695488 0.006071511516420609 0.02889449520497378
0.1059090909091 0.006499395812865058 0.03072483280093257 0.9919566099110112 -0.07293052036627522 0.0018481852471044224 0.014771605065270492 -0.0016410932547784628 -0.00935413115233145
 0.9919566099110112 -0.07293052036627522 0.006480601852337633 0.030726123173164175 -0.0016396516729416416 -0.0093542174869872 0.001976219292278446 0.014753628018562632
 0.0018481852471044224 0.014771605065270492 -0.0016396516729416416 -0.0093542174869872 0.006500165986026538 0.03072339851922151 0.9919565403468736 -0.07293194992121015
 -0.0016410932547784628 -0.00935413115233145 0.001976219292278446 0.014753628018562632 0.9919565403468736 -0.07293194992121015 0.006479716887551433 0.030724819701408782
0.1062942892872 0.006526961953810667 0.030845450195517397 0.9919202074588486 -0.0732030154721933 0.001859744363167593 0.014825351244855936 -0.001651316377583171 -0.00938829547394237
 0.9919202074588486 -0.0732030154721933 0.006508030987948614 0.030846748796584597 -0.001649864554858441 -0.009388382990702299 0.0019887153376768087 0.014807214832238128
 0.001859744363167593 0.014825351244855936 -0.001649864554858441 -0.009388382990702299 0.006527737788067175 0.030844010708215065 0.9919201373798645 -0.07320445035547031
 -0.001651316377583171 -0.00938829547394237 0.0019887153376768087 0.014807214832238128 0.9919201373798645 -0.07320445035547031 0.006507139633083539 0.03084544120838594
0.11254689453939999 0.006985354274137389 0.03281113633170657 0.9913151518130949 -0.07763311903273208 0.002052768310353753 0.015697345386197423 -0.0018220740049210594 -0.009942510614058833
 0.9913151518130949 -0.07763311903273208 0.006964129227555732 0.032812572787471975 -0.0018204511315418545 -0.009942618557756083 0.002197429176761435 0.015676486845398355
 0.002052768310353753 0.015697345386197423 -0.0018204511315418545 -0.009942618557756083 0.006986224947196135 0.03280961235501871 0.9913150730672666 -0.07763464060680157
 -0.0018220740049210594 -0.009942510614058833 0.002197429176761435 0.015676486845398355 0.9913150730672666 -0.07763464060680157 0.0069631309941205035 0.03281119936078095
0.11879949979160001 0.007464558991737624 0.03479130495178214 0.9906832008850183 -0.08207608495988344 0.002256003406025522 0.016568433239080606 -0.002001951206777649 -0.010495961776398211
 0.9906832008850183 -0.08207608495988344 0.007440907390250927 0.03479288750511187 -0.0020001482578457298 -0.010496092557823316 0.002417261638600878 0.016544588665857642
 0.002256003406025522 0.016568433239080606 -0.0020001482578457298 -0.010496092557823316 0.00746553006959029 0.03478969647019167 0.9906831128805238 -0.08207769364594394
 -0.002001951206777649 -0.010495961776398211 0.002417261638600878 0.016544588665857642 0.9906831128805238 -0.08207769364594394 0.007439796354140606 0.03479145013574596
0.1250521050438 0.007964884255425747 0.03678563386995189 0.990024051657456 -0.08653166001863871 0.0024695178397069074 0.017438453031460383 -0.0021910183643419016 -0.01104848345638711
 0.990024051657456 -0.08653166001863871 0.007938673242098609 0.03678737102670423 -0.0021890263929582737 -0.011048639598148804 0.0026482813082256947 0.01741134524908342
 0.0024695178397069074 0.017438453031460383 -0.0021890263929582737 -0.011048639598148804 0.007965961323923907 0.036783940858414486 0.9900239537838691 -0.08653335626345345
 -0.0021910183643419016 -0.01104848345638711 0.0026482813082256947 0.01741134524908342 0.9900239537838691 -0.08653335626345345 0.007937443507175172 0.036785871719098494
0.131304710296 0.008486635150005157 0.03879379798106215 0.9893374037028632 -0.09099958116865065 0.0026933767952629986 0.018307239890660618 -0.0023893427104281447 -0.011599907423166985
 0.9893374037028632 -0.09099958116865065 0.00845773144879409 0.03879569852372519 -0.0023871528484307384 -0.011600091559418504 0.0028905535801804416 0.018276578330761756
 0.0026933767952629986 0.018307239890660618 -0.0023871528484307384 -0.011600091559418504 0.00848782381531302 0.03879202040575738 0.989337295329668 -0.09100136544267921
 -0.0023893427104281447 -0.011599907423166985 0.0028905535801804416 0.018276578330761756 0.989337295329668 -0.09100136544267921 0.008456377148663242 0.03879413939312128
0.1375573155481 0.008913048979575601 0.040553599035741676 0.9887400794165788 -0.09521755230588866 0.0028990851690540212 0.01914845858118034 -0.0025682064044734733 -0.012124085053329466
 0.9887400794165788 -0.09521755230588866 0.00888130815485872 0.04055563037975293 -0.00256580544962176 -0.01212429748906137 0.0031151213266834067 0.019114279305537822
 0.0028990851690540212 0.01914845858118034 -0.00256580544962176 -0.01212429748906137 0.008914354088326297 0.04055173675279398 0.9887399600491742 -0.09521942489593323
 -0.0025682064044734733 -0.012124085053329466 0.0031151213266834067 0.019114279305537822 0.9887399600491742 -0.09521942489593323 0.008879823947831825 0.04055401336745782
0.1438099208003 0.009354554657369087 0.04230370782027781 0.9881216100591106 -0.09942441023327078 0.003113059506198598 0.01998617059145029 -0.0027542125431612432 -0.012644916309106257
 0.9881216100591106 -0.09942441023327078 0.009319841173272975 0.04230587652663874 -0.0027515909602871726 -0.012645159645256695 0.00334878000078629 0.019948207132795295
 0.003113059506198598 0.01998617059145029 -0.0027515909602871726 -0.012645159645256695 0.009355981709121408 0.04230176081384084 0.9881214790662474 -0.0994263716015649
 -0.0027542125431612432 -0.012644916309106257 0.00334878000078629 0.019948207132795295 0.9881214790662474 -0.0994263716015649 0.00931822132830676 0.042304203823265454
0.1500625260525 0.009810991507187691 0.04404396536083606 0.9874821609403852 -0.10362003778075331 0.003335221329768944 0.020820287568964743 -0.0029472821308672297 -0.013162312944501046
 0.9874821609403852 -0.10362003778075331 0.009773169370145617 0.044046278467640046 -0.0029444304081393743 -0.013162589886537094 0.003591445995706927 0.020778263717114557
 0.003335221329768944 0.020820287568964743 -0.0029444304081393743 -0.013162589886537094 0.009812546012687192 0.04404193361153791 0.9874820176734116 -0.10362208840769994
 -0.0029472821308672297 -0.013162312944501046 0.003591445995706927 0.020778263717114557 0.9874820176734116 -0.10362208840769994 0.009771408190716653 0.04404455235034
0.15631513130469998 0.010282197643460967 0.04577421742859739 0.9868218982922923 -0.10780431846393068 0.0035654912001140725 0.021650722775679757 -0.003147335157130545 -0.013676188646698178
 0.9868218982922923 -0.10780431846393068 0.010241130389367904 0.0457766824698943 -0.0031442438065241965 -0.013676502004106866 0.0038430346618480715 0.0216043526813301
