! Created with skrf 1.8.0 (http://scikit-rf.org).
# GHz S RI R 50.0 
!freq ReS11 ImS11 ReS12 ImS12 ReS13 ImS13
! ReS14 ImS14
! ReS21 ImS21 ReS22 ImS22 ReS23 ImS23
! ReS24 ImS24
! ReS31 ImS31 ReS32 ImS32 ReS33 ImS33
! ReS34 ImS34
! ReS41 ImS41 ReS42 ImS42 ReS43 ImS43
! ReS44 ImS44
!
0.0 0.001502780114612 0.0 0.9984972198854 0.0 5.803684213293e-05 0.0 -5.803684124452e-05 7.107463186272451e-21
 0.9984972198854 0.0 0.001502780114598 0.0 -5.803684124482e-05 7.10746318630919e-21 5.803684213274e-05 0.0
 5.803684213293e-05 0.0 -5.803684124482e-05 7.10746318630919e-21 0.001502780097578 0.0 0.9984972198683 0.0
 -5.803684124452e-05 7.107463186272451e-21 5.803684213274e-05 0.0 0.9984972198683 0.0 0.001502780097544 0.0
0.005 0.0016167761998870994 0.0012268560338218137 0.9983530043340131 -0.0031482428491517076 8.167361012999706e-05 0.0006551196047985581 -7.920389964130463e-05 -0.00040850003075791
 0.9983530043340131 -0.0031482428491517076 0.0016167943370049458 0.0012268453883968807 -7.920505359235469e-05 -0.00040850083380569876 8.156404522084833e-05 0.0006551613615253268
 8.167361012999706e-05 0.0006551196047985581 -7.920505359235469e-05 -0.00040850083380569876 0.0016167763747772274 0.0012269231378163538 0.9983530046878804 -0.003148175789381034
 -7.920389964130463e-05 -0.00040850003075791 8.156404522084833e-05 0.0006551613615253268 0.9983530046878804 -0.003148175789381034 0.0016167948630649764 0.0012269123971161736
0.006252605252188 0.001646638209648913 0.0015384131609119018 0.9983149899285398 -0.003936079924265714 8.841708085508286e-05 0.000819211114442148 -8.516570414101468e-05 -0.0005111587254859251
 0.9983149899285398 -0.003936079924265714 0.0016466665615762896 0.0015383996166003098 -8.516750045354536e-05 -0.0005111597139257428 8.824589593952552e-05 0.0008192653202954338
 8.841708085508286e-05 0.000819211114442148 -8.516750045354536e-05 -0.0005111597139257428 0.001646638405656942 0.001538497027825673 0.9983149904041239 -0.003935996102423042
 -8.516570414101468e-05 -0.0005111587254859251 8.824589593952552e-05 0.0008192653202954338 0.9983149904041239 -0.003935996102423042 0.0016466673056074357 0.0015384833782666988
0.01250521050438 0.0018036307213557148 0.0031091998789770487 0.9981138248414914 -0.007873011149825889 0.00012703872503215522 0.0016387397317780697 -0.0001189146702492014 -0.0010248317730448334
 0.9981138248414914 -0.007873011149825889 0.0018037439381481358 0.0031091703959630628 -0.00011892175762222541 -0.0010248335807369808 0.00012635608522382414 0.0016388697973321027
 0.00012703872503215522 0.0016387397317780697 -0.00011892175762222541 -0.0010248335807369808 0.0018036309715423488 0.0031093672537920213 0.9981138262026831 -0.00787284374071323
 -0.0001189146702492014 -0.0010248317730448334 0.00012635608522382414 0.0016388697973321027 0.9981138262026831 -0.00787284374071323 0.0018037463601021473 0.0031093376997289304
0.01875781575657 0.0019740943553608254 0.0047024687926233415 0.997893479024551 -0.011820384869815799 0.00017398932053981 0.002459154228779672 -0.00015938668556618075 -0.0015402622254509987
 0.997893479024551 -0.011820384869815799 0.001974348773476246 0.004702420811685862 -0.00015940250227018424 -0.0015402646484122737 0.00017245585813261804 0.0024593859731063946
 0.00017398932053981 0.002459154228779672 -0.00015940250227018424 -0.0015402646484122737 0.001974094508591073 0.004702719427906893 0.9978934816656407 -0.01182013394031157
 -0.00015938668556618075 -0.0015402622254509987 0.00017245585813261804 0.0024593859731063946 0.9978934816656407 -0.01182013394031157 0.001974353773677657 0.004702671552114538
0.02501042100875 0.0021583562057386194 0.006315990881384037 0.9976536973721668 -0.01578012002140812 0.0002293580816363012 0.0032804950399141267 -0.00020668138261144506 -0.0020572156867391016
 0.9976536973721668 -0.01578012002140812 0.0021588080559678735 0.0063159216964359605 -0.00020670932966638386 -0.0020572184829167534 0.00022663430640687782 0.0032808582959554023
 0.0002293580816363012 0.0032804950399141267 -0.00020670932966638386 -0.0020572184829167534 0.00215835611937043 0.006316324523196627 0.9976537016920022 -0.015779785587880454
 -0.00020668138261144506 -0.0020572156867391016 0.00022663430640687782 0.0032808582959554023 0.9976537016920022 -0.015779785587880454 0.002158816522662369 0.006316255765579847
0.03126302626094 0.002356729796341829 0.007948621767263329 0.9973942115382615 -0.019753040959968566 0.0002932348659962489 0.00410272532821543 -0.00026089561103657857 -0.002575529537627971
 0.9973942115382615 -0.019753040959968566 0.0023574352336026842 0.00794852852874768 -0.0002609390585996722 -0.0025755324264316905 0.0002889808478592934 0.004103253964711883
 0.0002932348659962489 0.00410272532821543 -0.0002609390585996722 -0.0025755324264316905 0.002356729332555928 0.007949038140466672 0.9973942179389057 -0.019752623002533717
 -0.00026089561103657857 -0.002575529537627971 0.0002889808478592934 0.004103253964711883 0.9973942179389057 -0.019752623002533717 0.0023574480405426546 0.007948945801828278
0.037515631513130004 0.0025695218954188835 0.009599617345470367 0.9971147469528924 -0.023739561768843703 0.0003657092216560472 0.00492577779475738 -0.0003221241596839954 -0.0030950661186118582
 0.9971147469528924 -0.023739561768843703 0.002570537018188425 0.009599497062036165 -0.0003221864501819817 -0.0030950687807241293 0.0003595844480613269 0.004926509756045465
 0.0003657092216560472 0.00492577779475738 -0.0003221864501819817 -0.0030950687807241293 0.002569520920900936 0.009600116141473774 0.9971147558412484 -0.023739060243343352
 -0.0003221241596839954 -0.0030950661186118582 0.0003595844480613269 0.004926509756045465 0.9971147558412484 -0.023739060243343352 0.002570555025824025 0.009599997385292278
0.043768236765320004 0.002797035150189879 0.011268425522953847 0.9968150256627681 -0.02773989445250074 0.00044686994132141423 0.005749568933459883 -0.0003904600188651029 -0.0036156984724381013
 0.9968150256627681 -0.02773989445250074 0.002798416016105937 0.011268275062219262 -0.00039054446884446953 -0.003615700549678017 0.0004385332494533649 0.005750546284772935
 0.00044686994132141423 0.005749568933459883 -0.00039054446884446953 -0.003615700549678017 0.002797033532206763 0.011269006397720877 0.9968150374483089 -0.027739309292061462
 -0.0003904600188651029 -0.0036156984724381013 0.0004385332494533649 0.005750546284772935 0.9968150374483089 -0.027739309292061462 0.0027984400682681734 0.011268858251249675
0.050020842017509996 0.00303956930800247 0.012954600144640335 0.996494767762188 -0.03175413493970402 0.0005368047991511616 0.006574004904261039 -0.00046599447580780473 -0.004137304471234694
 0.996494767762188 -0.03175413493970402 0.0030413719469181096 0.012954416233755234 -0.0004661043770211825 -0.004137305566489987 0.0005259143475433896 0.006575273879285193
 0.0005368047991511616 0.006574004904261039 -0.0004661043770211825 -0.004137305566489987 0.0030395669154736123 0.012955262713529283 0.9964947828597273 -0.031753466059708954
 -0.00046599447580780473 -0.004137304471234694 0.0005259143475433896 0.006575273879285193 0.9964947828597273 -0.031753466059708954 0.0030414028729225384 0.012955082068349081
0.055454545454549996 0.0032627687397981486 0.014433742482443232 0.9961995574724087 -0.03525394489957875 0.0006221538561874412 0.007290909920581793 -0.0005375519854026981 -0.004591293248488584
 0.9961995574724087 -0.03525394489957875 0.0032649834032569417 0.014433526735254219 -0.0005376866591264522 -0.004591293137566459 0.0006087659624403143 0.007292473146782533
 0.0006221538561874412 0.007290909920581793 -0.0005376866591264522 -0.004591293137566459 0.00326276556671906 0.014434475710016 0.9961995757882747 -0.03525320317411302
 -0.0005375519854026981 -0.004591293248488584 0.0006087659624403143 0.007292473146782533 0.9961995757882747 -0.03525320317411302 0.003265020962885744 0.014434264192764315
0.056273447269699996 0.003297421848812601 0.014657758737400623 0.9961536922386351 -0.035782305270243744 0.0006356003653539921 0.007398984424001501 -0.0005488171378561948 -0.004659763929225394
 0.9961536922386351 -0.035782305270243744 0.0032997022754207087 0.014657537962970441 -0.0005489557580058141 -0.0046597636063695725 0.0006218136296817243 0.007400595473393669
 0.0006356003653539921 0.007398984424001501 -0.0005489557580058141 -0.0046597636063695725 0.003297418549417355 0.014658502585764661 0.9961537110673544 -0.03578155255745783
 -0.0005488171378561948 -0.004659763929225394 0.0006218136296817243 0.007400595473393669 0.9961537110673544 -0.03578155255745783 0.0032997408873604414 0.014658286197886786
0.06252605252188 0.003570888320023054 0.01637755929978952 0.9957915175255315 -0.03982437673806823 0.0007433418610253982 0.008224400350764195 -0.0006390159180519399 -0.005182957025508672
 0.9957915175255315 -0.03982437673806823 0.0035737025446924437 0.016377298107614895 -0.0006391865011280487 -0.0051829548093517116 0.0007263156452886798 0.008226408191061045
 0.0007433418610253982 0.008224400350764195 -0.0006391865011280487 -0.0051829548093517116 0.003570883980794599 0.016378383970320355 0.995791540511194 -0.039823540063041736
 -0.0006390159180519399 -0.005182957025508672 0.0007263156452886798 0.008226408191061045 0.995791540511194 -0.039823540063041736 0.0035737496394966806 0.016378128459976257
0.06877865777407 0.003860262519417425 0.018113686445153012 0.9954079619056055 -0.043880283684343144 0.000860113034411945 0.00905014063234562 -0.0007366769991540003 -0.005706763366569748
 0.9954079619056055 -0.043880283684343144 0.0038636665599605306 0.018113381139514943 -0.0007368827657379696 -0.005706758742794919 0.0008395034939366617 0.009052604294888664
 0.000860113034411945 0.00905014063234562 -0.0007368827657379696 -0.005706758742794919 0.0038602570051717994 0.01811459143975921 0.9954079894808514 -0.04387936289937443
 -0.0007366769991540003 -0.005706763366569748 0.0008395034939366617 0.009052604294888664 0.9954079894808514 -0.04387936289937443 0.003863722917831599 0.018114293290832948
0.07503126302626001 0.004165836579227755 0.019865842619652616 0.9950027438199849 -0.04794993221943565 0.000985996050726328 0.0098760889147783 -0.0008418847847428245 -0.006231061392746599
 0.9950027438199849 -0.04794993221943565 0.00416988647118972 0.019865489362347145 -0.0008421289320571281 -0.006231053807876097 0.0009614587226088024 0.009879071794476502
 0.000985996050726328 0.0098760889147783 -0.0008421289320571281 -0.006231053807876097 0.0041658297502458076 0.01986682740751454 0.9950027764237623 -0.04794892715037013
 -0.0008418847847428245 -0.006231061392746599 0.0009614587226088024 0.009879071794476502 0.9950027764237623 -0.04794892715037013 0.004169952854285423 0.0198664829665816
0.08128386827845 0.004487900991609722 0.021633742274909735 0.9945755821218312 -0.052033205994464996 0.001121071389086743 0.010702124944083843 -0.0009547218415150217 -0.0067557279957564205
 0.9945755821218312 -0.052033205994464996 0.004492652799295686 0.021633337083897426 -0.0009550075434524417 -0.006755716857112916 0.0010922612301498401 0.010705694847772939
 0.001121071389086743 0.010702124944083843 -0.0009550075434524417 -0.006755716857112916 0.004487892704334752 0.021634806281076325 0.9945756202017803 -0.052032116452008816
 -0.0009547218415150217 -0.0067557279957564205 0.0010922612301498401 0.010705694847772939 0.9945756202017803 -0.052032116452008816 0.004492729952812899 0.021634411756109365
0.08753647353064001 0.0048267445976069665 0.02341710781701805 0.9941261962966443 -0.05612997020108054 0.0012654177457526042 0.011528124854108842 -0.0010752688354856864 -0.007280638254432108
 0.9941261962966443 -0.05612997020108054 0.004832254424416537 0.023416646564699013 -0.0010755992424844865 -0.00728062293011379 0.001231989174825877 0.01153235404853499
 0.0012654177457526042 0.011528124854108842 -0.0010755992424844865 -0.00728062293011379 0.004826734702398408 0.023418250427176344 0.9941262403089581 -0.05612879597596978
 -0.0010752688354856864 -0.007280638254432108 0.001231989174825877 0.01153235404853499 0.9941262403089581 -0.05612879597596978 0.004832343075326072 0.023417801885859457
0.09378907878283 0.005182654545836885 0.025215666728381766 0.9936543066563835 -0.06024007440319819 0.001419111939743193 0.012353961374766841 -0.001203604463994533 -0.007805665254715549
 0.9936543066563835 -0.06024007440319819 0.005188978545245032 0.025215145139525906 -0.0012039827029388813 -0.007805645073567536 0.0013807188850927577 0.012358926633878919
 0.001419111939743193 0.012353961374766841 -0.0012039827029388813 -0.007805645073567536 0.005182642886286356 0.02521688728838389 0.9936543570667553 -0.060238815266616695
 -0.001203604463994533 -0.007805665254715549 0.0013807188850927577 0.012358926633878919 0.9936543570667553 -0.060238815266616695 0.0051890794018300875 0.02521638065607457
0.100041684035 0.005555916234049638 0.02702914944815889 0.9931596345188959 -0.06436335461521907 0.001582228821359843 0.013179503992305743 -0.0013398053845592043 -0.008330679962096826
 0.9931596345188959 -0.06436335461521907 0.005563110619863831 0.02702856309744657 -0.0013402345585319152 -0.008330654213712272 0.0015385247715067486 0.01318528664405881
 0.001582228821359843 0.013179503992305743 -0.0013402345585319152 -0.008330654213712272 0.005555902645683756 0.027030447264041153 0.9931596918033818 -0.06436201031888099
 -0.0013398053845592043 -0.008330679962096826 0.0015385247715067486 0.01318528664405881 0.9931596918033818 -0.06436201031888099 0.005563224371505724 0.02702987832130722
0.1059090909091 0.005922216584802717 0.028744244764523 0.992674469536493 -0.06824444258658259 0.0017439314140354901 0.013953801879230454 -0.0014748353303851468 -0.008823222520988905
 0.992674469536493 -0.06824444258658259 0.005930278925377215 0.028743593480686988 -0.001475315102370581 -0.00882319086725298 0.0016949280660355952 0.013960429631222123
 0.0017439314140354901 0.013953801879230454 -0.001475315102370581 -0.00882319086725298 0.005922201028777637 0.028745614409467834 0.9926745337140135 -0.0682430181344577
 -0.0014748353303851468 -0.008823222520988905 0.0016949280660355952 0.013960429631222123 0.9926745337140135 -0.0682430181344577 0.005930405386774282 0.0287449830260651
0.1062942892872 0.005946813234777917 0.02885728778888878 0.9926419023754232 -0.06849963484930235 0.0017548411823494802 0.01400461907348858 -0.0014839461409326452 -0.008855551135098325
 0.9926419023754232 -0.06849963484930235 0.005954934292329982 0.028856632098052972 -0.0014844293290675308 -0.00885551906979876 0.0017054792401973832 0.014011305045824884
 0.0017548411823494802 0.01400461907348858 -0.0014844293290675308 -0.00885551906979876 0.0059467975439415 0.028858662126376878 0.9926419670206772 -0.06849820512596028
 -0.0014839461409326452 -0.008855551135098325 0.0017054792401973832 0.014011305045824884 0.9926419670206772 -0.06849820512596028 0.0059550616082714326 0.028858026506210176
0.11254689453939999 0.006355627210750856 0.030699813722655893 0.9921008340495096 -0.07264872829855458 0.001937019666706169 0.014829169969394694 -0.0016360990878343021 -0.009380145263904145
 0.9921008340495096 -0.07264872829855458 0.006364731307079616 0.030699083957317436 -0.001636639344936934 -0.00938010609276102 0.0018816526068085435 0.014836849835479555
 0.001937019666706169 0.014829169969394694 -0.001636639344936934 -0.00938010609276102 0.006355609233266475 0.03070126380812087 0.9921009065539101 -0.07264721286118402
 -0.0016360990878343021 -0.009380145263904145 0.0018816526068085435 0.014836849835479555 0.9921009065539101 -0.07264721286118402 0.0063648728365777885 0.030700556992625926
0.11879949979160001 0.00678263782133227 0.03255645843325976 0.9915361548513261 -0.07681043825992699 0.0021288326829168535 0.015653017102886895 -0.0017963343136327245 -0.00990432653036466
 0.9915361548513261 -0.07681043825992699 0.006792781416262912 0.032555649699161714 -0.0017969346699686767 -0.009904279425211581 0.0020671130111173932 0.015661786125533678
 0.0021288326829168535 0.015653017102886895 -0.0017969346699686767 -0.009904279425211581 0.006782617361528238 0.03255798345181837 0.9915362357258016 -0.07680883680378234
 -0.0017963343136327245 -0.00990432653036466 0.0020671130111173932 0.015661786125533678 0.9915362357258016 -0.07680883680378234 0.006792937787492851 0.03255720076856385
0.1250521050438 0.00722812262242399 0.03442695157713314 0.9909475917273775 -0.08098455885401598 0.0023303463163491527 0.01647601804420773 -0.001964719562127951 -0.010427956784947089
 0.9909475917273775 -0.08098455885401598 0.007239362279260112 0.034426058816191776 -0.001965383023037303 -0.010427900878382312 0.0022619263322902657 0.01648597621936766
 0.0023303463163491527 0.01647601804420773 -0.001965383023037303 -0.010427900878382312 0.0072280994718023645 0.03442855067525283 0.9909476814959508 -0.0809828710542928
 -0.001964719562127951 -0.010427956784947089 0.0022619263322902657 0.01648597621936766 0.9909476814959508 -0.0809828710542928 0.007239534099194018 0.03442768729315549
0.131304710296 0.007692356960183245 0.036311020684874865 0.9903348734065548 -0.08517087561041356 0.002541624242488942 0.0172980275793728 -0.002141320153396711 -0.010950895536069625
 0.9903348734065548 -0.08517087561041356 0.007704749356731166 0.036310038670565654 -0.0021420496989940597 -0.01095082992153561 0.002466156103988387 0.01730927967872166
 0.002541624242488942 0.0172980275793728 -0.0021420496989940597 -0.01095082992153561 0.0076923308964089885 0.03631269296857101 0.9903349726071686 -0.08516910112428044
 -0.002141320153396711 -0.010950895536069625 0.002466156103988387 0.01730927967872166 0.9903349726071686 -0.08516910112428044 0.007704937210228132 0.036311743893337134
0.1375573155481 0.008068272608459338 0.03796207569106011 0.9898051107341472 -0.08912275297746816 0.002736192959393283 0.01809405529822728 -0.0022997531113496668 -0.011448108750910914
 0.9898051107341472 -0.08912275297746816 0.008081877803193676 0.037961021425596125 -0.002300552910947585 -0.011448033355263306 0.002653501125684818 0.0181065838914838
 0.002736192959393283 0.01809405529822728 -0.002300552910947585 -0.011448033355263306 0.008068242521533793 0.03796382090043971 0.9898052198031801 -0.08912089160037824
 -0.0022997531113496668 -0.011448108750910914 0.002653501125684818 0.0181065838914838 0.9898052198031801 -0.08912089160037824 0.008082083340722352 0.03796280230345907
0.1438099208003 0.00845737920914745 0.03960454465100991 0.9892567672416217 -0.09306473461674619 0.002938636147637798 0.018886917607332403 -0.0024645312069767515 -0.011942461863126017
 0.9892567672416217 -0.09306473461674619 0.008472254521296694 0.03960341432315098 -0.0024654044189028326 -0.011942375801905807 0.0028484037189991304 0.01890081841303987
 0.002938636147637798 0.018886917607332403 -0.0024654044189028326 -0.011942375801905807 0.00845734469540558 0.03960636191350178 0.9892568867163389 -0.09306278601107787
 -0.0024645312069767515 -0.011942461863126017 0.0028484037189991304 0.01890081841303987 0.9892568867163389 -0.09306278601107787 0.008472478489488471 0.03960527010396612
0.1500625260525 0.008859541260043553 0.04123829388537791 0.9886899823943771 -0.09699672628871257 0.003148885644443861 0.01967653506843294 -0.0026355889570146077 -0.012433881000029082
 0.9886899823943771 -0.09699672628871257 0.008875744131361033 0.04123708346031364 -0.00263653872972875 -0.012433783353760046 0.003050797581804513 0.019691907291105665
 0.003148885644443861 0.01967653506843294 -0.00263653872972875 -0.012433783353760046 0.008859501891417876 0.04124018229555855 0.988690112824096 -0.09699469010489974
 -0.0026355889570146077 -0.012433881000029082 0.003050797581804513 0.019691907291105665 0.988690112824096 -0.09699469010489974 0.008875987268523558 0.04123901335921347
0.15631513130469998 0.009274622314936963 0.042863193775590294 0.9881048963473326 -0.10091863401194792 0.0033668724895449522 0.020462829554416164 -0.002812860080887223 -0.01292229383763182
 0.9881048963473326 -0.10091863401194792 0.009292210313526453 0.04286189898934898 -0.0028138895528960844 -0.012922183652039076 0.0032606156431282543 0.020479775848005272
