! Created with skrf 1.8.0 (http://scikit-rf.org).
# GHz S RI R 50.0 
!freq ReS11 ImS11 ReS12 ImS12 ReS13 ImS13
! ReS14 ImS14
! ReS21 ImS21 ReS22 ImS22 ReS23 ImS23
! ReS24 ImS24
! ReS31 ImS31 ReS32 ImS32 ReS33 ImS33
! ReS34 ImS34
! ReS41 ImS41 ReS42 ImS42 ReS43 ImS43
! ReS44 ImS44
!
0.0 0.001418141297347 0.0 0.9985818586941 0.0 5.467465840565e-05 0.0 -5.46746584058e-05 6.6957145411137894e-21
 0.9985818586941 0.0 0.001418141297341 0.0 -5.467465840601e-05 6.695714541139508e-21 5.467465840608e-05 0.0
 5.467465840565e-05 0.0 -5.467465840601e-05 6.695714541139508e-21 0.001418141293078 0.0 0.9985818586899 0.0
 -5.46746584058e-05 6.6957145411137894e-21 5.467465840608e-05 0.0 0.9985818586899 0.0 0.001418141293067 0.0
0.005 0.0015255051048303219 0.0011569468039187864 0.998446072078802 -0.002971259085643889 7.692977746256324e-05 0.0006231265465241181 -7.46163453870459e-05 -0.0003875734740512901
 0.998446072078802 -0.002971259085643889 0.0015255127582700866 0.0011569422771236797 -7.461569654659429e-05 -0.0003875729245341064 7.688460498663973e-05 0.0006231436979813093
 7.692977746256324e-05 0.0006231265465241181 -7.461569654659429e-05 -0.0003875729245341064 0.0015255060410560121 0.001157013484227626 0.9984460724336923 -0.002971192015851658
 -7.46163453870459e-05 -0.0003875734740512901 7.688460498663973e-05 0.0006231436979813093 0.9984460724336923 -0.002971192015851658 0.001525512522851571 0.001157009727290431
0.006252605252188 0.0015535643899108058 0.0014507645808538323 0.9984103745441463 -0.0037148175182778187 8.323417476189625e-05 0.0007792066747216144 -8.020285731099948e-05 -0.0004849785560223004
 0.9984103745441463 -0.0037148175182778187 0.0015535763542446413 0.0014507588433735506 -8.020184805892582e-05 -0.00048497787729437467 8.316359593854526e-05 0.000779228944167715
 8.323417476189625e-05 0.0007792066747216144 -8.020184805892582e-05 -0.00048497787729437467 0.0015535657699162807 0.001450847903462568 0.998410375015112 -0.003714733699244775
 -8.020285731099948e-05 -0.0004849785560223004 8.316359593854526e-05 0.000779228944167715 0.998410375015112 -0.003714733699244775 0.0015535759019340363 0.0014508431387950083
0.01250521050438 0.0017006983475466697 0.0029321937697886886 0.9982220148072583 -0.007430554962746172 0.00011910412189025278 0.0015587466949918965 -0.00011166508389514105 -0.0009723919804689347
 0.9982220148072583 -0.007430554962746172 0.0017007461309927376 0.002932181497485983 -0.00011166111131980137 -0.0009723907114381485 0.00011882264307513022 0.0015588001374846354
 0.00011910412189025278 0.0015587466949918965 -0.00011166111131980137 -0.0009723907114381485 0.0017007032989852602 0.0029323600584691928 0.998222016126023 -0.007430387551141021
 -0.00011166508389514105 -0.0009723919804689347 0.00011882264307513022 0.0015588001374846354 0.998222016126023 -0.007430387551141021 0.0017007437525107662 0.0029323498480534945
0.01875781575657 0.0018598446514205634 0.004434964955246638 0.9980165595435277 -0.011156280411322338 0.00016236390120391532 0.002339177612991351 -0.00014915430590144917 -0.001461523090236869
 0.9980165595435277 -0.011156280411322338 0.0018599520412799892 0.004434945285983695 -0.00014914545346347263 -0.0014615213334224523 0.00016173152595426153 0.002339272757380923
 0.00016236390120391532 0.002339177612991351 -0.00014914545346347263 -0.0014615213334224523 0.0018598553658514731 0.004435213946528682 0.998016562091525 -0.011156029451271239
 -0.00014915430590144917 -0.001461523090236869 0.00016173152595426153 0.002339272757380923 0.998016562091525 -0.011156029451271239 0.0018599462585551598 0.004435197578939138
0.02501042100875 0.0020312969533745496 0.0059569887664883674 0.9977937807306286 -0.014893820321956382 0.00021309423246563278 0.0031205501399878513 -0.00019276072416145036 -0.0019521568836306246
 0.9977937807306286 -0.014893820321956382 0.0020314877003268722 0.0059569607823047885 -0.00019274510021555994 -0.0019521547577260418 0.000211970869309648 0.0031206990806917434
 0.00021309423246563278 0.0031205501399878513 -0.00019274510021555994 -0.0019521547577260418 0.0020313156167794393 0.005957320141971503 0.9977937848879525 -0.014893485823668489
 -0.00019276072416145036 -0.0019521568836306246 0.000211970869309648 0.0031206990806917434 0.9977937848879525 -0.014893485823668489 0.002031477021451252 0.005957296883199575
0.03126302626094 0.002215336656141015 0.007497200150123491 0.997553438014155 -0.018643968426950316 0.0002713765047468068 0.0039028410577806047 -0.00024257215456853905 -0.0024441476017582273
 0.997553438014155 -0.018643968426950316 0.002215634487233845 0.007497162878986703 -0.0002425478881145171 -0.0024441452418610347 0.0002696218359236435 0.003903057464011387
 0.0002713765047468068 0.0039028410577806047 -0.0002425478881145171 -0.0024441452418610347 0.002215365454669458 0.007497613553311282 0.9975534441661178 -0.018643550349448996
 -0.00024257215456853905 -0.0024441476017582273 0.0002696218359236435 0.003903057464011387 0.9975534441661178 -0.018643550349448996 0.0022156174107527665 0.007497582648787866
0.037515631513130004 0.002412239193645666 0.009054912377537765 0.997295285152059 -0.022407131668976874 0.0003372919548730171 0.004685998188462576 -0.00029867469571318034 -0.002937373751191723
 0.997295285152059 -0.022407131668976874 0.0024126678200428586 0.009054864794055323 -0.0002986399341251462 -0.0029373713088430855 0.0003347653762475143 0.004686297320423525
 0.0003372919548730171 0.004685998188462576 -0.0002986399341251462 -0.0029373713088430855 0.00241228031083735 0.009055407398560754 0.997295293687755 -0.022406629934841795
 -0.00029867469571318034 -0.002937373751191723 0.0003347653762475143 0.004686297320423525 0.997295293687755 -0.022406629934841795 0.0024126428320303045 0.009055368074318117
0.043768236765320004 0.0026222764577016645 0.010629620474744543 0.9970190726070702 -0.026183526706844915 0.0004109212846794082 0.005469954080655287 -0.0003611529773864957 -0.003431724410993969
 0.9970190726070702 -0.026183526706844915 0.00262285958138817 0.010629561500537435 -0.0003611058850456797 -0.0034317220541715096 0.00040748187604162944 0.00547035280796246
 0.0004109212846794082 0.005469954080655287 -0.0003611058850456797 -0.0034317220541715096 0.0026223320738609883 0.010630196636702591 0.997019083920665 -0.026182941215361525
 -0.0003611529773864957 -0.003431724410993969 0.00040748187604162944 0.00547035280796246 0.997019083920665 -0.026182941215361525 0.0026228251547477832 0.010630148100202252
0.050020842017509996 0.0028457179303647945 0.012220919954198136 0.9967245488485394 -0.029973261117306114 0.0004923444387155201 0.006254631651814904 -0.0004300902543768283 -0.003927093585256185
 0.9967245488485394 -0.029973261117306114 0.002846479249459304 0.012220848458049327 -0.0004300290118075469 -0.003927091498346156 0.00048785095024719654 0.006255148472779142
 0.0004923444387155201 0.006254631651814904 -0.0004300290118075469 -0.003927091498346156 0.0028457902221448164 0.01222157671804299 0.9967245633399505 -0.029972591739009184
 -0.0004300902543768283 -0.003927093585256185 0.00048785095024719654 0.006255148472779142 0.9967245633399505 -0.029972591739009184 0.0028464338432426695 0.012221518158903336
0.055454545454549996 0.0030509891147500654 0.013617013505378016 0.9964535315435739 -0.03327751939551481 0.0005694945698713038 0.006937061276866937 -0.0004953079793698388 -0.004358330891843846
 0.9964535315435739 -0.03327751939551481 0.0030519245374842647 0.013616930167557592 -0.000495232974211867 -0.004358329201953372 0.0005639700829045036 0.00693769702744679
 0.0005694945698713038 0.006937061276866937 -0.000495232974211867 -0.004358329201953372 0.0030510776622348934 0.013617739825179184 0.9964535491269348 -0.0332767769926356
 -0.0004953079793698388 -0.004358330891843846 0.0005639700829045036 0.00693769702744679 0.9964535491269348 -0.0332767769926356 0.0030518683269886177 0.013617671884503538
0.056273447269699996 0.003082831270469705 0.013828466945285939 0.9964114611098672 -0.03377637319856324 0.0005816404485608868 0.007039946958944545 -0.0005055684354772211 -0.004423377429362335
 0.9964114611098672 -0.03377637319856324 0.0030837944840978646 0.013828381743138286 -0.0005054912386710427 -0.004423375813118191 0.0005759512968949286 0.0070406020202928785
 0.0005816404485608868 0.007039946958944545 -0.0005054912386710427 -0.004423375813118191 0.003082922409553553 0.013829203704488617 0.9964114791858926 -0.03377561978003695
 -0.0005055684354772211 -0.004423377429362335 0.0005759512968949286 0.0070406020202928785 0.9964114791858926 -0.03377561978003695 0.0030837365425500376 0.013829134295058785
0.06252605252188 0.003333882634119237 0.015451956267091711 0.996079555884863 -0.03759285383310796 0.000678887311576582 0.007825810719459945 -0.0005876680780134744 -0.004920472728664099
 0.996079555884863 -0.03759285383310796 0.003335071447094436 0.015451856121891486 -0.0005875731379739431 -0.004920471800179032 0.0006718605823313045 0.007826625836204635
 0.000678887311576582 0.007825810719459945 -0.0005875731379739431 -0.004920471800179032 0.0033339947867850384 0.015452772356044977 0.9960795779602302 -0.03759201618809921
 -0.0005876680780134744 -0.004920472728664099 0.0006718605823313045 0.007826625836204635 0.9960795779602302 -0.03759201618809921 0.0033349993994413463 0.015452691251703026
0.06877865777407 0.003599136851696907 0.017091108362380147 0.9957285792822961 -0.041422659491590505 0.0007841618891123591 0.008612129219809816 -0.0006764683623540547 -0.005418275992222639
 0.9957285792822961 -0.041422659491590505 0.0036005749788806532 0.01709099198381001 -0.0006763539047564228 -0.0054182759848690415 0.0007756553439820313 0.008613127895205347
 0.0007841618891123591 0.008612129219809816 -0.0006763539047564228 -0.0054182759848690415 0.0035992721762732804 0.017092003043508667 0.9957286057789959 -0.041421737413396845
 -0.0006764683623540547 -0.005418275992222639 0.0007756553439820313 0.008613127895205347 0.9957286057789959 -0.041421737413396845 0.003600487236898518 0.017091909383059854
0.07503126302626001 0.003878857515113157 0.01874566100145572 0.9953582772941805 -0.04526572046967731 0.0008975398151383556 0.00939880488953553 -0.0007720470552518367 -0.005916682884128503
 0.9953582772941805 -0.04526572046967731 0.0038805686858103838 0.01874552704546271 -0.0007719113201752958 -0.005916684047531111 0.0008874109021357934 0.009400012334956782
 0.0008975398151383556 0.00939880488953553 -0.0007719113201752958 -0.005916684047531111 0.0038790181626773075 0.0187466334741066 0.995358308644248 -0.045264713721895944
 -0.0007720470552518367 -0.005916682884128503 0.0008874109021357934 0.009400012334956782 0.995358308644248 -0.045264713721895944 0.00388046364492787 0.018746526379807782
0.08128386827845 0.004173307015171118 0.020415363773849907 0.994968396017496 -0.04912194634003629 0.0010190954121595756 0.01018573668922808 -0.0008744804645799477 -0.00641558784412966
 0.994968396017496 -0.04912194634003629 0.004175314977232573 0.020415210842202783 -0.0008743217063167781 -0.00641559044411366 0.0010072012787521944 0.010187179843975653
 0.0010190954121595756 0.01018573668922808 -0.0008743217063167781 -0.00641559044411366 0.004173495127485106 0.02041641316825577 0.9949684326627415 -0.049120854662117186
 -0.0008744804645799477 -0.00641558784412966 0.0010072012787521944 0.010187179843975653 0.9949684326627415 -0.049120854662117186 0.004175191014656045 0.020416291745928225
0.08753647353064001 0.004482746541056483 0.022099974269471703 0.9945586818403467 -0.052991229718381494 0.0011489016116891107 0.010972820377134183 -0.0009838433887496005 -0.006914883832899963
 0.9945586818403467 -0.052991229718381494 0.004485075065038809 0.022099800908984762 -0.0009836598756190241 -0.00691488815144913 0.0011350991197497562 0.01097452792811064
 0.0011489016116891107 0.010972820377134183 -0.0009836598756190241 -0.00691488815144913 0.004482964249306573 0.02210109964859199 0.9945587242335903 -0.05299005282350637
 -0.0009838433887496005 -0.006914883832899963 0.0011350991197497562 0.01097452792811064 0.9945587242335903 -0.05299005282350637 0.004484930539148088 0.02210096298741495
0.09378907878283 0.004807436056120906 0.02379925535561943 0.9941288816084045 -0.05687344893707743 0.0012870298769031188 0.01175994870521005 -0.0011002090625508029 -0.007414462151352364
 0.9941288816084045 -0.05687344893707743 0.004810108939795456 0.02379906005738005 -0.0010999990768155578 -0.0074144684865591354 0.001271175619626062 0.011761951106387569
 0.0012870298769031188 0.01175994870521005 -0.0010999990768155578 -0.0074144684865591354 0.004807685479824478 0.02380045571302541 0.9941289302139356 -0.056872186513916
 -0.0011002090625508029 -0.007414462151352364 0.001271175619626062 0.011761951106387569 0.9941289302139356 -0.056872186513916 0.004809942189098489 0.023800302885376524
0.100041684035 0.00514763425553439 0.025512973174195677 0.993678742773926 -0.06076847000242457 0.0014335501279993106 0.012547011565658127 -0.0012236490994397547 -0.007914212312976452
 0.993678742773926 -0.06076847000242457 0.005150675327647519 0.02551275437261184 -0.0012234109371972715 -0.007914220978996708 0.0014155004482390048 0.012549341057371512
 0.0014335501279993106 0.012547011565658127 -0.0012234109371972715 -0.007914220978996708 0.005147917501550119 0.02551424743542484 0.9936787980690374 -0.06076712171351735
 -0.0012236490994397547 -0.007914212312976452 0.0014155004482390048 0.012549341057371512 0.9936787980690374 -0.06076712171351735 0.00515048467037176 0.025514077496385363
0.1059090909091 0.005481208443816323 0.027134038878265994 0.9932376131758295 -0.06443504838901791 0.0015787371271146903 0.01328542654670491 -0.00134598085483664 -0.008383231055750588
 0.9932376131758295 -0.06443504838901791 0.005484616725264408 0.02713379654594425 -0.0013457147145074602 -0.008383242208985984 0.0015584964158931324 0.0132880939084375
 0.0015787371271146903 0.01328542654670491 -0.0013457147145074602 -0.008383242208985984 0.005481525332059232 0.027135381451122546 0.9932376751945579 -0.06443361919536308
 -0.00134598085483664 -0.008383231055750588 0.0015584964158931324 0.0132880939084375 0.9932376751945579 -0.06443361919536308 0.005484402085720144 0.027135194579591376
0.1062942892872 0.00550359851119696 0.02724089564294979 0.9932080135376241 -0.06467614805183015 0.0015885306682330712 0.01333389610433147 -0.0013542334320899888 -0.00841402195294236
 0.9932080135376241 -0.06467614805183015 0.0055070316360666905 0.027240651714642336 -0.0013539654032070393 -0.008414033279952696 0.0015681416781376729 0.01333658673234226
 0.0015885306682330712 0.01333389610433147 -0.0013539654032070393 -0.008414033279952696 0.005503917672237025 0.027242242662786145 0.9932080760131122 -0.0646747135361624
 -0.0013542334320899888 -0.00841402195294236 0.0015681416781376729 0.01333658673234226 0.9932080760131122 -0.0646747135361624 0.005506815369087509 0.0272420546496183
0.11254689453939999 0.0058755848065334335 0.02898279130012555 0.9927164429804591 -0.06859632847160714 0.0017520381112558047 0.014120486812604647 -0.0014920302507448683 -0.008913776762583326
 0.9927164429804591 -0.06859632847160714 0.005879433887790289 0.028982520562713842 -0.001491730678777487 -0.008913791096732643 0.0017291657130507304 0.014123574446875824
 0.0017520381112558047 0.014120486812604647 -0.001491730678777487 -0.008913791096732643 0.005875941959671934 0.02898420986779033 0.9927165131415288 -0.06859480733917686
 -0.0014920302507448683 -0.008913776762583326 0.0017291657130507304 0.014123574446875824 0.9927165131415288 -0.06859480733917686 0.005879190285844753 0.028984002799269076
0.11879949979160001 0.006263847663824826 0.030738428416541116 0.9922037811922753 -0.07252884775171049 0.0019241373087132369 0.014906665603506425 -0.0016371059403775517 -0.009413360443304831
 0.9922037811922753 -0.07252884775171049 0.006268136649069585 0.03073812912725689 -0.0016367731626001942 -0.00941337814665743 0.0018986372165698089 0.014910187956754941
 0.0019241373087132369 0.014906665603506425 -0.0016367731626001942 -0.00941337814665743 0.006264244869428576 0.030739917248409313 0.9922038595594345 -0.07252723959076793
 -0.0016371059403775517 -0.009413360443304831 0.0018986372165698089 0.014910187956754941 0.9922038595594345 -0.07252723959076793 0.00626786396363215 0.03073969012397008
0.1250521050438 0.006668640064576418 0.03250757427890689 0.991669779394695 -0.07647353417355295 0.002104891278546865 0.01569231187594388 -0.0017895250165320027 -0.009912654676449558
 0.991669779394695 -0.07647353417355295 0.0066733929495318605 0.0325072446329906 -0.0017891573838871991 -0.009912676126945411 0.002076619041415247 0.015696308521857612
 0.002104891278546865 0.01569231187594388 -0.0017891573838871991 -0.009912676126945411 0.006669079364942319 0.03250913202268651 0.9916698665051015 -0.07647183854629765
 -0.0017895250165320027 -0.009912654676449558 0.002076619041415247 0.015696308521857612 0.9916698665051015 -0.07647183854629765 0.0066730894082908275 0.03250888382138561
0.131304710296 0.0070902133657116196 0.034289994628609745 0.9911141900637175 -0.08043020834677117 0.0022943611334020984 0.016477302572951373 -0.0019493500603483354 -0.010411539103064344
 0.9911141900637175 -0.08043020834677117 0.007095454198282191 0.03428963275768502 -0.0019489459373836719 -0.010411564694463808 0.00226317215875871 0.016481814964111118
 0.0022943611334020984 0.016477302572951373 -0.0019489459373836719 -0.010411564694463808 0.0070906967835735295 0.03429161986307997 0.9911142864714381 -0.08042842478968668
 -0.0019493500603483354 -0.010411539103064344 0.00226317215875871 0.016481814964111118 0.9911142864714381 -0.08042842478968668 0.007095118004231433 0.034291349542446364
0.1375573155481 0.007429174992665956 0.035851956474246896 0.9906364426314359 -0.08416509858930667 0.002467990278149873 0.017237590519237102 -0.002092065713247936 -0.010885956010772703
 0.9906364426314359 -0.08416509858930667 0.00743492839867636 0.03585156748008974 -0.0020916225380331298 -0.010885985739448345 0.0024338140310282666 0.017242610124724955
 0.002467990278149873 0.017237590519237102 -0.0020916225380331298 -0.010885985739448345 0.0074297038772761295 0.03585364818827597 0.9906365487674418 -0.08416322681017596
 -0.002092065713247936 -0.010885956010772703 0.0024338140310282666 0.017242610124724955 0.9906365487674418 -0.08416322681017596 0.007434558641685072 0.03585336110220112
0.1438099208003 0.0077799540511362605 0.03740615993483071 0.9901420852049828 -0.08789101271027973 0.0026486449484399684 0.017995121454002526 -0.002240507306269786 -0.011357867746092615
 0.9901420852049828 -0.08789101271027973 0.007786244209097805 0.037405742362455204 -0.00224002329626828 -0.011357901999502302 0.002611350030542237 0.01800068595894549
 0.0026486449484399684 0.017995121454002526 -0.00224002329626828 -0.011357901999502302 0.007780530275255258 0.03740791667596266 0.9901422016235574 -0.08788905225129137
 -0.002240507306269786 -0.011357867746092615 0.002611350030542237 0.01800068595894549 0.9901422016235574 -0.08788905225129137 0.0077858392164559306 0.037407612156452864
0.1500625260525 0.008142433529877485 0.03895248956005071 0.9896312384832361 -0.0916078730003902 0.002836267304491607 0.018749828162836053 -0.0023946189243291777 -0.011827210889872083
 0.9896312384832361 -0.0916078730003902 0.008149284665362551 0.03895204187139388 -0.002394092298948971 -0.011827250071143878 0.0027957230429135724 0.01875597661947657
 0.002836267304491607 0.018749828162836053 -0.002394092298948971 -0.011827250071143878 0.008143058939329881 0.03895430982048906 0.9896313657533652 -0.09160582338409749
 -0.0023946189243291777 -0.011827210889872083 0.0027957230429135724 0.01875597661947657 0.9896313657533652 -0.09160582338409749 0.00814884275067639 0.03895398714644768
0.15631513130469998 0.008516495662758658 0.040490833460292454 0.9891040236965076 -0.09531560173272877 0.003030798866986514 0.019501644480693407 -0.002554344004171774 -0.012293923309069248
