! Created with skrf 1.8.0 (http://scikit-rf.org).
# GHz S RI R 50.0 
!freq ReS11 ImS11 ReS12 ImS12 ReS13 ImS13
! ReS14 ImS14
! ReS21 ImS21 ReS22 ImS22 ReS23 ImS23
! ReS24 ImS24
! ReS31 ImS31 ReS32 ImS32 ReS33 ImS33
! ReS34 ImS34
! ReS41 ImS41 ReS42 ImS42 ReS43 ImS43
! ReS44 ImS44
!
0.0 0.001538389448114 0.0 0.9984616105519 0.0 5.963313114798e-05 0.0 -5.963313088129e-05 7.302952285690699e-21
 0.9984616105519 0.0 0.001538389448112 0.0 -5.963313088199e-05 7.302952285776424e-21 5.963313114824e-05 0.0
 5.963313114798e-05 0.0 -5.963313088199e-05 7.302952285776424e-21 0.001538389428225 0.0 0.998461610532 0.0
 -5.963313088129e-05 7.302952285690699e-21 5.963313114824e-05 0.0 0.998461610532 0.0 0.001538389428192 0.0
0.005 0.0016552242647803978 0.0012528601059394941 0.9983137717782893 -0.0032228920612369727 8.444894038771631e-05 0.0006910246012809059 -8.176877948506393e-05 -0.00042782211944879613
 0.9983137717782893 -0.0032228920612369727 0.0016552463364036653 0.0012528471726095584 -8.176650476836e-05 -0.00042782034128499195 8.432879197991354e-05 0.0006910704814880543
 8.444894038771631e-05 0.0006910246012809059 -8.176650476836e-05 -0.00042782034128499195 0.0016552259307924557 0.0012529263554720653 0.9983137721322743 -0.0032228250029377424
 -8.176877948506393e-05 -0.00042782211944879613 8.432879197991354e-05 0.0006910704814880543 0.9983137721322743 -0.0032228250029377424 0.0016552453728974335 0.0012529150350690283
0.006252605252188 0.001685861282054227 0.00157103041018485 0.9982747547806485 -0.004029406142319945 9.155207545374744e-05 0.0008640989413036146 -8.802261706137256e-05 -0.000535338636106529
 0.9982747547806485 -0.004029406142319945 0.0016858957840961632 0.001571013957857854 -8.801907765520509e-05 -0.0005353364429728968 9.13643562285952e-05 0.0008641584929153592
 9.155207545374744e-05 0.0008640989413036146 -8.801907765520509e-05 -0.0005353364429728968 0.0016858638253987432 0.0015711132094666774 0.9982747552728637 -0.00402932232507726
 -8.802261706137256e-05 -0.000535338636106529 9.13643562285952e-05 0.0008641584929153592 0.9982747552728637 -0.00402932232507726 0.0016858942161596452 0.0015710987826778363
0.01250521050438 0.0018471112952425386 0.0031751841470621374 0.9980680117656793 -0.008059647644918424 0.000132356396168855 0.0017284450306205101 -0.00012352819367797326 -0.001073305511827325
 0.9980680117656793 -0.008059647644918424 0.0018472490660852159 0.0031751483511272076 -0.00012351424796245482 -0.0010733014493516226 0.00013160786012094496 0.0017285878944086712
 0.000132356396168855 0.0017284450306205101 -0.00012351424796245482 -0.0010733014493516226 0.0018471208701762467 0.0031753494188522754 0.9980680131465995 -0.008059480240353585
 -0.00012352819367797326 -0.001073305511827325 0.00013160786012094496 0.0017285878944086712 0.9980680131465995 -0.008059480240353585 0.0018472422124157248 0.0031753177905400314
0.01875781575657 0.0020224921487662704 0.004802323491011594 0.9978411243281549 -0.01210053889816648 0.00018213921249796673 0.002593652568638102 -0.00016626002334074318 -0.0016130790036058453
 0.9978411243281549 -0.01210053889816648 0.00202280173367478 0.004802265231542415 -0.00016622892758884252 -0.001613073456788982 0.00018045781353696582 0.002593907172764678
 0.00018213921249796673 0.002593652568638102 -0.00016622892758884252 -0.001613073456788982 0.002022513246910639 0.004802570978941402 0.9978411270078693 -0.012100287991650888
 -0.00016626002334074318 -0.0016130790036058453 0.00018045781353696582 0.002593907172764678 0.9978411270078693 -0.012100287991650888 0.0020227858928138255 0.00480251921636436
0.02501042100875 0.002212346039227165 0.00645015763880192 0.997593825174689 -0.016154036708535685 0.00024099550839687715 0.0034597637661184207 -0.0002163245199666272 -0.002154403630870994
 0.997593825174689 -0.016154036708535685 0.002212895848824815 0.006450073588557954 -0.00021626961213100043 -0.002154397052804613 0.00023800912480288227 0.0034601630363359703
 0.00024099550839687715 0.0034597637661184207 -0.00021626961213100043 -0.002154397052804613 0.0022123831444633172 0.00645048707148071 0.9975938295620245 -0.01615370232786457
 -0.0002163245199666272 -0.002154403630870994 0.00023800912480288227 0.0034601630363359703 0.9975938295620245 -0.01615370232786457 0.0022128673137979072 0.006450412101765372
0.03126302626094 0.0024170009638518042 0.008117506354467856 0.9973258333998176 -0.02022097662663725 0.000309020925577473 0.00432673706605099 -0.0002738249868060741 -0.0026971016597037807
 0.9973258333998176 -0.02022097662663725 0.0024178593096219826 0.008117392982392075 -0.0002737396725346624 -0.0026970945724034663 0.000304357013043394 0.004327318449221499
 0.000309020925577473 0.00432673706605099 -0.0002737396725346624 -0.0026970945724034663 0.002417058555337251 0.008117917411655129 0.9973258399038388 -0.020220558775525744
 -0.0002738249868060741 -0.0026971016597037807 0.000304357013043394 0.004327318449221499 0.9973258399038388 -0.020220558775525744 0.002417814368133187 0.00811781602545338
0.037515631513130004 0.002636777769032543 0.009803599077644783 0.9970368617567488 -0.024301773779760984 0.0003863107069805285 0.005194497879003565 -0.0003388624099403303 -0.0032410223633782894
 0.9970368617567488 -0.024301773779760984 0.002638012887047994 0.009803452650005902 -0.000338740155444182 -0.003241015358015541 0.0003795961447339013 0.0051953033865699775
 0.0003863107069805285 0.005194497879003565 -0.000338740155444182 -0.003241015358015541 0.002636860321693404 0.00980409138358062 0.9970368707884353 -0.02430127244389868
 -0.0003388624099403303 -0.0032410223633782894 0.0003795961447339013 0.0051953033865699775 0.9970368707884353 -0.02430127244389868 0.002637947820483138 0.00980396023703408
0.043768236765320004 0.0028719928787224657 0.011507861613692683 0.9967266196131642 -0.02839663611295589 0.0004729592065171485 0.00606295401863265 -0.00041153574145951947 -0.003786026587833013
 0.9967266196131642 -0.02839663611295589 0.0028736729478256516 0.01150767819445586 -0.0004113700692723633 -0.003786020324813983 0.0004638202255989275 0.006064030276255401
 0.0004729592065171485 0.00606295401863265 -0.0004113700692723633 -0.003786020324813983 0.0028721048651303357 0.011508434741761915 0.9967266315872422 -0.02839605125465849
 -0.00041153574145951947 -0.003786026587833013 0.0004638202255989275 0.006064030276255401 0.9967266315872422 -0.02839605125465849 0.002873584032501737 0.01150827035773508
0.050020842017509996 0.0031229595557349913 0.013229828011608602 0.996394814443814 -0.032505652440703046 0.0005690595966898908 0.006932002074958205 -0.0004919420026723515 -0.004331980382927499
 0.996394814443814 -0.032505652440703046 0.0031251527132181377 0.013229603462154115 -0.0004917264888867355 -0.004331975591896389 0.000557121752162771 0.006933400374579113
 0.0005690595966898908 0.006932002074958205 -0.0004917264888867355 -0.004331975591896389 0.003123105442712744 0.013230481477156185 0.9963948297768879 -0.03250498400546844
 -0.0004919420026723515 -0.004331980382927499 0.000557121752162771 0.006933400374579113 0.9963948297768879 -0.03250498400546844 0.0031250362170160036 0.013230280245901671
0.055454545454549996 0.0033540908027917373 0.014740334115267355 0.9960887259244536 -0.03608801834873339 0.0006603211617062989 0.007687625450734801 -0.0005681714829155185 -0.0048070995044485025
 0.9960887259244536 -0.03608801834873339 0.00335678516386466 0.01474007030348242 -0.0005679074784812808 -0.00480709663894709 0.0006456463984598064 0.0076893489340141025
 0.0006603211617062989 0.007687625450734801 -0.0005679074784812808 -0.00480709663894709 0.0033542697747995227 0.014741056951514977 0.9960887445180547 -0.036087277230989236
 -0.0005681714829155185 -0.0048070995044485025 0.0006456463984598064 0.0076893489340141025 0.9960887445180547 -0.036087277230989236 0.0033566416628979167 0.014740820664603211
0.056273447269699996 0.00338998854961922 0.014969097286948563 0.9960411527141934 -0.036628835654885346 0.0006747036632050815 0.007801530549942763 -0.000580176307430565 -0.004878751875091556
 0.9960411527141934 -0.036628835654885346 0.0033927629055024253 0.01496882726534845 -0.0005799045798665226 -0.00487874935491768 0.0006595918326763352 0.007803306902950974
 0.0006747036632050815 0.007801530549942763 -0.0005799045798665226 -0.00487874935491768 0.003390172799967998 0.014969830540417279 0.9960411718270491 -0.03662808357745328
 -0.000580176307430565 -0.004878751875091556 0.0006595918326763352 0.007803306902950974 0.9960411718270491 -0.03662808357745328 0.003392615089662544 0.01496958871988156
0.06252605252188 0.003673388442113128 0.01672530963907098 0.9956653404655932 -0.04076614644121134 0.0007899816437843457 0.00867142157316704 -0.0006763318439084241 -0.0054262095640770485
 0.9956653404655932 -0.04076614644121134 0.003676812092310286 0.01672498959894907 -0.0006759975808237569 -0.005426210182829658 0.0007713200435016176 0.008673636763864455
 0.0007899816437843457 0.00867142157316704 -0.0006759975808237569 -0.005426210182829658 0.0036736155129630625 0.016726122074920136 0.9956653637831074 -0.04076531063602478
 -0.0006763318439084241 -0.0054262095640770485 0.0007713200435016176 0.008673636763864455 0.9956653637831074 -0.04076531063602478 0.003676629210202176 0.016725835790616057
0.06877865777407 0.003973465826380387 0.01849813227224032 0.9952670837382511 -0.044917507395730784 0.0009149820906930549 0.009541551935861202 -0.0007804998334641772 -0.005974221305755894
 0.9952670837382511 -0.044917507395730784 0.0039776068658260956 0.01849775746116933 -0.0007800967627132488 -0.005974226000653619 0.000892394304019543 0.009544271574909745
 0.0009149820906930549 0.009541551935861202 -0.0007800967627132488 -0.005974226000653619 0.003973740169133321 0.018499023217784738 0.9952671116902886 -0.0449165877674925
 -0.0007804998334641772 -0.005974221305755894 0.000892394304019543 0.009544271574909745 0.9952671116902886 -0.0449165877674925 0.003977385163057608 0.01849868846219702
0.07503126302626001 0.00429052538971144 0.020287250406601506 0.9948460889012801 -0.04908281195593259 0.0010497917475247244 0.010411793749252973 -0.0008927694751854826 -0.006522653675265355
 0.9948460889012801 -0.04908281195593259 0.004295451924745841 0.020286815864088575 -0.0008922913736091348 -0.006522663452637152 0.0010229007626900465 0.010415088326833175
 0.0010497917475247244 0.010411793749252973 -0.0008922913736091348 -0.006522663452637152 0.0042908514486916845 0.020288219129135365 0.9948461219230794 -0.04908180839170165
 -0.0008927694751854826 -0.006522653675265355 0.0010229007626900465 0.010415088326833175 0.9948461219230794 -0.04908180839170165 0.0042951876384901685 0.020287831760775865
0.08128386827845 0.004624869933972339 0.022092361298549395 0.9944020629248673 -0.05326193032718631 0.0011944954351742949 0.011282014886065684 -0.0010132278807080425 -0.007071371551885802
 0.9944020629248673 -0.05326193032718631 0.004630650094403249 0.022091861853682098 -0.001012668573717341 -0.0070713874871128 0.0011629236901847398 0.011285959824569121
 0.0011944954351742949 0.011282014886065684 -0.001012668573717341 -0.0070713874871128 0.004625252145710058 0.022093407002088436 0.9944021014572237 -0.05326084269908844
 -0.0010132278807080425 -0.007071371551885802 0.0011629236901847398 0.011285959824569121 0.9944021014572237 -0.05326084269908844 0.004630339453525038 0.022092962744171444
0.08753647353064001 0.004976800355686365 0.02391317011004196 0.9939347136151926 -0.05745471356567765 0.0013491759434448348 0.012152079292875848 -0.001141960002480165 -0.007620237838131143
 0.9939347136151926 -0.05745471356567765 0.004983502307396403 0.02391260037858654 -0.0011413133638725286 -0.0076202610755882645 0.0013125453770235311 0.01215675499898218
 0.0013491759434448348 0.012152079292875848 -0.0011413133638725286 -0.0076202610755882645 0.004977243147923439 0.023914291932169113 0.9939347581053913 -0.05745354173350457
 -0.001141960002480165 -0.007620237838131143 0.0013125453770235311 0.01215675499898218 0.9939347581053913 -0.05745354173350457 0.004983141531845283 0.023913786370670202
0.09378907878283 0.00534661559730425 0.025749386951163803 0.9934437498238523 -0.06166099649344182 0.001513913926424782 0.013021847220804924 -0.0012790485576775713 -0.008169113265694646
 0.9934437498238523 -0.06166099649344182 0.005354307554006068 0.02574874133231334 -0.001278308509518118 -0.008169145018680556 0.0014718460336049426 0.013027339136859543
 0.001513913926424782 0.013021847220804924 -0.001278308509518118 -0.008169145018680556 0.005347123387987154 0.025750583965658196 0.9934438007260107 -0.06165974030140129
 -0.0012790485576775713 -0.008169113265694646 0.0014718460336049426 0.013027339136859543 0.9934438007260107 -0.06165974030140129 0.005353892854693041 0.025750012547203147
0.100041684035 0.005734612578363843 0.02760072472324442 0.9929288816415184 -0.0658805998187982 0.0016887878001329302 0.013891175400709945 -0.001424573948663477 -0.00871785626222383
 0.9929288816415184 -0.0658805998187982 0.005743362813945325 0.027599997395843106 -0.001423734461281566 -0.008717897812887792 0.0016409036924373089 0.013897574055272829
 0.0016887878001329302 0.013891175400709945 -0.001423734461281566 -0.008717897812887792 0.005735189774988419 0.027601995938307082 0.9929289394174976 -0.06587925909681588
 -0.001424573948663477 -0.00871785626222383 0.0016409036924373089 0.013897574055272829 0.9929289394174976 -0.06587925909681588 0.005742890392878345 0.027601353967298157
0.1059090909091 0.006115505331668764 0.02935150646873196 0.9924237346791652 -0.06985219404518944 0.0018621746646490006 0.014706417157101376 -0.0015688768207772427 -0.009232544705596531
 0.9924237346791652 -0.06985219404518944 0.0061253108082004945 0.029350696972313847 -0.0015679385793792816 -0.009232596677705476 0.0018084877754707444 0.0147137535986935
 0.0018621746646490006 0.014706417157101376 -0.0015679385793792816 -0.009232596677705476 0.0061161516562945675 0.02935284634986167 0.9924237993323924 -0.06985077383580557
 -0.0015688768207772427 -0.009232544705596531 0.0018084877754707444 0.0147137535986935 0.9924237993323924 -0.06985077383580557 0.006124780758704857 0.029352133772765146
0.1062942892872 0.006141086112901986 0.029466897494032706 0.9923898205798118 -0.07011333173068827 0.0018738736428543677 0.014759917181712686 -0.0015786141803725805 -0.009266322860316006
 0.9923898205798118 -0.07011333173068827 0.006150962973437457 0.02946608241240567 -0.001577669272435151 -0.009266375559580963 0.001819794111840182 0.014767318239209763
 0.0018738736428543677 0.014759917181712686 -0.001577669272435151 -0.009266375559580963 0.006141737110904913 0.029468241849949946 0.9923898856991666 -0.07011190629621697
 -0.0015786141803725805 -0.009266322860316006 0.001819794111840182 0.014767318239209763 0.9923898856991666 -0.07011190629621697 0.006150429023130334 0.02946752448545389
0.11254689453939999 0.006566328812743854 0.03134761925748647 0.991826279743455 -0.07435898911457296 0.0020692450959892148 0.015627922649191505 -0.0017412447762417758 -0.009814366632531981
 0.991826279743455 -0.07435898911457296 0.006577400728738059 0.031346710146711435 -0.001740188514958582 -0.009814431899988542 0.0020085906801748554 0.015636426958670378
 0.0020692450959892148 0.015627922649191505 -0.001740188514958582 -0.009814431899988542 0.006567057995006825 0.03134903562816812 0.991826352684434 -0.07435747877057958
 -0.0017412447762417758 -0.009814366632531981 0.0020085906801748554 0.015636426958670378 0.991826352684434 -0.07435747877057958 0.006576801432086223 0.031348237880231
0.11879949979160001 0.0070106309848443245 0.033242602972246085 0.9912379739976972 -0.07861735849613877 0.0022749732663248966 0.016495038718869003 -0.0019125386922475614 -0.01036183865616857
 0.9912379739976972 -0.07861735849613877 0.007022966483002222 0.033241593323005164 -0.0019113651934754934 -0.010361917979993064 0.0022073643212766844 0.01650475236163915
 0.0022749732663248966 0.016495038718869003 -0.0019113651934754934 -0.010361917979993064 0.007011442720004669 0.03324409016395346 0.991238055247657 -0.07861576303202396
 -0.0019125386922475614 -0.01036183865616857 0.0022073643212766844 0.01650475236163915 0.991238055247657 -0.07861576303202396 0.007022298013410377 0.03324320688931604
0.1250521050438 0.00747428051910744 0.0351515598032476 0.9906246201311593 -0.08288821678849351 0.002491126628915029 0.017361109226838683 -0.0020925662298871515 -0.010908587487827082
 0.9906246201311593 -0.08288821678849351 0.007487948235034002 0.03515044286610064 -0.0020912696584650652 -0.010908682424664492 0.0024161834000202913 0.017372143563001485
 0.002491126628915029 0.017361109226838683 -0.0020912696584650652 -0.010908682424664492 0.007475179160832632 0.035153116552881704 0.9906247101872322 -0.08288653598137213
 -0.0020925662298871515 -0.010908587487827082 0.0024161834000202913 0.017372143563001485 0.9906247101872322 -0.08288653598137213 0.007487206756087454 0.035152142450347645
0.131304710296 0.007957562771788511 0.03707419851655545 0.9899859370149853 -0.08717133189289283 0.0027177709307717153 0.01822597500699773 -0.0022813949482383454 -0.011454459156504882
 0.9899859370149853 -0.08717133189289283 0.00797263146182495 0.03707296729575214 -0.002279969518296221 -0.011454571331353447 0.0026351136283587788 0.018238446720906097
 0.0027177709307717153 0.01822597500699773 -0.002279969518296221 -0.011454571331353447 0.007958552657414422 0.03707582349511831 0.9899860363844686 -0.08716956550379648
 -0.0022813949482383454 -0.011454459156504882 0.0026351136283587788 0.018238446720906097 0.9899860363844686 -0.08716956550379648 0.007971813126885188 0.037074753100299035
0.1375573155481 0.008350142443966408 0.03875818105912455 0.9894323053809133 -0.09121431518592078 0.0029269085845203234 0.019063971151980157 -0.0024511271788398127 -0.011973743235916745
 0.9894323053809133 -0.09121431518592078 0.008366685339212428 0.03875685549698405 -0.002449564233734998 -0.011973872774318226 0.0028363424362727804 0.019077862505648063
 0.0029269085845203234 0.019063971151980157 -0.002449564233734998 -0.011973872774318226 0.008351227270117011 0.038759873167359446 0.9894324144926773 -0.09121246308983226
 -0.0024511271788398127 -0.011973743235916745 0.0028363424362727804 0.019077862505648063 0.9894324144926773 -0.09121246308983226 0.008365787081613786 0.038758727670780334
0.1438099208003 0.00875652419593651 0.04043318002548003 0.9888591918265562 -0.09524695969316313 0.0031445134656117096 0.01989853562402458 -0.002627658534758146 -0.012489929583942575
 0.9888591918265562 -0.09524695969316313 0.008774610881343757 0.04043175484582003 -0.002625951842393093 -0.012490078085963276 0.003045692062942254 0.019913953407001285
 0.0031445134656117096 0.01989853562402458 -0.002625951842393093 -0.012490078085963276 0.00875770816173357 0.04043493790708761 0.9888593111861305 -0.09524502165978209
 -0.002627658534758146 -0.012489929583942575 0.003045692062942254 0.019913953407001285 0.9888593111861305 -0.09524502165978209 0.008773628981283081 0.040433713574574356
0.1500625260525 0.009176563332416027 0.042099052740203445 0.9882667451828911 -0.09926916267272866 0.003370510753772343 0.02072958127895459 -0.0028109171553090304 -0.013002937202314652
 0.9882667451828911 -0.09926916267272866 0.009196263530932124 0.042097522368716854 -0.0028090604963047997 -0.013003106332496997 0.003263089795412626 0.020746636170115983
 0.003370510753772343 0.02072958127895459 -0.0028090604963047997 -0.013003106332496997 0.009177850614075984 0.04210087498528218 0.9882668753046338 -0.09926713846343456
 -0.0028109171553090304 -0.013002937202314652 0.003263089795412626 0.020746636170115983 0.9882668753046338 -0.09926713846343456 0.00919519426814042 0.04209956784546939
0.15631513130469998 0.00961011410916281 0.04375566084103477 0.9876551150615541 -0.10328082180094417 0.0036048247319509707 0.02155702244336613 -0.003000830284260856 -0.013512686820396013
 0.9876551150615541 -0.10328082180094417 0.009631497685955934 0.04375401939879684 -0.002998817452086015 -0.013512878307511394 0.0034884620575707393 0.021575828968832877
