! Created with skrf 1.8.0 (http://scikit-rf.org).
# GHz S RI R 50.0 
!freq ReS11 ImS11 ReS12 ImS12 ReS13 ImS13
! ReS14 ImS14
! ReS21 ImS21 ReS22 ImS22 ReS23 ImS23
! ReS24 ImS24
! ReS31 ImS31 ReS32 ImS32 ReS33 ImS33
! ReS34 ImS34
! ReS41 ImS41 ReS42 ImS42 ReS43 ImS43
! ReS44 ImS44
!
0.0 0.001519654731928 0.0 0.9984803452624 0.0 5.886790839959e-05 0.0 -5.886790839974e-05 7.209239559424118e-21
 0.9984803452624 0.0 0.001519654731933 0.0 -5.886790839964e-05 7.209239559411872e-21 5.886790839985e-05 0.0
 5.886790839959e-05 0.0 -5.886790839964e-05 7.209239559411872e-21 0.001519654734773 0.0 0.9984803452652 0.0
 -5.886790839974e-05 7.209239559424118e-21 5.886790839985e-05 0.0 0.9984803452652 0.0 0.00151965473478 0.0
0.005 0.0016350204033857062 0.001237781522881667 0.998334386628346 -0.0031836973498966846 8.325809091921584e-05 0.0006813574719171132 -8.067626353548036e-05 -0.00042197020718227646
 0.998334386628346 -0.0031836973498966846 0.0016350239178452716 0.0012377793981171164 -8.067641550865182e-05 -0.0004219702545286076 8.324530270593158e-05 0.0006813624608257053
 8.325809091921584e-05 0.0006813574719171132 -8.067641550865182e-05 -0.0004219702545286076 0.0016350210152698294 0.0012378483765282883 0.9983343869801932 -0.003183630291808445
 -8.067626353548036e-05 -0.00042197020718227646 8.324530270593158e-05 0.0006813624608257053 0.9983343869801932 -0.003183630291808445 0.0016350240061288016 0.0012378466584118063
0.006252605252188 0.0016652589288290744 0.0015521240455302976 0.9982958888311262 -0.003980405611366823 9.021534828020789e-05 0.0008520129807167885 -8.682949624665163e-05 -0.0005280168938853506
 0.9982958888311262 -0.003980405611366823 0.0016652644228082128 0.0015521213130342913 -8.682973328822706e-05 -0.0005280169507951221 9.019536919844523e-05 0.000852019439422923
 9.021534828020789e-05 0.0008520129807167885 -8.682973328822706e-05 -0.0005280169507951221 0.0016652598185957746 0.0015522075976850012 0.998295889314012 -0.00398032179612144
 -8.682949624665163e-05 -0.0005280168938853506 9.019536919844523e-05 0.000852019439422923 0.998295889314012 -0.00398032179612144 0.0016652644931473962 0.0015522053861392528
0.01250521050438 0.0018243341365836404 0.003136990625133839 0.9980920286465003 -0.007961662429152767 0.00013005595571226927 0.0017042945738519652 -0.00012172025658178474 -0.0010586363054295713
 0.9980920286465003 -0.007961662429152767 0.0018243560811506457 0.0031369843780129506 -0.00012172119751806219 -0.0010586363935366518 0.00012997632393577883 0.0017043099041529042
 0.00013005595571226927 0.0017042945738519652 -0.00012172119751806219 -0.0010586363935366518 0.0018243371348653367 0.003137157409557874 0.9980920300135995 -0.007961495031369963
 -0.00012172025658178474 -0.0010586363054295713 0.00012997632393577883 0.0017043099041529042 0.9980920300135995 -0.007961495031369963 0.0018243557918831402 0.003137152337883342
0.01875781575657 0.00199722475625081 0.004744589056290957 0.9978685134780888 -0.01195346908599681 0.00017848111842846184 0.002557454038787184 -0.0001636477824446755 -0.00159105129513569
 0.9978685134780888 -0.01195346908599681 0.001997274081177161 0.004744578442910778 -0.00016364989024347004 -0.0015910513813687172 0.00017830232574943332 0.0025574811455217395
 0.00017848111842846184 0.002557454038787184 -0.00016364989024347004 -0.0015910513813687172 0.00199723108187062 0.004744838855681709 0.9978685161260521 -0.011953218203625106
 -0.0001636477824446755 -0.00159105129513569 0.00017830232574943332 0.0025574811455217395 0.9978685161260521 -0.011953218203625106 0.001997272988251341 0.004744830228773589
0.02501042100875 0.0021842651800895387 0.0063726601533657876 0.9976250823071615 -0.015957762436936508 0.00023558357989161052 0.003411537255544327 -0.00021271604551015784 -0.0021250125033922674
 0.9976250823071615 -0.015957762436936508 0.0021843527999165155 0.006372644254072025 -0.00021271978066567137 -0.0021250125470342494 0.00023526615201450868 0.0034115795122103255
 0.00023558357989161052 0.003411537255544327 -0.00021271978066567137 -0.0021250125470342494 0.002184276061643195 0.006372992770531807 0.9976250866378972 -0.01595742811554237
 -0.00021271604551015784 -0.0021250125033922674 0.00023526615201450868 0.0034115795122103255 0.9976250866378972 -0.01595742811554237 0.002184350454400461 0.006372979848109648
0.03126302626094 0.002385775934201038 0.008020041880716592 0.9973614607026744 -0.019975371876486122 0.00030145661471909683 0.004266507677850515 -0.00026902601961188954 -0.0026603472020851216
 0.9973614607026744 -0.019975371876486122 0.0023859127532184212 0.008020019707450124 -0.0002690318407110098 -0.002660347154678067 0.0003009610681640753 0.004266568928094897
 0.00030145661471909683 0.004266507677850515 -0.0002690318407110098 -0.002660347154678067 0.0023857926013137877 0.008020457103339547 0.9973614671145309 -0.01997495414405526
 -0.00026902601961188954 -0.0026603472020851216 0.0003009610681640753 0.004266568928094897 0.9973614671145309 -0.01997495414405526 0.0023859086913375735 0.008020439100038777
0.037515631513130004 0.002602070596186672 0.00968597701109038 0.9970773679555412 -0.0240067116202242 0.00037619308614667745 0.005122296315865379 -0.00033267645729742634 -0.0031969093142313774
 0.9970773679555412 -0.0240067116202242 0.0026022675101341737 0.009685947506925214 -0.0003326848210838839 -0.0031969091194936766 0.00037547990691234857 0.005122380877627034
 0.00037619308614667745 0.005122296315865379 -0.0003326848210838839 -0.0031969091194936766 0.002602094284864667 0.009686474607258279 0.9970773768496188 -0.024006210491249267
 -0.00033267645729742634 -0.0031969093142313774 0.00037547990691234857 0.005122380877627034 0.9970773768496188 -0.024006210491249267 0.002602261259462533 0.009686450692554622
0.043768236765320004 0.0028334584767590156 0.01136990243039895 0.9967725199798861 -0.028051991331367824 0.0004598850049813881 0.005978816928681454 -0.0004037641693082369 -0.003734564223162008
 0.9967725199798861 -0.028051991331367824 0.002833726375596848 0.011369864468913091 -0.0004037755308024943 -0.0037345638169186787 0.00045891463667906986 0.005978929599205748
 0.0004598850049813881 0.005978816928681454 -0.0004037755308024943 -0.0037345638169186787 0.002833490426158819 0.01137048215141326 0.996772531757125 -0.028051406803638393
 -0.0004037641693082369 -0.003734564223162008 0.00045891463667906986 0.005978929599205748 0.996772531757125 -0.028051406803638393 0.002833717451497975 0.011370451449428694
0.050020842017509996 0.003080245857777352 0.013071362070603467 0.9964466307720925 -0.03211130311750167 0.0005526232652815196 0.0068359723064838245 -0.0004823841279908829 -0.0042731824938305905
 0.9964466307720925 -0.03211130311750167 0.0030805956263431165 0.013071314455418776 -0.000482398940501426 -0.0042731818039386665 0.0005513561018512722 0.006836118367741381
 0.0005526232652815196 0.0068359723064838245 -0.000482398940501426 -0.0042731818039386665 0.0030802873130723455 0.013072023642550711 0.9964466458364422 -0.03211063518011631
 -0.0004823841279908829 -0.0042731824938305905 0.0005513561018512722 0.006836118367741381 0.9964466458364422 -0.03211063518011631 0.003080583534784153 0.013071985232108915
0.055454545454549996 0.0033074539216683945 0.014563916573682997 0.9961461121971437 -0.03565037861359656 0.0006406319745870404 0.007581300348879806 -0.0005568967573568877 -0.004741941551301673
 0.9961461121971437 -0.03565037861359656 0.003307883674576017 0.014563859542715534 -0.0005569149356679869 -0.004741940550086122 0.0006390746805494615 0.007581480097999238
 0.0006406319745870404 0.007581300348879806 -0.0005569149356679869 -0.004741940550086122 0.00330750465090657 0.014564649037067744 0.99614613044663 -0.03564963817223619
 -0.0005568967573568877 -0.004741941551301673 0.0006390746805494615 0.007581480097999238 0.99614613044663 -0.03564963817223619 0.0033078684194380666 0.014564603144277545
0.056273447269699996 0.0033427366338617 0.014789964157276576 0.9960994132780118 -0.0361846642139427 0.0006544974573699923 0.007693657351567883 -0.0005686294921173905 -0.004812636798238021
 0.9960994132780118 -0.0361846642139427 0.0033431791535772828 0.014789905621402505 -0.0005686482071956872 -0.004812635744523529 0.0006528938390134574 0.007693842575886471
 0.0006544974573699923 0.007693657351567883 -0.0005686482071956872 -0.004812635744523529 0.0033427888427426593 0.014790707282824674 0.9960994320341952 -0.03618391284507376
 -0.0005686294921173905 -0.004812636798238021 0.0006528938390134574 0.007693842575886471 0.9960994320341952 -0.03618391284507376 0.003343163387996666 0.014790660197232255
0.06252605252188 0.003621232649844945 0.016525357730314837 0.9957305799597843 -0.04027204039642944 0.0007655957199611484 0.008551760772673181 -0.0006625915914383032 -0.00535280023111491
 0.9957305799597843 -0.04027204039642944 0.003621778799403758 0.016525286935550488 -0.0006626146588226403 -0.005352798725305032 0.0007636159307902407 0.008551991428518216
 0.0007655957199611484 0.008551760772673181 -0.0006626146588226403 -0.005352798725305032 0.003621296863888229 0.016526182082901936 0.9957306028145865 -0.04027120556886031
 -0.0006625915914383032 -0.00535280023111491 0.0007636159307902407 0.008551991428518216 0.9957306028145865 -0.04027120556886031 0.0036217588421890525 0.016526125309782966
0.06877865777407 0.0039160338817643735 0.018277218623342646 0.9953398432091388 -0.04437335993897494 0.0008860046133306715 0.009410166099839709 -0.0007643598884948246 -0.005893545309108345
 0.9953398432091388 -0.04437335993897494 0.003916694538627685 0.018277134159628252 -0.0007643877560691742 -0.005893543254764451 0.0008836088805260466 0.009410448957665062
 0.0008860046133306715 0.009410166099839709 -0.0007643877560691742 -0.005893543254764451 0.003916111356167342 0.01827812385432051 0.9953398705723631 -0.04437244161246973
 -0.0007643598884948246 -0.005893545309108345 0.0008836088805260466 0.009410448957665062 0.9953398705723631 -0.04437244161246973 0.003916669860757486 0.018278056335489148
0.07503126302626001 0.004227438520324379 0.02004524059201291 0.9949269156675481 -0.04848852242664616 0.0010158090052647295 0.010268752330281265 -0.0008740219263588107 -0.006434743343209511
 0.9949269156675481 -0.04848852242664616 0.0042282245611444365 0.02004514097679249 -0.000874055040051088 -0.006434740635668006 0.0010129574989835106 0.010269094668457832
 0.0010158090052647295 0.010268752330281265 -0.000874055040051088 -0.006434740635668006 0.004227530513243879 0.020046226323757493 0.9949269479516355 -0.048487520554512345
 -0.0008740219263588107 -0.006434743343209511 0.0010129574989835106 0.010269094668457832 0.9949269479516355 -0.048487520554512345 0.004228194621840822 0.02004614695502784
0.08128386827845 0.004555742994555681 0.021829129401911486 0.9944915104899245 -0.05261740461357495 0.001155091964590765 0.011127394363190851 -0.0009916632670614767 -0.006976264026778826
 0.9944915104899245 -0.05261740461357495 0.0045566652962125125 0.021829013079447776 -0.000991702070750526 -0.006976260553084207 0.0011517447988507316 0.011127803973970207
 0.001155091964590765 0.011127394363190851 -0.000991702070750526 -0.006976260553084207 0.00455585076657096 0.021830195228888623 0.9944915481101574 -0.05261631914124038
 -0.0009916632670614767 -0.006976264026778826 0.0011517447988507316 0.011127803973970207 0.9944915481101574 -0.05261631914124038 0.00455662954257121 0.021830102859867875
0.08753647353064001 0.004901241954026921 0.023628598746963485 0.9940333415703845 -0.056759864455264035 0.0013039346597717419 0.011985963304081856 -0.0011173674237818234 -0.007517975158746175
 0.9940333415703845 -0.056759864455264035 0.004902311394592455 0.023628464087565304 -0.0011174123592073183 -0.007517970797596091 0.001300051893737575 0.0119864484995813
 0.0013039346597717419 0.011985963304081856 -0.0011174123592073183 -0.007517970797596091 0.0049013667679688394 0.02362974423502854 0.9940333849457166 -0.05675869532065115
 -0.0011173674237818234 -0.007517975158746175 0.001300051893737575 0.0119864484995813 0.9940333849457166 -0.05675869532065115 0.004902269261528275 0.02362963766882363
0.09378907878283 0.005264228226241899 0.025443367329573252 0.9935521237462369 -0.06091574398423989 0.001462416261034745 0.012844326690122641 -0.0012512157880998282 -0.008059742450615285
 0.9935521237462369 -0.06091574398423989 0.005265455685466729 0.02544321262895676 -0.0012512672947059503 -0.008059737072305038 0.0014579579008789768 0.01284489630836221
 0.001462416261034745 0.012844326690122641 -0.0012512672947059503 -0.008059737072305038 0.0052643713463555895 0.025444592017770086 0.9935521732989641 -0.060914491115683284
 -0.0012512157880998282 -0.008059742450615285 0.0014579579008789768 0.01284489630836221 0.9935521732989641 -0.060914491115683284 0.005265406595422924 0.02544447001076717
0.100041684035 0.005644992750907755 0.027273156726587654 0.9930475729829835 -0.06508487140561857 0.0016306138441531872 0.013702348661537456 -0.0013932875543963077 -0.008601429392497228
 0.9930475729829835 -0.06508487140561857 0.005646389111340415 0.02727298020500449 -0.001393346069259303 -0.0086014228588602 0.0016255398453368642 0.013703012072420856
 0.0016306138441531872 0.013702348661537456 -0.001393346069259303 -0.0086014228588602 0.005645155443075366 0.027274460124499043 0.993047629139778 -0.06508353472411116
 -0.0013932875543963077 -0.008601429392497228 0.0016255398453368642 0.013703012072420856 0.993047629139778 -0.06508353472411116 0.005646332474318405 0.027274321386079024
0.1059090909091 0.006018726439820487 0.029003634367761637 0.9925526326834327 -0.06900904032012736 0.0017973527527900676 0.014507076877580011 -0.0015341544807503786 -0.009109548426325784
 0.9925526326834327 -0.06900904032012736 0.006020291196763625 0.029003435683004532 -0.0015342199674124922 -0.009109540675294051 0.0017916645794152236 0.014507837303868612
 0.0017973527527900676 0.014507076877580011 -0.0015342199674124922 -0.009109540675294051 0.006018908650247683 0.02900501115407674 0.9925526954291852 -0.06900762491050955
 -0.0015341544807503786 -0.009109548426325784 0.0017916645794152236 0.014507837303868612 0.9925526954291852 -0.06900762491050955 0.006020226929560101 0.029004855498994904
0.1062942892872 0.006043824502031163 0.02911768978081318 0.9925194065494561 -0.06926706267241468 0.0018086022965512134 0.014559890095178043 -0.0015436596410088358 -0.009142897162008107
 0.9925194065494561 -0.06926706267241468 0.006045400649691804 0.029117489582333005 -0.0015437255987147147 -0.009142889326365294 0.0018028725663923138 0.014560657206561241
 0.0018086022965512134 0.014559890095178043 -0.0015437255987147147 -0.009142889326365294 0.006044008032864446 0.029119071368800275 0.9925194697412392 -0.06926564209114812
 -0.0015436596410088358 -0.009142897162008107 0.0018028725663923138 0.014560657206561241 0.9925194697412392 -0.06926564209114812 0.006045335862689 0.029118914560968295
0.11254689453939999 0.006461010397793279 0.030976689377854433 0.9919673431842199 -0.07346212268167 0.0019964542236450703 0.015416808716390236 -0.001702406610196463 -0.009684004560186258
 0.9919673431842199 -0.07346212268167 0.006462777222972417 0.03097646356946481 -0.0017024804426905191 -0.009683995267292952 0.001990028624237248 0.015417689980078848
 0.0019964542236450703 0.015416808716390236 -0.0017024804426905191 -0.009683995267292952 0.00646121603427658 0.03097814860713322 0.9919674138464384 -0.07346061810568862
 -0.001702406610196463 -0.009684004560186258 0.001990028624237248 0.015417689980078848 0.9919674138464384 -0.07346061810568862 0.006462703669872001 0.030977972344193725
0.11879949979160001 0.006896835201461225 0.03284987749335459 0.9913911032553808 -0.07766984620601307 0.002194239856749618 0.016272959193197774 -0.0018696005857941167 -0.010224607970427391
 0.9913911032553808 -0.07766984620601307 0.00689880359925427 0.03284962406416804 -0.0018696827222308967 -0.01022459705643116 0.0021870782081294367 0.016273965610976462
 0.002194239856749618 0.016272959193197774 -0.0018696827222308967 -0.01022459705643116 0.006897064210581105 0.03285141378348499 0.9913911818286892 -0.07766825753446356
 -0.0018696005857941167 -0.010224607970427391 0.0021870782081294367 0.016273965610976462 0.9913911818286892 -0.07766825753446356 0.006898720650994166 0.032851216631642546
0.1250521050438 0.007351581416010719 0.03473697443880612 0.9907904089177726 -0.08189001863303837 0.002402026961196796 0.01712819321798158 -0.0020453111700864312 -0.010764561335387956
 0.9907904089177726 -0.08189001863303837 0.007353762287399333 0.03473669129910554 -0.0020454020366913986 -0.010764548627796905 0.002394089044753834 0.017129336347637837
 0.002402026961196796 0.01712819321798158 -0.0020454020366913986 -0.010764548627796905 0.007351835063974967 0.03473858718184225 0.9907904958479165 -0.08188834575475239
 -0.0020453111700864312 -0.010764561335387956 0.002394089044753834 0.017129336347637837 0.9907904958479165 -0.08188834575475239 0.007353669301200179 0.034738367658752746
0.131304710296 0.007825529172140437 0.03663769826795517 0.9901649842650221 -0.08612241655034548 0.0026198807450200606 0.017982359582925433 -0.002229605359623514 -0.011303716145740023
 0.9901649842650221 -0.08612241655034548 0.007827933424774359 0.036637383248305955 -0.0022297053796478945 -0.01130370146333997 0.002611126307156636 0.017983651544218243
 0.0026198807450200606 0.017982359582925433 -0.0022297053796478945 -0.01130370146333997 0.007825808724254209 0.03663938682486527 0.9901650800035398 -0.08612065934725416
 -0.002229605359623514 -0.011303716145740023 0.002611126307156636 0.017983651544218243 0.9901650800035398 -0.08612065934725416 0.007827829743980106 0.03663914339922558
0.1375573155481 0.008210074995193826 0.03830258509646996 0.9896234787740957 -0.09011751939371264 0.0028203962355952787 0.018809970751144284 -0.002395091644208159 -0.011816597831736619
 0.9896234787740957 -0.09011751939371264 0.008212713232756333 0.03830224343318175 -0.0023952012431012093 -0.011816581146864931 0.002810800684652161 0.01881140980005755
 0.0028203962355952787 0.018809970751144284 -0.0023952012431012093 -0.011816581146864931 0.008210380858485834 0.038304349311445864 0.9896235837219062 -0.09011567782651207
 -0.002395091644208159 -0.011816597831736619 0.002810800684652161 0.01881140980005755 0.9896235837219062 -0.09011567782651207 0.008212599150351507 0.0383040870177356
0.1438099208003 0.00860813110659358 0.039958684668824164 0.9890629508710549 -0.09410250290125174 0.0030290201207068073 0.019634300825150455 -0.0025672092158354354 -0.012326477810581339
 0.9890629508710549 -0.09410250290125174 0.008611014170492587 0.03995831475018515 -0.002567328813246264 -0.012326458949260731 0.003018545988863501 0.019635898131589603
 0.0030290201207068073 0.019634300825150455 -0.002567328813246264 -0.012326458949260731 0.00860846439123397 0.039960523930849846 0.9890630654770262 -0.09410057686078878
 -0.0025672092158354354 -0.012326477810581339 0.003018545988863501 0.019635898131589603 0.9890630654770262 -0.09410057686078878 0.008610889182134469 0.0399602417233272
0.1500625260525 0.00901955743456875 0.041605858669331974 0.9884835447603076 -0.09807726845469276 0.0032456812277765023 0.020455267413501895 -0.002745888832621297 -0.012833277944071384
 0.9884835447603076 -0.09807726845469276 0.009022696165384614 0.041605458810989315 -0.0027460188454436073 -0.012833256725426678 0.003234291194010548 0.020457034572372707
 0.0032456812277765023 0.020455267413501895 -0.0027460188454436073 -0.012833256725426678 0.00901991923968235 0.041607772345538876 0.9884836694777775 -0.09807525782650735
 -0.002745888832621297 -0.012833277944071384 0.003234291194010548 0.020457034572372707 0.9884836694777775 -0.09807525782650735 0.009022559764564468 0.041607469126853355
0.15631513130469998 0.009444212909739994 0.04324397296922513 0.9878854053850907 -0.10204171777669013 0.0034703075448654142 0.021272789507077536 -0.002931060398577295 -0.013336921747232123
