! Created with skrf 1.8.0 (http://scikit-rf.org).
# GHz S RI R 50.0 
!freq ReS11 ImS11 ReS12 ImS12 ReS13 ImS13
! ReS14 ImS14
! ReS21 ImS21 ReS22 ImS22 ReS23 ImS23
! ReS24 ImS24
! ReS31 ImS31 ReS32 ImS32 ReS33 ImS33
! ReS34 ImS34
! ReS41 ImS41 ReS42 ImS42 ReS43 ImS43
! ReS44 ImS44
!
0.0 0.001209509025681 0.0 0.9987904909697 0.0 4.605617643936e-05 0.0 -4.605617607311e-05 5.6402548608901074e-21
 0.9987904909697 0.0 0.001209509025711 0.0 -4.605617607358e-05 5.640254860947666e-21 4.605617644001e-05 0.0
 4.605617643936e-05 0.0 -4.605617607358e-05 5.640254860947666e-21 0.001209509025875 0.0 0.9987904909699 0.0
 -4.605617607311e-05 5.6402548608901074e-21 4.605617644001e-05 0.0 0.9987904909699 0.0 0.001209509025882 0.0
0.005 0.0013005454531631086 0.0009906824066770613 0.9986754378785812 -0.00253451506833452 6.39952326898684e-05 0.000503697707452291 -6.223988855227935e-05 -0.00031695619368503325
 0.9986754378785812 -0.00253451506833452 0.001300555218885956 0.0009906767520210114 -6.223924432219993e-05 -0.000316955758742143 6.394160151404646e-05 0.0005037181860363294
 6.39952326898684e-05 0.000503697707452291 -6.223924432219993e-05 -0.000316955758742143 0.0013005451556209356 0.000990615366954051 0.998675437559154 -0.0025345821419029643
 -6.223988855227935e-05 -0.00031695619368503325 6.394160151404646e-05 0.0005037181860363294 0.998675437559154 -0.0025345821419029643 0.001300554882709052 0.0009906096497248375
0.006252605252188 0.0013241946533799032 0.0012422789187934759 0.9986453969211488 -0.0031687984801438544 6.899695791141373e-05 0.0006298818887466425 -6.67050414887006e-05 -0.00039661711656741754
 0.9986453969211488 -0.0031687984801438544 0.0013242099182759952 0.001242271713232219 -6.670403851943043e-05 -0.00039661658125687816 6.891316378173432e-05 0.0006299084391766186
 6.899695791141373e-05 0.0006298818887466425 -6.670403851943043e-05 -0.00039661658125687816 0.00132419424175666 0.0012421951577613413 0.9986453964756037 -0.0031688822912148895
 -6.67050414887006e-05 -0.00039661711656741754 6.891316378173432e-05 0.0006299084391766186 0.9986453964756037 -0.0031688822912148895 0.0013242094470026626 0.0012421878634341606
0.01250521050438 0.0014473680798915416 0.0025108922426784527 0.9984880679583314 -0.006338591777651051 9.702883151991077e-05 0.0012602023551437458 -9.148081270317557e-05 -0.0007952940988376101
 0.9984880679583314 -0.006338591777651051 0.001447429023546886 0.0025108764478000275 -9.147685384737657e-05 -0.0007952931191016126 9.669468195113496e-05 0.0012602655929045254
 9.702883151991077e-05 0.0012602023551437458 -9.147685384737657e-05 -0.0007952931191016126 0.0014473670096108338 0.002510725031238182 0.9984880667566866 -0.006338759184113535
 -9.148081270317557e-05 -0.0007952940988376101 9.669468195113496e-05 0.0012602655929045254 0.9984880667566866 -0.006338759184113535 0.0014474277282958469 0.0025107089507718965
0.01875781575657 0.0015792508406874248 0.0037979197976753675 0.9983183426359246 -0.009517140690417649 0.00013020889300120796 0.0018914068727555703 -0.00012044936762257442 -0.0011954900355103902
 0.9983183426359246 -0.009517140690417649 0.001579387765986942 0.003797893937191223 -0.00012044053018483215 -0.001195488717945593 0.0001294582625222475 0.0018915186007517739
 0.00013020889300120796 0.0018914068727555703 -0.00012044053018483215 -0.001195488717945593 0.0015792488455736637 0.0037976693531117283 0.9983183403536032 -0.009517391613699007
 -0.00012044936762257442 -0.0011954900355103902 0.0001294582625222475 0.0018915186007517739 0.9983183403536032 -0.009517391613699007 0.001579385291864753 0.003797642896687087
0.02501042100875 0.0017200602983048993 0.005101609367276052 0.9981360545375978 -0.012706032843824537 0.00016859521077808743 0.0025235495754308613 -0.00015367517536456934 -0.001597052573424269
 0.9981360545375978 -0.012706032843824537 0.0017203034341860077 0.005101571881266998 -0.00015365955626174332 -0.0015970510421745817 0.0001672618925118115 0.002523723182025079
 0.00016859521077808743 0.0025235495754308613 -0.00015365955626174332 -0.0015970510421745817 0.0017200571156075505 0.005101275906962575 0.9981360508566823 -0.01270636724964169
 -0.00015367517536456934 -0.001597052573424269 0.0001672618925118115 0.002523723182025079 0.9981360508566823 -0.01270636724964169 0.0017202994453803383 0.005101237394745041
0.03126302626094 0.0018700044796690573 0.006421083060072928 0.9979410271982145 -0.015905976297554966 0.00021224658309697657 0.0031566278392736236 -0.00019122129936645688 -0.001999883289367153
 0.9979410271982145 -0.015905976297554966 0.0018703839958928731 0.006421032306562911 -0.00019119701163499434 -0.0019998816864066275 0.00021016412164906006 0.003156878305043449
 0.00021224658309697657 0.0031566278392736236 -0.00019119701163499434 -0.0019998816864066275 0.0018699998378514395 0.0064206668086453055 0.9979410217939999 -0.01590639418905915
 -0.00019122129936645688 -0.001999883289367153 0.00021016412164906006 0.003156878305043449 0.9979410217939999 -0.01590639418905915 0.0018703781624808526 0.0064206144721664785
0.037515631513130004 0.002029287080003813 0.007755786536571341 0.9977330791933752 -0.019117350274323167 0.00026122196262500186 0.003790617051022988 -0.00023314986851035642 -0.002403902907130381
 0.9977330791933752 -0.019117350274323167 0.002029833096004197 0.007755720792209002 -0.00023311503949647068 -0.002403901392392896 0.0002582235732564526 0.0037909609642816358
 0.00026122196262500186 0.003790617051022988 -0.00023311503949647068 -0.002403901392392896 0.0020292807085814284 0.007755287740597905 0.9977330717434612 -0.019117851677751076
 -0.00023314986851035642 -0.002403902907130381 0.0002582235732564526 0.0037909609642816358 0.9977330717434612 -0.019117851677751076 0.002029825103448241 0.00775521972322364
0.043768236765320004 0.0021981094136038237 0.009105321392691428 0.9975120261780818 -0.022340372726219315 0.00031558019869439474 0.0044254811742579 -0.00027952225519426035 -0.0028090407182207555
 0.9975120261780818 -0.022340372726219315 0.0021988520048834117 0.009105238853283978 -0.0002794750254756296 -0.002809039469686757 0.0003114987230408892 0.004425936749409461
 0.00031558019869439474 0.0044254811742579 -0.0002794750254756296 -0.002809039469686757 0.0021981010376941556 0.00910474032564702 0.997512016355812 -0.022340957686273012
 -0.00027952225519426035 -0.0028090407182207555 0.0003114987230408892 0.004425936749409461 0.997512016355812 -0.022340957686273012 0.002198841548283267 0.009104654682886563
0.050020842017509996 0.0023766713208038847 0.010469375900554962 0.9972776818834584 -0.02557516954192562 0.0003753798911476536 0.005061177109951247 -0.0003303991494650667 -0.0032152302090681937
 0.9972776818834584 -0.02557516954192562 0.0023776405246125447 0.010469274681335624 -0.00033033767223531184 -0.0032152294228312336 0.00037004777255000187 0.005061764207001238
 0.0003753798911476536 0.005061177109951247 -0.00033033767223531184 -0.0032152294228312336 0.0023766606636464235 0.010468712868145318 0.9972776693592649 -0.025575838116676363
 -0.0003303991494650667 -0.0032152302090681937 0.00037004777255000187 0.005061764207001238 0.9972776693592649 -0.025575838116676363 0.002377627310459707 0.010468607567828447
0.055454545454549996 0.002539911210911629 0.011666370193021476 0.9970630897598738 -0.02839592193612459 0.000431812014931581 0.005614254471524384 -0.00037831756764510136 -0.0035690251856989566
 0.9970630897598738 -0.02839592193612459 0.002541101715281892 0.011666251147408224 -0.00037824221847477255 -0.0035690249745773555 0.00042525665377828064 0.005614973287029113
 0.000431812014931581 0.005614254471524384 -0.00037824221847477255 -0.0035690249745773555 0.002539898345395418 0.011665636199845635 0.9970630746175163 -0.02839666323615333
 -0.00037831756764510136 -0.0035690251856989566 0.00042525665377828064 0.005614973287029113 0.9970630746175163 -0.02839666323615333 0.0025410858757354124 0.011665512098011819
0.056273447269699996 0.0025651716517264313 0.011847691006719245 0.9970298586914366 -0.028821808495962862 0.0004406792915389142 0.005697656828958244 -0.00038584058908321426 -0.0036224069171758417
 0.9970298586914366 -0.028821808495962862 0.0025663974713570565 0.011847569142568015 -0.00038576302964652185 -0.003622406807504745 0.00043392856176072315 0.005698396973634242
 0.0004406792915389142 0.005697656828958244 -0.00038576302964652185 -0.003622406807504745 0.002565158435504818 0.011846946339540495 0.9970298431330034 -0.028822560764640612
 -0.00038584058908321426 -0.0036224069171758417 0.00043392856176072315 0.005698396973634242 0.9970298431330034 -0.028822560764640612 0.0025663812185722193 0.011846819261779643
0.06252605252188 0.0027638085366061904 0.013240041639975237 0.9967683679992486 -0.03208031788883189 0.0005115362279950123 0.00633486854845204 -0.0004459059667100393 -0.004030507244381058
 0.9967683679992486 -0.03208031788883189 0.0027653209460055646 0.013239897085537746 -0.00044581050224589867 -0.0040305080437656494 0.0005031985015980493 0.006335784952664826
 0.0005115362279950123 0.00633486854845204 -0.00044581050224589867 -0.0040305080437656494 0.002763792482769332 0.013239215700928047 0.9967683490704397 -0.03208115394448618
 -0.0004459059667100393 -0.004030507244381058 0.0005031985015980493 0.006335784952664826 0.9967683490704397 -0.03208115394448618 0.0027653013853889065 0.01323906463813736
0.06877865777407 0.002972779543547048 0.01464622556906001 0.9964930204716741 -0.03535069763763883 0.0005880080456612233 0.006972757422945818 -0.000510654021886963 -0.004439467756691795
 0.9964930204716741 -0.03535069763763883 0.002974608490929968 0.014646056198794005 -0.0005105388412178198 -0.004439469715902775 0.0005779145195801979 0.006973875005422983
 0.0005880080456612233 0.006972757422945818 -0.0005105388412178198 -0.004439469715902775 0.0029727603730947904 0.014645318751864825 0.9964929978320562 -0.035351617589088405
 -0.000510654021886963 -0.004439467756691795 0.0005779145195801979 0.006973875005422983 0.9964929978320562 -0.035351617589088405 0.0029745853655297597 0.014645141408616127
0.07503126302626001 0.003192281768493277 0.01606605633504756 0.9962036262291426 -0.038632926293404084 0.0006701515535512837 0.00761126598885827 -0.0005801428261673286 -0.0048492247318804175
 0.9962036262291426 -0.038632926293404084 0.0031944571804350032 0.01606585994310519 -0.0005800061296662983 -0.00484922812000553 0.0006581330106484277 0.007612611395858849
 0.0006701515535512837 0.00761126598885827 -0.0005800061296662983 -0.00484922812000553 0.0031922592033364447 0.016065069060167803 0.9962035995339881 -0.0386339302694439
 -0.0005801428261673286 -0.0048492247318804175 0.0006581330106484277 0.007612611395858849 0.9962035995339881 -0.0386339302694439 0.0031944302463937247 0.016064863052966154
0.08128386827845 0.0034225118853278332 0.017499358542442667 0.9958999949960586 -0.041926965700554354 0.0007580229765519228 0.00825033445073651 -0.0006544297627717421 -0.005259713866727597
 0.9958999949960586 -0.041926965700554354 0.0034250636702762758 0.017499132842592094 -0.0006542697622814149 -0.005259718971222333 0.0007439097920145005 0.008251936076815349
 0.0007580229765519228 0.00825033445073651 -0.0006542697622814149 -0.005259718971222333 0.0034224856478580414 0.01749829126916733 0.9958999638953543 -0.041928053838119
 -0.0006544297627717421 -0.005259713866727597 0.0007439097920145005 0.008251936076815349 0.9958999638953543 -0.041928053838119 0.0034250326962096114 0.017498054126212834
0.08753647353064001 0.0036636661656846655 0.01894596461670126 0.9955819362219898 -0.04523276419143028 0.0008516779109891824 0.008889900885048575 -0.0007335715019059342 -0.005670870068158456
 0.9955819362219898 -0.04523276419143028 0.003666624217675406 0.018945707242074988 -0.000733386420744319 -0.005670877194882353 0.0008353000611710888 0.008891788893798151
 0.0008516779109891824 0.008889900885048575 -0.000733386420744319 -0.005670877194882353 0.003663635980498172 0.018944817828880724 0.995581900360646 -0.045233936650107845
 -0.0007335715019059342 -0.005670870068158456 0.0008353000611710888 0.008891788893798151 0.995581900360646 -0.045233936650107845 0.0036665889858619044 0.018944546989676916
0.09378907878283 0.003915940483041501 0.020405712466774074 0.9952492591886274 -0.048550258877259174 0.0009511712816226983 0.0095299013819524 -0.0008176239740864496 -0.006082627307862318
 0.9952492591886274 -0.048550258877259174 0.003919334685302081 0.020405420969583376 -0.0008174120470231626 -0.006082636781117684 0.0009323583547733573 0.009532107726695877
 0.0009511712816226983 0.0095299013819524 -0.0008174120470231626 -0.006082636781117684 0.0039159060767692 0.02040448668493485 0.9952492182052323 -0.04855151582735784
 -0.0008176239740864496 -0.006082627307862318 0.0009323583547733573 0.009532107726695877 0.9952492182052323 -0.04855151582735784 0.003919294991516964 0.02040417949983273
0.100041684035 0.00417953030129539 0.021878443783541 0.9949017731024234 -0.05187937730465103 0.0010565573004763659 0.010170270150373105 -0.0009066423408319566 -0.006494918515146635
 0.9949017731024234 -0.05187937730465103 0.004183390529581512 0.02187811563468767 -0.0009064018141470697 -0.00649493067771574 0.0010351385090561975 0.010172828594792868
 0.0010565573004763659 0.010170270150373105 -0.0009064018141470697 -0.00649493067771574 0.00417949140388926 0.02187713955848433 0.994901726629633 -0.05188071893377087
 -0.0009066423408319566 -0.006494918515146635 0.0010351385090561975 0.010172828594792868 0.994901726629633 -0.05188071893377087 0.004183346183922408 0.021876793288196136
0.1059090909091 0.004437346452248511 0.023272115414324984 0.9945620556483833 -0.055013901670771005 0.0011608578304344158 0.010771463072939745 -0.0009947414984982491 -0.0068822349906145445
 0.9945620556483833 -0.055013901670771005 0.004441671165094302 0.023271750498652898 -0.0009944725494457278 -0.006882250005063729 0.0011368380595058695 0.010774384263955534
 0.0011608578304344158 0.010771463072939745 -0.0009944725494457278 -0.006882250005063729 0.004437303097966347 0.023270738109253456 0.9945620036840619 -0.05501532294555906
 -0.0009947414984982491 -0.0068822349906145445 0.0011368380595058695 0.010774384263955534 0.9945620036840619 -0.05501532294555906 0.004441622293920444 0.02327035258989574
0.1062942892872 0.0044546306539440875 0.02336400275042837 0.9945392871806955 -0.055220038701811684 0.0011678894262655598 0.01081093959854288 -0.0010006809639829873 -0.006907675495926399
 0.9945392871806955 -0.055220038701811684 0.004458986780585281 0.023363635338924448 -0.0010004100955520881 -0.00690769070910058 0.001143693620747861 0.010813885737223965
 0.0011678894262655598 0.01081093959854288 -0.0010004100955520881 -0.00690769070910058 0.00445458699894363 0.02336262066726865 0.9945392348441937 -0.05522146521087968
 -0.0010006809639829873 -0.006907675495926399 0.001143693620747861 0.010813885737223965 0.9945392348441937 -0.05522146521087968 0.004458937607219871 0.023362232482232664
0.11254689453939999 0.004741436116503424 0.02486223506352576 0.9941616107316397 -0.05857215491657789 0.001285220324306254 0.011451840392861139 -0.0010997933739920456 -0.007320828875024846
 0.9941616107316397 -0.05857215491657789 0.004746318013359633 0.0248618256960826 -0.001099490433309234 -0.007320847518634763 0.0012580760080408856 0.01145521167168991
 0.001285220324306254 0.011451840392861139 -0.001099490433309234 -0.007320847518634763 0.0047413874416673794 0.024860775737738348 0.9941615521496833 -0.05857366652406652
 -0.0010997933739920456 -0.007320828875024846 0.0012580760080408856 0.01145521167168991 0.9941615521496833 -0.05857366652406652 0.004746263851279121 0.024860342717400213
0.11879949979160001 0.0050401407717657306 0.026372987152327144 0.993768553229894 -0.061935631156128164 0.0014086018271231503 0.012092901508920112 -0.0012040322365023538 -0.0077343080480503845
 0.993768553229894 -0.061935631156128164 0.005045578314273832 0.02637253305252366 -0.0012036955048266838 -0.0077343305204887036 0.0013783371724857027 0.012096737245350006
 0.0014086018271231503 0.012092901508920112 -0.0012036955048266838 -0.0077343305204887036 0.005040086820282516 0.02637145123511394 0.9937684880133799 -0.06193722809270583
 -0.0012040322365023538 -0.0077343080480503845 0.0013783371724857027 0.012096737245350006 0.9937684880133799 -0.06193722809270583 0.005045519017817807 0.026370970367157517
0.1250521050438 0.005350938171497877 0.0278961055822298 0.9933599243895402 -0.06531036654645009 0.0015380848949201051 0.012734050268091768 -0.0013134493186467706 -0.008148041149319529
 0.9933599243895402 -0.06531036654645009 0.005356961242108786 0.027895603889785247 -0.0013130770890925003 -0.008148067867566776 0.0015045277602747337 0.012738391671322494
 0.0015380848949201051 0.012734050268091768 -0.0013130770890925003 -0.008148067867566776 0.0053508786921775105 0.02789449375508401 0.9933598521409449 -0.06531204906052834
 -0.0013134493186467706 -0.008148041149319529 0.0015045277602747337 0.012738391671322494 0.9933598521409449 -0.06531204906052834 0.005356896681006808 0.027893961934523818
0.131304710296 0.005674021294001864 0.029431436550345635 0.9929355342352089 -0.06869625460061293 0.0016737195762776965 0.013375212374027026 -0.0014280954542737678 -0.00856195502183373
 0.9929355342352089 -0.06869625460061293 0.00568065978569975 0.029430884320296755 -0.0014276860319070999 -0.008561986421476663 0.0016366975239618434 0.0133801025649432
 0.0016737195762776965 0.013375212374027026 -0.0014276860319070999 -0.008561986421476663 0.005673956042108007 0.029429749529633446 0.9929354545483278 -0.06869802295379791
 -0.0014280954542737678 -0.00856195502183373 0.0016366975239618434 0.0133801025649432 0.9929354545483278 -0.06869802295379791 0.005680589845727192 0.029429163557797965
0.1375573155481 0.005928084614266784 0.030778154996237463 0.9925767099785545 -0.0718924631385063 0.0017965229693697952 0.01399556415605421 -0.0015290317747549147 -0.008955205412768666
 0.9925767099785545 -0.0718924631385063 0.005935371392450384 0.030777562747180534 -0.001528582856250901 -0.008955241461485847 0.0017559467102723784 0.014000989611461378
 0.0017965229693697952 0.01399556415605421 -0.001528582856250901 -0.008955241461485847 0.005928014057853927 0.030776393034598983 0.992576622516916 -0.07189431748986184
 -0.0015290317747549147 -0.008955205412768666 0.0017559467102723784 0.014000989611461378 0.992576622516916 -0.07189431748986184 0.0059352951251117605 0.030775763943915926
0.1438099208003 0.006190814990607747 0.0321189626950438 0.9922057525674856 -0.07508176728842372 0.0019242867271243047 0.014614090192000204 -0.001634015431347719 -0.00934679850448714
 0.9922057525674856 -0.07508176728842372 0.006198780444594201 0.03211832843291503 -0.0016335252292153212 -0.009346839619607372 0.00187999847558708 0.014620089740729807
 0.0019242867271243047 0.014614090192000204 -0.0016335252292153212 -0.009346839619607372 0.00619073902394146 0.03211712649760716 0.992205656926486 -0.07508370789689385
 -0.001634015431347719 -0.00934679850448714 0.00187999847558708 0.014620089740729807 0.992205656926486 -0.07508370789689385 0.006198697607409783 0.032116452116426296
0.1500625260525 0.006462134221859074 0.033453782919526366 0.9918227429923158 -0.07826412374765279 0.002056975339886154 0.015230750057772677 -0.0017430121807940461 -0.00973669573754371
 0.9918227429923158 -0.07826412374765279 0.006470808776157372 0.03345310454605929 -0.001742478911597431 -0.009736742352849093 0.002008817998982612 0.015237363935308418
 0.002056975339886154 0.015230750057772677 -0.001742478911597431 -0.009736742352849093 0.006462052754055593 0.03345187321766617 0.9918226387598801 -0.0782661508836865
 -0.0017430121807940461 -0.00973669573754371 0.002008817998982612 0.015237363935308418 0.9918226387598801 -0.0782661508836865 0.006470719131917839 0.03345115126553623
0.15631513130469998 0.006741963717333598 0.034782541476549786 0.9914277624710388 -0.08143948870793874 0.0021945529773569256 0.015845503868700452 -0.0018559874488730146 -0.010124859275441106
