! Created with skrf 1.8.0 (http://scikit-rf.org).
# GHz S RI R 50.0 
!freq ReS11 ImS11 ReS12 ImS12 ReS13 ImS13
! ReS14 ImS14
! ReS21 ImS21 ReS22 ImS22 ReS23 ImS23
! ReS24 ImS24
! ReS31 ImS31 ReS32 ImS32 ReS33 ImS33
! ReS34 ImS34
! ReS41 ImS41 ReS42 ImS42 ReS43 ImS43
! ReS44 ImS44
!
0.0 0.001580020166233 0.0 0.9984199798275 0.0 6.123454363968e-05 0.0 -6.123454335663e-05 7.499068751894675e-21
 0.9984199798275 0.0 0.001580020166257 0.0 -6.123454335748e-05 7.49906875199877e-21 6.123454364064e-05 0.0
 6.123454363968e-05 0.0 -6.123454335748e-05 7.49906875199877e-21 0.001580020169363 0.0 0.9984199798306 0.0
 -6.123454335663e-05 7.499068751894675e-21 6.123454364064e-05 0.0 0.9984199798306 0.0 0.001580020169339 0.0
0.005 0.0017001350142865847 0.0012881884327411886 0.9982679928267031 -0.0033098794195994007 8.64849537949741e-05 0.0007003739215599027 -8.385208371217803e-05 -0.00043510271835057264
 0.9982679928267031 -0.0033098794195994007 0.0017001316681714846 0.0012881904572386526 -8.38520997564261e-05 -0.0004351027993921115 8.649826625519978e-05 0.0007003687712347711
 8.64849537949741e-05 0.0007003739215599027 -8.38520997564261e-05 -0.0004351027993921115 0.0017001350287824536 0.00128825574078307 0.9982679931911344 -0.003309812363463385
 -8.385208371217803e-05 -0.00043510271835057264 8.649826625519978e-05 0.0007003687712347711 0.9982679931911344 -0.003309812363463385 0.0017001323770351846 0.0012882572566612802
0.006252605252188 0.0017316721830225052 0.0016153181302011332 0.9982278302597936 -0.004138155243683528 9.371243184145936e-05 0.0008757928586455416 -9.025713368720371e-05 -0.0005444446581287474
 0.9982278302597936 -0.004138155243683528 0.0017316669520502721 0.0016153207242905706 -9.025715811006973e-05 -0.000544444759515484 9.373323039061767e-05 0.0008757861830013631
 9.371243184145936e-05 0.0008757928586455416 -9.025715811006973e-05 -0.000544444759515484 0.001731672127512628 0.0016154022693206295 0.9982278307517679 -0.0041380714235063655
 -9.025713368720371e-05 -0.0005444446581287474 9.373323039061767e-05 0.0008757861830013631 0.9982278307517679 -0.0041380714235063655 0.001731667982855651 0.00161540421474411
0.01250521050438 0.0018978924837528702 0.0032645805248446894 0.998014726246014 -0.008277098572962245 0.0001352321469957766 0.001751854915691641 -0.0001267019554731529 -0.0010915293486406543
 0.998014726246014 -0.008277098572962245 0.001897871588323092 0.0032645863629729615 -0.0001267020450607792 -0.0010915295532163576 0.0001353150588466329 0.0017518389863511448
 0.0001352321469957766 0.001751854915691641 -0.0001267020450607792 -0.0010915295532163576 0.0018978916892995437 0.0032647485953011396 0.9980147276482689 -0.008276931169817519
 -0.0001267019554731529 -0.0010915293486406543 0.0001353150588466329 0.0017518389863511448 0.9980147276482689 -0.008276931169817519 0.0018978751472478546 0.0032647529976098317
0.01875781575657 0.002079051748866598 0.004937369816475878 0.997780397412196 -0.012426898958339292 0.00018589106164004635 0.002628795194049028 -0.00017068345786189635 -0.0016404251707337824
 0.997780397412196 -0.012426898958339292 0.00207900477930959 0.004937379611869291 -0.00017068364838487566 -0.0016404254831380687 0.00018607724890457153 0.0026287669031766466
 0.00018589106164004635 0.002628795194049028 -0.00017068364838487566 -0.0016404254831380687 0.0020790495190291442 0.004937621744281714 0.9977804001399864 -0.012426648049692774
 -0.00017068345786189635 -0.0016404251707337824 0.00018607724890457153 0.0026287669031766466 0.9977804001399864 -0.012426648049692774 0.0020790123629745 0.004937629150052641
0.02501042100875 0.0022755092666578336 0.006631325495518182 0.997524562542748 -0.016589557022153388 0.0002457877401239552 0.0035066501636995544 -0.0002223120609066111 -0.0021908693170774925
 0.997524562542748 -0.016589557022153388 0.002275425825077759 0.006631340022524926 -0.00022231238469288305 -0.0021908697445831345 0.0002461183419830911 0.0035066058957937928
 0.0002457877401239552 0.0035066501636995544 -0.00022231238469288305 -0.0021908697445831345 0.002275504896752002 0.006631661225710897 0.9975245670153561 -0.016589222640194627
 -0.0002223120609066111 -0.0021908693170774925 0.0002461183419830911 0.0035066058957937928 0.9975245670153561 -0.016589222640194627 0.00227543893592999 0.006631672214743745
0.03126302626094 0.0024876094461408873 0.008345227075057995 0.9972469263749987 -0.020765921844145958 0.00031502108981947344 0.004385372306933452 -0.0002816948683804417 -0.0027426765436952354
 0.9972469263749987 -0.020765921844145958 0.0024874791420327956 0.008345247169328837 -0.00028169535490707556 -0.0027426770962410444 0.00031553726266171194 0.0043853079370214975
 0.00031502108981947344 0.004385372306933452 -0.00028169535490707556 -0.0027426770962410444 0.002487602217540382 0.008345646560661852 0.9972469330112116 -0.020765503986793235
 -0.0002816948683804417 -0.0027426765436952354 0.00031553726266171194 0.0043853079370214975 0.9972469330112116 -0.020765503986793235 0.002487499282893174 0.008345661745781942
0.037515631513130004 0.0027156891302217833 0.010078274432209065 0.9969471871660662 -0.02495641055908853 0.0003936893841467503 0.005264880893723132 -0.0003489364766647647 -0.0032956884053146353
 0.9969471871660662 -0.02495641055908853 0.0027155015778494397 0.010078300991172113 -0.00034893715291591133 -0.003295689095565922 0.0003944323195190766 0.0052647917830664455
 0.0003936893841467503 0.005264880893723132 -0.00034893715291591133 -0.003295689095565922 0.0027156783152722823 0.010078777610791576 0.9969471963898986 -0.024955909213474486
 -0.0003489364766647647 -0.0032956884053146353 0.0003944323195190766 0.0052647917830664455 0.9969471963898986 -0.024955909213474486 0.002715530256884807 0.01007879763782203
0.043768236765320004 0.0029600804263955004 0.011829868796664488 0.9966250397772336 -0.029161227298226535 0.0004818898023762021 0.0061450774135330495 -0.0004241392588553985 -0.003849757832341907
 0.9966250397772336 -0.029161227298226535 0.00295982524286803 0.011829902779882308 -0.0004241401495663134 -0.0038497586757503077 0.0004829007354044014 0.006144958404532673
 0.0004818898023762021 0.0061450774135330495 -0.0004241401495663134 -0.0038497586757503077 0.0029600652822266045 0.011830455607625731 0.9966250520127002 -0.029160642423393692
 -0.0004241392588553985 -0.003849757832341907 0.0004829007354044014 0.006144958404532673 0.9966250520127002 -0.029160642423393692 0.0029598639672685887 0.01183048115533536
0.050020842017509996 0.0032211120068402327 0.01359952226679055 0.9962801772308794 -0.033380453601595285 0.00057971814923365 0.007025851966188167 -0.0005074034647201312 -0.0044047427507680585
 0.9962801772308794 -0.033380453601595285 0.0032207788108523767 0.013599564696594032 -0.0005074045926205811 -0.004404743765645604 0.0005810383620643492 0.007025697377000112
 0.00057971814923365 0.007025851966188167 -0.0005074045926205811 -0.004404743765645604 0.0032210917788234004 0.013600192632425474 0.9962801929064963 -0.03337978514755957
 -0.0005074034647201312 -0.0044047427507680585 0.0005810383620643492 0.007025697377000112 0.9962801929064963 -0.03337978514755957 0.0032208290897935603 0.013600224412525468
0.055454545454549996 0.0034617234855010663 0.015151742435300337 0.9959617946349013 -0.037058795492728835 0.0006726262272312316 0.00779164957296107 -0.0005863857218958647 -0.004887676062942348
 0.9959617946349013 -0.037058795492728835 0.003461314063487917 0.01515179308485973 -0.0005863870729208433 -0.0048876772439604066 0.0006742487765793169 0.007791459037850698
 0.0006726262272312316 0.00779164957296107 -0.0005863870729208433 -0.0048876772439604066 0.003461698216050215 0.015152485345623131 0.9959618136507703 -0.037058054348764025
 -0.0005863857218958647 -0.004887676062942348 0.0006742487765793169 0.007791459037850698 0.9959618136507703 -0.037058054348764025 0.0034613756095575312 0.015152523145544395
0.056273447269699996 0.0034991097790466586 0.015386813356322032 0.9959122916420601 -0.03761409280153476 0.0006872686532218511 0.007907086385619544 -0.0005988272389556427 -0.00496050297281604
 0.9959122916420601 -0.03761409280153476 0.003498688189418339 0.015386865318349383 -0.0005988286249007763 -0.004960504180386847 0.0006889394754442333 0.00790689000462717
 0.0006872686532218511 0.007907086385619544 -0.0005988286249007763 -0.004960504180386847 0.0034990836989989976 0.01538756719488549 0.9959123111897358 -0.037613340696305377
 -0.0005988272389556427 -0.00496050297281604 0.0006889394754442333 0.00790689000462717 0.9959123111897358 -0.037613340696305377 0.003498751532455002 0.015387605952140431
0.06252605252188 0.0037943972362318467 0.017191362603221863 0.9955210748332016 -0.04186209434768588 0.0008046338048196063 0.008788655972530745 -0.000698506597047716 -0.005516898482983915
 0.9955210748332016 -0.04186209434768588 0.0037938768707816086 0.017191425246994546 -0.000698508260167695 -0.0055168999074473 0.0008066966117942371 0.008788411052758743
 0.0008046338048196063 0.008788655972530745 -0.000698508260167695 -0.0055168999074473 0.0037943645220268915 0.0171921998201445 0.9955210986894842 -0.04186125850608535
 -0.000698506597047716 -0.005516898482983915 0.0008066966117942371 0.008788411052758743 0.9955210986894842 -0.04186125850608535 0.0037939547871303687 0.017192246332461525
0.06877865777407 0.004107295637876817 0.01901281799121884 0.9951062187841268 -0.04612436832354494 0.0009319042166742075 0.009670430525480195 -0.0008065353768128624 -0.0060737884305290405
 0.9951062187841268 -0.04612436832354494 0.004106666112588705 0.019012892530861095 -0.0008065373346993561 -0.006073790099128837 0.0009344004266413489 0.009670129779005542
 0.0009319042166742075 0.009670430525480195 -0.0008065373346993561 -0.006073790099128837 0.004107255493500885 0.01901373848335781 0.9951062473904531 -0.046123448643177314
 -0.0008065353768128624 -0.0060737884305290405 0.0009344004266413489 0.009670129779005542 0.9951062473904531 -0.046123448643177314 0.004106760110658181 0.019013793561913114
0.07503126302626001 0.004438124088094293 0.020850845728969482 0.9946674159827886 -0.05040079461066974 0.001069168496461 0.010552275003897018 -0.0009230051756202919 -0.006631030495175272
 0.9946674159827886 -0.05040079461066974 0.004437375016177919 0.020850933443840168 -0.0009230074444610439 -0.006631032438255361 0.0010721395662961408 0.01055191059631512
 0.001069168496461 0.010552275003897018 -0.0009230074444610439 -0.006631032438255361 0.004438075703398031 0.0208518493792806 0.9946674497864432 -0.05039979097729292
 -0.0009230051756202919 -0.006631030495175272 0.0010721395662961408 0.01055191059631512 0.9946674497864432 -0.05039979097729292 0.004437486602954582 0.02085191386871107
0.08128386827845 0.004787199550455455 0.022705124113645104 0.9942043597170852 -0.054691228973933845 0.00121651312756542 0.011434049973056788 -0.0010480052777420141 -0.007188480476305588
 0.9942043597170852 -0.054691228973933845 0.004786320541463929 0.022705226349114666 -0.0010480078724182807 -0.0071884827273636055 0.0012200005480568102 0.01143361351797498
 0.00121651312756542 0.011434049973056788 -0.0010480078724182807 -0.0071884827273636055 0.0047871420999714654 0.022706210796500877 0.9942043991713112 -0.054690141256482666
 -0.0010480052777420141 -0.007188480476305588 0.0012200005480568102 0.01143361351797498 0.9942043991713112 -0.054690141256482666 0.0047864512213104254 0.022706285575108995
0.08753647353064001 0.00515483681968817 0.024575339284386308 0.9937167443265735 -0.0589955072630041 0.0013740223555458672 0.012315611922022962 -0.0011816225746950028 -0.007745992014849851
 0.9937167443265735 -0.0589955072630041 0.00515381747850337 0.024575457452599363 -0.0011816255089483075 -0.007745994610594655 0.0013780676456082402 0.012315094475609946
 0.0013740223555458672 0.012315611922022962 -0.0011816255089483075 -0.007745994610594655 0.005154769462659484 0.024576508862190757 0.9937167898913926 -0.05899433531704583
 -0.0011816225746950028 -0.007745992014849851 0.0013780676456082402 0.012315094475609946 0.9937167898913926 -0.05899433531704583 0.005153968752549328 0.024576594842246932
0.09378907878283 0.00554134846356676 0.026461182198392 0.9932042654295687 -0.06331344839745424 0.0015417780769994573 0.013196813496073687 -0.001323941481468011 -0.008303416406411376
 0.9932042654295687 -0.06331344839745424 0.005540178389888287 0.026461317779060085 -0.0013239447680246925 -0.00830341938681409 0.0015464227777817465 0.01319620555173528
 0.0015417780769994573 0.013196813496073687 -0.0013239447680246925 -0.00830341938681409 0.005541270343496575 0.02646243452138382 0.9932043175720144 -0.06331219206569884
 -0.001323941481468011 -0.008303416406411376 0.0015464227777817465 0.01319620555173528 0.9932043175720144 -0.06331219206569884 0.005540351755227611 0.026462532649432064
0.100041684035 0.005947044744614438 0.02836234640900065 0.9926666201314965 -0.067644856556437 0.0017198597318645007 0.01407750367853834 -0.001475043848561043 -0.008860602471122076
 0.9926666201314965 -0.067644856556437 0.0059457135318775976 0.028362500950282303 -0.0014750474992603886 -0.00886060587946898 0.0017251453999435238 0.014076795161644435
 0.0017198597318645007 0.01407750367853834 -0.0014750474992603886 -0.00886060587946898 0.005946954988740437 0.0283636813183793 0.9926666793267686 -0.0676435156658851
 -0.001475043848561043 -0.008860602471122076 0.0017251453999435238 0.014076795161644435 0.9926666793267686 -0.0676435156658851 0.005945910480647787 0.02836379257556518
0.1059090909091 0.006345470165700913 0.030160049773084372 0.9921389401413669 -0.0717214858800639 0.0018964303144992005 0.014903335288277352 -0.0016248964368653195 -0.009383108823563505
 0.9921389401413669 -0.0717214858800639 0.006343978270438771 0.030160223576695618 -0.0016249004393927545 -0.009383112675848192 0.001902355265372206 0.014902522721395806
 0.0018964303144992005 0.014903335288277352 -0.0016249004393927545 -0.009383112675848192 0.006345368682446071 0.030161462028345406 0.9921390063945033 -0.07172006546915816
 -0.0016248964368653195 -0.009383108823563505 0.001902355265372206 0.014902522721395806 0.9921390063945033 -0.07172006546915816 0.006344198701691601 0.030161586529406648
0.1062942892872 0.006372233525335331 0.03027852640364424 0.992103507221981 -0.07198952281536622 0.0019083441964704024 0.014957527933650327 -0.001635008871893773 -0.009417396468489301
 0.992103507221981 -0.07198952281536622 0.006370730760256183 0.030278701523065384 -0.0016350128978429208 -0.009417400351424311 0.001914312397029519 0.014956708196361508
 0.0019083441964704024 0.014957527933650327 -0.0016350128978429208 -0.009417400351424311 0.0063721312444035266 0.03027994373074682 0.9921035739534759 -0.07198809717840281
 -0.001635008871893773 -0.009417396468489301 0.001914312397029519 0.014956708196361508 0.9921035739534759 -0.07198809717840281 0.006370952778824049 0.030280069133286985
0.11254689453939999 0.006817220161915399 0.03220941633677031 0.9915146273626128 -0.07634722639467093 0.0021073056784161144 0.01583672832889013 -0.0018039130005404337 -0.009973642039015358
 0.9915146273626128 -0.07634722639467093 0.006815535423526839 0.032209613722130846 -0.0018039174122058037 -0.009973646446586257 0.0021139979776350257 0.015835786145150618
 0.0021073056784161144 0.01583672832889013 -0.0018039174122058037 -0.009973646446586257 0.006817104449501316 0.03221091590253625 0.9915147021227491 -0.0763457158099933
 -0.0018039130005404337 -0.009973642039015358 0.0021139979776350257 0.015835786145150618 0.9915147021227491 -0.0763457158099933 0.0068157839915874785 0.0322110565021085
0.11879949979160001 0.007282307388684057 0.034154709042085264 0.9908996832682638 -0.08071773563650814 0.0023168156120412253 0.01671494363598067 -0.0019818298427881687 -0.010529180173668627
 0.9908996832682638 -0.08071773563650814 0.0072804302475177945 0.034154930452497546 -0.0019818346501447857 -0.010529185159376252 0.002324273569592278 0.016713867196541523
 0.0023168156120412253 0.01671494363598067 -0.0019818346501447857 -0.010529185159376252 0.007282177320692064 0.03415629065633005 0.9908997665591825 -0.08071613989013074
 -0.0019818298427881687 -0.010529180173668627 0.002324273569592278 0.016713867196541523 0.9908997665591825 -0.08071613989013074 0.007280706837149778 0.0341564475406432
0.1250521050438 0.007767795194301377 0.03611409525865697 0.9902583798841839 -0.08510080877506676 0.002536942554753219 0.0175920094252933 -0.0021688300715093775 -0.011083849196303319
 0.9902583798841839 -0.08510080877506676 0.007765715211977284 0.03611434252556495 -0.002168835284187423 -0.011083854817138744 0.002545207715656198 0.017590786332944253
 0.002536942554753219 0.0175920094252933 -0.002168835284187423 -0.011083854817138744 0.00776764982864158 0.03611575872320416 0.9902584722180419 -0.08509912763768464
 -0.0021688300715093775 -0.011083849196303319 0.002545207715656198 0.017590786332944253 0.9902584722180419 -0.08509912763768464 0.007766021286793194 0.03611593301651732
0.131304710296 0.00827398069311668 0.03808726301731586 0.9895904245594663 -0.0894961945542888 0.002767752084165131 0.01846775814988248 -0.0023649813281065696 -0.011637484763150893
 0.9895904245594663 -0.0894961945542888 0.008271687421385857 0.03808753804556267 -0.002364986955507336 -0.011637491079617087 0.0027768659704913144 0.018466375414751997
 0.002767752084165131 0.01846775814988248 -0.002364986955507336 -0.011637491079617087 0.008273819069446287 0.03808900812416849 0.9895905264593556 -0.08949442778349026
 -0.0023649813281065696 -0.011637484763150893 0.0027768659704913144 0.018466375414751997 0.9895905264593556 -0.08949442778349026 0.008272024435514582 0.038089200987953716
0.1375573155481 0.008686648055253564 0.03981575390690114 0.989010084112798 -0.09364535952329194 0.002980606879964187 0.019316091556760995 -0.002541642623571737 -0.012164016999344288
 0.989010084112798 -0.09364535952329194 0.008684131569561408 0.03981605264717231 -0.002541648876409852 -0.012164024029942686 0.002990593047122195 0.01931455086379505
 0.002980606879964187 0.019316091556760995 -0.002541648876409852 -0.012164024029942686 0.008686470207565262 0.03981758011497152 0.9890101960193722 -0.09364350699112756
 -0.002541642623571737 -0.012164016999344288 0.002990593047122195 0.01931455086379505 0.9890101960193722 -0.09364350699112756 0.008684500129300627 0.0398177875983841
0.1438099208003 0.009113875030580773 0.041534825809482326 0.9884092479274137 -0.09778370519534543 0.0032020532863726438 0.020160849455923596 -0.0027253673742333837 -0.012687270789273702
 0.9884092479274137 -0.09778370519534543 0.00911112498285294 0.04153514973548348 -0.0027253742974566336 -0.012687278589053896 0.0032129499767236955 0.020159138855632752
 0.0032020532863726438 0.020160849455923596 -0.0027253742974566336 -0.012687278589053896 0.009113680151692241 0.041536732853065576 0.9884093703620448 -0.09778176666748602
 -0.0027253673742333837 -0.012687270789273702 0.0032129499767236955 0.020159138855632752 0.9884093703620448 -0.09778176666748602 0.009111526376519982 0.04153695575703479
0.1500625260525 0.009555506916606955 0.04324432613553802 0.9877880751062174 -0.10191111980329096 0.003432012244852488 0.021001940623524396 -0.002916078546804177 -0.013207159822428148
 0.9877880751062174 -0.10191111980329096 0.009552512959136252 0.04324467678908966 -0.0029160861873893744 -0.013207168448431145 0.003443857471434479 0.02100004772747107
 0.003432012244852488 0.021001940623524396 -0.0029160861873893744 -0.013207168448431145 0.009555294193177816 0.043246313738036994 0.9877882085992675 -0.1019090950368196
 -0.002916078546804177 -0.013207159822428148 0.003443857471434479 0.02100004772747107 0.9877882085992675 -0.1019090950368196 0.009552948456154233 0.043246552906784023
0.15631513130469998 0.010011387857030275 0.044944106882785384 0.9871467256260562 -0.10602749216839451 0.0036704037263993426 0.021839275437018395 -0.0031136981256573476 -0.013723599664929908
 0.9871467256260562 -0.10602749216839451 0.01000813964223493 0.04494448587421987 -0.0031137065327961 -0.013723609176103123 0.0036832352690458156 0.021837187422435064
