! Created with skrf 1.8.0 (http://scikit-rf.org).
# GHz S RI R 50.0 
!freq ReS11 ImS11 ReS12 ImS12 ReS13 ImS13
! ReS14 ImS14
! ReS21 ImS21 ReS22 ImS22 ReS23 ImS23
! ReS24 ImS24
! ReS31 ImS31 ReS32 ImS32 ReS33 ImS33
! ReS34 ImS34
! ReS41 ImS41 ReS42 ImS42 ReS43 ImS43
! ReS44 ImS44
!
0.0 0.00177617459316 0.0 0.9982238253955 0.0 6.896088028516e-05 0.0 -6.896088001848e-05 8.445272098101619e-21
 0.9982238253955 0.0 0.001776174593122 0.0 -6.896088001775e-05 8.445272098012221e-21 6.896088028395e-05 0.0
 6.896088028516e-05 0.0 -6.896088001775e-05 8.445272098012221e-21 0.001776174595986 0.0 0.9982238253983 0.0
 -6.896088001848e-05 8.445272098101619e-21 6.896088028395e-05 0.0 0.9982238253983 0.0 0.00177617459598 0.0
0.005 0.0019117932468422267 0.0014511670127746585 0.9980521078297888 -0.0037198852828628473 9.729767627770244e-05 0.0007667943444971486 -9.433715217477278e-05 -0.00047994876945705873
 0.9980521078297888 -0.0037198852828628473 0.00191181456123809 0.0014511544726447468 -9.433980117506294e-05 -0.000479950683145451 9.715398129633234e-05 0.0007668490041380268
 9.729767627770244e-05 0.0007667943444971486 -9.433980117506294e-05 -0.000479950683145451 0.0019117928561055062 0.0014512344469050204 0.9980521082048412 -0.003719818219811781
 -9.433715217477278e-05 -0.00047994876945705873 9.715398129633234e-05 0.0007668490041380268 0.9980521082048412 -0.003719818219811781 0.0019118156951858933 0.0014512211585092324
0.006252605252188 0.0019475901465497224 0.00181964056185636 0.9980064578521299 -0.004650729638770712 0.00010553357024914182 0.0009588451585782981 -0.00010160837071855272 -0.0006005439344983463
 0.9980064578521299 -0.004650729638770712 0.001947623465909106 0.0018196246512948977 -0.00010161249369527509 -0.0006005462906234791 0.00010530906126971997 0.0009589161999734318
 0.00010553357024914182 0.0009588451585782981 -0.00010161249369527509 -0.0006005462906234791 0.0019475894670626923 0.0018197248314524416 0.9980064583692202 -0.004650645821004713
 -0.00010160837071855272 -0.0006005439344983463 0.00010530906126971997 0.0009589161999734318 0.9980064583692202 -0.004650645821004713 0.0019476251687503773 0.0018197080035646926
0.01250521050438 0.0021373612789662494 0.003677095067785584 0.997762672940869 -0.009301994882753087 0.00015350376823249613 0.0019179078732780507 -0.00014343583925367458 -0.0012038504711985919
 0.997762672940869 -0.009301994882753087 0.002137494342043973 0.0036770608805740713 -0.00014345209846764877 -0.001203854782795186 0.00015260848244762196 0.0019180795311601515
 0.00015350376823249613 0.0019179078732780507 -0.00014345209846764877 -0.001203854782795186 0.0021373580138311144 0.0036772632323397157 0.9977626744463686 -0.009301827485936588
 -0.00014343583925367458 -0.0012038504711985919 0.00015260848244762196 0.0019180795311601515 0.9977626744463686 -0.009301827485936588 0.0021375005687331856 0.003677227381825162
0.01875781575657 0.0023459503473518594 0.005560613847632357 0.9974921338186451 -0.013965059812546216 0.00021298869381078004 0.0028777968049362775 -0.00019458199500336834 -0.001809005079074718
 0.9974921338186451 -0.013965059812546216 0.002346249383955387 0.005560558855911965 -0.0001946182679507669 -0.0018090108528750573 0.0002109775483923789 0.002878105059274349
 0.00021298869381078004 0.0028777968049362775 -0.0001946182679507669 -0.0018090108528750573 0.0023459426030951877 0.005560865672500147 0.9974921367810106 -0.0139648088976731
 -0.00019458199500336834 -0.001809005079074718 0.0002109775483923789 0.002878105059274349 0.9974921367810106 -0.0139648088976731 0.002346262926289337 0.005560808417366365
0.02501042100875 0.0025738030476098904 0.007467497082164478 0.997194489150225 -0.01864212257648014 0.0002841073304647524 0.0038385109262962995 -0.0002551799160749943 -0.002415694206193284
 0.997194489150225 -0.01864212257648014 0.0025743341829471914 0.007467418620691759 -0.0002552439896755456 -0.0024157008488088125 0.0002805351177750407 0.0038389979810696598
 0.0002841073304647524 0.0038385109262962995 -0.0002552439896755456 -0.0024157008488088125 0.002573788942825549 0.00746783232671079 0.9971944940408989 -0.01864178817095293
 -0.0002551799160749943 -0.002415694206193284 0.0002805351177750407 0.0038389979810696598 0.9971944940408989 -0.01864178817095293 0.002574357812617846 0.007467751125448546
0.03126302626094 0.0028213464823021147 0.009396324086920928 0.9968693715679671 -0.023334086105652668 0.00036697862817600563 0.0047999589585107074 -0.0003253581260424025 -0.003023685788137705
 0.9968693715679671 -0.023334086105652668 0.0028221757780397083 0.009396219358270405 -0.00032545771149907713 -0.003023692605093787 0.0003613996240262136 0.004800673282014554
 0.00036697862817600563 0.0047999589585107074 -0.00032545771149907713 -0.003023692605093787 0.0028213241437709093 0.009396742507752602 0.9968693788603774 -0.0233336681996074
 -0.0003253581260424025 -0.003023685788137705 0.0003613996240262136 0.004800673282014554 0.9968693788603774 -0.0233336681996074 0.0028222122461334944 0.009396634664973444
0.037515631513130004 0.003088997827509694 0.011346144842851855 0.9965164067239933 -0.028041366529663343 0.0004617202025170055 0.005762013338051982 -0.00040524151185753295 -0.0036327753094187593
 0.9965164067239933 -0.028041366529663343 0.003090191310901514 0.011346010919800665 -0.00040538425187243107 -0.003632781504833571 0.0004536880015401587 0.005763009726190051
 0.0004617202025170055 0.005762013338051982 -0.00040538425187243107 -0.003632781504833571 0.003088965387567352 0.011346646178486618 0.996516416894083 -0.028040865091159835
 -0.00040524151185753295 -0.0036327753094187593 0.0004536880015401587 0.005763009726190051 0.996516416894083 -0.028040865091159835 0.0030902433484174263 0.01134650884718376
0.043768236765320004 0.003377167655607343 0.013316233951626703 0.9961352170035532 -0.0327641391557009 0.0005684477078672085 0.006724526647978191 -0.00049495162840819 -0.004242769408461363
 0.9961352170035532 -0.0327641391557009 0.003378791344079411 0.013316067778398454 -0.0004951451013576108 -0.004242774084886037 0.000557515156328984 0.0067258662946481544
 0.0005684477078672085 0.006724526647978191 -0.0004951451013576108 -0.004242774084886037 0.0033771232522515292 0.01331681792264445 0.9961352305320111 -0.03276355413038471
 -0.00049495162840819 -0.004242769408461363 0.000557515156328984 0.0067258662946481544 0.9961352305320111 -0.03276355413038471 0.003378861663285081 0.01331664810539911
0.050020842017509996 0.003686261459093547 0.015305988977714128 0.9957254234448238 -0.03750244006070314 0.0006872744467806266 0.0076873384246269535 -0.0005946067867382695 -0.004853479113985006
 0.9957254234448238 -0.03750244006070314 0.003688381382855828 0.01530578737025313 -0.0005948585090789784 -0.0048534812723252645 0.0006729936272874933 0.007689088994856825
 0.0006872744467806266 0.0076873384246269535 -0.0005948585090789784 -0.0048534812723252645 0.0036862032333601835 0.01530665528608064 0.995725440816561 -0.03750177137242755
 -0.0005946067867382695 -0.004853479113985006 0.0006729936272874933 0.007689088994856825 0.995725440816561 -0.03750177137242755 0.003688472676362776 0.015306449835038566
0.055454545454549996 0.003972177837934552 0.017050705089524526 0.9953457761321894 -0.041632738275948905 0.000800450560057382 0.008524161463026168 -0.00068937617072535 -0.005384639616327552
 0.9953457761321894 -0.041632738275948905 0.003974782655126708 0.017050470002844882 -0.0006896845708410341 -0.005384638696011419 0.0007828956493536134 0.008526329172148827
 0.000800450560057382 0.008524161463026168 -0.0006896845708410341 -0.005384638696011419 0.003972106092440182 0.017051442693577366 0.9953457972424816 -0.041631996804785146
 -0.00068937617072535 -0.005384639616327552 0.0007828956493536134 0.008526329172148827 0.9953457972424816 -0.041631996804785146 0.003974894347961163 0.01705120360187468
0.056273447269699996 0.004016680407338947 0.017314880536751565 0.9952866468965046 -0.0422562159415641 0.0008183110855928007 0.008650278492124215 -0.0007043220434553587 -0.00546471656115009
 0.9952866468965046 -0.0422562159415641 0.004019362629916761 0.01731464018226048 -0.0007046394711829005 -0.005464715100620149 0.0008002333333665814 0.008652514196214633
 0.0008183110855928007 0.008650278492124215 -0.0007046394711829005 -0.005464715100620149 0.004016606502629909 0.01731562886341772 0.9952866686024278 -0.04225546349485045
 -0.0007043220434553587 -0.00546471656115009 0.0008002333333665814 0.008652514196214633 0.9952866686024278 -0.04225546349485045 0.004019477571127349 0.017315384479581728
0.06252605252188 0.004368821727246228 0.01934242488195708 0.9948185088067825 -0.047025351474407784 0.0009616654195132385 0.009613168827721107 -0.0008242091436268518 -0.006076293185049029
 0.9948185088067825 -0.047025351474407784 0.004372132366054846 0.01934214233776143 -0.0008245996730643077 -0.006076286903164725 0.0009393413596928519 0.00961597049556545
 0.0009616654195132385 0.009613168827721107 -0.0008245996730643077 -0.006076286903164725 0.004368730287659181 0.019343254884510504 0.9948185353439012 -0.04702451515688295
 -0.0008242091436268518 -0.006076293185049029 0.0009393413596928519 0.00961597049556545 0.9948185353439012 -0.04702451515688295 0.004372273608802277 0.019342968116118263
0.06877865777407 0.004743078878020519 0.021388167554445156 0.9943206318105003 -0.0518096856183726 0.0011174421697447067 0.010575824676988714 -0.0009543764325472857 -0.006688018673079513
 0.9943206318105003 -0.0518096856183726 0.004747084124345506 0.021387839245995965 -0.0009548474006989697 -0.006688006265644285 0.0010904217698142471 0.010579279832019802
 0.0011174421697447067 0.010575824676988714 -0.0009548474006989697 -0.006688006265644285 0.004742968046468564 0.02138907886778075 0.994320663682433 -0.05180876530014639
 -0.0009543764325472857 -0.006688018673079513 0.0010904217698142471 0.010579279832019802 0.994320663682433 -0.05180876530014639 0.004747254301946549 0.021388746108096993
0.07503126302626001 0.005139841601073604 0.02345167303562942 0.9937926401974788 -0.05660902192659343 0.0012857427966285015 0.011538055279316204 -0.001094928751723982 -0.007299700316011639
 0.9937926401974788 -0.05660902192659343 0.005144607739547957 0.02345129525391263 -0.0010954874363005558 -0.007299680377152323 0.001253575430059612 0.011542258211851352
 0.0012857427966285015 0.011538055279316204 -0.0010954874363005558 -0.007299680377152323 0.005139709518761705 0.023452665273860827 0.9937926779160297 -0.056608017458645285
 -0.001094928751723982 -0.007299700316011639 0.001253575430059612 0.011542258211851352 0.9937926779160297 -0.056608017458645285 0.005144809465482506 0.023452282758057233
0.08128386827845 0.005559495894940594 0.0255325178598581 0.993234160310734 -0.06142313540720952 0.0014666653235272489 0.012499664370805859 -0.0012459673236965524 -0.007911142591208686
 0.993234160310734 -0.06142313540720952 0.005565089323854793 0.025532086757965883 -0.0012466209429229502 -0.007911113613420302 0.0014288998426070815 0.012504716210364116
 0.0014666653235272489 0.012499664370805859 -0.0012466209429229502 -0.007911113613420302 0.005559340699825587 0.025533590617667964 0.9932342043962845 -0.06142204662018991
 -0.0012459673236965524 -0.007911142591208686 0.0014288998426070815 0.012504716210364116 0.9932342043962845 -0.06142204662018991 0.005565325191011667 0.025533154418974965
0.08753647353064001 0.006002423936504696 0.027630285876755447 0.9926448208957809 -0.06625177724530666 0.0016603041693456083 0.013460450545025822 -0.0014075896282106364 -0.008522146897516352
 0.9926448208957809 -0.06625177724530666 0.006008911187182121 0.027629797465693495 -0.0014083453404531434 -0.008522107271718395 0.0016164889850578841 0.0134664593316706
 0.0016603041693456083 0.013460450545025822 -0.0014083453404531434 -0.008522107271718395 0.006002243761818076 0.0276314387241691 0.9926448718779592 -0.06625060395513323
 -0.0014075896282106364 -0.008522146897516352 0.0016164889850578841 0.0134664593316706 0.9926448718779592 -0.06625060395513323 0.006009183767229459 0.027630944749264745
0.09378907878283 0.006469003968581216 0.029744564863221447 0.9920242534205713 -0.0710946781863166 0.0018667499846810407 0.01442020753074304 -0.0015798892742560965 -0.009132511383183581
 0.9920242534205713 -0.0710946781863166 0.00647645172531757 0.029744015006997068 -0.001580754177464859 -0.009132459398820458 0.0018164331531458344 0.014427288285069177
 0.0018667499846810407 0.01442020753074304 -0.001580754177464859 -0.009132459398820458 0.006468796941330578 0.029745797347045078 0.9920243118390671 -0.07109342019309561
 -0.0015798892742560965 -0.009132511383183581 0.0018164331531458344 0.014427288285069177 0.9920243118390671 -0.07109342019309561 0.006476763568255647 0.02974524133054603
0.100041684035 0.006959610159627094 0.031874944051291994 0.991372092371929 -0.07595155101524861 0.0020860894927947882 0.015378724412526775 -0.0017629558675163787 -0.009742030841059098
 0.991372092371929 -0.07595155101524861 0.006968085279773872 0.03187432846108536 -0.0017639369985921075 -0.009741964686208601 0.0020288188069077402 0.015386999204268323
 0.0020860894927947882 0.015378724412526775 -0.0017639369985921075 -0.009741964686208601 0.006959374399425785 0.03187625569972962 0.991372158777174 -0.07595020809908869
 -0.0017629558675163787 -0.009742030841059098 0.0020288188069077402 0.015386999204268323 0.991372158777174 -0.07595020809908869 0.006968438913451316 0.03187563319793232
0.1059090909091 0.00744217315644408 0.03388835568514514 0.990731051691819 -0.0805216483167007 0.002303716697405179 0.016276871190892772 -0.001944613058631695 -0.010313045862860236
 0.990731051691819 -0.0805216483167007 0.007451673325795 0.03388767436802926 -0.00194570960214676 -0.010312964672414233 0.002239509129591023 0.016286383819477453
 0.002303716697405179 0.016276871190892772 -0.00194570960214676 -0.010312964672414233 0.00744190871570401 0.03388974117083537 0.9907311261031686 -0.0805202254967191
 -0.001944613058631695 -0.010313045862860236 0.002239509129591023 0.016286383819477453 0.9907311261031686 -0.0805202254967191 0.007452068454891626 0.033889052072977724
0.1062942892872 0.007474612446052617 0.03402101229272902 0.9906879755380421 -0.08082209241097278 0.0023184053325975575 0.016335785821173444 -0.0019568748759647213 -0.010350496644176498
 0.9906879755380421 -0.08082209241097278 0.007484181979939581 0.03402032652030356 -0.0019579792099944306 -0.010350414405695068 0.002253728418462114 0.016345383836314235
 0.0023184053325975575 0.016335785821173444 -0.0019579792099944306 -0.010350414405695068 0.007474346064052647 0.03402240261130228 0.9906880504924848 -0.08082066433659785
 -0.0019568748759647213 -0.010350496644176498 0.002253728418462114 0.016345383836314235 0.9906880504924848 -0.08082066433659785 0.007484579909933238 0.03402170899497287
0.11254689453939999 0.008014376360487616 0.036182356649057223 0.9899715442805883 -0.08570598438751313 0.0025637759045054223 0.017291172092212127 -0.0021617274930865672 -0.010957696723861645
 0.9899715442805883 -0.08570598438751313 0.008025107571455756 0.036181596079325716 -0.0021629619425361565 -0.010957596387527775 0.0024912403222205216 0.017302229698463387
 0.0025637759045054223 0.017291172092212127 -0.0021629619425361565 -0.010957596387527775 0.008014077457664756 0.03618382512375288 0.9899716283590808 -0.08570447090164109
 -0.0021617274930865672 -0.010957696723861645 0.0024912403222205216 0.017302229698463387 0.9899716283590808 -0.08570447090164109 0.008025552280061394 0.03618305557013918
0.11879949979160001 0.008579262847303178 0.03835856132154467 0.9892224437972096 -0.0906028954077736 0.0028222752180945424 0.018244659413637836 -0.002377590500305788 -0.01156341556914102
 0.9892224437972096 -0.0906028954077736 0.008591223231961534 0.03835772116422016 -0.0023789619140766097 -0.011563295019896773 0.0027414285664526202 0.018257320224107174
 0.0028222752180945424 0.018244659413637836 -0.0023789619140766097 -0.011563295019896773 0.008578929513193818 0.038360107416217724 0.9892225375879248 -0.09060129624245157
 -0.002377590500305788 -0.01156341556914102 0.0027414285664526202 0.018257320224107174 0.9892225375879248 -0.09060129624245157 0.008591717178028943 0.03835925690002217
0.1250521050438 0.009169628070996064 0.040549206808768494 0.9884403233791259 -0.09551248128276248 0.003093972741624889 0.01919601996220783 -0.002604536128577841 -0.0121674342483969
 0.9884403233791259 -0.09551248128276248 0.009182885379664343 0.04054828208908085 -0.0026060512911117973 -0.012167291270509691 0.0030043627664128976 0.019210434897346335
 0.003093972741624889 0.01919601996220783 -0.0026060512911117973 -0.012167291270509691 0.009169258382616634 0.04055082996940169 0.9884404274843698 -0.09551079615168101
 -0.002604536128577841 -0.0121674342483969 0.0030043627664128976 0.019210434897346335 0.9884404274843698 -0.09551079615168101 0.00918343099752441 0.040549893252967276
0.131304710296 0.009785823217342119 0.042753869249804004 0.987624836664226 -0.10043438589804632 0.0033789332531264722 0.020145022035471884 -0.0028426319201585093 -0.012769530446202474
 0.987624836664226 -0.10043438589804632 0.009800445474261028 0.042752854798345896 -0.0028442975504266647 -0.012769362723548878 0.0032801079589227914 0.020161349382977967
 0.0033789332531264722 0.020145022035471884 -0.0028442975504266647 -0.012769362723548878 0.009785415237545739 0.04275556890150241 0.9876249517010841 -0.10043261450041102
 -0.0028426319201585093 -0.012769530446202474 0.0032801079589227914 0.020161349382977967 0.9876249517010841 -0.10043261450041102 0.009801045173403418 0.04275454052397632
0.1375573155481 0.010294784481529791 0.0446852122748176 0.9869091186596288 -0.10508116531552421 0.0036440244728937624 0.021063820286831052 -0.003058867222142369 -0.013341804295361406
 0.9869091186596288 -0.10508116531552421 0.010310843366245636 0.04468412385537611 -0.003060693022382138 -0.013341611386279695 0.0035357613212814182 0.02108204980061761
 0.0036440244728937624 0.021063820286831052 -0.003060693022382138 -0.013341611386279695 0.010294335124662985 0.04468698872525934 0.9869092451379275 -0.1050793074882498
 -0.003058867222142369 -0.013341804295361406 0.0035357613212814182 0.02108204980061761 0.9869092451379275 -0.1050793074882498 0.010311500896945758 0.044685882607975146
0.1438099208003 0.010821872308247545 0.04660486473253734 0.9861677609991502 -0.10971462286525055 0.00391978333778762 0.021977881362073542 -0.003283684758265132 -0.013909790206613176
 0.9861677609991502 -0.10971462286525055 0.010839436695273074 0.046603698221239935 -0.0032856778906569036 -0.01390956981911304 0.0038016720506380192 0.021998159082823956
 0.00391978333778762 0.021977881362073542 -0.0032856778906569036 -0.01390956981911304 0.010821379408173036 0.046606717471861896 0.9861678995351056 -0.10971267831863392
 -0.003283684758265132 -0.013909790206613176 0.0038016720506380192 0.021998159082823956 0.9861678995351056 -0.10971267831863392 0.01084015467612209 0.04660552901193332
0.1500625260525 0.011366876826618038 0.04851262124562926 0.9854009784986176 -0.1143345972947352 0.004206099225547849 0.02288707898371692 -0.0035169781128580073 -0.01447337221562208
 0.9854009784986176 -0.1143345972947352 0.011386015851753119 0.0485113722229431 -0.0035191457126607442 -0.014473121966493486 0.004077732401495085 0.022909556303469917
 0.004206099225547849 0.02288707898371692 -0.0035191457126607442 -0.014473121966493486 0.01136633818982913 0.048514549752308615 0.9854011297207528 -0.11433256572642059
 -0.0035169781128580073 -0.01447337221562208 0.004077732401495085 0.022909556303469917 0.9854011297207528 -0.11433256572642059 0.011386796893653134 0.04851327402304963
0.15631513130469998 0.011929586384552219 0.050408282583383986 0.9846089873864663 -0.11894092896884395 0.004502860028978257 0.023791289369346037 -0.003758639405414739 -0.015032437115941084
 0.9846089873864663 -0.11894092896884395 0.011950369451202961 0.050406946322386646 -0.003760988580360341 -0.015032154531384198 0.004363833192194791 0.023816122969929382
