! Created with skrf 1.8.0 (http://scikit-rf.org).
# GHz S RI R 50.0 
!freq ReS11 ImS11 ReS12 ImS12 ReS13 ImS13
! ReS14 ImS14
! ReS21 ImS21 ReS22 ImS22 ReS23 ImS23
! ReS24 ImS24
! ReS31 ImS31 ReS32 ImS32 ReS33 ImS33
! ReS34 ImS34
! ReS41 ImS41 ReS42 ImS42 ReS43 ImS43
! ReS44 ImS44
!
0.0 0.001741039883608 0.0 0.9982589601164 0.0 6.773269537514e-05 0.0 -6.773269495145e-05 8.294862806991734e-21
 0.9982589601164 0.0 0.00174103988359 0.0 -6.773269495207e-05 8.294862807067662e-21 6.773269537223e-05 0.0
 6.773269537514e-05 0.0 -6.773269495207e-05 8.294862807067662e-21 0.001741039870833 0.0 0.9982589601036 0.0
 -6.773269495145e-05 8.294862806991734e-21 6.773269537223e-05 0.0 0.9982589601036 0.0 0.001741039870782 0.0
0.005 0.0018739090137461284 0.0014190813019368765 0.9980907328688176 -0.0036466177982246635 9.601489236484106e-05 0.0007740950650149686 -9.300153030096449e-05 -0.00048090964147300553
 0.9980907328688176 -0.0036466177982246635 0.0018739223307849978 0.0014190734536121306 -9.300044485379578e-05 -0.0004809087498108161 9.594084418529489e-05 0.000774123338097448
 9.601489236484106e-05 0.0007740950650149686 -9.300044485379578e-05 -0.0004809087498108161 0.0018739102326159975 0.0014191478151886852 0.9980907332488349 -0.003646550735841811
 -9.300153030096449e-05 -0.00048090964147300553 9.594084418529489e-05 0.000774123338097448 0.9980907332488349 -0.003646550735841811 0.0018739218622224716 0.0014191410557673563
0.006252605252188 0.0019089489421299079 0.0017794284634468091 0.9980460546386226 -0.0045591349336690686 0.00010421245109779625 0.0009679674683154171 -0.00010023191011644495 -0.0006017530320597387
 0.9980460546386226 -0.0045591349336690686 0.0019089697596264556 0.0017794184869239517 -0.00010023022154217094 -0.0006017519316756488 0.00010409675936044078 0.0009680041930329653
 0.00010421245109779625 0.0009679674683154171 -0.00010023022154217094 -0.0006017519316756488 0.001908950766242486 0.0017795115942991677 0.9980460551511532 -0.00455905110537023
 -0.00010023191011644495 -0.0006017530320597387 0.00010409675936044078 0.0009680041930329653 0.9980460551511532 -0.00455905110537023 0.001908968945022024 0.001779502991951157
0.01250521050438 0.0020945264887365935 0.00359601213790076 0.9978077085213287 -0.009118870534969844 0.00015184313159795023 0.0019361104219031066 -0.0001417712497764353 -0.0012063160913153713
 0.9978077085213287 -0.009118870534969844 0.002094609622833226 0.003595990496527393 -0.00014176460108946158 -0.001206314046883755 0.00015138181948081472 0.001936198922858652
 0.00015184313159795023 0.0019361104219031066 -0.00014176460108946158 -0.001206314046883755 0.0020945332231582484 0.0035961780052128833 0.9978077100149776 -0.009118703122759966
 -0.0001417712497764353 -0.0012063160913153713 0.00015138181948081472 0.001936198922858652 0.9978077100149776 -0.009118703122759966 0.0020946058052096587 0.0035961592619775024
0.01875781575657 0.0022982183423082224 0.005438235487184332 0.9975435969360917 -0.013690260895107095 0.0002107402534310016 0.002905073649353562 -0.00019248770733029308 -0.001812749151612523
 0.9975435969360917 -0.013690260895107095 0.0022984051680426778 0.005438200339782243 -0.00019247288882192097 -0.0018127463508944054 0.0002097040637913491 0.00290523221225458
 0.0002107402534310016 0.002905073649353562 -0.00019247288882192097 -0.0018127463508944054 0.0022982330588661466 0.005438483797995928 0.997543599872341 -0.013690009937980445
 -0.00019248770733029308 -0.001812749151612523 0.0002097040637913491 0.00290523221225458 0.997543599872341 -0.013690009937980445 0.002298396143469091 0.005438453279902782
0.02501042100875 0.002520454642644944 0.007303458474688326 0.9972533812430416 -0.018275469363658564 0.0002810209677590774 0.003874868732999456 -0.000252512718645974 -0.002420736911552175
 0.9972533812430416 -0.018275469363658564 0.0025207864649705175 0.0073034078409964015 -0.0002524865618954515 -0.002420733577092722 0.0002791806332892686 0.0038751187774028945
 0.0002810209677590774 0.003874868732999456 -0.0002524865618954515 -0.002420733577092722 0.002520480412635823 0.007303788864047834 0.9972533860890456 -0.01827513486942134
 -0.000252512718645974 -0.002420736911552175 0.0002791806332892686 0.0038751187774028945 0.9972533860890456 -0.01827513486942134 0.0025207700218405973 0.0073037448534709025
0.03126302626094 0.0027616475940625434 0.00919029578847503 0.9969367071232839 -0.022875389315591244 0.0003628024466505364 0.004845413787289025 -0.0003219732661429324 -0.0030300490509898737
 0.9969367071232839 -0.022875389315591244 0.002762165670550338 0.009190227550780536 -0.00032193263701704315 -0.0030300454404104792 0.0003599284869526862 0.004845779884261175
 0.0003628024466505364 0.004845413787289025 -0.00032193263701704315 -0.0030300454404104792 0.002761687485413918 0.009190707840523999 0.9969367143507208 -0.022874971239173123
 -0.0003219732661429324 -0.0030300490509898737 0.0003599284869526862 0.004845779884261175 0.9969367143507208 -0.022874971239173123 0.0027621395860457365 0.009190648538588454
0.037515631513130004 0.003022199898246092 0.011097823948041369 0.9965932133752837 -0.02749043698941102 0.0004562006344041984 0.00581658953822879 -0.00040099280592269796 -0.003640484180278356
 0.9965932133752837 -0.02749043698941102 0.0030229454555654556 0.011097735851820976 -0.00040093460113346606 -0.0036404805863646636 0.0004520632717275332 0.005817099440389943
 0.0004562006344041984 0.00581658953822879 -0.00040093460113346606 -0.0036404805863646636 0.003022256974824616 0.011098317169751681 0.99659322346088 -0.02748993525855663
 -0.00040099280592269796 -0.003640484180278356 0.0004520632717275332 0.005817099440389943 0.99659322346088 -0.02748993525855663 0.0030229074935829527 0.011098240697468254
0.043768236765320004 0.0033025079852436437 0.013025340035012451 0.9962225355106569 -0.03212079269049061 0.0005613296384635785 0.006788256403732209 -0.0004896915887775537 -0.0042518527926590464
 0.9962225355106569 -0.03212079269049061 0.0033035222308803592 0.013025229688681045 -0.0004896127336778132 -0.004251849543303998 0.0005556987638922212 0.006788941078960623
 0.0005613296384635785 0.006788256403732209 -0.0004896127336778132 -0.004251849543303998 0.0033025853045775566 0.013025913861383439 0.9962225489365852 -0.032120207199894064
 -0.0004896915887775537 -0.0042518527926590464 0.0005556987638922212 0.006788941078960623 0.9962225489365852 -0.032120207199894064 0.0033034701405306077 0.013025818260313357
0.050020842017509996 0.0036029635001692878 0.014972261976753231 0.9958243076123742 -0.03676650044104294 0.0006783013554340514 0.0077602615455541115 -0.0005881867553647205 -0.004863970250448715
 0.9958243076123742 -0.03676650044104294 0.0036042876339470995 0.014972126850995453 -0.0005880842026253836 -0.004863967708617587 0.0006709465226863192 0.007761155212109872
 0.0006783013554340514 0.0077602615455541115 -0.0005880842026253836 -0.004863967708617587 0.0036030641135489892 0.014972915761478548 0.9958243248685276 -0.036765831061091034
 -0.0005881867553647205 -0.004863970250448715 0.0006709465226863192 0.007761155212109872 0.9958243248685276 -0.036765831061091034 0.003604219149556489 0.01497279899390668
0.055454545454549996 0.0038807317470086725 0.01667955858026976 0.9954555770665572 -0.04081619694593242 0.000789656093043893 0.00860511209984622 -0.000681826542209456 -0.005396384739833315
 0.9954555770665572 -0.04081619694593242 0.003882358643779442 0.016679399758560042 -0.000681700941170515 -0.005396383134820753 0.0007806156830977629 0.008606217726763735
 0.000789656093043893 0.00860511209984622 -0.000681700941170515 -0.005396383134820753 0.0038808550747812293 0.01668028127106634 0.9954555980547279 -0.04081545453116418
 -0.000681826542209456 -0.005396384739833315 0.0007806156830977629 0.008606217726763735 0.9954555980547279 -0.04081545453116418 0.003882274059574749 0.0166801443924949
0.056273447269699996 0.003923954042523438 0.01693807960470536 0.9953981634505235 -0.04142751685959044 0.000807225196202356 0.008732442348337156 -0.0006965923359901517 -0.0054766533508889895
 0.9953981634505235 -0.04142751685959044 0.003925629266475532 0.01693791703143101 -0.0006964630646175587 -0.0054766519145506305 0.0007979156314936373 0.008733582510412707
 0.000807225196202356 0.008732442348337156 -0.0006964630646175587 -0.0054766519145506305 0.00392408099267571 0.016938812630004192 0.99539818503437 -0.04142676342595944
 -0.0006965923359901517 -0.0054766533508889895 0.0007979156314936373 0.008733582510412707 0.99539818503437 -0.04142676342595944 0.0039255421060426995 0.01693867257867229
0.06252605252188 0.004265863543774352 0.018922327771063317 0.9949437372409515 -0.04610373798822592 0.0009482078633899286 0.009704628345243431 -0.000815019198341475 -0.006089718452845539
 0.9949437372409515 -0.04610373798822592 0.004267931071986271 0.01892213494195754 -0.0008148602130745923 -0.006089718554895899 0.0009367124864510233 0.009706055828592306
 0.0009482078633899286 0.009704628345243431 -0.0008148602130745923 -0.006089718554895899 0.0042660198641836684 0.01892313923290032 0.9949437636597909 -0.0461029003161049
 -0.000815019198341475 -0.006089718452845539 0.0009367124864510233 0.009706055828592306 0.9949437636597909 -0.0461029003161049 0.004267822936838453 0.018922973700487154
0.06877865777407 0.004629072442330043 0.020924570307290783 0.9944606642074791 -0.05079501528597424 0.0011013531573924361 0.010676642368665314 -0.0009435749664020353 -0.006702980386525075
 0.9944606642074791 -0.05079501528597424 0.004631573510266564 0.020924344272034306 -0.0009433832972299097 -0.006702982494721117 0.0010874406103834645 0.010678401355970313
 0.0011013531573924361 0.010676642368665314 -0.0009433832972299097 -0.006702982494721117 0.004629261154779712 0.02092545932249112 0.994460695978175 -0.05079409316247078
 -0.0009435749664020353 -0.006702980386525075 0.0010874406103834645 0.010678401355970313 0.994460695978175 -0.05079409316247078 0.004631442083369885 0.020925266030726773
0.07503126302626001 0.005013957738888163 0.022944389876390553 0.9939485810287341 -0.05550116573681669 0.0012667617962018808 0.011648301312962114 -0.001082363925022388 -0.0073162517595873515
 0.9939485810287341 -0.05550116573681669 0.005016933612249159 0.0229441275405626 -0.0010821366268564205 -0.007316256376483411 0.0012502004782042225 0.011650439378776621
 0.0012667617962018808 0.011648301312962114 -0.0010821366268564205 -0.007316256376483411 0.005014181853177623 0.022945355483364998 0.9939486186803677 -0.05550015891986888
 -0.001082363925022388 -0.0073162517595873515 0.0012502004782042225 0.011650439378776621 0.9939486186803677 -0.05550015891986888 0.0050167765588822405 0.022945132071602238
0.08128386827845 0.005420892979825544 0.024981381219779775 0.993407126218549 -0.06022197857269102 0.0014445312497921913 0.012619416631914186 -0.0012314869086497528 -0.007929342537402387
 0.993407126218549 -0.06022197857269102 0.005424384964078569 0.024981079342223003 -0.0012312210611343931 -0.007929350200255396 0.0014250893565325197 0.012621984777065604
 0.0014445312497921913 0.012619416631914186 -0.0012312210611343931 -0.007929350200255396 0.005421155490847218 0.024982422371269422 0.9934071702921178 -0.06022088679793443
 -0.0012314869086497528 -0.007929342537402387 0.0014250893565325197 0.012621984777065604 0.9934071702921178 -0.06022088679793443 0.005424199929373371 0.02498216639491206
0.08753647353064001 0.005850248186317275 0.027035146501421074 0.9928359404558678 -0.06495721990880507 0.0016347555782894466 0.013589794722213269 -0.001391041186118357 -0.008542059746218198
 0.9928359404558678 -0.06495721990880507 0.005854297635314652 0.02703480169145531 -0.0013907338934968502 -0.00854207102692592 0.0016122011451267999 0.013592847407539906
 0.0016347555782894466 0.013589794722213269 -0.0013907338934968502 -0.00854207102692592 0.005850552073369385 0.02703626206957307 0.9928359915066265 -0.06495604288422935
 -0.001391041186118357 -0.008542059746218198 0.0016122011451267999 0.013592847407539906 0.9928359915066265 -0.06495604288422935 0.005854082244461893 0.027035970997999766
0.09378907878283 0.006302389753453194 0.029105291985807802 0.9922346668897064 -0.06970663605561382 0.0018375252770105128 0.014559237196786106 -0.0015611203375409564 -0.009154207295854895
 0.9922346668897064 -0.06970663605561382 0.0063070380783092055 0.02910490069986545 -0.0015607687285372767 -0.009154222800873848 0.0018116262255742706 0.014562832376180777
 0.0018375252770105128 0.014559237196786106 -0.0015607687285372767 -0.009154222800873848 0.006302737977580391 0.029106480759079394 0.9922347254869603 -0.06970537346444673
 -0.0015611203375409564 -0.009154207295854895 0.0018116262255742706 0.014562832376180777 0.9922347254869603 -0.06970537346444673 0.006306789935111563 0.029106151973142067
0.100041684035 0.006777680320138011 0.031191425614571288 0.9916029514182598 -0.07446995594262273 0.0020529271238996674 0.015527541112362427 -0.0017418141287367929 -0.009765585857635505
 0.9916029514182598 -0.07446995594262273 0.006782968998426088 0.03119098415253821 -0.001741415356534117 -0.009765606227904726 0.0020234513112721672 0.015531740264979547
 0.0020529271238996674 0.015527541112362427 -0.001741415356534117 -0.009765606227904726 0.006778075822859186 0.03119268629722854 0.9916030181473824 -0.07446860744378066
 -0.0017418141287367929 -0.009765585857635505 0.0020234513112721672 0.015531740264979547 0.9916030181473824 -0.07446860744378066 0.006782685684881329 0.031192317086377642
0.1059090909091 0.007245063480447412 0.033163232447051355 0.9909821540889955 -0.07895221661788321 0.002266621618281002 0.016434971510828712 -0.0019211064884050366 -0.01033841994440096
 0.9909821540889955 -0.07895221661788321 0.007250990852852291 0.033162740391830814 -0.001920660891255711 -0.010338445493754353 0.002233578251265478 0.016439796510736092
 0.002266621618281002 0.016434971510828712 -0.001920660891255711 -0.010338445493754353 0.007245506005411907 0.03316455935896418 0.9909822289964506 -0.07895078716841711
 -0.0019211064884050366 -0.01033841994440096 0.002233578251265478 0.016439796510736092 0.9909822289964506 -0.07895078716841711 0.007250672315997195 0.033164149664139685
0.1062942892872 0.0072764786237461375 0.033293155190959274 0.9909404429566713 -0.07924689294557669 0.002281044029602433 0.01649449915432431 -0.0019332083827359884 -0.010375992794676448
 0.9909404429566713 -0.07924689294557669 0.0072824492083537 0.03329265969208032 -0.001932759625051281 -0.010376018705527259 0.0022477593001470173 0.016499367315974265
 0.002281044029602433 0.01649449915432431 -0.001932759625051281 -0.010376018705527259 0.007276924325285897 0.03329448640715601 0.9909405184199895 -0.07924545816942383
 -0.0019332083827359884 -0.010375992794676448 0.0022477593001470173 0.016499367315974265 0.9909405184199895 -0.07924545816942383 0.007282128283460505 0.03329407396620426
0.11254689453939999 0.007799139340047153 0.03541008700856531 0.9902467936932399 -0.08403714628050318 0.0025219548905389684 0.017459899794227008 -0.002135384848766338 -0.010985222129419487
 0.9902467936932399 -0.08403714628050318 0.00780583346794644 0.035409533446941054 -0.0021348833078328284 -0.010985254290483635 0.00248462912984942 0.017465505587755878
 0.0025219548905389684 0.017459899794227008 -0.0021348833078328284 -0.010985254290483635 0.007799638137310654 0.03541148729526752 0.99024687851116 -0.08403562483608495
 -0.002135384848766338 -0.010985222129419487 0.00248462912984942 0.017465505587755878 0.99024687851116 -0.08403562483608495 0.007805472467101322 0.03541102872059009
0.11879949979160001 0.008346012911750845 0.037541824784333176 0.989521659337526 -0.08884040210519008 0.002775734442608178 0.018423527437257853 -0.002348421070945003 -0.011593064531139808
 0.989521659337526 -0.08884040210519008 0.008353472312971021 0.03754120896394724 -0.002347863973553477 -0.01159310368631126 0.002734135633547268 0.018429943102045755
 0.002775734442608178 0.018423527437257853 -0.002347863973553477 -0.01159310368631126 0.008346567676209624 0.03754329259623728 0.9895217541496744 -0.08883879357537952
 -0.002348421070945003 -0.011593064531139808 0.002734135633547268 0.018429943102045755 0.9895217541496744 -0.08883879357537952 0.008353068746917032 0.037542784881626996
0.1250521050438 0.00891744536922918 0.03968796883414399 0.9887646993632786 -0.09365633438999758 0.0030424531176529396 0.01938516255021114 -0.002572390255165801 -0.01219930733310457
 0.9887646993632786 -0.09365633438999758 0.00892571187576513 0.03968728638354664 -0.002571774852879843 -0.012199354260368823 0.0029963493981876818 0.01939246397056861
 0.0030424531176529396 0.01938516255021114 -0.002571774852879843 -0.012199354260368823 0.008918058945590859 0.039689502542171316 0.9887648048298494 -0.09365463833321423
 -0.002572390255165801 -0.01219930733310457 0.0029963493981876818 0.01939246397056861 0.9887648048298494 -0.09365463833321423 0.008925263230051404 0.03968894257423006
0.131304710296 0.009513778144725111 0.041848115422849046 0.9879755772467887 -0.09848460562621354 0.003322176900593831 0.02034458178982088 -0.002807361136615725 -0.012803734559547574
 0.9879755772467887 -0.09848460562621354 0.00952289369928888 0.04184736178927615 -0.0028066847057269012 -0.012803790070967682 0.003271336623514696 0.020352848522378127
 0.003322176900593831 0.02034458178982088 -0.0028066847057269012 -0.012803790070967682 0.009514453348216536 0.04184971331263221 0.9879756940492428 -0.0984828215782838
 -0.002807361136615725 -0.012803734559547574 0.003271336623514696 0.020352848522378127 0.9879756940492428 -0.0984828215782838 0.009522397433107644 0.041849097865583204
0.1375573155481 0.010005400159206817 0.04373973063883914 0.9872839718606704 -0.10304257979476811 0.003581991943925978 0.021273992709842593 -0.003020485398793141 -0.013378540938920885
 0.9872839718606704 -0.10304257979476811 0.010015408556343957 0.04373891647244915 -0.0030197437160173406 -0.013378605166861814 0.003526297350101198 0.021283218628993173
 0.003581991943925978 0.021273992709842593 -0.0030197437160173406 -0.013378605166861814 0.010006139016457848 0.04374139149881247 0.9872841005356835 -0.10304070747411588
 -0.003020485398793141 -0.013378540938920885 0.003526297350101198 0.021283218628993173 0.9872841005356835 -0.10304070747411588 0.010014863172169475 0.04374073182392822
0.1438099208003 0.0105145004718421 0.04562005566086497 0.986567648964258 -0.10758766705613163 0.0038522692920101888 0.022198808972932735 -0.003242085837309776 -0.013949168817694096
 0.986567648964258 -0.10758766705613163 0.010525444042241724 0.04561917729106281 -0.0032412759450873912 -0.013949242573384976 0.003791509571808042 0.022209067423573967
 0.0038522692920101888 0.022198808972932735 -0.0032412759450873912 -0.013949242573384976 0.010515305614864606 0.04562177775204767 0.9865677901946015 -0.10758570600770949
 -0.003242085837309776 -0.013949168817694096 0.003791509571808042 0.022209067423573967 0.9865677901946015 -0.10758570600770949 0.010524847149602772 0.04562107146214293
0.1500625260525 0.011040879050685688 0.047488894522433996 0.9858268135851302 -0.11211971474640853 0.004132902445090376 0.02311890885127717 -0.003472059501716571 -0.014515505284558125
 0.9858268135851302 -0.11211971474640853 0.011052800230654287 0.04748794806350339 -0.0034711784484375663 -0.014515589412355959 0.004066868301745103 0.023130275849882826
 0.004132902445090376 0.02311890885127717 -0.0034711784484375663 -0.014515589412355959 0.011041753074433532 0.0474906760386299 0.9858269680716121 -0.11211766449964278
 -0.003472059501716571 -0.014515505284558125 0.004066868301745103 0.023130275849882826 0.9858269680716121 -0.11211766449964278 0.011052149425774503 0.04748992058048534
0.15631513130469998 0.011584334190909639 0.04934605712300119 0.9850616720756595 -0.11663857164160636 0.004423783488006956 0.024034172976574623 -0.0037103020352178377 -0.01507744007910213
 0.9850616720756595 -0.11663857164160636 0.011597275524581787 0.04934503846876693 -0.0037093468752033647 -0.015077535456383902 0.004352267164664964 0.024046727178723026
