! Created with skrf 1.8.0 (http://scikit-rf.org).
# GHz S RI R 50.0 
!freq ReS11 ImS11 ReS12 ImS12 ReS13 ImS13
! ReS14 ImS14
! ReS21 ImS21 ReS22 ImS22 ReS23 ImS23
! ReS24 ImS24
! ReS31 ImS31 ReS32 ImS32 ReS33 ImS33
! ReS34 ImS34
! ReS41 ImS41 ReS42 ImS42 ReS43 ImS43
! ReS44 ImS44
!
0.0 0.0017593521102 0.0 0.9982406478797 0.0 6.82342916679e-05 0.0 -6.823429134675e-05 8.356290648988533e-21
 0.9982406478797 0.0 0.001759352110225 0.0 -6.823429134655e-05 8.356290648964041e-21 6.823429166935e-05 0.0
 6.82342916679e-05 0.0 -6.823429134655e-05 8.356290648964041e-21 0.001759352111529 0.0 0.998240647881 0.0
 -6.823429134675e-05 8.356290648988533e-21 6.823429166935e-05 0.0 0.998240647881 0.0 0.001759352111563 0.0
0.005 0.0018936373397286416 0.0014383849870565502 0.9980706539797308 -0.0036846578258908176 9.599108209609031e-05 0.0007532290880309931 -9.321108118734706e-05 -0.0004724000349515137
 0.9980706539797308 -0.0036846578258908176 0.001893624742020924 0.0014383924020633697 -9.32134255658345e-05 -0.0004724018707273085 9.60535787375451e-05 0.0007532051573291728
 9.599108209609031e-05 0.0007532290880309931 -9.32134255658345e-05 -0.0004724018707273085 0.0018936363193526576 0.0014384529065592701 0.9980706543534168 -0.0036845907613837874
 -9.321108118734706e-05 -0.0004724000349515137 9.60535787375451e-05 0.0007532051573291728 0.9980706543534168 -0.0036845907613837874 0.001893626502580735 0.0014384586053937996
0.006252605252188 0.0019290704906305355 0.0018036109239259312 0.9980254869489116 -0.004606689400523915 0.00010401995021056633 0.0009418879611768907 -0.00010035888094658374 -0.0005910982276551158
 0.9980254869489116 -0.004606689400523915 0.0019290507979476804 0.0018036203606387245 -0.00010036252868714654 -0.000591100491241858 0.000104117593042314 0.0009418568865659699
 0.00010401995021056633 0.0009418879611768907 -0.00010036252868714654 -0.000591100491241858 0.001929068825228848 0.0018036958156220579 0.9980254874634068 -0.004606605580352736
 -0.00010035888094658374 -0.0005910982276551158 0.000104117593042314 0.0009418568865659699 0.9980254874634068 -0.004606605580352736 0.0019290534805391638 0.0018037030953934271
0.01250521050438 0.002116844454160979 0.003644692752223627 0.9977844215577338 -0.00921393336588131 0.00015058676932280977 0.0018840426916231882 -0.00014142902875280178 -0.0011849218561141596
 0.9977844215577338 -0.00921393336588131 0.0021167658159706782 0.003644713348281159 -0.00014144340023420265 -0.0011849260387158769 0.00015097608510333233 0.0018839678893492122
 0.00015058676932280977 0.0018840426916231882 -0.00014144340023420265 -0.0011849260387158769 0.00211683723464683 0.0036448623270761453 0.9977844230523449 -0.009213765956146114
 -0.00014142902875280178 -0.0011849218561141596 0.00015097608510333233 0.0018839678893492122 0.9977844230523449 -0.009213765956146114 0.002116775971868275 0.0036448784623469388
0.01875781575657 0.0023231277725127594 0.005511612864275033 0.9975171209587281 -0.01383289282133008 0.00020805029536621674 0.0028270633363782194 -0.00019158014059335942 -0.0017805811169607536
 0.9975171209587281 -0.01383289282133008 0.002322951057880658 0.005511646529588816 -0.00019161218343181777 -0.0017805868001927936 0.00020892470041743703 0.00282692939704309
 0.00020805029536621674 0.0028270633363782194 -0.00019161218343181777 -0.0017805868001927936 0.002323111114246311 0.0055118670584380905 0.9975171239027525 -0.013832641899997052
 -0.00019158014059335942 -0.0017805811169607536 0.00020892470041743703 0.00282692939704309 0.9975171239027525 -0.013832641899997052 0.0023229734693994896 0.0055118937247939275
0.02501042100875 0.002548358127747513 0.007401701880855135 0.9972232402238175 -0.018465749843240235 0.0002765268769955789 0.003770954862486822 -0.00025094223586344486 -0.002377771871332893
 0.9972232402238175 -0.018465749843240235 0.002548044277726998 0.007401750700968565 -0.00025099881203530163 -0.00237777855604848 0.0002780797509419244 0.0037707437093865083
 0.0002765268769955789 0.003770954862486822 -0.00025099881203530163 -0.00237777855604848 0.0025483281348331233 0.007402040677103294 0.9972232450808853 -0.018465415431798436
 -0.00025094223586344486 -0.002377771871332893 0.0002780797509419244 0.0037707437093865083 0.9972232450808853 -0.018465415431798436 0.0025480837137807476 0.0074020796417594405
0.03126302626094 0.002792955005570574 0.009313557470468333 0.9969024185526203 -0.023113403834014813 0.00035613259661037715 0.004715634339240086 -0.00031964096942517685 -0.0029762694321469204
 0.9969024185526203 -0.023113403834014813 0.002792465012989106 0.009313623705310997 -0.0003197288694459567 -0.0029762765376534443 0.00035855745151985874 0.004715325214965663
 0.00035613259661037715 0.004715634339240086 -0.0003197288694459567 -0.0029762765376534443 0.002792907778308108 0.009313980876459257 0.9969024257918216 -0.023112985919219717
 -0.00031964096942517685 -0.0029762694321469204 0.00035855745151985874 0.004715325214965663 0.9969024257918216 -0.023112985919219717 0.0027925262402244194 0.009314033996523238
0.037515631513130004 0.003057328227735386 0.011246243607551883 0.9965542881850092 -0.02777627220643013 0.0004469821744236573 0.005660983562988031 -0.000397798519916777 -0.003575875980366573
 0.9965542881850092 -0.02777627220643013 0.003056623123870312 0.011246329691513216 -0.0003979244700947193 -0.0035758828442443965 0.00045047272310945084 0.005660553005426298
 0.0004469821744236573 0.005660983562988031 -0.0003979244700947193 -0.0035758828442443965 0.0030572598593783754 0.01124675164694197 0.9965542982794456 -0.02777577074930113
 -0.000397798519916777 -0.003575875980366573 0.00045047272310945084 0.005660553005426298 0.9965542982794456 -0.02777577074930113 0.003056710904144229 0.011246820868661321
0.043768236765320004 0.0033418812281499647 0.013199046892952641 0.9961784780565138 -0.03245453399485721 0.0005491884331074011 0.006606865062171088 -0.0004855338852034513 -0.004176404597058318
 0.9961784780565138 -0.03245453399485721 0.0033409220722974997 0.013199155435698549 -0.0004857045517914768 -0.004176410475153329 0.0005539386138581428 0.006606286877393035
 0.0005491884331074011 0.006606865062171088 -0.0004857045517914768 -0.004176410475153329 0.003341787802396559 0.013199639598007068 0.9961784914824261 -0.032453948938497346
 -0.0004855338852034513 -0.004176404597058318 0.0005539386138581428 0.006606286877393035 0.9961784914824261 -0.032453948938497346 0.003341041161178713 0.013199726956370948
0.050020842017509996 0.003647012554549865 0.01517137585289786 0.995774615682404 -0.03714823048787363 0.0006628619579930272 0.007553128725384671 -0.0005829629686927851 -0.004777672675786588
 0.995774615682404 -0.03714823048787363 0.003645760425719246 0.015171509640420858 -0.0005831849606424744 -0.004777676742259915 0.0006690659365710179 0.0075523739593647814
 0.0006628619579930272 0.007553128725384671 -0.0005831849606424744 -0.004777676742259915 0.003646890146732819 0.015172053266038779 0.9957746329216275 -0.03714756175634227
 -0.0005829629686927851 -0.004777672675786588 0.0006690659365710179 0.0075523739593647814 0.9957746329216275 -0.03714756175634227 0.0036459155727567747 0.015172160884626529
0.055454545454549996 0.003929199457484938 0.01690084238562814 0.9954005756699603 -0.04123969492422082 0.0007710445368547146 0.008375647214276243 -0.0006755919651091434 -0.005300652429534417
 0.9954005756699603 -0.04123969492422082 0.003927661126806957 0.01690100051220275 -0.0006758638843684092 -0.005300654187564297 0.0007786697634841735 0.008374713314476943
 0.0007710445368547146 0.008375647214276243 -0.0006758638843684092 -0.005300654187564297 0.003929048667723793 0.016901593459524 0.9954005966183199 -0.041238953395685875
 -0.0006755919651091434 -0.005300652429534417 0.0007786697634841735 0.008374713314476943 0.9954005966183199 -0.041238953395685875 0.003927851460506536 0.016901720478491217
0.056273447269699996 0.003973116617648232 0.017162711513792908 0.9953423282944643 -0.041857314589389835 0.0007881108448386642 0.008499615060719085 -0.0006901985715415724 -0.005379498709573899
 0.9953423282944643 -0.041857314589389835 0.00397153260638252 0.01716287350984961 -0.0006904784421314962 -0.0053795000569521806 0.0007959630019498065 0.008498651970780369
 0.0007881108448386642 0.008499615060719085 -0.0006904784421314962 -0.0053795000569521806 0.003972961292338402 0.017163473693253353 0.995342349833972 -0.04185656208238363
 -0.0006901985715415724 -0.005379498709573899 0.0007959630019498065 0.008498651970780369 0.995342349833972 -0.04185656208238363 0.003971728553237829 0.017163603784510123
0.06252605252188 0.004320584069635877 0.01917258024840661 0.9948812436123307 -0.04658167791468907 0.0009250404893653538 0.009446157001438785 -0.000807350337819064 -0.005981700538667734
 0.9948812436123307 -0.04658167791468907 0.004318629271002923 0.01917277359626539 -0.0008076945858846682 -0.005981698177945822 0.0009347353991028015 0.00944495102774618
 0.0009250404893653538 0.009446157001438785 -0.0008076945858846682 -0.005981698177945822 0.004320391881089918 0.01917342726243921 0.9948812699453512 -0.046580841513891115
 -0.000807350337819064 -0.005981700538667734 0.0009347353991028015 0.00944495102774618 0.9948812699453512 -0.046580841513891115 0.004318870750550347 0.01917358212818213
0.06877865777407 0.004689801979218901 0.02120053757500917 0.9943909904162197 -0.05132116694161637 0.0010737534024440058 0.01039258099472614 -0.0009345246710996934 -0.006584094323104004
 0.9943909904162197 -0.05132116694161637 0.004687437485777147 0.0212007655995339 -0.0009349397416792778 -0.006584087183828897 0.0010854858038260396 0.010391094732107763
 0.0010737534024440058 0.01039258099472614 -0.0009349397416792778 -0.006584087183828897 0.004689568970884739 0.02120146950291368 0.9943910220432564 -0.05132024651018849
 -0.0009345246710996934 -0.006584094323104004 0.0010854858038260396 0.010391094732107763 0.9943910220432564 -0.05132024651018849 0.00468772922160587 0.021201651535077533
0.07503126302626001 0.005081153886006202 0.02324615791352902 0.9938711990044766 -0.056075593213754986 0.0012343490383601434 0.011338707707666613 -0.0010718246351094985 -0.007186493906392371
 0.9938711990044766 -0.056075593213754986 0.005078340781045081 0.023246424123489286 -0.0010723169199235744 -0.007186480836777635 0.0012483138019002322 0.011336900877866318
 0.0012343490383601434 0.011338707707666613 -0.0010723169199235744 -0.007186480836777635 0.005080876090006837 0.023247174844898622 0.9938712364341332 -0.05607458859766817
 -0.0010718246351094985 -0.007186493906392371 0.0012483138019002322 0.011336900877866318 0.9938712364341332 -0.05607458859766817 0.005078687485722651 0.023247386526663635
0.08128386827845 0.005495019779165005 0.02530902776069112 0.9933215015800188 -0.06084474013387458 0.0014069236330131571 0.012284352507758238 -0.0012193498426821454 -0.00778871041342087
 0.9933215015800188 -0.06084474013387458 0.00549171913023999 0.02530933585141618 -0.0012199256803463135 -0.007788690180442308 0.001423315723056733 0.012282181932333583
 0.0014069236330131571 0.012284352507758238 -0.0012199256803463135 -0.007788690180442308 0.005494693215733837 0.02531012979860057 0.9933215453295366 -0.0608436511593062
 -0.0012193498426821454 -0.00778871041342087 0.001423315723056733 0.012282181932333583 0.9933215453295366 -0.0608436511593062 0.005492125503962245 0.02531037370580239
0.08753647353064001 0.00593177602499306 0.02738874098546476 0.9927415325906217 -0.06562836764759929 0.0015915700467982771 0.013229325817019865 -0.0013771963382701174 -0.008390551983772624
 0.9927415325906217 -0.06562836764759929 0.005927948877416806 0.027389094841817282 -0.0013778620143217902 -0.008390523273300643 0.0016105844807730544 0.013226745390847885
 0.0015915700467982771 0.013229325817019865 -0.0013778620143217902 -0.008390523273300643 0.005931396702208946 0.027389928244713854 0.9927415831866456 -0.06562719412338523
 -0.0013771963382701174 -0.008390551983772624 0.0016105844807730544 0.013226745390847885 0.9927415831866456 -0.06562719412338523 0.005928419606886983 0.027390207047522895
0.09378907878283 0.006391795259456418 0.02948489548054562 0.9921309290381694 -0.0704262155812999 0.0017883776126990925 0.014173433376357184 -0.0015454564742920862 -0.008991823604139974
 0.9921309290381694 -0.0704262155812999 0.006387402629940155 0.029485299180178195 -0.00154621822113432 -0.008991785021072682 0.00181020941743194 0.014170394041904321
 0.0017883776126990925 0.014173433376357184 -0.00154621822113432 -0.008991785021072682 0.006391359172912616 0.029486168089335622 0.9921309870180068 -0.07042495729792267
 -0.0015454564742920862 -0.008991823604139974 0.00181020941743194 0.014170394041904321 0.9921309870180068 -0.07042495729792267 0.006387942386897832 0.029486484554346992
0.100041684035 0.006875446255509107 0.03159709070843352 0.9914893307669853 -0.07523800609654292 0.001997431986536322 0.015116476458899637 -0.0017242187845701031 -0.009592327001205095
 0.9914893307669853 -0.07523800609654292 0.006870449125783858 0.03159754852545221 -0.0017250827812747406 -0.00959227706960298 0.0020222761521276017 0.015112926181319151
 0.001997431986536322 0.015116476458899637 -0.0017250827812747406 -0.00959227706960298 0.006874949387673847 0.03159844880791679 0.9914893966787178 -0.07523666282739316
 -0.0017242187845701031 -0.009592327001205095 0.0020222761521276017 0.015112926181319151 0.9914893966787178 -0.07523666282739316 0.006871062565252254 0.03159880580050606
0.1059090909091 0.007351119223742042 0.03359339375615203 0.9908587513949999 -0.07976578037619678 0.0022048186261575294 0.016000273450075295 -0.0019015952659959463 -0.01015495752181724
 0.9908587513949999 -0.07976578037619678 0.00734551931164684 0.03359390642220408 -0.001902560785425618 -0.010154895526581505 0.0022326668393139026 0.015996193708119225
 0.0022048186261575294 0.016000273450075295 -0.001902560785425618 -0.010154895526581505 0.00735056165365772 0.033594832221439073 0.9908588252592578 -0.07976435713423671
 -0.0019015952659959463 -0.01015495752181724 0.0022326668393139026 0.015996193708119225 0.9908588252592578 -0.07976435713423671 0.007346206111959871 0.033595229941308355
0.1062942892872 0.007383093771519425 0.03372492587209994 0.9908163807376485 -0.08006344553135317 0.0022188149997662355 0.016058252047817145 -0.0019135678547731385 -0.010191860579807447
 0.9908163807376485 -0.08006344553135317 0.007377453082384238 0.03372544228092145 -0.0019145402268141948 -0.010191797743043771 0.00224686643148472 0.016054135790890486
 0.0022188149997662355 0.016058252047817145 -0.0019145402268141948 -0.010191797743043771 0.007382532091827717 0.03372636961804236 0.9908164551415001 -0.08006201703176162
 -0.0019135678547731385 -0.010191860579807447 0.00224686643148472 0.016054135790890486 0.9908164551415001 -0.08006201703176162 0.0073781448413258455 0.033726770105115184
0.11254689453939999 0.00791509838628568 0.03586799852696658 0.990111725289393 -0.0849022258116719 0.002452604514078793 0.016998552989364105 -0.002113584191214724 -0.010790219395735823
 0.990111725289393 -0.0849022258116719 0.007908775031099257 0.03586857820657178 -0.0021146710101613486 -0.010790142016662865 0.00248405798217181 0.016993812692366092
 0.002452604514078793 0.016998552989364105 -0.0021146710101613486 -0.010790142016662865 0.007914467850457962 0.035869528090974115 0.9901118087582749 -0.08490071181852839
 -0.002113584191214724 -0.010790219395735823 0.00248405798217181 0.016993812692366092 0.9901118087582749 -0.08490071181852839 0.007909549726976588 0.03586997514403933
0.11879949979160001 0.008471816322489972 0.03802590350657312 0.9893750143955868 -0.08975402556107795 0.0026988742775947783 0.017937168132366316 -0.002324344088497437 -0.011387195152088546
 0.9893750143955868 -0.08975402556107795 0.008464771141051734 0.03802655134527704 -0.002325551371501758 -0.011387101513224033 0.0027339243653704366 0.01793174268791973
 0.0026988742775947783 0.017937168132366316 -0.002325551371501758 -0.011387101513224033 0.008471112872191107 0.03802751907368027 0.9893751075160159 -0.0897524257962389
 -0.002324344088497437 -0.011387195152088546 0.0027339243653704366 0.01793174268791973 0.9893751075160159 -0.0897524257962389 0.008465633370016407 0.03802801587226365
0.1250521050438 0.009053599260969466 0.040198232088402605 0.9886059019120911 -0.09461851098286296 0.0029576937824555335 0.018873882455455553 -0.002545919496377862 -0.011982576218083681
 0.9886059019120911 -0.09461851098286296 0.009045793033978249 0.040198953188626624 -0.002547253205918646 -0.011982464521753194 0.0029965348327037713 0.01886770768839061
 0.0029576937824555335 0.018873882455455553 -0.002547253205918646 -0.011982464521753194 0.009052818824030919 0.040199933860952185 0.9886060052851516 -0.09461682515003929
 -0.002545919496377862 -0.011982576218083681 0.0029965348327037713 0.01886770768839061 0.9886060052851516 -0.09461682515003929 0.009046747369175531 0.04020048369647339
0.131304710296 0.009660794150247029 0.04238457133719106 0.9878040458232226 -0.09949533657672069 0.0032291281239111304 0.019808477190939745 -0.0027783778864855996 -0.012576147661451908
 0.9878040458232226 -0.09949533657672069 0.009652187592529001 0.042385371020932545 -0.0027798439296643244 -0.012576016030076256 0.0032719541839479876 0.019801485838187468
 0.0032291281239111304 0.019808477190939745 -0.0027798439296643244 -0.012576016030076256 0.009659932639718538 0.042386359534466934 0.987804160064955 -0.0994935643628907
 -0.0027783778864855996 -0.012576147661451908 0.0032719541839479876 0.019801485838187468 0.987804160064955 -0.0994935643628907 0.009653238582661525 0.042386965814376766
0.1375573155481 0.010161989419484669 0.0443001812176641 0.9871009295083522 -0.10409964130031074 0.003480854057887138 0.02071322116384325 -0.002989356013907202 -0.013140242864476123
 0.9871009295083522 -0.10409964130031074 0.010152541528239092 0.0443010492949191 -0.0029909633072009337 -0.01314009096086468 0.0035277660861192436 0.020705417952925104
 0.003480854057887138 0.02071322116384325 -0.0029909633072009337 -0.01314009096086468 0.010161043661832092 0.04430205593946743 0.9871010551264526 -0.10409778253508113
 -0.002989356013907202 -0.013140242864476123 0.0035277660861192436 0.020705417952925104 0.9871010551264526 -0.10409778253508113 0.010153693000883127 0.04430270702635153
0.1438099208003 0.010681039458737942 0.046204317942246546 0.9863726500680053 -0.10869086890937417 0.003742691795584949 0.021613474727176923 -0.003208711752133638 -0.013700178647660367
 0.9863726500680053 -0.10869086890937417 0.010670710634905467 0.04620525880727689 -0.0032104666645090046 -0.013700004602341116 0.0037938666397464927 0.021604797579766296
 0.003742691795584949 0.021613474727176923 -0.0032104666645090046 -0.013700004602341116 0.010680005510634517 0.04620627938014897 0.9863727876779509 -0.10868892329223462
 -0.003208711752133638 -0.013700178647660367 0.0037938666397464927 0.021604797579766296 0.9863727876779509 -0.10868892329223462 0.010671966975253005 0.046206977749074486
0.1500625260525 0.011217740162008754 0.0480967811215779 0.9856194166332943 -0.11326886322713996 0.0040145367152395585 0.02250911960193269 -0.0034363424501999565 -0.014255842863407451
 0.9856194166332943 -0.11326886322713996 0.01120649074286552 0.04809779940405245 -0.0034382513335774307 -0.014255644731240809 0.004070149871478045 0.02249950419179067
 0.0040145367152395585 0.02250911960193269 -0.0034382513335774307 -0.014255644731240809 0.011216614076613307 0.048098829478546455 0.9856195668632404 -0.11326683044441334
 -0.0034363424501999565 -0.014255842863407451 0.004070149871478045 0.02249950419179067 0.9856195668632404 -0.11326683044441334 0.011207856304537502 0.0480995777637782
0.15631513130469998 0.011771885715109197 0.04997737634067079 0.9848414396873206 -0.11783346957780338 0.004296282810225555 0.023400039851937105 -0.003672144053859405 -0.014807126005105897
 0.9848414396873206 -0.11783346957780338 0.011759675972434727 0.049978476909986774 -0.0036742132427544038 -0.014806901765683203 0.004356508397598071 0.02338941963444614
