! Created with skrf 1.8.0 (http://scikit-rf.org).
# GHz S RI R 50.0 
!freq ReS11 ImS11 ReS12 ImS12 ReS13 ImS13
! ReS14 ImS14
! ReS21 ImS21 ReS22 ImS22 ReS23 ImS23
! ReS24 ImS24
! ReS31 ImS31 ReS32 ImS32 ReS33 ImS33
! ReS34 ImS34
! ReS41 ImS41 ReS42 ImS42 ReS43 ImS43
! ReS44 ImS44
!
0.0 0.001714063682931 0.0 0.9982859362915 0.0 6.661871868885e-05 0.0 -6.661871802225e-05 8.158439978924856e-21
 0.9982859362915 0.0 0.001714063682951 0.0 -6.661871802288e-05 8.158439979002008e-21 6.661871868851e-05 0.0
 6.661871868885e-05 0.0 -6.661871802288e-05 8.158439979002008e-21 0.00171406367584 0.0 0.9982859362844 0.0
 -6.661871802225e-05 8.158439978924856e-21 6.661871868851e-05 0.0 0.9982859362844 0.0 0.001714063675828 0.0
0.005 0.0018447840651134996 0.001397636742392759 0.9981204487087021 -0.003590179866259663 9.429805623281417e-05 0.0007586062266353085 -9.137647425312836e-05 -0.00047176595858386243
 0.9981204487087021 -0.003590179866259663 0.001844794409057967 0.0013976306357685658 -9.137543636925804e-05 -0.000471765104022364 9.424898076592912e-05 0.0007586250909912596
 9.429805623281417e-05 0.0007586062266353085 -9.137543636925804e-05 -0.000471765104022364 0.0018447852509793177 0.001397703273951334 0.9981204490785125 -0.0035901128059764144
 -9.137647425312836e-05 -0.00047176595858386243 9.424898076592912e-05 0.0007586250909912596 0.9981204490785125 -0.0035901128059764144 0.0018447939602326431 0.0013976982239939351
0.006252605252188 0.0018792317958350215 0.001752539983967562 0.99807653554227 -0.0044885781892872656 0.00010230225429250513 0.0009486027242273752 -9.8447809671139e-05 -0.0005903127414215648
 0.99807653554227 -0.0044885781892872656 0.0018792479653147172 0.0017525321880281402 -9.844619509166023e-05 -0.0005903116867481944 0.00010222558096295708 0.0009486272045578424
 0.00010230225429250513 0.0009486027242273752 -9.844619509166023e-05 -0.0005903116867481944 0.001879233583083485 0.0017526231315613998 0.9980765360534053 -0.004488494373793493
 -9.8447809671139e-05 -0.0005903127414215648 0.00010222558096295708 0.0009486272045578424 0.9980765360534053 -0.004488494373793493 0.0018792471964040657 0.0017526166692579752
0.01250521050438 0.002061525135590547 0.003541695976450378 0.9978424838620479 -0.008977790038523998 0.00014871277950598627 0.0018974095439857489 -0.00013900572507298 -0.0011833977188598758
 0.9978424838620479 -0.008977790038523998 0.002061589705158922 0.0035416787217709953 -0.00013899936785953374 -0.0011833957583313635 0.000148407094543871 0.0018974683021016757
 0.00014871277950598627 0.0018974095439857489 -0.00013899936785953374 -0.0011833957583313635 0.0020615317062367814 0.003541861943674179 0.9978424853306421 -0.008977622652066737
 -0.00013900572507298 -0.0011833977188598758 0.000148407094543871 0.0018974683021016757 0.9978424853306421 -0.008977622652066737 0.002061586053769982 0.00354184750312096
0.01875781575657 0.002261376443871223 0.00535613810210011 0.9975834658928354 -0.013478524904070146 0.0002059625111872666 0.0028470550139967086 -0.00018842515463622696 -0.001778341023343178
 0.9975834658928354 -0.013478524904070146 0.002261521544858643 0.005356109565734423 -0.00018841098588095608 -0.0017783383352205115 0.0002052759900181527 0.0028471599589140048
 0.0002059625111872666 0.0028470550139967086 -0.00018841098588095608 -0.0017783383352205115 0.0022613907935259813 0.0053563866729330984 0.9975834687654067 -0.013478274041370366
 -0.00018842515463622696 -0.001778341023343178 0.0002052759900181527 0.0028471599589140048 0.9975834687654067 -0.013478274041370366 0.002261512895676848 0.005356362633004784
0.02501042100875 0.0024792035333598785 0.007193274243019134 0.9972991529514981 -0.01799291982835817 0.00027416517227484363 0.003797555611663179 -0.0002468335810701362 -0.0023748387417834443
 0.9972991529514981 -0.01799291982835817 0.0024794612370619405 0.007193232449907345 -0.0002468085712643943 -0.002374835536967455 0.0002729460394011533 0.003797720690072277
 0.00027416517227484363 0.003797555611663179 -0.0002468085712643943 -0.002374835536967455 0.002479228665166535 0.007193605195839743 0.9972991576811167 -0.017992585552550025
 -0.0002468335810701362 -0.0023748387417834443 0.0002729460394011533 0.003797720690072277 0.9972991576811167 -0.017992585552550025 0.002479445475924606 0.0071935698365352485
0.03126302626094 0.002715406850132944 0.009051747724074353 0.9969892009475303 -0.02252186184081651 0.00035343458312377563 0.004748836660410942 -0.00031435427273311645 -0.002972670040489438
 0.9969892009475303 -0.02252186184081651 0.0027158091834955053 0.009051690547641983 -0.0003143154250840211 -0.002972666562846648 0.00035153097152834515 0.0047490778663849854
 0.00035343458312377563 0.004748836660410942 -0.0003143154250840211 -0.002972666562846648 0.0027154457607873293 0.00905216082067501 0.9969892079789187 -0.022521444194032774
 -0.00031435427273311645 -0.002972670040489438 0.00035153097152834515 0.0047490778663849854 0.9969892079789187 -0.022521444194032774 0.0027157841824622785 0.009052112324145371
0.037515631513130004 0.0029703776925150533 0.010930656772592735 0.9966532589432076 -0.027065768440728298 0.0004438834642674841 0.005700787096779251 -0.00039110719541595004 -0.003571642423216947
 0.9966532589432076 -0.027065768440728298 0.0029709566483206214 0.010930581934428085 -0.0003910515424641003 -0.0035716389496417158 0.0004411433552378652 0.0057011224901946
 0.0004438834642674841 0.005700787096779251 -0.0003910515424641003 -0.0035716389496417158 0.0029704333839785132 0.010931151746120938 0.9966532687252514 -0.027065267455653005
 -0.00039110719541595004 -0.003571642423216947 0.0004411433552378652 0.0057011224901946 0.9966532687252514 -0.027065267455653005 0.0029709202767213335 0.010931088196953268
0.043768236765320004 0.0032445013851633295 0.0128293169551832 0.9962909726726242 -0.03162482509231561 0.0005456228668003145 0.006653276126203913 -0.0004772093189540444 -0.004171575102610576
 0.9962909726726242 -0.03162482509231561 0.0032452889295563137 0.012829222024365856 -0.00047713392044554376 -0.004171571943004436 0.0005418940638661066 0.006653725853904641
 0.0005456228668003145 0.006653276126203913 -0.00047713392044554376 -0.004171571943004436 0.0032445768588624815 0.012829893511558804 0.9962909856524931 -0.03162424079024686
 -0.0004772093189540444 -0.004171575102610576 0.0005418940638661066 0.006653725853904641 0.9962909856524931 -0.03162424079024686 0.003245239049115471 0.01282981289683042
0.050020842017509996 0.003538158728065761 0.014747163036211756 0.9959019863391584 -0.036199083297387954 0.0006587618160889965 0.007606160116944247 -0.0005727747162272859 -0.00477229213802064
 0.9959019863391584 -0.036199083297387954 0.003539186807287641 0.014747045428387428 -0.000572676657791717 -0.004772289635259148 0.0006538919375162362 0.007606746434911313
 0.0006587618160889965 0.007606160116944247 -0.000572676657791717 -0.004772289635259148 0.0035382569867936915 0.014747820848523153 0.995902002965493 -0.03619841569326091
 -0.0005727747162272859 -0.00477229213802064 0.0006538919375162362 0.007606746434911313 0.995902002965493 -0.03619841569326091 0.0035391212742169093 0.01474772105762622
0.055454545454549996 0.0038095124622616557 0.016429025600936353 0.9955419850351727 -0.04018657275341657 0.0007664237794807758 0.00843444724810085 -0.0006635956977364715 -0.005294834950145013
 0.9955419850351727 -0.04018657275341657 0.0038107755063481207 0.016428886067252912 -0.0006634755996574059 -0.00529483332222156 0.0007604383775137482 0.008435171996792312
 0.0007664237794807758 0.00843444724810085 -0.0006634755996574059 -0.00529483332222156 0.0038096329608655237 0.016429753736100904 0.9955420051953943 -0.04018583276411441
 -0.0006635956977364715 -0.005294834950145013 0.0007604383775137482 0.008435171996792312 0.9955420051953943 -0.04018583276411441 0.0038106946257088245 0.016429635490254894
0.056273447269699996 0.0038517267287287893 0.016683700790180566 0.995485943701994 -0.040788508717627736 0.0007834070542913713 0.008559285993119644 -0.0006779145651582475 -0.005373619080126336
 0.995485943701994 -0.040788508717627736 0.0038530272745400697 0.016683557766387882 -0.0006777909573145217 -0.005373617609995434 0.0007772435364312691 0.008560033289071109
 0.0007834070542913713 0.008559285993119644 -0.0006777909573145217 -0.005373617609995434 0.0038518507756748594 0.016684439498625466 0.9954859644241852 -0.04078775781956906
 -0.0006779145651582475 -0.005373619080126336 0.0007772435364312691 0.008560033289071109 0.9954859644241852 -0.04078775781956906 0.0038529439398725432 0.016684318322828906
0.06252605252188 0.004185578973436662 0.018638480523571633 0.9950424888068062 -0.045393007593347016 0.0009196628310772755 0.009512493102757971 -0.0007927371019671381 -0.00597538114726943
 0.9950424888068062 -0.045393007593347016 0.004187183908911705 0.018638309188897376 -0.0007925850795857923 -0.005975381118426574 0.000912052939165298 0.009513427918849756
 0.0009196628310772755 0.009512493102757971 -0.0007925850795857923 -0.005975381118426574 0.0041857318123353845 0.018639299729023687 0.995042514075987 -0.045392173408554407
 -0.0007927371019671381 -0.00597538114726943 0.000912052939165298 0.009513427918849756 0.995042514075987 -0.045392173408554407 0.004187080618519246 0.018639154860919868
0.06877865777407 0.0045400858070078695 0.020611081289338057 0.9945712665296486 -0.05001244247645751 0.0010676307198118683 0.010465614350320203 -0.0009173475483543556 -0.006577402144651863
 0.9945712665296486 -0.05001244247645751 0.0045420270512811665 0.02061087859138166 -0.0009171642700458993 -0.006577403998563335 0.0010584215639954041 0.01046676540575858
 0.0010676307198118683 0.010465614350320203 -0.0009171642700458993 -0.006577403998563335 0.0045402704400038406 0.020611980562823682 0.9945712967974399 -0.05001152500116834
 -0.0009173475483543556 -0.006577402144651863 0.0010584215639954041 0.01046676540575858 0.9945712967974399 -0.05001152500116834 0.004541901645731672 0.020611809595482845
0.07503126302626001 0.004915614390772306 0.022601100890042317 0.9940719230040282 -0.05464664218269468 0.0012274094507540192 0.011418476923116396 -0.0010518480203431074 -0.007179503797375558
 0.9940719230040282 -0.05464664218269468 0.004917923864271462 0.02260086361712489 -0.0010516306682440402 -0.007179508008263741 0.0012164480059864136 0.011419875136534278
 0.0012274094507540192 0.011418476923116396 -0.0010516306682440402 -0.007179508008263741 0.00491583381891918 0.02260207976373183 0.9940719587239951 -0.05464564141075547
 -0.0010518480203431074 -0.007179503797375558 0.0012164480059864136 0.011419875136534278 0.9940719587239951 -0.05464564141075547 0.004917774179378699 0.022601880189737508
0.08128386827845 0.0053125286925800475 0.024608149227046412 0.9935441059852687 -0.05929540840653592 0.0013990947536559755 0.012370902786925136 -0.0011963374267446294 -0.007781505322266862
 0.9935441059852687 -0.05929540840653592 0.005315238321591999 0.024607874006330518 -0.0011960832061899298 -0.007781512397055917 0.0013862278828509057 0.01237258129852345
 0.0013990947536559755 0.012370902786925136 -0.0011960832061899298 -0.007781512397055917 0.005312785915164375 0.024609207196918798 0.993544147612876 -0.05929432432616795
 -0.0011963374267446294 -0.007781505322266862 0.0013862278828509057 0.01237258129852345 0.993544147612876 -0.05929432432616795 0.0053150621893500805 0.02460897640706709
0.08753647353064001 0.005731189425673121 0.02663184371535466 0.9929874651672863 -0.06395852027927974 0.0015827792067287726 0.013322709044315895 -0.0013509113602856544 -0.008383223145328396
 0.9929874651672863 -0.06395852027927974 0.0057343311470687205 0.02663152701060736 -0.0013506174996353322 -0.008383233623599462 0.0015678536862918323 0.01332470323762068
 0.0015827792067287726 0.013322709044315895 -0.0013506174996353322 -0.008383233623599462 0.005731487438806534 0.026632980237303563 0.9929875131596921 -0.06395735287660191
 -0.0013509113602856544 -0.008383223145328396 0.0015678536862918323 0.01332470323762068 0.9929875131596921 -0.06395735287660191 0.00573412639545613 0.026632715519151515
0.09378907878283 0.006171953954121929 0.028671806006796186 0.9924016524707421 -0.06863573762841582 0.0017785520907329859 0.014273708205638105 -0.0015156619827579774 -0.008984470715123906
 0.9924016524707421 -0.06863573762841582 0.00617555972005779 0.0286714441160716 -0.0015153257333378914 -0.008984485169050966 0.0017614146381798811 0.014276055728812749
 0.0017785520907329859 0.014273708205638105 -0.0015153257333378914 -0.008984485169050966 0.006172295750652412 0.028673020499700393 0.9924017072876002 -0.06863448688384434
 -0.0015156619827579774 -0.008984470715123906 0.0017614146381798811 0.014276055728812749 0.9924017072876002 -0.06863448688384434 0.0061753241737346285 0.028672719035897905
0.100041684035 0.0066351761744216356 0.03072765960090418 0.9917863223114758 -0.0733268033591983 0.0019864992455771832 0.015223708400047282 -0.0016906779070512401 -0.009585058384740351
 0.9917863223114758 -0.0733268033591983 0.006639277957052725 0.030727248653878495 -0.001690296543058786 -0.009585077419036631 0.001966996549147044 0.015226449186825022
 0.0019864992455771832 0.015223708400047282 -0.001690296543058786 -0.009585077419036631 0.006635564742752259 0.030728951444815616 0.9917863844148519 -0.07332546924884566
 -0.0016906779070512401 -0.009585058384740351 0.001966996549147044 0.015226449186825022 0.9917863844148519 -0.07332546924884566 0.00663900943753861 0.030728610311120053
0.1059090909091 0.007090598207712656 0.032670977786786 0.9911817489818969 -0.07774122364615774 0.002192781282854248 0.016114099666110212 -0.0018643236843105045 -0.0101478743221014
 0.9911817489818969 -0.07774122364615774 0.0070951945496405345 0.03267051713318222 -0.0018638975263517463 -0.010147898233518448 0.0021709196217765013 0.01611724786223992
 0.002192781282854248 0.016114099666110212 -0.0018638975263517463 -0.010147898233518448 0.007091033379915375 0.03267234161724332 0.9911818183454666 -0.07773981128070374
 -0.0018643236843105045 -0.0101478743221014 0.0021709196217765013 0.01611724786223992 0.9911818183454666 -0.07773981128070374 0.007094893104603246 0.03267196050089812
0.1062942892872 0.0071212063785744744 0.032799028054839315 0.9911411318535281 -0.078031445247082 0.002206702929659629 0.016172513552599712 -0.001876044076249636 -0.010184793336665433
 0.9911411318535281 -0.078031445247082 0.007125836174682849 0.032798564010030846 -0.0018756148947619109 -0.010184817588532636 0.002184681679363506 0.01617568984267719
 0.002206702929659629 0.016172513552599712 -0.0018756148947619109 -0.010184817588532636 0.0071216447022268425 0.03280039659108514 0.9911412017082313 -0.07803002774227145
 -0.001876044076249636 -0.010184793336665433 0.002184681679363506 0.01617568984267719 0.9911412017082313 -0.07803002774227145 0.007125532500935421 0.03280001275421843
0.11254689453939999 0.007630391104650449 0.03488553362473389 0.9904657412534963 -0.08274937730952223 0.0024392416811019704 0.01711992353471451 -0.0020718416406029045 -0.010783479543417764
 0.9904657412534963 -0.08274937730952223 0.007635580940047926 0.034885012266421545 -0.0020713619615346673 -0.010783509682493175 0.0024145486013368747 0.017123579893574187
 0.0024392416811019704 0.01711992353471451 -0.0020713619615346673 -0.010783509682493175 0.007630882160922577 0.034886978153136364 0.9904658193269825 -0.08274787637914574
 -0.0020718416406029045 -0.010783479543417764 0.0024145486013368747 0.017123579893574187 0.9904658193269825 -0.08274787637914574 0.007635239928722126 0.03488654846828715
0.11879949979160001 0.008163072975733966 0.03698679621470231 0.9897598138960413 -0.0874803008806372 0.0026841901803743118 0.01806573429834853 -0.002278147833540292 -0.011380917753562121
 0.9897598138960413 -0.0874803008806372 0.00816885490994942 0.03698621314963725 -0.0022776149996601843 -0.011380954481857268 0.0026566720637940544 0.018069917636607206
 0.0026841901803743118 0.01806573429834853 -0.0022776149996601843 -0.011380954481857268 0.008163619735145015 0.036988315996917966 0.9897599006591918 -0.0874787164875301
 -0.002278147833540292 -0.011380917753562121 0.0026566720637940544 0.018069917636607206 0.9897599006591918 -0.0874787164875301 0.008168474375996519 0.036987837205050146
0.1250521050438 0.008719590530647489 0.0391024325565955 0.9890230166242193 -0.09222390546624401 0.0029416191146455968 0.01900973799762425 -0.0024950358463184043 -0.01197690549973368
 0.9890230166242193 -0.09222390546624401 0.008725996661295744 0.03910178321045989 -0.00249444722344813 -0.011976949551569494 0.0029111228571745765 0.019014497589726113
 0.0029416191146455968 0.01900973799762425 -0.00249444722344813 -0.011976949551569494 0.008720195956232283 0.0391040268122672 0.9890231125511453 -0.092222237570624
 -0.0024950358463184043 -0.01197690549973368 0.0029111228571745765 0.019014497589726113 0.9890231125511453 -0.092222237570624 0.008725574418279813 0.039103495537202375
0.131304710296 0.009300278049162985 0.041232055562290246 0.9882550199666396 -0.09697986943753131 0.0032115950430974243 0.019951723107300697 -0.0027225747028281244 -0.012571237119251883
 0.9882550199666396 -0.09697986943753131 0.009307340516593106 0.04123133517588826 -0.002721927679764009 -0.012571289261228167 0.003177967680178105 0.01995711060956493
 0.0032115950430974243 0.019951723107300697 -0.002721927679764009 -0.012571289261228167 0.009300945095119374 0.041233723472387 0.9882551255350016 -0.0969781179933272
 -0.0027225747028281244 -0.012571237119251883 0.003177967680178105 0.01995711060956493 0.9882551255350016 -0.0969781179933272 0.009306874377156028 0.041233136217479455
0.1375573155481 0.00977814663679499 0.04309718045329385 0.9875828779685876 -0.10146961301803661 0.0034620451826024115 0.020864189371632667 -0.0029287357064416686 -0.013136413870380151
 0.9875828779685876 -0.10146961301803661 0.009785898912332336 0.04309639968640959 -0.002928026234494925 -0.013136474220289992 0.003425204092950977 0.020870200565314564
 0.0034620451826024115 0.020864189371632667 -0.002928026234494925 -0.013136474220289992 0.009778877392326175 0.04309892161144294 0.9875829936148095 -0.10146777804631679
 -0.0029287357064416686 -0.013136413870380151 0.003425204092950977 0.020870200565314564 0.9875829936148095 -0.10146777804631679 0.009785387633858158 0.04309828958796329
0.1438099208003 0.010272988290215791 0.04495134964271011 0.986886755297457 -0.10594684144695375 0.0037225873843842435 0.02177227878670978 -0.003143105511760964 -0.013697591560307186
 0.986886755297457 -0.10594684144695375 0.010281462741568744 0.04495050475270357 -0.0031423307542880474 -0.013697660883711616 0.003682392491668131 0.021778961356317295
 0.0037225873843842435 0.02177227878670978 -0.0031423307542880474 -0.013697660883711616 0.010273785542246741 0.04495316325313767 0.9868868814948837 -0.10594492291449063
 -0.003143105511760964 -0.013697591560307186 0.003682392491668131 0.021778961356317295 0.9868868814948837 -0.10594492291449063 0.010280904307298703 0.04495248393511047
0.1500625260525 0.0107846113859726 0.04679437496938991 0.9861668484401391 -0.11041140963185456 0.003993121014641361 0.022675876260425738 -0.0033655864889703202 -0.014254662584437507
 0.9861668484401391 -0.11041140963185456 0.010793840422377418 0.04679346202072726 -0.0033647436142068073 -0.014254741678400655 0.003949433183948973 0.02268327963993398
 0.003993121014641361 0.022675876260425738 -0.0033647436142068073 -0.014254741678400655 0.01078547790346106 0.04679626020962091 0.9861669856647429 -0.11040940750180978
 -0.0033655864889703202 -0.014254662584437507 0.003949433183948973 0.02268327963993398 0.9861669856647429 -0.11040940750180978 0.010793232826592761 0.04679553092323035
0.15631513130469998 0.011312822728029557 0.04862607389799748 0.9854233551192044 -0.11486317374598924 0.004273544124413576 0.023574868896619274 -0.003596079691380734 -0.01480752182395544
 0.9854233551192044 -0.11486317374598924 0.011322838801380493 0.048625088759508356 -0.003595165872455317 -0.014807611516994116 0.004226225178559518 0.023583044249534002
