! Created with skrf 1.8.0 (http://scikit-rf.org).
# GHz S RI R 50.0 
!freq ReS11 ImS11 ReS12 ImS12 ReS13 ImS13
! ReS14 ImS14
! ReS21 ImS21 ReS22 ImS22 ReS23 ImS23
! ReS24 ImS24
! ReS31 ImS31 ReS32 ImS32 ReS33 ImS33
! ReS34 ImS34
! ReS41 ImS41 ReS42 ImS42 ReS43 ImS43
! ReS44 ImS44
!
0.0 0.001359157025338 0.0 0.998640842969 0.0 5.18185512502e-05 0.0 -5.181855054023e-05 6.345942205554802e-21
 0.998640842969 0.0 0.001359157025337 0.0 -5.181855054013e-05 6.345942205542556e-21 5.181855125117e-05 0.0
 5.18185512502e-05 0.0 -5.181855054013e-05 6.345942205542556e-21 0.001359157025332 0.0 0.998640842969 0.0
 -5.181855054023e-05 6.345942205554802e-21 5.181855125117e-05 0.0 0.998640842969 0.0 0.001359157025339 0.0
0.005 0.001461798755260603 0.0011178497070198678 0.998511087499613 -0.0028472995443134925 7.147543026193635e-05 0.0005375695347939347 -6.967011799932239e-05 -0.00034333151927103117
 0.998511087499613 -0.0028472995443134925 0.001461807002443598 0.001117844935820158 -6.96700823953991e-05 -0.00034333154662364614 7.142532922790247e-05 0.0005375886167920243
 7.147543026193635e-05 0.0005375695347939347 -6.96700823953991e-05 -0.00034333154662364614 0.0014617981409465143 0.0011177828591244327 0.9985110871577993 -0.002847366599497825
 -6.967011799932239e-05 -0.00034333151927103117 7.142532922790247e-05 0.0005375886167920243 0.9985110871577993 -0.002847366599497825 0.001461806938568865 0.0011177776783402882
0.006252605252188 0.001488576166193789 0.001401703369144253 0.9984770486647909 -0.0035598404412116452 7.700871427442501e-05 0.0006722467940591828 -7.464013526476453e-05 -0.00042960849340093203
 0.9984770486647909 -0.0035598404412116452 0.0014885890575535843 0.001401697300759927 -7.464007943393998e-05 -0.00042960852828101333 7.693043549428386e-05 0.0006722715545616386
 7.700871427442501e-05 0.0006722467940591828 -7.464007943393998e-05 -0.00042960852828101333 0.0014885752764358265 0.001401619813669679 0.9984770482011364 -0.0035599242637274573
 -7.464013526476453e-05 -0.00042960849340093203 7.693043549428386e-05 0.0006722715545616386 0.9984770482011364 -0.0035599242637274573 0.0014885890289891323 0.0014016132223260442
0.01250521050438 0.0016287092167307417 0.0028327730746243902 0.9982978617172906 -0.007120589390818773 0.00010830497376986552 0.001345001464271875 -0.00010246276904677218 -0.0008613540537736554
 0.9982978617172906 -0.007120589390818773 0.0016287606841166552 0.0028327598834835682 -0.00010246254368806473 -0.0008613541315675271 0.00010799280644079314 0.0013450607087144943
 0.00010830497376986552 0.001345001464271875 -0.00010246254368806473 -0.0008613541315675271 0.0016287062294188276 0.002832606301661407 0.9982978604364136 -0.007120756796688648
 -0.00010246276904677218 -0.0008613540537736554 0.00010799280644079314 0.0013450607087144943 0.9982978604364136 -0.007120756796688648 0.001628761149381669 0.002832591948328705
0.01875781575657 0.0017798326426117026 0.0042842985375901544 0.9981030803978118 -0.010690937008249758 0.00014577599871777323 0.0020186941230806383 -0.0001353651750449173 -0.0012946787793632088
 0.9981030803978118 -0.010690937008249758 0.0017799482765748229 0.004284277090238084 -0.00013536466502688213 -0.0012946789111765767 0.00014507472401345856 0.0020187993099908723
 0.00014577599871777323 0.0020186941230806383 -0.00013536466502688213 -0.0012946789111765767 0.0017798263442854875 0.0042840487690427595 0.9981030779418592 -0.010691187925101141
 -0.0001353651750449173 -0.0012946787793632088 0.00014507472401345856 0.0020187993099908723 0.9981030779418592 -0.010691187925101141 0.0017799497637002628 0.004284025384276399
0.02501042100875 0.0019422163034900353 0.00575429169824547 0.9978924958381354 -0.014272643647832931 0.0001894914136361435 0.0026933619955458077 -0.00017342417813552904 -0.0017294139020805498
 0.9978924958381354 -0.014272643647832931 0.0019424216330269928 0.0057542607909247395 -0.00017342326722018827 -0.001729414102079347 0.00018824573027171346 0.0026935262480688813
 0.0001894914136361435 0.0026933619955458077 -0.00017342326722018827 -0.001729414102079347 0.0019422054777534388 0.0057539591672590385 0.9978924918480786 -0.014272978042929662
 -0.00017342417813552904 -0.0017294139020805498 0.00018824573027171346 0.0026935262480688813 0.9978924918480786 -0.014272978042929662 0.0019424246795238576 0.005753925391628764
0.03126302626094 0.0021161187696888397 0.007241745188088876 0.9976658874858547 -0.017866481656919134 0.00023952141463800993 0.0033689849440570988 -0.0002167148355784129 -0.0021654442254838073
 0.9976658874858547 -0.017866481656919134 0.0021164392753423088 0.007241703548331882 -0.00021671340656378613 -0.0021654445109272006 0.00023757578898503365 0.0033692230586042544
 0.00023952141463800993 0.0033689849440570988 -0.00021671340656378613 -0.0021654445109272006 0.0021161021981162074 0.007241330140268021 0.9976658816012226 -0.017866899536252447
 -0.0002167148355784129 -0.0021654442254838073 0.00023757578898503365 0.0033692230586042544 0.9976658816012226 -0.017866899536252447 0.002116444429457776 0.007241284525760841
0.037515631513130004 0.0023017932115487467 0.008746014066034619 0.997423029128078 -0.02147285358492912 0.00029593613490051167 0.0040455203159210544 -0.0002653109414069509 -0.002602673265887932
 0.997423029128078 -0.02147285358492912 0.0023022543339714747 0.00874596035362182 -0.0002653088762844768 -0.0026026736571702117 0.0002931347308843813 0.004045848778905926
 0.00029593613490051167 0.0040455203159210544 -0.0002653088762844768 -0.0026026736571702117 0.002301769674164276 0.008745516782807005 0.9974230209865765 -0.02147335497027486
 -0.0002653109414069509 -0.002602673265887932 0.0002931347308843813 0.004045848778905926 0.9974230209865765 -0.02147335497027486 0.002302262154682426 0.008745457793454734
0.043768236765320004 0.002499489683289884 0.010266627692351095 0.9971636913108786 -0.025091980247370263 0.0003588053527115339 0.004722913536595893 -0.0003192852101139797 -0.0030410126489300612
 0.9971636913108786 -0.025091980247370263 0.0025001168295254905 0.01026656049984571 -0.000319282390146156 -0.0030410131696276773 0.0003549919958648026 0.004723350543628409
 0.0003588053527115339 0.004722913536595893 -0.000319282390146156 -0.0030410131696276773 0.0024994579589988136 0.010266048489284155 0.9971636805477355 -0.02509256517832852
 -0.0003192852101139797 -0.0030410126489300612 0.0003549919958648026 0.004723350543628409 0.9971636805477355 -0.02509256517832852 0.0025001278870427457 0.01026597450138755
0.050020842017509996 0.0027094561887361372 0.011803211980242628 0.9968876425437224 -0.028723978409898685 0.0004281983171861263 0.0054011024830242695 -0.00037870934944778773 -0.003480377727052078
 0.9968876425437224 -0.028723978409898685 0.002710274737250654 0.011803129833545865 -0.00037870565525844973 -0.003480378403968214 0.0004232164766310941 0.005401667959265356
 0.0004281983171861263 0.0054011024830242695 -0.00037870565525844973 -0.003480378403968214 0.0027094150551522467 0.011802551200210102 0.9968876287907661 -0.028724646951147466
 -0.00037870934944778773 -0.003480377727052078 0.0004232164766310941 0.005401667959265356 0.9968876287907661 -0.028724646951147466 0.0027102896126075587 0.011802460502471763
0.055454545454549996 0.0029020796950828902 0.013151274179102406 0.9966339956625976 -0.03189078880578735 0.0004938542822365054 0.005991063116942749 -0.00043483163919886587 -0.0038629677530615044
 0.9966339956625976 -0.03189078880578735 0.002903085170132769 0.013151177787963342 -0.0004348270879187842 -0.003862968590043246 0.0004877295892878423 0.005991757777381624
 0.0004938542822365054 0.005991063116942749 -0.0004348270879187842 -0.003862968590043246 0.0029020293924511523 0.013150542824234187 0.9966339790101904 -0.03189153006083757
 -0.00043483163919886587 -0.0038629677530615044 0.0004877295892878423 0.005991757777381624 0.9966339790101904 -0.03189153006083757 0.00290310384483305 0.013150436147277586
0.056273447269699996 0.0029319392364926256 0.013355451220862432 0.9965946499961094 -0.032368898899018464 0.0005041836286046322 0.006080019622755145 -0.0004436540808876812 -0.003920685432761814
 0.9965946499961094 -0.032368898899018464 0.002932974542255589 0.013355352579397326 -0.0004436493925565999 -0.0039206862959734745 0.0004978764096930485 0.006080735243708573
 0.0005041836286046322 0.006080019622755145 -0.0004436493925565999 -0.0039206862959734745 0.002931887471997036 0.01335470925461925 0.9965946328823146 -0.03236965112012635
 -0.0004436540808876812 -0.003920685432761814 0.0004978764096930485 0.006080735243708573 0.9965946328823146 -0.03236965112012635 0.002932993828947415 0.013354600048084336
0.06252605252188 0.003167184150354999 0.014923067109441596 0.996284479951703 -0.036026747512480764 0.0005868291435715319 0.006759593195741959 -0.0005141891355362891 -0.004361853090975782
 0.996284479951703 -0.036026747512480764 0.003168461549211567 0.014922950366369906 -0.0005141833327051616 -0.004361854173868703 0.0005790392879915932 0.006760482408316103
 0.0005868291435715319 0.006759593195741959 -0.0005141833327051616 -0.004361854173868703 0.0031671205327194175 0.014922244377259447 0.9962844591009085 -0.03602758350658447
 -0.0005141891355362891 -0.004361853090975782 0.0005790392879915932 0.006760482408316103 0.9962844591009085 -0.03602758350658447 0.0031684858514355496 0.014922114775144707
0.06877865777407 0.00341543523977255 0.0165058062313776 0.9959568981250966 -0.03969749747126284 0.0006762018964851974 0.007439747907934272 -0.0005903832338672384 -0.004803797721562701
 0.9959568981250966 -0.03969749747126284 0.0034169800520597354 0.016505669713739384 -0.0005903761957731482 -0.004803799060888309 0.000666771786974576 0.007440835951607064
 0.0006762018964851974 0.007439747907934272 -0.0005903761957731482 -0.004803799060888309 0.003415358548478518 0.016504903190373864 0.995956873157499 -0.039698417348220987
 -0.0005903832338672384 -0.004803797721562701 0.000666771786974576 0.007440835951607064 0.995956873157499 -0.039698417348220987 0.003417009987136311 0.01650475121779777
0.07503126302626001 0.0036769358927193183 0.01810343211926186 0.9956116699052943 -0.04338109730285643 0.0007723680281689693 0.008120405379703568 -0.0006723040572563879 -0.005246435589244108
 0.9956116699052943 -0.04338109730285643 0.0036787734281459035 0.018103274087843242 -0.000672295662872222 -0.005246437225141563 0.0007611396971677852 0.00812171930771091
 0.0007723680281689693 0.008120405379703568 -0.000672295662872222 -0.005246437225141563 0.003676844909278083 0.018102449269471944 0.995611640435929 -0.04338210118333031
 -0.0006723040572563879 -0.005246435589244108 0.0007611396971677852 0.00812171930771091 0.995611640435929 -0.04338210118333031 0.003678809625940301 0.018102272863102592
0.08128386827845 0.003951928618813055 0.01971571998990325 0.9952485605492795 -0.047077476046395644 0.0008753927206775423 0.00880148443877222 -0.0007600182127695139 -0.005689681911259885
 0.9952485605492795 -0.047077476046395644 0.00395408417965656 0.01971553863916834 -0.0007600083408431639 -0.0056896838873120425 0.0008622078618114518 0.008803053139223456
 0.0008753927206775423 0.00880148443877222 -0.0007600083408431639 -0.0056896838873120425 0.003951822126749612 0.01971465786625411 0.995248526187431 -0.047078564070310545
 -0.0007600182127695139 -0.005689681911259885 0.0008622078618114518 0.008803053139223456 0.995248526187431 -0.047078564070310545 0.003954127282738731 0.01971445487380231
0.08753647353064001 0.004240655057860465 0.021342453074461042 0.9948673353463255 -0.05078654686753032 0.0009853401353206467 0.009482901325978376 -0.0008535911937469795 -0.006133450654618958
 0.9948673353463255 -0.05078654686753032 0.004243153943434709 0.021342246532243935 -0.0008535797229369737 -0.006133453017877717 0.0009700401170927102 0.009484755542892057
 0.0009853401353206467 0.009482901325978376 -0.0008535797229369737 -0.006133453017877717 0.0042405318442720556 0.02134131225346713 0.9948672956953423 -0.05078771918760954
 -0.0008535911937469795 -0.006133450654618958 0.0009700401170927102 0.009484755542892057 0.9948672956953423 -0.05078771918760954 0.004243204607686537 0.02134108043312403
0.09378907878283 0.004543355966846318 0.02298342001934599 0.9944677597619327 -0.05450820960501855 0.0011022733525952676 0.010164569843014653 -0.0009530873375878036 -0.006577654393863229
 0.9944677597619327 -0.05450820960501855 0.004546223477105005 0.022983186346509706 -0.0009530741465107792 -0.006577657194889945 0.0010846992339870096 0.010166742197212196
 0.0011022733525952676 0.010164569843014653 -0.0009530741465107792 -0.006577657194889945 0.004543214822958844 0.022982201115000267 0.9944677144188694 -0.054509466391117256
 -0.0009530873375878036 -0.006577654393863229 0.0010846992339870096 0.010166742197212196 0.9944677144188694 -0.054509466391117256 0.004546282372338157 0.02298193813474578
0.100041684035 0.0048602711906683554 0.02463841296376285 0.9940495995682667 -0.058242352643482966 0.0012262543137012425 0.010846401462347551 -0.001058569780855629 -0.007022204209247599
 0.9940495995682667 -0.058242352643482966 0.004863532630401655 0.024638150153728902 -0.0010585547482139755 -0.007022207502145241 0.0012062468615391493 0.010848926472157997
 0.0012262543137012425 0.010846401462347551 -0.0010585547482139755 -0.007022207502145241 0.00486011091228751 0.02463711663037855 0.9940495481228443 -0.0582436940800691
 -0.001058569780855629 -0.007022204209247599 0.0012062468615391493 0.010848926472157997 0.9940495481228443 -0.0582436940800691 0.004863600439986808 0.024636820067164066
0.1059090909091 0.0051708030926302245 0.02620402144420034 0.9936400898070792 -0.0617576922687055 0.0013490612674382184 0.01148629563171836 -0.0011630534864986062 -0.007439601227153857
 0.9936400898070792 -0.0617576922687055 0.005174457215127907 0.026203729406428837 -0.001163036615529001 -0.007439605034015571 0.0013266253250840893 0.011489184673827351
 0.0013490612674382184 0.01148629563171836 -0.001163036615529001 -0.007439605034015571 0.005170623768335012 0.02620265308491046 0.993640032255374 -0.061759113319674264
 -0.0011630534864986062 -0.007439601227153857 0.0013266253250840893 0.011489184673827351 0.993640032255374 -0.061759113319674264 0.005174534024537269 0.026202322722014445
0.1062942892872 0.005191639619570361 0.02630722609664315 0.9936126209638458 -0.06198885430988629 0.0013573437629911405 0.011528305413212947 -0.0011701004128131874 -0.007467009611450928
 0.9936126209638458 -0.06198885430988629 0.005195320301779658 0.026306932074789673 -0.0011700834174164997 -0.00746701345390323 0.0013347434704949798 0.011531219515057487
 0.0013573437629911405 0.011528305413212947 -0.0011700834174164997 -0.00746701345390323 0.005191459008083048 0.026305853031248348 0.993612562998441 -0.06199028059379367
 -0.0011701004128131874 -0.007467009611450928 0.0013347434704949798 0.011531219515057487 0.993612562998441 -0.06199028059379367 0.005195397723913493 0.026305520370067982
0.11254689453939999 0.005537699138370499 0.027989654557841765 0.9931565906880404 -0.06574758392880374 0.0014956011909649748 0.012210188747623803 -0.0012877398272338738 -0.00791197848913134
 0.9931565906880404 -0.06574758392880374 0.005541824388782252 0.0279893271807527 -0.0012877207481886757 -0.007911982942422248 0.00147024829765161 0.012213530316311297
 0.0014956011909649748 0.012210188747623803 -0.0012877207481886757 -0.007911982942422248 0.005537497001813376 0.027988205494946284 0.9931565257768101 -0.06574909527460564
 -0.0012877398272338738 -0.00791197848913134 0.00147024829765161 0.012213530316311297 0.9931565257768101 -0.06574909527460564 0.005541912136194015 0.02798783412783811
0.11879949979160001 0.00589868656855204 0.029685493569738323 0.9926812761292954 -0.06951840265039848 0.001641084777656183 0.01289195639680445 -0.0014115472732048814 -0.008357017068738613
 0.9926812761292954 -0.06951840265039848 0.005903281729167515 0.02968513062438036 -0.001411525989899497 -0.008357022197793749 0.0016128192904200354 0.012895765765639472
 0.001641084777656183 0.01289195639680445 -0.001411525989899497 -0.008357022197793749 0.005898461721989271 0.029683969286294066 0.9926812038381027 -0.0695199992857071
 -0.0014115472732048814 -0.008357017068738613 0.0016128192904200354 0.012895765765639472 0.9926812038381027 -0.0695199992857071 0.005903380530037374 0.029683556511141074
0.1250521050438 0.00627483760411305 0.031394537761867895 0.9921864454315718 -0.07330116408889216 0.001793851336342403 0.01357351121738341 -0.001541580604745398 -0.008802029887537243
 0.9921864454315718 -0.07330116408889216 0.00627992803726934 0.03139413696461306 -0.0015415569970266925 -0.008802035760936569 0.0017625130514101668 0.013577830697988817
 0.001793851336342403 0.01357351121738341 -0.0015415569970266925 -0.008802035760936569 0.006274588870637853 0.03139293907425383 0.9921863653168265 -0.07330284625739386
 -0.001541580604745398 -0.008802029887537243 0.0017625130514101668 0.013577830697988817 0.9921863653168265 -0.07330284625739386 0.006280038635035427 0.03139248209353218
0.131304710296 0.006666386742349814 0.033116580617359635 0.991671867596034 -0.07709571484264298 0.0019539562572480286 0.014254754032094497 -0.0016778962297702184 -0.00924691977503094
 0.991671867596034 -0.07709571484264298 0.006671997834766418 0.033116139612847345 -0.0016778701779800544 -0.009246926465048783 0.0019193847831635335 0.01425962793397597
 0.0019539562572480286 0.014254754032094497 -0.0016778701779800544 -0.009246926465048783 0.0066661129541247775 0.033114908383093854 0.9916717792049333 -0.07709748280250302
 -0.0016778962297702184 -0.00924691977503094 0.0019193847831635335 0.01425962793397597 0.9916717792049333 -0.07709748280250302 0.006672120989214789 0.03311440430243223
0.1375573155481 0.006979117013221018 0.03462800364952749 0.9912317910073741 -0.08067840972683359 0.0021000432741613774 0.014913218569592202 -0.0017991807345176171 -0.009669204044450307
 0.9912317910073741 -0.08067840972683359 0.006985276735980325 0.034627530048269815 -0.0017991522263756303 -0.009669211561275034 0.002062157793659462 0.014918636697616722
 0.0021000432741613774 0.014913218569592202 -0.0017991522263756303 -0.009669211561275034 0.00697881773920183 0.03462625829132198 0.9912316939614528 -0.08068026362565463
 -0.0017991807345176171 -0.009669204044450307 0.002062157793659462 0.014918636697616722 0.9912316939614528 -0.08068026362565463 0.006985412338986243 0.034625714885314955
0.1438099208003 0.007302707143075923 0.0361322841079311 0.990776517871378 -0.08425282230920693 0.002252028878161256 0.015569399751141872 -0.001925317519385604 -0.010089397471335824
 0.990776517871378 -0.08425282230920693 0.007309441331309012 0.036131776195337466 -0.001925286455229865 -0.010089405882351896 0.002210683137688345 0.015575402330423148
 0.002252028878161256 0.015569399751141872 -0.001925286455229865 -0.010089405882351896 0.007302381361509969 0.03613046647668022 0.9907764117190122 -0.08425476240128965
 -0.001925317519385604 -0.010089397471335824 0.002210683137688345 0.015575402330423148 0.9907764117190122 -0.08425476240128965 0.0073095900080494955 0.03612988155294292
0.1500625260525 0.007637053632760976 0.03762931993417673 0.9903061550003084 -0.08781888751970576 0.0024098663218692696 0.016223243761408147 -0.0020562613267266156 -0.010507449034791831
 0.9903061550003084 -0.08781888751970576 0.007644388165055673 0.03762877590030527 -0.002056227608591124 -0.010507458409902875 0.0023649148149838084 0.01622987248013066
 0.0024098663218692696 0.016223243761408147 -0.002056227608591124 -0.010507458409902875 0.007636700339366168 0.03762743091596847 0.9903060392815622 -0.08782091406694106
 -0.0020562613267266156 -0.010507449034791831 0.0023649148149838084 0.01622987248013066 0.9903060392815622 -0.08782091406694106 0.007644550545938881 0.03762680216996933
0.15631513130469998 0.007982052375743691 0.03911901226665338 0.9898208096076748 -0.09137654006037313 0.002573508375468151 0.016874697600105158 -0.0021919664075146505 -0.010923308711545468
