! Created with skrf 1.8.0 (http://scikit-rf.org).
# GHz S RI R 50.0 
!freq ReS11 ImS11 ReS12 ImS12 ReS13 ImS13
! ReS14 ImS14
! ReS21 ImS21 ReS22 ImS22 ReS23 ImS23
! ReS24 ImS24
! ReS31 ImS31 ReS32 ImS32 ReS33 ImS33
! ReS34 ImS34
! ReS41 ImS41 ReS42 ImS42 ReS43 ImS43
! ReS44 ImS44
!
0.0 0.001349259367751 0.0 0.9986507406322 0.0 5.208101715579e-05 0.0 -5.208101748807e-05 6.378085136310225e-21
 0.9986507406322 0.0 0.001349259367743 0.0 -5.208101748819e-05 6.3780851363249205e-21 5.208101715435e-05 0.0
 5.208101715579e-05 0.0 -5.208101748819e-05 6.3780851363249205e-21 0.001349259360743 0.0 0.9986507406252 0.0
 -5.208101748807e-05 6.378085136310225e-21 5.208101715435e-05 0.0 0.9986507406252 0.0 0.001349259360724 0.0
0.005 0.0014512743532961744 0.0010973569731662007 0.9985217361820257 -0.0028273634509026952 7.368876070584524e-05 0.0006147299942355752 -7.137920133863809e-05 -0.00037880904108646954
 0.9985217361820257 -0.0028273634509026952 0.0014512756670422198 0.001097356139151507 -7.137888778079704e-05 -0.00037880874501302974 7.369273513818183e-05 0.0006147286440644915
 7.368876070584524e-05 0.0006147299942355752 -7.137888778079704e-05 -0.00037880874501302974 0.0014512751213497676 0.0010974237368549767 0.998521736527708 -0.0028272963907783003
 -7.137920133863809e-05 -0.00037880904108646954 7.369273513818183e-05 0.0006147286440644915 0.998521736527708 -0.0028272963907783003 0.0014512755815573796 0.0010974234859792687
0.006252605252188 0.001477885839908265 0.0013760650008576413 0.9984878924994185 -0.003534921493493437 7.977738283723933e-05 0.0007687010467943545 -7.676442388232137e-05 -0.0004740193425687057
 0.9984878924994185 -0.003534921493493437 0.0014778878937201567 0.0013760639005441738 -7.676393640518437e-05 -0.0004740189762820784 7.978359447188684e-05 0.0007686992692890372
 7.977738283723933e-05 0.0007687010467943545 -7.676393640518437e-05 -0.0004740189762820784 0.0014778869634348589 0.0013761484400372963 0.99848789296246 -0.0035348376740260623
 -7.676442388232137e-05 -0.0004740193425687057 7.978359447188684e-05 0.0007686992692890372 0.99848789296246 -0.0035348376740260623 0.00147788768216338 0.0013761480790246041
0.01250521050438 0.001617136383307709 0.0027814225357399385 0.998309722159702 -0.007070822354182884 0.00011424729311127572 0.0015376973732019357 -0.00010697940923463586 -0.000950472477681249
 0.998309722159702 -0.007070822354182884 0.0016171445894404741 0.0027814197399245065 -0.000106977493389973 -0.0009504717857792723 0.00011427212366326354 0.001537692875106226
 0.00011424729311127572 0.0015376973732019357 -0.000106977493389973 -0.0009504717857792723 0.001617140307083368 0.002781589065299157 0.9983097234434049 -0.00707065493233542
 -0.00010697940923463586 -0.000950472477681249 0.00011427212366326354 0.001537692875106226 0.9983097234434049 -0.00707065493233542 0.001617143169007839 0.0027815878600397433
0.01875781575657 0.0017672855548752156 0.004207206249113675 0.9981160293319883 -0.010616346567576105 0.00015556519226720477 0.0023075705668025837 -0.00014281335746320044 -0.001428637051657845
 0.9981160293319883 -0.010616346567576105 0.0017673040056737973 0.004207201105861715 -0.00014280909232450805 -0.0014286360798936243 0.0001556211109253624 0.002307562269156738
 0.00015556519226720477 0.0023075705668025837 -0.00014280909232450805 -0.0014286360798936243 0.0017672939591589132 0.004207455592340395 0.9981160318004364 -0.010616095599700401
 -0.00014281335746320044 -0.001428637051657845 0.0001556211109253624 0.002307562269156738 0.9981160318004364 -0.010616095599700401 0.0017673003748012817 0.00420745302866016
0.02501042100875 0.0019286013966568986 0.005651437007343619 0.9979066067199025 -0.014173243613087916 0.0002038066782241455 0.0030783848527516904 -0.00018435113853429802 -0.0019083038995638347
 0.9979066067199025 -0.014173243613087916 0.0019286341802854272 0.005651428806363644 -0.00018434361646616802 -0.0019083026998553579 0.00020390624076066171 0.003078371537582461
 0.0002038066782241455 0.0030783848527516904 -0.00018434361646616802 -0.0019083026998553579 0.0019286159599107666 0.005651768853076035 0.9979066107390324 -0.01417290910152273
 -0.00018435113853429802 -0.0019083038995638347 0.00020390624076066171 0.003078371537582461 0.9979066107390324 -0.01417290910152273 0.0019286273253804067 0.005651764383543778
0.03126302626094 0.0021013406964861246 0.0071131112789472335 0.9976812354477217 -0.017742280051541333 0.0002590480906294634 0.003850129246045918 -0.00023167542587356453 -0.0023893348968249853
 0.9976812354477217 -0.017742280051541333 0.002101391897184012 0.007113099250551738 -0.0002316637502343078 -0.0023893335273461763 0.00025920394705665804 0.003850109553367687
 0.0002590480906294634 0.003850129246045918 -0.0002316637502343078 -0.0023893335273461763 0.002101363092914931 0.0071135252842813605 0.9976812413833646 -0.017741861941444205
 -0.00023167542587356453 -0.0023893348968249853 0.00025920394705665804 0.003850109553367687 0.9976812413833646 -0.017741861941444205 0.00210138078941139 0.007113518327488249
0.037515631513130004 0.002285754827674943 0.008591586118862423 0.9974396910377834 -0.021323854487519073 0.0003213657422848131 0.004622763497106687 -0.00028486736718825155 -0.002871617006762595
 0.9974396910377834 -0.021323854487519073 0.0022858285252250012 0.008591569433036995 -0.00028485065115068563 -0.002871615531953535 0.0003215906399679509 0.00462273592199546
 0.0003213657422848131 0.004622763497106687 -0.00028485065115068563 -0.002871615531953535 0.00228578673286789 0.008592081872767231 0.997439699263535 -0.021323352702819227
 -0.00028486736718825155 -0.002871617006762595 0.0003215906399679509 0.00462273592199546 0.997439699263535 -0.021323352702819227 0.002285812125729608 0.008592071812709143
0.043768236765320004 0.002482092028983026 0.01008639195727809 0.9971817458307299 -0.02491818472051618 0.0003908355707552825 0.005396232063551495 -0.00034400683291056176 -0.0033550483001593906
 0.9971817458307299 -0.02491818472051618 0.002482192298132224 0.010086369722893214 -0.0003439841986598454 -0.0033550467907018738 0.00039114235595064036 0.00539619495326138
 0.0003908355707552825 0.005396232063551495 -0.0003439841986598454 -0.0033550467907018738 0.002482135114578313 0.010086968991651978 0.9971817567236259 -0.024917599152315048
 -0.00034400683291056176 -0.0033550483001593906 0.00039114235595064036 0.00539619495326138 0.9971817567236259 -0.024917599152315048 0.0024821695530438245 0.010086955177313213
0.050020842017509996 0.0026905984571192116 0.011597155265846728 0.9969071701787955 -0.0285253850166448 0.00046753293610968477 0.006170469877589786 -0.0004091725168649514 -0.0038395321796587537
 0.9969071701787955 -0.0285253850166448 0.002690729366786479 0.01159712652984074 -0.00040914309513923866 -0.0038395307124289503 0.0004679345544645716 0.006170421428670221
 0.00046753293610968477 0.006170469877589786 -0.00040914309513923866 -0.0038395307124289503 0.0026906543922109193 0.011597813051374079 0.9969071841227396 -0.028524715526885267
 -0.0004091725168649514 -0.0038395321796587537 0.0004679345544645716 0.006170421428670221 0.9969071841227396 -0.028524715526885267 0.0026906992081600235 0.011597794796474452
0.055454545454549996 0.0028818697865034913 0.012922767736386448 0.996654870328984 -0.031670642448004674 0.0005401129063661363 0.006843875118858712 -0.00047075775673016923 -0.004261345068905607
 0.996654870328984 -0.031670642448004674 0.0028820306229453575 0.012922732527631969 -0.0004707217368563895 -0.004261343705594296 0.0005406075282404747 0.006843815232490147
 0.0005401129063661363 0.006843875118858712 -0.0004707217368563895 -0.004261343705594296 0.0028819382398593695 0.012923495218809535 0.9966548872409421 -0.031669899893608265
 -0.00047075775673016923 -0.004261345068905607 0.0005406075282404747 0.006843815232490147 0.9966548872409421 -0.031669899893608265 0.0028819931420569667 0.012923472519900225
0.056273447269699996 0.002911518741944674 0.013123560583048982 0.9966157331450449 -0.032145504021523524 0.0005515324823588776 0.006945405170285854 -0.000480441971700455 -0.0043249745486699355
 0.9966157331450449 -0.032145504021523524 0.002911684354232538 0.01312352432972168 -0.0004804049013654487 -0.004324973206707827 0.0005520419788532174 0.006945343425695258
 0.0005515324823588776 0.006945405170285854 -0.0004804049013654487 -0.004324973206707827 0.0029115891906151574 0.013124298528796622 0.9966157505300871 -0.03214475044288297
 -0.000480441971700455 -0.0043249745486699355 0.0005520419788532174 0.006945343425695258 0.9966157505300871 -0.03214475044288297 0.0029116456981370144 0.013124275111410833
0.06252605252188 0.0031450962911129875 0.014665329635547881 0.9963072029547745 -0.03577854557802699 0.0006429080293998433 0.007720961028161927 -0.0005578916122621159 -0.004811282249805435
 0.9963072029547745 -0.03577854557802699 0.0031453006603637573 0.014665284785840072 -0.0005578460400572157 -0.0048112811222686975 0.0006435385478099753 0.007720883874388839
 0.0006429080293998433 0.007720961028161927 -0.0005578460400572157 -0.0048112811222686975 0.003145182912634917 0.014666147085102227 0.9963072241788593 -0.03577770771734852
 -0.0005578916122621159 -0.004811282249805435 0.0006435385478099753 0.007720883874388839 0.9963072241788593 -0.03577770771734852 0.003145252407024563 0.01466611774741483
0.06877865777407 0.0033915734599721825 0.0162222089006655 0.9959813473139771 -0.03942448110485745 0.0007417324845779236 0.008497056313858066 -0.000641596697841504 -0.005298362141419215
 0.9959813473139771 -0.03942448110485745 0.0033918206317041615 0.016222154311454278 -0.0006415417781531104 -0.005298361323538503 0.0007424972667898536 0.008496961478035822
 0.0007417324845779236 0.008497056313858066 -0.0006415417781531104 -0.005298361323538503 0.0033916779071658464 0.01622310513680495 0.9959813727834679 -0.03942355873801285
 -0.000641596697841504 -0.005298362141419215 0.0007424972667898536 0.008496961478035822 0.9959813727834679 -0.03942355873801285 0.003391761664051077 0.016223069084894525
0.07503126302626001 0.0036511916431080068 0.017793961711256773 0.9956379336527845 -0.04308325743470238 0.000848077763042346 0.009273606254460677 -0.0007316313043469922 -0.005786120508815197
 0.9956379336527845 -0.04308325743470238 0.0036514856528743534 0.017793896174751613 -0.0007315661990089481 -0.005786120101857744 0.0008489901480167319 0.009273491301499752
 0.000848077763042346 0.009273606254460677 -0.0007315661990089481 -0.005786120101857744 0.003651315561201004 0.01779493594773979 0.9956379637833215 -0.04308225031444862
 -0.0007316313043469922 -0.005786120508815197 0.0008489901480167319 0.009273491301499752 0.9956379637833215 -0.04308225031444862 0.0036514148357799465 0.017794892351356725
0.08128386827845 0.0039241913138456565 0.019380363002160613 0.9952767293196517 -0.04675480201332535 0.0009620147151406279 0.010050522830359721 -0.0008280682879450372 -0.006274462677488952
 0.9952767293196517 -0.04675480201332535 0.003924536186345624 0.01938028524517884 -0.0008279921661179654 -0.006274462788704008 0.0009630881378375165 0.010050385160050057
 0.0009620147151406279 0.010050522830359721 -0.0008279921661179654 -0.006274462788704008 0.00392433633954494 0.019381414387059762 0.9952767645365128 -0.046753709865538284
 -0.0008280682879450372 -0.006274462677488952 0.0009630881378375165 0.010050385160050057 0.9952767645365128 -0.046753709865538284 0.003924452365704831 0.019381362379406398
0.08753647353064001 0.004210812033622601 0.020981195677358008 0.9948975017466588 -0.050439026480324264 0.0010836130576680819 0.010827715046358924 -0.0009309792437400351 -0.00676329274668795
 0.9948975017466588 -0.050439026480324264 0.004211211781058342 0.020981104360809216 -0.0009308912816975898 -0.006763293489275919 0.0010848610477599602 0.010827551890533745
 0.0010836130576680819 0.010827715046358924 -0.0009308912816975898 -0.006763293489275919 0.004210979793929356 0.020982323296201328 0.9948975424867736 -0.05043784900065235
 -0.0009309792437400351 -0.00676329274668795 0.0010848610477599602 0.010827551890533745 0.9948975424867736 -0.05043784900065235 0.004211113783559842 0.020982261973813053
0.09378907878283 0.004511292436789412 0.022596248017995965 0.9945000185946732 -0.05413582921216828 0.0012129413075806191 0.01160508912731533 -0.001040434460578112 -0.007252513401274095
 0.9945000185946732 -0.05413582921216828 0.004511751058203896 0.022596141736223634 -0.0010403338417515726 -0.007252514894339047 0.0012143774879946594 0.011604897546920626
 0.0012129413075806191 0.01160508912731533 -0.0010403338417515726 -0.007252514894339047 0.004511484547863315 0.022597450886946542 0.9945000653061682 -0.05413456607245884
 -0.001040434460578112 -0.007252513401274095 0.0012143774879946594 0.011604897546920626 0.9945000653061682 -0.05413456607245884 0.0045116376892968 0.022597379309517395
0.100041684035 0.004825870199743305 0.024225311772126557 0.9940840478833061 -0.057845097186226976 0.0013500667177226697 0.012382548663141516 -0.0011565028729089808 -0.007742025776971274
 0.9940840478833061 -0.057845097186226976 0.004826391679244585 0.02422518905238629 -0.0011563887876317681 -0.007742028145477613 0.0013517048031857126 0.01238232554545451
 0.0013500667177226697 0.012382548663141516 -0.0011563887876317681 -0.007742028145477613 0.004826088265596165 0.024226588843831526 0.9940841010275644 -0.057843748028466965
 -0.0011565028729089808 -0.007742025776971274 0.0013517048031857126 0.01238232554545451 0.9940841010275644 -0.057843748028466965 0.004826261723353782 0.024226506034131658
0.1059090909091 0.005134100301217489 0.025766574833872433 0.9936766830348891 -0.061337079290380486 0.0014858945456578446 0.013112101602331713 -0.001271495569271807 -0.0082015570271122
 0.9936766830348891 -0.061337079290380486 0.005134684375764889 0.025766435289183386 -0.0012713681169531715 -0.008201560335967436 0.0014877346513015588 0.013111845901977955
 0.0014858945456578446 0.013112101602331713 -0.0012713681169531715 -0.008201560335967436 0.005134344170061779 0.025767920521421676 0.9936767426471087 -0.06133564906791196
 -0.001271495569271807 -0.0082015570271122 0.0014877346513015588 0.013111845901977955 0.9936767426471087 -0.06133564906791196 0.005134537729174712 0.025767826249664415
0.1062942892872 0.005154781998102412 0.025868180726720917 0.9936493581132761 -0.061566707365658294 0.001495055213568435 0.013159994720316651 -0.0012792520103256271 -0.00823172936214096
 0.9936493581132761 -0.061566707365658294 0.0051553703039874995 0.025868040028649727 -0.001279123655868049 -0.008231732736873791 0.0014969090089501345 0.013159736776016234
 0.001495055213568435 0.013159994720316651 -0.001279123655868049 -0.008231732736873791 0.005155027609613038 0.025869530883078 0.9936494181649976 -0.06156527180907643
 -0.0012792520103256271 -0.00823172936214096 0.0014969090089501345 0.013159736776016234 0.9936494181649976 -0.06156527180907643 0.0051552225229828195 0.02586943582685121
0.11254689453939999 0.005498263454780849 0.027524649605286403 0.9931957183803534 -0.06530052776210674 0.0016479713305419064 0.013937325929732564 -0.0014087479456977867 -0.008721521926183112
 0.9931957183803534 -0.06530052776210674 0.005498922537867343 0.0275244893203588 -0.001408604526115696 -0.008721526443706093 0.0016500547292060018 0.013937029690100335
 0.0016479713305419064 0.013937325929732564 -0.001408604526115696 -0.008721526443706093 0.00549853818818355 0.027526071664866928 0.9931957858288583 -0.06529900539550758
 -0.0014087479456977867 -0.008721521926183112 0.0016500547292060018 0.013937029690100335 0.9931957858288583 -0.06529900539550758 0.005498755670424873 0.027525963310737606
0.11879949979160001 0.005856549080781354 0.02919451321835306 0.9927228984851835 -0.0690464182486274 0.0018088781521847642 0.014714438558770032 -0.0015450552414130966 -0.00921129946679396
 0.9927228984851835 -0.0690464182486274 0.005857282873304575 0.02919433166942258 -0.0015448959675151979 -0.009211305269411786 0.0018112051341797142 0.014714100372831579
 0.0018088781521847642 0.014714438558770032 -0.0015448959675151979 -0.009211305269411786 0.0058568544963524235 0.02919600592847343 0.9927229738351817 -0.06904480863832739
 -0.0015450552414130966 -0.00921129946679396 0.0018112051341797142 0.014714100372831579 0.9927229738351817 -0.06904480863832739 0.005857095633706504 0.029195883187906
0.1250521050438 0.006229872210108526 0.030877565778185463 0.992230669039881 -0.07280423121208873 0.0019778372483835304 0.015491226571652717 -0.0016882368947423515 -0.009700956172173668
 0.992230669039881 -0.07280423121208873 0.006230684624216694 0.030877361219031015 -0.0016880609840165374 -0.00970096340788516 0.0019804218786328535 0.015490842603354047
 0.0019778372483835304 0.015491226571652717 -0.0016880609840165374 -0.00970096340788516 0.0062302098511058035 0.030879127823076353 0.9922307528123866 -0.07280253389361599
 -0.0016882368947423515 -0.009700956172173668 0.0019804218786328535 0.015490842603354047 0.9922307528123866 -0.07280253389361599 0.006230475701783804 0.030878989570364092
0.131304710296 0.006618464930425815 0.032573600367595976 0.9917188015709826 -0.07657381205492399 0.002154908613951016 0.01626758168159405 -0.0018383542821446236 -0.01019038439462185
 0.9917188015709826 -0.07657381205492399 0.006619359856728446 0.03257337098250675 -0.0018381609587096866 -0.010190393217092676 0.002157765040211685 0.016267147906973756
 0.002154908613951016 0.01626758168159405 -0.0018381609587096866 -0.010190393217092676 0.006618836321699125 0.032575230360827045 0.9917188943044674 -0.07657202654061332
 -0.0018383542821446236 -0.01019038439462185 0.002157765040211685 0.016267147906973756 0.9917188943044674 -0.07657202654061332 0.006619127914616116 0.03257507543313791
0.1375573155481 0.00692906470508435 0.03405913369139962 0.991280591267374 -0.08013164800824474 0.002316518237821259 0.017020012901594016 -0.0019718314098009226 -0.01065610976139255
 0.991280591267374 -0.08013164800824474 0.0069300453515135155 0.03405888350871011 -0.001971619370283406 -0.01065612015249886 0.0023196476894858237 0.017019530311684197
 0.002316518237821259 0.017020012901594016 -0.001971619370283406 -0.01065612015249886 0.00692947070855109 0.03406083067409295 0.9912806933745572 -0.08012977398075613
 -0.0019718314098009226 -0.01065610976139255 0.0023196476894858237 0.017019530311684197 0.9912806933745572 -0.08012977398075613 0.006929789934822084 0.03406066314424345
0.1438099208003 0.007250422595126048 0.03553751929870258 0.9908272671765895 -0.08368119015744702 0.002484670713086158 0.017769952422186194 -0.0021106771477725963 -0.011119554216675848
 0.9908272671765895 -0.08368119015744702 0.0072514926947492946 0.035537246992064744 -0.002110445530946405 -0.011119566328362024 0.002488085122323314 0.017769417444041143
 0.002484670713086158 0.017769952422186194 -0.002110445530946405 -0.011119566328362024 0.007250864588920037 0.03553928185372347 0.9908273791957929 -0.08367922713144905
 -0.0021106771477725963 -0.011119554216675848 0.002488085122323314 0.017769417444041143 0.9908273791957929 -0.08367922713144905 0.007251212588188881 0.03553910100073371
0.1500625260525 0.007582434852491529 0.03700865474934133 0.9903589364962104 -0.08722237235606752 0.002659314823220179 0.018517341313711883 -0.002254841597174667 -0.011580660906919298
 0.9903589364962104 -0.08722237235606752 0.007583598109848027 0.037008358940516656 -0.0022545895418149544 -0.011580674897295385 0.0026630260507655105 0.018516750249803458
 0.002659314823220179 0.018517341313711883 -0.0022545895418149544 -0.011580674897295385 0.0075829141885602625 0.03701048140477057 0.9903590589805206 -0.08722031982572773
 -0.002254841597174667 -0.011580660906919298 0.0026630260507655105 0.018516750249803458 0.9903590589805206 -0.08722031982572773 0.007583292082913714 0.03701028647832112
0.15631513130469998 0.007924997099455119 0.038472440811463386 0.9898757068524178 -0.09075512826334275 0.0028403988190665117 0.019262121520115173 -0.0024042743076289337 -0.012039374104084942
