! Created with skrf 1.8.0 (http://scikit-rf.org).
# GHz S RI R 50.0 
!freq ReS11 ImS11 ReS12 ImS12 ReS13 ImS13
! ReS14 ImS14
! ReS21 ImS21 ReS22 ImS22 ReS23 ImS23
! ReS24 ImS24
! ReS31 ImS31 ReS32 ImS32 ReS33 ImS33
! ReS34 ImS34
! ReS41 ImS41 ReS42 ImS42 ReS43 ImS43
! ReS44 ImS44
!
0.0 0.001792192558081 0.0 0.9982078074277 0.0 6.985167753385e-05 0.0 -6.985167717957e-05 8.554363287303461e-21
 0.9982078074277 0.0 0.001792192558043 0.0 -6.985167717843e-05 8.55436328716385e-21 6.985167753471e-05 0.0
 6.985167753385e-05 0.0 -6.985167717843e-05 8.55436328716385e-21 0.001792192565154 0.0 0.9982078074348 0.0
 -6.985167717957e-05 8.554363287303461e-21 6.985167753471e-05 0.0 0.9982078074348 0.0 0.001792192565179 0.0
0.005 0.0019291671501555925 0.0014595949857131622 0.9980343720059016 -0.003753639121780191 9.917520768801877e-05 0.0008043526068702605 -9.610934662158945e-05 -0.0004986365109819405
 0.9980343720059016 -0.003753639121780191 0.00192914143283131 0.00145961006705706 -9.61122987756311e-05 -0.0004986388073289197 9.931541494138509e-05 0.0008042989969993153
 9.917520768801877e-05 0.0008043526068702605 -9.61122987756311e-05 -0.0004986388073289197 0.0019291658676116325 0.001459663056191271 0.9980343723885139 -0.0037535720620893226
 -9.610934662158945e-05 -0.0004986365109819405 9.931541494138509e-05 0.0008042989969993153 0.9980343723885139 -0.0037535720620893226 0.0019291434722326186 0.0014596761086850406
0.006252605252188 0.001965347175541734 0.0018302270053805981 0.9979882361078843 -0.004692928942956111 0.00010767618682584993 0.0010057987975330312 -0.00010364793059111868 -0.0006239324463841214
 0.9979882361078843 -0.004692928942956111 0.0019653069744977425 0.0018302461862609947 -0.00010365252411106042 -0.0006239352774417234 0.00010789524296962856 0.00100572916295609
 0.00010767618682584993 0.0010057987975330312 -0.00010365252411106042 -0.0006239352774417234 0.001965345098425174 0.0018303120927260798 0.9979882366342452 -0.004692845121121345
 -0.00010364793059111868 -0.0006239324463841214 0.00010789524296962856 0.00100572916295609 0.9979882366342452 -0.004692845121121345 0.001965310091120962 0.001830328726312517
0.01250521050438 0.0021572944251485255 0.003698626345224506 0.9977416901940355 -0.009386392626747184 0.00015707990834360342 0.002011742860820653 -0.0001470918255039136 -0.001250748415645825
 0.9977416901940355 -0.009386392626747184 0.002157133896304555 0.0036986680546905893 -0.0001471099245189761 -0.0012507536412728049 0.00015795334152124703 0.0020115749933970984
 0.00015707990834360342 0.002011742860820653 -0.0001471099245189761 -0.0012507536412728049 0.002157285535776399 0.0036987962997401583 0.9977416917105527 -0.009386225216612625
 -0.0001470918255039136 -0.001250748415645825 0.00015795334152124703 0.0020115749933970984 0.9977416917105527 -0.009386225216612625 0.0021571457590023073 0.0036988327683446206
0.01875781575657 0.0023685052658351385 0.0055933290165549494 0.9974678265485952 -0.014091756955754115 0.00021818625637646857 0.0030185050534559422 -0.00020032900674837666 -0.0018794567702425421
 0.9974678265485952 -0.014091756955754115 0.002368144537165896 0.005593396905740574 -0.00020036936230158784 -0.0018794638588028921 0.0002201480559167258 0.003018204059808889
 0.00021818625637646857 0.0030185050534559422 -0.00020036936230158784 -0.0018794638588028921 0.0023684848515973895 0.0055935837748653195 0.9974678295385436 -0.01409150602474188
 -0.00020032900674837666 -0.0018794567702425421 0.0002201480559167258 0.003018204059808889 0.9974678295385436 -0.01409150602474188 0.002368170778760204 0.0055936434819389156
0.02501042100875 0.0025994335203879467 0.0075116027850482695 0.9971662872378173 -0.018811234486201357 0.00029111930221696375 0.004026094892032585 -0.00026349891872696796 -0.0025097203027867627
 0.9971662872378173 -0.018811234486201357 0.0025987928701035126 0.007511700783573518 -0.0002635701744171105 -0.002509728618757421 0.00029460341956657983 0.00402561977642927
 0.00029111930221696375 0.004026094892032585 -0.0002635701744171105 -0.002509728618757421 0.0025993968609387677 0.007511942325951528 0.997166292181595 -0.018810900047838443
 -0.00026349891872696796 -0.0025097203027867627 0.00029460341956657983 0.00402561977642927 0.997166292181595 -0.018810900047838443 0.0025988391096532764 0.007512028856430558
0.03126302626094 0.0028505140397835256 0.009452006696760622 0.9968366981671273 -0.02354572989781194 0.0003760026996067046 0.00503442385631318 -0.00033673605682584863 -0.0031412906018585865
 0.9968366981671273 -0.02354572989781194 0.0028495138511795024 0.00945213900924152 -0.0003368467665486291 -0.0031412994048662084 0.000381443431475703 0.005033727486605028
 0.0003760026996067046 0.00503442385631318 -0.0003368467665486291 -0.0031412994048662084 0.0028504564041726944 0.00945243102251667 0.9968367055435188 -0.02354531193050624
 -0.00033673605682584863 -0.0031412906018585865 0.000381443431475703 0.005033727486605028 0.9968367055435188 -0.02354531193050624 0.002849585695414171 0.00945254813865736
0.037515631513130004 0.003122171477328934 0.011413574777868793 0.9964786782728958 -0.02829565624164318 0.0004729585013680551 0.006043364146603181 -0.0004201709753679559 -0.0037739493526924364
 0.9964786782728958 -0.02829565624164318 0.0031207322079688767 0.011413745883242076 -0.00042032961234074847 -0.00377395779728556 0.00048079064754173837 0.006042393196542416
 0.0004729585013680551 0.006043364146603181 -0.00042032961234074847 -0.00377395779728556 0.0031220881303477043 0.01141408391066028 0.9964786885675913 -0.028295154692509455
 -0.0004201709753679559 -0.0037739493526924364 0.00048079064754173837 0.006042393196542416 0.9964786885675913 -0.028295154692509455 0.0031208352588249287 0.011414235550333237
0.043768236765320004 0.0034148236594327215 0.013395567676400417 0.996091843307623 -0.03306118323565138 0.0005821065823205342 0.007052766562202675 -0.0005139306209734462 -0.004407490508661949
 0.996091843307623 -0.03306118323565138 0.003412865815616614 0.013395782328556757 -0.0005141455829667874 -0.004407497644266861 0.0005927655063018935 0.007051461446606101
 0.0005821065823205342 0.007052766562202675 -0.0005141455829667874 -0.004407497644266861 0.003414709857215242 0.013396161645017902 0.9960918570106645 -0.033060598034208535
 -0.0005139306209734462 -0.004407490508661949 0.0005927655063018935 0.007051461446606101 0.9960918570106645 -0.033060598034208535 0.0034130056663835948 0.013396351921078537
0.050020842017509996 0.0037288831206365456 0.01539736999457994 0.995675807792773 -0.0378423398702503 0.0007035642687022294 0.008062467908374695 -0.0006181384327798582 -0.005041712937144254
 0.995675807792773 -0.0378423398702503 0.003726327236330589 0.015397633223761987 -0.0006184180454146275 -0.0050417177081271995 0.0007174859078466634 0.008060762715586525
 0.0007035642687022294 0.008062467908374695 -0.0006184180454146275 -0.0050417177081271995 0.0037287341099780337 0.015398048844428105 0.9956758253997301 -0.03784167091898682
 -0.0006181384327798582 -0.005041712937144254 0.0007174859078466634 0.008060762715586525 0.9956758253997301 -0.03784167091898682 0.0037265094709048536 0.0153982820446197
0.055454545454549996 0.004019512624046506 0.017152662443905203 0.9952902464752081 -0.04200995704872313 0.0008192005879588048 0.008940037175373484 -0.0007172765954414627 -0.00559326955135347
 0.9952902464752081 -0.04200995704872313 0.004016372493588095 0.01715297218965913 -0.0007176190984002061 -0.005593271328561532 0.0008363120889434215 0.008937925810158016
 0.0008192005879588048 0.008940037175373484 -0.0007176190984002061 -0.005593271328561532 0.004019329148622544 0.01715341510606222 0.9952902678828538 -0.04200921521834917
 -0.0007172765954414627 -0.00559326955135347 0.0008363120889434215 0.008937925810158016 0.9952902678828538 -0.04200921521834917 0.0040165960882807316 0.01715368922743753
0.056273447269699996 0.00406475786800655 0.017418439913642107 0.9952301862041524 -0.04263906472626181 0.0008374460645494227 0.009072294638968586 -0.0007329143340647714 -0.00567641683609429
 0.9952301862041524 -0.04263906472626181 0.004061524483402725 0.017418757028913292 -0.0007332668528877124 -0.005676418081831794 0.0008550669075492362 0.009070117062490553
 0.0008374460645494227 0.009072294638968586 -0.0007332668528877124 -0.005676418081831794 0.004064568886036239 0.017419203703232623 0.9952302082177354 -0.04263831190464739
 -0.0007329143340647714 -0.00567641683609429 0.0008550669075492362 0.009070117062490553 0.9952302082177354 -0.04263831190464739 0.00406175467584875 0.017419484291256174
0.06252605252188 0.00442285176172931 0.019458281513972848 0.9947545937809872 -0.047451233605553894 0.0009838634212205443 0.010082064875941219 -0.00085837467196361 -0.006311401781764557
 0.9947545937809872 -0.047451233605553894 0.004418861404457721 0.01945865810617563 -0.0008588082838457767 -0.006311398236744032 0.001005620465584298 0.010079336146012127
 0.0009838634212205443 0.010082064875941219 -0.0008588082838457767 -0.006311398236744032 0.004422618034980002 0.019459130311179882 0.9947546207111368 -0.047450396774482095
 -0.00085837467196361 -0.006311401781764557 0.001005620465584298 0.010079336146012127 0.9947546207111368 -0.047450396774482095 0.004419145117312575 0.019459462928127683
0.06877865777407 0.00480356468442686 0.02151642827402959 0.9942486471270437 -0.052278675991838205 0.0011429245348070253 0.011091589630649013 -0.000994632125006321 -0.006946465583504891
 0.9942486471270437 -0.052278675991838205 0.004798737850583809 0.02151687021953707 -0.0009951549489863056 -0.006946455877427518 0.0011692552289514894 0.011088224446370377
 0.0011429245348070253 0.011091589630649013 -0.0009951549489863056 -0.006946455877427518 0.00480328142850956 0.021517362164858278 0.9942486794924781 -0.05227775498544104
 -0.000994632125006321 -0.006946465583504891 0.0011692552289514894 0.011088224446370377 0.9942486794924781 -0.05227775498544104 0.004799080633824818 0.021517751631542684
0.07503126302626001 0.005207292588231406 0.023592432626370986 0.9937119646952103 -0.05712118546431169 0.0013147341573656506 0.012100673593356318 -0.0011417955930458402 -0.007581403579828569
 0.9937119646952103 -0.05712118546431169 0.005201549723590014 0.023592946091736736 -0.0011424156808231196 -0.007581386237738728 0.0013460763314434594 0.012096580055685832
 0.0013147341573656506 0.012100673593356318 -0.0011424156808231196 -0.007581386237738728 0.005206955006574994 0.02359345170602304 0.9937120030234371 -0.05712018009969643
 -0.0011417955930458402 -0.007581403579828569 0.0013460763314434594 0.012096580055685832 0.9937120030234371 -0.05712018009969643 0.005201957112487005 0.023593903026101298
0.08128386827845 0.005634427461308285 0.025685859005778973 0.9931441671971889 -0.061978526630322654 0.0014993934188501656 0.013109115676964218 -0.001299970073936632 -0.008216008190253
 0.9931441671971889 -0.061978526630322654 0.005627688943476041 0.025686450452901872 -0.0013006954101115631 -0.008215981632658536 0.0015361852067125271 0.013104195222817059
 0.0014993934188501656 0.013109115676964218 -0.0013006954101115631 -0.008215981632658536 0.00563403074564103 0.025686963386289945 0.9931442120264279 -0.06197743670061536
 -0.001299970073936632 -0.008216008190253 0.0015361852067125271 0.013104195222817059 0.9931442120264279 -0.06197743670061536 0.005628166457827569 0.02568748175001782
0.08753647353064001 0.006085357243684986 0.02779627907228248 0.9925448779655476 -0.06685043989425592 0.0016969996543477598 0.014116709415078213 -0.0014692565331615303 -0.0088500686229844
 0.9925448779655476 -0.06685043989425592 0.0060775433637490954 0.027796955264577945 -0.001470095035208257 -0.008850031166019715 0.0017396794082289052 0.014110856752691739
 0.0016969996543477598 0.014116709415078213 -0.001470095035208257 -0.008850031166019715 0.006084896573016165 0.027797468876674378 0.9925449298453012 -0.06684926517538
 -0.0014692565331615303 -0.0088500686229844 0.0017396794082289052 0.014110856752691739 0.9925449298453012 -0.06684926517538 0.0060780965059941275 0.02779805966552975
0.09378907878283 0.006560465705695188 0.02992326828775745 0.9919137232842541 -0.07173664488498616 0.0019076462367983204 0.015123243258793216 -0.0016497517668755924 -0.009483370694428611
 0.9919137232842541 -0.07173664488498616 0.006551496649971131 0.029924036296992283 -0.0016507112850039014 -0.009483320550001232 0.0019566524355046494 0.015116346304709968
 0.0019076462367983204 0.015123243258793216 -0.0016507112850039014 -0.009483320550001232 0.006559936245925615 0.029924543657040652 0.9919137827758537 -0.07173538512941749
 -0.0016497517668755924 -0.009483370694428611 0.0019566524355046494 0.015116346304709968 0.9919137827758537 -0.07173538512941749 0.006552130903509296 0.029925212449136682
0.100041684035 0.007060132301260164 0.03206640343555762 0.9912503326968838 -0.07663684295243671 0.0021314224121937913 0.016128500823756546 -0.0018415482616197156 -0.010115696709335334
 0.9912503326968838 -0.07663684295243671 0.007049928133302529 0.032067270649519405 -0.0018426365784542512 -0.010115631985303495 0.0021871935641524 0.016120440641242132
 0.0021314224121937913 0.016128500823756546 -0.0018426365784542512 -0.010115631985303495 0.007059529204583407 0.03206776452462467 0.9912504003747222 -0.07663549789431619
 -0.0018415482616197156 -0.010115696709335334 0.0021871935641524 0.016120440641242132 0.9912504003747222 -0.07663549789431619 0.007050648960810816 0.03206851710094204
0.1059090909091 0.007551685839378897 0.034091815545653194 0.990598165907545 -0.08124760523291362 0.002353429574919399 0.017070470841958802 -0.0020318857816200723 -0.01070798283959781
 0.990598165907545 -0.08124760523291362 0.00754024982342887 0.034092782860842274 -0.0020331019800965367 -0.010707902620745781 0.002415947673670465 0.01706120476395888
 0.002353429574919399 0.017070470841958802 -0.0020331019800965367 -0.010707902620745781 0.007551009221090213 0.034093257229757146 0.9905982418024504 -0.08124617986727478
 -0.0020318857816200723 -0.01070798283959781 0.002415947673670465 0.01706120476395888 0.9905982418024504 -0.08124617986727478 0.007541056839449194 0.034094093873406665
0.1062942892872 0.007584732000797494 0.034225260759367306 0.9905543392988289 -0.08155071905768722 0.0023684131376187365 0.0171322610880129 -0.002044734051054738 -0.010746825401002452
 0.9905543392988289 -0.08155071905768722 0.0075732126436556845 0.034226234890418226 -0.002045958881305983 -0.01074674410136027 0.002431387679183747 0.017122911827346182
 0.0023684131376187365 0.0171322610880129 -0.002045958881305983 -0.01074674410136027 0.007584050405690076 0.0342267077399834 0.9905544157515553 -0.081549288410824
 -0.002044734051054738 -0.010746825401002452 0.002431387679183747 0.017122911827346182 0.9905544157515553 -0.081549288410824 0.007574025485076563 0.034227550091534026
0.11254689453939999 0.008134635111405386 0.03639941455470694 0.9898253800195858 -0.08647794322353183 0.0026186989214731283 0.018134298570857417 -0.002259392570947992 -0.01137653190177049
 0.9898253800195858 -0.08647794322353183 0.008121720329269442 0.036400503649155654 -0.00226076156085602 -0.011376431926838222 0.0026893151108276195 0.018123527411445246
 0.0026186989214731283 0.018134298570857417 -0.00226076156085602 -0.011376431926838222 0.0081338701421271 0.03640094761742907 0.989825465850868 -0.08647642668040557
 -0.002259392570947992 -0.01137653190177049 0.0026893151108276195 0.018123527411445246 0.989825465850868 -0.08647642668040557 0.008122630600530704 0.03640188595315118
0.11879949979160001 0.008710207084545672 0.03858843608811223 0.9890630958954716 -0.0914181716704732 0.0028823556655478773 0.019134383489842647 -0.002485602513009853 -0.012004587746576348
 0.9890630958954716 -0.0914181716704732 0.008695816464993903 0.038589648536452 -0.0024871232397881493 -0.012004466893259156 0.0029610514727328777 0.019122050584315393
 0.0028823556655478773 0.019134383489842647 -0.0024871232397881493 -0.012004466893259156 0.008709353850456373 0.038590055441513484 0.9890631917247156 -0.09141656890422556
 -0.002485602513009853 -0.012004587746576348 0.0029610514727328777 0.019122050584315393 0.9890631917247156 -0.09141656890422556 0.008696829555541795 0.03859109619716393
0.1250521050438 0.009311808315738539 0.04079189275694097 0.9882671323369538 -0.09637104772596991 0.0031594545088296337 0.02013228190972147 -0.002723437678169605 -0.012630760896229049
 0.9882671323369538 -0.09637104772596991 0.009295861251556905 0.040793237305128884 -0.00272511764942552 -0.012630616858223498 0.0032466675021387 0.02011824033008344
 0.0031594545088296337 0.02013228190972147 -0.00272511764942552 -0.012630616858223498 0.00931086191109118 0.040793598627420526 0.9882672388004472 -0.09636935839170625
 -0.002723437678169605 -0.012630760896229049 0.0032466675021387 0.02011824033008344 0.9882672388004472 -0.09636935839170625 0.00929698252268044 0.04079474847542524
0.131304710296 0.009939793936538951 0.04300934742281674 0.9874371393900166 -0.10133620257378638 0.0034500616730468348 0.021127755883230008 -0.0029729668298246956 -0.013254815780284736
 0.9874371393900166 -0.10133620257378638 0.009922209608266435 0.043010833184185304 -0.002974813482820291 -0.013254646148324906 0.0035462289022022255 0.021111851569189353
 0.0034500616730468348 0.021127755883230008 -0.002974813482820291 -0.013254646148324906 0.009938749440553596 0.043011140058257166 0.9874372571422426 -0.10133442630603935
 -0.0029729668298246956 -0.013254815780284736 0.0035462289022022255 0.021111851569189353 0.9874372571422426 -0.10133442630603935 0.009923444391407549 0.04301240591839413
0.1375573155481 0.010459535550070391 0.044950636049009035 0.9867078234430813 -0.10602333304714322 0.00371981545632434 0.022092302969348963 -0.0031997301553465486 -0.013848365157183185
 0.9867078234430813 -0.10602333304714322 0.010440227928623995 0.04495224150481553 -0.0032017546818667985 -0.013848169476317774 0.0038251619963205604 0.022074545071420835
 0.00371981545632434 0.022092302969348963 -0.0032017546818667985 -0.013848169476317774 0.010458388939236531 0.044952515631758165 0.9867079530144494 -0.1060214696415652
 -0.0031997301553465486 -0.013848365157183185 0.0038251619963205604 0.022074545071420835 0.9867079530144494 -0.1060214696415652 0.010441580875624936 0.044953874167846984
0.1438099208003 0.010997804113113996 0.046879970120025094 0.9859523604994493 -0.11069685398220148 0.004000399395871504 0.02305199820365934 -0.0034354969439461766 -0.014437395693893271
 0.9859523604994493 -0.11069685398220148 0.010976691342141472 0.046881702607558196 -0.0034377073555276463 -0.014437171564730835 0.004115323365280494 0.02303224439048759
 0.004000399395871504 0.02305199820365934 -0.0034377073555276463 -0.014437171564730835 0.01099655060536028 0.04688193687325441 0.9859525025440762 -0.11069490308451989
 -0.0034354969439461766 -0.014437395693893271 0.004115323365280494 0.02303224439048759 0.9859525025440762 -0.11069490308451989 0.010978167620990643 0.04688339320958216
0.1500625260525 0.01155438324339377 0.048797137682663326 0.9851709722692831 -0.11535659782844587 0.004291699017946547 0.02400671313468002 -0.003680154214643144 -0.015021784440629809
 0.9851709722692831 -0.11535659782844587 0.011531383246356008 0.04879900497466973 -0.00368255850031321 -0.015021529366764675 0.004416595611876296 0.023984815879644537
 0.004291699017946547 0.02400671313468002 -0.00368255850031321 -0.015021529366764675 0.011553018052000682 0.04879919183775156 0.9851711274564044 -0.11535455907434326
 -0.003680154214643144 -0.015021784440629809 0.004416595611876296 0.023984815879644537 0.9851711274564044 -0.11535455907434326 0.011532987988445771 0.048800751445822625
0.15631513130469998 0.012129054690265205 0.0507019331153914 0.9843638819620538 -0.12000239881768804 0.004593598311600614 0.024956321916104803 -0.003933587416730687 -0.015601411403040982
 0.9843638819620538 -0.12000239881768804 0.012104085165022229 0.05070394343132475 -0.003936193542554449 -0.015601122791493303 0.004728859749231186 0.0249321285610087
