! Created with skrf 1.8.0 (http://scikit-rf.org).
# GHz S RI R 50.0 
!freq ReS11 ImS11 ReS12 ImS12 ReS13 ImS13
! ReS14 ImS14
! ReS21 ImS21 ReS22 ImS22 ReS23 ImS23
! ReS24 ImS24
! ReS31 ImS31 ReS32 ImS32 ReS33 ImS33
! ReS34 ImS34
! ReS41 ImS41 ReS42 ImS42 ReS43 ImS43
! ReS44 ImS44
!
0.0 0.001692519280675 0.0 0.9983074807063 0.0 6.563774273874e-05 0.0 -6.563774282716e-05 8.038305165653863e-21
 0.9983074807063 0.0 0.001692519280684 0.0 -6.563774282781e-05 8.038305165733465e-21 6.563774273862e-05 0.0
 6.563774273874e-05 0.0 -6.563774282781e-05 8.038305165733465e-21 0.001692519287179 0.0 0.9983074807128 0.0
 -6.563774282716e-05 8.038305165653863e-21 6.563774273862e-05 0.0 0.9983074807128 0.0 0.001692519287154 0.0
0.005 0.0018214994875204072 0.001382282913057933 0.9981442125681916 -0.0035449406781067616 9.257247267902154e-05 0.0007349602623010165 -8.976136326674964e-05 -0.00045918723251739933
 0.9981442125681916 -0.0035449406781067616 0.0018215186796685272 0.0013822717605053514 -8.975960634657571e-05 -0.0004591859851400577 9.246023061014261e-05 0.0007350030952150836
 9.257247267902154e-05 0.0007349602623010165 -8.975960634657571e-05 -0.0004591859851400577 0.00182149951606342 0.0013822156798325347 0.9981442121983893 -0.0035450077475407153
 -8.976136326674964e-05 -0.00045918723251739933 9.246023061014261e-05 0.0007350030952150836 0.9981442121983893 -0.0035450077475407153 0.0018215179179618599 0.0013822048605798974
0.006252605252188 0.0018554661077495635 0.0017332803878755188 0.998100920172706 -0.004432021001488947 0.00010035516124914157 0.0009190410333832858 -9.663913072309598e-05 -0.0005745716974517888
 0.998100920172706 -0.004432021001488947 0.0018554961079134985 0.0017332662162767407 -9.663639601453074e-05 -0.0005745701619866943 0.00010017979547380796 0.0009190966640191931
 0.00010035516124914157 0.0009190410333832858 -9.663639601453074e-05 -0.0005745701619866943 0.0018554662260746365 0.001733196374911133 0.9981009196689061 -0.004432104820634826
 -9.663913072309598e-05 -0.0005745716974517888 0.00010017979547380796 0.0009190966640191931 0.9981009196689061 -0.004432104820634826 0.001855494992010647 0.0017331826037415726
0.01250521050438 0.0020350830924983423 0.0035027280805741733 0.9978703583134927 -0.008864692648588194 0.00014544870848547185 0.001838332568946325 -0.00013602075627713796 -0.0011518445113233224
 0.9978703583134927 -0.008864692648588194 0.002035202873518311 0.0035026973995002835 -0.00013600996941343104 -0.0011518417041656492 0.00014474943768548557 0.0018384665198701662
 0.00014544870848547185 0.001838332568946325 -0.00013600996941343104 -0.0011518417041656492 0.002035084109025259 0.0035025604175990817 0.9978703568523414 -0.008864860051024888
 -0.00013602075627713796 -0.0011518445113233224 0.00014474943768548557 0.0018384665198701662 0.9978703568523414 -0.008864860051024888 0.0020351989808778128 0.0035025303772466794
0.01875781575657 0.002231792353986623 0.005297164672810945 0.9976154874515468 -0.013308770504216711 0.0002010265156488888 0.0027584779305483975 -0.0001839102365891296 -0.0017309490969833453
 0.9976154874515468 -0.013308770504216711 0.0022320614892772767 0.005297114951776645 -0.00018388616847702372 -0.0017309453412012459 0.00019945579685198999 0.0027587176663740084
 0.0002010265156488888 0.0027584779305483975 -0.00018388616847702372 -0.0017309453412012459 0.002231795047451436 0.005296913601769708 0.9976154845897075 -0.013309021419140843
 -0.0001839102365891296 -0.0017309490969833453 0.00019945579685198999 0.0027587176663740084 0.9976154845897075 -0.013309021419140843 0.0022320531898261816 0.005296864608005751
0.02501042100875 0.0024460017167038115 0.0071140373879024004 0.9973359870022889 -0.017766370505375804 0.0002671984266202937 0.0036794921700523445 -0.00024043035641751405 -0.0023115967500245446
 0.9973359870022889 -0.017766370505375804 0.002446479650976273 0.007113965923905136 -0.00024038783666196633 -0.002311592432937166 0.0002644086758263906 0.003679869777756639
 0.0002671984266202937 0.0036794921700523445 -0.00024038783666196633 -0.002311592432937166 0.0024460068524588176 0.007113703154290238 0.9973359822893159 -0.017766704903720894
 -0.00024043035641751405 -0.0023115967500245446 0.0002644086758263906 0.003679869777756639 0.9973359822893159 -0.017766704903720894 0.0024464653275596635 0.00711363235458818
0.03126302626094 0.002678102072051803 0.00895201320214887 0.9970315211664669 -0.0222383748262259 0.0003440745036926299 0.004601303566972643 -0.00030569995842438536 -0.002893577861011594
 0.9970315211664669 -0.0222383748262259 0.0026788481560840608 0.008951917123339485 -0.0003056338656101922 -0.002893573434869369 0.0003397177843125084 0.004601855782119932
 0.0003440745036926299 0.004601303566972643 -0.0003056338656101922 -0.002893573434869369 0.0026781104125644215 0.008951596058100315 0.9970315141540488 -0.02223879271807612
 -0.00030569995842438536 -0.002893577861011594 0.0003397177843125084 0.004601855782119932 0.9970315141540488 -0.02223879271807612 0.002678826212417114 0.008951500434887029
0.037515631513130004 0.0029284754712490626 0.01081020832315275 0.9967017473444504 -0.026725202341147954 0.00043176384322861925 0.0055238057670210705 -0.0003798348071400967 -0.003476709792532604
 0.9967017473444504 -0.026725202341147954 0.002929548984522724 0.01081008459030099 -0.000379740064006666 -0.0034767057747683364 0.00042549173395400896 0.005524574018400623
 0.00043176384322861925 0.0055238057670210705 -0.000379740064006666 -0.0034767057747683364 0.002928487770480166 0.010809708549502748 0.996701737577545 -0.026725703753881877
 -0.0003798348071400967 -0.003476709792532604 0.00042549173395400896 0.005524574018400623 0.996701737577545 -0.026725703753881877 0.0029295178382404406 0.010809584921441082
0.043768236765320004 0.003197498222158037 0.012687953710891093 0.9963463195574831 -0.03122704303382831 0.0005303740191508494 0.0064468736228801855 -0.0004629478760688174 -0.004060821059240832
 0.9963463195574831 -0.03122704303382831 0.0031989583923084223 0.012687799117934617 -0.00046281944679453605 -0.004060818032601585 0.0005218375586977228 0.0064479040828759136
 0.0005303740191508494 0.0064468736228801855 -0.00046281944679453605 -0.004060818032601585 0.0031975152313243383 0.012687371613766901 0.996346306579193 -0.03122762801587539
 -0.0004629478760688174 -0.004060821059240832 0.0005218375586977228 0.0064479040828759136 0.996346306579193 -0.03122762801587539 0.0031989164794499476 0.012687216636217049
0.050020842017509996 0.0034855423269841415 0.014584698164927287 0.9959648902157159 -0.03574395483927635 0.0006400107369480269 0.007370369752015353 -0.0005551494406267286 -0.00464574479592135
 0.9959648902157159 -0.03574395483927635 0.0034874483458763113 0.01458450933887743 -0.0005549823292233457 -0.0046457434085664965 0.0006288604095352184 0.007371713389129713
 0.0006400107369480269 0.007370369752015353 -0.0005549823292233457 -0.0046457434085664965 0.003485564794772423 0.014584034075004183 0.9959648735651067 -0.03574462346098536
 -0.0005551494406267286 -0.00464574479592135 0.0006288604095352184 0.007371713389129713 0.9959648735651067 -0.03574462346098536 0.0034873941199097406 0.014583844239951592
0.055454545454549996 0.003751595260572238 0.016248081393301424 0.9956120297288558 -0.03968150856782153 0.0007443237731062591 0.008173150183481278 -0.0006427399861568583 -0.005154592575406711
 0.9956120297288558 -0.03968150856782153 0.0037539367903851747 0.01624785994829927 -0.0006425352316227174 -0.005154593189877116 0.0007306176437671254 0.008174811138661012
 0.0007443237731062591 0.008173150183481278 -0.0006425352316227174 -0.005154593189877116 0.003751623078148352 0.016247346342331947 0.9956120095083081 -0.039682249943710085
 -0.0006427399861568583 -0.005154592575406711 0.0007306176437671254 0.008174811138661012 0.9956120095083081 -0.039682249943710085 0.0037538706212729045 0.01624712323868346
0.056273447269699996 0.0037929761993367797 0.01649996077078661 0.995557111170647 -0.04027591112973487 0.0007607775814978693 0.008294147771993573 -0.0006565470829799623 -0.005231315553857446
 0.995557111170647 -0.04027591112973487 0.00379538723854449 0.01649973417113617 -0.0006563363322731198 -0.005231316519424225 0.0007466633276428563 0.008295860404137333
 0.0007607775814978693 0.008294147771993573 -0.0006563363322731198 -0.005231316519424225 0.0037930048721897015 0.016499215049071262 0.9955570903814154 -0.040276663477843026
 -0.0006565470829799623 -0.005231315553857446 0.0007466633276428563 0.008295860404137333 0.9955570903814154 -0.040276663477843026 0.003795319170298405 0.016498986684380382
0.06252605252188 0.004120165035847804 0.018433304757531726 0.9951226344265806 -0.04482282679471445 0.0008927758170243766 0.009218054069843336 -0.000767245647287569 -0.005817367569505595
 0.9951226344265806 -0.04482282679471445 0.004123140261148224 0.0184330366750445 -0.0007669863383954509 -0.005817371667155081 0.0008753470604014457 0.009220196417814928
 0.0008927758170243766 0.009218054069843336 -0.0007669863383954509 -0.005817371667155081 0.004120200659736922 0.018432477795608426 0.9951226090272162 -0.0448236629721486
 -0.000767245647287569 -0.005817367569505595 0.0008753470604014457 0.009220196417814928 0.9951226090272162 -0.0448236629721486 0.0041230568394500355 0.018432207063965672
0.06877865777407 0.004467470994727855 0.020384321917902452 0.9946611126652162 -0.049384573764732737 0.001036104210218287 0.01014192887899191 -0.0008873471719285155 -0.006403733732480671
 0.9946611126652162 -0.049384573764732737 0.004471069580141417 0.020384008473017575 -0.0008870344239971788 -0.0064037418069403905 0.0010150098965445993 0.010144566619644304
 0.001036104210218287 0.01014192887899191 -0.0008870344239971788 -0.0064037418069403905 0.004467514315536499 0.020383414132656902 0.9946610821771926 -0.04938549389600958
 -0.0008873471719285155 -0.006403733732480671 0.0010150098965445993 0.010144566619644304 0.9946610821771926 -0.04938549389600958 0.004470969311529065 0.0203830970299403
0.07503126302626001 0.004835253260698168 0.022352622726165467 0.9941721996604317 -0.05396099084490039 0.0011908588705353707 0.011065606971159889 -0.001016950804393328 -0.006990244945736949
 0.9941721996604317 -0.05396099084490039 0.004839534402597829 0.02235225986680871 -0.00101657977454882 -0.006990257907320483 0.0011657475153005812 0.011068810790110845
 0.0011908588705353707 0.011065606971159889 -0.00101657977454882 -0.006990257907320483 0.004835305026369458 0.02235163456683287 0.9941721635989477 -0.05396199506911273
 -0.001016950804393328 -0.006990244945736949 0.0011657475153005812 0.011068810790110845 0.9941721635989477 -0.05396199506911273 0.004839415812687311 0.022351266919970404
0.08128386827845 0.005223868039638085 0.0243378297796323 0.9936555506279727 -0.05855189023252374 0.0013571331007001413 0.011988918122164492 -0.0011561527053897585 -0.0075767297193833315
 0.9936555506279727 -0.05855189023252374 0.0052288909701823285 0.024337413278510203 -0.0011557185888144091 -0.007576748543998993 0.0013276528438412305 0.01199276376569481
 0.0013571331007001413 0.011988918122164492 -0.0011557185888144091 -0.007576748543998993 0.005223929000256898 0.024336761726454378 0.9936555085000653 -0.058552978704632046
 -0.0011561527053897585 -0.0075767297193833315 0.0013276528438412305 0.01199276376569481 0.9936555085000653 -0.058552978704632046 0.005228752603391042 0.024336339190852405
0.08753647353064001 0.005633668503149868 0.026339573263938005 0.9931108225292378 -0.06315706201952166 0.0015350172522573839 0.012911687454120668 -0.00130504594709132 -0.0081630138957421
 0.9931108225292378 -0.06315706201952166 0.005639492504363444 0.02633909871533292 -0.001304543977295917 -0.00816303962489258 0.0015008159186643928 0.012916255780346317
 0.0015350172522573839 0.012911687454120668 -0.001304543977295917 -0.00816303962489258 0.005633739412778408 0.026338425825978107 0.99311077383391 -0.06315823491251502
 -0.00130504594709132 -0.0081630138957421 0.0015008159186643928 0.012916255780346317 0.99311077383391 -0.06315823491251502 0.005639332924577003 0.026337943882373403
0.09378907878283 0.006065004703035352 0.028357487721691835 0.9925376743491947 -0.06777627740009415 0.001724598587269141 0.013833735686982634 -0.001463720404854799 -0.008748920473016777
 0.9925376743491947 -0.06777627740009415 0.006071689119988792 0.0283569505377765 -0.0014631458539511113 -0.008748954213785498 0.0016853237518618263 0.01383911271602226
 0.001724598587269141 0.013833735686982634 -0.0014631458539511113 -0.008748954213785498 0.0060650863205243205 0.02835626143911274 0.9925376185762986 -0.06777753490259862
 -0.001463720404854799 -0.008748920473016777 0.0016853237518618263 0.01383911271602226 0.9925376185762986 -0.06777753490259862 0.006071506911261531 0.028355715389958562
0.100041684035 0.0065182234595567426 0.03039120968319122 0.9919357673525369 -0.07240929102577319 0.0019259611415973832 0.014754879343217876 -0.0016322626465017545 -0.009334269484027788
 0.9919357673525369 -0.07240929102577319 0.006525827714391113 0.030390605089631886 -0.0016316108256340433 -0.009334312409041862 0.001881260198878537 0.014761156306213604
 0.0019259611415973832 0.014754879343217876 -0.0016316108256340433 -0.009334312409041862 0.0065183165495424624 0.030389905125503436 0.9919357039819207 -0.0724106333436405
 -0.0016322626465017545 -0.009334269484027788 0.001881260198878537 0.014761156306213604 0.9919357039819207 -0.0724106333436405 0.006525621480966238 0.030389290090741497
0.1059090909091 0.006963729135206425 0.03231369521663147 0.9913444861199613 -0.07676920073983115 0.002125705341670704 0.015618285276836683 -0.0017994704166491887 -0.009882887372772065
 0.9913444861199613 -0.07676920073983115 0.006972250684666059 0.03231302285364201 -0.0017987418568364225 -0.009882940041055527 0.0020755917853515224 0.01562549439019183
 0.002125705341670704 0.015618285276836683 -0.0017987418568364225 -0.009882940041055527 0.006963833692833126 0.032312317753014956 0.9913444151375198 -0.0767706228474155
 -0.0017994704166491887 -0.009882887372772065 0.0020755917853515224 0.01562549439019183 0.9913444151375198 -0.0767706228474155 0.0069720206559625506 0.03231163337750824
0.1062942892872 0.006993668233228283 0.03244037590107315 0.991304765325902 -0.07705584276568234 0.0021391855918875906 0.015674930906181574 -0.00181075581788122 -0.00991887792942772
 0.991304765325902 -0.07705584276568234 0.007002251838708086 0.03243969893215091 -0.0018100220776964854 -0.009918931276807624 0.002088705828935454 0.0156822042932527
 0.0021391855918875906 0.015674930906181574 -0.0018100220776964854 -0.009918931276807624 0.006993773567658396 0.03243899366964176 0.9913046938270526 -0.07705727011924746
 -0.00181075581788122 -0.00991887792942772 0.002088705828935454 0.0156822042932527 0.9913046938270526 -0.07705727011924746 0.007002020205882002 0.03243830458199724
0.11254689453939999 0.00749167898365094 0.034504622001338504 0.9906443348117866 -0.08171565906039531 0.002364349123078699 0.016593698966155052 -0.0019992795276445063 -0.010502559731715485
 0.9906443348117866 -0.08171565906039531 0.007501301556719445 0.034503867494556806 -0.0019984592587753928 -0.010502624805016495 0.0023077377959492855 0.01660207057308973
 0.002364349123078699 0.016593698966155052 -0.0019984592587753928 -0.010502624805016495 0.007491797342564735 0.034503162725649475 0.990644254643016 -0.08171717168800786
 -0.0019992795276445063 -0.010502559731715485 0.0023077377959492855 0.01660207057308973 0.990644254643016 -0.08171717168800786 0.007501043171379195 0.034502394325290654
0.11879949979160001 0.008012592016969116 0.03658358144691119 0.9899541453338903 -0.086388453973294 0.002601525298373744 0.017510988343675225 -0.00219790972967055 -0.0110851257205957
 0.9899541453338903 -0.086388453973294 0.008023313292705576 0.03658274403682589 -0.0021969983633424693 -0.011085203888733266 0.002538429711527424 0.01752056531722997
 0.002601525298373744 0.017510988343675225 -0.0021969983633424693 -0.011085203888733266 0.008012724189829538 0.036582045786846526 0.9899540559412702 -0.0863900521286656
 -0.00219790972967055 -0.0110851257205957 0.002538429711527424 0.01752056531722997 0.9899540559412702 -0.0863900521286656 0.008023026823645769 0.03658119261549306
0.1250521050438 0.008556739825850715 0.03867688471536726 0.9892338696172776 -0.09107393003790347 0.0028507839300289657 0.018426600203184613 -0.0024067186052783417 -0.011666383636648731
 0.9892338696172776 -0.09107393003790347 0.008568619670870898 0.038675958826977906 -0.0024057116138446687 -0.011666476333783076 0.0027808515184108385 0.01843749508509942
 0.0028507839300289657 0.018426600203184613 -0.0024057116138446687 -0.011666476333783076 0.008556886612853651 0.038675273362607544 0.9892337704345542 -0.09107561398835617
 -0.0024067186052783417 -0.011666383636648731 0.0027808515184108385 0.01843749508509942 0.9892337704345542 -0.09107561398835617 0.008568303809796944 0.03867432975703424
0.131304710296 0.00912445092294569 0.040784158665923866 0.9884831838054152 -0.0957717789265117 0.0031121909515310527 0.019340332160881633 -0.0026257744443449207 -0.01224613814972659
 0.9884831838054152 -0.0957717789265117 0.009137549349380115 0.0407831385073132 -0.0026246673420259573 -0.012246246875165822 0.003035069365453374 0.019352662930289685
 0.0031121909515310527 0.019340332160881633 -0.0026246673420259573 -0.012246246875165822 0.009124613135701058 0.04078247233900695 0.9884830742525481 -0.0957735489574993
 -0.0026257744443449207 -0.01224613814972659 0.003035069365453374 0.019352662930289685 0.9884830742525481 -0.0957735489574993 0.00913720281096722 0.040781432423911725
0.1375573155481 0.009590810054625398 0.04263034701911584 0.9878270636020958 -0.10020685836752899 0.0033546469038988527 0.02022510670391557 -0.002824073029653732 -0.012797274794044692
 0.9878270636020958 -0.10020685836752899 0.009605192651196586 0.04262924841757647 -0.00282285942274971 -0.012797399788652762 0.003270157355408833 0.02023886241455975
 0.0033546469038988527 0.02022510670391557 -0.00282285942274971 -0.012797399788652762 0.009590989544576186 0.0426285856811065 0.9878269431974022 -0.10020871463400498
 -0.002824073029653732 -0.012797274794044692 0.003270157355408833 0.02023886241455975 0.9878269431974022 -0.10020871463400498 0.00960481293503132 0.042627466513348235
0.1438099208003 0.010073719085224678 0.04446586120148577 0.9871475673485705 -0.10462973451110354 0.0036068803567926152 0.02110567441283678 -0.0030302695533005308 -0.0133445925035539
 0.9871475673485705 -0.10462973451110354 0.010089446926745831 0.044464679594777325 -0.003028944672153287 -0.013344735244568364 0.0035147021106426957 0.021120963666784585
 0.0036068803567926152 0.02110567441283678 -0.003028944672153287 -0.013344735244568364 0.010073916869085918 0.04446402552797708 0.9871474355134026 -0.10463167728645903
 -0.0030302695533005308 -0.0133445925035539 0.0035147021106426957 0.021120963666784585 0.9871474355134026 -0.10463167728645903 0.01008903256014149 0.04446282260763755
0.1500625260525 0.01057299331173598 0.046290519718384944 0.9864448844194034 -0.10904026869040492 0.003868795331289847 0.02198192493421622 -0.003244271512501464 -0.013887989065334427
 0.9864448844194034 -0.10904026869040492 0.010590127645634868 0.04628925026119223 -0.003242830604566587 -0.013888151088758498 0.003768609854898645 0.021998860293746186
 0.003868795331289847 0.02198192493421622 -0.003242830604566587 -0.013888151088758498 0.010573210430048371 0.046288610404584006 0.9864447405637446 -0.10904229826103537
 -0.003244271512501464 -0.013887989065334427 0.003768609854898645 0.021998860293746186 0.9864447405637446 -0.10904229826103537 0.0105896771635503 0.04628731895726828
0.15631513130469998 0.011088446542835188 0.04810414649701305 0.9857192053467919 -0.11343832336579951 0.004140294605295329 0.022853749986116428 -0.0034659851701398067 -0.014427364597819172
 0.9857192053467919 -0.11343832336579951 0.011107048793729724 0.048102784052976515 -0.003464423500216616 -0.014427547498046941 0.0040317856068470236 0.0228724479274104
