! Created with skrf 1.8.0 (http://scikit-rf.org).
# GHz S RI R 50.0 
!freq ReS11 ImS11 ReS12 ImS12 ReS13 ImS13
! ReS14 ImS14
! ReS21 ImS21 ReS22 ImS22 ReS23 ImS23
! ReS24 ImS24
! ReS31 ImS31 ReS32 ImS32 ReS33 ImS33
! ReS34 ImS34
! ReS41 ImS41 ReS42 ImS42 ReS43 ImS43
! ReS44 ImS44
!
0.0 0.001581835896918 0.0 0.9984181641003 0.0 6.1204134496e-05 0.0 -6.120413454039e-05 7.495344745947257e-21
 0.9984181641003 0.0 0.001581835896865 0.0 -6.120413453934e-05 7.49534474581867e-21 6.120413449494e-05 0.0
 6.1204134496e-05 0.0 -6.120413453934e-05 7.49534474581867e-21 0.001581835889784 0.0 0.9984181640932 0.0
 -6.120413454039e-05 7.495344745947257e-21 6.120413449494e-05 0.0 0.9984181640932 0.0 0.001581835889788 0.0
0.005 0.0017020603734199898 0.001291675512420303 0.9982660328981108 -0.003313499734753417 8.621826949984493e-05 0.0006883836836283606 -8.359399401451361e-05 -0.0004296229915260954
 0.9982660328981108 -0.003313499734753417 0.0017020787411025876 0.0012916648085913016 -8.35965444035303e-05 -0.0004296249767834177 8.608206798381725e-05 0.000688435309762627
 8.621826949984493e-05 0.0006883836836283606 -8.35965444035303e-05 -0.0004296249767834177 0.0017020585815252368 0.001291609331697695 0.998266032545504 -0.003313566799191807
 -8.359399401451361e-05 -0.0004296229915260954 8.608206798381725e-05 0.000688435309762627 0.998266032545504 -0.003313566799191807 0.0017020798340216202 0.0012915968657049041
0.006252605252188 0.0017336238972332464 0.0016196813901838546 0.9982258323841491 -0.004142680544901766 9.339650894156298e-05 0.0008608034057288983 -8.993227611682262e-05 -0.0005375852439577479
 0.9982258323841491 -0.004142680544901766 0.0017336526097299773 0.0016196678474910378 -8.993624452119077e-05 -0.000537587692186704 9.318370403315498e-05 0.0008608704890117476
 9.339650894156298e-05 0.0008608034057288983 -8.993624452119077e-05 -0.000537587692186704 0.0017336211507863449 0.0016195986740531122 0.9982258318878537 -0.004142764373068829
 -8.993227611682262e-05 -0.0005375852439577479 9.318370403315498e-05 0.0008608704890117476 0.9982258318878537 -0.004142764373068829 0.0017336543736490477 0.001619582919123999
0.01250521050438 0.0018999691637010692 0.0032733246040980916 0.9980125276923075 -0.008286137917597365 0.00013472914104522903 0.0017218972272151005 -0.00012598495210651555 -0.0010777663086489304
 0.9980125276923075 -0.008286137917597365 0.0019000838165593175 0.003273295906156495 -0.0001260005887784621 -0.0010777708390345157 0.00013388043598530972 0.0017220589244048663
 0.00013472914104522903 0.0017218972272151005 -0.0001260005887784621 -0.0010777708390345157 0.0018999587729549208 0.0032731595318301132 0.9980125262902247 -0.008286305318378694
 -0.00012598495210651555 -0.0010777663086489304 0.00013388043598530972 0.0017220589244048663 0.9980125262902247 -0.008286305318378694 0.0019000914478920963 0.0032731262880778328
0.01875781575657 0.00208124296309756 0.0049505037775506595 0.9977779792994586 -0.012440449981052275 0.0001852979262548645 0.0025838647665510266 -0.00016947519672600169 -0.0016197404202823872
 0.9977779792994586 -0.012440449981052275 0.0020815005990595685 0.00495045824666336 -0.00016951006364071232 -0.0016197465951879755 0.00018339119867595693 0.002584154043866779
 0.0001852979262548645 0.0025838647665510266 -0.00016951006364071232 -0.0016197465951879755 0.0020812200307633354 0.004950256595800333 0.9977779765700091 -0.012440700896210424
 -0.00016947519672600169 -0.0016197404202823872 0.00018339119867595693 0.002584154043866779 0.9977779765700091 -0.012440700896210424 0.002081518186139787 0.004950203984228135
0.02501042100875 0.0022778050826033256 0.0066488566677117495 0.997521905582285 -0.01660761946797971 0.00024520057075620244 0.003446736281475245 -0.00022051211592444706 -0.00216325157284764
 0.997521905582285 -0.01660761946797971 0.0022782626383830275 0.006648792585069406 -0.00022057368354675734 -0.0021632588754016704 0.000241813427957362 0.0034471913717561
 0.00024520057075620244 0.003446736281475245 -0.00022057368354675734 -0.0021632588754016704 0.0022777647196882064 0.0066485276803478184 0.9975219011045575 -0.016607953864252272
 -0.00022051211592444706 -0.00216325157284764 0.000241813427957362 0.0034471913717561 0.9975219011045575 -0.016607953864252272 0.0022782942735378423 0.006648453704881754
0.03126302626094 0.0024900004086343156 0.008367162017089593 0.9972440108466515 -0.02078849659682637 0.0003145353013981271 0.004310460823895593 -0.00027920158239475306 -0.0027081186079184463
 0.9972440108466515 -0.02078849659682637 0.0024907147500505653 0.00836707762905431 -0.0002792972451783013 -0.002708126441094782 0.00030924470038968415 0.004311125260967424
 0.0003145353013981271 0.004310460823895593 -0.0002792972451783013 -0.002708126441094782 0.0024899377337297703 0.008366751572927296 0.9972440042004705 -0.0207889144786097
 -0.00027920158239475306 -0.0027081186079184463 0.00030924470038968415 0.004311125260967424 0.9972440042004705 -0.0207889144786097 0.002490764532783654 0.008366654126332472
0.037515631513130004 0.0027181662597942314 0.010104619290796257 0.9969439929076882 -0.02498349927430059 0.0003933998086186799 0.00517495526076744 -0.00034564701303121226 -0.003254186192247724
 0.9969439929076882 -0.02498349927430059 0.002719194207622737 0.010104512812493294 -0.0003457840973953104 -0.0032541938786142316 0.0003857818893732923 0.00517587793465725
 0.0003933998086186799 0.00517495526076744 -0.0003457840973953104 -0.0032541938786142316 0.002718076395214317 0.010104127802160988 0.9969439836692956 -0.024984000665719142
 -0.00034564701303121226 -0.003254186192247724 0.0003857818893732923 0.00517587793465725 0.9969439836692956 -0.024984000665719142 0.0027192662417790613 0.010104004668875642
0.043768236765320004 0.002962635209683219 0.011860629486308028 0.9966215461633592 -0.02919283221524426 0.00048189074559907685 0.006040119191839224 -0.0004199496473138253 -0.0038013099046397577
 0.9966215461633592 -0.02919283221524426 0.0029640335606381874 0.01186049910423729 -0.0004201354163033534 -0.003801316686279182 0.0004715207558632301 0.006041354410438712
 0.00048189074559907685 0.006040119191839224 -0.0004201354163033534 -0.003801316686279182 0.0029625132829639717 0.0118600574268109 0.9966215339059077 -0.029193417163068967
 -0.0004199496473138253 -0.0038013099046397577 0.0004715207558632301 0.006041354410438712 0.9966215339059077 -0.029193417163068967 0.0029641319568742856 0.011859906284565935
0.050020842017509996 0.003223736399011055 0.013634704544319195 0.9962763631611116 -0.03341657745972983 0.00058010342871356 0.006905841105527045 -0.000502208643276012 -0.004349350088835339
 0.9962763631611116 -0.03341657745972983 0.0032255619445996026 0.01363454841821783 -0.0005024502995724664 -0.004349355127337404 0.0005665556969592423 0.006907448658820358
 0.00058010342871356 0.006905841105527045 -0.0005024502995724664 -0.004349355127337404 0.0032235775432040174 0.013634052456915414 0.996276347454361 -0.03341724602612098
 -0.000502208643276012 -0.004349350088835339 0.0005665556969592423 0.006907448658820358 0.996276347454361 -0.03341724602612098 0.0032256908207587936 0.013633870877536872
0.055454545454549996 0.0034644021985029195 0.015190771817895767 0.995957684561685 -0.03709884899505288 0.0006734213387306772 0.007658540120150928 -0.0005802312013248706 -0.004826250783310854
 0.995957684561685 -0.03709884899505288 0.0034666451203694023 0.015190591805137259 -0.000580527229519504 -0.004826253563587156 0.0006567656431798638 0.007660524107144006
 0.0006734213387306772 0.007658540120150928 -0.000580527229519504 -0.004826253563587156 0.0034642073025215156 0.015190050676469346 0.9959576655043945 -0.03709959029362616
 -0.0005802312013248706 -0.004826250783310854 0.0006567656431798638 0.007660524107144006 0.9959576655043945 -0.03709959029362616 0.0034668038344328332 0.01518984059222283
0.056273447269699996 0.0035017962015394333 0.015426422897862682 0.9959081355244245 -0.037654738753585326 0.0006881316247355197 0.007772001411134172 -0.0005925210936188848 -0.004898168834339735
 0.9959081355244245 -0.037654738753585326 0.0035041057461117587 0.015426239162021403 -0.0005928257815904743 -0.00489817121083061 0.0006709795626793695 0.007774046636494741
 0.0006881316247355197 0.007772001411134172 -0.0005928257815904743 -0.00489817121083061 0.0035015955561541858 0.015425691391773612 0.9959081159336866 -0.037655491019869765
 -0.0005925210936188848 -0.004898168834339735 0.0006709795626793695 0.007774046636494741 0.9959081159336866 -0.037655491019869765 0.0035042692276666043 0.015425476841382228
0.06252605252188 0.0037971385797748304 0.017235405026782568 0.9955165545713898 -0.041907265926974135 0.0008060673815046896 0.008638474099575293 -0.000690982001358503 -0.005447628333442055
 0.9955165545713898 -0.041907265926974135 0.003799988957720615 0.017235191790718914 -0.000691356808354898 -0.005447627048617281 0.0007848835060582938 0.008641027947393218
 0.0008060673815046896 0.008638474099575293 -0.000691356808354898 -0.005447627048617281 0.003796891290571494 0.01723459478120842 0.9955165306566804 -0.041908101990708616
 -0.000690982001358503 -0.005447628333442055 0.0007848835060582938 0.008641027947393218 0.9955165306566804 -0.041908101990708616 0.0038001911777992728 0.017234344619758424
0.06877865777407 0.004110085263852827 0.019061298883164705 0.9951013117624824 -0.046174069406398954 0.0009340008831506086 0.00950512774536834 -0.0007976842316525102 -0.005997589901937056
 0.9951013117624824 -0.046174069406398954 0.0041135333565645105 0.019061054231881317 -0.0007981361889692675 -0.005997583876112523 0.0009083568521325283 0.009508266844587821
 0.0009340008831506086 0.00950512774536834 -0.0007981361889692675 -0.005997583876112523 0.004109786484916924 0.019060410647788528 0.9951012830786987 -0.046174989381511614
 -0.0007976842316525102 -0.005997589901937056 0.0009083568521325283 0.009508266844587821 0.9951012830786987 -0.046174989381511614 0.00411377845711741 0.01906012212822784
0.07503126302626001 0.00444095583099701 0.020903770662748396 0.9946620990518814 -0.05045502938571665 0.0010720203193475303 0.010371826148434734 -0.0009127184494588763 -0.006547913365258894
 0.9946620990518814 -0.05045502938571665 0.004445058583842846 0.02090349265631364 -0.0009132545329175989 -0.006547901438437712 0.0010414869777968948 0.010375632871699642
 0.0010720203193475303 0.010371826148434734 -0.0009132545329175989 -0.006547901438437712 0.004440600724816807 0.020902805256270682 0.9946620651476671 -0.050456033404798074
 -0.0009127184494588763 -0.006547913365258894 0.0010414869777968948 0.010375632871699642 0.9946620651476671 -0.050456033404798074 0.004445350715401733 0.020902475522945784
0.08128386827845 0.004790067720809724 0.02276249865321724 0.9941986091796001 -0.05475000192607615 0.0012202117641812317 0.011238428759212625 -0.0010361730472768108 -0.007098456666775185
 0.9941986091796001 -0.05475000192607615 0.004794882159826656 0.0227621853259332 -0.0010368001775916975 -0.0070984375987088715 0.0011843591984979694 0.011242991287465148
 0.0012202117641812317 0.011238428759212625 -0.0010368001775916975 -0.0070984375987088715 0.004789651459221127 0.022761456969199734 0.9941985695963798 -0.05475109013503383
 -0.0010361730472768108 -0.007098456666775185 0.0011843591984979694 0.011242991287465148 0.9941985695963798 -0.05475109013503383 0.0047952254817060554 0.022761083055832063
0.08753647353064001 0.005157736206117584 0.024637168993546784 0.9937105359220694 -0.05905882315044711 0.0013786590598068612 0.012104790990560083 -0.0011681340670792945 -0.007649075594879734
 0.9937105359220694 -0.05905882315044711 0.0051633194551217315 0.024636818352402667 -0.0011688591100927775 -0.007649048065145182 0.0013370566587417845 0.012110203376918172
 0.0013786590598068612 0.012104790990560083 -0.0011688591100927775 -0.007649048065145182 0.00515725397243655 0.024636051999228633 0.9937104901945708 -0.05905999571039994
 -0.0011681340670792945 -0.007649075594879734 0.0013370566587417845 0.012110203376918172 0.9937104901945708 -0.05905999571039994 0.005163718136495978 0.024635630826350192
0.09378907878283 0.0055442743369193215 0.026527472643517395 0.9931975743200503 -0.06338131223449096 0.0015474437049499575 0.012970764440964132 -0.0013086851168238448 -0.008199623604601702
 0.9931975743200503 -0.06338131223449096 0.005550683634204435 0.02652708266618412 -0.0013095148834989603 -0.008199586212686467 0.0014996602261208452 0.01297712667375735
 0.0015474437049499575 0.012970764440964132 -0.0013095148834989603 -0.008199586212686467 0.005543721325638738 0.026526281377603753 0.9931975219746226 -0.06338256932458013
 -0.0013086851168238448 -0.008199623604601702 0.0014996602261208452 0.01297712667375735 0.9931975219746226 -0.06338256932458013 0.005551141853392569 0.026525809749377863
0.100041684035 0.0059499928607889 0.028433103159178342 0.9926594208869987 -0.06771727359794738 0.0017266447454912933 0.013836197070646629 -0.001457907284066588 -0.00874995169227425
 0.9926594208869987 -0.06771727359794738 0.005957285576211606 0.028432671791430077 -0.0014588485304478278 -0.008749902957676034 0.0016722483865832412 0.013843615135482167
 0.0017266447454912933 0.013836197070646629 -0.0014588485304478278 -0.008749902957676034 0.0059493642797186766 0.028431838736872866 0.9926593614412661 -0.06771861541082372
 -0.001457907284066588 -0.00874995169227425 0.0016722483865832412 0.013843615135482167 0.9926593614412661 -0.06771861541082372 0.005957807521759544 0.028431313337266225
0.1059090909091 0.006348435729412103 0.03023500274521311 0.992131240396864 -0.07179818059933718 0.0019043476790545214 0.014647683427022655 -0.001605892689394691 -0.00926604125435813
 0.992131240396864 -0.07179818059933718 0.006356609748825209 0.030234530637304757 -0.0016069446431611267 -0.009265980458179876 0.0018433526817594821 0.014656194066947697
 0.0019043476790545214 0.014647683427022655 -0.0016069446431611267 -0.009265980458179876 0.006347731888173973 0.030233670752574066 0.9921311738413747 -0.07179960210647117
 -0.001605892689394691 -0.00926604125435813 0.0018433526817594821 0.014656194066947697 0.9921311738413747 -0.07179960210647117 0.006357195313013947 0.030233091767547467
0.1062942892872 0.00637520012854755 0.030353755032053287 0.9920957738049886 -0.07206649853904128 0.0019163386671976121 0.014700933342214844 -0.0016158790466454867 -0.00929990831172708
 0.9920957738049886 -0.07206649853904128 0.006383433780945636 0.030353280184425995 -0.0016169384737204494 -0.009299846674046732 0.0018548971415723629 0.014709519283029762
 0.0019163386671976121 0.014700933342214844 -0.0016169384737204494 -0.009299846674046732 0.006374491199661798 0.03035241864085141 0.9920957067675343 -0.07206792528555563
 -0.0016158790466454867 -0.00929990831172708 0.0018548971415723629 0.014709519283029762 0.9920957067675343 -0.07206792528555563 0.006384023651378651 0.030351836029399264
0.11254689453939999 0.006820201988475523 0.032289122414154554 0.9915063331135576 -0.07642876649020043 0.0021165992896803646 0.01556481433657653 -0.0017826761817808271 -0.009849339321428131
 0.9915063331135576 -0.07642876649020043 0.006829434262687585 0.03228860195816102 -0.0017838604352113255 -0.009849263140491765 0.002047679905594913 0.015574686315497757
 0.0021165992896803646 0.01556481433657653 -0.0017838604352113255 -0.009849263140491765 0.006819407948995596 0.032287715319442405 0.9915062579827469 -0.0764302783943622
 -0.0017826761817808271 -0.009849339321428131 0.002047679905594913 0.015574686315497757 0.9915062579827469 -0.0764302783943622 0.006830096266873579 0.032287071926152426
0.11879949979160001 0.0072853016697836115 0.03423889813620711 0.9908908008902262 -0.08080384598783416 0.002327497661578163 0.01642767785526307 -0.001958371673293812 -0.010398087951549177
 0.9908908008902262 -0.08080384598783416 0.00729559043443608 0.034238329899764615 -0.001959687343143748 -0.010397995507554604 0.0022506674051041143 0.016438960211326036
 0.002327497661578163 0.01642767785526307 -0.001959687343143748 -0.010397995507554604 0.007284417773720353 0.03423742167857194 0.9908907171541818 -0.08080544328986283
 -0.001958371673293812 -0.010398087951549177 0.0022506674051041143 0.016438960211326036 0.9908907171541818 -0.08080544328986283 0.007296328791926266 0.03423671379834736
0.1250521050438 0.007770799660179662 0.03620277292935628 0.990248881428102 -0.08519149544590106 0.0025491019567222663 0.017289358509924434 -0.002143035617856514 -0.010945994790363824
 0.990248881428102 -0.08519149544590106 0.00778220298485671 0.036202154691672296 -0.0021444892382330967 -0.010945884283970492 0.002463927577524925 0.017302181816428883
 0.0025491019567222663 0.017289358509924434 -0.0021444892382330967 -0.010945884283970492 0.007769821179454555 0.036201228526204256 0.9902487885633715 -0.08519317840100582
 -0.002143035617856514 -0.010945994790363824 0.002463927577524925 0.017302181816428883 0.9902487885633715 -0.08519317840100582 0.0077830219258385805 0.03620045231264257
0.131304710296 0.008276993576109792 0.03818043481121762 0.9895802814090068 -0.08959146377303001 0.0027814773706548463 0.018149687806096198 -0.00233673513062481 -0.011492897782787325
 0.9895802814090068 -0.08959146377303001 0.008289569749424675 0.038179764296864566 -0.002338333179295649 -0.01149276733529851 0.002687525471026814 0.018164188926645144
 0.0027814773706548463 0.018149687806096198 -0.002338333179295649 -0.01149276733529851 0.00827591580206598 0.03817882395707935 0.989580178880443 -0.08959323265143661
 -0.00233673513062481 -0.011492897782787325 0.002687525471026814 0.018164188926645144 0.989580178880443 -0.08959323265143661 0.008290473515188725 0.03817797541547222
0.1375573155481 0.008689486994801033 0.03991335593116372 0.9889994462357927 -0.09374515828223748 0.002996229019491838 0.018982787084970323 -0.0025111923022247966 -0.012012860691470572
 0.9889994462357927 -0.09374515828223748 0.00870329931398262 0.039912645197112635 -0.00251294446344059 -0.012012710110771095 0.0028932920662839115 0.01899894739811411
 0.002996229019491838 0.018982787084970323 -0.00251294446344059 -0.012012710110771095 0.00868830584860644 0.03991167989633972 0.9889993335966419 -0.0937470132301696
 -0.0025111923022247966 -0.012012860691470572 0.0028932920662839115 0.01899894739811411 0.9889993335966419 -0.0937470132301696 0.00870429136002622 0.03991076962004898
0.1438099208003 0.009116531007597229 0.04163685788461715 0.9883980934278047 -0.0978880349547722 0.003219663083550264 0.019812294294681225 -0.0026926212772129835 -0.012529585701681549
 0.9883980934278047 -0.0978880349547722 0.009131638819142583 0.04163610530395095 -0.00269453452512194 -0.012529413133614057 0.00310734825352536 0.01983023906717721
 0.003219663083550264 0.019812294294681225 -0.00269453452512194 -0.012529413133614057 0.009115241920793549 0.04163511819766801 0.9883979701441628 -0.09788997623563632
 -0.0026926212772129835 -0.012529585701681549 0.00310734825352536 0.01983023906717721 0.9883979701441628 -0.09788997623563632 0.009132723260500807 0.04163414281947972
0.1500625260525 0.009557970861962039 0.04335078817039692 0.9877763819676946 -0.10201998221764817 0.003451700322522125 0.020638117218934136 -0.002880946088627674 -0.013042987773301271
 0.9877763819676946 -0.10201998221764817 0.009574433746579583 0.04334999195282154 -0.0028830273817744383 -0.013042791288974268 0.0033296172614397236 0.0206579762769182
 0.003451700322522125 0.020638117218934136 -0.0028830273817744383 -0.013042791288974268 0.00955656929186901 0.04334898642203648 0.9877762474955432 -0.10202201010278607
 -0.002880946088627674 -0.013042987773301271 0.0033296172614397236 0.0206579762769182 0.9877762474955432 -0.10202201010278607 0.009575614699840513 0.043347942342028885
0.15631513130469998 0.010013650653524678 0.045054998874719136 0.9871344717046112 -0.10614088907722347 0.003692260522657931 0.021460165245635175 -0.0030760898037140993 -0.013552983713148658
 0.9871344717046112 -0.10614088907722347 0.010031528432525498 0.04505415705723481 -0.003078346084985282 -0.013552761309246507 0.0035600213838463644 0.021482072924871257
