! Created with skrf 1.8.0 (http://scikit-rf.org).
# GHz S RI R 50.0 
!freq ReS11 ImS11 ReS12 ImS12 ReS13 ImS13
! ReS14 ImS14
! ReS21 ImS21 ReS22 ImS22 ReS23 ImS23
! ReS24 ImS24
! ReS31 ImS31 ReS32 ImS32 ReS33 ImS33
! ReS34 ImS34
! ReS41 ImS41 ReS42 ImS42 ReS43 ImS43
! ReS44 ImS44
!
0.0 0.001588051534874 0.0 0.9984119484595 0.0 6.117692717147e-05 0.0 -6.117692681622e-05 7.49201276071557e-21
 0.9984119484595 0.0 0.00158805153488 0.0 -6.117692681625e-05 7.492012760719245e-21 6.117692717162e-05 0.0
 6.117692717147e-05 0.0 -6.117692681625e-05 7.492012760719245e-21 0.001588051532031 0.0 0.9984119484566 0.0
 -6.117692681622e-05 7.49201276071557e-21 6.117692717162e-05 0.0 0.9984119484566 0.0 0.00158805153203 0.0
0.005 0.0017086931473038521 0.0013018646386885933 0.9982592930334487 -0.003326270999776783 8.544592961556376e-05 0.0006568970766003089 -8.298202730405474e-05 -0.0004153147653633669
 0.9982592930334487 -0.003326270999776783 0.001708735133133841 0.0013018400878757148 -8.298217486212718e-05 -0.0004153148106562306 8.51795915921722e-05 0.0006569983460051858
 8.544592961556376e-05 0.0006568970766003089 -8.298217486212718e-05 -0.0004153148106562306 0.0017086937826634079 0.0013019314792108278 0.9982592933950862 -0.0033262039426847695
 -8.298202730405474e-05 -0.0004153147653633669 8.51795915921722e-05 0.0006569983460051858 0.9982592933950862 -0.0033262039426847695 0.0017087352152064747 0.001301907356315691
0.006252605252188 0.001740366129389851 0.0016324336387801722 0.9982189522255421 -0.004158644816491092 9.242326128434538e-05 0.0008214434134555414 -8.915017018385651e-05 -0.000519674162671101
 0.9982189522255421 -0.004158644816491092 0.0017404317614382778 0.0016324024899545936 -8.915040033110865e-05 -0.0005196742170515661 9.20071315001898e-05 0.0008215749520800879
 9.242326128434538e-05 0.0008214434134555414 -8.915040033110865e-05 -0.0005196742170515661 0.0017403670474212484 0.0016325171830730409 0.9982189527153567 -0.004158560992326463
 -8.915017018385651e-05 -0.000519674162671101 9.20071315001898e-05 0.0008215749520800879 0.9982189527153567 -0.004158560992326463 0.0017404318136777942 0.0016324865823169636
0.01250521050438 0.0019072883253557086 0.003298902571702226 0.9980048930077637 -0.008318033652666574 0.000132666203303973 0.0016432601600619454 -0.0001242103047279366 -0.0010418262777114583
 0.9980048930077637 -0.008318033652666574 0.001907550403218317 0.0032988356230535592 -0.0001242112182933651 -0.001041826361088767 0.00013100672161188843 0.0016435767452929026
 0.000132666203303973 0.0016432601600619454 -0.0001242112182933651 -0.001041826361088767 0.0019072914415882388 0.0032990693042082614 0.9980048944087163 -0.00831786624738985
 -0.0001242103047279366 -0.0010418262777114583 0.00013100672161188843 0.0016435767452929026 0.9980048944087163 -0.00831786624738985 0.0019075500465223902 0.0032990035918959468
0.01875781575657 0.0020891913402949778 0.004988948439815935 0.997769498665894 -0.012488276957969065 0.0001819986669430953 0.002465969380893051 -0.00016646642246336978 -0.0015657222747483212
 0.997769498665894 -0.012488276957969065 0.0020897802562568554 0.004988840662779036 -0.0001664684688872919 -0.0015657223543613177 0.00017827070068918667 0.0024665351987321004
 0.0001819986669430953 0.002465969380893051 -0.0001664684688872919 -0.0015657223543613177 0.0020891979329250234 0.004989198120225372 0.9977695013949266 -0.012488026043344102
 -0.00016646642246336978 -0.0015657222747483212 0.00017827070068918667 0.0024665351987321004 0.9977695013949266 -0.012488026043344102 0.002089779013790627 0.004989092432765346
0.02501042100875 0.002286436802465986 0.006700202045251928 0.9975124860585937 -0.01667138445649018 0.00024051577093942608 0.0032895888182491763 -0.0002160240302386401 -0.00209112348578151
 0.9975124860585937 -0.01667138445649018 0.0022874826987087336 0.006700048081301384 -0.00021602765649113666 -0.002091123521221174 0.0002338938146656782 0.0032904783849530125
 0.00024051577093942608 0.0032895888182491763 -0.00021602765649113666 -0.002091123521221174 0.002286448155973991 0.00670053442103373 0.9975124905375221 -0.016671050060903515
 -0.0002160240302386401 -0.00209112348578151 0.0002338938146656782 0.0032904783849530125 0.9975124905375221 -0.016671050060903515 0.002287480085997865 0.006700383589461169
0.03126302626094 0.0024993713885478933 0.008431438752496419 0.9972335579009689 -0.02086820973489036 0.0003083132515060981 0.0041140623861341905 -0.000272985611377648 -0.0026178588913892535
 0.9972335579009689 -0.02086820973489036 0.0025010042307398415 0.008431232922725938 -0.0002729912623678681 -0.0026178588344912797 0.0002979706700626312 0.004115360611578404
 0.0003083132515060981 0.0041140623861341905 -0.0002729912623678681 -0.0026178588344912797 0.002499388785277304 0.008431853543848287 0.997233564549358 -0.020867791857924055
 -0.000272985611377648 -0.0026178588913892535 0.0002979706700626312 0.004115360611578404 0.997233564549358 -0.020867791857924055 0.0025009997472771684 0.00843165210391305
0.037515631513130004 0.0027283341827479884 0.010181855980835151 0.9969324103640834 -0.02507917268926423 0.00038548637232420894 0.00493930461318351 -0.0003374513338243718 -0.0031457806650577085
 0.9969324103640834 -0.02507917268926423 0.0027306838092231375 0.010181592290841548 -0.0003374594525092451 -0.0031457804598545207 0.00037059506492192004 0.004941106906588685
 0.00038548637232420894 0.00493930461318351 -0.0003374594525092451 -0.0031457804598545207 0.0027283589088464124 0.010182352874940724 0.9969324196060327 -0.0250786713070901
 -0.0003374513338243718 -0.0031457806650577085 0.00037059506492192004 0.004941106906588685 0.9969324196060327 -0.0250786713070901 0.0027306769450971755 0.01018209507224291
0.043768236765320004 0.0029736595227796625 0.011950853317975015 0.9966087361681124 -0.02930447933988687 0.0004721294156132251 0.0057652141384503175 -0.00040951929586483763 -0.0036747506779016338
 0.9966087361681124 -0.02930447933988687 0.002976855684484594 0.011950525460487634 -0.000409530323277536 -0.0036747502605461013 0.00045185966025299435 0.005767626527418285
 0.0004721294156132251 0.0057652141384503175 -0.000409530323277536 -0.0036747502605461013 0.0029736928641896174 0.011951431964450702 0.9966087484300189 -0.029303894409393186
 -0.00040951929586483763 -0.0036747506779016338 0.00045185966025299435 0.005767626527418285 0.9966087484300189 -0.029303894409393186 0.0029768459168155728 0.01195111175752983
0.050020842017509996 0.003235678315408896 0.013737941639546095 0.9962622261514148 -0.03354421263806104 0.0005683353762131345 0.006591679309308272 -0.000489285609170365 -0.004204634907271123
 0.9962622261514148 -0.03354421263806104 0.003239850710728369 0.013737542995812443 -0.0004892999843739733 -0.004204634205990821 0.0005418557699118637 0.006594818564153748
 0.0005683353762131345 0.006591679309308272 -0.0004892999843739733 -0.004204634205990821 0.003235721557845732 0.013738601649005448 0.9962622418635305 -0.03354354409789491
 -0.000489285609170365 -0.004204634907271123 0.0005418557699118637 0.006594818564153748 0.9962622418635305 -0.03354354409789491 0.0032398375044019306 0.013738212711070947
0.055454545454549996 0.003477192628569172 0.01530533838089097 0.995942312129771 -0.03724039043439164 0.0006597786283267721 0.0073102614063945024 -0.0005649301139270572 -0.004665759801336378
 0.995942312129771 -0.03724039043439164 0.003482318714532137 0.01530487260486625 -0.0005649477534285358 -0.00466575878883323 0.0006272259647738573 0.007314135600159254
 0.0006597786283267721 0.0073102614063945024 -0.0005649477534285358 -0.00466575878883323 0.003477245518482398 0.015306068749166107 0.9959423311928141 -0.03723964917217905
 -0.0005649301139270572 -0.004665759801336378 0.0006272259647738573 0.007314135600159254 0.9959423311928141 -0.03723964917217905 0.003482302075716737 0.015305614722682834
0.056273447269699996 0.0035147187063145017 0.015542698523049065 0.9958925701992279 -0.03779837697995342 0.0006741957475068035 0.007418580908612522 -0.0005768444070491142 -0.004735300720997705
 0.9958925701992279 -0.03779837697995342 0.0035199970130241395 0.015542222163119492 -0.0005768625670603963 -0.004735299656037464 0.0006406732041925281 0.0074225746690960055
 0.0006741957475068035 0.007418580908612522 -0.0005768625670603963 -0.004735299656037464 0.0035147731344955264 0.015543439466677463 0.9958925897960201 -0.037797624750573036
 -0.0005768444070491142 -0.004735300720997705 0.0006406732041925281 0.0074225746690960055 0.9958925897960201 -0.037797624750573036 0.0035199798205898516 0.015542975186298187
0.06252605252188 0.0038111064376515147 0.017364743710432083 0.9954994578638282 -0.0420669226750016 0.0007898003495874536 0.00824579367556352 -0.00067228781813716 -0.005266615372872714
 0.9954994578638282 -0.0420669226750016 0.0038176203434726495 0.017364182392505142 -0.0006723101977988036 -0.005266613856449867 0.0007484001364267756 0.008250780578402438
 0.0007898003495874536 0.00824579367556352 -0.0006723101977988036 -0.005266613856449867 0.0038111733338246534 0.017365565117913876 0.995499481784759 -0.0420660866604573
 -0.00067228781813716 -0.005266615372872714 0.0007484001364267756 0.008250780578402438 0.995499481784759 -0.0420660866604573 0.0038175986046686387 0.017365018598680816
0.06877865777407 0.0041251650290487045 0.019203724502246965 0.9950825788140251 -0.04634976048729611 0.000915237184754372 0.009073187206265128 -0.0007757059164573084 -0.005798445123449008
 0.9950825788140251 -0.04634976048729611 0.004133044261400234 0.01920307067090335 -0.0007757329483759314 -0.005798443059706154 0.0008651229857140366 0.009079317012665246
 0.000915237184754372 0.009073187206265128 -0.0007757329483759314 -0.005798443059706154 0.004125245672717911 0.019204625859436747 0.9950826075040807 -0.04634884057722267
 -0.0007757059164573084 -0.005798445123449008 0.0008651229857140366 0.009079317012665246 0.9950826075040807 -0.04634884057722267 0.004133017403153782 0.019203989918651874
0.07503126302626001 0.004457215857378583 0.021059306488759064 0.9946416231866626 -0.050646770844767965 0.0010505923071646107 0.009900626534183606 -0.0008871866591626208 -0.006330654686151261
 0.9946416231866626 -0.050646770844767965 0.004466590212725292 0.021058552272363303 -0.0008872187735560767 -0.00633065197112238 0.0009909263068500196 0.00990806025678781
 0.0010505923071646107 0.009900626534183606 -0.0008872187735560767 -0.00633065197112238 0.004457311524173395 0.021060287239143185 0.9946416570970263 -0.0506457669126863
 -0.0008871866591626208 -0.006330654686151261 0.0009909263068500196 0.00990806025678781 0.9946416570970263 -0.0506457669126863 0.004466557648967443 0.021059554405457398
0.08128386827845 0.00480757817356772 0.022931167381131788 0.9941762818793077 -0.05495780995395639 0.0011959497016657086 0.01072797252263552 -0.0010068158155937465 -0.0068631068667336925
 0.9941762818793077 -0.05495780995395639 0.004818577546116088 0.022930304588254853 -0.0010068534401472754 -0.0068631033883014055 0.0011258926851799992 0.010736882551538223
 0.0011959497016657086 0.01072797252263552 -0.0010068534401472754 -0.0068631033883014055 0.0048076901334925 0.022932226926403378 0.9941763214675212 -0.054956721856412954
 -0.0010068158155937465 -0.0068631068667336925 0.0011258926851799992 0.010736882551538223 0.9941763214675212 -0.054956721856412954 0.0048185386768483844 0.022931389436624396
0.08753647353064001 0.005176569073663323 0.024818992758651078 0.9936862468020536 -0.05928271400447285 0.001351391169127543 0.011555082142574556 -0.001134676889935107 -0.00739566232296631
 0.9936862468020536 -0.05928271400447285 0.005189323484280056 0.024818012873445375 -0.001134720449633148 -0.007395657960833382 0.0012701026348623241 0.011565652370104481
 0.001351391169127543 0.011555082142574556 -0.001134720449633148 -0.007395657960833382 0.0051766985904319295 0.02482013045451725 0.9936862925330047 -0.05928154158513811
 -0.001134676889935107 -0.00739566232296631 0.0012701026348623241 0.011565652370104481 0.9936862925330047 -0.05928154158513811 0.005189277695919146 0.024819180249255432
0.09378907878283 0.005564503441906351 0.026722473019090028 0.9931712111045389 -0.0636213021767862 0.0015169962156353779 0.012381808681329702 -0.001270851039789067 -0.007928179399086834
 0.9931712111045389 -0.0636213021767862 0.005579143066945789 0.02672136719565377 -0.0012709009568064697 -0.007928174024748595 0.0014236344988421655 0.012394234625273412
 0.0015169962156353779 0.012381808681329702 -0.0012709009568064697 -0.007928174024748595 0.00556465177195628 0.026723688181217748 0.9931712634507192 -0.06362004526025755
 -0.001270851039789067 -0.007928179399086834 0.0014236344988421655 0.012394234625273412 0.9931712634507192 -0.06362004526025755 0.005579089731704503 0.026722616899630406
0.100041684035 0.005971693872224201 0.028641301157521594 0.9926308693847554 -0.0679733788277908 0.001692841944153743 0.013208001900842448 -0.00141541699181866 -0.008460514016518384
 0.9926308693847554 -0.0679733788277908 0.00598834907251975 0.028640060213295872 -0.0014154736853037658 -0.008460507493240456 0.0015865643500908987 0.013222490826042125
 0.001692841944153743 0.013208001900842448 -0.0014154736853037658 -0.008460507493240456 0.0059718622636420506 0.028642593055271004 0.9926309288277068 -0.06797203722585574
 -0.00141541699181866 -0.008460514016518384 0.0015865643500908987 0.013222490826042125 0.9926309288277068 -0.06797203722585574 0.005988287548695583 0.028641392028641154
0.1059090909091 0.0063715884446505265 0.030455603912206704 0.9921005298378515 -0.07206942294535681 0.0018672347786058065 0.013982674748695195 -0.0015587769756125738 -0.008959757115194344
 0.9921005298378515 -0.07206942294535681 0.006390253800151274 0.030454227513279496 -0.001558840406526985 -0.008959749382050259 0.0017480697884690365 0.01399929863737472
 0.0018672347786058065 0.013982674748695195 -0.001558840406526985 -0.008959749382050259 0.006371776787990248 0.030456967114892798 0.9921005963860288 -0.07206800168992013
 -0.0015587769756125738 -0.008959757115194344 0.0017480697884690365 0.01399929863737472 0.9921005963860288 -0.07206800168992013 0.006390183995142389 0.030455636171435877
0.1062942892872 0.006398450574181371 0.03057517109105015 0.9920649178868038 -0.07233873513745294 0.0018790029493596758 0.014033508166505731 -0.0015684509539975716 -0.008992519600002278
 0.9920649178868038 -0.07233873513745294 0.006417251924157294 0.03057378549902352 -0.0015685148399677375 -0.008992511782802103 0.0017589658943533359 0.014050279204486775
 0.0018790029493596758 0.014033508166505731 -0.0015685148399677375 -0.008992511782802103 0.006398640265360516 0.030576538950003555 0.9920649849167789 -0.0723373086463764
 -0.0015684509539975716 -0.008992519600002278 0.0017589658943533359 0.014050279204486775 0.9920649849167789 -0.0723373086463764 0.006417181555076774 0.03057519919429095
0.11254689453939999 0.006845081265923798 0.032523776382451554 0.9914730546881271 -0.07671715036339564 0.002075551212363188 0.014858170557113382 -0.0017300265274553012 -0.009524047028633985
 0.9914730546881271 -0.07671715036339564 0.006866159582832994 0.0325222362622839 -0.0017300980185939827 -0.009524037764264269 0.001940910372500871 0.014877454823753388
 0.002075551212363188 0.014858170557113382 -0.0017300980185939827 -0.009524037764264269 0.006845293484554963 0.03252521938441936 0.9914731298052017 -0.07671563876399078
 -0.0017300265274553012 -0.009524047028633985 0.001940910372500871 0.014877454823753388 0.9914731298052017 -0.07671563876399078 0.006866079696998978 0.03252373159165968
0.11879949979160001 0.007311891059077468 0.03448680925371983 0.9908549798821579 -0.08110839281285467 0.0022825559978995624 0.015681828957150663 -0.0019002146157106902 -0.010054944610820689
 0.9908549798821579 -0.08110839281285467 0.0073353774321068006 0.03448510436183426 -0.0019002941211755853 -0.010054933737764707 0.0021324664643364473 0.01570386966802781
 0.0022825559978995624 0.015681828957150663 -0.0019002941211755853 -0.010054933737764707 0.007312127020752576 0.03448832653493711 0.9908550635968054 -0.08110679587225673
 -0.0019002146157106902 -0.010054944610820689 0.0021324664643364473 0.01570386966802781 0.9908550635968054 -0.08110679587225673 0.00733528734292445 0.03448668106347995
0.1250521050438 0.007799182334331586 0.03646395980233035 0.9902103957546836 -0.08551222061927369 0.0025000837516136686 0.016504320143125247 -0.002079083333651309 -0.01058505807139949
 0.9902103957546836 -0.08551222061927369 0.007825208154583064 0.03646207952071729 -0.0020791712589150503 -0.010585045419876732 0.0023337001919670284 0.016529372726579485
 0.0025000837516136686 0.016504320143125247 -0.0020791712589150503 -0.010585045419876732 0.00779944324184188 0.03646555045652577 0.9902104885885166 -0.08551053808802242
 -0.002079083333651309 -0.01058505807139949 0.0023337001919670284 0.016529372726579485 0.9902104885885166 -0.08551053808802242 0.007825107159932202 0.0364637373201099
0.131304710296 0.008307254612919533 0.038454915386458156 0.9895390069587724 -0.08992838235766763 0.0027281979987482797 0.017325477860799406 -0.002266697915119139 -0.011114230554342642
 0.9895390069587724 -0.08992838235766763 0.00833595160272183 0.03845284871028086 -0.002266794661812013 -0.011114215946283826 0.0025446748243787573 0.01735381006845813
 0.0027281979987482797 0.017325477860799406 -0.002266794661812013 -0.011114215946283826 0.008307541654369761 0.038456578460233204 0.9895391094447663 -0.08992661397438356
 -0.002266697915119139 -0.011114230554342642 0.0025446748243787573 0.01735381006845813 0.9895391094447663 -0.08992661397438356 0.008335838984628722 0.03845458731581141
0.1375573155481 0.008721104389895401 0.0402007742129406 0.9889558644040292 -0.09409792497707788 0.00293935153579222 0.018119847777632637 -0.002435730284154157 -0.011616875533931242
 0.9889558644040292 -0.09409792497707788 0.008752613552292812 0.04019855192043047 -0.0024358362529013694 -0.011616858942434985 0.002738271153886548 0.018151424732128104
 0.00293935153579222 0.018119847777632637 -0.0024358362529013694 -0.011616858942434985 0.008721417896007524 0.0402025092905712 0.9889559769880861 -0.09409607059552709
 -0.002435730284154157 -0.011616875533931242 0.002738271153886548 0.018151424732128104 0.9889559769880861 -0.09409607059552709 0.008752489605974419 0.0402003706957017
0.1438099208003 0.009149560871175034 0.041937199785447556 0.9883521086633568 -0.09825663436537807 0.0031590464903301003 0.018910678387578386 -0.002611506451231746 -0.012116374371121189
 0.9883521086633568 -0.09825663436537807 0.009184015755448768 0.04193481316565161 -0.002611622038142818 -0.01211635562594949 0.0029396402398706497 0.0189457455358043
 0.0031590464903301003 0.018910678387578386 -0.002611622038142818 -0.01211635562594949 0.009149901854422784 0.041939005930000946 0.9883522318772744 -0.09825469373115793
 -0.002611506451231746 -0.012116374371121189 0.0029396402398706497 0.0189457455358043 0.9883522318772744 -0.09825469373115793 0.00918387992446219 0.04193671175484366
0.1500625260525 0.009592469014563176 0.04366403949181589 0.9877278988759267 -0.10240439906948606 0.0033872050062651667 0.019697878343426223 -0.002793952805706252 -0.01261264489521473
 0.9877278988759267 -0.10240439906948606 0.009630003529173932 0.04366147929475282 -0.0027940784032338623 -0.012612623819762886 0.0031487089241486288 0.019736690110759
 0.0033872050062651667 0.019697878343426223 -0.0027940784032338623 -0.012612623819762886 0.009592838463478474 0.04366591573275669 0.9877280332612768 -0.10240237191776638
 -0.002793952805706252 -0.01261264489521473 0.0031487089241486288 0.019736690110759 0.9877280332612768 -0.10240237191776638 0.009629855253996239 0.043663457327595474
0.15631513130469998 0.010049672633638885 0.04538114531072983 0.9870833950335752 -0.10654110820227267 0.003623748269598255 0.020481357884291986 -0.002982994805162804 -0.013105606713545829
 0.9870833950335752 -0.10654110820227267 0.010090421056162225 0.04537840173195344 -0.0029831308020360774 -0.013105583124991731 0.0033654031631450416 0.020524177580318267
