! Created with skrf 1.8.0 (http://scikit-rf.org).
# GHz S RI R 50.0 
!freq ReS11 ImS11 ReS12 ImS12 ReS13 ImS13
! ReS14 ImS14
! ReS21 ImS21 ReS22 ImS22 ReS23 ImS23
! ReS24 ImS24
! ReS31 ImS31 ReS32 ImS32 ReS33 ImS33
! ReS34 ImS34
! ReS41 ImS41 ReS42 ImS42 ReS43 ImS43
! ReS44 ImS44
!
0.0 0.00154495089706 0.0 0.9984550491029 0.0 5.921392518874e-05 0.0 -5.921392509959e-05 7.2516143838164e-21
 0.9984550491029 0.0 0.001544950897045 0.0 -5.921392509947e-05 7.251614383801705e-21 5.921392518809e-05 0.0
 5.921392518874e-05 0.0 -5.921392509947e-05 7.251614383801705e-21 0.001544950884264 0.0 0.9984550490902 0.0
 -5.921392509959e-05 7.2516143838164e-21 5.921392518809e-05 0.0 0.9984550490902 0.0 0.001544950884262 0.0
0.005 0.0016621530040710642 0.001270973933383338 0.9983067979102451 -0.0032358888592559833 8.18840761312197e-05 0.0006096356111713857 -7.977079793940143e-05 -0.000390135656219498
 0.9983067979102451 -0.0032358888592559833 0.0016621733527872424 0.0012709620168721324 -7.977053472495772e-05 -0.00039013539680883173 8.176595020225202e-05 0.0006096806491240885
 8.18840761312197e-05 0.0006096356111713857 -7.977053472495772e-05 -0.00039013539680883173 0.0016621538005705907 0.0012710406859258578 0.9983067982627093 -0.0032358217995374526
 -7.977079793940143e-05 -0.000390135656219498 8.176595020225202e-05 0.0006096806491240885 0.9983067982627093 -0.0032358217995374526 0.0016621732612414199 0.001271029385485682
0.006252605252188 0.001692887626298615 0.0015936843596940043 0.9982676786001193 -0.004045649402956105 8.835698154157726e-05 0.0007623597871684514 -8.556335448386638e-05 -0.00048816416312240894
 0.9982676786001193 -0.004045649402956105 0.0016929194349934317 0.001593669201170839 -8.556294534738058e-05 -0.0004881638420475413 8.817242132861147e-05 0.0007624182574050305
 8.835698154157726e-05 0.0007623597871684514 -8.556294534738058e-05 -0.0004881638420475413 0.0016928888040957171 0.0015937677922780629 0.9982676790834203 -0.004045565580879372
 -8.556335448386638e-05 -0.00048816416312240894 8.817242132861147e-05 0.0007624182574050305 0.9982676790834203 -0.004045565580879372 0.0016929192237471506 0.0015937534160894238
0.01250521050438 0.0018546584490456112 0.003220492870390217 0.9980604306012483 -0.00809206255551615 0.00012545726538704433 0.0015252036515113435 -0.00011836810431251589 -0.0009786548585654573
 0.9980604306012483 -0.00809206255551615 0.0018547854638186008 0.003220459878640303 -0.00011836649743106835 -0.000978654250766488 0.00012472129875515327 0.001525344046377791
 0.00012545726538704433 0.0015252036515113435 -0.00011836649743106835 -0.000978654250766488 0.00185466259927551 0.003220659420453464 0.9980604319706637 -0.00809189516965688
 -0.00011836810431251589 -0.0009786548585654573 0.00012472129875515327 0.001525344046377791 0.9980604319706637 -0.00809189516965688 0.0018547840527279053 0.003220628126627725
0.01875781575657 0.0020306166100583787 0.004870266968234486 0.9978330473848674 -0.012149079511898626 0.0001706010912245508 0.0022889913272867808 -0.00015772791268126236 -0.0014708247309247915
 0.9978330473848674 -0.012149079511898626 0.0020309020231196453 0.004870213224255956 -0.00015772433695454132 -0.0014708238755683123 0.00016894786045823924 0.0022892417180359367
 0.0001706010912245508 0.0022889913272867808 -0.00015772433695454132 -0.0014708238755683123 0.002030625527028722 0.004870516460016037 0.9978330500380663 -0.012148828674600922
 -0.00015772791268126236 -0.0014708247309247915 0.00016894786045823924 0.0022892417180359367 0.9978330500380663 -0.012148828674600922 0.002030898413861516 0.0048704654949421125
0.02501042100875 0.0022211049046076143 0.006540713055367316 0.9975852609818945 -0.01621866476789848 0.00022387611264588342 0.00305374050487516 -0.00020373955353728026 -0.0019644630662783227
 0.9975852609818945 -0.01621866476789848 0.0022216117832779456 0.006540635416192136 -0.00020373324959452264 -0.0019644620082802573 0.00022093964215825996 0.00305413341704871
 0.00022387611264588342 0.00305374050487516 -0.00020373324959452264 -0.0019644620082802573 0.0022211203885503217 0.0065410453482431475 0.9975852653157816 -0.016218330550025903
 -0.00020373955353728026 -0.0019644630662783227 0.00022093964215825996 0.00305413341704871 0.9975852653157816 -0.016218330550025903 0.0022216049716882653 0.006540971765648877
0.03126302626094 0.0024264519839927302 0.008230650708047764 0.9973167897280573 -0.020301659028726087 0.0002853703975911852 0.00381940381702806 -0.0002564972279915985 -0.0024594187283673553
 0.9973167897280573 -0.020301659028726087 0.0024272433031422656 0.008230545810110693 -0.00025648744616662064 -0.002459417518443887 0.00028078425071130915 0.003819976255452765
 0.0002853703975911852 0.00381940381702806 -0.00025648744616662064 -0.002459417518443887 0.0024264758412693628 0.008231065658517087 0.997316796138923 -0.0203012414973297
 -0.0002564972279915985 -0.0024594187283673553 0.00028078425071130915 0.003819976255452765 0.997316796138923 -0.0203012414973297 0.0024272322791382443 0.008230966323291712
0.037515631513130004 0.0026469794224978256 0.009939310164822088 0.9970273455485922 -0.024398481658304987 0.00035517158049018315 0.0045859079899624984 -0.00031609316933736047 -0.002955561000972509
 0.9970273455485922 -0.024398481658304987 0.0026481180857328692 0.009939174425351685 -0.000316079168651108 -0.0029555596956291927 0.00034856870482792286 0.004586701483203307
 0.00035517158049018315 0.0045859079899624984 -0.000316079168651108 -0.0029555596956291927 0.002647013465431139 0.00993980762616095 0.9970273544316987 -0.024397980876640937
 -0.00031609316933736047 -0.002955561000972509 0.00034856870482792286 0.004586701483203307 0.9970273544316987 -0.024397980876640937 0.0026481018327551456 0.009939679216165646
0.043768236765320004 0.002883004444938195 0.011666118539197462 0.9967166369080247 -0.028509344394263496 0.000433366459007306 0.005353165746402025 -0.0003826178563754728 -0.003452767683586555
 0.9967166369080247 -0.028509344394263496 0.0028845533012413754 0.011665948156772132 -0.0003825989038465615 -0.003452766345071279 0.0004243791124712777 0.0053542263972469716
 0.000433366459007306 0.005353165746402025 -0.0003825989038465615 -0.003452766345071279 0.0028830504913397656 0.011666698361875378 0.9967166486564673 -0.02850876042097199
 -0.0003826178563754728 -0.003452767683586555 0.0004243791124712777 0.0053542263972469716 0.9967166486564673 -0.02850876042097199 0.0028845307960382975 0.011666537369031307
0.050020842017509996 0.0031348411911736322 0.013410611481278107 0.9963843702996716 -0.032634339611794114 0.0005200407474590886 0.006121080734891557 -0.0004561600873772435 -0.003950920164048344
 0.9963843702996716 -0.032634339611794114 0.003136863048581931 0.01341040243589745 -0.0004561354575709063 -0.003950918860315787 0.0005083004668155868 0.006122459273360044
 0.0005200407474590886 0.006121080734891557 -0.0004561354575709063 -0.003950918860315787 0.0031349010654451387 0.013411273506606706 0.9963843853061078 -0.03263367250691461
 -0.0004561600873772435 -0.003950920164048344 0.0005083004668155868 0.006122459273360044 0.9963843853061078 -0.03263367250691461 0.0031368332625043493 0.013411076237423795
0.055454545454549996 0.0033667781514382517 0.014940679549533846 0.9960778840629888 -0.03623057685562032 0.0006023152766026256 0.006788876010285363 -0.0005258373260222739 -0.004384506668180541
 0.9960778840629888 -0.03623057685562032 0.003369262046601409 0.014940433470057012 -0.0005258071789458592 -0.004384505454245569 0.000587882811150692 0.006790575636169347
 0.0006023152766026256 0.006788876010285363 -0.0005258071789458592 -0.004384505454245569 0.0033668515281755906 0.014941412879707643 0.9960779022177002 -0.0362298375521848
 -0.0005258373260222739 -0.004384506668180541 0.000587882811150692 0.006790575636169347 0.9960779022177002 -0.0362298375521848 0.003369225092823913 0.014941180941835261
0.056273447269699996 0.003402801369141864 0.015172389795598928 0.9960302511297779 -0.03677348363250595 0.0006152789040319078 0.006889549934019928 -0.0005368069867707497 -0.004449901019768519
 0.9960302511297779 -0.03677348363250595 0.0034053590074499844 0.015172137848233623 -0.0005367759614540535 -0.004449899824417364 0.000600416499421222 0.0068913017714915285
 0.0006152789040319078 0.006889549934019928 -0.0005367759614540535 -0.004449899824417364 0.003402876900987932 0.01517313386189533 0.9960302697846789 -0.036772733450920345
 -0.0005368069867707497 -0.004449901019768519 0.000600416499421222 0.0068913017714915285 0.9960302697846789 -0.036772733450920345 0.0034053209055403427 0.01517289643760479
0.06252605252188 0.003687194599109769 0.01695109561709205 0.9956539842957115 -0.04092674047751496 0.0007191639899864727 0.0076584649854119086 -0.0006246439824894452 -0.004949592693891083
 0.9956539842957115 -0.04092674047751496 0.0036903507815668765 0.016950796308993994 -0.0006246058503860101 -0.004949591686119489 0.0007008095564681349 0.007660650269211925
 0.0007191639899864727 0.0076584649854119086 -0.0006246058503860101 -0.004949591686119489 0.003687287625155549 0.016951921546988324 0.9956540069888674 -0.04092590728121918
 -0.0006246439824894452 -0.004949592693891083 0.0007008095564681349 0.007660650269211925 0.9956540069888674 -0.04092590728121918 0.0036903033243850234 0.016951639903305813
0.06877865777407 0.003988328599116832 0.018746398181074955 0.9952552746098091 -0.045094036030273274 0.0008317775496919154 0.008427712987695044 -0.0007197547632986871 -0.005449876714498401
 0.9952552746098091 -0.045094036030273274 0.003992146083962088 0.01874604683258926 -0.0007197088198673236 -0.005449875979055565 0.0008095604908461776 0.008430396655763124
 0.0008317775496919154 0.008427712987695044 -0.0007197088198673236 -0.005449875979055565 0.0039884409618241535 0.018747305787713053 0.995255301729425 -0.0450931198817862
 -0.0007197547632986871 -0.005449876714498401 0.0008095604908461776 0.008430396655763124 0.995255301729425 -0.0450931198817862 0.003992088226961701 0.01874697567423622
0.07503126302626001 0.004306509267562078 0.020557984815777513 0.9948338271240962 -0.04927526698086266 0.000953199501763619 0.009197177003493723 -0.0008222212248807944 -0.005950633205014526
 0.9948338271240962 -0.04927526698086266 0.004311050818702521 0.020557576524913062 -0.0008221667721413124 -0.005950632832144948 0.0009267485623088945 0.009200428838891302
 0.000953199501763619 0.009197177003493723 -0.0008221667721413124 -0.005950632832144948 0.004306642815761824 0.020558973905575248 0.994833859057546 -0.049274267940128395
 -0.0008222212248807944 -0.005950633205014526 0.0009267485623088945 0.009200428838891302 0.994833859057546 -0.049274267940128395 0.004310981513214045 0.020558590884861845
0.08128386827845 0.004642040707534025 0.022385554949370876 0.9943893474012648 -0.05347030676051972 0.0010835080377626161 0.009966736403182484 -0.0009321234079388643 -0.0064517405622343225
 0.9943893474012648 -0.05347030676051972 0.004647369105375021 0.02238508458997191 -0.0009320597543241887 -0.00645174064763666 0.001052451342999002 0.009970631088279525
 0.0010835080377626161 0.009966736403182484 -0.0009320597543241887 -0.00645174064763666 0.004642197295867055 0.022386625313128655 0.9943893845339887 -0.05346922489331775
 -0.0009321234079388643 -0.0064517405622343225 0.001052451342999002 0.009970631088279525 0.9943893845339887 -0.05346922489331775 0.004647287298592102 0.022386184759296466
0.08753647353064001 0.004995225208365732 0.024228815961620093 0.9939215417456693 -0.0576790096364115 0.0012227795246774486 0.010736267106967696 -0.0010495394314321397 -0.006953075240599633
 0.9939215417456693 -0.0576790096364115 0.0050014032609763314 0.02422827818112117 -0.0010494658916876164 -0.006953075885376464 0.0011867446260869026 0.010740884277157657
 0.0012227795246774486 0.010736267106967696 -0.0010494658916876164 -0.006953075885376464 0.004995406697480075 0.024229967379321357 0.9939215844619748 -0.057677845009224696
 -0.0010495394314321397 -0.006953075240599633 0.0011867446260869026 0.010740884277157657 0.9939215844619748 -0.057677845009224696 0.005001307896267748 0.0242294644764144
0.09378907878283 0.0053663632001399566 0.026087480220880956 0.993430117411342 -0.06190121362641059 0.0013710884112554163 0.01150564176091244 -0.0011745454217135663 -0.007454511607251336
 0.993430117411342 -0.06190121362641059 0.005373453753185594 0.02608686943776198 -0.0011744613167306412 -0.007454512917863525 0.0013297023362671796 0.011511066057779573
 0.0013710884112554163 0.01150564176091244 -0.0011744613167306412 -0.007454512917863525 0.005366571456473234 0.02608871245915125 0.9934301660938616 -0.06189996630850188
 -0.0011745454217135663 -0.007454511607251336 0.0013297023362671796 0.011511066057779573 0.9934301660938616 -0.06189996630850188 0.005373343770951866 0.026088142199042458
0.100041684035 0.005755753186748542 0.027961262919118518 0.9929147827924146 -0.06613674262126672 0.0015285071358083747 0.012274729876362083 -0.0013072154387212185 -0.007955921838494799
 0.9929147827924146 -0.06613674262126672 0.005763819134700921 0.02796057331990413 -0.0013071200954876251 -0.007955923926713218 0.001481396442175243 0.012281051000174754
 0.0015285071358083747 0.012274729876362083 -0.0013071200954876251 -0.007955923926713218 0.005755990082627982 0.02796257573059734 0.9929148378226375 -0.06613541268493603
 -0.0013072154387212185 -0.007955921838494799 0.001481396442175243 0.012281051000174754 0.9929148378226375 -0.06613541268493603 0.005763693472565385 0.027961932910518166
0.1059090909091 0.006138018522615089 0.029733106636713982 0.9924091911689021 -0.07012328842032849 0.0016845758934370327 0.012996058004373064 -0.0014387466187495053 -0.00842630254236071
 0.9924091911689021 -0.07012328842032849 0.006147057029733 0.029732337580081637 -0.0014386401228424185 -0.008426305466630032 0.001631753243047059 0.013003306838261055
 0.0016845758934370327 0.012996058004373064 -0.0014386401228424185 -0.008426305466630032 0.006138284001290097 0.029734494821419558 0.9924092525008723 -0.07012188102223138
 -0.0014387466187495053 -0.00842630254236071 0.001631753243047059 0.013003306838261055 0.9924092525008723 -0.07012188102223138 0.006146915685104408 0.02973377900373659
0.1062942892872 0.006163691665388616 0.029849880432529587 0.9923752476029705 -0.07038540798706847 0.0016951060356581366 0.013043397939813782 -0.0014476214002685094 -0.00845717585083385
 0.9923752476029705 -0.07038540798706847 0.006172795962082137 0.02984910596840683 -0.001447514151766552 -0.008457178833697399 0.0016418968691187799 0.013050710701270375
 0.0016951060356581366 0.013043397939813782 -0.001447514151766552 -0.008457178833697399 0.006163959078642085 0.029851273557488907 0.9923753093605275 -0.07038399550562151
 -0.0014476214002685094 -0.00845717585083385 0.0016418968691187799 0.013050710701270375 0.9923753093605275 -0.07038399550562151 0.006172653555098402 0.02985055277715317
0.11254689453939999 0.0065904730328453665 0.03175304908627455 0.9918112230465851 -0.07464700976935411 0.001870953257565624 0.01381150950267325 -0.0015958330044905484 -0.00895814125704804
 0.9918112230465851 -0.07464700976935411 0.00660067870202523 0.031752183469391765 -0.0015957131895933318 -0.00895814525683024 0.0018112714126526997 0.01381991387395173
 0.001870953257565624 0.01381150950267325 -0.0015957131895933318 -0.00895814525683024 0.006590772846681845 0.031754522250705124 0.9918112919093139 -0.0746455148185609
 -0.0015958330044905484 -0.00895814125704804 0.0018112714126526997 0.01381991387395173 0.9918112919093139 -0.0746455148185609 0.0066005184832673485 0.031753717909005746
0.11879949979160001 0.007036389483809048 0.03367048417708371 0.9912224219817426 -0.07892133764573743 0.002056114669035869 0.014578925260867032 -0.0017519176506934284 -0.009458683337813297
 0.9912224219817426 -0.07892133764573743 0.007047759630080887 0.03366952087624935 -0.0017517846141199122 -0.009458688481963934 0.0019895856530085256 0.014588526425676724
 0.002056114669035869 0.014578925260867032 -0.0017517846141199122 -0.009458688481963934 0.007036723586865635 0.033672037092917106 0.9912224983261803 -0.07891976030325462
 -0.0017519176506934284 -0.009458683337813297 0.0019895856530085256 0.014588526425676724 0.9912224983261803 -0.07891976030325462 0.007047580531104517 0.03367114338420186
0.1250521050438 0.007501730901810738 0.03560189921808775 0.9906085590825155 -0.08320817166245606 0.002250653769962015 0.015345503124610601 -0.0019159403596295773 -0.00995866502827836
 0.9906085590825155 -0.08320817166245606 0.007514328721315329 0.035600831454163824 -0.001915793451878494 -0.009958671449394649 0.0021769028692124486 0.015356411527397078
 0.002250653769962015 0.015345503124610601 -0.001915793451878494 -0.009958671449394649 0.007502101187828177 0.03560353158225505 0.9906086432831143 -0.08320651200828386
 -0.0019159403596295773 -0.00995866502827836 0.0021769028692124486 0.015356411527397078 0.9906086432831143 -0.08320651200828386 0.007514129672428792 0.0356025424921421
0.131304710296 0.007986784744159486 0.037547005324303516 0.9899693509956858 -0.08750728283687886 0.002454631604792291 0.016111098282903944 -0.002087963692838213 -0.010457946915337435
 0.9899693509956858 -0.08750728283687886 0.00800067353535125 0.03754582606515983 -0.002087802270033458 -0.010457954751128267 0.0023732839538475785 0.016123429677036415
 0.002454631604792291 0.016111098282903944 -0.002087802270033458 -0.010457954751128267 0.007987193111718333 0.03754871681771656 0.9899694434249975 -0.08750554095404343
 -0.002087963692838213 -0.010457946915337435 0.0023732839538475785 0.016123429677036415 0.9899694434249975 -0.08750554095404343 0.008000453466137925 0.037547626118485146
0.1375573155481 0.008380547128519987 0.03925389807981861 0.989415847363243 -0.09156671644002291 0.0026425834172870122 0.016851033523350455 -0.002242619725802174 -0.010931801492587137
 0.989415847363243 -0.09156671644002291 0.008395794099306313 0.039252624677528734 -0.0022424426654846794 -0.010931810748735424 0.0025534489944834104 0.01686477114202147
 0.0026425834172870122 0.016851033523350455 -0.0022424426654846794 -0.010931810748735424 0.008380994608207452 0.039255688788935 0.9894159483884991 -0.09156489243028373
 -0.002242619725802174 -0.010931801492587137 0.0025534489944834104 0.01686477114202147 0.9894159483884991 -0.09156489243028373 0.008395552824775995 0.03925451387897144
0.1438099208003 0.008788187564012532 0.04095185489454176 0.9888428494026268 -0.09561587166449588 0.002838120444774568 0.01758784151004539 -0.002403443371824001 -0.011402816825194213
 0.9888428494026268 -0.09561587166449588 0.008804856722418227 0.04095048180898713 -0.002403249952365981 -0.01140282764150276 0.0027408575703298126 0.017603091389296405
 0.002838120444774568 0.01758784151004539 -0.002403249952365981 -0.01140282764150276 0.008788675906209385 0.04095372454689884 0.9888429593921142 -0.09561396561894954
 -0.002403443371824001 -0.011402816825194213 0.0027408575703298126 0.017603091389296405 0.9888429593921142 -0.09561396561894954 0.008804593332291012 0.04095246063108888
0.1500625260525 0.009209562817368686 0.04264073442156147 0.9882505043473092 -0.09965464785092537 0.0030411747684369133 0.018321443340084294 -0.002570369345642313 -0.011870919944347795
 0.9882505043473092 -0.09965464785092537 0.009227718286581905 0.04263925581233099 -0.002570158845245486 -0.011870932466518182 0.002935443755510335 0.018338315401263235
 0.0030411747684369133 0.018321443340084294 -0.002570158845245486 -0.011870932466518182 0.009210093767431508 0.042642682734601645 0.9882506236666984 -0.09965265986485235
 -0.002570369345642313 -0.011870919944347795 0.002935443755510335 0.018338315401263235 0.9882506236666984 -0.09965265986485235 0.009227431880621991 0.04264132474515646
0.15631513130469998 0.00964452864884073 0.044320399571218194 0.9876389601647747 -0.10368294470044132 0.003251677662393441 0.019051761461217794 -0.0027433315601393215 -0.012336039423287282
 0.9876389601647747 -0.10368294470044132 0.009664234670743177 0.04431880929211058 -0.002743103256745593 -0.012336053802895987 0.003137140847110775 0.019070369471690093
