! Created with skrf 1.8.0 (http://scikit-rf.org).
# GHz S RI R 50.0 
!freq ReS11 ImS11 ReS12 ImS12 ReS13 ImS13
! ReS14 ImS14
! ReS21 ImS21 ReS22 ImS22 ReS23 ImS23
! ReS24 ImS24
! ReS31 ImS31 ReS32 ImS32 ReS33 ImS33
! ReS34 ImS34
! ReS41 ImS41 ReS42 ImS42 ReS43 ImS43
! ReS44 ImS44
!
0.0 0.001537009614062 0.0 0.9984629903859 0.0 5.922831846218e-05 0.0 -5.922831828435e-05 7.253377040580989e-21
 0.9984629903859 0.0 0.00153700961405 0.0 -5.922831828401e-05 7.25337704053935e-21 5.922831846144e-05 0.0
 5.922831846218e-05 0.0 -5.922831828401e-05 7.25337704053935e-21 0.001537009611208 0.0 0.9984629903831 0.0
 -5.922831828435e-05 7.253377040580989e-21 5.922831846144e-05 0.0 0.9984629903831 0.0 0.001537009611213 0.0
0.005 0.001653659417591543 0.0012582575724934114 0.9983154160516471 -0.0032196352209239777 8.285964697785569e-05 0.0006473231409297764 -8.048184825404141e-05 -0.0004072422710650963
 0.9983154160516471 -0.0032196352209239777 0.0016536783511801373 0.0012582464700096677 -8.04814115081881e-05 -0.0004072418782797365 8.274827175523034e-05 0.0006473655727516799
 8.285964697785569e-05 0.0006473231409297764 -8.04814115081881e-05 -0.0004072418782797365 0.0016536602875051253 0.0012583242754726233 0.9983154164065096 -0.0032195681637806296
 -8.048184825404141e-05 -0.0004072422710650963 8.274827175523034e-05 0.0006473655727516799 0.9983154164065096 -0.0032195681637806296 0.001653678183753249 0.0012583138743583685
0.006252605252188 0.0016842446020144096 0.001577768567218655 0.9982764783076333 -0.004025331956512554 8.961244014079001e-05 0.0008094699385325006 -8.64768750517795e-05 -0.0005095784300835203
 0.9982764783076333 -0.004025331956512554 0.0016842741989792113 0.0015777544561551564 -8.647619588507082e-05 -0.0005095779445550309 8.943842678777818e-05 0.0008095250297489646
 8.961244014079001e-05 0.0008094699385325006 -8.647619588507082e-05 -0.0005095779445550309 0.001684245898884952 0.0015778519271997895 0.9982764787991847 -0.004025248144475727
 -8.64768750517795e-05 -0.0005095784300835203 8.943842678777818e-05 0.0008095250297489646 0.9982764787991847 -0.004025248144475727 0.0016842738735086912 0.0015778387048165522
0.01250521050438 0.0018452021936144936 0.0031885655479747975 0.9980702092035743 -0.008051467293837971 0.0001283452255333688 0.0016193106954890532 -0.00012046156547095534 -0.001021625585039079
 0.9980702092035743 -0.008051467293837971 0.0018453203806882738 0.0031885349666897944 -0.00012045889444869087 -0.0010216246731893392 0.0001276513026805414 0.0016194430089813401
 0.0001283452255333688 0.0016193106954890532 -0.00012045889444869087 -0.0010216246731893392 0.0018452067924835836 0.003188731927082658 0.9980702105824214 -0.008051299889062417
 -0.00012046156547095534 -0.001021625585039079 0.0001276513026805414 0.0016194430089813401 0.9980702105824214 -0.008051299889062417 0.0018453184866827205 0.0031887032541787048
0.01875781575657 0.002020233278035238 0.004822274634612204 0.9978439271081249 -0.01208820447013902 0.00017551589534505166 0.0024300568112559174 -0.00016128665281876797 -0.0015354119655659434
 0.9978439271081249 -0.01208820447013902 0.002020498861925583 0.00482222502973595 -0.00016128070400099923 -0.0015354106960931363 0.00017395707608379018 0.0024302928067379283
 0.00017551589534505166 0.0024300568112559174 -0.00016128070400099923 -0.0015354106960931363 0.002020243197595538 0.004822523772963462 0.9978439297856504 -0.01208795353714656
 -0.00016128665281876797 -0.0015354119655659434 0.00017395707608379018 0.0024302928067379283 0.9978439297856504 -0.01208795353714656 0.002020494162694957 0.004822477262395172
0.02501042100875 0.0022096783936363497 0.006476611639705449 0.9975973659583349 -0.016137499291667093 0.0002312152313612922 0.0032417388758993484 -0.0002090530856396459 -0.0020507064031766256
 0.9975973659583349 -0.016137499291667093 0.002210150070128867 0.006476540283290417 -0.00020904259093982886 -0.002050704855711824 0.00022844639628538367 0.0032421091903474288
 0.0002312152313612922 0.0032417388758993484 -0.00020904259093982886 -0.002050704855711824 0.002209695650470917 0.006476943249758338 0.9975973703454104 -0.016137164849093638
 -0.0002090530856396459 -0.0020507064031766256 0.00022844639628538367 0.0032421091903474288 0.9975973703454104 -0.016137164849093638 0.002210141316412168 0.0064768763740952005
0.03126302626094 0.0024138639922322283 0.008150400877280672 0.9973302460844131 -0.020200188508102828 0.0002955345500754495 0.004054313540014463 -0.00026385900691669185 -0.002567345979754323
 0.9973302460844131 -0.020200188508102828 0.0024146003771239916 0.008150304870350586 -0.00026384271298000574 -0.0025673442450033983 0.00029121012343847475 0.004054853011782718
 0.0002955345500754495 0.004054313540014463 -0.00026384271298000574 -0.0025673442450033983 0.002413890599810871 0.008150814629522475 0.997330252591705 -0.020199770542689337
 -0.00026385900691669185 -0.002567345979754323 0.00029121012343847475 0.004054853011782718 0.997330252591705 -0.020199770542689337 0.0024145863059986832 0.00815072472477854
0.037515631513130004 0.0026331094652636694 0.009842875611627817 0.9970422814532723 -0.024276689302752674 0.000368564770012514 0.00486770817305826 -0.0003258004440630479 -0.0030851913641583325
 0.9970422814532723 -0.024276689302752674 0.002634169115288962 0.009842751885684887 -0.0003257771107847248 -0.003085189543898735 0.0003623385730849489 0.004868455884201245
 0.000368564770012514 0.00486770817305826 -0.0003257771107847248 -0.003085189543898735 0.0026331474374342843 0.009843371139277145 0.9970422904957255 -0.0242761877640552
 -0.0003258004440630479 -0.0030851913641583325 0.0003623385730849489 0.004868455884201245 0.9970422904957255 -0.0242761877640552 0.002634148452639393 0.009843255407040244
0.043768236765320004 0.002867729859269437 0.011553465180699676 0.9967331826065023 -0.02836721209858784 0.0004503959667278011 0.005681834460169146 -0.00039497156101814387 -0.0036041132148789384
 0.9967331826065023 -0.02836721209858784 0.002869171288482748 0.01155331049842547 -0.000394939960493258 -0.0036041114219275993 0.00044192114716562323 0.005682833784437522
 0.0004503959667278011 0.005681834460169146 -0.000394939960493258 -0.0036041114219275993 0.00286778120853003 0.011554042058389601 0.9967331946031418 -0.02836662691983435
 -0.00039497156101814387 -0.0036041132148789384 0.00044192114716562323 0.005682833784437522 0.9967331946031418 -0.02836662691983435 0.0028691427478338095 0.01155389756696045
0.050020842017509996 0.0031180371343648722 0.013281707002237454 0.9964026581439435 -0.03247184847948763 0.0005411171099950655 0.006496594012101818 -0.0004714647443869366 -0.004123986572765145
 0.9964026581439435 -0.03247184847948763 0.0031199188277448273 0.01328151795770088 -0.00047142366023583037 -0.004123984930934541 0.0005300461111598648 0.006497892665257925
 0.0005411171099950655 0.006496594012101818 -0.00047142366023583037 -0.004123984930934541 0.0031181038701625923 0.01328236475775697 0.9964026735179079 -0.03247117956534112
 -0.0004714647443869366 -0.004123986572765145 0.0005300461111598648 0.006497892665257925 0.9964026735179079 -0.03247117956534112 0.0031198811089659336 0.013282188442929886
0.055454545454549996 0.0033485418513832495 0.014797627293297108 0.9960977950237777 -0.036050377557767896 0.0006272443859154355 0.007205077090653343 -0.0005439564803342454 -0.004576449225305667
 0.9960977950237777 -0.036050377557767896 0.0033508536317618082 0.014797405489764546 -0.0005439061753857374 -0.004576447823862888 0.0006136344181934088 0.007206678031633262
 0.0006272443859154355 0.007205077090653343 -0.0005439061753857374 -0.004576447823862888 0.0033486235886173265 0.014798354903819838 0.9960978136811734 -0.03604963578547448
 -0.0005439564803342454 -0.004576449225305667 0.0006136344181934088 0.007206678031633262 0.9960978136811734 -0.03604963578547448 0.003350806871088557 0.014798148342318355
0.056273447269699996 0.003384340810924556 0.015027203397438325 0.9960504156012491 -0.03659061429511186 0.0006408158773774218 0.007311881116308905 -0.0005553706191568453 -0.004644688116006389
 0.9960504156012491 -0.03659061429511186 0.0033867212374079163 0.015026976415866753 -0.0005553188460854182 -0.004644686760061957 0.0006268004320362254 0.007313531207564
 0.0006408158773774218 0.007311881116308905 -0.0005553188460854182 -0.004644686760061957 0.003384424940185854 0.015027941498526678 0.9960504347816488 -0.0365898615344016
 -0.0005553706191568453 -0.004644688116006389 0.0006268004320362254 0.007313531207564 0.9960504347816488 -0.0365898615344016 0.003386673027309585 0.015027730163906617
0.06252605252188 0.003666948315020929 0.016789597845004296 0.9956761620289457 -0.040723473338088574 0.0007495785049986461 0.00812758425516966 -0.0006467780296605328 -0.005166094651833374
 0.9956761620289457 -0.040723473338088574 0.0036698859393059294 0.016789329182222885 -0.0006467143730782133 -0.005166093727436681 0.0007322696449762412 0.008129642339035422
 0.0007495785049986461 0.00812758425516966 -0.0006467143730782133 -0.005166093727436681 0.00366705184094937 0.016790415706060834 0.9956761854515666 -0.04072263659659498
 -0.0006467780296605328 -0.005166094651833374 0.0007322696449762412 0.008129642339035422 0.9956761854515666 -0.04072263659659498 0.0036698259110357337 0.01679016602303206
0.06877865777407 0.003966165160897589 0.01856856082637984 0.9952796044128076 -0.044870351433508746 0.0008674896609963978 0.008943587015488235 -0.0007457739983248166 -0.00568808222101764
 0.9952796044128076 -0.044870351433508746 0.003969718455257207 0.018568246567884857 -0.0007456972740854444 -0.005688081884682122 0.0008465377382417794 0.00894611414374287
 0.0008674896609963978 0.008943587015488235 -0.0007456972740854444 -0.005688081884682122 0.003966290080780972 0.018569457806138456 0.9952796325197456 -0.04486943055599207
 -0.0007457739983248166 -0.00568808222101764 0.0008465377382417794 0.00894611414374287 0.9952796325197456 -0.04486943055599207 0.003969645266401351 0.01856916631345605
0.07503126302626001 0.004282295031958873 0.020363780859080548 0.994860449997534 -0.049031145344757276 0.0009946323316522836 0.00975976866049043 -0.000852443671670228 -0.006210525544244533
 0.994860449997534 -0.049031145344757276 0.004286522487456951 0.02036341691866109 -0.0008523527058624318 -0.006210525963280564 0.0009696870475794015 0.009762830434017737
 0.0009946323316522836 0.00975976866049043 -0.0008523527058624318 -0.006210525963280564 0.0042824433372996434 0.020364756259635325 0.9948604832386667 -0.04903014015541286
 -0.000852443671670228 -0.006210525544244533 0.0009696870475794015 0.009762830434017737 0.9948604832386667 -0.04903014015541286 0.004286434780722861 0.020364419362677133
0.08128386827845 0.004615639805995328 0.022174958521415298 0.9944184065568045 -0.05320572869231762 0.0011310877146336273 0.010576004526956067 -0.0009668702583272113 -0.006733297647872602
 0.9944184065568045 -0.05320572869231762 0.004620599943678719 0.02217454063954352 -0.0009667638870898305 -0.006733299000340767 0.0011017981563458477 0.010579671147283616
 0.0011310877146336273 0.010576004526956067 -0.0009667638870898305 -0.006733299000340767 0.004615813481014798 0.022176011587614806 0.9944184453904588 -0.05320463899512984
 -0.0009668702583272113 -0.006733297647872602 0.0011017981563458477 0.010579671147283616 0.9944184453904588 -0.05320463899512984 0.004620496345908165 0.022175625557243676
0.08753647353064001 0.00496649953619924 0.024001802321806986 0.9939531826242025 -0.05739395603326025 0.0012769351182860742 0.011392166294577904 -0.0010891349604701846 -0.007256269622158144
 0.9939531826242025 -0.05739395603326025 0.0049722509181555664 0.024001326063613257 -0.001089012029826877 -0.007256272096825052 0.0012429497998763647 0.011396512615039574
 0.0012769351182860742 0.011392166294577904 -0.001089012029826877 -0.007256272096825052 0.004966700556431754 0.024002932241042597 0.9939532275178421 -0.05739278161191721
 -0.0010891349604701846 -0.007256269622158144 0.0012429497998763647 0.011396512615039574 0.9939532275178421 -0.05739278161191721 0.004972130039722334 0.024002493212087077
0.09378907878283 0.005335172404897159 0.025844025761609057 0.9934644876996856 -0.06159566575237378 0.001432251863474999 0.012208122189794914 -0.0012193169016685593 -0.007779310449921209
 0.9934644876996856 -0.06159566575237378 0.005341773645507461 0.02584348651442368 -0.0012191762674715184 -0.007779314246202797 0.0013932187717438792 0.012213227766183945
 0.001432251863474999 0.012208122189794914 -0.0012191762674715184 -0.007779314246202797 0.0053354027366721195 0.02584523166018938 0.9934645391307966 -0.06159440637354894
 -0.0012193169016685593 -0.007779310449921209 0.0013932187717438792 0.012213227766183945 0.9934645391307966 -0.06159440637354894 0.005341634079924682 0.02584473562959576
0.100041684035 0.005721954657895422 0.02770134516197929 0.9929520324405913 -0.06581068219484137 0.0015971131879767477 0.013023737142300578 -0.001357493051189131 -0.008302286887453277
 0.9929520324405913 -0.06581068219484137 0.005729464434914938 0.027700738132557128 -0.0013573335789713512 -0.008302292215373841 0.0015526798323488302 0.013029686282895228
 0.0015971131879767477 0.013023737142300578 -0.0013573335789713512 -0.008302292215373841 0.005722216256656697 0.027702626111450687 0.9929520908972426 -0.06580933760174103
 -0.001357493051189131 -0.008302286887453277 0.0015526798323488302 0.013029686282895228 0.9929520908972426 -0.06580933760174103 0.005729304758105185 0.027702068935967786
0.1059090909091 0.006101641187808361 0.029457720402362195 0.9924492811974053 -0.06977796297270661 0.0017605638558062919 0.013788672078287741 -0.0014944939616209894 -0.008792865528636423
 0.9924492811974053 -0.06977796297270661 0.006110056962703502 0.029457045243410942 -0.0014943157886975458 -0.008792872494258478 0.0017107419601807032 0.013795493768792879
 0.0017605638558062919 0.013788672078287741 -0.0014943157886975458 -0.008792872494258478 0.006101933895134047 0.029459070880059085 0.9924493467008941 -0.06977653816628397
 -0.0014944939616209894 -0.008792865528636423 0.0017107419601807032 0.013795493768792879 0.9924493467008941 -0.06977653816628397 0.006109877102330515 0.029458452431085358
0.1062942892872 0.00612714052266113 0.029573478051144905 0.9924155288388284 -0.07003881724428462 0.0017715921527085658 0.01383887290597119 -0.0015037381460235534 -0.008825063386173441
 0.9924155288388284 -0.07003881724428462 0.006135617588253411 0.029572798262443217 -0.0015035587109478348 -0.008825070466313903 0.0017214056180200068 0.013845754720990653
 0.0017715921527085658 0.01383887290597119 -0.0015035587109478348 -0.008825070466313903 0.006127435331914872 0.02957483306179117 0.9924155948205794 -0.07003738716293653
 -0.0015037381460235534 -0.008825063386173441 0.0017214056180200068 0.013845754720990653 0.9924155948205794 -0.07003738716293653 0.0061354363578969865 0.02957421045526817
0.11254689453939999 0.006551022115740079 0.03146014192067068 0.9918546903918909 -0.07427987153782153 0.0019557595485954183 0.01465338816136018 -0.0016581246111633775 -0.009347502037949297
 0.9918546903918909 -0.07427987153782153 0.006560525307725451 0.031459384208246975 -0.0016579240978993623 -0.009347511101408617 0.0018994665512712336 0.014661296611626464
 0.0019557595485954183 0.01465338816136018 -0.0016579240978993623 -0.009347511101408617 0.006551352065814655 0.03146156994466678 0.991854764410477 -0.07427835567386122
 -0.0016581246111633775 -0.009347502037949297 0.0018994665512712336 0.014661296611626464 0.991854764410477 -0.07427835567386122 0.0065603210630569226 0.031460877474957294
0.11879949979160001 0.006993889341569154 0.033361053263849985 0.9912692322667278 -0.07853363540523994 0.0021496838048066843 0.015467138604167225 -0.0018207224782313257 -0.009869462539791173
 0.9912692322667278 -0.07853363540523994 0.00700447759464122 0.03336021227183594 -0.0018204997809840259 -0.009869473828134826 0.0020869307513593934 0.015476172549000976
 0.0021496838048066843 0.015467138604167225 -0.0018204997809840259 -0.009869473828134826 0.00699425634821324 0.03336255319458868 0.991269314846826 -0.0785320334444241
 -0.0018207224782313257 -0.009869462539791173 0.0020869307513593934 0.015476172549000976 0.991269314846826 -0.0785320334444241 0.007004248855236901 0.03336178627999558
0.1250521050438 0.0074560297829045314 0.03527592681720712 0.9906588714596503 -0.08279988961129649 0.00235343089721806 0.016279977019795056 -0.001991599303104417 -0.010390802177892296
 0.9906588714596503 -0.08279988961129649 0.007467762140268557 0.03527499699374249 -0.0019913533255220927 -0.010390815943099993 0.0022838639456669156 0.016290240264108864
 0.00235343089721806 0.016279977019795056 -0.0019913533255220927 -0.010390815943099993 0.007456435746478122 0.0352774974872541 0.9906589631398123 -0.08279820122154317
 -0.001991599303104417 -0.010390802177892296 0.0022838639456669156 0.016290240264108864 0.9906589631398123 -0.08279820122154317 0.007467507405964407 0.03527665139251998
0.131304710296 0.007937728587063115 0.03720447495239121 0.9900233269530093 -0.08707840595423225 0.0025670642577638376 0.017091753355476347 -0.0021708200827269914 -0.010911375819655567
 0.9900233269530093 -0.08707840595423225 0.007950664211196412 0.03720345054482603 -0.0021705497378418253 -0.010911392324096672 0.00249032938089272 0.017103354695957185
 0.0025670642577638376 0.017091753355476347 -0.0021705497378418253 -0.010911392324096672 0.007938175390695764 0.037206115136071555 0.9900234282866456 -0.08707663078321032
 -0.0021708200827269914 -0.010911375819655567 0.00249032938089272 0.017103354695957185 0.9900234282866456 -0.08707663078321032 0.00795038196148319 0.037205184967928656
0.1375573155481 0.008328747717145124 0.03889529840111605 0.9894728823728621 -0.09111773357913823 0.0027640003649436087 0.017877358706254884 -0.002331894871281835 -0.0114060308147625
 0.9894728823728621 -0.09111773357913823 0.00834294926442962 0.03889419519195755 -0.002331598382636144 -0.011406050072070741 0.0026799193399759482 0.017890281850757698
 0.0027640003649436087 0.017877358706254884 -0.002331598382636144 -0.011406050072070741 0.008329236475954656 0.03889700733656186 0.9894729938078475 -0.09111587141669773
 -0.002331894871281835 -0.0114060308147625 0.0026799193399759482 0.017890281850757698 0.9894729938078475 -0.09111587141669773 0.008342638930919438 0.03889600902617833
0.1438099208003 0.008733527958930969 0.04057721332571744 0.9889030678482511 -0.09514681084918297 0.002968898565897602 0.01865972114155398 -0.0024994094907880063 -0.011897744686892324
 0.9889030678482511 -0.09514681084918297 0.008749055258974325 0.0405760268756472 -0.0024990856610218075 -0.011897766959210063 0.0028771488711645493 0.01867406567516934
 0.002968898565897602 0.01865972114155398 -0.0024990856610218075 -0.011897766959210063 0.008734060393029439 0.04057898977717637 0.9889031899373222 -0.09514486135099397
 -0.0024994094907880063 -0.011897744686892324 0.0028771488711645493 0.01867406567516934 0.9889031899373222 -0.09514486135099397 0.008748715463795997 0.04057791969118424
0.1500625260525 0.009151926567828324 0.0422500788706622 0.9883140301553438 -0.09916553720857581 0.0031816884233922503 0.019438758772322443 -0.0026732961441764966 -0.012386441265359887
 0.9883140301553438 -0.09916553720857581 0.009168839578163562 0.042248804488243655 -0.0026729437767016237 -0.012386466825626215 0.0030819493936134023 0.019454627928925813
 0.0031816884233922503 0.019438758772322443 -0.0026729437767016237 -0.012386466825626215 0.009152504371793064 0.04225192155572477 0.9883141634636956 -0.09916350001628534
 -0.0026732961441764966 -0.012386441265359887 0.0030819493936134023 0.019454627928925813 0.9883141634636956 -0.09916350001628534 0.009168468934909975 0.042250775838516365
0.15631513130469998 0.009583799785526651 0.04391375843358279 0.9877059168152941 -0.1031738124667021 0.0034022986648870593 0.020214391097331193 -0.0028534861986267476 -0.012872045990511142
