! Created with skrf 1.8.0 (http://scikit-rf.org).
# GHz S RI R 50.0 
!freq ReS11 ImS11 ReS12 ImS12 ReS13 ImS13
! ReS14 ImS14
! ReS21 ImS21 ReS22 ImS22 ReS23 ImS23
! ReS24 ImS24
! ReS31 ImS31 ReS32 ImS32 ReS33 ImS33
! ReS34 ImS34
! ReS41 ImS41 ReS42 ImS42 ReS43 ImS43
! ReS44 ImS44
!
0.0 0.001280021143243 0.0 0.9987199788568 0.0 4.885054669819e-05 0.0 -4.88505466983e-05 5.9824665650671396e-21
 0.9987199788568 0.0 0.001280021143236 0.0 -4.885054669804e-05 5.982466565035299e-21 4.885054669817e-05 0.0
 4.885054669819e-05 0.0 -4.885054669804e-05 5.982466565035299e-21 0.001280021123337 0.0 0.9987199788369 0.0
 -4.88505466983e-05 5.9824665650671396e-21 4.885054669817e-05 0.0 0.9987199788369 0.0 0.001280021123343 0.0
0.005 0.0013765423520391599 0.0010490674565011699 0.9985979848908887 -0.0026820520490724235 6.779499458116118e-05 0.0005294268749866493 -6.600687074026623e-05 -0.00033395584063209614
 0.9985979848908887 -0.0026820520490724235 0.0013765322709213313 0.0010490733874084115 -6.600711025917296e-05 -0.00033395607369693446 6.785474175379988e-05 0.0005294041709876057
 6.779499458116118e-05 0.0005294268749866493 -6.600711025917296e-05 -0.00033395607369693446 0.0013765423098388472 0.0010491347782872374 0.9985979852304098 -0.0026819849846942963
 -6.600687074026623e-05 -0.00033395584063209614 6.785474175379988e-05 0.0005294041709876057 0.9985979852304098 -0.0026819849846942963 0.001376532984938862 0.0010491401873046055
0.006252605252188 0.0014016699869180387 0.0013154808614005745 0.9985660596862909 -0.0033532497636477496 7.308731278425177e-05 0.0006620569357899587 -7.07624734792577e-05 -0.00041788533309164547
 0.9985660596862909 -0.0033532497636477496 0.0014016542278514085 0.001315488392981973 -7.076284580510794e-05 -0.0004178856215623543 7.318066373376436e-05 0.0006620274747481188
 7.308731278425177e-05 0.0006620569357899587 -7.076284580510794e-05 -0.0004178856215623543 0.0014016698451045763 0.0013155650041653771 0.9985660601417595 -0.0033531659441722863
 -7.07624734792577e-05 -0.00041788533309164547 7.318066373376436e-05 0.0006620274747481188 0.9985660601417595 -0.0033531659441722863 0.0014016552689186965 0.0013155718735466068
0.01250521050438 0.0015328585284114305 0.002658744221372073 0.9983984461725964 -0.00670746682391139 0.00010280463088082776 0.0013245711173529128 -9.727126994414596e-05 -0.0008379056672870864
 0.9983984461725964 -0.00670746682391139 0.0015327955959396119 0.0026587604751848494 -9.72727325938879e-05 -0.0008379062138024932 0.00010317692765123331 0.0013245006644776165
 0.00010280463088082776 0.0013245711173529128 -9.72727325938879e-05 -0.0008379062138024932 0.0015328573755127404 0.0026589122755174477 0.99839844741369 -0.006707299412909134
 -9.727126994414596e-05 -0.0008379056672870864 0.00010317692765123331 0.0013245006644776165 0.99839844741369 -0.006707299412909134 0.001532799178815506 0.0026589270990259035
0.01875781575657 0.00167383359180285 0.004021401320109842 0.9982169582402146 -0.010070852667006292 0.0001380660649728441 0.0019880010009806896 -0.00012844986307378444 -0.0012594920457653029
 0.9982169582402146 -0.010070852667006292 0.0016736921679181178 0.004021427577062042 -0.00012845311839124039 -0.001259492816414313 0.00013890247369991972 0.001987876070910133
 0.0001380660649728441 0.0019880010009806896 -0.00012845311839124039 -0.001259492816414313 0.001673830564745572 0.004021653171386031 0.9982169606124385 -0.01007060173001178
 -0.00012844986307378444 -0.0012594920457653029 0.00013890247369991972 0.001987876070910133 0.9982169606124385 -0.01007060173001178 0.0016736998075807222 0.004021677101571873
0.02501042100875 0.0018248367930218197 0.005401588799527346 0.9980214098579406 -0.013445077236236287 0.00017893567117202838 0.002652397607807239 -0.00016436946334988088 -0.0016824795926036649
 0.9980214098579406 -0.013445077236236287 0.0018245856170769385 0.005401626419967053 -0.00016437520325443428 -0.001682480549154027 0.00018042149222126735 0.0026522028432092136
 0.00017893567117202838 0.002652397607807239 -0.00016437520325443428 -0.001682480549154027 0.001824831011835682 0.005401924340138396 0.9980214137012408 -0.013444742786580687
 -0.00016436946334988088 -0.0016824795926036649 0.00018042149222126735 0.0026522028432092136 0.9980214137012408 -0.013444742786580687 0.0018245988215027892 0.005401958587069098
0.03126302626094 0.0019860995172958445 0.0067983680205866434 0.9978116041705848 -0.016830879578963082 0.00022547802284215366 0.0033177527438760126 -0.0002050996574057726 -0.002106759336703428
 0.9978116041705848 -0.016830879578963082 0.001985707370449046 0.006798418442159228 -0.00020510856514769282 -0.0021067604365191455 0.0002277988701376831 0.0033174709055976033
 0.00022547802284215366 0.0033177527438760126 -0.00020510856514769282 -0.0021067604365191455 0.0019860900945077964 0.0067987871398612785 0.9978116098299024 -0.016830461586934378
 -0.0002050996574057726 -0.002106759336703428 0.0002277988701376831 0.0033174709055976033 0.9978116098299024 -0.016830461586934378 0.0019857276509224154 0.006798832968793275
0.037515631513130004 0.0021578483413791866 0.008211142347473792 0.9975873390335079 -0.020228650512077753 0.00027775767711290145 0.003984035166241526 -0.00025070891432024667 -0.002532242040807835
 0.9975873390335079 -0.020228650512077753 0.0021572840369096895 0.008211207084203366 -0.0002507216654688425 -0.0025322432368533225 0.00028109956276048815 0.00398364711415427
 0.00027775767711290145 0.003984035166241526 -0.0002507216654688425 -0.0025322432368533225 0.0021578343781527387 0.008211644899431245 0.9975873468563201 -0.0202281489372242
 -0.00025070891432024667 -0.002532242040807835 0.00028109956276048815 0.00398364711415427 0.9975873468563201 -0.0202281489372242 0.002157312903994848 0.00821170362958491
0.043768236765320004 0.0023403071334815472 0.009639479788346688 0.9973484092245115 -0.023638609925264214 0.0003358389282810898 0.0046512015838748675 -0.0003012647766361525 -0.0029588471911967617
 0.9973484092245115 -0.023638609925264214 0.0023395395095590927 0.009639560430030331 -0.00030128203968127004 -0.002958848432050178 0.00034038830709050294 0.0046506862548032655
 0.0003358389282810898 0.0046512015838748675 -0.00030128203968127004 -0.002958848432050178 0.0023402877184849923 0.009640065614949412 0.9973484195608041 -0.023638024693012037
 -0.0003012647766361525 -0.0029588471911967617 0.00034038830709050294 0.0046506862548032655 0.9973484195608041 -0.023638024693012037 0.0023395784718922446 0.009640138618580294
0.050020842017509996 0.002533698033877517 0.011083039733361725 0.9970946075368423 -0.027060879985051255 0.0003997856663467576 0.005319201193976016 -0.0003568339356761763 -0.003386498451395511
 0.9970946075368423 -0.027060879985051255 0.002532695947418108 0.01108313794518934 -0.00035685637239242117 -0.00338649968129003 0.0004057294589621353 0.005318535578370257
 0.0003997856663467576 0.005319201193976016 -0.00035685637239242117 -0.00338649968129003 0.002533672244316139 0.011083708654179398 0.9970946207411523 -0.027060210996964967
 -0.0003568339356761763 -0.003386498451395511 0.0004057294589621353 0.005318535578370257 0.9970946207411523 -0.027060210996964967 0.0025327465130213648 0.011083797355785368
0.055454545454549996 0.0027108104052781558 0.012349677105634114 0.996861806443716 -0.030044982149293513 0.0004601700537141584 0.005900346295674351 -0.0004092478066456819 -0.0037589321233942514
 0.996861806443716 -0.030044982149293513 0.002709579282289264 0.012349791997201053 -0.00040927527193385387 -0.003758933295122286 0.00046747780619158533 0.005899529860326705
 0.0004601700537141584 0.005900346295674351 -0.00040927527193385387 -0.003758933295122286 0.0027107783174398197 0.012350418067345445 0.9968618224327794 -0.030044240282906844
 -0.0004092478066456819 -0.0037589321233942514 0.00046747780619158533 0.005899529860326705 0.9968618224327794 -0.030044240282906844 0.0027096411550041545 0.012350521608031944
0.056273447269699996 0.002738241971561236 0.012541536976869829 0.9968257254101055 -0.030495521054458834 0.0004696612760997173 0.00598797790577204 -0.00041748226077324783 -0.0038151214290198456
 0.9968257254101055 -0.030495521054458834 0.002736974292878757 0.01254165449924222 -0.0004175105265635593 -0.003815122587871568 0.0004771868792435218 0.005987137023810699
 0.0004696612760997173 0.00598797790577204 -0.0004175105265635593 -0.003815122587871568 0.002738208872905684 0.012542288781909588 0.9968257418428753 -0.030494768195367537
 -0.00041748226077324783 -0.0038151214290198456 0.0004771868792435218 0.005987137023810699 0.9968257418428753 -0.030494768195367537 0.0027370379683719446 0.012542394657728596
0.06252605252188 0.002954158955533974 0.014014721930164491 0.9965415533384687 -0.03394255142271357 0.0005455285603055757 0.006657471559247313 -0.00048327480095682415 -0.004244642448852759
 0.9965415533384687 -0.03394255142271357 0.002952594563420588 0.014014860578593287 -0.00048330954507897297 -0.004244643472297321 0.0005548238487804724 0.006656428436632473
 0.0005455285603055757 0.006657471559247313 -0.00048330954507897297 -0.004244643472297321 0.0029541175993962237 0.014015556388479436 0.9965415733642111 -0.033941714551992665
 -0.00048327480095682415 -0.004244642448852759 0.0005548238487804724 0.006656428436632473 0.9965415733642111 -0.033941714551992665 0.0029526728517197606 0.01401568096599087
0.06877865777407 0.0031816682355055264 0.015502368844384856 0.9962418811492357 -0.03740195902592806 0.000627449674170858 0.007327618652572581 -0.0005542757729709395 -0.0046749878186445005
 0.9962418811492357 -0.03740195902592806 0.0031797760126679266 0.015502530509549204 -0.0005543176387103979 -0.004674988638069012 0.0006387029969842957 0.00732634429617481
 0.000627449674170858 0.007327618652572581 -0.0005543176387103979 -0.004674988638069012 0.003181617660543133 0.015503285697124428 0.996241905139164 -0.03740103798439737
 -0.0005542757729709395 -0.0046749878186445005 0.0006387029969842957 0.00732634429617481 0.996241905139164 -0.03740103798439737 0.003179870413723057 0.015503430554755209
0.07503126302626001 0.003420988396796577 0.01700426831906051 0.995926498218449 -0.040873708883388704 0.0007154860673149751 0.007998352798661129 -0.0006305485399008313 -0.005106083367390062
 0.995926498218449 -0.040873708883388704 0.0034187372252017833 0.017004454966977996 -0.0006305981647094029 -0.005106083909976756 0.000728886239444956 0.007996816172152851
 0.0007154860673149751 0.007998352798661129 -0.0006305981647094029 -0.005106083909976756 0.00342092762716889 0.017005267284740395 0.9959265265501807 -0.04087270348813639
 -0.0006305485399008313 -0.005106083367390062 0.000728886239444956 0.007996816172152851 0.9959265265501807 -0.04087270348813639 0.0034188492342762675 0.017005434051628528
0.08128386827845 0.003672337404818984 0.01852022233650643 0.9955951936386037 -0.044357748009971186 0.0008096984302887467 0.008669605031022605 -0.0007121555836573398 -0.005537854136065501
 0.9955951936386037 -0.044357748009971186 0.003669696161347091 0.01852043600882432 -0.0007122135993110248 -0.00553785432481665 0.0008254347209801997 0.008667773030531577
 0.0008096984302887467 0.008669605031022605 -0.0007122135993110248 -0.00553785432481665 0.0036722654502182542 0.018521303107690238 0.9955952266969812 -0.044356658057579226
 -0.0007121555836573398 -0.005537854136065501 0.0008254347209801997 0.008667773030531577 0.9955952266969812 -0.044356658057579226 0.0036698272685588376 0.0185214934636529
0.08753647353064001 0.003935932622334702 0.020050040814492163 0.9952477563604253 -0.047854008811808936 0.0009101466429329863 0.00934130401298931 -0.0007991584740799935 -0.0059702241668298526
 0.9952477563604253 -0.047854008811808936 0.003932870174568592 0.020050283628856434 -0.0007992255067858324 -0.005970223920608246 0.0009284087615680917 0.00933914144283323
 0.0009101466429329863 0.00934130401298931 -0.0007992255067858324 -0.005970223920608246 0.003935848477593815 0.02005120305493439 0.9952477945384002 -0.047852834081245924
 -0.0007991584740799935 -0.0059702241668298526 0.0009284087615680917 0.00933914144283323 0.9952477945384002 -0.047852834081245924 0.003933021864102779 0.02005141873048081
0.09378907878283 0.004211990804997584 0.02159353914057875 0.9948839753155042 -0.05136241150236373 0.001016889725321537 0.010013376190757888 -0.000891617834417649 -0.006403116350328328
 0.9948839753155042 -0.05136241150236373 0.004208476006695817 0.02159381329118569 -0.0008916945048753717 -0.006403115583891053 0.0010378678048618773 0.010010845739315752
 0.001016889725321537 0.010013376190757888 -0.0008916945048753717 -0.006403115583891053 0.004211893448796049 0.021594782491001153 0.9948840190143092 -0.05136115174935892
 -0.000891617834417649 -0.006403116350328328 0.0010378678048618773 0.010010845739315752 0.9948840190143092 -0.05136115174935892 0.004208649755555975 0.021595025267446364
0.100041684035 0.004500728082063184 0.023150536372487894 0.9945036395266207 -0.05488286585472881 0.001129985789423021 0.010685745902808064 -0.0009895933046622787 -0.006836452318633464
 0.9945036395266207 -0.05488286585472881 0.004496729769099349 0.023150844130720882 -0.000989680228185204 -0.006836450942665654 0.0011538703681816954 0.010682808118532021
 0.001129985789423021 0.010685745902808064 -0.000989680228185204 -0.006836450942665654 0.00450061647699329 0.02315186044683249 0.9945036891567297 -0.0548815208155064
 -0.0009895933046622787 -0.006836452318633464 0.0011538703681816954 0.010682808118532021 0.9945036891567297 -0.0548815208155064 0.004496927046451693 0.023152132156665554
0.1059090909091 0.00478340083974565 0.024623731086384913 0.9941314906036478 -0.05819731134594143 0.001241943343893773 0.01131689499480601 -0.001086601963529338 -0.007243424797113577
 0.9941314906036478 -0.05819731134594143 0.004778920436247911 0.024624072517060596 -0.001086699063333363 -0.007243422764337646 0.0012687289998036405 0.011313537164002713
 0.001241943343893773 0.01131689499480601 -0.001086699063333363 -0.007243422764337646 0.004783274905031632 0.02462513053802175 0.9941315461818369 -0.05819588601616187
 -0.001086601963529338 -0.007243424797113577 0.0012687289998036405 0.011313537164002713 0.9941315461818369 -0.05819588601616187 0.004779141120930492 0.02462543111126614
0.1062942892872 0.004802359926676227 0.02472085387311081 0.9941065382087483 -0.058415272521241256 0.0012494919915334833 0.01135833546513917 -0.0010931435033363767 -0.0072701523644826275
 0.9941065382087483 -0.058415272521241256 0.004797846912547363 0.024721197588331086 -0.001093241289898548 -0.007270150285631112 0.0012764739930943758 0.01135494873277772
 0.0012494919915334833 0.01135833546513917 -0.001093241289898548 -0.007270150285631112 0.004802233018414017 0.024722258259524975 0.994106594190636 -0.05841384191176688
 -0.0010931435033363767 -0.0072701523644826275 0.0012764739930943758 0.01135494873277772 0.994106594190636 -0.05841384191176688 0.004798069178775564 0.02472256078672965
0.11254689453939999 0.005117101117652575 0.026304314270245707 0.9936924608648773 -0.06195952403100655 0.0013754644851258291 0.012031065237442996 -0.0012023259875903712 -0.007704135381630244
 0.9936924608648773 -0.06195952403100655 0.00511204218919132 0.026304696370657278 -0.0012024352419141618 -0.007704132502535923 0.0014057351970076246 0.01202718575443451
 0.0013754644851258291 0.012031065237442996 -0.0012024352419141618 -0.007704132502535923 0.0051169578342387 0.026305798533297252 0.9936925236289843 -0.06195800754478666
 -0.0012023259875903712 -0.007704135381630244 0.0014057351970076246 0.01202718575443451 0.9936925236289843 -0.06195800754478666 0.005112290894782531 0.02630613381398556
0.11879949979160001 0.005445165694380344 0.02790074064207253 0.9932611973754859 -0.06551550556377278 0.0015079583738970561 0.01270385367677673 -0.0013171972123158647 -0.008138318820009588
 0.9932611973754859 -0.06551550556377278 0.005439529607506278 0.02790116363582619 -0.0013173185339192645 -0.008138315039338123 0.0015417094249316895 0.012699435429917649
 0.0015079583738970561 0.01270385367677673 -0.0013173185339192645 -0.008138315039338123 0.005445004945959315 0.02790230431847939 0.9932612673638853 -0.0655139028764153
 -0.0013171972123158647 -0.008138318820009588 0.0015417094249316895 0.012699435429917649 0.9932612673638853 -0.0655139028764153 0.005439806192306171 0.027902674341559377
0.1250521050438 0.005786766907409391 0.029509955875722808 0.9928125380875149 -0.06908309555359536 0.0016470276650008251 0.013376617381729511 -0.001437812488231172 -0.008572618652557165
 0.9928125380875149 -0.06908309555359536 0.005780522382748251 0.02951042235201106 -0.0014379464714907662 -0.008572613865034141 0.0016844510014528036 0.013371612124105214
 0.0016470276650008251 0.013376617381729511 -0.0014379464714907662 -0.008572613865034141 0.005786587585277093 0.029511598479794676 0.9928126157536806 -0.06908140631751761
 -0.001437812488231172 -0.008572618652557165 0.0016844510014528036 0.013371612124105214 0.9928126157536806 -0.06908140631751761 0.005780828274758024 0.029512005287748836
0.131304710296 0.006142117163995456 0.031131782145190304 0.992346273898341 -0.0726621661754862 0.0017927252223120067 0.014049271128679089 -0.001564225939080841 -0.009006949352364377
 0.992346273898341 -0.0726621661754862 0.00613523288247749 0.031132294775644363 -0.0015643731732994106 -0.009006943448804249 0.0018340130829435238 0.014043628356800848
 0.0017927252223120067 0.014049271128679089 -0.0015643731732994106 -0.009006943448804249 0.006141918140375801 0.031133503163309657 0.9923463597087105 -0.0726603900257006
 -0.001564225939080841 -0.009006949352364377 0.0018340130829435238 0.014043628356800848 0.9923463597087105 -0.0726603900257006 0.0061355694970620595 0.03113394885324933
0.1375573155481 0.0064239113484555535 0.03255445032189696 0.9919497379428861 -0.07604092104744806 0.0019247632700585585 0.014700007631081554 -0.0016761031539768128 -0.009419544257165745
 0.9919497379428861 -0.07604092104744806 0.006416354562743774 0.03255500091124667 -0.0016762646520129835 -0.009419537255403955 0.001970010709944403 0.014693741206615346
 0.0019247632700585585 0.014700007631081554 -0.0016762646520129835 -0.009419537255403955 0.0064236923132178 0.03255624905519472 0.9919498322689856 -0.07603905775614016
 -0.0016761031539768128 -0.009419544257165745 0.001970010709944403 0.014693741206615346 0.9919498322689856 -0.07603905775614016 0.0064167226595629005 0.03255672543705977
0.1438099208003 0.006715411146199926 0.033970635649685305 0.9915396517190103 -0.0794121296457136 0.0020621217941553284 0.015348714716224494 -0.001792464619795188 -0.009830257560724349
 0.9915396517190103 -0.0794121296457136 0.006707150282085034 0.033971226162434934 -0.001792641039882584 -0.009830249352702828 0.002111503865892071 0.015341779031883811
 0.0020621217941553284 0.015348714716224494 -0.001792641039882584 -0.009830249352702828 0.006715171091620264 0.03397251152468205 0.9915397550262198 -0.07941017885000932
 -0.001792464619795188 -0.009830257560724349 0.002111503865892071 0.015341779031883811 0.9915397550262198 -0.07941017885000932 0.006707551138970598 0.033973020034602244
0.1500625260525 0.007016526837846218 0.035380249788910655 0.9911161080611057 -0.08277573872924554 0.0022047602505444477 0.015995346330064705 -0.0019132704656985783 -0.01023904422163582
 0.9911161080611057 -0.08277573872924554 0.007007530277636114 0.03538088229475009 -0.0019134624662296572 -0.010239034694875011 0.002258451152033818 0.015987694130287895
 0.0022047602505444477 0.015995346330064705 -0.0019134624662296572 -0.010239034694875011 0.00701626474731362 0.03538220220753308 0.9911162208253308 -0.08277370005221962
 -0.0019132704656985783 -0.01023904422163582 0.002258451152033818 0.015987694130287895 0.9911162208253308 -0.08277370005221962 0.007007965152333005 0.03538274436754501
0.15631513130469998 0.007327168217807249 0.036783207236475615 0.990679200110962 -0.08613169467159916 0.0023526377007809943 0.01663985707830153 -0.0020384804088333696 -0.01064586006202523
