! Created with skrf 1.8.0 (http://scikit-rf.org).
# GHz S RI R 50.0 
!freq ReS11 ImS11 ReS12 ImS12 ReS13 ImS13
! ReS14 ImS14
! ReS21 ImS21 ReS22 ImS22 ReS23 ImS23
! ReS24 ImS24
! ReS31 ImS31 ReS32 ImS32 ReS33 ImS33
! ReS34 ImS34
! ReS41 ImS41 ReS42 ImS42 ReS43 ImS43
! ReS44 ImS44
!
0.0 0.001579389770635 0.0 0.9984206102237 0.0 6.131377325802e-05 0.0 -6.131377316985e-05 7.508771605610366e-21
 0.9984206102237 0.0 0.001579389770672 0.0 -6.131377316995e-05 7.508771605622613e-21 6.131377325942e-05 0.0
 6.131377325802e-05 0.0 -6.131377316995e-05 7.508771605622613e-21 0.001579389773474 0.0 0.9984206102265 0.0
 -6.131377316985e-05 7.508771605610366e-21 6.131377325942e-05 0.0 0.9984206102265 0.0 0.001579389773504 0.0
0.005 0.0016994919961673385 0.0012857126161323396 0.9982686481528149 -0.0033086721757437923 8.681621243734189e-05 0.000713031256362356 -8.417875713635972e-05 -0.00044097486025818013
 0.9982686481528149 -0.0033086721757437923 0.0016994616143936755 0.0012857303961989015 -8.418010840082876e-05 -0.00044097594602806895 8.699751603829384e-05 0.0007129622072434845
 8.681621243734189e-05 0.000713031256362356 -8.418010840082876e-05 -0.00044097594602806895 0.0016994914238258176 0.0012857802580475996 0.9982686485103868 -0.003308605113024818
 -8.417875713635972e-05 -0.00044097486025818013 8.699751603829384e-05 0.0007129622072434845 0.9982686485103868 -0.003308605113024818 0.0016994628910337538 0.0012857968686825188
0.006252605252188 0.001731030233134428 0.0016122225637520548 0.9982284904944542 -0.004136646744702338 9.409552042090669e-05 0.0008916165849387067 -9.06561458161799e-05 -0.0005517951139181882
 0.9982284904944542 -0.004136646744702338 0.001730982740459165 0.0016122451428155062 -9.065824812014212e-05 -0.0005517964536180512 9.437879012335136e-05 0.0008915269182840581
 9.409552042090669e-05 0.0008916165849387067 -9.065824812014212e-05 -0.0005517964536180512 0.0017310292713272363 0.0016123071073079521 0.998228490986698 -0.004136562925427662
 -9.06561458161799e-05 -0.0005517951139181882 9.437879012335136e-05 0.0008915269182840581 0.998228490986698 -0.004136562925427662 0.0017309846697937449 0.0016123282135412417
0.01250521050438 0.0018972811335784693 0.003258395182453859 0.9980154029076281 -0.008274092103411105 0.00013580725601732038 0.0017834829551710964 -0.000127524851773015 -0.0011062768446402657
 0.9980154029076281 -0.008274092103411105 0.0018970914859648767 0.003258443906499868 -0.00012753313216493407 -0.0011062793322832254 0.00013693686572338162 0.001783267368474691
 0.00013580725601732038 0.0017834829551710964 -0.00012753313216493407 -0.0011062793322832254 0.0018972767273326035 0.0032585640227619675 0.9980154043192726 -0.008273924688892795
 -0.000127524851773015 -0.0011062768446402657 0.00013693686572338162 0.001783267368474691 0.9980154043192726 -0.008273924688892795 0.001897098637929983 0.0032586096726078114
0.01875781575657 0.002078513114778351 0.00492810098552159 0.9977810770595859 -0.012422403451082005 0.000186548196735803 0.00267623561403937 -0.00017203609239557627 -0.0016625895135291315
 0.9977810770595859 -0.012422403451082005 0.0020780869490629084 0.0049281796749178685 -0.000172054551579917 -0.001662592921282372 0.00018908573133493523 0.00267585063127058
 0.000186548196735803 0.00267623561403937 -0.000172054551579917 -0.001662592921282372 0.0020785027650065285 0.004928354004620122 0.9977810798084635 -0.012422152476702242
 -0.00017203609239557627 -0.0016625895135291315 0.00018908573133493523 0.00267585063127058 0.9977810798084635 -0.012422152476702242 0.0020781025980984207 0.00492842783531505
0.02501042100875 0.0022750854457932114 0.006618979127873369 0.9975252316956288 -0.01658358064021263 0.0002464180533396957 0.0035699183695334273 -0.0002243019138045099 -0.002220463484868594
 0.9975252316956288 -0.01658358064021263 0.0022743285744552624 0.006619091824758901 -0.0002243345025886359 -0.002220467544683517 0.0002509252979771027 0.003569313535366456
 0.0002464180533396957 0.0035699183695334273 -0.0002243345025886359 -0.002220467544683517 0.0022750666529931162 0.006619316189521022 0.9975252362119906 -0.01658324609856045
 -0.0002243019138045099 -0.002220463484868594 0.0002509252979771027 0.003569313535366456 0.9975252362119906 -0.01658324609856045 0.002274355998974135 0.006619422007599112
0.03126302626094 0.002487342529423541 0.008329808650077883 0.9972475715236889 -0.020758472099452717 0.00031551668666810286 0.004464488183482446 -0.00028443095909015133 -0.002779709481776303
 0.9972475715236889 -0.020758472099452717 0.002486160887739902 0.008329959612315764 -0.00028448158687175844 -0.0027797138849223737 0.00032255614543846026 0.004463606022254966
 0.00031551668666810286 0.004464488183482446 -0.00028448158687175844 -0.0027797138849223737 0.002487312779694269 0.008330229609881622 0.9972475782389862 -0.020758053930073732
 -0.00028443095909015133 -0.002779709481776303 0.00032255614543846026 0.004463606022254966 0.9972475782389862 -0.020758053930073732 0.00248620335810217 0.008330371384806332
0.037515631513130004 0.0027156212107983376 0.010059788901329181 0.9969477947847767 -0.024947494348672626 0.0003939432313418218 0.005359867735701352 -0.0003525293094490056 -0.0033401660466643884
 0.9969477947847767 -0.024947494348672626 0.0027139208204656 0.010059982599724085 -0.00035260184855871046 -0.0033401704436264936 0.00040407835753494045 0.0053586436809867485
 0.0003939432313418218 0.005359867735701352 -0.00035260184855871046 -0.0033401704436264936 0.002715577977854045 0.010060293585311865 0.996947804136857 -0.024946992459505903
 -0.0003525293094490056 -0.0033401660466643884 0.00040407835753494045 0.0053586436809867485 0.996947804136857 -0.024946992459505903 0.002713981601797405 0.010060475446025872
0.043768236765320004 0.0029602535934195617 0.011808320555459858 0.9966255963280428 -0.02915085091263455 0.0004817956777567542 0.006255961413754146 -0.00042870078150332295 -0.0039016835647685552
 0.9966255963280428 -0.02915085091263455 0.0029579405342734497 0.01180856167231746 -0.00042879906982386815 -0.003901687565222073 0.0004955909811054719 0.0062543237287779815
 0.0004817956777567542 0.006255961413754146 -0.00042879906982386815 -0.003901687565222073 0.002960194336550847 0.01180890876563185 0.9966256087607382 -0.02915026517452344
 -0.00042870078150332295 -0.0039016835647685552 0.0004955909811054719 0.0062543237287779815 0.9966256087607382 -0.02915026517452344 0.0029580228845097097 0.01180913499842814
0.050020842017509996 0.003221568346582156 0.013574915122560198 0.9962806691767551 -0.033368622737933985 0.00057917061472738 0.0071526619188866485 -0.0005130470329045634 -0.004464117670937439
 0.9962806691767551 -0.033368622737933985 0.0032185487306845375 0.013575208551343889 -0.0005131748755067399 -0.004464120843791463 0.0005971917030038235 0.007150531613288447
 0.00057917061472738 0.0071526619188866485 -0.0005131748755067399 -0.004464120843791463 0.0032214905096281344 0.013575586633943986 0.9962806851414785 -0.033367952987761844
 -0.0005130470329045634 -0.004464117670937439 0.0005971917030038235 0.007150531613288447 0.9962806851414785 -0.033367952987761844 0.003218655899944828 0.01357586168127448
0.055454545454549996 0.0034624600841845813 0.015124479646441834 0.9959622194511351 -0.037045704795257414 0.0006715996362818222 0.00793232493371933 -0.0005930627473343976 -0.004953523764981954
 0.9959622194511351 -0.037045704795257414 0.0034587502083183565 0.01512482267424601 -0.0005932193391021228 -0.004953525836892573 0.000693753257158503 0.007929696678682256
 0.0006715996362818222 0.00793232493371933 -0.0005932193391021228 -0.004953525836892573 0.0034623640127715858 0.015125223340390228 0.9959622388593816 -0.03704496188239879
 -0.0005930627473343976 -0.004953523764981954 0.000693753257158503 0.007929696678682256 0.9959622388593816 -0.03704496188239879 0.0034588815791254785 0.015125544537751882
0.056273447269699996 0.0034998913703815572 0.015359150525963585 0.9959127054565122 -0.03760081254638058 0.0006861630418320983 0.00804985351213946 -0.0006056675828108106 -0.00502732601891319
 0.9959127054565122 -0.03760081254638058 0.0034960713190701088 0.01535950137168617 -0.0006058287531459543 -0.005027327892345077 0.00070897662294172 0.00804714425708874
 0.0006861630418320983 0.00804985351213946 -0.0006058287531459543 -0.005027327892345077 0.0034997923815285915 0.015359905082349417 0.9959127254141323 -0.037600058591524564
 -0.0006056675828108106 -0.00502732601891319 0.00070897662294172 0.00804714425708874 0.9959127254141323 -0.037600058591524564 0.003496206548815038 0.015360233542330879
0.06252605252188 0.003795546147386136 0.017160646684954813 0.9955213970132745 -0.041847369186365155 0.000802866215959474 0.008947413801381105 -0.0007066597895550585 -0.005591166513552868
 0.9955213970132745 -0.041847369186365155 0.0037908317688374674 0.01716106026515192 -0.0007068580302539972 -0.005591166575062665 0.000831040073684358 0.008944031844140816
 0.000802866215959474 0.008947413801381105 -0.0007068580302539972 -0.005591166575062665 0.003795423417307223 0.01716148400115695 0.995521421434262 -0.041846530802637456
 -0.0007066597895550585 -0.005591166513552868 0.000831040073684358 0.008944031844140816 0.995521421434262 -0.041846530802637456 0.003790998289619182 0.017161870627838516
0.06877865777407 0.0041088539222512484 0.018979050954445537 0.9951064358629539 -0.0461082021316523 0.0009293715179211925 0.009845214809872367 -0.0008161188022723583 -0.006155496266123798
 0.9951064358629539 -0.0461082021316523 0.004103151289938485 0.01897953280102843 -0.0008163578256826625 -0.0061554939625928775 0.0009634744693108981 0.009841058888388394
 0.0009293715179211925 0.009845214809872367 -0.0008163578256826625 -0.0061554939625928775 0.004108704843139766 0.018979970716894022 0.9951064652287933 -0.04610727906304075
 -0.0008161188022723583 -0.006155496266123798 0.0009634744693108981 0.009841058888388394 0.9951064652287933 -0.04610727906304075 0.004103352320257853 0.01898042042116782
0.07503126302626001 0.00444013377914643 0.02081402890576896 0.9946675145428854 -0.050383190644153246 0.0010657683292519104 0.01074312366367988 -0.0009341374984225702 -0.00672017093581097
 0.9946675145428854 -0.050383190644153246 0.004433348910530035 0.020814584767407447 -0.0009344209869976925 -0.006720165673549458 0.0011063701678609144 0.010738084921560285
 0.0010657683292519104 0.01074312366367988 -0.0009344209869976925 -0.006720165673549458 0.004439955723647727 0.02081503077122674 0.994667549347196 -0.05038218260445416
 -0.0009341374984225702 -0.00672017093581097 0.0011063701678609144 0.010738084921560285 0.994667549347196 -0.05038218260445416 0.004433587655195222 0.020815548622461964
0.08128386827845 0.004789702655414958 0.022665258182246694 0.9942043264035918 -0.05467218986773173 0.0012121439165204849 0.011641003048111798 -0.0010608064103656784 -0.007285044307554194
 0.9942043264035918 -0.05467218986773173 0.004781741490796115 0.022665894027600955 -0.0010611380169060955 -0.00728503545238179 0.0012598153450693432 0.01163496495024933
 0.0012121439165204849 0.011641003048111798 -0.0010611380169060955 -0.00728503545238179 0.004789492976136092 0.022666341778044437 0.9942043671535995 -0.05467109654074346
 -0.0010608064103656784 -0.007285044307554194 0.0012598153450693432 0.01163496495024933 0.9942043671535995 -0.05467109654074346 0.004782021140055315 0.022666933006394413
0.08753647353064001 0.005157875314086998 0.02453242425785612 0.9937165658628478 -0.05897503502481724 0.0013685833197968618 0.012538711541004912 -0.001196213645547092 -0.007849967998626745
 0.9937165658628478 -0.05897503502481724 0.005148643695827724 0.024533146279425266 -0.00119659699342993 -0.007849954875928907 0.0014238958736533889 0.01253154979007556
 0.0013685833197968618 0.012538711541004912 -0.00119659699342993 -0.007849954875928907 0.005157631341619842 0.024533589183017714 0.9937166130797086 -0.05897385606362474
 -0.001196213645547092 -0.007849967998626745 0.0014238958736533889 0.01253154979007556 0.9937166130797086 -0.05897385606362474 0.005148967422307645 0.024534259182475784
0.09378907878283 0.005544964284416023 0.026415217416613915 0.9932039286314398 -0.06329154439864135 0.0015351692438763751 0.013436103848420167 -0.0013404448017349604 -0.008414791268628851
 0.9932039286314398 -0.06329154439864135 0.005534367935655355 0.02641603203538096 -0.0013408834849450463 -0.008414773163428505 0.0015986952073276071 0.013427686302438705
 0.0015351692438763751 0.013436103848420167 -0.0013408834849450463 -0.008414773163428505 0.005544683327286688 0.026416463242514353 0.9932039828523499 -0.06329027942552339
 -0.0013404448017349604 -0.008414791268628851 0.0015986952073276071 0.013427686302438705 0.9932039828523499 -0.06329027942552339 0.005534738894184987 0.026417217574734513
0.100041684035 0.005951279783553507 0.028313330526984103 0.9926661119233928 -0.06762152152709291 0.001711981951612949 0.014333030992362297 -0.0014935828784075503 -0.008979360883442275
 0.9926661119233928 -0.06762152152709291 0.005939224287515342 0.028314244397782126 -0.0014940804616180446 -0.008979337040478643 0.0017842942678427366 0.014323217583356175
 0.001711981951612949 0.014333030992362297 -0.0014940804616180446 -0.008979337040478643 0.00595095912646993 0.028314656794635507 0.9926661737021681 -0.06762017013688468
 -0.0014935828784075503 -0.008979360883442275 0.0017842942678427366 0.014323217583356175 0.9926661737021681 -0.06762017013688468 0.0059396456121853175 0.028315501193479035
0.1059090909091 0.006350324328321913 0.030108168915378604 0.9921382593022806 -0.07169680806739313 0.0018872723336952927 0.015174143113345863 -0.0016454590429401616 -0.009508780123336953
 0.9921382593022806 -0.07169680806739313 0.006336813562914439 0.030109182189920515 -0.001646015113420895 -0.009508750173365266 0.0019683512984406673 0.015162885314033536
 0.0018872723336952927 0.015174143113345863 -0.001646015113420895 -0.009508750173365266 0.006349963925592717 0.03010957022818432 0.9921383286928527 -0.07169537518791376
 -0.0016454590429401616 -0.009508780123336953 0.0019683512984406673 0.015162885314033536 0.9921383286928527 -0.07169537518791376 0.006337284981878787 0.030110504517980897
0.1062942892872 0.006377129621294451 0.03022645738204766 0.9921028146534526 -0.07196475683776665 0.001899099158504771 0.01522934045895714 -0.0016557081857491846 -0.009543521024834738
 0.9921028146534526 -0.07196475683776665 0.006363520399966947 0.03022747739974289 -0.001656268204269597 -0.009543490648632634 0.001980771333889633 0.015217983113018654
 0.001899099158504771 0.01522934045895714 -0.001656268204269597 -0.009543490648632634 0.006376766524253245 0.03022786360578803 0.9921028845615124 -0.07196331859475259
 -0.0016557081857491846 -0.009543521024834738 0.001980771333889633 0.015217983113018654 0.9921028845615124 -0.07196331859475259 0.006363995202915031 0.030228803982690094
0.11254689453939999 0.006822819093167896 0.0321542914268672 0.9915137376243157 -0.07632102890271808 0.0020965959283394398 0.016124876322341133 -0.0018268982514577847 -0.01010711323066996
 0.9915137376243157 -0.07632102890271808 0.006807561385967764 0.03215542473333876 -0.0018275242111940853 -0.010107075485626808 0.0021882019316233543 0.01611181888102563
 0.0020965959283394398 0.016124876322341133 -0.0018275242111940853 -0.010107075485626808 0.006822410790708021 0.03215577709652291 0.9915138162528104 -0.0763195033392681
 -0.0018268982514577847 -0.01010711323066996 0.0021882019316233543 0.01611181888102563 0.9915138162528104 -0.0763195033392681 0.006808092755759499 0.032156819546623444
0.11879949979160001 0.007288650864180823 0.03409652478375604 0.9908985837096478 -0.08069010540284444 0.0023045445695984127 0.01701947934894951 -0.0020072277258796453 -0.01066997636112385
 0.9908985837096478 -0.08069010540284444 0.00727164970683264 0.03409777877572881 -0.0020079231032240513 -0.010669930371608379 0.00240665872667499 0.01700455749221231
 0.0023045445695984127 0.01701947934894951 -0.0020079231032240513 -0.010669930371608379 0.007288194564033137 0.03409808935897581 0.9908986716698931 -0.08068849202579033
 -0.0020072277258796453 -0.01066997636112385 0.00240665872667499 0.01700455749221231 0.9908986716698931 -0.08068849202579033 0.007272240706143202 0.03409924016821436
0.1250521050438 0.007774924845534562 0.03605284746380299 0.9902570580315613 -0.08507174391338118 0.0025230145324659607 0.01791298709101138 -0.0021967682860416773 -0.011231946582171321
 0.9902570580315613 -0.08507174391338118 0.007756085048614406 0.036054229801423025 -0.0021975365278238315 -0.011231891432600224 0.002636211417072327 0.01789602826181236
 0.0025230145324659607 0.01791298709101138 -0.0021975365278238315 -0.011231891432600224 0.007774417727598628 0.036054490380882605 0.990257155956288 -0.08507004219818189
 -0.0021967682860416773 -0.011231946582171321 0.002636211417072327 0.01789602826181236 0.990257155956288 -0.08507004219818189 0.0077567387125137026 0.03605575603376641
0.131304710296 0.0082819380646421 0.03802294676510698 0.9895888681339398 -0.089465692510461 0.0027520723063446835 0.01880523397560592 -0.002395588539113537 -0.011792857360230207
 0.9895888681339398 -0.089465692510461 0.008261164192104292 0.038024465381499485 -0.0023964330623492403 -0.011792792095145973 0.002876926626565244 0.01878605730617354
 0.0027520723063446835 0.01880523397560592 -0.0023964330623492403 -0.011792792095145973 0.008281377280168273 0.03802466743453706 0.9895889766789672 -0.08946390190443171
 -0.002395588539113537 -0.011792857360230207 0.002876926626565244 0.01878605730617354 0.9895889766789672 -0.08946390190443171 0.008261883526421758 0.0380260546229617
0.1375573155481 0.008695545151908053 0.03974825615328242 0.9890082140121634 -0.09361329584935454 0.002962811768486256 0.019669869875013866 -0.002574644365990878 -0.012326483460875568
 0.9890082140121634 -0.09361329584935454 0.008672735557592645 0.03974988626108753 -0.0025755703749482384 -0.01232640799313639 0.003099611438544998 0.01964849979755829
 0.002962811768486256 0.019669869875013866 -0.0025755703749482384 -0.01232640799313639 0.008694928796283202 0.039750053865024323 0.9890083336784805 -0.09361141600139213
 -0.002574644365990878 -0.012326483460875568 0.003099611438544998 0.01964849979755829 0.9890083336784805 -0.09361141600139213 0.00867352289205603 0.03975153709379346
0.1438099208003 0.009123751767954191 0.041464131643254354 0.9884070542127401 -0.09775006642866095 0.0031820444418497757 0.020530966690461932 -0.002760864513364285 -0.0128567923262719
 0.9884070542127401 -0.09775006642866095 0.009098809770548921 0.04146587922846365 -0.002761875703889141 -0.012856705711220396 0.0033313125647545126 0.020507237464104017
 0.0031820444418497757 0.020530966690461932 -0.002761875703889141 -0.012856705711220396 0.009123077120813738 0.0414660057369653 0.9884071856576864 -0.09774809679179941
 -0.002760864513364285 -0.0128567923262719 0.0033313125647545126 0.020507237464104017 0.9884071856576864 -0.09774809679179941 0.009099667946659026 0.04146758977510049
0.1500625260525 0.009566403029740574 0.043170420132539924 0.9877855481436475 -0.1018758920782617 0.003409691807290409 0.021388435009771122 -0.002954170981535699 -0.013383696448510222
 0.9877855481436475 -0.1018758920782617 0.009539231685775635 0.04317229155578184 -0.002955271042438657 -0.013383597703285195 0.0035719483023736744 0.021362174835322215
 0.003409691807290409 0.021388435009771122 -0.002955271042438657 -0.013383597703285195 0.009565667353703525 0.04317236991893592 0.9877856920439798 -0.10187383208790338
 -0.002954170981535699 -0.013383696448510222 0.0035719483023736744 0.021362174835322215 0.9877856920439798 -0.10187383208790338 0.009540163508393448 0.04317405986280168
0.15631513130469998 0.010023342896559206 0.04486697310842068 0.9871438560933674 -0.10599066122812423 0.003645674389040737 0.02224218700605366 -0.00315448477606598 -0.013907110223442086
 0.9871438560933674 -0.10599066122812423 0.009993844992485948 0.04486897511622118 -0.003155677388843349 -0.013906998327180608 0.0038214359427779783 0.022213218090028998
