! Created with skrf 1.8.0 (http://scikit-rf.org).
# GHz S RI R 50.0 
!freq ReS11 ImS11 ReS12 ImS12 ReS13 ImS13
! ReS14 ImS14
! ReS21 ImS21 ReS22 ImS22 ReS23 ImS23
! ReS24 ImS24
! ReS31 ImS31 ReS32 ImS32 ReS33 ImS33
! ReS34 ImS34
! ReS41 ImS41 ReS42 ImS42 ReS43 ImS43
! ReS44 ImS44
!
0.0 0.001691693428798 0.0 0.9983083065542 0.0 6.566683816586e-05 0.0 -6.56668378985e-05 8.041868284252614e-21
 0.9983083065542 0.0 0.001691693428805 0.0 -6.566683789934e-05 8.041868284355484e-21 6.566683816495e-05 0.0
 6.566683816586e-05 0.0 -6.566683789934e-05 8.041868284355484e-21 0.001691693428812 0.0 0.9983083065542 0.0
 -6.56668378985e-05 8.041868284252614e-21 6.566683816495e-05 0.0 0.9983083065542 0.0 0.001691693428778 0.0
0.005 0.001820639312357057 0.0013804355727370333 0.998145098717827 -0.0035432800225695758 9.268997761563171e-05 0.0007423238019457328 -8.993280059765839e-05 -0.0004625611096373062
 0.998145098717827 -0.0035432800225695758 0.0018206243278039475 0.0013804442954904483 -8.993027770005939e-05 -0.0004625591406857471 9.278894853520038e-05 0.0007422860467963017
 9.268997761563171e-05 0.0007423238019457328 -8.993027770005939e-05 -0.0004625591406857471 0.0018206404069971655 0.00138036762759636 0.9981450983527731 -0.0035433470816810765
 -8.993280059765839e-05 -0.0004625611096373062 9.278894853520038e-05 0.0007422860467963017 0.9981450983527731 -0.0035433470816810765 0.0018206225147262786 0.001380378134102606
0.006252605252188 0.0018546017525761071 0.0017309692395293846 0.9981018218974187 -0.004429945339678143 0.00010047081953906174 0.000928247561452539 -9.685263604920961e-05 -0.0005787949531570139
 0.9981018218974187 -0.004429945339678143 0.0018545783294331398 0.0017309803424887331 -9.684871048606159e-05 -0.0005787925252780551 0.00010062545081411867 0.0009281985233151005
 0.00010047081953906174 0.000928247561452539 -9.684871048606159e-05 -0.0005787925252780551 0.0018546035247614312 0.0017308843114385102 0.9981018213870863 -0.004430029160436359
 -9.685263604920961e-05 -0.0005787949531570139 0.00010062545081411867 0.0009281985233151005 0.9981018213870863 -0.004430029160436359 0.001854575555347264 0.0017308976548336388
0.01250521050438 0.002034224195346601 0.0034980989613616663 0.997871340657334 -0.008860548008074653 0.00014541247683787117 0.001856744261560344 -0.00013648303577487345 -0.00116031741327423
 0.997871340657334 -0.008860548008074653 0.0020341306717411452 0.0034981231691059832 -0.00013646756882491307 -0.0011603129250149044 0.0001460290753922249 0.0018566261619856416
 0.00014541247683787117 0.001856744261560344 -0.00013646756882491307 -0.0011603129250149044 0.0020342318507604504 0.0034979293478107206 0.9978713391869904 -0.00886071543176793
 -0.00013648303577487345 -0.00116031741327423 0.0001460290753922249 0.0018566261619856416 0.9978713391869904 -0.00886071543176793 0.0020341201607504767 0.0034979581723667734
0.01875781575657 0.0022309825288110716 0.0052902140124054696 0.9976165553106339 -0.01330255968305194 0.00020060146345301968 0.002786111358338286 -0.000184686592534276 -0.001743681947461641
 0.9976165553106339 -0.01330255968305194 0.0022307723862417315 0.005290253441291876 -0.0001846521057853173 -0.0017436758424011814 0.00020198649889588893 0.0027858999652112305
 0.00020060146345301968 0.002786111358338286 -0.0001846521057853173 -0.0017436758424011814 0.0022310001763208892 0.005289959836841195 0.9976165524263197 -0.01330281066085466
 -0.000184686592534276 -0.001743681947461641 0.00020198649889588893 0.0027858999652112305 0.9976165524263197 -0.01330281066085466 0.002230749187459008 0.005290006480998621
0.02501042100875 0.002445284290649328 0.007104762060857004 0.9973371454444359 -0.017758095239333593 0.0002661482051291276 0.0037163698921872 -0.0002415869517384279 -0.0023285955016824848
 0.9973371454444359 -0.017758095239333593 0.00244491110817025 0.007104818926631957 -0.00024152605828991341 -0.002328588306980281 0.00026860819646406197 0.003716036897888503
 0.0002661482051291276 0.0037163698921872 -0.00024152605828991341 -0.002328588306980281 0.0024453160458557284 0.007104423425138151 0.9973371406884215 -0.017758429795832496
 -0.0002415869517384279 -0.0023285955016824848 0.00026860819646406197 0.003716036897888503 0.9973371406884215 -0.017758429795832496 0.0024448702802081237 0.0071044904091956945
0.03126302626094 0.002677520110845137 0.008940410148789296 0.9970327754473077 -0.022228036169583052 0.00034216305918700706 0.004647452468073953 -0.00030730376069553736 -0.0029148457419904536
 0.9970327754473077 -0.022228036169583052 0.002676937537831548 0.008940486763281127 -0.0003072091499076562 -0.00291483806925927 0.00034600485133196295 0.00464696546571431
 0.00034216305918700706 0.004647452468073953 -0.0003072091499076562 -0.00291483806925927 0.002677570099348609 0.008939987168830994 0.9970327683571969 -0.022228454367273554
 -0.00030730376069553736 -0.0029148457419904536 0.00034600485133196295 0.00464696546571431 0.9970327683571969 -0.022228454367273554 0.002676874147866988 0.008940077192079362
0.037515631513130004 0.002928071788816762 0.010796274391582067 0.996703102917793 -0.026712800825073404 0.00042875528641543787 0.005579256435171104 -0.00038195354155239395 -0.003502247908307206
 0.996703102917793 -0.026712800825073404 0.0029272335253332778 0.010796373160981526 -0.00038181797121113187 -0.0035022404538198816 0.00043428616892295904 0.005578578878534115
 0.00042875528641543787 0.005579256435171104 -0.00038181797121113187 -0.0035022404538198816 0.0029281441473925853 0.010795767194980769 0.99670309302443 -0.026713302766534677
 -0.00038195354155239395 -0.003502247908307206 0.00043428616892295904 0.005578578878534115 0.99670309302443 -0.026713302766534677 0.0029271426492745367 0.010795883134875586
0.043768236765320004 0.0031973153913838065 0.012671685586261541 0.9963477820915219 -0.03121257873747021 0.0005260325517577726 0.006511660068169007 -0.0004656499907035129 -0.004090628659868365
 0.9963477820915219 -0.03121257873747021 0.00319617517298191 0.01267180900991379 -0.0004654662825861614 -0.004090622204595135 0.0005335603097495601 0.006510751226629938
 0.0005260325517577726 0.006511660068169007 -0.0004654662825861614 -0.004090622204595135 0.003197414271058095 0.012671094315587304 0.9963477689189774 -0.031213164561735545
 -0.0004656499907035129 -0.004090628659868365 0.0005335603097495601 0.006510751226629938 0.9963477689189774 -0.031213164561735545 0.0031960518967680557 0.012671239227780974
0.050020842017509996 0.0034856226834974807 0.014566092333450246 0.9959664656045893 -0.03572742742626551 0.0006341006141122915 0.007444529258324944 -0.0005585040719467716 -0.004679819412835873
 0.9959664656045893 -0.03572742742626551 0.0034841342661900503 0.014566243003373716 -0.0005582651088655531 -0.00467981482240483 0.0006439335431715171 0.007443344169798929
 0.0006341006141122915 0.007444529258324944 -0.0005582651088655531 -0.00467981482240483 0.003485752249437432 0.014565417147139704 0.9959664486674625 -0.03572809730754713
 -0.0005585040719467716 -0.004679819412835873 0.0006439335431715171 0.007443344169798929 0.9959664486674625 -0.03572809730754713 0.00348397368602321 0.014565594266236095
0.055454545454549996 0.003751938534825638 0.016227440994617995 0.9956137081638063 -0.039663187669630943 0.0007368590159198847 0.008255487917283953 -0.0006467183306378928 -0.005192372080050857
 0.9956137081638063 -0.039663187669630943 0.0037501099725092686 0.016227617519247787 -0.000646425615291366 -0.005192369878929262 0.0007489459737337085 0.008254022924697442
 0.0007368590159198847 0.008255487917283953 -0.000646425615291366 -0.005192369878929262 0.003752098164102806 0.016226693025994172 0.995613687553952 -0.03966393076563248
 -0.0006467183306378928 -0.005192372080050857 0.0007489459737337085 0.008254022924697442 0.995613687553952 -0.03966393076563248 0.003749913001720402 0.01622690090051148
0.056273447269699996 0.0037933618450653986 0.016479013490819244 0.9955588055473298 -0.04025731987797641 0.0007530630945844538 0.008377720807896859 -0.0006606240219518861 -0.0052696530791171555
 0.9955588055473298 -0.04025731987797641 0.003791478992338797 0.0164791940915092 -0.0006603227458990852 -0.005269651303755552 0.0007655099939140182 0.008376210231014359
 0.0007530630945844538 0.008377720807896859 -0.0006603227458990852 -0.005269651303755552 0.00379352627977637 0.016478254563357046 0.9955587843511595 -0.040258074025104236
 -0.0006606240219518861 -0.0052696530791171555 0.0007655099939140182 0.008376210231014359 0.9955587843511595 -0.040258074025104236 0.0037912762174996395 0.01647846730396983
0.06252605252188 0.004120897841354624 0.018410012044727073 0.9951244541765484 -0.04480217061252134 0.000883021288387634 0.00931108424155161 -0.0007721153066297863 -0.00585996229406578
 0.9951244541765484 -0.04480217061252134 0.004118574311362004 0.01841022535347441 -0.0007717447175342559 -0.005859964368523036 0.0008983914393455323 0.009309194607677318
 0.000883021288387634 0.00931108424155161 -0.0007717447175342559 -0.005859964368523036 0.004121101344328826 0.01840916957007056 0.9951244282150966 -0.04480300926489624
 -0.0007721153066297863 -0.00585996229406578 0.0008983914393455323 0.009309194607677318 0.9951244282150966 -0.04480300926489624 0.004118324464151437 0.018409421528427766
0.06877865777407 0.004468592601273671 0.020358679526707005 0.9946630644396561 -0.04936185121119548 0.0010240739980914404 0.010244462902146869 -0.0008930805521039793 -0.006450578366404293
 0.9946630644396561 -0.04936185121119548 0.004465782134007987 0.020358928414247347 -0.0008926337070377399 -0.006450585409844474 0.0010426771324295763 0.010242136267553336
 0.0010240739980914404 0.010244462902146869 -0.0008926337070377399 -0.006450585409844474 0.004468839391027328 0.020357753716675774 0.9946630331939318 -0.04936277463976629
 -0.0008930805521039793 -0.006450578366404293 0.0010426771324295763 0.010242136267553336 0.9946630331939318 -0.04936277463976629 0.004465480351878722 0.020358048672820796
0.07503126302626001 0.0048368050816872225 0.022324626150677592 0.9941742903899907 -0.05393620013120222 0.0011763173799842106 0.011177694657104748 -0.0010236194596198532 -0.007041330624576632
 0.9941742903899907 -0.05393620013120222 0.004833461386479528 0.022324913582502832 -0.0010230894722929736 -0.007041343840493302 0.0011984636402550869 0.01117486865551111
 0.0011763173799842106 0.011177694657104748 -0.0010230894722929736 -0.007041343840493302 0.0048370993973018165 0.022323617231502352 0.9941742533277477 -0.053937208641328865
 -0.0010236194596198532 -0.007041330624576632 0.0011984636402550869 0.01117486865551111 0.9941742533277477 -0.053937208641328865 0.004833102824140834 0.022323959151641332
0.08128386827845 0.005225891260940375 0.024307474245229232 0.993657787536203 -0.05852502923320105 0.0013398447994032799 0.012110612372085041 -0.0011638287090669952 -0.0076320460031966166
 0.993657787536203 -0.05852502923320105 0.005221968004220748 0.024307803283056074 -0.0011632087495913191 -0.00763206667928586 0.0013658446933094257 0.012107220167820445
 0.0013398447994032799 0.012110612372085041 -0.0011632087495913191 -0.00763206667928586 0.005226237363085068 0.024306382458015162 0.9936577441101098 -0.05852612316337671
 -0.0011638287090669952 -0.0076320460031966166 0.0013658446933094257 0.012107220167820445 0.9936577441101098 -0.05852612316337671 0.005221547834951879 0.02430677549756875
0.08753647353064001 0.005636204085111098 0.026306853720749514 0.9931132131476081 -0.06312812828235083 0.0015147466909269953 0.013043044260419552 -0.0013138018558719678 -0.008222548761439116
 0.9931132131476081 -0.06312812828235083 0.005631654877663422 0.02630722752464274 -0.0013130851506543918 -0.008222578269478373 0.0015449110405994252 0.01303901450215241
 0.0015147466909269953 0.013043044260419552 -0.0013130851506543918 -0.008222578269478373 0.00563660625701582 0.026305679323797636 0.9931131627938586 -0.06312930800103377
 -0.0013138018558719678 -0.008222548761439116 0.0015449110405994252 0.01303901450215241 0.9931131627938586 -0.06312930800103377 0.005631168295087853 0.026306127830830587
0.09378907878283 0.0060680933795727605 0.028322398838716487 0.9925402265306223 -0.06774526815604709 0.0017011104223735893 0.013974814138806265 -0.0014736292225109536 -0.00881266030303098
 0.9925402265306223 -0.06774526815604709 0.006062871764478404 0.028322820669639624 -0.0014728090543381109 -0.008812700098741086 0.0017357503095164599 0.013970070914175821
 0.0017011104223735893 0.013974814138806265 -0.0014728090543381109 -0.008812700098741086 0.006068555928687639 0.02832114210545368 0.992540168667713 -0.06774653406291226
 -0.0014736292225109536 -0.00881266030303098 0.0017357503095164599 0.013970070914175821 0.992540168667713 -0.06774653406291226 0.006062313984636357 0.028321650624520616
0.100041684035 0.0065219057394293725 0.030353745851267606 0.9919384892859716 -0.07237620319055735 0.001899020161545116 0.01490574163178323 -0.001643397786289335 -0.009402199055615889
 0.9919384892859716 -0.07237620319055735 0.006515965178990214 0.030354219074109214 -0.0016424674945018482 -0.009402250678516714 0.001938446868873192 0.014900204422790329
 0.001899020161545116 0.01490574163178323 -0.0016424674945018482 -0.009402250678516714 0.006522432998650009 0.030352407066596077 0.9919384233136492 -0.07237755571902312
 -0.001643397786289335 -0.009402199055615889 0.001938446868873192 0.014900204422790329 0.9919384233136492 -0.07237755571902312 0.006515331442280796 0.03035298034321546
0.1059090909091 0.006968005090464674 0.032273997391936225 0.9913473751078636 -0.07673415929181542 0.0020953104802245606 0.015778387995884314 -0.0018118234298292047 -0.009954733281510196
 0.9913473751078636 -0.07673415929181542 0.0069613474680398826 0.03227452199660129 -0.0018107837914849844 -0.009954797477664415 0.002139512343624154 0.015772028345589037
 0.0020953104802245606 0.015778387995884314 -0.0018107837914849844 -0.009954797477664415 0.006968597037212973 0.03227258188496315 0.9913473009614103 -0.07673559352395175
 -0.0018118234298292047 -0.009954733281510196 0.002139512343624154 0.015772028345589037 0.9913473009614103 -0.07673559352395175 0.0069606381482137155 0.03227322042891725
0.1062942892872 0.006997984400048064 0.03240053122599103 0.9913076655512287 -0.07702067295200406 0.002108556744601097 0.0158356423379257 -0.001823191064672537 -0.009990980396636154
 0.9913076655512287 -0.07702067295200406 0.0069912782637329965 0.03240105931306211 -0.0018221440453995202 -0.009991045469878201 0.002153081694120806 0.015829225977344992
 0.002108556744601097 0.0158356423379257 -0.0018221440453995202 -0.009991045469878201 0.006998580728337518 0.03239911069038334 0.991307590848555 -0.07702211256416702
 -0.001823191064672537 -0.009990980396636154 0.002153081694120806 0.015829225977344992 0.991307590848555 -0.07702211256416702 0.006990563836490372 0.03239975367586412
0.11254689453939999 0.0074966690956835905 0.034462390305633334 0.9906474222344053 -0.08167840358205902 0.0023297975461635235 0.016764327972697852 -0.002013088998478473 -0.010578816611063404
 0.9906474222344053 -0.08167840358205902 0.007489150647062514 0.03446297684078502 -0.002011918705009105 -0.01057889684127438 0.0023797322344899117 0.016756942601489487
 0.0023297975461635235 0.016764327972697852 -0.002011918705009105 -0.01057889684127438 0.007497338880158203 0.03446088833126056 0.9906473381591008 -0.0816799307713492
 -0.002013088998478473 -0.010578816611063404 0.0023797322344899117 0.016756942601489487 0.9906473381591008 -0.0816799307713492 0.0074883508243278815 0.03446160618813341
0.11879949979160001 0.00801829590744858 0.036538956264165395 0.9899574292395861 -0.08634910885753005 0.0025628163505548914 0.017691606494185854 -0.0022131678337780313 -0.011165516874833515
 0.9899574292395861 -0.08634910885753005 0.00800991829157683 0.036539604947325326 -0.0022118677769121524 -0.011165614051896732 0.0026184722817598075 0.017683157519953335
 0.0025628163505548914 0.017691606494185854 -0.0022118677769121524 -0.011165614051896732 0.008019043563695604 0.036537373173969934 0.9899573351259517 -0.08635072414842682
 -0.0022131678337780313 -0.011165516874833515 0.0026184722817598075 0.017683157519953335 0.9899573351259517 -0.08635072414842682 0.008009028398588898 0.0365381712818779
0.1250521050438 0.008563197102927694 0.038629859295455454 0.9892373596874573 -0.09103249102742414 0.00280768322424664 0.018617282218026145 -0.002423500002890379 -0.01175088725774163
 0.9892373596874573 -0.09103249102742414 0.008553913333539201 0.03863057394778637 -0.0024220637514420855 -0.011751003254614364 0.002869371840043129 0.01860767027467354
 0.00280768322424664 0.018617282218026145 -0.0024220637514420855 -0.011751003254614364 0.008564027076870845 0.03862819542327857 0.989237254845609 -0.09103419497393998
 -0.002423500002890379 -0.01175088725774163 0.002869371840043129 0.01860767027467354 0.989237254845609 -0.09103419497393998 0.008552928728022149 0.0386290793855411
0.131304710296 0.009131700969213931 0.04073472596924291 0.9884868901318651 -0.09572824149342402 0.0030644643892629 0.019541155925698307 -0.002644154004836068 -0.012334730741918461
 0.9884868901318651 -0.09572824149342402 0.009121463916111416 0.04073551053876488 -0.002642575186113694 -0.012334867514421997 0.003132496997231842 0.01953027683429578
 0.0030644643892629 0.019541155925698307 -0.002642575186113694 -0.012334867514421997 0.009132617737910218 0.04073298165714125 0.988486773845916 -0.09573003468042982
 -0.002644154004836068 -0.012334730741918461 0.003132496997231842 0.01953027683429578 0.988486773845916 -0.09573003468042982 0.009120379990460503 0.04073395730766076
0.1375573155481 0.00959898081716394 0.042578515196619336 0.9878309126054685 -0.10016121286944736 0.0033019935345193862 0.02043595088260814 -0.0028438954284662164 -0.012889854993602193
 0.9878309126054685 -0.10016121286944736 0.0095877387642141 0.04257935477299278 -0.0028421644632871824 -0.01289001283334097 0.003376527682954923 0.02042381430304142
 0.0033019935345193862 0.02043595088260814 -0.0028421644632871824 -0.01289001283334097 0.009599987940045525 0.04257669081242689 0.9878307843296117 -0.10016309566513383
 -0.0028438954284662164 -0.012889854993602193 0.003376527682954923 0.02042381430304142 0.9878307843296117 -0.10016309566513383 0.009586551533843623 0.04257774475703933
0.1438099208003 0.01008285309228702 0.04441162394489626 0.9871515669966611 -0.10458197569795713 0.003549079626174326 0.02132660152003236 -0.0030515936655081633 -0.013441130705442703
 0.9871515669966611 -0.10458197569795713 0.010070558012304488 0.0444125213622116 -0.0030497036884668473 -0.013441311552399665 0.0036303986945761917 0.02131311155049559
 0.003549079626174326 0.02132660152003236 -0.0030497036884668473 -0.013441311552399665 0.01008395492759798 0.04440971988555279 0.9871514260125507 -0.104583948677201
 -0.0030515936655081633 -0.013441130705442703 0.0036303986945761917 0.02131311155049559 0.9871514260125507 -0.104583948677201 0.010069263030061608 0.0444108568599279
0.1500625260525 0.010583133098593746 0.04623387041663976 0.9864490428830137 -0.10899039110396833 0.003805627805383118 0.022213000022911513 -0.0032671553863803573 -0.01398845474468192
 0.9864490428830137 -0.10899039110396833 0.010569736801505915 0.04623482870746425 -0.0032650995497375697 -0.013988660616965387 0.003894013276507838 0.02219805725411325
 0.003805627805383118 0.022213000022911513 -0.0032650995497375697 -0.013988660616965387 0.01058433402473445 0.04623188709163403 0.9864488884500846 -0.10899245486362721
 -0.0032671553863803573 -0.01398845474468192 0.003894013276507838 0.02219805725411325 0.9864488884500846 -0.10899245486362721 0.010568329660748384 0.04623311210702016
0.15631513130469998 0.01109963465096008 0.04804507823567494 0.9857235310062417 -0.11338632134910555 0.004071541989058524 0.02309504062559741 -0.0034904860132800755 -0.014531726334923199
 0.9857235310062417 -0.11338632134910555 0.011085088779674563 0.04804610063820569 -0.003488257487405377 -0.014531959328366158 0.004167273417074232 0.023078542180441017
