! Created with skrf 1.8.0 (http://scikit-rf.org).
# GHz S RI R 50.0 
!freq ReS11 ImS11 ReS12 ImS12 ReS13 ImS13
! ReS14 ImS14
! ReS21 ImS21 ReS22 ImS22 ReS23 ImS23
! ReS24 ImS24
! ReS31 ImS31 ReS32 ImS32 ReS33 ImS33
! ReS34 ImS34
! ReS41 ImS41 ReS42 ImS42 ReS43 ImS43
! ReS44 ImS44
!
0.0 0.001562217942876 0.0 0.9984377820571 0.0 6.036698555988e-05 0.0 -6.036698520427e-05 7.392823520458488e-21
 0.9984377820571 0.0 0.001562217942862 0.0 -6.03669852041e-05 7.39282352043767e-21 6.036698555906e-05 0.0
 6.036698555988e-05 0.0 -6.03669852041e-05 7.39282352043767e-21 0.001562217930619 0.0 0.9984377820449 0.0
 -6.036698520427e-05 7.392823520458488e-21 6.036698555906e-05 0.0 0.9984377820449 0.0 0.00156221793061 0.0
0.005 0.001680899779059582 0.0012765570066612364 0.9982876368034093 -0.003272420953049473 8.475356913051697e-05 0.0006738538737529464 -8.232933091748549e-05 -0.00042142287090023405
 0.9982876368034093 -0.003272420953049473 0.0016808854815549739 0.0012765653325845332 -8.232508664016124e-05 -0.0004214196133559509 8.485333432406342e-05 0.0006738158599387815
 8.475356913051697e-05 0.0006738538737529464 -8.232508664016124e-05 -0.0004214196133559509 0.001680901585597805 0.0012764886559938993 0.9982876364374964 -0.0032724880084604308
 -8.232933091748549e-05 -0.00042142287090023405 8.485333432406342e-05 0.0006738158599387815 0.9982876364374964 -0.0032724880084604308 0.001680882947651085 0.0012764995754908335
0.006252605252188 0.0017120457017842446 0.0016007220184396072 0.9982479865650236 -0.0040913244625722465 9.170861345839922e-05 0.0008426400159514349 -8.853835437148177e-05 -0.0005273243154154606
 0.9982479865650236 -0.0040913244625722465 0.0017120233527277416 0.0016007326242012153 -8.853174989920146e-05 -0.0005273202990762595 9.186448701221955e-05 0.0008425906571184376
 9.170861345839922e-05 0.0008426400159514349 -8.853174989920146e-05 -0.0005273202990762595 0.0017120486134196275 0.0016006365796539703 0.9982479860801909 -0.004091408280410997
 -8.853835437148177e-05 -0.0005273243154154606 9.186448701221955e-05 0.0008425906571184376 0.9982479860801909 -0.004091408280410997 0.0017120194786676367 0.0016006504343733753
0.01250521050438 0.0018761165009642039 0.003235001038124382 0.998037747649277 -0.008183440668763718 0.00013153163763167917 0.0016856189159146337 -0.00012381156888861746 -0.0010572012330492592
 0.998037747649277 -0.008183440668763718 0.0018760272652975224 0.0032350242328411318 -0.0001237855407309649 -0.001057193810648855 0.00013215321823612327 0.001685500311100101
 0.00013153163763167917 0.0016856189159146337 -0.0001237855407309649 -0.001057193810648855 0.0018761286812145654 0.0032348303754649067 0.9980377462610097 -0.008183608062819155
 -0.00012381156888861746 -0.0010572012330492592 0.00013215321823612327 0.001685500311100101 0.9980377462610097 -0.008183608062819155 0.001876012340556249 0.003234860175698096
0.01875781575657 0.002054792525187715 0.004892545777406969 0.9978068010017772 -0.012286304826340178 0.00017993020447163246 0.0025295095347761527 -0.0001662961146335545 -0.0015888528830300254
 0.9978068010017772 -0.012286304826340178 0.0020545920169213827 0.004892583638301184 -0.0001662380701330336 -0.0015888427845355084 0.0001813265006840418 0.0025292978617050513
 0.00017993020447163246 0.0025295095347761527 -0.0001662380701330336 -0.0015888427845355084 0.0020548203281367536 0.004892289913898223 0.9978067983024737 -0.012286555717564337
 -0.0001662961146335545 -0.0015888528830300254 0.0001813265006840418 0.0025292978617050513 0.9978067983024737 -0.012286555717564337 0.002054558895972467 0.004892337957840736
0.02501042100875 0.002248425069547314 0.006571027833897261 0.9975548717972456 -0.016401899198812298 0.0002369991464016974 0.0033743476668181573 -0.00021609783358468885 -0.00212203227092491
 0.9975548717972456 -0.016401899198812298 0.0022480689970703215 0.0065710825180333885 -0.00021599533037083 -0.0021220203586373733 0.0002394792709780463 0.0033740153035608585
 0.0002369991464016974 0.0033743476668181573 -0.00021599533037083 -0.0021220203586373733 0.0022484748429180083 0.006570686734034742 0.9975548673769529 -0.01640223354062047
 -0.00021609783358468885 -0.00212203227092491 0.0002394792709780463 0.0033740153035608585 0.9975548673769529 -0.01640223354062047 0.002248010543081219 0.0065707555070207875
0.03126302626094 0.0024573509079555524 0.008269245664938344 0.9972816713380648 -0.020531068089512914 0.0003028335151043588 0.004220090339172019 -0.0002733195177653896 -0.002656565109345736
 0.9972816713380648 -0.020531068089512914 0.00245679504910561 0.008269319405801535 -0.00027316023815757487 -0.0026565523794560785 0.00030670697106200014 0.004219605842432549
 0.0003028335151043588 0.004220090339172019 -0.00027316023815757487 -0.0026565523794560785 0.0024574289968885355 0.008268819238961177 0.9972816647847821 -0.02053148586364417
 -0.0002733195177653896 -0.002656565109345736 0.00030670697106200014 0.004219605842432549 0.9972816647847821 -0.02053148586364417 0.002456704132343913 0.008268911410193903
0.037515631513130004 0.0026818994858647358 0.009986413322503277 0.9969869044906676 -0.024674229044270024 0.0003775277455824189 0.005066663420743384 -0.0003380616514320357 -0.0031923022245638243
 0.9969869044906676 -0.024674229044270024 0.0026810996705912567 0.00998650842793216 -0.00033783338955098067 -0.0031922898076327828 0.0003831045532471059 0.005065991487974421
 0.0003775277455824189 0.005066663420743384 -0.00033783338955098067 -0.0031922898076327828 0.0026820122362350867 0.009985901439685937 0.9969868953910825 -0.024674730247195156
 -0.0003380616514320357 -0.0031923022245638243 0.0003831045532471059 0.005065991487974421 0.9969868953910825 -0.024674730247195156 0.0026809691680487534 0.009986019861215702
0.043768236765320004 0.002922395693941164 0.01172194402056255 0.9966702727011164 -0.02883158921294548 0.0004611752565415203 0.005913976108005863 -0.0004104226735780339 -0.0037291050788658283
 0.9966702727011164 -0.02883158921294548 0.0029213077901943892 0.01172206287114685 -0.00041011332764497824 -0.003729094239971804 0.00046876601280919757 0.005913077534442724
 0.0004611752565415203 0.005913976108005863 -0.00041011332764497824 -0.003729094239971804 0.002922549453385096 0.011721346502360909 0.9966702606404926 -0.028832173862181044
 -0.0004104226735780339 -0.0037291050788658283 0.00046876601280919757 0.005913077534442724 0.9966702606404926 -0.028832173862181044 0.0029211305853926927 0.01172149420895504
0.050020842017509996 0.0031791611541266726 0.013475360671549731 0.9963314755253128 -0.03300323474004004 0.000553868203924595 0.0067619269036465575 -0.0004904990707751673 -0.004266839800238508
 0.9963314755253128 -0.03300323474004004 0.0031777410550904188 0.013475505719612858 -0.0004900966382443617 -0.004266831939043277 0.0005637841052775098 0.006760758537316519
 0.000553868203924595 0.0067619269036465575 -0.0004900966382443617 -0.004266831939043277 0.0031793622727693785 0.013474677308077164 0.9963314600869397 -0.03300390285724709
 -0.0004904990707751673 -0.004266839800238508 0.0005637841052775098 0.006760758537316519 0.9963314600869397 -0.03300390285724709 0.0031775100379932727 0.013474857517523467
0.055454545454549996 0.003415758562270207 0.01501333786031407 0.9960188154189306 -0.036640130981628834 0.0006418376769752227 0.007499255374726503 -0.0005664271956090991 -0.004734801721232162
 0.9960188154189306 -0.036640130981628834 0.0034140139661076015 0.015013507721467596 -0.0005659341950982461 -0.0047347976889582696 0.000654027396315671 0.00749781440553582
 0.0006418376769752227 0.007499255374726503 -0.0005659341950982461 -0.0047347976889582696 0.003416005996146256 0.015012579688337808 0.9960187967043422 -0.03664087166686455
 -0.0005664271956090991 -0.004734801721232162 0.000654027396315671 0.00749781440553582 0.9960187967043422 -0.03664087166686455 0.0034137304146340756 0.015012790899802885
0.056273447269699996 0.0034525148785208453 0.01524625198776919 0.9959702115356576 -0.037189174592215504 0.000655697302877748 0.007610406558518583 -0.0005783853929078858 -0.004805374251398863
 0.9959702115356576 -0.037189174592215504 0.0034507184908704742 0.015246425756553085 -0.000577877967232521 -0.0048053709021309956 0.0006682501467146798 0.00760892125438998
 0.000655697302877748 0.007610406558518583 -0.000577877967232521 -0.0048053709021309956 0.0034527697088439437 0.015245482520595368 0.9959701922999199 -0.03718992621968037
 -0.0005783853929078858 -0.004805374251398863 0.0006682501467146798 0.00760892125438998 0.9959701922999199 -0.03718992621968037 0.00345042655741102 0.015245698634612299
0.06252605252188 0.003742773617730721 0.01703424834065625 0.9955861789212417 -0.04138936463074543 0.0007667516832588039 0.008459299684975686 -0.0006741742300481193 -0.0053445764310845745
 0.9955861789212417 -0.04138936463074543 0.0037405568505286127 0.017034453423919658 -0.0006735499985847812 -0.00534457926251009 0.0007822538548271764 0.00845744625877601
 0.0007667516832588039 0.008459299684975686 -0.0006735499985847812 -0.00534457926251009 0.0037430885155201846 0.017033392478453264 0.9955861554655097 -0.041390199815147764
 -0.0006741742300481193 -0.0053445764310845745 0.0007822538548271764 0.00845744625877601 0.9955861554655097 -0.041390199815147764 0.003740196903036218 0.01703364808379608
0.06877865777407 0.004050252041395487 0.01883900737387262 0.9951790759232892 -0.0456037219344139 0.0008871187634094236 0.009308485727439725 -0.0007779561675074578 -0.005884313522345037
 0.9951790759232892 -0.0456037219344139 0.004047570794723748 0.018839246435794946 -0.000777203410012982 -0.005884324337714685 0.0009058832123168072 0.009306208909514497
 0.0008871187634094236 0.009308485727439725 -0.000777203410012982 -0.005884324337714685 0.00405063336599548 0.018838064783491256 0.995179047821634 -0.04560464073509716
 -0.0007779561675074578 -0.005884313522345037 0.0009058832123168072 0.009306208909514497 0.995179047821634 -0.04560464073509716 0.004047135742853092 0.01883836365358564
0.07503126302626001 0.0043752628194409 0.020660204883088555 0.9947486011758861 -0.04983213386034443 0.001016884134913892 0.010157839580200806 -0.0008898197265910489 -0.006424451298250127
 0.9947486011758861 -0.04983213386034443 0.004372072973821216 0.02066048065852335 -0.0008889268143963215 -0.006424472035220936 0.0010392243442992465 0.010155079969542544
 0.001016884134913892 0.010157839580200806 -0.0008889268143963215 -0.006424472035220936 0.004375716933990654 0.02065917518767395 0.9947485679986775 -0.04983313635049025
 -0.0008898197265910489 -0.006424451298250127 0.0010392243442992465 0.010155079969542544 0.9947485679986775 -0.04983313635049025 0.004371555734424651 0.020659521284520466
0.08128386827845 0.00471811664012658 0.02249752873847181 0.994294453987316 -0.0540744640673297 0.0011561314541969842 0.011007232004046606 -0.0010098512966332685 -0.006964853733620345
 0.994294453987316 -0.0540744640673297 0.004714374045323402 0.022497844033616207 -0.0010088066920373394 -0.006964886464172181 0.001182361403595881 0.011003926022733245
 0.0011561314541969842 0.011007232004046606 -0.0010088066920373394 -0.006964886464172181 0.004718649911654463 0.02249641152217383 0.9942944153006554 -0.05407555032853688
 -0.0010098512966332685 -0.006964853733620345 0.001182361403595881 0.011003926022733245 0.9942944153006554 -0.05407555032853688 0.004713767543673698 0.022496808998588712
0.08753647353064001 0.005079122186420944 0.024350674699982092 0.9938163345827341 -0.058330556651785645 0.001304942337907899 0.01185652992076969 -0.001138135060818213 -0.007505382744001349
 0.9938163345827341 -0.058330556651785645 0.0050747826507048744 0.02435103239329164 -0.001136927316946752 -0.0075054296743258 0.001335376461464215 0.011852609768855535
 0.001304942337907899 0.01185652992076969 -0.001136927316946752 -0.0075054296743258 0.005079740986085596 0.024349469504210134 0.9938162899481103 -0.05833172677704127
 -0.001138135060818213 -0.007505382744001349 0.001335376461464215 0.011852609768855535 0.9938162899481103 -0.05833172677704127 0.005074079820589198 0.024349922706548267
0.09378907878283 0.005458586083654449 0.026219343414966605 0.9933139443227984 -0.06260023910736837 0.0014633962617001304 0.012705596631321524 -0.001274752917249312 -0.008045898006298879
 0.9933139443227984 -0.06260023910736837 0.005453605362809027 0.02621974645849637 -0.0012733706779868334 -0.008045961476680104 0.0014983494022412262 0.012700990242287886
 0.0014633962617001304 0.012705596631321524 -0.0012733706779868334 -0.008045961476680104 0.005459296786559693 0.026218049742285244 0.9933138932965576 -0.06260149319642924
 -0.001274752917249312 -0.008045898006298879 0.0014983494022412262 0.012700990242287886 0.9933138932965576 -0.06260149319642924 0.0054527991476968065 0.026218563213437962
0.100041684035 0.005856812825901388 0.02810323822957577 0.9927869859034738 -0.06688332447680236 0.0016315704603412295 0.013554291981597591 -0.0014197843970397968 -0.008586256837222537
 0.9927869859034738 -0.06688332447680236 0.005851146612252053 0.028103689650728337 -0.0014182163972912922 -0.008586339321887525 0.00167135781999775 0.0135489229784959
 0.0016315704603412295 0.013554291981597591 -0.0014182163972912922 -0.008586339321887525 0.0058576218114867904 0.028101855534253883 0.9927869280366979 -0.06688466264483922
 -0.0014197843970397968 -0.008586256837222537 0.00167135781999775 0.0135489229784959 0.9927869280366979 -0.06688466264483922 0.00585022996573324 0.028102434017063888
0.1059090909091 0.00624784028172973 0.029884658337768284 0.9922698833499014 -0.0709145578173718 0.0017982913390054173 0.014350237041415349 -0.0015636018508461474 -0.009093054769776447
 0.9922698833499014 -0.0709145578173718 0.006241490442206137 0.029885157978527064 -0.0015618493704718302 -0.009093157466791438 0.0018429020473165365 0.014344079064215734
 0.0017982913390054173 0.014350237041415349 -0.0015618493704718302 -0.009093157466791438 0.006248747301005095 0.02988319157219623 0.9922698186503176 -0.07091597499494207
 -0.0015636018508461474 -0.009093054769776447 0.0018429020473165365 0.014344079064215734 0.9922698186503176 -0.07091597499494207 0.006240463768852745 0.02988383555658703
0.1062942892872 0.00627410468795284 0.030002063536325292 0.9922351635454667 -0.07117961297391838 0.0018095398294928396 0.014402472496090408 -0.0015733065797287438 -0.009126314109480477
 0.9922351635454667 -0.07117961297391838 0.006267708599244165 0.030002566439955906 -0.0015715416457452106 -0.0091264182164428 0.0018544769171438542 0.01439626014830954
 0.0018095398294928396 0.014402472496090408 -0.0015715416457452106 -0.0091264182164428 0.006275018339869648 0.03000059123216507 0.9922350983830979 -0.07118103534287303
 -0.0015733065797287438 -0.009126314109480477 0.0018544769171438542 0.01439626014830954 0.9922350983830979 -0.07118103534287303 0.006266674486043976 0.030001239673254968
0.11254689453939999 0.006710761624441555 0.031915523519407726 0.9916581831739959 -0.07548889321455651 0.0019973768282113306 0.015249991488299013 -0.0017353940068247872 -0.00966592219688699
 0.9916581831739959 -0.07548889321455651 0.006703591192721851 0.0319160810903857 -0.001733421056658051 -0.009666050667762782 0.0020477794043408837 0.015242850669193984
 0.0019973768282113306 0.015249991488299013 -0.001733421056658051 -0.009666050667762782 0.006711786330813732 0.031913960975483865 0.991658110254936 -0.07549039991654721
 -0.0017353940068247872 -0.00966592219688699 0.0020477794043408837 0.015242850669193984 0.991658110254936 -0.07549039991654721 0.006702432589920047 0.03191468452946685
0.11879949979160001 0.00716708116063192 0.03384332117881106 0.9910557525923964 -0.079810943175335 0.0021951513822826246 0.0160966991552779 -0.0019061185938450017 -0.010204930941262923
 0.9910557525923964 -0.079810943175335 0.0071590918210648665 0.0338439366849303 -0.0019039266379705837 -0.010205086651069208 0.0022513354012525916 0.01608854030059275
 0.0021951513822826246 0.0160966991552779 -0.0019039266379705837 -0.010205086651069208 0.007168223313803037 0.03384166771781338 0.9910556714490311 -0.07981253435353015
 -0.0019061185938450017 -0.010204930941262923 0.0022513354012525916 0.01608854030059275 0.9910556714490311 -0.07981253435353015 0.007157801718483357 0.03384247175194355
0.1250521050438 0.007643358275788481 0.035785157561054055 0.9904275816526827 -0.08414553095285504 0.0024029307880607254 0.016942442661736955 -0.002085549541295507 -0.010743187635665718
 0.9904275816526827 -0.08414553095285504 0.007634505355068104 0.035785834356468156 -0.002083127683298693 -0.010743373592582236 0.0024652123380073648 0.016933171728937508
 0.0024029307880607254 0.016942442661736955 -0.002083127683298693 -0.010743373592582236 0.0076446242723074 0.03578341245949707 0.9904274918097578 -0.08414720676029756
 -0.002085549541295507 -0.010743187635665718 0.0024652123380073648 0.016933171728937508 0.9904274918097578 -0.08414720676029756 0.007633076756516191 0.03578430255877541
0.131304710296 0.00813988527983527 0.03774073114533389 0.9897733824203543 -0.08849241537465956 0.0026207796167340537 0.01778706621685264 -0.0022737532448152747 -0.011280537021047043
 0.9897733824203543 -0.08849241537465956 0.00813012398516701 0.037741472674340755 -0.0022710906820534514 -0.011280756366190468 0.0026894748575349995 0.017776584645350854
 0.0026207796167340537 0.01778706621685264 -0.0022710906820534514 -0.011280756366190468 0.008141281520448115 0.03773889363332332 0.9897732833954264 -0.08849417597367787
 -0.0022737532448152747 -0.011280537021047043 0.0026894748575349995 0.017776584645350854 0.9897732833954264 -0.08849417597367787 0.008128549909463588 0.03773987560589395
0.1375573155481 0.00854409897643742 0.03945458978287225 0.989205769972963 -0.09259606705114358 0.002821170578304737 0.01860485432684851 -0.002443132057321031 -0.01179134148743162
 0.989205769972963 -0.09259606705114358 0.008533380113229974 0.03945538059387276 -0.0024402127802444665 -0.011791594520640315 0.0028964385052436944 0.018593176034768216
 0.002821170578304737 0.01860485432684851 -0.0024402127802444665 -0.011791594520640315 0.00854563125137386 0.0394526589348133 0.9892056613454904 -0.0925979125114272
 -0.002443132057321031 -0.01179134148743162 0.0028964385052436944 0.018593176034768216 0.9892056613454904 -0.0925979125114272 0.00853165407840456 0.039453719849130556
0.1438099208003 0.00896256979330781 0.041159247472253954 0.9886181399893107 -0.09668914615869492 0.0030296397830078927 0.0194192946401333 -0.002619283344102238 -0.012299026506160037
 0.9886181399893107 -0.09668914615869492 0.008950847727987788 0.041160089830482915 -0.0026160957473318294 -0.012299316320969455 0.003111768266925875 0.01940632935230626
 0.0030296397830078927 0.0194192946401333 -0.0026160957473318294 -0.012299316320969455 0.008964244399829492 0.04115722248460005 0.9886180212793148 -0.09669107663511219
 -0.002619283344102238 -0.012299026506160037 0.003111768266925875 0.01940632935230626 0.9886180212793148 -0.09669107663511219 0.008948962861955463 0.04115836705804289
0.1500625260525 0.00939514835427436 0.042854556563708554 0.9880106461569786 -0.10077154587630137 0.003246113594574717 0.02023030291391765 -0.0028021344760413213 -0.012803510545865671
 0.9880106461569786 -0.10077154587630137 0.009382377312732375 0.0428554528952438 -0.0027986669816017773 -0.012803840359981663 0.0033353887579327824 0.020215957059024788
 0.003246113594574717 0.02023030291391765 -0.0027986669816017773 -0.012803840359981663 0.009396971587013933 0.04285243660026398 0.9880105168778957 -0.10077356152791958
 -0.0028021344760413213 -0.012803510545865671 0.0033353887579327824 0.020215957059024788 0.9880105168778957 -0.10077356152791958 0.00938032676281656 0.04285366981202295
0.15631513130469998 0.009841684195595352 0.044540373844843224 0.9873834429780097 -0.10484315986732548 0.003470517491924338 0.021037796378191653 -0.0029916119123114785 -0.013304713824851455
 0.9873834429780097 -0.10484315986732548 0.009827818259028748 0.044541326742614636 -0.0029878529700204325 -0.013305086979618781 0.0035672236815423464 0.02102197312368945
