! Created with skrf 1.8.0 (http://scikit-rf.org).
# GHz S RI R 50.0 
!freq ReS11 ImS11 ReS12 ImS12 ReS13 ImS13
! ReS14 ImS14
! ReS21 ImS21 ReS22 ImS22 ReS23 ImS23
! ReS24 ImS24
! ReS31 ImS31 ReS32 ImS32 ReS33 ImS33
! ReS34 ImS34
! ReS41 ImS41 ReS42 ImS42 ReS43 ImS43
! ReS44 ImS44
!
0.0 0.001578153272105 0.0 0.9984218467107 0.0 6.099581544875e-05 0.0 -6.09958154488e-05 7.46983301507556e-21
 0.9984218467107 0.0 0.001578153272131 0.0 -6.099581544904e-05 7.469833015104952e-21 6.099581544908e-05 0.0
 6.099581544875e-05 0.0 -6.099581544904e-05 7.469833015104952e-21 0.001578153280716 0.0 0.9984218467193 0.0
 -6.09958154488e-05 7.46983301507556e-21 6.099581544908e-05 0.0 0.9984218467193 0.0 0.001578153280729 0.0
0.005 0.0016980645689514892 0.0012898005924407714 0.9982701070665518 -0.0033057342432993454 8.579808109949197e-05 0.0006793136689262723 -8.317752337931253e-05 -0.0004251238154450626
 0.9982701070665518 -0.0033057342432993454 0.0016981009595504947 0.0012897793918953114 -8.318176786261221e-05 -0.0004251270735041524 8.555426256356636e-05 0.0006794064106015983
 8.579808109949197e-05 0.0006793136689262723 -8.318176786261221e-05 -0.0004251270735041524 0.0016980620356415227 0.0012897348322182748 0.998270106702973 -0.003305801306009048
 -8.317752337931253e-05 -0.0004251238154450626 8.555426256356636e-05 0.0006794064106015983 0.998270106702973 -0.003305801306009048 0.001698102773338097 0.0012897110329726717
0.006252605252188 0.0017295394454779798 0.0016173257807854868 0.9982300159986535 -0.004132971874087299 9.292689242013974e-05 0.0008494640055919564 -8.945355768752097e-05 -0.0005319541666964438
 0.9982300159986535 -0.004132971874087299 0.0017295963301979648 0.0016172988552244666 -8.94601624620502e-05 -0.0005319581835857715 9.254594763676641e-05 0.0008495844574531519
 9.292689242013974e-05 0.0008494640055919564 -8.94601624620502e-05 -0.0005319581835857715 0.0017295355605488844 0.0016172435929924394 0.9982300155056978 -0.004133055696737429
 -8.945355768752097e-05 -0.0005319541666964438 9.254594763676641e-05 0.0008495844574531519 0.9982300155056978 -0.004133055696737429 0.0017295992415103229 0.001617213411817514
0.01250521050438 0.0018953806266195023 0.0032685293365397297 0.9980173263578108 -0.008266718651634709 0.00013403374402627384 0.0016992306742200358 -0.00012513445110644083 -0.001066473333890484
 0.9980173263578108 -0.008266718651634709 0.0018956077648771817 0.003268471225654682 -0.0001251604803198056 -0.0010664807558572866 0.00013251458701320044 0.0016995204538455728
 0.00013403374402627384 0.0016992306742200358 -0.0001251604803198056 -0.0010664807558572866 0.0018953656798163816 0.0032683653077282457 0.998017324957051 -0.008266886057366769
 -0.00012513445110644083 -0.001066473333890484 0.00013251458701320044 0.0016995204538455728 0.998017324957051 -0.008266886057366769 0.001895619965221188 0.0032683005756004714
0.01875781575657 0.0020760463292342638 0.004943211978854919 0.9977835084007749 -0.01241129433148556 0.00018441073698715054 0.0025498668300087835 -0.0001681500790148533 -0.0016027728957016278
 0.9977835084007749 -0.01241129433148556 0.0020765567140596263 0.004943118169471366 -0.00016820812556088776 -0.0016027829897924423 0.00018099802946328755 0.0025503845257877
 0.00018441073698715054 0.0025498668300087835 -0.00016820812556088776 -0.0016027829897924423 0.002076013160050829 0.004942966386176877 0.9977835056715034 -0.012411545260339775
 -0.0001681500790148533 -0.0016027728957016278 0.00018099802946328755 0.0025503845257877 0.9977835056715034 -0.012411545260339775 0.002076584563723679 0.004942862364855687
0.02501042100875 0.0022718946537822163 0.006639018565541572 0.9975282818862018 -0.016568697945926806 0.00024415450396122183 0.0034013992793922344 -0.00021860820137245378 -0.0021406021684005827
 0.9975282818862018 -0.016568697945926806 0.0022728010514062643 0.006638884331072993 -0.00021871070767210958 -0.002140614067869077 0.00023809257846082253 0.003402212871263542
 0.00024415450396122183 0.0034013992793922344 -0.00021871070767210958 -0.002140614067869077 0.0022718361161406754 0.0066386917572788424 0.9975282774082291 -0.016569032373854674
 -0.00021860820137245378 -0.0021406021684005827 0.00023809257846082253 0.003402212871263542 0.9975282774082291 -0.016569032373854674 0.002272850909780711 0.006638543386451445
0.03126302626094 0.002483268876246274 0.008354732132400783 0.9972513525471906 -0.02073977891505031 0.00031336235490696165 0.004253775488573644 -0.00027661341186511346 -0.00267978354120275
 0.9972513525471906 -0.02073977891505031 0.002484683891371376 0.008354552541930665 -0.0002767726953407317 -0.0026797962439673666 0.00030389451938693974 0.0042549624049764345
 0.00031336235490696165 0.004253775488573644 -0.0002767726953407317 -0.0026797962439673666 0.0024831778344254515 0.00835432452792048 0.9972513458982837 -0.020740196854421643
 -0.00027661341186511346 -0.00267978354120275 0.00030389451938693974 0.0042549624049764345 0.9972513458982837 -0.020740196854421643 0.0024847621190740906 0.008354126433933613
0.037515631513130004 0.002710504742561885 0.010089555420177825 0.9969524196238295 -0.024924955459917922 0.00039213114659029794 0.005106911457107802 -0.0003422679081198428 -0.0032201645912000878
 0.9969524196238295 -0.024924955459917922 0.0027125408634788325 0.01008932534348085 -0.0003424961741683194 -0.0032201769593798693 0.0003784993754246953 0.005108558670894775
 0.00039213114659029794 0.005106911457107802 -0.0003424961741683194 -0.0032201769593798693 0.002710374070038371 0.010089067518142725 0.996952410378652 -0.024925456952078175
 -0.0003422679081198428 -0.0032201645912000878 0.0003784993754246953 0.005108558670894775 0.996952410378652 -0.024925456952078175 0.002712653823968983 0.010088814018037514
0.043768236765320004 0.002953933292124449 0.011842892240634052 0.9966311789323461 -0.02912443316606893 0.0004805567618426058 0.005960706269372247 -0.00041567175778274026 -0.003761603532809398
 0.9966311789323461 -0.02912443316606893 0.0029567029272277528 0.01184260635157664 -0.0004159811074068099 -0.0037616142925678323 0.00046200155176670093 0.005962910405887106
 0.0004805567618426058 0.005960706269372247 -0.0004159811074068099 -0.0037616142925678323 0.0029537558713391052 0.011842324625505394 0.9966311666618421 -0.029125018275837262
 -0.00041567175778274026 -0.003761603532809398 0.00046200155176670093 0.005962910405887106 0.9966311666618421 -0.029125018275837262 0.0029568569880423384 0.011842009729005025
0.050020842017509996 0.0032138821628824553 0.01361425709749464 0.9962873244212662 -0.0333382952903565 0.0005787337930005132 0.006815048114991512 -0.0004969229957174436 -0.004303963203955911
 0.9962873244212662 -0.0333382952903565 0.00321749767350289 0.013613909876099867 -0.0004973254303536232 -0.004303970945461078 0.0005544941069023286 0.006817915565107076
 0.0005787337930005132 0.006815048114991512 -0.0004973254303536232 -0.004303970945461078 0.0032136508847672766 0.013613610448079988 0.9962873086912497 -0.03333896409846254
 -0.0004969229957174436 -0.004303963203955911 0.0005544941069023286 0.006817915565107076 0.9962873086912497 -0.03333896409846254 0.003217699206780125 0.013613227858168275
0.055454545454549996 0.003453454528645712 0.0151679411142432 0.9959699008282457 -0.03701195655756593 0.000672044283825414 0.007557848484150273 -0.0005739804447242922 -0.004775932707996916
 0.9959699008282457 -0.03701195655756593 0.0034578963678051832 0.015167535960776643 -0.0005744734447882937 -0.004775936575980361 0.0006422453663825605 0.007561386447310427
 0.000672044283825414 0.007557848484150273 -0.0005744734447882937 -0.004775936575980361 0.0034531706816384494 0.015167226397538171 0.9959698817357928 -0.037012698189447746
 -0.0005739804447242922 -0.004775932707996916 0.0006422453663825605 0.007561386447310427 0.9959698817357928 -0.037012698189447746 0.003458144336334829 0.015166779627569254
0.056273447269699996 0.003490676258344568 0.015403230864288114 0.9959205490941653 -0.03756654701228348 0.0006867553231114205 0.007669817239992307 -0.0005861176383044398 -0.004847108126423187
 0.9959205490941653 -0.03756654701228348 0.0034952499886771755 0.015402816598070452 -0.0005866250630122738 -0.004847111303864244 0.0006560685867578976 0.007673464275263968
 0.0006867553231114205 0.007669817239992307 -0.0005866250630122738 -0.004847111303864244 0.003490384024170017 0.015402505942619202 0.9959205294658373 -0.037567299627583074
 -0.0005861176383044398 -0.004847108126423187 0.0006560685867578976 0.007673464275263968 0.9959205294658373 -0.037567299627583074 0.0034955053733063484 0.015402049055164993
0.06252605252188 0.0037846381004584986 0.01720943637818235 0.9955305456228464 -0.04180913977286744 0.0008047127517503423 0.008524887574131454 -0.0006833496597562827 -0.00539090289487343
 0.9955305456228464 -0.04180913977286744 0.003790282407026339 0.01720894916234198 -0.0006839738853681164 -0.005390899826491416 0.0007668148856525805 0.00852944046274791
 0.0008047127517503423 0.008524887574131454 -0.0006839738853681164 -0.005390899826491416 0.0037842778213513905 0.017208634048750678 0.995530521651037 -0.04180997631401237
 -0.0006833496597562827 -0.00539090289487343 0.0007668148856525805 0.00852944046274791 0.995530521651037 -0.04180997631401237 0.003790598028072824 0.01720809595124455
0.06877865777407 0.004096088011401263 0.019032523924912188 0.9951170067939772 -0.046065985726492564 0.0009326956474129607 0.009380127707627129 -0.000788710945008423 -0.005935211221492244
 0.9951170067939772 -0.046065985726492564 0.004102915291290061 0.019031957661754095 -0.0007894636895179332 -0.005935200089648933 0.0008868211235401056 0.009385722830361945
 0.0009326956474129607 0.009380127707627129 -0.0007894636895179332 -0.005935200089648933 0.004095652609827642 0.019031645136750572 0.9951169780268567 -0.04606690634093716
 -0.000788710945008423 -0.005935211221492244 0.0008868211235401056 0.009385722830361945 0.9951169780268567 -0.04606690634093716 0.00410329754148783 0.019031018605961552
0.07503126302626001 0.004425344192885134 0.020872162012537953 0.9946796258567098 -0.05033696690895414 0.0010707916157595898 0.010235401511554698 -0.0009022912280387294 -0.006479895342183119
 0.9946796258567098 -0.05033696690895414 0.004433466911483863 0.020871510410065703 -0.0009031841174134473 -0.006479874193444264 0.0010161735328483002 0.010242185477242646
 0.0010707916157595898 0.010235401511554698 -0.0009031841174134473 -0.006479874193444264 0.004424826602882597 0.020871207815891194 0.9946795918352452 -0.05033797175728813
 -0.0009022912280387294 -0.006479895342183119 0.0010161735328483002 0.010242185477242646 0.9946795918352452 -0.05033797175728813 0.004433922191543055 0.02087048531474868
0.08128386827845 0.004772722741541304 0.022728031247974578 0.9942180968123262 -0.054621941308318066 0.0012190861764945343 0.01109056856468495 -0.0010241780216458782 -0.007024815621758525
 0.9942180968123262 -0.054621941308318066 0.0047822534610547154 0.022727287817393943 -0.0010252225904414866 -0.0070247823669893576 0.001154956350213938 0.011098698324774843
 0.0012190861764945343 0.01109056856468495 -0.0010252225904414866 -0.0070247823669893576 0.004772115910659445 0.022727002785020104 0.9942180570691573 -0.05462303057440614
 -0.0010241780216458782 -0.007024815621758525 0.001154956350213938 0.011098698324774843 0.9942180570691573 -0.05462303057440614 0.004782788180287696 0.022726176458516996
0.08753647353064001 0.005138537622886178 0.024599820101294603 0.9937321146634823 -0.05892074705362148 0.0013776626477192762 0.011945484445562442 -0.0011544565401864233 -0.007569830299365305
 0.9937321146634823 -0.05892074705362148 0.005149589029643186 0.024598978153797496 -0.001155664231626745 -0.007569782713848528 0.0013032517122094573 0.011955127407653116
 0.0013776626477192762 0.011945484445562442 -0.001155664231626745 -0.007569782713848528 0.005137834512555402 0.024598718613922984 0.9937320687228803 -0.058921920937796905
 -0.0011544565401864233 -0.007569830299365305 0.0013032517122094573 0.011955127407653116 0.9937320687228803 -0.058921920937796905 0.005150209606555788 0.024597780284100472
0.09378907878283 0.00552310061471352 0.026487221879326988 0.9932213756395228 -0.06323320540064219 0.0015466020335379164 0.012800000958459732 -0.0012932096180452875 -0.008114795305798032
 0.9932213756395228 -0.06323320540064219 0.005535785547521117 0.02648627452179026 -0.0012945917840388617 -0.008114731029365298 0.0014611395532748645 0.012811335098407007
 0.0015466020335379164 0.012800000958459732 -0.0012945917840388617 -0.008114731029365298 0.005522294201437461 0.02648604870707639 0.9932213230157729 -0.06323446412265224
 -0.0012932096180452875 -0.008114795305798032 0.0014611395532748645 0.012811335098407007 0.9932213230157729 -0.06323446412265224 0.005536498409900907 0.026484989867070853
0.100041684035 0.005926721229697708 0.028389932512578146 0.9926855774027155 -0.06755912291070325 0.001725982915255113 0.013653966301945009 -0.0014405176244676036 -0.008659564144092363
 0.9926855774027155 -0.06755912291070325 0.005941152707809175 0.02838887264223776 -0.0014420855253964283 -0.008659480681273804 0.001628697505239339 0.013667180274450186
 0.001725982915255113 0.013653966301945009 -0.0014420855253964283 -0.008659480681273804 0.005925804506577994 0.028388689093914156 0.9926855175997662 -0.06756046670922651
 -0.0014405176244676036 -0.008659564144092363 0.001628697505239339 0.013667180274450186 0.9926855175997662 -0.06756046670922651 0.005941964293431357 0.028387500900968084
0.1059090909091 0.006323082709593745 0.030189077855879525 0.9921597286168293 -0.0716305948540232 0.0019038770518757465 0.014454682652621417 -0.0015866005306425586 -0.009170460805417278
 0.9921597286168293 -0.0716305948540232 0.006339256110469072 0.03018790575217464 -0.0015883528833940555 -0.009170356948240928 0.0017947947765571467 0.014469841836283796
 0.0019038770518757465 0.014454682652621417 -0.0015883528833940555 -0.009170356948240928 0.0063220561155239614 0.030187769916650946 0.992159661616258 -0.07163201872068231
 -0.0015866005306425586 -0.009170460805417278 0.0017947947765571467 0.014469841836283796 0.992159661616258 -0.07163201872068231 0.006340166201924937 0.03018645199109892
0.1062942892872 0.00634970662271233 0.03030764889146608 0.9921244192432508 -0.07189829308682204 0.0019158813441540318 0.014507225206095003 -0.0015964583762068862 -0.009203987807347387
 0.9921244192432508 -0.07189829308682204 0.006365997874162796 0.03030646918974173 -0.001598223180500313 -0.009203882527552365 0.001806000797664916 0.014522518453602811
 0.0019158813441540318 0.014507225206095003 -0.001598223180500313 -0.009203882527552365 0.00634867260059627 0.030306336766737933 0.9921243517542877 -0.07189972221735477
 -0.0015964583762068862 -0.009203987807347387 0.001806000797664916 0.014522518453602811 0.9921243517542877 -0.07189972221735477 0.006366914631371924 0.030305010034229425
0.11254689453939999 0.006792361485341073 0.03224006760460396 0.9915376022646722 -0.07625049761478518 0.0021163707359144034 0.015359619048122782 -0.0017611070480857375 -0.009747914724332106
 0.9915376022646722 -0.07625049761478518 0.006810625975200784 0.03223876052974197 -0.0017630798317274851 -0.009747784862041226 0.001993122158997097 0.015377201907842383
 0.0021163707359144034 0.015359619048122782 -0.0017630798317274851 -0.009747784862041226 0.006791203193980221 0.03223868841201803 0.9915375265708032 -0.0762520123544321
 -0.0017611070480857375 -0.009747914724332106 0.001993122158997097 0.015377201907842383 0.9915375265708032 -0.0762520123544321 0.006811654363140436 0.03223721360041481
0.11879949979160001 0.007254987932459181 0.03418688394433482 0.990924829564381 -0.08061550734411076 0.002327521766564635 0.016210985948347106 -0.001934536081788559 -0.010291190730980915
 0.990924829564381 -0.08061550734411076 0.007275339391855099 0.03418544172301309 -0.0019367278277544334 -0.010291033385949321 0.0021901317185388366 0.016231079757271838
 0.002327521766564635 0.016210985948347106 -0.0019367278277544334 -0.010291033385949321 0.0072536984218998495 0.03418543942514801 0.9909247451341697 -0.08061710798703484
 -0.001934536081788559 -0.010291190730980915 0.0021901317185388366 0.016231079757271838 0.9909247451341697 -0.08061710798703484 0.007276485880382721 0.03418380663198591
0.1250521050438 0.007737885379178842 0.036147791138016014 0.9902858064076165 -0.08499308305053999 0.002549402268952244 0.017061160861857282 -0.00211681509394154 -0.01083365905238813
 0.9902858064076165 -0.08499308305053999 0.007760437833971297 0.03614620575586539 -0.0021192366913564084 -0.0108334711899229 0.0023970969086910916 0.01708399805969449
 0.002549402268952244 0.017061160861857282 -0.0021192366913564084 -0.0108334711899229 0.007736457721453652 0.03614628313801924 0.9902857126965885 -0.08499476990719484
 -0.00211681509394154 -0.01083365905238813 0.0023970969086910916 0.01708399805969449 0.9902857126965885 -0.08499476990719484 0.007761708905177644 0.03614448208661452
0.131304710296 0.008241350414844648 0.0381224797373109 0.9896202404010165 -0.08938297604807509 0.002782077130156432 0.017909975657635774 -0.0023080107831839037 -0.011375160304033027
 0.9896202404010165 -0.08938297604807509 0.008266218214532446 0.038120742928319094 -0.0023106730267081167 -0.011374938755201236 0.0026140823673748087 0.017935799887413548
 0.002782077130156432 0.017909975657635774 -0.0023106730267081167 -0.011374938755201236 0.008239777704930283 0.038120910203044554 0.9896201368498116 -0.08938474944956354
 -0.0023080107831839037 -0.011375160304033027 0.0026140823673748087 0.017935799887413548 0.9896201368498116 -0.08938474944956354 0.0082676203616779 0.038118930230281886
0.1375573155481 0.008651324047699003 0.039853089198459146 0.98904223684861 -0.09352727448535583 0.0029973992089558053 0.018731744902774627 -0.0024801743184110466 -0.011889890056536538
 0.98904223684861 -0.09352727448535583 0.008678631386318917 0.03985123209901721 -0.0024830932165555942 -0.011889634493843984 0.002813331397050365 0.01876052332345777
 0.0029973992089558053 0.018731744902774627 -0.0024830932165555942 -0.011889634493843984 0.008649599856535873 0.03985146003322583 0.9890421229999271 -0.09352913461713185
 -0.0024801743184110466 -0.011889890056536538 0.002813331397050365 0.01876052332345777 0.9890421229999271 -0.09352913461713185 0.008680170452171263 0.03984932973886665
0.1438099208003 0.009075751568961525 0.04157433237039017 0.9884438211449936 -0.0976608131482525 0.0032214383166218196 0.01954992839562052 -0.00265921664341735 -0.012401428928724279
 0.9884438211449936 -0.0976608131482525 0.009105614736656054 0.041572348979455706 -0.002662403793687806 -0.012401136228657246 0.0030205935277807716 0.019581884249187515
 0.0032214383166218196 0.01954992839562052 -0.002662403793687806 -0.012401136228657246 0.009073869108479108 0.041572645595709695 0.9884436964404787 -0.09766276033152078
 -0.00265921664341735 -0.012401428928724279 0.0030205935277807716 0.019581884249187515 0.9884436964404787 -0.09766276033152078 0.009107297115229635 0.04157035649384255
0.1500625260525 0.009514479406252486 0.043286058046263606 0.9878251509732376 -0.10178348167621991 0.0034541156547879767 0.020364433729179742 -0.00284506306259838 -0.01290969331196726
 0.9878251509732376 -0.10178348167621991 0.00954701505658733 0.043283941946898365 -0.002848530034520206 -0.012909360225600535 0.003235794233367537 0.020399798420277924
 0.0034541156547879767 0.020364433729179742 -0.002848530034520206 -0.012909360225600535 0.009512431915569289 0.04328431576467124 0.9878250148426049 -0.10178551624466278
 -0.00284506306259838 -0.01290969331196726 0.003235794233367537 0.020399798420277924 0.9878250148426049 -0.10178551624466278 0.009548847146076407 0.04328185885130528
0.15631513130469998 0.009967352849551386 0.04498811957338841 0.987186384867024 -0.10589517026192706 0.0036953514589722547 0.021175170088251913 -0.0030376379347617963 -0.01341460140702801
 0.987186384867024 -0.10589517026192706 0.010002678010056023 0.04498586391780138 -0.003041396269408266 -0.013414224560607771 0.0034588580870975223 0.021214183098536676
