! Created with skrf 1.8.0 (http://scikit-rf.org).
# GHz S RI R 50.0 
!freq ReS11 ImS11 ReS12 ImS12 ReS13 ImS13
! ReS14 ImS14
! ReS21 ImS21 ReS22 ImS22 ReS23 ImS23
! ReS24 ImS24
! ReS31 ImS31 ReS32 ImS32 ReS33 ImS33
! ReS34 ImS34
! ReS41 ImS41 ReS42 ImS42 ReS43 ImS43
! ReS44 ImS44
!
0.0 0.001617921620744 0.0 0.9983820783792 0.0 6.252365913995e-05 0.0 -6.25236586955e-05 7.656939849242565e-21
 0.9983820783792 0.0 0.001617921620764 0.0 -6.252365869634e-05 7.656939849345435e-21 6.252365914011e-05 0.0
 6.252365913995e-05 0.0 -6.252365869634e-05 7.656939849345435e-21 0.001617921605119 0.0 0.9983820783636 0.0
 -6.25236586955e-05 7.656939849242565e-21 6.252365914011e-05 0.0 0.9983820783636 0.0 0.001617921605094 0.0
0.005 0.0017409665745811717 0.0013235778886828552 0.9982263691459751 -0.0033888246627143633 8.774570780654475e-05 0.000688015903647482 -8.516262896114301e-05 -0.0004319744092536915
 0.9982263691459751 -0.0033888246627143633 0.0017409877780093753 0.00132356553987482 -8.516673354250947e-05 -0.00043197756265946665 8.760786139865875e-05 0.000688068509299393
 8.774570780654475e-05 0.000688015903647482 -8.516673354250947e-05 -0.00043197756265946665 0.0017409640891709254 0.0013235121026501607 0.9982263687788168 -0.0033888917217664545
 -8.516262896114301e-05 -0.0004319744092536915 8.760786139865875e-05 0.000688068509299393 0.9982263687788168 -0.0033888917217664545 0.0017409895348845762 0.001323497212060183
0.006252605252188 0.00177330175574548 0.0016596688665420313 0.9981851796087009 -0.00423684882061291 9.499752294319763e-05 0.0008603485877698483 -9.158258929603373e-05 -0.0005405222447253074
 0.9981851796087009 -0.00423684882061291 0.001773334899711537 0.0016596531304065628 -9.158897633880263e-05 -0.0005405261324298607 9.478215263326502e-05 0.0008604168927152168
 9.499752294319763e-05 0.0008603485877698483 -9.158897633880263e-05 -0.0005405261324298607 0.0017732979510852744 0.0016595866380580157 0.9981851791156927 -0.004236932646524994
 -9.158258929603373e-05 -0.0005405222447253074 9.478215263326502e-05 0.0008604168927152168 0.9981851791156927 -0.004236932646524994 0.0017733377274382544 0.0016595677167564216
0.01250521050438 0.0019438952252076225 0.003353997680697058 0.9979663783894074 -0.008474424340776021 0.00013682710015572997 0.0017210202092377818 -0.00012815956323798534 -0.001083619817312259
 0.9979663783894074 -0.008474424340776021 0.0019440275609307134 0.0033539631891790064 -0.00012818473388566387 -0.0010836269976701595 0.0001359683022589563 0.0017211844064725364
 0.00013682710015572997 0.0017210202092377818 -0.00012818473388566387 -0.0010836269976701595 0.001943880580287762 0.0033538335697533986 0.9979663769705742 -0.008474591741930295
 -0.00012815956323798534 -0.001083619817312259 0.0001359683022589563 0.0017211844064725364 0.9979663769705742 -0.008474591741930295 0.0019440394091347108 0.003353792590193673
0.01875781575657 0.0021300891133842017 0.005072320265362421 0.9977253924419005 -0.012723023289209219 0.00018811069858116211 0.0025825765033416484 -0.00017237021873132223 -0.0016285017982635309
 0.9977253924419005 -0.012723023289209219 0.0021303864623810668 0.005072263813995373 -0.0001724263496534943 -0.0016285115556913113 0.00018618162056924958 0.00258286980161702
 0.00018811069858116211 0.0025825765033416484 -0.0001724263496534943 -0.0016285115556913113 0.0021300566220131332 0.005072074534462278 0.997725389674167 -0.012723274193355288
 -0.00017237021873132223 -0.0016285017982635309 0.00018618162056924958 0.00258286980161702 0.997725389674167 -0.012723274193355288 0.0021304135213737322 0.005072008058283115
0.02501042100875 0.002332258202904723 0.006812214442940899 0.9974619279487181 -0.01698468615208228 0.0002489483729003979 0.00344503902255953 -0.00022432613368774022 -0.002174910799924972
 0.9974619279487181 -0.01698468615208228 0.00233278624461291 0.0068121326620209964 -0.00022442525552363705 -0.002174922286112653 0.0002455220828297509 0.0034455000619707855
 0.0002489483729003979 0.00344503902255953 -0.00022442525552363705 -0.002174922286112653 0.0023322008663365095 0.006811887410885846 0.9974619234042984 -0.016985020522664953
 -0.00022432613368774022 -0.002174910799924972 0.0002455220828297509 0.0034455000619707855 0.9974619234042984 -0.016985020522664953 0.002332834697741423 0.00681179172451192
0.03126302626094 0.0025507617759023713 0.0085724243493831 0.9971756766425243 -0.02126027483932618 0.00031944059320953335 0.004308349834834455 -0.0002841355445825433 -0.002722662277100444
 0.9971756766425243 -0.02126027483932618 0.0025515860839909546 0.008572313708221483 -0.0002842895665217452 -0.0027226745095382493 0.0003140896881483259 0.004309022716974237
 0.00031944059320953335 0.004308349834834455 -0.0002842895665217452 -0.0027226745095382493 0.002550672604971734 0.008572016396705736 0.9971756698933616 -0.021260692670490206
 -0.0002841355445825433 -0.002722662277100444 0.0003140896881483259 0.004309022716974237 0.9971756698933616 -0.021260692670490206 0.0025516621158064683 0.008571887515242235
0.037515631513130004 0.00278595117345641 0.010352124022182824 0.9968663236325717 -0.025550209035267144 0.0003996871791133132 0.005172419384511384 -0.0003519041197458921 -0.003271596667045515
 0.9968663236325717 -0.025550209035267144 0.0027871372408031915 0.01035198083149557 -0.0003521248420003174 -0.003271608528605944 0.00039198361391007647 0.005173353725442062
 0.0003996871791133132 0.005172419384511384 -0.0003521248420003174 -0.003271608528605944 0.002785823186024179 0.010351635603183931 0.9968663142482632 -0.025550710340599286
 -0.0003519041197458921 -0.003271596667045515 0.00039198361391007647 0.005173353725442062 0.9968663142482632 -0.025550710340599286 0.0027872470374474523 0.010351469271680179
0.043768236765320004 0.0030381727162872747 0.012150693302263095 0.9965335505970344 -0.029854690225010038 0.0004897867950409946 0.006037141046603444 -0.0004277352292961975 -0.0038215648430810394
 0.9965335505970344 -0.029854690225010038 0.003039785975226664 0.012150513715684222 -0.0004280343504578941 -0.003821575081882926 0.0004793018055552153 0.0060383920368659106
 0.0004897867950409946 0.006037141046603444 -0.0004280343504578941 -0.003821575081882926 0.0030379989379746416 0.012150124945452447 0.9965335381451905 -0.0298552750380653
 -0.0004277352292961975 -0.0038215648430810394 0.0004793018055552153 0.0060383920368659106 0.9965335381451905 -0.0298552750380653 0.0030399357263853075 0.012149916639008228
0.050020842017509996 0.003307769051556814 0.013967625225237477 0.9961770374051047 -0.034173794230021044 0.000589836644513023 0.006902397138692428 -0.000511730035000769 -0.004372422115118707
 0.9961770374051047 -0.034173794230021044 0.003309874891859504 0.013967405240088058 -0.0005121191566497369 -0.00437242934450424 0.0005761407210940461 0.006904025606113367
 0.000589836644513023 0.006902397138692428 -0.0005121191566497369 -0.00437242934450424 0.003307542514193454 0.013966977541423906 0.9961770214493847 -0.03417446259715212
 -0.000511730035000769 -0.004372422115118707 0.0005761407210940461 0.006904025606113367 0.9961770214493847 -0.03417446259715212 0.003310070790198783 0.013966722464504028
0.055454545454549996 0.0035564307573037975 0.015561164506186732 0.995847687453287 -0.037939100052565435 0.0006849380343025961 0.00765466740985555 -0.0005914309029702619 -0.0048517446091054595
 0.995847687453287 -0.037939100052565435 0.0035590177498261606 0.015560906041716428 -0.0005919075866582192 -0.004851747992427737 0.000668102321129531 0.0076566777423152195
 0.0006849380343025961 0.00765466740985555 -0.0005919075866582192 -0.004851747992427737 0.0035561527173466837 0.01556044844429974 0.995847668094922 -0.03793984107954983
 -0.0005914309029702619 -0.0048517446091054595 0.000668102321129531 0.0076566777423152195 0.995847668094922 -0.03793984107954983 0.0035592587836631756 0.015560148616726053
0.056273447269699996 0.003595079837818382 0.015802480559494722 0.9957964630833336 -0.038507516598598295 0.000699932249888302 0.0077680618843922545 -0.0006039875019629441 -0.004924025283350185
 0.9957964630833336 -0.038507516598598295 0.003597743623478759 0.01580221601721317 -0.0006044781317421589 -0.004924027981915738 0.0006825951410749664 0.007770134358040434
 0.000699932249888302 0.0077680618843922545 -0.0006044781317421589 -0.004924027981915738 0.003594793580481118 0.01580175424136326 0.9957964431832171 -0.03850826858042026
 -0.0006039875019629441 -0.004924025283350185 0.0006825951410749664 0.007770134358040434 0.9957964431832171 -0.03850826858042026 0.0035979918655803357 0.01580144732653476
0.06252605252188 0.003900442105151319 0.01765486282420085 0.99539150646007 -0.04285579752058561 0.0008201672780633859 0.008634003035456658 -0.0007046043671055791 -0.005476231038412607
 0.99539150646007 -0.04285579752058561 0.00390372919017296 0.01765454941010662 -0.0007052079206907093 -0.005476227550058226 0.0007987580145492986 0.008636591809925145
 0.0008201672780633859 0.008634003035456658 -0.0007052079206907093 -0.005476227550058226 0.0039000891759472783 0.017654058643443313 0.9953914821720997 -0.04285663319585005
 -0.0007046043671055791 -0.005476231038412607 0.0007987580145492986 0.008636591809925145 0.9953914821720997 -0.04285663319585005 0.0039040359787089044 0.017653694549566293
0.06877865777407 0.004224190437067445 0.019524403389193996 0.9949618466380488 -0.04721853666489458 0.0009506333882447913 0.009500082855107369 -0.0008136750864683668 -0.006028895005719758
 0.9949618466380488 -0.04721853666489458 0.004228166180743933 0.019524036631901456 -0.0008144028888713109 -0.006028883539736249 0.0009247203210626944 0.009503266054686007
 0.0009506333882447913 0.009500082855107369 -0.0008144028888713109 -0.006028883539736249 0.004223763892059612 0.019523522204502212 0.9949618175133085 -0.04721945612344028
 -0.0008136750864683668 -0.006028895005719758 0.0009247203210626944 0.009503266054686007 0.9949618175133085 -0.04721945612344028 0.004228537723103057 0.01952309531442094
0.07503126302626001 0.004566657045783777 0.021410752030628106 0.9945071633634046 -0.05159560256705417 0.0010914200961842882 0.010366158740758346 -0.0009312917659321016 -0.006581871156120845
 0.9945071633634046 -0.05159560256705417 0.004571386828286161 0.0214103273007782 -0.0009321550522959298 -0.006581849787279436 0.001060570945657961 0.010370020383170711
 0.0010914200961842882 0.010366158740758346 -0.0009321550522959298 -0.006581849787279436 0.004566149950384327 0.021409794784226877 0.9945071289477585 -0.051596605914283236
 -0.0009312917659321016 -0.006581871156120845 0.001060570945657961 0.010370020383170711 0.9945071289477585 -0.051596605914283236 0.004571829337652182 0.021409299201830233
0.08128386827845 0.004928171781277363 0.023313570657052196 0.9940271373333763 -0.05598683885245148 0.0012426146461357284 0.011232083650260455 -0.001057544083676929 -0.007135011418923121
 0.9940271373333763 -0.05598683885245148 0.004933721018813341 0.02331308316562509 -0.001058553999737461 -0.007134978087589376 0.0012063965592593333 0.011236713709794672
 0.0012426146461357284 0.011232083650260455 -0.001058553999737461 -0.007134978087589376 0.004927577211281447 0.023312538376215265 0.9940270971669951 -0.05598792620872451
 -0.001057544083676929 -0.007135011418923121 0.0012063965592593333 0.011236713709794672 0.9940270971669951 -0.05598792620872451 0.004934240714304232 0.023311967923095134
0.08753647353064001 0.005309062096974529 0.025232528963200728 0.9935214504641645 -0.06039206853835735 0.0014043018888350155 0.012097706404719216 -0.0011925192060198127 -0.007688165424523299
 0.9935214504641645 -0.06039206853835735 0.0053154962568560055 0.025231973759297623 -0.0011936868081729483 -0.007688117936787097 0.001362281503499738 0.012103200874496019
 0.0014043018888350155 0.012097706404719216 -0.0011936868081729483 -0.007688117936787097 0.005308373138790839 0.0252314227671972 0.993521404080688 -0.0603932400330322
 -0.0011925192060198127 -0.007688165424523299 0.001362281503499738 0.012103200874496019 0.993521404080688 -0.0603932400330322 0.00531609936365667 0.025230770978625954
0.09378907878283 0.0057096529834618145 0.027167301337455554 0.9929897861318775 -0.06481109708945412 0.0015765641639071445 0.012962871912544192 -0.0013363016979697543 -0.00824118033199207
 0.9929897861318775 -0.06481109708945412 0.0057170375992747725 0.027166673305475234 -0.0013376379532251876 -0.008241116359815316 0.001528307678826689 0.01296933286590515
 0.0015765641639071445 0.012962871912544192 -0.0013376379532251876 -0.008241116359815316 0.005708862735731895 0.027166122430295425 0.9929897330580937 -0.06481235286900369
 -0.0013363016979697543 -0.00824118033199207 0.001528307678826689 0.01296933286590515 0.9929897330580937 -0.06481235286900369 0.005717730349203322 0.02716538255077108
0.100041684035 0.006130266881255983 0.029117564593488878 0.992431829394738 -0.06924371465621368 0.0017594811842352757 0.01382742134646729 -0.0014889734311794107 -0.008793900710266297
 0.992431829394738 -0.06924371465621368 0.006138667568195007 0.029116858449757588 -0.0014904892168682324 -0.008793817791655814 0.0017045544338894253 0.013834956997264645
 0.0017594811842352757 0.01382742134646729 -0.0014904892168682324 -0.008793817791655814 0.006129368455718542 0.029116314267704304 0.9924317691501495 -0.06924505488126116
 -0.0014889734311794107 -0.008793900710266297 0.0017045544338894253 0.013834956997264645 0.9924317691501495 -0.06924505488126116 0.006139456199843878 0.02911547924582842
0.1059090909091 0.006543464021057548 0.030961481340321957 0.9918840546365817 -0.07341541626450049 0.0019408883838332898 0.014638004340875657 -0.001640394810983456 -0.009312161497611736
 0.9918840546365817 -0.07341541626450049 0.0065528779453009394 0.030960696938357297 -0.0016420888794778596 -0.009312058441462049 0.0018793071734700827 0.014646652422469169
 0.0019408883838332898 0.014638004340875657 -0.0016420888794778596 -0.009312058441462049 0.006542457829494737 0.030960165255241083 0.9918839872186255 -0.07341683588713538
 -0.001640394810983456 -0.009312161497611736 0.0018793071734700827 0.014646652422469169 0.9918839872186255 -0.07341683588713538 0.006553762231525166 0.030959234270608527
0.1062942892872 0.006571223577139799 0.03108299626441156 0.9918472672035711 -0.07368969775829907 0.00195312992293535 0.01469119228118956 -0.0016506134886498153 -0.009346168465199442
 0.9918472672035711 -0.07368969775829907 0.006580706047279135 0.031082206553193478 -0.001652319592009798 -0.00934606400438784 0.0018910984568654059 0.01469991704298251
 0.00195312992293535 0.01469119228118956 -0.001652319592009798 -0.00934606400438784 0.00657021009922276 0.031081675906799725 0.9918471992993604 -0.07369112259882445
 -0.0016506134886498153 -0.009346168465199442 0.0018910984568654059 0.01469991704298251 0.9918471992993604 -0.07369112259882445 0.006581596805675247 0.03108073838959369
0.11254689453939999 0.007032840087254112 0.03306327331850583 0.9912357886022256 -0.0781488105543009 0.0021575845015311705 0.015554018816758478 -0.001821298067908407 -0.009897822787694386
 0.9912357886022256 -0.0781488105543009 0.0070434701647988 0.0330623944074791 -0.0018232051855014044 -0.009897694055355243 0.0020880136674636643 0.015564053360683543
 0.0021575845015311705 0.015554018816758478 -0.0018232051855014044 -0.009897694055355243 0.007031704697657781 0.033061884403072624 0.9912357125412373 -0.07815032019743755
 -0.001821298067908407 -0.009897822787694386 0.0020880136674636643 0.015564053360683543 0.9912357125412373 -0.07815032019743755 0.007044469302231543 0.03306083672971254
0.11879949979160001 0.007515430531258274 0.03505807113838321 0.9905970849219354 -0.08262080585591673 0.002372916079153475 0.01641573168027894 -0.00200110038262615 -0.010448700130332906
 0.9905970849219354 -0.08262080585591673 0.0075272741683563415 0.03505709721338192 -0.002003219119752662 -0.010448544263813982 0.002295371109780855 0.016427202991661876
 0.002372916079153475 0.01641573168027894 -0.002003219119752662 -0.010448544263813982 0.007514166387047689 0.03505661523423366 0.9905970001975235 -0.08262240049875466
 -0.00200110038262615 -0.010448700130332906 0.002295371109780855 0.016427202991661876 0.9905970001975235 -0.08262240049875466 0.007528387943897896 0.035055449429152126
0.1250521050438 0.008019305998844378 0.03706706274422909 0.9899308499708258 -0.08710542590618493 0.0025991927428776116 0.017276158320805545 -0.0021900905632738607 -0.010998634197809706
 0.9899308499708258 -0.08710542590618493 0.008032429290849944 0.037065987803436236 -0.002192431433183535 -0.010998448201379973 0.002513238845851421 0.017289199754261533
 0.0025991927428776116 0.017276158320805545 -0.002192431433183535 -0.010998448201379973 0.008017906274429328 0.0370655415124145 0.9899307560667825 -0.08710710575976655
 -0.0021900905632738607 -0.010998634197809706 0.002513238845851421 0.017289199754261533 0.9899307560667825 -0.08710710575976655 0.008033663970762654 0.037064249277755874
0.131304710296 0.008544774409143608 0.03908991816121536 0.9892367802199246 -0.09160240302213198 0.0028364793989401056 0.018135122995502483 -0.002388335556810111 -0.011547455953133307
 0.9892367802199246 -0.09160240302213198 0.00855924361026917 0.039088736008682776 -0.0023909089798864617 -0.01154723669827669 0.0027416818499045497 0.018149874328672717
 0.0028364793989401056 0.018135122995502483 -0.0023909089798864617 -0.01154723669827669 0.008543232297754388 0.03908833335645038 0.9892366766095816 -0.09160416831035774
 -0.002388335556810111 -0.011547455953133307 0.0027416818499045497 0.018149874328672717 0.9892366766095816 -0.09160416831035774 0.00856060546802845 0.039086906063862906
0.1375573155481 0.008974033074695534 0.0408629505764711 0.9886327303106889 -0.09584798558872257 0.0030560110147153084 0.0189665370991258 -0.0025671806175432133 -0.012069019411555882
 0.9886327303106889 -0.09584798558872257 0.008989920805912417 0.04086168362632459 -0.00257000207723955 -0.012068766515315995 0.002952148409218657 0.0189829817234059
 0.0030560110147153084 0.0189665370991258 -0.00257000207723955 -0.012068766515315995 0.0089723422948543 0.04086130389407236 0.9886326165467829 -0.09584983642199961
 -0.0025671806175432133 -0.012069019411555882 0.002952148409218657 0.0189829817234059 0.9886326165467829 -0.09584983642199961 0.008991415450403868 0.040859761458548416
0.1438099208003 0.009418470989828839 0.04262619069617419 0.9880072776882758 -0.10008233942201854 0.0032844092742630266 0.019794234801912686 -0.002753161069161717 -0.012587223465501562
 0.9880072776882758 -0.10008233942201854 0.009435844700892584 0.04262483452829812 -0.002756241763820998 -0.01258693383757924 0.003171085498846069 0.019812501076697377
 0.0032844092742630266 0.019794234801912686 -0.002756241763820998 -0.01258693383757924 0.009416624853520203 0.042624483949773334 0.9880071532457908 -0.10008427601507641
 -0.002753161069161717 -0.012587223465501562 0.003171085498846069 0.019812501076697377 0.9880071532457908 -0.10008427601507641 0.009437478296785073 0.04262281943658072
0.1500625260525 0.009877924726748333 0.044379477524014235 0.9873605901168332 -0.1043053452285624 0.0035215913758780554 0.020618120114025855 -0.0029461974249839267 -0.013101979572026145
 0.9873605901168332 -0.1043053452285624 0.009896852057006135 0.044378027435186936 -0.002949548524764593 -0.013101649997940331 0.0033984128432877005 0.020638341087973543
 0.0035215913758780554 0.020618120114025855 -0.002949548524764593 -0.013101649997940331 0.00987591656960944 0.044377712600490865 0.9873604544627242 -0.1043073678039489
 -0.0029461974249839267 -0.013101979572026145 0.0033984128432877005 0.020638341087973543 0.9873604544627242 -0.1043073678039489 0.00989863076873265 0.044375918688363054
0.15631513130469998 0.010352229616032358 0.0461226548884559 0.9866928363028044 -0.10851688443784326 0.0037674734851467022 0.02143809875895619 -0.0031462091747416075 -0.01361320113642121
 0.9866928363028044 -0.10851688443784326 0.010372778399786838 0.0461211058838163 -0.0031498418210584747 -0.013612828278070909 0.0036340491755788924 0.021460412118423058
