! Created with skrf 1.8.0 (http://scikit-rf.org).
# GHz S RI R 50.0 
!freq ReS11 ImS11 ReS12 ImS12 ReS13 ImS13
! ReS14 ImS14
! ReS21 ImS21 ReS22 ImS22 ReS23 ImS23
! ReS24 ImS24
! ReS31 ImS31 ReS32 ImS32 ReS33 ImS33
! ReS34 ImS34
! ReS41 ImS41 ReS42 ImS42 ReS43 ImS43
! ReS44 ImS44
!
0.0 0.001442310670743 0.0 0.9985576893292 0.0 5.56299403232e-05 0.0 -5.562993961196e-05 6.812702748254737e-21
 0.9985576893292 0.0 0.001442310670759 0.0 -5.562993961237e-05 6.812702748304946e-21 5.562994032214e-05 0.0
 5.56299403232e-05 0.0 -5.562993961237e-05 6.812702748304946e-21 0.001442310657956 0.0 0.9985576893164 0.0
 -5.562993961196e-05 6.812702748254737e-21 5.562994032214e-05 0.0 0.9985576893164 0.0 0.001442310657956 0.0
0.005 0.0015515586064007716 0.001177008165200633 0.9984195012294368 -0.003021794848171658 7.830196326049045e-05 0.0006316462654316596 -7.590856656911751e-05 -0.00039326807928087386
 0.9984195012294368 -0.003021794848171658 0.0015515815879723293 0.0011769947058336992 -7.590825509907224e-05 -0.00039326778269150404 7.815888131976864e-05 0.0006317006309271785
 7.830196326049045e-05 0.0006316462654316596 -7.590825509907224e-05 -0.00039326778269150404 0.0015515594044370553 0.0011770749164602373 0.9984195015840908 -0.003021727790463371
 -7.590856656911751e-05 -0.00039326807928087386 7.815888131976864e-05 0.0006317006309271785 0.9984195015840908 -0.003021727790463371 0.0015515814958943265 0.0011770620676206094
0.006252605252188 0.0015801274084190377 0.0014759162348256648 0.9983831447918043 -0.003777996665362224 8.474863645417434e-05 0.0007898593747467759 -8.159817025212041e-05 -0.0004921026499678857
 0.9983831447918043 -0.003777996665362224 0.001580163333492768 0.0014758991596699712 -8.159768603981449e-05 -0.0004921022830267406 8.452508184301e-05 0.000789929960516597
 8.474863645417434e-05 0.0007898593747467759 -8.159768603981449e-05 -0.0004921022830267406 0.0015801285728257691 0.0014759996646414272 0.9983831452626856 -0.003777912845605997
 -8.159817025212041e-05 -0.0004921026499678857 8.452508184301e-05 0.000789929960516597 0.9983831452626856 -0.003777912845605997 0.0015801631055783116 0.001475983363911821
0.01250521050438 0.0017300333550474996 0.0029829860758684035 0.9981911498816328 -0.0075568947240921055 0.00012155599961030662 0.001580042277362526 -0.00011368808709424412 -0.0009866612465899082
 0.9981911498816328 -0.0075568947240921055 0.0017301768130116395 0.0029829494033277244 -0.0001136861843199354 -0.0009866605534956695 0.00012066445295239435 0.0015802116808629003
 0.00012155599961030662 0.001580042277362526 -0.0001136861843199354 -0.0009866605534956695 0.0017300374551238022 0.0029831526117194513 0.9981911512069174 -0.007556727326670077
 -0.00011368808709424412 -0.0009866612465899082 0.00012066445295239435 0.0015802116808629003 0.9981911512069174 -0.007556727326670077 0.0017301753398573656 0.002983117609737621
0.01875781575657 0.0018923399078456596 0.004511724975667233 0.9979814774533894 -0.011345911800415751 0.00016613343310072665 0.0023711072599667264 -0.000151995404098141 -0.001482948794447308
 0.9979814774533894 -0.011345911800415751 0.0018926622810735854 0.004511666011202334 -0.00015199116843586918 -0.001482947821502277 0.0001641305207123176 0.002371408946239297
 0.00016613343310072665 0.0023711072599667264 -0.00015199116843586918 -0.001482947821502277 0.0018923487078993377 0.004511974410074804 0.9979814800077141 -0.01134566091549664
 -0.000151995404098141 -0.001482948794447308 0.0001641305207123176 0.002371408946239297 0.9979814800077141 -0.01134566091549664 0.0018926585301681986 0.004511918163112703
0.02501042100875 0.0020673501348312763 0.006060003999441159 0.9977538918873393 -0.015146901098798841 0.000218564126381676 0.00316310102004289 -0.0001966129378410032 -0.001980745345725776
 0.9977538918873393 -0.015146901098798841 0.0020679226725362184 0.006059919902262136 -0.0001966054683063609 -0.001980744145819096 0.0002150062048845428 0.0031635734966209508
 0.000218564126381676 0.00316310102004289 -0.0001966054683063609 -0.001980744145819096 0.0020673654058637157 0.006060336129660822 0.9977538960497256 -0.015146566776438476
 -0.0001966129378410032 -0.001980745345725776 0.0002150062048845428 0.0031635734966209508 0.9977538960497256 -0.015146566776438476 0.002067915607558538 0.006060255976056043
0.03126302626094 0.002255354479613373 0.007626735770207672 0.9975081449692904 -0.018960665436496483 0.00027893205950816 0.003955995496413147 -0.0002476310167584209 -0.002479900803585285
 0.9975081449692904 -0.018960665436496483 0.00225624833664547 0.007626623558630494 -0.000247619423401305 -0.0024798994362874474 0.00027337479859637577 0.003956682342877686
 0.00027893205950816 0.003955995496413147 -0.000247619423401305 -0.0024798994362874474 0.0022553779949824795 0.007627150390617314 0.9975081511188428 -0.01896024769394169
 -0.0002476310167584209 -0.002479900803585285 0.00027337479859637577 0.003956682342877686 0.9975081511188428 -0.01896024769394169 0.0022562369125986594 0.0076270435564195485
0.037515631513130004 0.0024566371941092653 0.009211217509276868 0.9972439824941284 -0.022787614146160238 0.0003473210772479162 0.004749733292735527 -0.00030513816899021553 -0.002980289484797643
 0.9972439824941284 -0.022787614146160238 0.002457923456237942 0.009211074063505903 -0.0003051215716561962 -0.0029802880163527627 0.00033931926857098564 0.004750683212810822
 0.0003473210772479162 0.004749733292735527 -0.0003051215716561962 -0.0029802880163527627 0.0024566707307978764 0.009211714379028393 0.9972439910116271 -0.022787112999805886
 -0.00030513816899021553 -0.002980289484797643 0.00033931926857098564 0.004750683212810822 0.9972439910116271 -0.022787112999805886 0.002457906620856387 0.009211577981175322
0.043768236765320004 0.0026714788284124195 0.010812931118558865 0.996961146930819 -0.026627962928000484 0.0004238144666881538 0.005544241485136174 -0.000369221370466189 -0.003481796304309428
 0.996961146930819 -0.026627962928000484 0.0026732285332924147 0.010812753182390875 -0.00036919889807542576 -0.003481794807613925 0.00041292192939511714 0.005545508365811432
 0.0004238144666881538 0.005544241485136174 -0.00036919889807542576 -0.003481794807613925 0.0026715241637147143 0.010813509977418898 0.996961158196241 -0.026627378377162544
 -0.000369221370466189 -0.003481796304309428 0.00041292192939511714 0.005545508365811432 0.996961158196241 -0.026627378377162544 0.0026732052235045956 0.010813341025847559
0.050020842017509996 0.002900157386385932 0.012431460547386792 0.9966593787563525 -0.030481816415278726 0.0005084947083415767 0.006339437324553867 -0.000439966140940229 -0.003984311068133128
 0.9966593787563525 -0.030481816415278726 0.002902441540183338 0.012431244729296851 -0.00043993693092460247 -0.003984309622689747 0.0004942642455000993 0.006341080298094112
 0.0005084947083415767 0.006339437324553867 -0.00043993693092460247 -0.003984309622689747 0.0029002163006241004 0.012432121108957226 0.9966593931519921 -0.03048114844860596
 -0.000439966140940229 -0.003984311068133128 0.0004942642455000993 0.006341080298094112 0.9966593931519921 -0.03048114844860596 0.0029024106853436675 0.012431916508206128
0.055454545454549996 0.0031103377011219703 0.013851391713168388 0.9963815549976446 -0.03384192710561765 0.0005887964549270606 0.007030975475984053 -0.0005069208436913266 -0.00442174622167645
 0.9963815549976446 -0.03384192710561765 0.0031131439609132484 0.013851140115561841 -0.0005068850842849968 -0.004421744890440789 0.0005713012561280124 0.007032997429683879
 0.0005887964549270606 0.007030975475984053 -0.0005068850842849968 -0.004421744890440789 0.0031104098633465537 0.01385212302650305 0.9963815724259235 -0.033841186627700894
 -0.0005069208436913266 -0.00442174622167645 0.0005713012561280124 0.007032997429683879 0.9963815724259235 -0.033841186627700894 0.0031131056733348333 0.013851884850512334
0.056273447269699996 0.003142948926755407 0.014066451248951894 0.9963384172402739 -0.03434920865077593 0.0006014433045846528 0.007135231031370919 -0.0005174565709537594 -0.004487725676721856
 0.9963384172402739 -0.03434920865077593 0.0031458385207083204 0.014066194022684091 -0.0005174197688752744 -0.004487724368600806 0.0005834266905703736 0.00713731453872299
 0.0006014433045846528 0.007135231031370919 -0.0005174197688752744 -0.004487724368600806 0.003143023202388498 0.014067193202917052 0.9963384351508401 -0.034348457243581015
 -0.0005174565709537594 -0.004487725676721856 0.0005834266905703736 0.00713731453872299 0.9963384351508401 -0.034348457243581015 0.0031457990419761443 0.014066949753096549
0.06252605252188 0.0034001278903028325 0.01571758788423672 0.9959980009571475 -0.03823012531733862 0.0007027406458249163 0.00793152733905762 -0.0006017753147029113 -0.004991932582374117
 0.9959980009571475 -0.03823012531733862 0.003403693915436984 0.015717285588954064 -0.0006017300739687495 -0.004991931504172893 0.0006804886341799737 0.007934121193800046
 0.0007027406458249163 0.00793152733905762 -0.0006017300739687495 -0.004991931504172893 0.0034002193101067358 0.015718410890586714 0.9959980227685916 -0.03822929043706419
 -0.0006017753147029113 -0.004991932582374117 0.0006804886341799737 0.007934121193800046 0.9959980227685916 -0.03822929043706419 0.0034036447243395696 0.015718125288027632
0.06877865777407 0.003671967274738897 0.0173845810243886 0.9956378681514462 -0.04212451697273062 0.0008124658995688034 0.00872822640411843 -0.0006930035616480091 -0.005496823883481879
 0.9956378681514462 -0.04212451697273062 0.0036762807367419605 0.01738422986434627 -0.0006929490432469959 -0.005496823134275267 0.0007855282449109736 0.008731405856619861
 0.0008124658995688034 0.00872822640411843 -0.0006929490432469959 -0.005496823134275267 0.003672077623230004 0.01738548471136953 0.9956378942528448 -0.04212359858056711
 -0.0006930035616480091 -0.005496823883481879 0.0007855282449109736 0.008731405856619861 0.9956378942528448 -0.04212359858056711 0.003676220737173619 0.017385153548754185
0.07503126302626001 0.003958738726219384 0.019067158724305148 0.9952577570210301 -0.046032307416160226 0.0009306969112827256 0.009525224393251977 -0.0007912209963756662 -0.006002290744921371
 0.9952577570210301 -0.046032307416160226 0.003963870659444487 0.019066754768195335 -0.000791156368723739 -0.006002290430226357 0.0008986224019775167 0.009529070194699405
 0.0009306969112827256 0.009525224393251977 -0.000791156368723739 -0.006002290430226357 0.003958869787113741 0.01906814269355366 0.9952577878032559 -0.04603130546158789
 -0.0007912209963756662 -0.006002290744921371 0.0008986224019775167 0.009529070194699405 0.9952577878032559 -0.04603130546158789 0.003963798745245718 0.019067762459684043
0.08128386827845 0.004260712569870416 0.020765060915466375 0.9948574059439805 -0.049953399238940176 0.001057510112865561 0.010322413872907464 -0.0008965057506759552 -0.0065082230195204985
 0.9948574059439805 -0.049953399238940176 0.004266734051409897 0.02076460009527611 -0.0008964301893940142 -0.006508223251256739 0.001019846612068203 0.010327012339070624
 0.001057510112865561 0.010322413872907464 -0.0008964301893940142 -0.006508223251256739 0.0042608661272830715 0.020766124735486318 0.9948574418016016 -0.04995231366586082
 -0.0008965057506759552 -0.0065082230195204985 0.001019846612068203 0.010327012339070624 0.9948574418016016 -0.04995231366586082 0.0042666491085930685 0.020765691814638595
0.08753647353064001 0.004578157808456707 0.022478035524421337 0.9944365536765423 -0.05388767765321758 0.0011929804368297576 0.011119684081001559 -0.0010089343493119125 -0.007014508991033344
 0.9944365536765423 -0.05388767765321758 0.004585139972644393 0.022477513633864795 -0.001008847037157064 -0.0070145098874725784 0.0011492749301108057 0.011125127155519584
 0.0011929804368297576 0.011119684081001559 -0.001008847037157064 -0.0070145098874725784 0.004578335645407315 0.022479178735207113 0.9944365950069883 -0.05388650839514705
 -0.0010089343493119125 -0.007014508991033344 0.0011492749301108057 0.011125127155519584 0.9944365950069883 -0.05388650839514705 0.0045850408777254595 0.022478689405935073
0.09378907878283 0.004911342093387976 0.02420583570558946 0.9939949395250236 -0.05783501321028129 0.0013371812333071247 0.011916921126835863 -0.001128581652286113 -0.007521035192531488
 0.9939949395250236 -0.05783501321028129 0.00491935614517089 0.024205248398156458 -0.0011284817789606024 -0.007521036878273539 0.0012869798818674818 0.011923306444062837
 0.0013371812333071247 0.011916921126835863 -0.0011284817789606024 -0.007521036878273539 0.004911545991552947 0.0242070578136473 0.9939949867295058 -0.05783376019488758
 -0.001128581652286113 -0.007521035192531488 0.0012869798818674818 0.011923306444062837 0.9939949867295058 -0.05783376019488758 0.004919241766109456 0.02420650824730116
0.100041684035 0.005260531677658763 0.025948217806495113 0.993532303505058 -0.061795263790557484 0.001490184189162187 0.01271400814000837 -0.0012555207940502155 -0.008027686279854162
 0.993532303505058 -0.061795263790557484 0.00526964890718559 0.02594756059293715 -0.0012554075561392675 -0.008027688885779502 0.001433032387940306 0.012721439087092121
 0.001490184189162187 0.01271400814000837 -0.0012554075561392675 -0.008027688885779502 0.0052607634168776694 0.025949518289372017 0.9935323569886741 -0.0617939269349222
 -0.0012555207940502155 -0.008027686279854162 0.001433032387940306 0.012721439087092121 0.9935323569886741 -0.0617939269349222 0.005269518103052342 0.025948904548021852
0.1059090909091 0.005603001607150233 0.027596305124581007 0.9930788186713023 -0.06552314857582484 0.0016418290316342562 0.013461746687505653 -0.0013813351396662877 -0.00850313369672254
 0.9930788186713023 -0.06552314857582484 0.005613218977630962 0.0275955780989806 -0.0013812086358386227 -0.008503137290747278 0.0015777408841239858 0.01347025805531622
 0.0016418290316342562 0.013461746687505653 -0.0013812086358386227 -0.008503137290747278 0.005603261088536583 0.027597678648568828 0.9930788784192556 -0.06552173296428175
 -0.0013813351396662877 -0.00850313369672254 0.0015777408841239858 0.01347025805531622 0.9930788784192556 -0.06552173296428175 0.005613071714545025 0.027597001004773827
0.1062942892872 0.005625991356228143 0.027704939838987974 0.9930483864886319 -0.065768276091818 0.0016520592495806758 0.013510825386686957 -0.00138982311972306 -0.00853434494139963
 0.9930483864886319 -0.065768276091818 0.005636283152673407 0.02770420808448223 -0.0013896957205731379 -0.008534348604640443 0.0015875016892132419 0.01351941116504246
 0.0016520592495806758 0.013510825386686957 -0.0013896957205731379 -0.008534348604640443 0.005626252713561963 0.02770631814117897 0.9930484466605021 -0.0657668553062311
 -0.00138982311972306 -0.00853434494139963 0.0015875016892132419 0.01351941116504246 0.9930484466605021 -0.0657668553062311 0.00563613477342838 0.027705636175159754
0.11254689453939999 0.00600798439525184 0.029475760315697475 0.992542930344695 -0.06975388675673087 0.001822874539383057 0.014307250365395149 -0.0015315581204450699 -0.009040891832683199
 0.992542930344695 -0.06975388675673087 0.006019522261312529 0.02947494923638054 -0.0015314157701004215 -0.009040896696581051 0.0017504552722287883 0.014317106051291696
 0.001822874539383057 0.014307250365395149 -0.0015314157701004215 -0.009040896696581051 0.006008277144695133 0.029477215849447496 0.992542997618764 -0.06975238194362525
 -0.0015315581204450699 -0.009040891832683199 0.0017504552722287883 0.014317106051291696 0.992542997618764 -0.06975238194362525 0.0060193551479714716 0.02947646149434406
0.11879949979160001 0.006406772453646733 0.03126043733348523 0.9920156780736277 -0.07375192325791179 0.0020026962862723006 0.015103157884425301 -0.0016807933664934605 -0.009547205533259988
 0.9920156780736277 -0.07375192325791179 0.00641962801950141 0.031259541992632936 -0.0016806352815681048 -0.009547211747337515 0.0019219587954490184 0.015114404488764426
 0.0020026962862723006 0.015103157884425301 -0.0016806352815681048 -0.009547211747337515 0.0064070983651731755 0.031261969478235486 0.9920157528681794 -0.07375033431224967
 -0.0016807933664934605 -0.009547205533259988 0.0019219587954490184 0.015114404488764426 0.9920157528681794 -0.07375033431224967 0.006419441004106905 0.03126113845143225
0.1250521050438 0.006822615498302129 0.0330587278615137 0.9914663739380665 -0.07776220458319494 0.002191588743723431 0.015898420131171705 -0.001837594439686449 -0.01005316251600203
 0.9914663739380665 -0.07776220458319494 0.00683686053629456 0.03305774316511266 -0.0018374198433630995 -0.010053170235930447 0.002102076015548973 0.015911184658305242
 0.002191588743723431 0.015898420131171705 -0.0018374198433630995 -0.010053170235930447 0.006822976337522218 0.03306033596546971 0.9914664566769068 -0.07776053139067658
 -0.001837594439686449 -0.01005316251600203 0.002102076015548973 0.015911184658305242 0.9914664566769068 -0.07776053139067658 0.006836652441741659 0.03305942386213768
0.131304710296 0.007255771713785867 0.034870387162196946 0.9908947635914118 -0.08178454179291728 0.002389614115034711 0.016692906731008688 -0.0020020248645455704 -0.010558637131166268
 0.9908947635914118 -0.08178454179291728 0.0072714781529308456 0.03486930785403488 -0.002001832986447151 -0.010558646518719994 0.00229086871403103 0.01670732223656211
 0.002389614115034711 0.016692906731008688 -0.002001832986447151 -0.010558646518719994 0.007256169241171516 0.03487207053898449 0.9908948547037808 -0.08178278423308757
 -0.0020020248645455704 -0.010558637131166268 0.00229086871403103 0.01670732223656211 0.9908948547037808 -0.08178278423308757 0.007271247793034287 0.034871072827543745
0.1375573155481 0.007604672831190673 0.03645800205159032 0.9904024522701297 -0.08558148708423578 0.0025716254840200663 0.01746234538179623 -0.0021490585638211184 -0.01103929360956622
 0.9904024522701297 -0.08558148708423578 0.007621917069032915 0.03645684584083418 -0.002148848100137802 -0.011039304659420681 0.0024634221920043047 0.017478386133304075
 0.0025716254840200663 0.01746234538179623 -0.002148848100137802 -0.011039304659420681 0.007605108029981769 0.03645976041358517 0.9904025521365011 -0.08557964510722746
 -0.0021490585638211184 -0.01103929360956622 0.0024634221920043047 0.017478386133304075 0.9904025521365011 -0.08557964510722746 0.0076216641230255735 0.036458694855616335
0.1438099208003 0.007965757006221794 0.038037629291628405 0.9898929790767131 -0.08936920166756253 0.002761013010152872 0.01822888950654982 -0.002301989395359105 -0.011517351183698335
 0.9898929790767131 -0.08936920166756253 0.007984611843392197 0.038036392299737626 -0.002301759489086983 -0.011517364057644417 0.0026429357874798286 0.018246676658566177
 0.002761013010152872 0.01822888950654982 -0.002301759489086983 -0.011517364057644417 0.007966231489202337 0.03803946197035527 0.9898930881237074 -0.08936727515959746
 -0.002301989395359105 -0.011517351183698335 0.0026429357874798286 0.018246676658566177 0.9898930881237074 -0.08936727515959746 0.007984335269279125 0.038038325358425044
0.1500625260525 0.008338902130500665 0.039609148453474304 0.9893664698124316 -0.09314760335365446 0.002957715591756954 0.018992467615488264 -0.0024607589651690826 -0.011992743685319013
 0.9893664698124316 -0.09314760335365446 0.008359440538296998 0.03960782656231129 -0.002460508759064259 -0.0119927585519193 0.002829350691351801 0.019012126732349484
 0.002957715591756954 0.018992467615488264 -0.002460508759064259 -0.0119927585519193 0.008339417496382187 0.03961105475532023 0.9893665884710626 -0.09314559219658568
 -0.0024607589651690826 -0.011992743685319013 0.002829350691351801 0.019012126732349484 0.9893665884710626 -0.09314559219658568 0.008359139295766527 0.03960984366681686
0.15631513130469998 0.008723985289215704 0.04117244280373078 0.9888230508509448 -0.09691661000893512 0.00316167144112315 0.019753009345719937 -0.002625308193932929 -0.012465406298379968
 0.9888230508509448 -0.09691661000893512 0.008746280414650144 0.04117103164871185 -0.002625036830545821 -0.012465423332933637 0.0030226074406063358 0.019774670357845348
