! Created with skrf 1.8.0 (http://scikit-rf.org).
# GHz S RI R 50.0 
!freq ReS11 ImS11 ReS12 ImS12 ReS13 ImS13
! ReS14 ImS14
! ReS21 ImS21 ReS22 ImS22 ReS23 ImS23
! ReS24 ImS24
! ReS31 ImS31 ReS32 ImS32 ReS33 ImS33
! ReS34 ImS34
! ReS41 ImS41 ReS42 ImS42 ReS43 ImS43
! ReS44 ImS44
!
0.0 0.001404835867906 0.0 0.9985951641101 0.0 5.398724120933e-05 0.0 -5.398724084293e-05 6.611530169309148e-21
 0.9985951641101 0.0 0.001404835867878 0.0 -5.398724084242e-05 6.6115301692466905e-21 5.398724120873e-05 0.0
 5.398724120933e-05 0.0 -5.398724084242e-05 6.6115301692466905e-21 0.001404835878549 0.0 0.9985951641208 0.0
 -5.398724084293e-05 6.611530169309148e-21 5.398724120873e-05 0.0 0.9985951641208 0.0 0.001404835878544 0.0
0.005 0.0015111215897934609 0.0011489212826065371 0.9984607553610264 -0.0029432667973788703 7.551537501870588e-05 0.00059849993637202 -7.335251207637932e-05 -0.0003750987516535455
 0.9984607553610264 -0.0029432667973788703 0.0015111332369635519 0.0011489144566388533 -7.33488400283501e-05 -0.00037509592982498896 7.546440098025896e-05 0.0005985194747937043
 7.551537501870588e-05 0.00059849993637202 -7.33488400283501e-05 -0.00037509592982498896 0.0015111238188106493 0.0011489872121685952 0.9984607557018066 -0.0029431997366690436
 -7.335251207637932e-05 -0.0003750987516535455 7.546440098025896e-05 0.0005985194747937043 0.9984607557018066 -0.0029431997366690436 0.001511131686407388 0.001148982646409535
0.006252605252188 0.0015388870100438393 0.0014406894022358223 0.998425438095218 -0.003679820665162615 8.16048611073903e-05 0.0007484200902731463 -7.876956883283769e-05 -0.00046936557080635185
 0.998425438095218 -0.003679820665162615 0.001538905216601632 0.001440680711123318 -7.876385478169439e-05 -0.00046936209085544244 8.152521999264974e-05 0.0007484454267854226
 8.16048611073903e-05 0.0007484200902731463 -7.876385478169439e-05 -0.00046936209085544244 0.0015388904299321958 0.0014407717918737972 0.9984254385631992 -0.0036797368574303345
 -7.876956883283769e-05 -0.00046936557080635185 8.152521999264974e-05 0.0007484454267854226 0.9984254385631992 -0.0036797368574303345 0.0015389027276032376 0.0014407659320922412
0.01250521050438 0.0016844093522106727 0.0029117433172580107 0.9982391885627935 -0.007360555208437376 0.00011620441611837478 0.0014972280405086086 -0.00010923416583395093 -0.0009410793227101487
 0.9982391885627935 -0.007360555208437376 0.001684482052142241 0.0029117243142576833 -0.00010921164625449376 -0.0009410728784690243 0.00011588686503325677 0.00149728852859141
 0.00011620441611837478 0.0014972280405086086 -0.00010921164625449376 -0.0009410728784690243 0.001684422445867647 0.0029119078120664016 0.9982391898661714 -0.007360387813885617
 -0.00010923416583395093 -0.0009410793227101487 0.00011588686503325677 0.00149728852859141 0.9982391898661714 -0.007360387813885617 0.0016844715425255485 0.0029118945612258418
0.01875781575657 0.0018416985568566785 0.004403933687702817 0.9980361998490399 -0.01105118571520811 0.00015786235314765284 0.0022469429919541404 -0.0001454699904332829 -0.001414471354330147
 0.9980361998490399 -0.01105118571520811 0.0018418619198376522 0.004403902590556952 -0.0001454197687363899 -0.0014144625530362707 0.00015714909983302722 0.0022470502661979946
 0.00015786235314765284 0.0022469429919541404 -0.0001454197687363899 -0.0014144625530362707 0.001841727562179765 0.004404180062297137 0.9980362023557127 -0.011050934831230009
 -0.0001454699904332829 -0.001414471354330147 0.00015714909983302722 0.0022470502661979946 0.9980362023557127 -0.011050934831230009 0.0018418378705406311 0.004404157818406531
0.02501042100875 0.002011042716113792 0.0059151946683593925 0.9978162483933593 -0.014753523945641561 0.00020665636046958796 0.002997611315109514 -0.00018756351375117877 -0.001889340128715573
 0.9978162483933593 -0.014753523945641561 0.0020113328392045767 0.005915149543789072 -0.0001874748219752314 -0.0018893296802684786 0.00020538960018888088 0.0029977787515866865
 0.00020665636046958796 0.002997611315109514 -0.0001874748219752314 -0.0018893296802684786 0.002011093862492191 0.005915522680422194 0.9978162524712141 -0.014753189624791116
 -0.00018756351375117877 -0.001889340128715573 0.00020538960018888088 0.0029977787515866865 0.9978162524712141 -0.014753189624791116 0.0020112897351987776 0.00591548977558644
0.03126302626094 0.0021927179079456044 0.007444474764354868 0.9975790984511851 -0.018468359168074683 0.000262664773548489 0.0037492103971598573 -0.00023559901264672388 -0.002365548653561166
 0.9975790984511851 -0.018468359168074683 0.002193170832853352 0.007444413529128904 -0.00023546118925547345 -0.0023655373719582914 0.00026068653560192554 0.003749453120720397
 0.000262664773548489 0.0037492103971598573 -0.00023546118925547345 -0.0023655373719582914 0.002192797419926237 0.007444884133478247 0.9975791044697957 -0.018467941439033665
 -0.00023559901264672388 -0.002365548653561166 0.00026068653560192554 0.003749453120720397 0.9975791044697957 -0.018467941439033665 0.0021931031609192446 0.007444838835000191
0.037515631513130004 0.002386994387192076 0.008991097185149491 0.9973245084410722 -0.022196097748685317 0.00032596580456300216 0.004501690587986274 -0.00028965918362287 -0.002842982526251001
 0.9973245084410722 -0.022196097748685317 0.002387646110364921 0.008991017605974413 -0.00028946166198930086 -0.002842971330038741 0.00032311788174540037 0.0045020254883657886
 0.00032596580456300216 0.004501690587986274 -0.00028946166198930086 -0.002842971330038741 0.0023871084818408643 0.008991587587677 0.997324516767868 -0.02219559662087746
 -0.00028965918362287 -0.002842982526251001 0.00032311788174540037 0.0045020254883657886 0.997324516767868 -0.02219559662087746 0.0023875483545905993 0.008991528098726127
0.043768236765320004 0.002594138970608883 0.010554565195927812 0.9970522334869578 -0.025936957735949406 0.0003966371844092008 0.005254987953037943 -0.0003498253699419797 -0.003321537173077197
 0.9970522334869578 -0.025936957735949406 0.002595025450713443 0.010554464889018178 -0.0003495576716138682 -0.003321527085542429 0.0003927610976123593 0.00525543370368891
 0.0003966371844092008 0.005254987953037943 -0.0003495576716138682 -0.003321527085542429 0.002594293862515263 0.01055513625055244 0.9970522444923314 -0.02593637321316134
 -0.0003498253699419797 -0.003321537173077197 0.0003927610976123593 0.00525543370368891 0.9970522444923314 -0.02593637321316134 0.002594892095527575 0.01055506071077135
0.050020842017509996 0.002814416156759386 0.012134481661218196 0.9967620266992016 -0.02969104925064587 0.00047475595386747415 0.006009029539058151 -0.00041617764742748976 -0.0038011125770578006
 0.9967620266992016 -0.02969104925064587 0.0028155733206737706 0.012134358091572773 -0.0004158293776950537 -0.003801104726314321 0.0004696929356158419 0.006009606617095828
 0.00047475595386747415 0.006009029539058151 -0.0004158293776950537 -0.003801104726314321 0.0028146180562167136 0.012135132935097716 0.9967620407546451 -0.029690381324286728
 -0.00041617764742748976 -0.0038011125770578006 0.0004696929356158419 0.006009606617095828 0.9967620407546451 -0.029690381324286728 0.0028153988483436703 0.012135039421081737
0.055454545454549996 0.0030167130988330406 0.013520572273916065 0.9964950726571847 -0.03296424775521757 0.0005487509291713838 0.0066648574012219105 -0.0004789249080923312 -0.004218630943376607
 0.9964950726571847 -0.03296424775521757 0.003018134651276502 0.013520426311473434 -0.00047849824035652564 -0.004218626034082113 0.000542527264869048 0.006665566652860082
 0.0005487509291713838 0.0066648574012219105 -0.00047849824035652564 -0.004218626034082113 0.0030169608897115253 0.013521292866857213 0.9964950896660024 -0.03296350733373285
 -0.0004789249080923312 -0.004218630943376607 0.000542527264869048 0.006665566652860082 0.9964950896660024 -0.03296350733373285 0.003017919964274914 0.01352118212191964
0.056273447269699996 0.003048088708743968 0.013730509551181483 0.9964536399213336 -0.033458413913651744 0.0005603983166702385 0.006763735959280846 -0.0004887948511257643 -0.004281610688246714
 0.9964536399213336 -0.033458413913651744 0.0030495524566157613 0.013730360031767983 -0.0004883556960203618 -0.004281606307268522 0.0005539893058528343 0.006764466665939669
 0.0005603983166702385 0.006763735959280846 -0.0004883556960203618 -0.004281606307268522 0.003048343822001908 0.013731240556423052 0.9964536573996756 -0.03345766256538027
 -0.0004887948511257643 -0.004281610688246714 0.0005539893058528343 0.006764466665939669 0.9964536573996756 -0.03345766256538027 0.003049331347284408 0.013731127082048369
0.06252605252188 0.003295417970063062 0.015342350250943253 0.9961268242124965 -0.03723904647190851 0.0006536395265618678 0.007519022807375664 -0.0005677545685905423 -0.0047629340076239
 0.9961268242124965 -0.03723904647190851 0.0032972241800305973 0.015342171941657476 -0.0005672142928804647 -0.004762934434266408 0.0006457251704996871 0.007519931288694206
 0.0006536395265618678 0.007519022807375664 -0.0005672142928804647 -0.004762934434266408 0.0032957324990786543 0.015343160443121076 0.99612684548835 -0.03723821167442478
 -0.0005677545685905423 -0.0047629340076239 0.0006457251704996871 0.007519931288694206 0.99612684548835 -0.03723821167442478 0.003296950910843176 0.015343024959796064
0.06877865777407 0.003556664040203128 0.016969730600342833 0.9957813301931033 -0.04103290769612849 0.0007545537908972816 0.00827480150486858 -0.0006531331163481089 -0.005244984740107416
 0.9957813301931033 -0.04103290769612849 0.0035588485723534622 0.01696952050692808 -0.0006524815620677074 -0.00524499141708879 0.0007449744527788347 0.008275913772442632
 0.0007545537908972816 0.00827480150486858 -0.0006524815620677074 -0.00524499141708879 0.0035570441825537435 0.01697061937729484 0.9957813556430115 -0.041031989413542594
 -0.0006531331163481089 -0.005244984740107416 0.0007449744527788347 0.008275913772442632 0.9957813556430115 -0.041031989413542594 0.003558517617654694 0.016970459774143153
0.07503126302626001 0.00383208586510637 0.01861239469660647 0.9954169083084576 -0.044839932518173385 0.0008632141854269318 0.009030979838123478 -0.0007450055046217364 -0.005727664260779381
 0.9954169083084576 -0.044839932518173385 0.003834684565641496 0.018612149669354764 -0.0007442325901049181 -0.00572767873566657 0.0008518099553687057 0.009032323789813623
 0.0008632141854269318 0.009030979838123478 -0.0007442325901049181 -0.00572767873566657 0.00383253781410309 0.0186133613935901 0.9954169383116649 -0.0448389307100597
 -0.0007450055046217364 -0.005727664260779381 0.0008518099553687057 0.009032323789813623 0.9954169383116649 -0.0448389307100597 0.0038342903971621185 0.01861317549748474
0.08128386827845 0.004121941275293234 0.020270098422553846 0.9950333090425252 -0.04866003544566552 0.0009796925751979668 0.009787462314146058 -0.0008434453948020207 -0.0062108727652281205
 0.9950333090425252 -0.04866003544566552 0.004124989980213852 0.020269815154965547 -0.0008425411140255721 -0.0062108966904001455 0.0009663032846313972 0.009789067754677703
 0.0009796925751979668 0.009787462314146058 -0.0008425411140255721 -0.0062108966904001455 0.004122471219116238 0.020271142318207477 0.995033343980894 -0.048658950060347775
 -0.0008434453948020207 -0.0062108727652281205 0.0009663032846313972 0.009789067754677703 0.995033343980894 -0.048658950060347775 0.004124527066463872 0.02027092789370637
0.08753647353064001 0.004426486987887931 0.021942605678135607 0.994630283099084 -0.052493114276528904 0.0011040595396167633 0.010544150413832332 -0.0009485250520513328 -0.006694509025499022
 0.994630283099084 -0.052493114276528904 0.004430021526876502 0.021942280705337873 -0.0009474794742425061 -0.006694544158109833 0.0010885247778440275 0.010546049075222686
 0.0011040595396167633 0.010544150413832332 -0.0009474794742425061 -0.006694544158109833 0.004427101109166265 0.021943725990810823 0.9946303233570334 -0.05249194525393927
 -0.0009485250520513328 -0.006694509025499022 0.0010885247778440275 0.010546049075222686 0.9946303233570334 -0.05249194525393927 0.004429484333086455 0.0219434807399277
0.09378907878283 0.004745978585548299 0.023629685677020677 0.9942075815615709 -0.05633905275160052 0.001236384300165732 0.011300942770007002 -0.0010603152940925624 -0.007178470224432887
 0.9942075815615709 -0.05633905275160052 0.0047500347853216916 0.02362931537423527 -0.0010591185635242769 -0.00717851842634728 0.001218543432981735 0.011303168331820386
 0.001236384300165732 0.011300942770007002 -0.0010591185635242769 -0.00717851842634728 0.0047466830612007205 0.023630881560950133 0.9942076275272478 -0.056337800026415016
 -0.0010603152940925624 -0.007178470224432887 0.001218543432981735 0.011303168331820386 0.9942076275272478 -0.056337800026415016 0.004749417773734434 0.023630603122883623
0.100041684035 0.00508067047730202 0.025331110964307103 0.9937649560392511 -0.06019772248991996 0.0013767346498830587 0.01205773530402492 -0.0011788854371861945 -0.007662651834709571
 0.9937649560392511 -0.06019772248991996 0.0050852841655356935 0.025330691544973014 -0.0011775277731757112 -0.007662715072434982 0.0013564268400357259 0.012060323413376858
 0.0013767346498830587 0.01205773530402492 -0.0011775277731757112 -0.007662715072434982 0.005081471477804904 0.025332381511514235 0.9937650081039946 -0.06019638598878086
 -0.0011788854371861945 -0.007662651834709571 0.0013564268400357259 0.012060323413376858 0.9937650081039946 -0.06019638598878086 0.005084581794917055 0.025332067462176963
0.1059090909091 0.005408793370151974 0.026940564027770886 0.9933312576039147 -0.06383012998443112 0.0015157968271548852 0.012767809992294946 -0.0012963775654684217 -0.008117110695357355
 0.9933312576039147 -0.06383012998443112 0.005413962790624705 0.026940094928179916 -0.0012948600539627257 -0.00811718992426156 0.001493027611780288 0.01277077250470208
 0.0015157968271548852 0.012767809992294946 -0.0012948600539627257 -0.00811718992426156 0.0054096905547416614 0.026941903757279517 0.9933313157512448 -0.06382871479407687
 -0.0012963775654684217 -0.008117110695357355 0.001493027611780288 0.01277077250470208 0.9933313157512448 -0.06382871479407687 0.005413175277216842 0.02694155402896745
0.1062942892872 0.005430815846758403 0.027046655928403798 0.9933021588019023 -0.0640689844333017 0.001525176884314869 0.012814421331724559 -0.001304303239922023 -0.008146947531940806
 0.9933021588019023 -0.0640689844333017 0.00543602285524783 0.0270461834423079 -0.0013027749368880964 -0.00814702787654666 0.0015022411132108989 0.012817409622993842
 0.001525176884314869 0.012814421331724559 -0.0013027749368880964 -0.00814702787654666 0.005431719535611708 0.027048000168731334 0.9933022173608276 -0.06406756407415533
 -0.001304303239922023 -0.008146947531940806 0.0015022411132108989 0.012817409622993842 0.9933022173608276 -0.06406756407415533 0.00543522958127534 0.027047648020150816
0.11254689453939999 0.005796666591034548 0.028776095661734745 0.9928189429084332 -0.06795268994596171 0.0016817757328005537 0.013570891647018992 -0.0014366348455097243 -0.008631249133556845
 0.9928189429084332 -0.06795268994596171 0.005802502759257808 0.028775565993007773 -0.0014349262731889333 -0.008631348760581161 0.0016560508236921601 0.013574319761283789
 0.0016817757328005537 0.013570891647018992 -0.0014349262731889333 -0.008631348760581161 0.00579767912409411 0.02877751255933426 0.9928190083604945 -0.06795118564081815
 -0.0014366348455097243 -0.008631249133556845 0.0016560508236921601 0.013574319761283789 0.9928190083604945 -0.06795118564081815 0.005801613034310485 0.028777119758964746
0.11879949979160001 0.006178473250700118 0.03051920507337721 0.9923150623293764 -0.07184868166636059 0.0018465942906344336 0.014327034591493983 -0.0015759447224709805 -0.009115446555237371
 0.9923150623293764 -0.07184868166636059 0.006184974429484187 0.030518613938224328 -0.0015740463262160363 -0.009115567744570357 0.0018179189330075965 0.014330944195669264
 0.0018465942906344336 0.014327034591493983 -0.0015740463262160363 -0.009115567744570357 0.006179600775766632 0.030520693526734095 0.9923151350782348 -0.07184709332050888
 -0.0015759447224709805 -0.009115446555237371 0.0018179189330075965 0.014330944195669264 0.9923151350782348 -0.07184709332050888 0.006183982702927367 0.030520257456544565
0.1250521050438 0.006576484935344303 0.03227575817950889 0.9917902720670596 -0.07575679418511175 0.002019693951394069 0.015082736114870425 -0.0017222956044445333 -0.0095994277801006
 0.9917902720670596 -0.07575679418511175 0.0065836869902098465 0.03227510112389011 -0.0017201979056222852 -0.00959957291585484 0.001987906726358404 0.015087170920508482
 0.002019693951394069 0.015082736114870425 -0.0017201979056222852 -0.00959957291585484 0.0065777335912181245 0.03227731702459565 0.9917903525203964 -0.07575512169327325
 -0.0017222956044445333 -0.0095994277801006 0.001987906726358404 0.015087170920508482 0.9917903525203964 -0.07575512169327325 0.006582587707943485 0.03227683500009223
0.131304710296 0.006990949242698079 0.0340455275516859 0.9912443282713858 -0.07967685456937493 0.0022011343398169432 0.015837879826763015 -0.0018757484287550924 -0.010083078840338716
 0.9912443282713858 -0.07967685456937493 0.00699888805707925 0.034044799948853136 -0.0018734420251252468 -0.01008325041072187 0.002166073746576298 0.015842885608428583
 0.0022011343398169432 0.015837879826763015 -0.0018734420251252468 -0.01008325041072187 0.006992325158779075 0.03404715555444724 0.9912444168423379 -0.07967509782258081
 -0.0018757484287550924 -0.010083078840338716 0.002166073746576298 0.015842885608428583 0.9912444168423379 -0.07967509782258081 0.006997675662310504 0.034046624823486665
0.1375573155481 0.007323644765255024 0.03559714203716497 0.9907754876572971 -0.08337745962644727 0.002367251677987498 0.016568841350046288 -0.0020126832420090325 -0.01054276248966516
 0.9907754876572971 -0.08337745962644727 0.007332357915801941 0.03559635428791086 -0.0020101542632148385 -0.010542960530428124 0.0023288318538149826 0.01657440855528811
 0.002367251677987498 0.016568841350046288 -0.0020101542632148385 -0.010542960530428124 0.007325153595270657 0.03559883793340674 0.9907755847143052 -0.08337561858211637
 -0.0020126832420090325 -0.01054276248966516 0.0023288318538149826 0.01657440855528811 0.9907755847143052 -0.08337561858211637 0.007331027407159223 0.035598270955525646
0.1438099208003 0.00766792959714162 0.037141147918598856 0.9902903704260634 -0.08706925730629748 0.002540087927036883 0.01729717843070675 -0.002155108687325546 -0.011000054474320772
 0.9902903704260634 -0.08706925730629748 0.007677453236698899 0.037140296416942366 -0.0021523470359577947 -0.011000281415227518 0.002498160943146511 0.01730334875389774
 0.002540087927036883 0.01729717843070675 -0.0021523470359577947 -0.011000281415227518 0.0076695773720833445 0.03714291042874551 0.9902904763795166 -0.08706733186235843
 -0.002155108687325546 -0.011000054474320772 0.002498160943146511 0.01730334875389774 0.9902904763795166 -0.08706733186235843 0.007675999153143265 0.03714230554881096
0.1500625260525 0.008023690076555073 0.03867743305938208 0.9897890938273383 -0.09075217309066447 0.0027195883431656016 0.018022827623834344 -0.0023029718184903953 -0.01145489478203989
 0.9897890938273383 -0.09075217309066447 0.008034060383858503 0.03867651402347212 -0.0022999674164946105 -0.011455153150083549 0.002674007071668586 0.01802964427680586
 0.0027195883431656016 0.018022827623834344 -0.0022999674164946105 -0.011455153150083549 0.008025482813330721 0.03867926085572403 0.9897892090916619 -0.09075016313746546
 -0.0023029718184903953 -0.01145489478203989 0.002674007071668586 0.01802964427680586 0.9897892090916619 -0.09075016313746546 0.008032477267824068 0.03867861632255789
0.15631513130469998 0.008390811825874232 0.04020588879618732 0.9892717756073534 -0.09442613238319694 0.002905697587778585 0.01874572646874011 -0.002456219085665614 -0.011907224604478676
