! Created with skrf 1.8.0 (http://scikit-rf.org).
# GHz S RI R 50.0 
!freq ReS11 ImS11 ReS12 ImS12 ReS13 ImS13
! ReS14 ImS14
! ReS21 ImS21 ReS22 ImS22 ReS23 ImS23
! ReS24 ImS24
! ReS31 ImS31 ReS32 ImS32 ReS33 ImS33
! ReS34 ImS34
! ReS41 ImS41 ReS42 ImS42 ReS43 ImS43
! ReS44 ImS44
!
0.0 0.001599675757357 0.0 0.9984003241933 0.0 6.189843229504e-05 0.0 -6.189843233439e-05 7.580371703054975e-21
 0.9984003241933 0.0 0.001599675757371 0.0 -6.189843233434e-05 7.580371703048851e-21 6.189843229597e-05 0.0
 6.189843229504e-05 0.0 -6.189843233434e-05 7.580371703048851e-21 0.001599675782042 0.0 0.998400324218 0.0
 -6.189843233439e-05 7.580371703054975e-21 6.189843229597e-05 0.0 0.998400324218 0.0 0.001599675782058 0.0
0.005 0.0017213133255201993 0.0013065914718150239 0.9982464093054304 -0.003350850514363378 8.707315695525779e-05 0.0006934079788282297 -8.451873621249462e-05 -0.00043321341899425243
 0.9982464093054304 -0.003350850514363378 0.001721312603395694 0.0013065918341129603 -8.45148725453023e-05 -0.00043321044616276283 8.709958483047853e-05 0.0006933980696944503
 8.707315695525779e-05 0.0006934079788282297 -8.45148725453023e-05 -0.00043321044616276283 0.001721315701758161 0.0013066573169968007 0.9982464096684094 -0.003350783461003514
 -8.451873621249462e-05 -0.00043321341899425243 8.709958483047853e-05 0.0006933980696944503 0.9982464096684094 -0.003350783461003514 0.0017213109523656872 0.001306660096657748
0.006252605252188 0.0017532664237652198 0.0016383809213840292 0.9982057151796898 -0.0041893753455672705 9.428308886973863e-05 0.000867087937749284 -9.092989175861581e-05 -0.0005420762881667902
 0.9982057151796898 -0.0041893753455672705 0.0017532652951648712 0.0016383813607996616 -9.092387961812046e-05 -0.0005420726228767942 9.432438177989246e-05 0.0008670750440827915
 9.428308886973863e-05 0.000867087937749284 -9.092387961812046e-05 -0.0005420726228767942 0.001753270062384205 0.001638463221706356 0.9982057156707481 -0.004189291531297254
 -9.092989175861581e-05 -0.0005420762881667902 9.432438177989246e-05 0.0008670750440827915 0.9982057156707481 -0.004189291531297254 0.0017532626376214548 0.001638466690803197
0.01250521050438 0.0019217726508867863 0.0033110762738680784 0.9979896641587586 -0.008379506711269656 0.00013572400723700824 0.001734483778835569 -0.00012743779347728504 -0.0010867564622318842
 0.9979896641587586 -0.008379506711269656 0.0019217681475484597 0.0033110769879427914 -0.00012741410061703262 -0.0010867496897336566 0.00013588872995561635 0.0017344525240683838
 0.00013572400723700824 0.001734483778835569 -0.00012741410061703262 -0.0010867496897336566 0.001921786627145117 0.0033112405766147733 0.9979896655619658 -0.00837933932721124
 -0.00012743779347728504 -0.0010867564622318842 0.00013588872995561635 0.0017344525240683838 0.9979896655619658 -0.00837933932721124 0.0019217569727124943 0.003311247465259708
0.01875781575657 0.0021055735392542596 0.005007539808493944 0.997751894647183 -0.012580581200936396 0.0001863193236080282 0.0026027726857995857 -0.00017153695931622535 -0.001633232420375153
 0.997751894647183 -0.012580581200936396 0.002105563426563416 0.005007540557141627 -0.00017148412418840217 -0.0016332232101978433 0.00018668948896308446 0.0026027165335475062
 0.0001863193236080282 0.0026027726857995857 -0.00017148412418840217 -0.0016332232101978433 0.002105604530155483 0.005007785899903452 0.9977518973764905 -0.012580330356953686
 -0.00017153695931622535 -0.001633232420375153 0.00018668948896308446 0.0026027165335475062 0.9977518973764905 -0.012580330356953686 0.002105537882264518 0.005007796191817658
0.02501042100875 0.0023050363248569078 0.006725379143613726 0.9974921189403476 -0.016794620182074792 0.000246168225140935 0.0034719849500049436 -0.0002233382282764462 -0.002181244360065338
 0.9974921189403476 -0.016794620182074792 0.0023050183741612504 0.006725379608873836 -0.00022324492676765092 -0.0021812335047200868 0.00024682595898302124 0.003471896321115569
 0.000246168225140935 0.0034719849500049436 -0.00022324492676765092 -0.0021812335047200868 0.002305091002430526 0.006725706802393119 0.9974921234110761 -0.016794285947939067
 -0.0002233382282764462 -0.002181244360065338 0.00024682595898302124 0.003471896321115569 0.9974921234110761 -0.016794285947939067 0.0023049726159164534 0.006725720506000921
0.03126302626094 0.0025205130518188594 0.008463355557544426 0.997210035074313 -0.021022479464917903 0.0003153701481173181 0.004342069360097687 -0.00028294913001399507 -0.002730607457970389
 0.997210035074313 -0.021022479464917903 0.002520485036074974 0.008463355341598967 -0.0002828041521821901 -0.00273059587433304 0.0003163977644311656 0.004341939623350515
 0.0003153701481173181 0.004342069360097687 -0.0002828041521821901 -0.00273059587433304 0.0025205980817032143 0.00846376452201492 0.9972100416992924 -0.021022061902797158
 -0.00028294913001399507 -0.002730607457970389 0.0003163977644311656 0.004341939623350515 0.9972100416992924 -0.021022061902797158 0.0025204132204398816 0.008463781668877745
0.037515631513130004 0.002752348016833739 0.010220655634893097 0.9969053345333128 -0.025264577594240598 0.00039402382793052304 0.005212942373585553 -0.00035047466496440773 -0.003281162711849792
 0.9969053345333128 -0.025264577594240598 0.0027523077067988897 0.010220654258462268 -0.0003502669032788949 -0.0032811514415780033 0.0003955038641954682 0.0052127618327699
 0.00039402382793052304 0.005212942373585553 -0.0003502669032788949 -0.0032811514415780033 0.0027524700633715263 0.010221145603807021 0.996905343726179 -0.02526407675721783
 -0.00035047466496440773 -0.003281162711849792 0.0003955038641954682 0.0052127618327699 0.996905343726179 -0.02526407675721783 0.0027522039934302174 0.010221166248030567
0.043768236765320004 0.0030008806413031673 0.011996669633887307 0.9965777053851919 -0.029521117410860175 0.00048222684559743456 0.006084503088910289 -0.0004260175784880142 -0.0038327619792755652
 0.9965777053851919 -0.029521117410860175 0.0030008258013800994 0.011996666534634621 -0.00042573602084109173 -0.003832752188929367 0.00048424208085269673 0.00608426096861559
 0.00048222684559743456 0.006084503088910289 -0.00042573602084109173 -0.003832752188929367 0.00300104636482989 0.011997240260860497 0.9965777175572781 -0.02952053334774241
 -0.0004260175784880142 -0.0038327619792755652 0.00048424208085269673 0.00608426096861559 0.9965777175572781 -0.02952053334774241 0.0030006843492630295 0.01199726447888324
0.050020842017509996 0.0032664467956557575 0.013790899876423936 0.996226833873317 -0.033792177588966736 0.0005800753515551926 0.006956639420826991 -0.0005096784525578999 -0.004385261814863225
 0.996226833873317 -0.033792177588966736 0.0032663751798957343 0.013790894407595235 -0.0005093121778253862 -0.004385254795943998 0.0005827088156506352 0.006956323851733018
 0.0005800753515551926 0.006956639420826991 -0.0005093121778253862 -0.004385254795943998 0.0032666628553231106 0.013791550768905564 0.9962268494359747 -0.0337915103444015
 -0.0005096784525578999 -0.004385261814863225 0.0005827088156506352 0.006956323851733018 0.9962268494359747 -0.0337915103444015 0.003266190149723188 0.013791578659477029
0.055454545454549996 0.0035113238296993142 0.015364598564187773 0.9959027959073028 -0.03751565161931672 0.0006730154355922235 0.007714926585228111 -0.000589051565895604 -0.004866022169404802
 0.9959027959073028 -0.03751565161931672 0.0035112358002636597 0.015364590444271882 -0.0005886028686760916 -0.004866018704812661 0.0006762537871827958 0.007714536686672852
 0.0006730154355922235 0.007714926585228111 -0.0005886028686760916 -0.004866018704812661 0.003511589039667173 0.015365318851682134 0.9959028147498462 -0.037514912123381955
 -0.000589051565895604 -0.004866022169404802 0.0006762537871827958 0.007714536686672852 0.9959028147498462 -0.037514912123381955 0.00351100815749907 0.015365350031484482
0.056273447269699996 0.003549379478478904 0.01560291580521931 0.9958524053661345 -0.038077757508181216 0.000687663864186576 0.007829231139868928 -0.0006015557195956046 -0.0049385204470995
 0.9958524053661345 -0.038077757508181216 0.003549288826583832 0.015602907234258653 -0.0006010938947898474 -0.0049385176160211385 0.0006909988412890894 0.007828829143710758
 0.000687663864186576 0.007829231139868928 -0.0006010938947898474 -0.0049385176160211385 0.003549652531372995 0.015603646520187139 0.9958524247296113 -0.03807700712605276
 -0.0006015557195956046 -0.0049385204470995 0.0006909988412890894 0.007828829143710758 0.9958524247296113 -0.03807700712605276 0.003549054379195692 0.01560367820455855
0.06252605252188 0.0038500091705851087 0.01743232925464299 0.9954541049871726 -0.04237780191563425 0.0008050851081594747 0.008702151545568705 -0.0007017456336405837 -0.005492396125851436
 0.9954541049871726 -0.04237780191563425 0.00384989720352957 0.017432316762010385 -0.0007011775119180237 -0.005492399023905407 0.0008092051369269671 0.008701649019951277
 0.0008050851081594747 0.008702151545568705 -0.0007011775119180237 -0.005492399023905407 0.00385034587252847 0.01743313929357895 0.9954541285613735 -0.04237696844324469
 -0.0007017456336405837 -0.005492396125851436 0.0008092051369269671 0.008701649019951277 0.9954541285613735 -0.04237696844324469 0.0038496075010912606 0.017433174915866163
0.06877865777407 0.0041686640174265184 0.01927877971723491 0.9950316180763898 -0.046692215597217306 0.0009324298729957507 0.009575268469175852 -0.0008103422191118537 -0.006046746145405666
 0.9950316180763898 -0.046692215597217306 0.0041685284332659295 0.01927876239524458 -0.000809657138504323 -0.006046756438685675 0.0009374187441313248 0.009574650172279098
 0.0009324298729957507 0.009575268469175852 -0.000809657138504323 -0.006046756438685675 0.004169071022261159 0.019279668534534503 0.9950316462705775 -0.04669129907587465
 -0.0008103422191118537 -0.006046746145405666 0.0009374187441313248 0.009574650172279098 0.9950316462705775 -0.04669129907587465 0.004168177638884552 0.019279708262150457
0.07503126302626001 0.0045056699044586385 0.021141925014209105 0.9945846305499058 -0.0510208726499447 0.0010697868849800318 0.010448444915822907 -0.0009274372042630341 -0.006601426233377008
 0.9945846305499058 -0.0510208726499447 0.004505508374073261 0.021141901866049206 -0.0009266245869312219 -0.006601445712706093 0.0010757286367708665 0.010447694451056217
 0.0010697868849800318 0.010448444915822907 -0.0009266245869312219 -0.006601445712706093 0.004506153864406101 0.021142892007751237 0.9945846637725815 -0.051019873123463975
 -0.0009274372042630341 -0.006601426233377008 0.0010757286367708665 0.010447694451056217 0.9945846637725815 -0.051019873123463975 0.0045050906519869295 0.021142936031949028
0.08128386827845 0.004861350470692087 0.023021435075374463 0.9941128292005205 -0.055363622650994634 0.0012172426861671887 0.011321539499906105 -0.0010531199457209566 -0.00715629015202787
 0.9941128292005205 -0.055363622650994634 0.004861160633152338 0.0230214050141969 -0.0010521692974416051 -0.007156320732859551 0.0012242215986986564 0.011320639300567856
 0.0012172426861671887 0.011321539499906105 -0.0010521692974416051 -0.007156320732859551 0.0048619180359209015 0.023022479589260143 0.9941128678598925 -0.05536254016204419
 -0.0010531199457209566 -0.00715629015202787 0.0012242215986986564 0.011320639300567856 0.9941128678598925 -0.05536254016204419 0.0048606701494661175 0.023022528125871574
0.08753647353064001 0.005236027076108121 0.02491698765139645 0.993615901957481 -0.05972029490064872 0.001374881518455646 0.012194406752172163 -0.0011874773464510453 -0.007711189433722375
 0.993615901957481 -0.05972029490064872 0.005235806533966893 0.02491694949949637 -0.0011863782564540792 -0.007711233156037123 0.0013829821065444508 0.01219333806606424
 0.001374881518455646 0.012194406752172163 -0.0011863782564540792 -0.007711233156037123 0.005236684894469874 0.02491810897110605 0.9936159464610558 -0.059719129494642476
 -0.0011874773464510453 -0.007711189433722375 0.0013829821065444508 0.01219333806606424 0.9936159464610558 -0.059719129494642476 0.005235237456917088 0.024918162261292443
0.09378907878283 0.0056300187406634105 0.02682826524288359 0.9930935381203998 -0.06409070145492224 0.0015427852113406746 0.01306689734996574 -0.0013305937686343145 -0.00826597319925478
 0.9930935381203998 -0.06409070145492224 0.005629765055484884 0.02682821773108823 -0.001329335909640145 -0.008266032227426032 0.001552092216530209 0.013065640224102339
 0.0015427852113406746 0.01306689734996574 -0.001329335909640145 -0.008266032227426032 0.005630773457294522 0.026829462599291233 0.9930935888752555 -0.06408945317505264
 -0.0013305937686343145 -0.00826597319925478 0.001552092216530209 0.013065640224102339 0.9930935888752555 -0.06408945317505264 0.005629111555757856 0.026829520910559818
0.100041684035 0.006043642060271245 0.028754952864895517 0.9925454285750575 -0.06847463932995505 0.001721033071441162 0.013938858293234132 -0.001482550943716515 -0.008820488036569795
 0.9925454285750575 -0.06847463932995505 0.00604335274807405 0.028754894631924346 -0.0014811240722093764 -0.008820564659217128 0.0017316314530065075 0.013937391558507
 0.001721033071441162 0.013938858293234132 -0.0014811240722093764 -0.008820564659217128 0.00604450031794773 0.028756225430983353 0.9925454859881283 -0.06847330821945537
 -0.001482550943716515 -0.008820488036569795 0.0017316314530065075 0.013937391558507 0.9925454859881283 -0.06847330821945537 0.006042608999476502 0.02875628905816416
0.1059090909091 0.006449918258825731 0.030576680244417603 0.9920073966776946 -0.07260061407875898 0.001897776025468608 0.014756480046851761 -0.0016332576188295962 -0.009340457858649722
 0.9920073966776946 -0.07260061407875898 0.006449593209999817 0.03057661063036505 -0.0016316629054676087 -0.009340553183868925 0.0019096636818496274 0.01475479626673001
 0.001897776025468608 0.014756480046851761 -0.0016316629054676087 -0.009340553183868925 0.006450879716899966 0.03057802257932135 0.9920074607080875 -0.07259920528284755
 -0.0016332576188295962 -0.009340457858649722 0.0019096636818496274 0.01475479626673001 0.9920074607080875 -0.07259920528284755 0.0064487594765824125 0.030578091488489566
0.1062942892872 0.006477211108786932 0.03069673635730063 0.9919712659973307 -0.07287189216731911 0.0019097017741796446 0.014810133046887277 -0.0016434278792926756 -0.009374577919512036
 0.9919712659973307 -0.07287189216731911 0.006476883634749091 0.03069666594944891 -0.001641821835775157 -0.009374674549348736 0.0019216766995587815 0.014808434302895378
 0.0019097017741796446 0.014810133046887277 -0.001641821835775157 -0.009374674549348736 0.006478179546449461 0.030698083244221172 0.9919713304745761 -0.07287047827253763
 -0.0016434278792926756 -0.009374577919512036 0.0019216766995587815 0.014808434302895378 0.9919713304745761 -0.07287047827253763 0.006476043814359573 0.030698152510702317
0.11254689453939999 0.006931037325786391 0.03265330110363092 0.9913707450466671 -0.07728223149862132 0.0021088652560928033 0.015680561660782133 -0.0018133007646869358 -0.00992808415540768
 0.9913707450466671 -0.07728223149862132 0.006930669099274022 0.03265321697441399 -0.001811505474149921 -0.00992820332906867 0.0021223020904560246 0.01567860726062444
 0.0021088652560928033 0.015680561660782133 -0.001811505474149921 -0.00992820332906867 0.006932122578630069 0.032654721365701314 0.9913708169939781 -0.07728073486305662
 -0.0018133007646869358 -0.00992808415540768 0.0021223020904560246 0.01567860726062444 0.9913708169939781 -0.07728073486305662 0.006929727388429385 0.03265479662468232
0.11879949979160001 0.00740542939563898 0.03462433103710791 0.9907435625549862 -0.08170541773034369 0.002318594608531372 0.016549980873119104 -0.001992242874458267 -0.010480845355849401
 0.9907435625549862 -0.08170541773034369 0.007405017765521798 0.034624231547130985 -0.0019902483470475244 -0.010480989733645385 0.00233357890388342 0.016547745908346612
 0.002318594608531372 0.016549980873119104 -0.0019902483470475244 -0.010480989733645385 0.007406638094621775 0.034625823665016806 0.9907436423777524 -0.08170383840044297
 -0.001992242874458267 -0.010480845355849401 0.00233357890388342 0.016547745908346612 0.9907436423777524 -0.08170383840044297 0.007403968349893598 0.034625905301027673
0.1250521050438 0.007900693119382827 0.03660950785460984 0.9900894177095809 -0.08614120092862569 0.002538957971880009 0.017418224201970787 -0.0021803244712948347 -0.011032697426043958
 0.9900894177095809 -0.08614120092862569 0.007900235368616094 0.036609391271585655 -0.0021781208028087582 -0.011032869791803375 0.0025555754555577556 0.01741568248760442
 0.002538957971880009 0.017418224201970787 -0.0021781208028087582 -0.011032869791803375 0.007902031890804472 0.03661107177863471 0.9900895058128826 -0.08613953894972282
 -0.0021803244712948347 -0.011032697426043958 0.0025555754555577556 0.01741568248760442 0.9900895058128826 -0.08613953894972282 0.007899072439294576 0.03661116020902155
0.131304710296 0.008417131280006552 0.03860851039806281 0.98940801223332 -0.0905893214447801 0.0027700204306051915 0.01828512203212696 -0.002377612707924172 -0.011583473565674848
 0.98940801223332 -0.0905893214447801 0.008416624620401096 0.03860837489694962 -0.0023751900806333022 -0.011583676826468542 0.0027883569931136665 0.01828224609177221
 0.0027700204306051915 0.01828512203212696 -0.0023751900806333022 -0.011583676826468542 0.008418606744664804 0.038610144484878345 0.9894081090216461 -0.09058757686319177
 -0.002377612707924172 -0.011583473565674848 0.0027883569931136665 0.01828224609177221 0.9894081090216461 -0.09058757686319177 0.008415342373996423 0.03861024016162331
0.1375573155481 0.008838674278973658 0.040360180559317546 0.9888154697098791 -0.09478854624910603 0.0029831721096215493 0.019124536717267902 -0.0025554817019681256 -0.012107074280488161
 0.9888154697098791 -0.09478854624910603 0.008838114419622877 0.04036002573723815 -0.0025528255271254283 -0.012107308761959458 0.0030032654883946504 0.019121329987580173
 0.0029831721096215493 0.019124536717267902 -0.0025528255271254283 -0.012107308761959458 0.008840292467671002 0.04036188369851948 0.9888155755719668 -0.09478671914342052
 -0.0025554817019681256 -0.012107074280488161 0.0030032654883946504 0.019121329987580173 0.9888155755719668 -0.09478671914342052 0.008836707677539373 0.04036198852359388
0.1438099208003 0.009275112264558063 0.042102240385782065 0.9882019647770481 -0.09897674153561593 0.0032049194606249614 0.01996034628865729 -0.0027404550858356556 -0.01262735367384955
 0.9882019647770481 -0.09897674153561593 0.009274496073184573 0.04210206459949871 -0.0027375548109834368 -0.012627622244765609 0.0032268470853354745 0.01995678362032931
 0.0032049194606249614 0.01996034628865729 -0.0027375548109834368 -0.012627622244765609 0.009276879686808473 0.042104011420708166 0.9882020801129942 -0.09897483196197412
 -0.0027404550858356556 -0.01262735367384955 0.0032268470853354745 0.01995678362032931 0.9882020801129942 -0.09897483196197412 0.009272959152933686 0.042104126098634904
0.1500625260525 0.009726286154951051 0.04383453296409493 0.9875676609784307 -0.10315379169496787 0.003435182299315474 0.020792458619068505 -0.002932454563987024 -0.013144224227107842
 0.9875676609784307 -0.10315379169496787 0.009725610420152369 0.04383433452143478 -0.002929299662169654 -0.013144529871601363 0.0034590212009449612 0.020788513928229228
 0.003435182299315474 0.020792458619068505 -0.002929299662169654 -0.013144529871601363 0.00972820930912198 0.04383637069103684 0.9875677861871587 -0.1031517997118914
 -0.002932454563987024 -0.013144224227107842 0.0034590212009449612 0.020788513928229228 0.9875677861871587 -0.1031517997118914 0.00972393765203053 0.04383649597345516
0.15631513130469998 0.010192035672271595 0.04555690608412378 0.9869127227658048 -0.10731958177681074 0.0036738794501184765 0.02162078322478613 -0.003131400836971451 -0.013657600334942812
 0.9869127227658048 -0.10731958177681074 0.010191297101409329 0.04555668324632446 -0.003127980807240764 -0.013657946151945004 0.003699706256729185 0.02161642950062529
