! Created with skrf 1.8.0 (http://scikit-rf.org).
# GHz S RI R 50.0 
!freq ReS11 ImS11 ReS12 ImS12 ReS13 ImS13
! ReS14 ImS14
! ReS21 ImS21 ReS22 ImS22 ReS23 ImS23
! ReS24 ImS24
! ReS31 ImS31 ReS32 ImS32 ReS33 ImS33
! ReS34 ImS34
! ReS41 ImS41 ReS42 ImS42 ReS43 ImS43
! ReS44 ImS44
!
0.0 0.001332705184152 0.0 0.9986672948136 0.0 5.127745218764e-05 0.0 -5.127745261543e-05 6.2796768213916424e-21
 0.9986672948136 0.0 0.001332705184145 0.0 -5.127745261531e-05 6.279676821376947e-21 5.127745218824e-05 0.0
 5.127745218764e-05 0.0 -5.127745261531e-05 6.279676821376947e-21 0.001332705185222 0.0 0.9986672948147 0.0
 -5.127745261543e-05 6.2796768213916424e-21 5.127745218824e-05 0.0 0.9986672948147 0.0 0.001332705185222 0.0
0.005 0.0014333981901399045 0.00108639660237507 0.9985399803941546 -0.0027925887765578297 7.213982503857646e-05 0.0005904845822365778 -6.99873725090052e-05 -0.0003662809258847956
 0.9985399803941546 -0.0027925887765578297 0.0014333962373662696 0.0010863976899293914 -6.998480000661697e-05 -0.00036627893192341544 7.21663004923691e-05 0.0005904746072533283
 7.213982503857646e-05 0.0005904845822365778 -6.998480000661697e-05 -0.00036627893192341544 0.001433399922552945 0.0010864628127445596 0.9985399807285947 -0.0027925217176002974
 -6.99873725090052e-05 -0.0003662809258847956 7.21663004923691e-05 0.0005904746072533283 0.9985399807285947 -0.0027925217176002974 0.0014333951702472515 0.0010864655946877916
0.006252605252188 0.0014596519424031746 0.0013623110739824345 0.998506600557708 -0.0034914452380699944 7.800465885804558e-05 0.0007383905564053528 -7.519991902316109e-05 -0.00045833993782509253
 0.998506600557708 -0.0034914452380699944 0.0014596488902609746 0.00136231244523254 -7.519591609801803e-05 -0.0004583374782227305 7.804602587071875e-05 0.0007383775972138499
 7.800465885804558e-05 0.0007383905564053528 -7.519591609801803e-05 -0.0004583374782227305 0.0014596545863767522 0.0013623938318655978 0.998506601015908 -0.0034913614146645255
 -7.519991902316109e-05 -0.00045833993782509253 7.804602587071875e-05 0.0007383775972138499 0.998506601015908 -0.0034913614146645255 0.0014596471572333317 0.0013623973278479229
0.01250521050438 0.0015969551695861205 0.002753548373019259 0.9983309901877805 -0.0069838648865885025 0.0001111343066298296 0.0014771270135426587 -0.00010439970704179565 -0.0009190281259852608
 0.9983309901877805 -0.0069838648865885025 0.0015969429881413184 0.00275355121629503 -0.00010438393254287905 -0.0009190235628891189 0.00011129931278896458 0.001477095860835195
 0.0001111343066298296 0.0014771270135426587 -0.00010438393254287905 -0.0009190235628891189 0.0015969651666711399 0.002753713573281706 0.9983309914536159 -0.006983697487515509
 -0.00010439970704179565 -0.0009190281259852608 0.00011129931278896458 0.001477095860835195 0.9983309914536159 -0.006983697487515509 0.0015969354979572636 0.002753720754330395
0.01875781575657 0.001744882567029566 0.0041649609682152516 0.9981402683885803 -0.010485796578497322 0.00015073789378246204 0.0022167544233067243 -0.00013896011804753029 -0.001381387000197231
 0.9981402683885803 -0.010485796578497322 0.001744855206782318 0.0041649653527307965 -0.00013892494041715535 -0.0013813807490211131 0.0001511086671345848 0.0022166989432781687
 0.00015073789378246204 0.0022167544233067243 -0.00013892494041715535 -0.0013813807490211131 0.0017449046190921023 0.004165208403527307 0.9981402708152327 -0.010485545687325175
 -0.00013896011804753029 -0.001381387000197231 0.0001511086671345848 0.0022166989432781687 0.9981402708152327 -0.010485545687325175 0.0017448379451605405 0.0041652194915755055
0.02501042100875 0.001903695657767139 0.005594597933050032 0.9979342331141121 -0.01399897095298761 0.00019688783836430279 0.002957332800162377 -0.0001789621947639927 -0.0018452200741046778
 0.9979342331141121 -0.01399897095298761 0.0019036470887678193 0.005594603893092875 -0.00017890007282579272 -0.001845212617404531 0.00019754660673625973 0.0029572459910597202
 0.00019688783836430279 0.002957332800162377 -0.00017890007282579272 -0.001845212617404531 0.0019037344553323456 0.005594927386627472 0.9979342370487495 -0.013998636608486204
 -0.0001789621947639927 -0.0018452200741046778 0.00019754660673625973 0.0029572459910597202 0.9979342370487495 -0.013998636608486204 0.001903616035166928 0.005594942629284907
0.03126302626094 0.0020736449569011975 0.00704147171571456 0.9977126709083343 -0.017524148250007993 0.00024965722044884367 0.0036988516434744317 -0.0002244849525821189 -0.0023103974407613654
 0.9977126709083343 -0.017524148250007993 0.0020735691638552405 0.007041479249357575 -0.00022438841969616696 -0.002310389329246235 0.00025068638946866854 0.0036987256294521782
 0.00024965722044884367 0.0036988516434744317 -0.00022438841969616696 -0.002310389329246235 0.0020737051925601197 0.007041882924917418 0.9977126767046146 -0.017523730482402532
 -0.0002244849525821189 -0.0023103974407613654 0.00025068638946866854 0.0036987256294521782 0.9977126767046146 -0.017523730482402532 0.002073520301578084 0.007041902594187483
0.037515631513130004 0.0022549757309590166 0.008504950846277701 0.9974753627971292 -0.021061725550556003 0.00030911908457769327 0.004441273014167625 -0.000275606000788574 -0.002776812690446959
 0.9974753627971292 -0.021061725550556003 0.002254866709979272 0.008504959914099863 -0.00027546765676078253 -0.00277680454332108 0.0003106012750407621 0.004441099035277305
 0.00030911908457769327 0.004441273014167625 -0.00027546765676078253 -0.00277680454332108 0.002255062091901437 0.008505443522158708 0.9974753708068544 -0.02106122436145742
 -0.000275606000788574 -0.002776812690446959 0.0003106012750407621 0.004441099035277305 0.9974753708068544 -0.02106122436145742 0.0022547960165070573 0.008505467913734965
0.043768236765320004 0.002447930216263034 0.00998457515644209 0.9972220866380961 -0.02461192149754373 0.0003753461258164736 0.005184544620566222 -0.0003324017698402402 -0.003244369816131462
 0.9972220866380961 -0.02461192149754373 0.0024477819715207475 0.00998458568047396 -0.0003322142759988513 -0.003244362321230653 0.0003773641935465766 0.0051843130215609035
 0.0003753461258164736 0.005184544620566222 -0.0003322142759988513 -0.003244362321230653 0.0024480473863275 0.009985148967818134 0.9972220972136082 -0.024611336875385185
 -0.0003324017698402402 -0.003244369816131462 0.0003773641935465766 0.0051843130215609035 0.9972220972136082 -0.024611336875385185 0.0024476854198882876 0.00998517840077566
0.050020842017509996 0.002652748661378261 0.011479979402697483 0.9969526182970916 -0.028174852611582334 0.0004484105037751117 0.005928605233264325 -0.0003949476058226289 -0.003712977789969977
 0.9969526182970916 -0.028174852611582334 0.0026525552024411524 0.011479991265346419 -0.0003947036818473455 -0.0037129717038202966 0.0004510475504630958 0.005928305451870361
 0.0004484105037751117 0.005928605233264325 -0.0003947036818473455 -0.0037129717038202966 0.002652901324127959 0.011480633964719048 0.9969526317947053 -0.028174184542419933
 -0.0003949476058226289 -0.003712977789969977 0.0004510475504630958 0.005928305451870361 0.9969526317947053 -0.028174184542419933 0.002652428763561839 0.011480668781364394
0.055454545454549996 0.0028405625838427563 0.012792106150703348 0.9967051170458301 -0.031281531689919456 0.0005175139627445047 0.0065758049067953 -0.00045402931656690263 -0.00412099681934165
 0.9967051170458301 -0.031281531689919456 0.0028403249691928644 0.012792119049667091 -0.0004537304842153016 -0.004120992625205482 0.0005207566045223886 0.006575436581490986
 0.0005175139627445047 0.0065758049067953 -0.0004537304842153016 -0.004120992625205482 0.0028407498910203136 0.012792830547107593 0.9967051333723971 -0.031280791075292996
 -0.00045402931656690263 -0.00412099681934165 0.0005207566045223886 0.006575436581490986 0.9967051333723971 -0.031280791075292996 0.0028401692805890906 0.01279287033829156
0.056273447269699996 0.0028696698740376223 0.01299085576773227 0.9966667323309178 -0.031750570728391624 0.0005283837164013124 0.006673387327369466 -0.0004633178024839854 -0.00418254791355808
 0.9966667323309178 -0.031750570728391624 0.0028694252127107146 0.012990868810829703 -0.00046301022419230234 -0.004182544061406706 0.000531723094750181 0.0066730078822585465
 0.0005283837164013124 0.006673387327369466 -0.00046301022419230234 -0.004182544061406706 0.002869862708825796 0.012991590658368475 0.9966667491073351 -0.031749819178787074
 -0.0004633178024839854 -0.00418254791355808 0.000531723094750181 0.0066730078822585465 0.9966667491073351 -0.031749819178787074 0.002869264851478072 0.012991631224136659
0.06252605252188 0.0030989315200909136 0.014516933259822427 0.9963642024252544 -0.035339083539202565 0.0006153365015005624 0.007418818542133368 -0.0005375856032127592 -0.004652992352427774
 0.9963642024252544 -0.035339083539202565 0.0030986296676065606 0.014516947283761692 -0.0005372072010355936 -0.004652991628255805 0.000619461816849434 0.007418347020779273
 0.0006153365015005624 0.007418818542133368 -0.0005372072010355936 -0.004652991628255805 0.003099169204015686 0.014517748008318922 0.9963642228397876 -0.0353382484671634
 -0.0005375856032127592 -0.004652992352427774 0.000619461816849434 0.007418347020779273 0.9963642228397876 -0.0353382484671634 0.003098431344555745 0.014517794711811144
0.06877865777407 0.003340770293523719 0.016057965422675492 0.9960448017051607 -0.038940366822283946 0.0007093387539425419 0.008164822546100896 -0.0006178231856152838 -0.005124223267007084
 0.9960448017051607 -0.038940366822283946 0.0033404052577987705 0.01605798018552425 -0.0006173668435179917 -0.0051242266335248966 0.0007143338633522517 0.008164245592525755
 0.0007093387539425419 0.008164822546100896 -0.0006173668435179917 -0.0051242266335248966 0.003341057500267183 0.016058859510600175 0.9960448261194457 -0.03893944817562249
 -0.0006178231856152838 -0.005124223267007084 0.0007143338633522517 0.008164245592525755 0.9960448261194457 -0.03893944817562249 0.003340164927866816 0.016058912763710333
0.07503126302626001 0.003595422006170999 0.017613722543896475 0.995708302968597 -0.04255437217778685 0.0008104594536006906 0.008911319579984967 -0.0007041016338173952 -0.005596152267987282
 0.995708302968597 -0.04255437217778685 0.0035949877887549424 0.0176137377606229 -0.0007035602884569607 -0.005596160756628069 0.0008164084630670103 0.008910622882482292
 0.0008104594536006906 0.008911319579984967 -0.0007035602884569607 -0.005596160756628069 0.003595763406102041 0.017614695400057518 0.9957083317472729 -0.04255336989853893
 -0.0007041016338173952 -0.005596152267987282 0.0008164084630670103 0.008910622882482292 0.9957083317472729 -0.04255336989853893 0.0035947014020204096 0.017614755638089806
0.08128386827845 0.003863121632368299 0.019183986465533938 0.9953544788768771 -0.046181032162564965 0.0009187665970375006 0.009658226831670435 -0.0007964909054727859 -0.0060686900418626365
 0.9953544788768771 -0.046181032162564965 0.0038626122255374313 0.019184001807344322 -0.0007958575457050239 -0.006068704752762493 0.0009257538572746953 0.009657395110502266
 0.0009187665970375006 0.009658226831670435 -0.0007958575457050239 -0.006068704752762493 0.003863521891718996 0.019185037473724912 0.9953545123876758 -0.04617994617870028
 -0.0007964909054727859 -0.0060686900418626365 0.0009257538572746953 0.009657395110502266 0.9953545123876758 -0.04617994617870028 0.0038622757261504476 0.019185105155730475
0.08753647353064001 0.004144103317575322 0.020768547004061413 0.994983102111844 -0.04982026381822374 0.0010343271344425153 0.010405458679729166 -0.000895059792346632 -0.0065417461103950475
 0.994983102111844 -0.04982026381822374 0.004143512701309013 0.02076856209772875 -0.0008943274588011631 -0.006541768212374909 0.0010424372354426296 0.010404475674834419
 0.0010343271344425153 0.010405458679729166 -0.0008943274588011631 -0.006541768212374909 0.004144567098300746 0.02076967549353505 0.9949831407257704 -0.04981909405251109
 -0.000895059792346632 -0.0065417461103950475 0.0010424372354426296 0.010404475674834419 0.9949831407257704 -0.04981909405251109 0.004143122028063032 0.020769751102561556
0.09378907878283 0.004438600367541931 0.022367199377047044 0.994593945515662 -0.05347197119473718 0.001157206907751229 0.011152926882011287 -0.0009998758782995346 -0.007015228647501299
 0.994593945515662 -0.05347197119473718 0.004437922506530445 0.022367213804329468 -0.0009990376631487388 -0.007015259378029236 0.0011665246724914121 0.011151775340753685
 0.001157206907751229 0.011152926882011287 -0.0009990376631487388 -0.007015259378029236 0.004439132326526688 0.02236840462901344 0.9945939896078627 -0.053470717557788476
 -0.0009998758782995346 -0.007015228647501299 0.0011665246724914121 0.011151775340753685 0.9945939896078627 -0.053470717557788476 0.004437473592444172 0.02236848867248228
0.100041684035 0.004746845220226937 0.023979742328870568 0.9941867822165298 -0.05713604717812337 0.0012874705908631897 0.0119005407083986 -0.0011110054940782202 -0.007489044354617973
 0.9941867822165298 -0.05713604717812337 0.00474607406073081 0.023979755626007775 -0.0011100545409525983 -0.007489085019774517 0.0012980810681862908 0.011899202373325164
 0.0012874705908631897 0.0119005407083986 -0.0011100545409525983 -0.007489085019774517 0.004747450009143751 0.023981023572146376 0.994186832165883 -0.0571347095719824
 -0.0011110054940782202 -0.007489044354617973 0.0012980810681862908 0.011899202373325164 0.994186832165883 -0.0571347095719824 0.004745562832991614 0.02398111658237975
0.1059090909091 0.005048810054697418 0.02550539876820444 0.9937881240048454 -0.06058553896101133 0.0014164813600815469 0.01260214651990366 -0.0012210888833502432 -0.007933888673256175
 0.9937881240048454 -0.06058553896101133 0.005047945819561125 0.02550541054213475 -0.0012200259475851252 -0.007933939909954371 0.0014283824562709465 0.012600615387924126
 0.0014164813600815469 0.01260214651990366 -0.0012200259475851252 -0.007933939909954371 0.005049487411715437 0.02550675057287896 0.9937881797989897 -0.06058412246198117
 -0.0012210888833502432 -0.007933888673256175 0.0014283824562709465 0.012600615387924126 0.9937881797989897 -0.06058412246198117 0.0050473724073336985 0.025506852504207027
0.1062942892872 0.005069069406665035 0.02560597671640197 0.9937613857442562 -0.06081237486052687 0.0014251816309579714 0.012648207044052229 -0.0012285136700229218 -0.007963098368282318
 0.9937613857442562 -0.06081237486052687 0.005068198873438682 0.025605988373724863 -0.001227443173941895 -0.00796315034271509 0.0014371700876426106 0.0126466626407211
 0.0014251816309579714 0.012648207044052229 -0.001227443173941895 -0.00796315034271509 0.0050697516707647605 0.025607333126228392 0.9937614419340656 -0.060810953179514
 -0.0012285136700229218 -0.007963098368282318 0.0014371700876426106 0.0126466626407211 0.9937614419340656 -0.060810953179514 0.005067621253034971 0.025607435660925756
0.11254689453939999 0.0054055035020181795 0.02724570441490086 0.993317530140246 -0.06450082859367856 0.0015704021899076472 0.0133958304730275 -0.001352464087447504 -0.008437294190049419
 0.993317530140246 -0.06450082859367856 0.005404527495120109 0.02724571387641464 -0.0013512672948925687 -0.008437358916918148 0.0015838541023007679 0.013394059697907789
 0.0015704021899076472 0.0133958304730275 -0.0013512672948925687 -0.008437358916918148 0.005406267880093865 0.027247135115424988 0.9933175929583813 -0.0644993227211731
 -0.001352464087447504 -0.008437294190049419 0.0015838541023007679 0.013394059697907789 0.9933175929583813 -0.0644993227211731 0.0054038793969817004 0.02724724775830837
0.11879949979160001 0.005756377070986826 0.028898727483569153 0.9928549900619889 -0.06820127478521953 0.0017231930867337903 0.014143313342712013 -0.0014829190282736346 -0.00891153363857248
 0.9928549900619889 -0.06820127478521953 0.0057552894624921394 0.02889873414673043 -0.0014815892372661262 -0.008911612629487684 0.0017381941316534542 0.014141294851117675
 0.0017231930867337903 0.014143313342712013 -0.0014815892372661262 -0.008911612629487684 0.0057572281945525924 0.028900231544881187 0.992855059901494 -0.06819968459620378
 -0.0014829190282736346 -0.00891153363857248 0.0017381941316534542 0.014141294851117675 0.992855059901494 -0.06819968459620378 0.005754566795550376 0.02890035490635184
0.1250521050438 0.006121918606368107 0.030564847491924556 0.9923735408844765 -0.07191357253778147 0.0018836137398337155 0.014890555821220555 -0.0016199393238817033 -0.00938571681148614
 0.9923735408844765 -0.07191357253778147 0.006120713236864328 0.030564850707473622 -0.0016184698841395142 -0.009385811646442596 0.0019002497850362898 0.014888267215385031
 0.0018836137398337155 0.014890555821220555 -0.0016184698841395142 -0.009385811646442596 0.006122861098891815 0.03056642392772456 0.9923736181436779 -0.07191189790073312
 -0.0016199393238817033 -0.00938571681148614 0.0019002497850362898 0.014888267215385031 0.9923736181436779 -0.07191189790073312 0.006119911903816392 0.030566558645679684
0.131304710296 0.006502355463690844 0.03224386497831593 0.9918729587994017 -0.0756375741592827 0.0020517221095870657 0.015637455944004376 -0.0017635843027834796 -0.00985974206121901
 0.9918729587994017 -0.0756375741592827 0.006501026139341338 0.032243864050120696 -0.0017619686159679208 -0.009859854388510857 0.002070079203812728 0.015634873761187343
 0.0020517221095870657 0.015637455944004376 -0.0017619686159679208 -0.009859854388510857 0.006503393940114313 0.032245512751733874 0.9918730438822185 -0.07563581492969189
 -0.0017635843027834796 -0.00985974206121901 0.002070079203812728 0.015634873761187343 0.9918730438822185 -0.07563581492969189 0.006500142036534593 0.03224565949237066
0.1375573155481 0.006805858683973632 0.03371515579492875 0.9914451046115255 -0.07915262530788472 0.002204863934635795 0.01636096798684372 -0.001891181507613867 -0.010310591231504511
 0.9914451046115255 -0.07915262530788472 0.006804397424264808 0.033715148840296624 -0.0018894098151920424 -0.010310720993114987 0.0022249817767899167 0.016358097988839655
 0.002204863934635795 0.01636096798684372 -0.0018894098151920424 -0.010310720993114987 0.006806997231396648 0.03371687393945132 0.991445197872727 -0.0791507814187236
 -0.001891181507613867 -0.010310591231504511 0.0022249817767899167 0.016358097988839655 0.991445197872727 -0.0791507814187236 0.006803427063654723 0.03371703215553218
0.1438099208003 0.007119861826357967 0.03517946688746971 0.9910025253579784 -0.08265957088294226 0.0023641969616034256 0.01708211559701973 -0.002023906177099747 -0.010759267341948806
 0.9910025253579784 -0.08265957088294226 0.007118262088931705 0.03517945317572967 -0.0020219713857969886 -0.0107594161400777 0.002386153468767583 0.017078936563183232
 0.0023641969616034256 0.01708211559701973 -0.0020219713857969886 -0.0107594161400777 0.007121104952425319 0.03518125433376139 0.9910026271993544 -0.0826576421977631
 -0.002023906177099747 -0.010759267341948806 0.002386153468767583 0.017078936563183232 0.9910026271993544 -0.0826576421977631 0.007117201469330282 0.03518142469200365
0.1500625260525 0.0074442647354954865 0.03663669944200125 0.9905453245724523 -0.08615834808975889 0.002529672904927289 0.01780084337578203 -0.002161711142364807 -0.01120571673505783
 0.9905453245724523 -0.08615834808975889 0.007442519928803061 0.03663667822601916 -0.0021596061704490157 -0.01120588623594553 0.002553545627597883 0.017797333312539465
 0.002529672904927289 0.01780084337578203 -0.0021596061704490157 -0.01120588623594553 0.007445616933523467 0.03663855508040515 0.9905454354005725 -0.08615633446430865
 -0.002161711142364807 -0.01120571673505783 0.002553545627597883 0.017797333312539465 0.9905454354005725 -0.08615633446430865 0.0074413650502581806 0.036638738287162284
0.15631513130469998 0.007778966664914542 0.03808675775909731 0.9900736061849404 -0.0896488938854936 0.0027012429829239306 0.018517096740876312 -0.00230454872087557 -0.0116498868062437
