! Created with skrf 1.8.0 (http://scikit-rf.org).
# GHz S RI R 50.0 
!freq ReS11 ImS11 ReS12 ImS12 ReS13 ImS13
! ReS14 ImS14
! ReS21 ImS21 ReS22 ImS22 ReS23 ImS23
! ReS24 ImS24
! ReS31 ImS31 ReS32 ImS32 ReS33 ImS33
! ReS34 ImS34
! ReS41 ImS41 ReS42 ImS42 ReS43 ImS43
! ReS44 ImS44
!
0.0 0.001974306368658 0.0 0.9980256936313 0.0 7.69985566747e-05 0.0 -7.699855720907e-05 9.429603662505195e-21
 0.9980256936313 0.0 0.001974306368634 0.0 -7.699855720797e-05 9.429603662370482e-21 7.699855667655e-05 0.0
 7.69985566747e-05 0.0 -7.699855720797e-05 9.429603662370482e-21 0.001974306345896 0.0 0.9980256936086 0.0
 -7.699855720907e-05 9.429603662505195e-21 7.699855667655e-05 0.0 0.9980256936086 0.0 0.001974306345923 0.0
0.005 0.0021257819057577156 0.0016111771318203046 0.9978337572272655 -0.004134187760654409 0.00010927782147724365 0.000863058119165891 -0.0001058257465605257 -0.0005388738859198823
 0.9978337572272655 -0.004134187760654409 0.0021258119773958075 0.001611159485341961 -0.00010582583422897062 -0.0005388738663232624 0.00010909045927083692 0.0008631295721230296
 0.00010927782147724365 0.000863058119165891 -0.00010582583422897062 -0.0005388738663232624 0.002125782681476412 0.0016112439008273297 0.9978337576216262 -0.0041341206954961995
 -0.0001058257465605257 -0.0005388738859198823 0.00010909045927083692 0.0008631295721230296 0.9978337576216262 -0.0041341206954961995 0.0021258119797152543 0.0016112268367337113
0.006252605252188 0.002165981068954623 0.002020254407033998 0.9977824198731052 -0.005168669535001333 0.00011878713707796977 0.0010792008010219935 -0.0001141893177617262 -0.0006742628063178766
 0.9977824198731052 -0.005168669535001333 0.002166028077307106 0.00202023200717184 -0.00011418945484722602 -0.0006742627802012185 0.00011849440690175092 0.0010792937016187634
 0.00011878713707796977 0.0010792008010219935 -0.00011418945484722602 -0.0006742627802012185 0.002165982209917563 0.0020203378444207483 0.9977824204178078 -0.005168585714253828
 -0.0001141893177617262 -0.0006742628063178766 0.00011849440690175092 0.0010792937016187634 0.9977824204178078 -0.005168585714253828 0.0021660280083496564 0.002020316189200992
0.01250521050438 0.002380343207716078 0.004082200885156762 0.9975064880357313 -0.010337558760255527 0.00017483567564440016 0.0021584552526449766 -0.0001628473527555693 -0.0013514813002321467
 0.9975064880357313 -0.010337558760255527 0.002380530931217097 0.0040821526221165635 -0.0001628479012959101 -0.001351481228568437 0.00017366845021955449 0.0021586803904707673
 0.00017483567564440016 0.0021584552526449766 -0.0001628479012959101 -0.001351481228568437 0.0023803472110950964 0.004082367354727582 0.9975064896532243 -0.010337391352519357
 -0.0001628473527555693 -0.0013514813002321467 0.00017366845021955449 0.0021586803904707673 0.9975064896532243 -0.010337391352519357 0.002380530084145764 0.004082320762596577
0.01875781575657 0.0026179574565739867 0.0061727184092545155 0.9971974875583748 -0.015519126876255632 0.0002452859696675544 0.0032384150548579807 -0.00022314197003162 -0.002030581004858802
 0.9971974875583748 -0.015519126876255632 0.0026183793219842484 0.00617264052034964 -0.00022314320462405037 -0.0020305808600072565 0.00024266421925526598 0.003238820999441542
 0.0002452859696675544 0.0032384150548579807 -0.00022314320462405037 -0.0020305808600072565 0.002617966039067833 0.0061729675983613645 0.9971974907734034 -0.015518875921519957
 -0.00022314197003162 -0.002030581004858802 0.00024266421925526598 0.003238820999441542 0.9971974907734034 -0.015518875921519957 0.002618376968017995 0.006172892529013502
0.02501042100875 0.0028793652997659166 0.008288744007559707 0.9968549894303953 -0.02071575317409589 0.000330281553031537 0.004319038470781262 -0.0002952343881672698 -0.002711168997120417
 0.9968549894303953 -0.02071575317409589 0.0028801145838690356 0.008288632463407865 -0.0002952365835566192 -0.002711168743153713 0.0003256252984329551 0.004319682786526967
 0.000330281553031537 0.004319038470781262 -0.0002952365835566192 -0.002711168743153713 0.0028793801798045375 0.008289075539904904 0.996854994773163 -0.020715418674592437
 -0.0002952343881672698 -0.002711168997120417 0.0003256252984329551 0.004319682786526967 0.996854994773163 -0.020715418674592437 0.0028801099800166976 0.00828896822709484
0.03126302626094 0.003165085107124886 0.010428634592870762 0.9964785468727569 -0.02592837525086187 0.00042996506439982416 0.005400180289597485 -0.0003792793478077082 -0.003392943920238619
 0.9964785468727569 -0.02592837525086187 0.00316625499718895 0.010428485102788649 -0.00037928277867730904 -0.0033929435128573033 0.00042269389564973995 0.00540112959146505
 0.00042996506439982416 0.005400180289597485 -0.00037928277867730904 -0.0033929435128573033 0.003165108001545387 0.01042904803687954 0.9964785548775654 -0.025927957162194464
 -0.0003792793478077082 -0.003392943920238619 0.00042269389564973995 0.00540112959146505 0.9964785548775654 -0.025927957162194464 0.003166247383292978 0.010428904494321576
0.037515631513130004 0.0034756222361266623 0.012591268274901266 0.9960677060194757 -0.031157387674558182 0.0005444765917111147 0.006481653151035814 -0.0004754262054231027 -0.00407563474263631
 0.9960677060194757 -0.031157387674558182 0.003477305873602672 0.012591076288487765 -0.0004754311462166997 -0.004075634129086018 0.0005340094844863707 0.006482983190764503
 0.0005444765917111147 0.006481653151035814 -0.0004754311462166997 -0.004075634129086018 0.0034756548576372727 0.012591763133894844 0.99606771722539 -0.031156885915000255
 -0.0004754262054231027 -0.00407563474263631 0.0005340094844863707 0.006482983190764503 0.99606771722539 -0.031156885915000255 0.0034772944702762777 0.012591579157466745
0.043768236765320004 0.00381147288939754 0.014775770888090565 0.9956220103605612 -0.036402915420633154 0.0006739528539734397 0.007563246235663311 -0.0005838192728364638 -0.004758982163904954
 0.9956220103605612 -0.036402915420633154 0.0038137634072581113 0.014775531594730381 -0.0005838259974875905 -0.004758981282895801 0.0006597081147662583 0.00756504199706268
 0.0006739528539734397 0.007563246235663311 -0.0005838259974875905 -0.004758981282895801 0.0038115169478007754 0.014776346596077955 0.9956220253156841 -0.036402329874805524
 -0.0005838192728364638 -0.004758982163904954 0.0006597081147662583 0.00756504199706268 0.9956220253156841 -0.036402329874805524 0.0038137474182305146 0.014776117763933515
0.050020842017509996 0.004173125856856498 0.016981403003869557 0.9951410030766574 -0.04166492682685031 0.000818526680063838 0.00864473301134389 -0.0007045978877034712 -0.005442730976549236
 0.9951410030766574 -0.04166492682685031 0.004176116413109945 0.016981111330784445 -0.0007046066694898223 -0.005442729758170549 0.0007999219596846261 0.008647088808708462
 0.000818526680063838 0.00864473301134389 -0.0007046066694898223 -0.005442729758170549 0.004173183054978253 0.016982058912162354 0.9951410223366944 -0.04166425735866774
 -0.0007045978877034712 -0.005442730976549236 0.0007999219596846261 0.008647088808708462 0.9951410223366944 -0.04166425735866774 0.004176095021376774 0.016981780583507106
0.055454545454549996 0.004508742547211039 0.018914809793787415 0.9946939618505403 -0.046251059675167586 0.0009565267331590001 0.0095843065483211 -0.000819721187751643 -0.006037057508550129
 0.9946939618505403 -0.046251059675167586 0.004512417156843667 0.018914468275368135 -0.000819731978389982 -0.006037055933468075 0.0009336596505200351 0.009587232949681185
 0.0009565267331590001 0.0095843065483211 -0.000819731978389982 -0.006037055933468075 0.004508812540498779 0.018915534821722393 0.9946939853104919 -0.04625031713490884
 -0.000819721187751643 -0.006037057508550129 0.0009336596505200351 0.009587232949681185 0.9946939853104919 -0.04625031713490884 0.004512390390785767 0.018915209538083524
0.056273447269699996 0.004561063348920139 0.019207504458874834 0.9946242284718302 -0.04694328904186513 0.0009783266168751643 0.009725875070124894 -0.0008378963658266454 -0.006126626350455908
 0.9946242284718302 -0.04694328904186513 0.004564847158150506 0.019207155067837888 -0.00083790747700564 -0.006126624716113244 0.0009547789662240615 0.009728894647230599
 0.0009783266168751643 0.009725875070124894 -0.00083790747700564 -0.006126624716113244 0.004561135381162743 0.019208239855200843 0.9946242526022268 -0.04694253547510405
 -0.0008378963658266454 -0.006126626350455908 0.0009547789662240615 0.009728894647230599 0.9946242526022268 -0.04694253547510405 0.0045648195264335455 0.019207907167515966
0.06252605252188 0.004975761391630614 0.02145346392625378 0.9940712329753657 -0.05223779844365917 0.0011534766034850545 0.010806424264243148 -0.0009838438925472983 -0.006810411832205168
 0.9940712329753657 -0.05223779844365917 0.004980431756470882 0.021453051208940418 -0.0009838576041938394 -0.006810409694557584 0.0011244025576520522 0.010810220892806695
 0.0011534766034850545 0.010806424264243148 -0.0009838576041938394 -0.006810409694557584 0.004975849942661805 0.021454278012053296 0.994071262553064 -0.05223696058434988
 -0.0009838438925472983 -0.006810411832205168 0.0011244025576520522 0.010810220892806695 0.994071262553064 -0.05223696058434988 0.00498039702624722 0.021453885877022454
0.06877865777407 0.005417689971960445 0.02371870075576023 0.9934815659003454 -0.05754819880408581 0.0013440956822318348 0.011886124020479515 -0.001142564380288565 -0.007493828180756769
 0.9934815659003454 -0.05754819880408581 0.005423340312910059 0.023718218827842724 -0.0011425809620165808 -0.007493825443657597 0.0013089113647320456 0.011890820597351455
 0.0013440956822318348 0.011886124020479515 -0.0011425809620165808 -0.007493825443657597 0.005417796713941605 0.023719592662502637 0.993481601514095 -0.05754727642395902
 -0.001142564380288565 -0.007493828180756769 0.0013089113647320456 0.011890820597351455 0.993481601514095 -0.05754727642395902 0.005423297602764411 0.023719135760842627
0.07503126302626001 0.005887313039731432 0.026002653507635212 0.9928547800643308 -0.06287419277608892 0.0015502977329329584 0.012964710196210571 -0.0013141763045179315 -0.008176612676771979
 0.9928547800643308 -0.06287419277608892 0.005894036925668213 0.02600209620156353 -0.0013141960242506936 -0.00817660923521516 0.0015084189754924514 0.012970439338693273
 0.0015502977329329584 0.012964710196210571 -0.0013141960242506936 -0.00817660923521516 0.005887439631327016 0.0260036222902309 0.9928548223172872 -0.06287318561913639
 -0.0013141763045179315 -0.008176612676771979 0.0015084189754924514 0.012970439338693273 0.9928548223172872 -0.06287318561913639 0.005893985331299809 0.026003095064871147
0.08128386827845 0.006385088418053421 0.028304772339687638 0.9921904323244654 -0.06821544954506718 0.0017721912209489044 0.014041911695786564 -0.0014987925272464335 -0.008858498687233084
 0.9921904323244654 -0.06821544954506718 0.006392979595821918 0.028304133196115865 -0.0014988156509024365 -0.008858494427326313 0.001723033695960462 0.014048815834784427
 0.0017721912209489044 0.014041911695786564 -0.0014988156509024365 -0.008858494427326313 0.006385236501140827 0.028305816973379628 0.9921904818339579 -0.06821435733054576
 -0.0014987925272464335 -0.008858498687233084 0.001723033695960462 0.014048815834784427 0.9921904818339579 -0.06821435733054576 0.006392918188133175 0.028305213621483725
0.08753647353064001 0.006911467650448745 0.030624513763028906 0.9914880840533283 -0.07357161012961193 0.0020098789557126693 0.01511745092184637 -0.0016965201118789791 -0.009539215411207745
 0.9914880840533283 -0.07357161012961193 0.006920620074672878 0.030623786020857753 -0.0016965469031129032 -0.009539210210131717 0.0019528583185723992 0.015125682392588168
 0.0020098789557126693 0.01511745092184637 -0.0016965469031129032 -0.009539210210131717 0.006911638848868023 0.030625633145373726 0.9914881414535142 -0.07357043255025816
 -0.0016965201118789791 -0.009539215411207745 0.0019528583185723992 0.015125682392588168 0.9914881414535142 -0.07357043255025816 0.006920547899567615 0.030624947608913725
0.09378907878283 0.0074668958081193625 0.032961336926649515 0.9907473015805737 -0.07894229117242596 0.002263457856631213 0.016191044139168668 -0.0019074601322939572 -0.010218487729501506
 0.9907473015805737 -0.07894229117242596 0.00747740367109861 0.032960513511669454 -0.001907490852281604 -0.01021848145547686 0.002197989896985613 0.016200765269084604
 0.002263457856631213 0.016191044139168668 -0.001907490852281604 -0.01021848145547686 0.007467091725414231 0.03296252987863511 0.9907473675231829 -0.07894102789343904
 -0.0019074601322939572 -0.010218487729501506 0.002197989896985613 0.016200765269084604 0.9907473675231829 -0.07894102789343904 0.007477319748103831 0.032961755833510346
0.100041684035 0.00805181126577404 0.03531470091450855 0.9899676566050396 -0.08432708773785445 0.002533018724673924 0.01726240177639602 -0.0021317074787297373 -0.010896036132922672
 0.9899676566050396 -0.08432708773785445 0.008063769027199581 0.035313774426589756 -0.0021317423858392306 -0.01089602864519493 0.0024585195252060784 0.017273784970120224
 0.002533018724673924 0.01726240177639602 -0.0021317423858392306 -0.01089602864519493 0.00805203348276642 0.03531596617953136 0.9899677317607523 -0.08432573839829852
 -0.0021317074787297373 -0.010896036132922672 0.0024585195252060784 0.017273784970120224 0.9899677317607523 -0.08432573839829852 0.008063672348385491 0.03531509702325775
0.1059090909091 0.008627895171740644 0.037537643459359955 0.9892003209989237 -0.08939260829502525 0.002800583752222287 0.018265461210842087 -0.002354321626129444 -0.011530022712965386
 0.9892003209989237 -0.08939260829502525 0.008641299683307577 0.037536613215219394 -0.0023543606946595996 -0.011530013950307874 0.0027170790321490177 0.018278569923886746
 0.002800583752222287 0.018265461210842087 -0.0023543606946595996 -0.011530013950307874 0.008628143483852959 0.03753897537101362 0.9892004054282219 -0.08939117784506238
 -0.002354321626129444 -0.011530022712965386 0.0027170790321490177 0.018278569923886746 0.9892004054282219 -0.08939117784506238 0.008641190092723768 0.037538010697937024
0.1062942892872 0.008666645456134965 0.037684062745029445 0.9891487265895411 -0.08972557542700588 0.0028186460187453444 0.018331228688686575 -0.0023693506615862694 -0.011571576706535941
 0.9891487265895411 -0.08972557542700588 0.00868014787266082 0.037683025443828774 -0.0023693900110981795 -0.011571567855395041 0.002734532120767043 0.018344456509852492
 0.0028186460187453444 0.018331228688686575 -0.0023693900110981795 -0.011571567855395041 0.00866689552877845 0.03768539898988526 0.989148811649318 -0.08972413963922368
 -0.0023693506615862694 -0.011571576706535941 0.002734532120767043 0.018344456509852492 0.989148811649318 -0.08972413963922368 0.008680037401914387 0.03768442782767366
0.11254689453939999 0.00931182260806234 0.04006887586537476 0.9882900951414411 -0.09513731201825548 0.0031204176364840533 0.019397224396355744 -0.002620471614269637 -0.01224482115485832
 0.9882900951414411 -0.09513731201825548 0.009326964763223887 0.04006771965452713 -0.002620515658084343 -0.012244810781601596 0.003026106211607409 0.019412489646045326
 0.0031204176364840533 0.019397224396355744 -0.002620515658084343 -0.012244810781601596 0.009312102065312702 0.0400702816777763 0.988290190817936 -0.0951357893708569
 -0.002620471614269637 -0.01224482115485832 0.003026106211607409 0.019412489646045326 0.988290190817936 -0.0951357893708569 0.009326839435047033 0.0400692013071969
0.11879949979160001 0.00998775947235641 0.042468589006067495 0.9873913523818013 -0.10056183876799468 0.0034384046987896563 0.020460083310066653 -0.0028851454963179264 -0.012915476857621493
 0.9873913523818013 -0.10056183876799468 0.010004636805988556 0.042467305415860274 -0.0028851944827203366 -0.012915464794591991 0.0033333137262071323 0.020477589101761836
 0.0034384046987896563 0.020460083310066653 -0.0028851944827203366 -0.012915464794591991 0.009988069813938872 0.04247006289685343 0.98739145941086 -0.10056022882436502
 -0.0028851454963179264 -0.012915476857621493 0.0033333137262071323 0.020477589101761836 0.98739145941086 -0.10056022882436502 0.01000449552465918 0.04246886579087569
0.1250521050438 0.010694865038593659 0.044882645307136156 0.9864520953065986 -0.10599868146097546 0.0037726713384898763 0.021519494943719127 -0.0031634404971913215 -0.013583246955144382
 0.9864520953065986 -0.10599868146097546 0.010713573376433076 0.04488122547554946 -0.0031634946704917452 -0.013583233025732557 0.003656219787394837 0.02153945477447707
 0.0037726713384898763 0.021519494943719127 -0.0031634946704917452 -0.013583233025732557 0.010695207732534049 0.04488418571003662 0.9864522144484498 -0.10599698376020891
 -0.0031634404971913215 -0.013583246955144382 0.003656219787394837 0.02153945477447707 0.9864522144484498 -0.10599698376020891 0.010713415014728549 0.04488286399842687
0.131304710296 0.011433540244713129 0.04731048164609061 0.9854719281415318 -0.11144735127987807 0.004123274492755273 0.022575144125740135 -0.003455417641423152 -0.01424783045242218
 0.9854719281415318 -0.11144735127987807 0.011454175827751455 0.04730891629827374 -0.0034554772417673706 -0.014247814471110246 0.003994882509672749 0.022597781943628797
 0.004123274492755273 0.022575144125740135 -0.0034554772417673706 -0.014247814471110246 0.011433916725409459 0.04731208691921072 0.9854720601822311 -0.11144556533623869
 -0.003455417641423152 -0.01424783045242218 0.003994882509672749 0.022597781943628797 0.9854720601822311 -0.11144556533623869 0.01145399922619288 0.047310632368357135
0.1375573155481 0.012050758099178256 0.049435872025960115 0.9846039760806122 -0.1165914585235729 0.004451400314854489 0.023597364620984412 -0.0037224205955688544 -0.014879492758192671
 0.9846039760806122 -0.1165914585235729 0.012073422644177885 0.04943418239909642 -0.0037224857509965672 -0.014879474676042146 0.00431077791995399 0.023622678867154343
 0.004451400314854489 0.023597364620984412 -0.0037224857509965672 -0.014879474676042146 0.012051168816376745 0.04943754125727894 0.9846041216381572 -0.11658958405456674
 -0.0037224205955688544 -0.014879492758192671 0.00431077791995399 0.023622678867154343 0.9846041216381572 -0.11658958405456674 0.012073227922392639 0.049435974991044
0.1438099208003 0.012690072208394573 0.051546857205937414 0.983704617197759 -0.1217192672815641 0.004792648186070878 0.024613331903759885 -0.003999927631647147 -0.015505498647965077
 0.983704617197759 -0.1217192672815641 0.012714863237581132 0.051545035440480495 -0.003999998556731859 -0.015505478288769236 0.0046392693054981785 0.024641530401184993
 0.004792648186070878 0.024613331903759885 -0.003999998556731859 -0.015505478288769236 0.01269051837130657 0.051548588756841346 0.9837047770603166 -0.12171730381683922
 -0.003999927631647147 -0.015505498647965077 0.0046392693054981785 0.024641530401184993 0.9837047770603166 -0.12171730381683922 0.01271464942084153 0.05154690385456842
0.1500625260525 0.013351201995661028 0.05364316670290468 0.9827741376451671 -0.1268305535296691 0.005146863647033766 0.02562287492999486 -0.004287790292337464 -0.016125692232914237
 0.9827741376451671 -0.1268305535296691 0.01337821742365855 0.05364120439753072 -0.0042878671964932035 -0.016125669414270953 0.004980206624769419 0.025654173068574388
 0.005146863647033766 0.02562287492999486 -0.0042878671964932035 -0.016125669414270953 0.013351684769243593 0.053644958875411784 0.9827743126224391 -0.12682850058336417
 -0.004287790292337464 -0.016125692232914237 0.004980206624769419 0.025654173068574388 0.9827743126224391 -0.12682850058336417 0.013377983520733322 0.053643147906921845
0.15631513130469998 0.014033864235999892 0.055724538271961374 0.981812825754224 -0.13192509642560557 0.005513890027893424 0.026625826477045235 -0.004585857959289789 -0.016739921727537355
 0.981812825754224 -0.13192509642560557 0.014063202378591082 0.0557224264634812 -0.004585941046587604 -0.01673989626103939 0.005333437709358337 0.026660447112202355
