! Created with skrf 1.8.0 (http://scikit-rf.org).
# GHz S RI R 50.0 
!freq ReS11 ImS11 ReS12 ImS12 ReS13 ImS13
! ReS14 ImS14
! ReS21 ImS21 ReS22 ImS22 ReS23 ImS23
! ReS24 ImS24
! ReS31 ImS31 ReS32 ImS32 ReS33 ImS33
! ReS34 ImS34
! ReS41 ImS41 ReS42 ImS42 ReS43 ImS43
! ReS44 ImS44
!
0.0 0.001777154960708 0.0 0.998222845028 0.0 6.909992380684e-05 0.0 -6.909992456118e-05 8.462300143517266e-21
 0.998222845028 0.0 0.001777154960673 0.0 -6.909992456097e-05 8.462300143491549e-21 6.90999238054e-05 0.0
 6.909992380684e-05 0.0 -6.909992456097e-05 8.462300143491549e-21 0.001777154955021 0.0 0.9982228450223 0.0
 -6.909992456118e-05 8.462300143517266e-21 6.90999238054e-05 0.0 0.9982228450223 0.0 0.001777154954996 0.0
0.005 0.001912888962011028 0.001450095755838857 0.9980509907091935 -0.0037220411029160513 9.769639415619822e-05 0.0007795545539456936 -9.47441921818627e-05 -0.0004859793066409105
 0.9980509907091935 -0.0037220411029160513 0.0019128810843397907 0.0014501004421152855 -9.474316429360472e-05 -0.0004859786115905202 9.77428363901212e-05 0.0007795368095432317
 9.769639415619822e-05 0.0007795545539456936 -9.474316429360472e-05 -0.0004859786115905202 0.0019128893939935174 0.0014501628484861581 0.9980509910808004 -0.003721974037310521
 -9.47441921818627e-05 -0.0004859793066409105 9.77428363901212e-05 0.0007795368095432317 0.9980509910808004 -0.003721974037310521 0.0019128813929806068 0.001450167480200014
0.006252605252188 0.0019487225029040682 0.001818305496506488 0.9980053004504398 -0.004653425465271625 0.00010598565931181078 0.0009747977386366452 -0.00010209610271079043 -0.0006080921654892584
 0.9980053004504398 -0.004653425465271625 0.0019487101878595758 0.0018183114661578133 -0.00010209450247310485 -0.0006080913108524908 0.00010605821972942817 0.000974774688643905
 0.00010598565931181078 0.0009747977386366452 -0.00010209450247310485 -0.0006080913108524908 0.0019487231098538134 0.0018183893670304222 0.9980053009636101 -0.004653341636120491
 -0.00010209610271079043 -0.0006080921654892584 0.00010605821972942817 0.000974774688643905 0.9980053009636101 -0.004653341636120491 0.001948710603310856 0.0018183952523718639
0.01250521050438 0.0021387231877418285 0.0036744611283792876 0.9977612781369011 -0.009307394127616699 0.00015415359732728976 0.0019497951161388581 -0.00014440832057891102 -0.0012189907196284563
 0.9977612781369011 -0.009307394127616699 0.0021386740026879225 0.003674474201838437 -0.0001444020053988349 -0.0012189891688867529 0.00015444292148859934 0.0019497395416174965
 0.00015415359732728976 0.0019497951161388581 -0.0001444020053988349 -0.0012189891688867529 0.0021387250535024245 0.0036746286758148196 0.9977612796384512 -0.009307226736939574
 -0.00014440832057891102 -0.0012189907196284563 0.00015444292148859934 0.0019497395416174965 0.9977612796384512 -0.009307226736939574 0.0021386751222130236 0.003674641416236689
0.01875781575657 0.0023476201027680015 0.0055567066823402 0.9974904406741412 -0.013973177943365318 0.00021372312618065634 0.0029256276733244124 -0.0001961772098652471 -0.001831753990052675
 0.9974904406741412 -0.013973177943365318 0.002347509558392871 0.0055567280869689125 -0.00019616311488872428 -0.0018317519401686232 0.00021437298710228636 0.002925528031533069
 0.00021372312618065634 0.0029256276733244124 -0.00019616311488872428 -0.0018317519401686232 0.002347623848673792 0.005556957882748389 0.9974904436224412 -0.01397292708646225
 -0.0001961772098652471 -0.001831753990052675 0.00021437298710228636 0.002925528031533069 0.9974904436224412 -0.01397292708646225 0.0023475116648330667 0.005556978529277254
0.02501042100875 0.0025758596529280873 0.007462339024081386 0.9971924361252449 -0.018652975659186756 0.000284814622079265 0.003902301480892283 -0.00025753763214127776 -0.0024460608109731666
 0.9971924361252449 -0.018652975659186756 0.0025756632952366565 0.007462370072786209 -0.0002575127258161692 -0.002446058500147925 0.0002859687890062971 0.0039021442240949546
 0.000284814622079265 0.003902301480892283 -0.0002575127258161692 -0.002446058500147925 0.0025758658947801867 0.00746267388689194 0.9971924409855102 -0.01865264139560826
 -0.00025753763214127776 -0.0024460608109731666 0.0002859687890062971 0.0039021442240949546 0.9971924409855102 -0.01865264139560826 0.0025756666870543343 0.007462703563241737
0.03126302626094 0.002823869626295553 0.009389935156040427 0.9968668965219891 -0.02334768974116337 0.00036754819336855916 0.00487972953293368 -0.0003286197983907737 -0.0030616742287991917
 0.9968668965219891 -0.02334768974116337 0.002823563022447661 0.009389977246455843 -0.00032858107698186353 -0.0030616719368885582 0.0003693505574470563 0.00487949909718246
 0.00036754819336855916 0.00487972953293368 -0.00032858107698186353 -0.0030616719368885582 0.002823878964811189 0.009390353708056052 0.9968669037565536 -0.023347272110796055
 -0.0003286197983907737 -0.0030616742287991917 0.0003693505574470563 0.00487949909718246 0.9968669037565536 -0.023347272110796055 0.002823568003492479 0.009390393609144294
0.037515631513130004 0.0030920678592609345 0.011338543105207032 0.9965134469279787 -0.028057735432769303 0.00046204249827000785 0.005857787484855341 -0.0004095502094947349 -0.0036783858096613464
 0.9965134469279787 -0.028057735432769303 0.003091626588831555 0.011338597719291193 -0.00040949469452427326 -0.0036783838583364925 0.00046463712401742757 0.005857466271075931
 0.00046204249827000785 0.005857787484855341 -0.00040949469452427326 -0.0036783838583364925 0.0030920808853720236 0.011339045368280976 0.9965134570012844 -0.028057234478175257
 -0.0004095502094947349 -0.0036783858096613464 0.00046463712401742757 0.005857466271075931 0.9965134570012844 -0.028057234478175257 0.0030916334722528487 0.011339096759627375
0.043768236765320004 0.003380865564539147 0.013307435665622232 0.9961317091621559 -0.03278328694703577 0.000568414166064752 0.006836330622427846 -0.0005004519714119457 -0.004295998712656583
 0.9961317091621559 -0.03278328694703577 0.003380265211787566 0.013307504369836227 -0.0005003767082830704 -0.004295997465505225 0.0005719453106038262 0.006835898975183879
 0.000568414166064752 0.006836330622427846 -0.0005003767082830704 -0.004295997465505225 0.003380882856442157 0.013308021679782322 0.9961317225372602 -0.03278270269011143
 -0.0005004519714119457 -0.004295998712656583 0.0005719453106038262 0.006835898975183879 0.9961317225372602 -0.03278270269011143 0.00338027431587842 0.013308085897413054
0.050020842017509996 0.0036906688512396853 0.015296008661139589 0.9957213037191467 -0.03752437913846345 0.00068677743256289 0.007815200885626612 -0.0006014448863442061 -0.004914320712209679
 0.9957213037191467 -0.03752437913846345 0.0036898849986086654 0.01529609310687112 -0.0006013469435112147 -0.004914320574820442 0.0006913895480295749 0.007814637071023606
 0.00068677743256289 0.007815200885626612 -0.0006013469435112147 -0.004914320574820442 0.0036906909761934923 0.015296678467656375 0.9957213208596346 -0.03752371159750569
 -0.0006014448863442061 -0.004914320712209679 0.0006913895480295749 0.007814637071023606 0.9957213208596346 -0.03752371159750569 0.0036898966479236004 0.015296756918196925
0.055454545454549996 0.00397726852777368 0.017039708028932846 0.9953410724142173 -0.04165711210225801 0.0007994640659215839 0.008666004237529803 -0.000697496595763649 -0.005452088799513634
 0.9953410724142173 -0.04165711210225801 0.003976305372410071 0.017039807562064833 -0.0006973765803971976 -0.00545208998858693 0.0008051330362910156 0.008665306283865333
 0.0007994640659215839 0.008666004237529803 -0.0006973765803971976 -0.00545208998858693 0.003977295306288737 0.01704045068359243 0.9953410932051475 -0.04165637220135751
 -0.000697496595763649 -0.005452088799513634 0.0008051330362910156 0.008665306283865333 0.9953410932051475 -0.04165637220135751 0.003976319502706997 0.017040542700471152
0.056273447269699996 0.004021879481807596 0.01730373101485656 0.9952818509317414 -0.042280957373124824 0.0008172438703931927 0.00879423031834524 -0.0007126454435786573 -0.005533160801016367
 0.9952818509317414 -0.042280957373124824 0.0040208877040290095 0.017303832939030633 -0.0007125219121288452 -0.0055331622210285395 0.0008230815959792027 0.00879351050169624
 0.0008172438703931927 0.00879423031834524 -0.0007125219121288452 -0.0055331622210285395 0.0040219069975561145 0.017304484652793016 0.9952818723032003 -0.042280206566132135
 -0.0007126454435786573 -0.005533160801016367 0.0008230815959792027 0.00879351050169624 0.9952818723032003 -0.042280206566132135 0.004020902230021221 0.01730457881392087
0.06252605252188 0.0043748952542289644 0.019330117286991348 0.9948129717636304 -0.047052904937299835 0.000959922163920211 0.009773242989756948 -0.0008341667619923195 -0.006152327329086791
 0.9948129717636304 -0.047052904937299835 0.004373671112225055 0.019330238512995826 -0.0008340147554586651 -0.006152330796246176 0.0009671303108215764 0.00977234121322555
 0.000959922163920211 0.009773242989756948 -0.0008340147554586651 -0.006152330796246176 0.004374928707339821 0.019330954801858095 0.9948129978315984 -0.047052070873307095
 -0.0008341667619923195 -0.006152327329086791 0.0009671303108215764 0.00977234121322555 0.9948129978315984 -0.047052070873307095 0.004373688850817183 0.01933106622290389
0.06877865777407 0.0047501101723976214 0.021374711331739574 0.9943142883961968 -0.05184005933575254 0.0011149179122405938 0.010752056147855687 -0.000966118501407533 -0.006771626919065839
 0.9943142883961968 -0.05184005933575254 0.004748629207915262 0.021374853770485133 -0.0009659351557886269 -0.006771632965251411 0.001123641443789231 0.010750944308351355
 0.0011149179122405938 0.010752056147855687 -0.0009659351557886269 -0.006771632965251411 0.004750150099474576 0.02137563276938908 0.9943143196272487 -0.051839142020828
 -0.000966118501407533 -0.006771626919065839 0.001123641443789231 0.010750944308351355 0.9943143196272487 -0.051839142020828 0.004748650499594605 0.021375763072323088
0.07503126302626001 0.005147914497585753 0.023437075927826713 0.9937854247003577 -0.05664222262576144 0.001282333446612519 0.011730480966714373 -0.0011086067573872675 -0.007390863796870645
 0.9937854247003577 -0.05664222262576144 0.005146152227375308 0.02343724157909859 -0.0011083892312222603 -0.007390872996131954 0.001292717454657657 0.011729128794025039
 0.001282333446612519 0.011730480966714373 -0.0011083892312222603 -0.007390872996131954 0.00514796142552788 0.023438081337895114 0.993785461562681 -0.056641222059549655
 -0.0011086067573872675 -0.007390863796870645 0.001292717454657657 0.011729128794025039 0.993785461562681 -0.056641222059549655 0.005146177416969213 0.023438232218420237
0.08128386827845 0.005568694720911645 0.02551678590276535 0.9932260066360772 -0.061459168267725975 0.0014622676580993523 0.012708323063986933 -0.0012617339440521309 -0.008009839361458736
 0.9932260066360772 -0.061459168267725975 0.005566626631569911 0.025516976856796617 -0.001261479418622267 -0.008009852330020313 0.001474457336348383 0.012706698099386725
 0.0014622676580993523 0.012708323063986933 -0.001261479418622267 -0.008009852330020313 0.005568749167467197 0.02551787533470294 0.9932260495995757 -0.06145808444731785
 -0.0012617339440521309 -0.008009839361458736 0.001474457336348383 0.012706698099386725 0.9932260495995757 -0.06145808444731785 0.005566656067919864 0.02551804856370843
0.08753647353064001 0.0060128334845262615 0.0276134233749692 0.9926356626035383 -0.06629064586860979 0.001654815831515727 0.0136853828722683 -0.0014255986692468202 -0.00862835191044857
 0.9926356626035383 -0.06629064586860979 0.006010435026801648 0.027613641814235142 -0.0014253043488691064 -0.008628369306720797 0.0016689564464567967 0.01368345044751515
 0.001654815831515727 0.0136853828722683 -0.0014253043488691064 -0.008628369306720797 0.0060128959579183435 0.0276145968787788 0.99263571213964 -0.06628947878787013
 -0.0014255986692468202 -0.00862835191044857 0.0016689564464567967 0.01368345044751515 0.99263571213964 -0.06628947878787013 0.006010469061413905 0.027614794303956518
0.09378907878283 0.00648070946682176 0.029726574372327032 0.992014023764103 -0.07113638456049101 0.0018600694838303614 0.01466145592439441 -0.0016002956043057962 -0.009246196461761622
 0.992014023764103 -0.07113638456049101 0.00647795605044453 0.029726822573573772 -0.0015999587166370258 -0.00924621898632387 0.0018763063437158825 0.01465917914124632
 0.0018600694838303614 0.01466145592439441 -0.0015999587166370258 -0.00924621898632387 0.006480780466520792 0.029727831999775488 0.9920140803464377 -0.07113513420864218
 -0.0016002956043057962 -0.009246196461761622 0.0018763063437158825 0.01465917914124632 0.9920140803464377 -0.07113513420864218 0.006477995037571899 0.029728055547595805
0.100041684035 0.006972697242097275 0.031855826360057904 0.991360724338752 -0.07599609548107177 0.0020781162057655943 0.01563633308206149 -0.00178591535025862 -0.009863164642170167
 0.991360724338752 -0.07599609548107177 0.00696956423003177 0.0318561066966703 -0.0017855331466474235 -0.009863193037765053 0.0020965946276220544 0.01563367279238121
 0.0020781162057655943 0.01563633308206149 -0.0017855331466474235 -0.009863193037765053 0.006972777258856198 0.031857168164398264 0.9913607884431277 -0.07599476184303165
 -0.00178591535025862 -0.009863164642170167 0.0020965946276220544 0.01563367279238121 0.9913607884431277 -0.07599476184303165 0.006969608526146243 0.031857419842277114
0.1059090909091 0.007456634926588025 0.03386817935527628 0.9907185542661764 -0.0805688548534899 0.002294439526935687 0.016549874010653113 -0.001970110986375833 -0.010441138144393796
 0.9907185542661764 -0.0805688548534899 0.007453123250873578 0.03386849209442351 -0.0019696837802013136 -0.010441172762353129 0.002315153558742513 0.01654681621481467
 0.002294439526935687 0.016549874010653113 -0.0019696837802013136 -0.010441172762353129 0.0074567238434819745 0.033869600197990284 0.9907186258639952 -0.0805674430450721
 -0.001970110986375833 -0.010441138144393796 0.002315153558742513 0.01654681621481467 0.9907186258639952 -0.0805674430450721 0.00745317285403129 0.03386988017297437
0.1062942892872 0.00748916712153403 0.03400076639653611 0.9906754018921851 -0.08086947363870244 0.0023090395061165702 0.016609800725374692 -0.001982544300992899 -0.010479044625251665
 0.9906754018921851 -0.08086947363870244 0.007485629824747342 0.03400108134109917 -0.0019821140569127654 -0.010479079676735005 0.0023299047812886733 0.016606715511829157
 0.0023090395061165702 0.016609800725374692 -0.0019821140569127654 -0.010479079676735005 0.0074892566373727315 0.03400219242888816 0.9906754739967905 -0.08086805669865943
 -0.001982544300992899 -0.010479044625251665 0.0023299047812886733 0.016606715511829157 0.9906754739967905 -0.08086805669865943 0.007485679787376863 0.0340024743276974
0.11254689453939999 0.008030484979521932 0.03616097973279531 0.9899576976056471 -0.08575619934583698 0.002552918657854305 0.017581640918595688 -0.002190264505012119 -0.011093621103821293
 0.9899576976056471 -0.08575619934583698 0.008026518651551521 0.03616133185988077 -0.0021897835205279383 -0.011093663638111484 0.0025763160161256355 0.017578087075923107
 0.002552918657854305 0.017581640918595688 -0.0021897835205279383 -0.011093663638111484 0.008030584468388557 0.03616249004788524 0.9899577781910802 -0.08575469908139838
 -0.002190264505012119 -0.011093621103821293 0.0025763160161256355 0.017578087075923107 0.9899577781910802 -0.08575469908139838 0.008026574639290298 0.036162804344715006
0.11879949979160001 0.008597012068871623 0.03833604873338244 0.989207256541219 -0.09065593934396646 0.0028098285464240812 0.018551631559336652 -0.0024091535256846566 -0.01170667528943155
 0.989207256541219 -0.09065593934396646 0.008592591900701165 0.03833644072266608 -0.0024086191258799075 -0.011706726175483814 0.0028359031188395075 0.018547563076411797
 0.0028098285464240812 0.018551631559336652 -0.0024086191258799075 -0.011706726175483814 0.008597121996618533 0.038337643386311245 0.9892073460910313 -0.09065435572938652
 -0.0024091535256846566 -0.01170667528943155 0.0028359031188395075 0.018547563076411797 0.9892073460910313 -0.09065435572938652 0.00859265427221253 0.03833799234750317
0.1250521050438 0.009189104828102337 0.040525552041826604 0.9884237279005919 -0.09556834769671235 0.0030798395193561323 0.01951954651741286 -0.002639284301246409 -0.012317984933371294
 0.9884237279005919 -0.09556834769671235 0.00918420594226655 0.04052598668151677 -0.0026386938366808454 -0.012318045082054504 0.0031087362997222665 0.019514915059906275
 0.0030798395193561323 0.01951954651741286 -0.0026386938366808454 -0.012318045082054504 0.009189225652729132 0.040527231085727 0.9884238269014387 -0.09556668070522621
 -0.002639284301246409 -0.012317984933371294 0.0031087362997222665 0.019514915059906275 0.9884238269014387 -0.09556668070522621 0.009184275055980988 0.040527617070279576
0.131304710296 0.009807114680812164 0.042729063914393274 0.9876067652792032 -0.10049306652810917 0.00336301723777726 0.020485155766933508 -0.002880725004333879 -0.012927324365128442
 0.9876067652792032 -0.10049306652810917 0.009801712126240144 0.04272954410489053 -0.002880075851668009 -0.012927394729176441 0.0033948810431722347 0.020479910660787536
 0.00336301723777726 0.020485155766933508 -0.002880075851668009 -0.012927394729176441 0.009807246852719536 0.04273082740603915 0.9876068742209442 -0.1004913161262732
 -0.002880725004333879 -0.012927324365128442 0.0033948810431722347 0.020479910660787536 0.9876068742209442 -0.1004913161262732 0.009801788339602206 0.04273125286925682
0.1375573155481 0.010317887836022855 0.044658916434661945 0.9868895960198909 -0.10514230397199095 0.003625938996341759 0.02142035491088808 -0.00310002701236586 -0.013506648817138771
 0.9868895960198909 -0.10514230397199095 0.010311956203503843 0.044659434874683684 -0.0030993155140233404 -0.013506729582149666 0.0036608436474800305 0.021414499455158467
 0.003625938996341759 0.02142035491088808 -0.0030993155140233404 -0.013506729582149666 0.010318032954896824 0.04466076388696446 0.9868897153513689 -0.1051404701943551
 -0.00310002701236586 -0.013506648817138771 0.0036608436474800305 0.021414499455158467 0.9868897153513689 -0.1051404701943551 0.010312038803021737 0.044661222288010775
0.1438099208003 0.010846859391238053 0.046577040707965 0.9861467353466612 -0.10977818086104464 0.00389942563671542 0.022350850076876937 -0.0033280375795966227 -0.014081626416016922
 0.9861467353466612 -0.10977818086104464 0.010840373609616765 0.04657759968253138 -0.0033272609630176403 -0.014081718520714753 0.003937502905372702 0.022344337497044814
 0.00389942563671542 0.022350850076876937 -0.0033272609630176403 -0.014081718520714753 0.01084701810611065 0.046578972119609 0.9861468655528739 -0.10977626368716116
 -0.0033280375795966227 -0.014081626416016922 0.003937502905372702 0.022344337497044814 0.9861468655528739 -0.10977626368716116 0.010840462758915016 0.04657946542227213
0.1500625260525 0.01139381869459571 0.048483230277152886 0.9853783990444953 -0.11440053499305336 0.0041833668983064535 0.02327651675984432 -0.0035646487212582095 -0.014652139365860961
 0.9853783990444953 -0.11440053499305336 0.01138675363154923 0.04848383220483633 -0.0035638042262988562 -0.014652243786028581 0.004224747573209405 0.02326929858028061
 0.0041833668983064535 0.02327651675984432 -0.0035638042262988562 -0.014652243786028581 0.011393991661368669 0.0484852456447538 0.9853785406126881 -0.11439853440221663
 -0.0035646487212582095 -0.014652139365860961 0.004224747573209405 0.02326929858028061 0.9853785406126881 -0.11439853440221663 0.011386849481116207 0.0484857759391062
0.15631513130469998 0.011958553300831083 0.05037728484949168 0.9845848043271178 -0.11900920581372353 0.004477651047646374 0.02419723294387008 -0.003809750963799728 -0.015218072673736696
 0.9845848043271178 -0.11900920581372353 0.011950883761143519 0.050377932285925374 -0.003808835843013011 -0.015218190421880554 0.004522464916522935 0.02418925900916419
