! Created with skrf 1.8.0 (http://scikit-rf.org).
# GHz S RI R 50.0 
!freq ReS11 ImS11 ReS12 ImS12 ReS13 ImS13
! ReS14 ImS14
! ReS21 ImS21 ReS22 ImS22 ReS23 ImS23
! ReS24 ImS24
! ReS31 ImS31 ReS32 ImS32 ReS33 ImS33
! ReS34 ImS34
! ReS41 ImS41 ReS42 ImS42 ReS43 ImS43
! ReS44 ImS44
!
0.0 0.001400219441312 0.0 0.9985997805482 0.0 5.36869491314e-05 0.0 -5.368694883134e-05 6.574755004228827e-21
 0.9985997805482 0.0 0.001400219441343 0.0 -5.368694883233e-05 6.574755004350067e-21 5.368694913185e-05 0.0
 5.36869491314e-05 0.0 -5.368694883233e-05 6.574755004350067e-21 0.001400219446574 0.0 0.9985997805534 0.0
 -5.368694883134e-05 6.574755004228827e-21 5.368694913185e-05 0.0 0.9985997805534 0.0 0.001400219446553 0.0
0.005 0.0015061161227291591 0.0011472913020886156 0.9984658711081104 -0.0029334889408506753 7.478738545352057e-05 0.0005823236940479637 -7.269955892192926e-05 -0.000367195200671368
 0.9984658711081104 -0.0029334889408506753 0.0015061327238639955 0.0011472815587220502 -7.270018843405821e-05 -0.00036719561621651175 7.468231640317552e-05 0.0005823636051194085
 7.478738545352057e-05 0.0005823236940479637 -7.270018843405821e-05 -0.00036719561621651175 0.0015061165002557052 0.0011473582881447696 0.9984658714612153 -0.002933421886095389
 -7.269955892192926e-05 -0.000367195200671368 7.468231640317552e-05 0.0005823636051194085 0.9984658714612153 -0.002933421886095389 0.0015061330452565353 0.0011473486749394796
0.006252605252188 0.0015337748440278304 0.0014386361052404013 0.9984306924457027 -0.003667595602434097 8.075840670202121e-05 0.0007281976766367235 -7.801296769347574e-05 -0.0004594731072558045
 0.9984306924457027 -0.003667595602434097 0.0015338007951327059 0.001438623738690138 -7.801394781287659e-05 -0.0004594736182907977 8.059424395129765e-05 0.0007282494898203553
 8.075840670202121e-05 0.0007281976766367235 -7.801394781287659e-05 -0.0004594736182907977 0.0015337753459927566 0.0014387198309547913 0.9984306929093055 -0.0036675117812762243
 -7.801296769347574e-05 -0.0004594731072558045 8.059424395129765e-05 0.0007282494898203553 0.9984306929093055 -0.0036675117812762243 0.0015338012085320085 0.0014387076392994476
0.01250521050438 0.0016787083199299995 0.0029075204971978105 0.9982452163708498 -0.0073360967208892895 0.00011469793882416258 0.0014568172935194566 -0.0001078676724188755 -0.000921235789217779
 0.9982452163708498 -0.0073360967208892895 0.0016788119509333667 0.0029074938766577687 -0.00010787154178603216 -0.0009212367191189573 0.00011404324218057569 0.0014569415484448898
 0.00011469793882416258 0.0014568172935194566 -0.00010787154178603216 -0.0009212367191189573 0.0016787097831300233 0.0029076875974290172 0.998245217676544 -0.007335929309372092
 -0.0001078676724188755 -0.000921235789217779 0.00011404324218057569 0.0014569415484448898 0.998245217676544 -0.007335929309372092 0.0016788130455378512 0.0029076614518544807
0.01875781575657 0.0018353133279211088 0.004397459953540616 0.9980431382587195 -0.011014454145705066 0.000155580193469175 0.0021863491344885373 -0.0001433378125886944 -0.0013846504542989887
 0.9980431382587195 -0.011014454145705066 0.0018355462053969178 0.004397417054822338 -0.00014334645105395808 -0.0013846516923539105 0.00015410936130294745 0.0021865701981759657
 0.000155580193469175 0.0021863491344885373 -0.00014334645105395808 -0.0013846516923539105 0.0018353162043329224 0.004397710185099098 0.9980431407741807 -0.011014203203736377
 -0.0001433378125886944 -0.0013846504542989887 0.00015410936130294745 0.0021865701981759657 0.9980431407741807 -0.011014203203736377 0.0018355482238044294 0.004397668196493363
0.02501042100875 0.002003875868660558 0.005906397439659768 0.9978242362290984 -0.014704474469381596 0.00020348121109709807 0.0029168345333915146 -0.00018450776689730514 -0.0018495242191918654
 0.9978242362290984 -0.014704474469381596 0.0020042894625951265 0.005906336120439882 -0.0001845230351328768 -0.001849525634418187 0.0002008684323672473 0.002917180370307997
 0.00020348121109709807 0.0029168345333915146 -0.0001845230351328768 -0.001849525634418187 0.002003880617458055 0.005906730537105822 0.9978242403276407 -0.014704140015750796
 -0.00018450776689730514 -0.0018495242191918654 0.0002008684323672473 0.002917180370307997 0.9978242403276407 -0.014704140015750796 0.002004292638230617 0.005906670708682381
0.03126302626094 0.0021846700167006067 0.007433286617894582 0.9975882762722103 -0.018406945551424855 0.00025847771853473476 0.0036482492610005646 -0.0002314598090179581 -0.002315725445078147
 0.9975882762722103 -0.018406945551424855 0.0021853157273261305 0.007433204621516451 -0.00023148355187495523 -0.002315726885948717 0.00025439666603709624 0.0036487514534147697
 0.00025847771853473476 0.0036482492610005646 -0.00023148355187495523 -0.002315726885948717 0.0021846770995266325 0.007433702295438105 0.9975882823299593 -0.018406527561495165
 -0.0002314598090179581 -0.002315725445078147 0.00025439666603709624 0.0036487514534147697 0.9975882823299593 -0.018406527561495165 0.002185320280317467 0.007433622526856159
0.037515631513130004 0.002377964072193551 0.00897745453645517 0.9973350185516865 -0.022122273773364745 0.000320646350664341 0.0043805433575967315 -0.0002842746973282468 -0.002783143891242054
 0.9973350185516865 -0.022122273773364745 0.0023788932474047013 0.008977349493968542 -0.00028430874546804525 -0.0027831451855540295 0.00031477004069970974 0.004381237142358777
 0.000320646350664341 0.0043805433575967315 -0.00028430874546804525 -0.0027831451855540295 0.0023779739514946047 0.00897795246685762 0.9973350269470874 -0.022121772199749486
 -0.0002842746973282468 -0.002783143891242054 0.00031477004069970974 0.004381237142358777 0.9973350269470874 -0.022121772199749486 0.0023788993838117253 0.00897785055654158
0.043768236765320004 0.002584022940201871 0.010538407670801643 0.9970642199374599 -0.025850677933460468 0.00039006329384670376 0.005113653238290889 -0.00034303188914900105 -0.0032516786000930534
 0.9970642199374599 -0.025850677933460468 0.0025852868891373224 0.010538277102222594 -0.0003430780599980496 -0.0032516795548872693 0.0003820640164804007 0.0051145775487220334
 0.00039006329384670376 0.005113653238290889 -0.0003430780599980496 -0.0032516795548872693 0.0025840360799853778 0.010538987495610318 0.9970642310539719 -0.02585009269538924
 -0.00034303188914900105 -0.0032516786000930534 0.0003820640164804007 0.0051145775487220334 0.9970642310539719 -0.02585009269538924 0.002585294802170671 0.010538861142248572
0.050020842017509996 0.002803109244936195 0.012115751783443143 0.9967756352777564 -0.029592269320489653 0.0004668040746275994 0.005847506691972454 -0.00040780962462266514 -0.0037212328908091093
 0.9967756352777564 -0.029592269320489653 0.0028047592494524487 0.012115593098656494 -0.0004078697229465148 -0.003721233292298977 0.0004563533614824988 0.005848704201825479
 0.0004668040746275994 0.005847506691972454 -0.0004078697229465148 -0.003721233292298977 0.0028031261082307212 0.012116413093190911 0.9967756495028345 -0.02959160032330263
 -0.00040780962462266514 -0.0037212328908091093 0.0004563533614824988 0.005848704201825479 0.9967756495028345 -0.02959160032330263 0.002804769117612772 0.012116259896795496
0.055454545454549996 0.0030042844352528024 0.013499562379553222 0.9965102106482047 -0.032854569981919414 0.0005395000444624827 0.006485790704119082 -0.00046905272576405673 -0.004130044128039077
 0.9965102106482047 -0.032854569981919414 0.0030063115674886795 0.01349937707228804 -0.00046912638360277096 -0.004130043858852057 0.0005266516064742091 0.006487263227670436
 0.0005395000444624827 0.006485790704119082 -0.00046912638360277096 -0.004130043858852057 0.003004304909619145 0.0135002941382048 0.9965102278938007 -0.03285382809940617
 -0.00046905272576405673 -0.004130044128039077 0.0005266516064742091 0.006487263227670436 0.9965102278938007 -0.03285382809940617 0.0030063232685732843 0.013500115589274997
0.056273447269699996 0.003035483906684323 0.013709152560434798 0.9964690181360316 -0.033347091011363315 0.0005509434142444917 0.006582025335769998 -0.0004786849505812646 -0.004191711899637962
 0.9964690181360316 -0.033347091011363315 0.003037571231696149 0.013708963059695259 -0.00047876076883252765 -0.004191711513152152 0.0005377120290674247 0.006583542504174842
 0.0005509434142444917 0.006582025335769998 -0.00047876076883252765 -0.004191711513152152 0.003035504955436642 0.01370989490565126 0.9964690358628643 -0.033346338135142796
 -0.0004786849505812646 -0.004191711899637962 0.0005377120290674247 0.006583542504174842 0.9964690358628643 -0.033346338135142796 0.0030375832191452384 0.013709712368340204
0.06252605252188 0.003281406459837786 0.015318313998970743 0.996144121273441 -0.03711513941871211 0.0006425551158242 0.0073171259554590485 -0.0005557337141973549 -0.0046630212366629694
 0.996144121273441 -0.03711513941871211 0.003283982363338578 0.015318090873172876 -0.0005558270327151969 -0.004663019806596386 0.0006262130598077884 0.00731901307228496
 0.0006425551158242 0.0073171259554590485 -0.0005558270327151969 -0.004663019806596386 0.0032814321533111753 0.01531913688453823 0.996144142900678 -0.03711430252355301
 -0.0005557337141973549 -0.0046630212366629694 0.0006262130598077884 0.00731901307228496 0.996144142900678 -0.03711430252355301 0.003283996618959144 0.015318922410960422
0.06877865777407 0.0035411352270533886 0.016942965493601105 0.9958006969885496 -0.040896377141900635 0.0007417119690082095 0.008052721313464557 -0.0006390305398739829 -0.005135066177566999
 0.9958006969885496 -0.040896377141900635 0.00354425096929192 0.016942705824213006 -0.0006391431270141198 -0.005135063427327048 0.0007219284965439792 0.008055032544782187
 0.0007417119690082095 0.008052721313464557 -0.0006391431270141198 -0.005135063427327048 0.003541166021213816 0.01694386838677696 0.9958007229215816 -0.04089545605967418
 -0.0006390305398739829 -0.005135066177566999 0.0007219284965439792 0.008055032544782187 0.9958007229215816 -0.04089545605967418 0.0035442676263669707 0.016943619284248965
0.07503126302626001 0.003814927410328585 0.018582853676958666 0.9954384973789963 -0.04469074106601796 0.000848485665584 0.008788720653225173 -0.0007286487949105273 -0.0056077511617366235
 0.9954384973789963 -0.04469074106601796 0.0038186342630441984 0.01858255443575907 -0.000728782407057319 -0.005607746793707466 0.0008249293080794307 0.008791514086685603
 0.000848485665584 0.008788720653225173 -0.000728782407057319 -0.005607746793707466 0.0038149637570938817 0.018583835991201832 0.9954385280309099 -0.04468973561629074
 -0.0007286487949105273 -0.0056077511617366235 0.0008249293080794307 0.008791514086685603 0.9954385280309099 -0.04468973561629074 0.0038186534393403887 0.018583549469616413
0.08128386827845 0.004103039130595715 0.020237736960287352 0.9950572745528593 -0.04849814776385271 0.0009629467219604906 0.009525030042024568 -0.0008246605481216851 -0.0060809794547716
 0.9950572745528593 -0.04849814776385271 0.00410738838601377 0.020237395008781925 -0.0008248169296880117 -0.00608097315026385 0.0009352853173456451 0.009528367732039831
 0.0009629467219604906 0.009525030042024568 -0.0008248169296880117 -0.00608097315026385 0.004103081476037885 0.020238798067610208 0.9950573103443751 -0.048497057741290275
 -0.0008246605481216851 -0.0060809794547716 0.0009352853173456451 0.009528367732039831 0.9950573103443751 -0.048497057741290275 0.0041074101823303025 0.02023847123902186
0.08753647353064001 0.004405725430100347 0.021907381777160968 0.9946567808069736 -0.05231849719762721 0.001085164405052323 0.010261552607174677 -0.0009271365240022245 -0.006554652920612254
 0.9946567808069736 -0.05231849719762721 0.004410768409864245 0.021906993865746096 -0.0009273174073431366 -0.006554644339845937 0.001053065132547897 0.010265500619761444
 0.001085164405052323 0.010261552607174677 -0.0009273174073431366 -0.006554644339845937 0.004405774213791054 0.021908521007359853 0.9946568221675329 -0.05231732237265228
 -0.0009271365240022245 -0.006554652920612254 0.001053065132547897 0.010265500619761444 0.9946568221675329 -0.05231732237265228 0.004410792910174948 0.02190815088528921
0.09378907878283 0.004723240252818802 0.023591559896486876 0.9942367687853199 -0.056151675354767665 0.0012152066616616707 0.010998188707540072 -0.0010361460528901041 -0.007028671861415085
 0.9942367687853199 -0.056151675354767665 0.004729028316888175 0.0235911226633551 -0.0010363531582539024 -0.007028660643479684 0.001178336080249049 0.011002817164802557
 0.0012152066616616707 0.010998188707540072 -0.0010363531582539024 -0.007028660643479684 0.004723295906660205 0.02359277652692358 0.9942368161538321 -0.056150415483601133
 -0.0010361460528901041 -0.007028671861415085 0.001178336080249049 0.011002817164802557 0.9942368161538321 -0.056150415483601133 0.0047290555873587825 0.02359236002541912
0.100041684035 0.005055836406380601 0.02529004643806871 0.9937969916219579 -0.059997556184496904 0.0013531400492546321 0.011734836062584592 -0.0011517570185970631 -0.007502934903061675
 0.9937969916219579 -0.059997556184496904 0.005062420962074453 0.02528955640772843 -0.0011519920539659228 -0.007502920665888917 0.0013111641399819244 0.011740219186670387
 0.0013531400492546321 0.011734836062584592 -0.0011519920539659228 -0.007502920665888917 0.005055899353665555 0.025291339705507142 0.9937970454475814 -0.0599962109972275
 -0.0011517570185970631 -0.007502934903061675 0.0013111641399819244 0.011740219186670387 0.9937970454475814 -0.0599962109972275 0.005062451051043146 0.0252908736378204
0.1059090909091 0.005381883083246253 0.02689671059485262 0.9933661118616822 -0.06361793877711436 0.001489810810459576 0.012426018370322029 -0.0012663087353042063 -0.007948110627880778
 0.9933661118616822 -0.06361793877711436 0.005389261866303042 0.026896167756291414 -0.0012665715223905243 -0.007948093191127865 0.0014427398306852952 0.01243218086388938
 0.001489810810459576 0.012426018370322029 -0.0012665715223905243 -0.007948093191127865 0.0053819532507942405 0.02689807503970258 0.9933661721646289 -0.06361651326886628
 -0.0012663087353042063 -0.007948110627880778 0.0014427398306852952 0.01243218086388938 0.9933661721646289 -0.06361651326886628 0.0053892946272405245 0.02689755946996716
0.1062942892872 0.005403765512198813 0.02700261839924533 0.9933372030749413 -0.06385600302692983 0.0014990296681663682 0.012471389851453754 -0.0012740358040326523 -0.007977338913949018
 0.9933372030749413 -0.06385600302692983 0.005411198023140755 0.02700207198086938 -0.0012743004650150557 -0.007977321254297894 0.0014516138791797512 0.01247760600804199
 0.0014990296681663682 0.012471389851453754 -0.0012743004650150557 -0.007977321254297894 0.005403836166268554 0.027003987491533783 0.9933372638175052 -0.06385457223575054
 -0.0012740358040326523 -0.007977338913949018 0.0014516138791797512 0.01247760600804199 0.9933372638175052 -0.06385457223575054 0.0054112309600148545 0.02700346856859037
0.11254689453939999 0.005767277944984821 0.02872905351064223 0.9928571576519072 -0.06772686971672548 0.001652939094615012 0.013207742794410738 -0.0014030472350290578 -0.008451778944693936
 0.9928571576519072 -0.06772686971672548 0.005775609940101089 0.028728446996015712 -0.0014033432046758158 -0.008451757438138151 0.0015997483890071436 0.013214874535591904
 0.001652939094615012 0.013207742794410738 -0.0014033432046758158 -0.008451757438138151 0.005767356708172489 0.028730497570511698 0.9928572257829916 -0.06772535301219298
 -0.0014030472350290578 -0.008451778944693936 0.0015997483890071436 0.013214874535591904 0.9928572257829916 -0.06772535301219298 0.0057756457351326425 0.02872992239897901
0.11879949979160001 0.006146622765596373 0.03046912935395865 0.9923566107316901 -0.07161000142866762 0.0018149303141467158 0.013943785217114934 -0.001538854522973555 -0.008926148188503893
 0.9923566107316901 -0.07161000142866762 0.006155905848040171 0.030468458915200124 -0.0015391834716033603 -0.008926122389416914 0.0017556292202973761 0.013951919323645905
 0.0018149303141467158 0.013943785217114934 -0.0015391834716033603 -0.008926122389416914 0.006146710027963311 0.03047064747763811 0.992356686735117 -0.0716083984810745
 -0.001538854522973555 -0.008926148188503893 0.0017556292202973761 0.013951919323645905 0.992356686735117 -0.0716083984810745 0.006155944491559077 0.03047001255774493
0.1250521050438 0.006542047646443753 0.03222262266125887 0.99183531868143 -0.07550523534571169 0.0019850636555341222 0.014679405110100734 -0.0016815192063200034 -0.009400337949804332
 0.99183531868143 -0.07550523534571169 0.0065523335030342805 0.03222188434811392 -0.0016818827913605272 -0.00940030739135688 0.0019193163196489585 0.014688632633001882
 0.0019850636555341222 0.014679405110100734 -0.0016818827913605272 -0.00940030739135688 0.006542143784700519 0.0322242138989687 0.9918354030540664 -0.07550354580466316
 -0.0016815192063200034 -0.009400337949804332 0.0019193163196489585 0.014688632633001882 0.9918354030540664 -0.07550354580466316 0.00655237496480955 0.03222351562191206
0.131304710296 0.006953798793503073 0.0339893087538656 0.9912930389715839 -0.07941240119145683 0.0021633977251145076 0.015414488175710455 -0.0018311010911057567 -0.009874237629034386
 0.9912930389715839 -0.07941240119145683 0.006965139203556482 0.03398849849077282 -0.0018315009568485518 -0.009874201823205534 0.002090867965730067 0.015424904477128177
 0.0021633977251145076 0.015414488175710455 -0.0018315009568485518 -0.009874201823205534 0.006953904169896807 0.03399097210828567 0.9912931322242882 -0.079410624687598
 -0.0018311010911057567 -0.009874237629034386 0.002090867965730067 0.015424904477128177 0.9912931322242882 -0.079410624687598 0.006965183432445491 0.03399020675337877
0.1375573155481 0.007284052170970522 0.035538767949006414 0.990827629852165 -0.08310104939014777 0.0023267668200469605 0.016125692390926448 -0.001964523043826327 -0.010324459573242899
 0.990827629852165 -0.08310104939014777 0.007296501939539755 0.03553789880031747 -0.0019649614151132167 -0.010324418500580638 0.0022472895169839816 0.016137277147094425
 0.0023267668200469605 0.016125692390926448 -0.0019649614151132167 -0.010324418500580638 0.007284166359664277 0.035540502969181376 0.9908277323941697 -0.08309918569592133
 -0.001964523043826327 -0.010324459573242899 0.0022472895169839816 0.016137277147094425 0.9908277323941697 -0.08309918569592133 0.0072965498486102665 0.03553968307952138
0.1438099208003 0.00762580659107464 0.037080679057545786 0.9903460715971709 -0.08678095843440975 0.0024967454472172024 0.016834316382965085 -0.0021032894152001407 -0.010772350611851287
 0.9903460715971709 -0.08678095843440975 0.007639418064416299 0.03707974799085853 -0.0021037680222754374 -0.01077230379985332 0.002410014901327056 0.01684715624506145
 0.0024967454472172024 0.016834316382965085 -0.0021037680222754374 -0.01077230379985332 0.007625929790055976 0.037082484752567854 0.9903461839387193 -0.08677900718416806
 -0.0021032894152001407 -0.010772350611851287 0.002410014901327056 0.01684715624506145 0.9903461839387193 -0.08677900718416806 0.007639469747070729 0.037081607563441144
0.1500625260525 0.007978949700532489 0.03861493131892896 0.9898484800726387 -0.09045205514709892 0.002673279956685171 0.017540297682311582 -0.002247348764344038 -0.01121785257887149
 0.9898484800726387 -0.09045205514709892 0.007993775326736152 0.038613935124100274 -0.002247869331898568 -0.011217799536421656 0.0025789921452715105 0.01755448244253324
 0.002673279956685171 0.017540297682311582 -0.002247869331898568 -0.011217799536421656 0.007979082084105901 0.03861680665960427 0.9898486027355949 -0.09045001596154102
 -0.002247348764344038 -0.01121785257887149 0.0025789921452715105 0.01755448244253324 0.9898486027355949 -0.09045001596154102 0.007993830867510189 0.03861586923564337
0.15631513130469998 0.00834336844617955 0.04014141740714378 0.9893349716253085 -0.09411426625245525 0.0028563161167508774 0.01824357478275757 -0.002396649067460369 -0.01166090847255118
