! Created with skrf 1.8.0 (http://scikit-rf.org).
# GHz S RI R 50.0 
!freq ReS11 ImS11 ReS12 ImS12 ReS13 ImS13
! ReS14 ImS14
! ReS21 ImS21 ReS22 ImS22 ReS23 ImS23
! ReS24 ImS24
! ReS31 ImS31 ReS32 ImS32 ReS33 ImS33
! ReS34 ImS34
! ReS41 ImS41 ReS42 ImS42 ReS43 ImS43
! ReS44 ImS44
!
0.0 0.001208112951111 0.0 0.9987918870146 0.0 4.648774284489e-05 0.0 -4.648774255542e-05 5.69310651200813e-21
 0.9987918870146 0.0 0.001208112951105 0.0 -4.648774255631e-05 5.693106512117124e-21 4.648774284411e-05 0.0
 4.648774284489e-05 0.0 -4.648774255631e-05 5.693106512117124e-21 0.001208112968267 0.0 0.9987918870318 0.0
 -4.648774255542e-05 5.69310651200813e-21 4.648774284411e-05 0.0 0.9987918870318 0.0 0.001208112968213 0.0
0.005 0.001299153575867141 0.0009804315366528419 0.9986768036375843 -0.0025321111587422738 6.592945500567422e-05 0.0005632670020792145 -6.381566546726236e-05 -0.0003447872553129712
 0.9986768036375843 -0.0025321111587422738 0.001299149826710685 0.000980433703535119 -6.381513627431788e-05 -0.00034478680207813983 6.59532497331364e-05 0.0005632579249117641
 6.592945500567422e-05 0.0005632670020792145 -6.381513627431788e-05 -0.00034478680207813983 0.0012991537354319629 0.000980364152508377 0.9986768033074529 -0.0025321782188876814
 -6.381566546726236e-05 -0.0003447872553129712 6.59532497331364e-05 0.0005632579249117641 0.9986768033074529 -0.0025321782188876814 0.0012991490059651963 0.000980366964864794
0.006252605252188 0.0013228079644953298 0.0012294671682376382 0.9986467473596187 -0.0031657969192861782 7.135001280295645e-05 0.0007043481834000027 -6.86062562942907e-05 -0.00043145555855437714
 0.9986467473596187 -0.0031657969192861782 0.0013228021041838752 0.001229469931024457 -6.86054331854092e-05 -0.0004314549985256085 7.138719014976782e-05 0.0007043364128231156
 7.135001280295645e-05 0.0007043481834000027 -6.86054331854092e-05 -0.0004314549985256085 0.0013228082896268244 0.001229382947523011 0.9986467469189283 -0.0031658807296194185
 -6.86062562942907e-05 -0.00043145555855437714 7.138719014976782e-05 0.0007043364128231156 0.9986467469189283 -0.0031658807296194185 0.0013228008962117939 0.0012293865258861357
0.01250521050438 0.0014460324908040904 0.002485334729043944 0.998489295455014 -0.006332638631281702 0.0001017286690910724 0.0014089869390060197 -9.524144381821176e-05 -0.0008652032727829795
 0.998489295455014 -0.006332638631281702 0.0014460090951989115 0.0024853407943465733 -9.52382043010073e-05 -0.0008652022224490497 0.00010187692755159524 0.0014089588852685116
 0.0001017286690910724 0.0014089869390060197 -9.52382043010073e-05 -0.0008652022224490497 0.0014460343578981962 0.002485166460160336 0.9984892942590121 -0.006332806015108261
 -9.524144381821176e-05 -0.0008652032727829795 0.00010187692755159524 0.0014089588852685116 0.9984892942590121 -0.006332806015108261 0.0014460048288357675 0.0024851742516339287
0.01875781575657 0.0015780088497656401 0.0037596759434083867 0.9983193692441813 -0.009508288939238168 0.0001376854726520661 0.0021144772959903672 -0.00012646566228401794 -0.0013005786955794113
 0.9983193692441813 -0.009508288939238168 0.0015779562882791754 0.0037596858710076918 -0.00012645844378027774 -0.0013005772337920812 0.0001380185297331797 0.0021144277099050075
 0.0001376854726520661 0.0021144772959903672 -0.00012645844378027774 -0.0013005772337920812 0.0015780134793259653 0.0037594236516570465 0.9983193669805918 -0.009508539778104534
 -0.00012646566228401794 -0.0013005786955794113 0.0001380185297331797 0.0021144277099050075 0.9983193669805918 -0.009508539778104534 0.0015779471121006633 0.0037594363357015066
0.02501042100875 0.0017189551917441953 0.005050735874386276 0.9981368017131382 -0.012694334554458106 0.0001792831019620093 0.002820895011013963 -0.00016234944449448302 -0.001737399547133419
 0.9981368017131382 -0.012694334554458106 0.0017188618637773807 0.005050750240485694 -0.00016233670473758612 -0.0017373977636158918 0.0001798747169712652 0.0028208179418592375
 0.0001792831019620093 0.002820895011013963 -0.00016233670473758612 -0.0017373977636158918 0.0017189638046165969 0.005050399521359172 0.9981367980673261 -0.012694668765396608
 -0.00016234944449448302 -0.001737399547133419 0.0001798747169712652 0.0028208179418592375 0.9981367980673261 -0.012694668765396608 0.0017188459187253617 0.0050504178174323195
0.03126302626094 0.001869080281862735 0.006357634418786167 0.9979414157889892 -0.015891482034414053 0.000226585032899499 0.003528245642192294 -0.00020296162579953446 -0.002175550658496233
 0.9979414157889892 -0.015891482034414053 0.0018689346110916042 0.006357653815191806 -0.000202941839278085 -0.0021755486540364897 0.00022750908034186321 0.0035281344346155827
 0.000226585032899499 0.003528245642192294 -0.000202941839278085 -0.0021755486540364897 0.001869094107138483 0.006357213930385472 0.9979414104518698 -0.015891899541845923
 -0.00020296162579953446 -0.002175550658496233 0.00022750908034186321 0.0035281344346155827 0.9979414104518698 -0.015891899541845923 0.0018689100372635838 0.006357238597365479
0.037515631513130004 0.0020285885214813095 0.007679815183141613 0.9977330294544611 -0.01910010886217832 0.00027965490390079796 0.004236507683928954 -0.00024836993107277044 -0.0026149408284953843
 0.9977330294544611 -0.01910010886217832 0.002028378951916029 0.007679840216785331 -0.000248341587202041 -0.0026149387150055494 0.00028098540858309214 0.004236354970990439
 0.00027965490390079796 0.004236507683928954 -0.000248341587202041 -0.0026149387150055494 0.002028608792069105 0.007679310444504192 0.9977330221176138 -0.019100609602913272
 -0.00024836993107277044 -0.0026149408284953843 0.00028098540858309214 0.004236354970990439 0.9977330221176138 -0.019100609602913272 0.0020283438834835794 0.007679342280470202
0.043768236765320004 0.002197681894765315 0.009016877768246863 0.9975114577863511 -0.022320431112153462 0.00033855623275648965 0.004945645678073937 -0.00029864119852447175 -0.0030554897013016255
 0.9975114577863511 -0.022320431112153462 0.0021973968882336883 0.009016909060729238 -0.0002986028005033839 -0.0030554876018005607 0.00034036738909112553 0.004945443373108951
 0.00033855623275648965 0.004945645678073937 -0.0002986028005033839 -0.0030554876018005607 0.002197709846078295 0.009016288647196667 0.9975114481414321 -0.022321015011728
 -0.00029864119852447175 -0.0030554897013016255 0.00034036738909112553 0.004945443373108951 0.9975114481414321 -0.022321015011728 0.0021973494518227788 0.009016328489446307
0.050020842017509996 0.0023765608791254827 0.010368508459922352 0.9972765139600918 -0.02555257270782205 0.00040335225488365953 0.005655615633647302 -0.00035384147792176377 -0.00349712233505628
 0.9972765139600918 -0.02555257270782205 0.002376188912756911 0.010368546647170398 -0.0003537915419688988 -0.003497120383662658 0.00040571843690110504 0.005655354921592047
 0.00040335225488365953 0.005655615633647302 -0.0003537915419688988 -0.003497120383662658 0.0023765977520748345 0.010367834793264816 0.9972765017013947 -0.025553239694096737
 -0.00035384147792176377 -0.00349712233505628 0.00040571843690110504 0.005655354921592047 0.9972765017013947 -0.025553239694096737 0.002376127230378335 0.010367883518317115
0.055454545454549996 0.0025401141770100785 0.011554743890163036 0.9970613347296118 -0.028371052579264342 0.0004644979947806165 0.006273238070547409 -0.00040586588748373645 -0.003881738523156994
 0.9970613347296118 -0.028371052579264342 0.00253965729200824 0.011554788596533892 -0.0004058047293988416 -0.003881736817997565 0.00046740705552516013 0.006272918869635649
 0.0004644979947806165 0.006273238070547409 -0.0004058047293988416 -0.003881736817997565 0.0025401598139515617 0.011553996596024138 0.9970613199527005 -0.028371791711606937
 -0.00040586588748373645 -0.003881738523156994 0.00046740705552516013 0.006272918869635649 0.9970613199527005 -0.028371791711606937 0.0025395816994655393 0.011554053782934282
0.056273447269699996 0.0025654249289283316 0.011734446219252547 0.9970280098277428 -0.02879659937972658 0.00047410581776851843 0.006366367669595253 -0.0004140360692177653 -0.003939766547987636
 0.9970280098277428 -0.02879659937972658 0.0025649544927419097 0.011734491951223232 -0.00041397312401091557 -0.003939764889894404 0.00047710158471049087 0.0063660389980731095
 0.00047410581776851843 0.006366367669595253 -0.00041397312401091557 -0.003939764889894404 0.002565471968318863 0.011733687815438244 0.9970279946515281 -0.028797349380001218
 -0.0004140360692177653 -0.003939766547987636 0.00047710158471049087 0.0063660389980731095 0.9970279946515281 -0.028797349380001218 0.002564876680204638 0.011733746339196912
0.06252605252188 0.002764472745350282 0.01311446396835103 0.9967657562855591 -0.032052537328283864 0.0005508792996669412 0.007077847476660655 -0.0004792895354090753 -0.00438335144636861
 0.9967657562855591 -0.032052537328283864 0.0027638923407562305 0.013114517908741389 -0.0004792121217389858 -0.004383350237810633 0.0005545793980084748 0.007077440546926191
 0.0005508792996669412 0.007077847476660655 -0.0004792121217389858 -0.004383350237810633 0.0027645311991213056 0.013113620611750303 0.9967657378889855 -0.032053370264894646
 -0.0004792895354090753 -0.00438335144636861 0.0005545793980084748 0.007077440546926191 0.9967657378889855 -0.032053370264894646 0.0027637965065282653 0.01311368988961559
0.06877865777407 0.002973902432412626 0.014508357444786905 0.9964895635279287 -0.03532038431866979 0.0006337345444120371 0.007789997181397248 -0.0005496656978479652 -0.0048278065514965164
 0.9964895635279287 -0.03532038431866979 0.0029732005699464044 0.014508420270818787 -0.0005495723682566895 -0.004827805959719923 0.0006382139072918857 0.007789500939207536
 0.0006337345444120371 0.007789997181397248 -0.0005495723682566895 -0.004827805959719923 0.0029739735526001588 0.014507428894077327 0.9964895416108566 -0.03532130011048841
 -0.0005496656978479652 -0.0048278065514965164 0.0006382139072918857 0.007789500939207536 0.9964895416108566 -0.03532130011048841 0.00297308481657528 0.014507509921159794
0.07503126302626001 0.0031939115871180705 0.015915938131491742 0.9961992412383913 -0.038600116701560785 0.0007227328047250542 0.008502755890715157 -0.0006252276213574456 -0.005273061247461463
 0.9961992412383913 -0.038600116701560785 0.0031930767847461847 0.01591601053374317 -0.0006251169399521291 -0.005273061450690626 0.0007280665498701743 0.00850215851720018
 0.0007227328047250542 0.008502755890715157 -0.0006251169399521291 -0.005273061450690626 0.0031939966286273387 0.01591492411909278 0.9961992155022117 -0.038601115264241065
 -0.0006252276213574456 -0.005273061247461463 0.0007280665498701743 0.00850215851720018 0.9961992155022117 -0.038601115264241065 0.00319293920731447 0.015915017930527322
0.08128386827845 0.003424697347312925 0.017337028547274733 0.9958945987399358 -0.04189169407428291 0.0008179346902211579 0.009216060055329801 -0.0007060375936042275 -0.005719044411501088
 0.9958945987399358 -0.04189169407428291 0.0034237181286218394 0.017337111229436743 -0.0007059081358461587 -0.005719045598900949 0.0008241981166047283 0.009215348957829274
 0.0008179346902211579 0.009216060055329801 -0.0007059081358461587 -0.005719045598900949 0.0034247975682983748 0.017335928781741734 0.9958945688883122 -0.041892775317869516
 -0.0007060375936042275 -0.005719044411501088 0.0008241981166047283 0.009215348957829274 0.9958945688883122 -0.041892775317869516 0.0034235568154177944 0.017336036452911208
0.08753647353064001 0.003666456411312961 0.01877145899645903 0.9955754451183353 -0.04519506248437219 0.0009194001192199601 0.009929843719645729 -0.000792157099550704 -0.006165684159410699
 0.9955754451183353 -0.04519506248437219 0.00366532130354894 0.018771552675375242 -0.0007920074520820473 -0.006165686531060699 0.0009266687026041624 0.009929005522577871
 0.0009194001192199601 0.009929843719645729 -0.0007920074520820473 -0.006165686531060699 0.003666573072299015 0.01877027316122424 0.995575410856933 -0.045196226314289066
 -0.000792157099550704 -0.006165684159410699 0.0009266687026041624 0.009929005522577871 0.995575410856933 -0.045196226314289066 0.003665134335479654 0.0187703958081152
0.09378907878283 0.003919385039622389 0.020219065238715424 0.9952415893303405 -0.0485101567144683 0.0010271882727830538 0.010644038699721518 -0.000883646792562507 -0.006612907664523744
 0.9952415893303405 -0.0485101567144683 0.003918082572206435 0.020219170644205767 -0.00088347555318161 -0.006612911431365987 0.0010355376603351518 0.010643059235476808
 0.0010271882727830538 0.010644038699721518 -0.00088347555318161 -0.006612911431365987 0.0039195194040686915 0.020217792992952677 0.9952415503673366 -0.04851140303062502
 -0.000883646792562507 -0.006612907664523744 0.0010355376603351518 0.010643059235476808 0.9952415503673366 -0.04851140303062502 0.0039178680228011305 0.020217931772596263
0.100041684035 0.004183679042701867 0.02167968678115954 0.9948928402986692 -0.05183690194676432 0.0011413575496667238 0.011358574715322914 -0.0009805664637041408 -0.007060641024237059
 0.9948928402986692 -0.05183690194676432 0.004182197745058208 0.021679804656042908 -0.0009803722411537339 -0.007060646408052624 0.001150863553896633 0.01135743901522274
 0.0011413575496667238 0.011358574715322914 -0.0009803722411537339 -0.007060646408052624 0.004183832375841641 0.021678327756999474 0.9948927963446001 -0.05183823064606667
 -0.0009805664637041408 -0.007060641024237059 0.001150863553896633 0.01135743901522274 0.9948927963446001 -0.05183823064606667 0.004181953680323533 0.0216784838678099
0.1059090909091 0.0044422016282124385 0.02306202165216594 0.9945518609186875 -0.05496922197511783 0.0012543481644124515 0.012029336788573977 -0.001076506275925515 -0.007481188141765712
 0.9945518609186875 -0.05496922197511783 0.004440542083677997 0.023062151915455523 -0.0010762892305447081 -0.007481195254264994 0.0012650086227955837 0.012028040142331478
 0.0012543481644124515 0.012029336788573977 -0.0010762892305447081 -0.007481195254264994 0.0044423739140419 0.02306058083973453 0.9945518120199776 -0.05497062788309509
 -0.001076506275925515 -0.007481188141765712 0.0012650086227955837 0.012028040142331478 0.9945518120199776 -0.05497062788309509 0.004440268556082738 0.02306075434132476
0.1062942892872 0.004459533758836113 0.023153165593029736 0.99452900700003 -0.05517521500629919 0.001261965522948727 0.012073379486521646 -0.0010829750081782063 -0.007508809163807589
 0.99452900700003 -0.05517521500629919 0.004457862158845345 0.023153296693159978 -0.0010827564221623565 -0.007508816397174839 0.0012727041150681542 0.012072071771790097
 0.001261965522948727 0.012073379486521646 -0.0010827564221623565 -0.007508816397174839 0.004459707327933512 0.02315171939839145 0.994528957767798 -0.055176625979803155
 -0.0010829750081782063 -0.007508809163807589 0.0012727041150681542 0.012072071771790097 0.994528957767798 -0.055176625979803155 0.004457586636995143 0.02315189408073269
0.11254689453939999 0.004747144024328539 0.024639345120216257 0.9941498985460135 -0.05852500530660426 0.0013890688965634296 0.012788378811956486 -0.0011909303911522822 -0.00795733576018845
 0.9941498985460135 -0.05852500530660426 0.004745270646540983 0.024639490214490436 -0.0011906860722538143 -0.007957345086437874 0.0014011161992802384 0.012786882484771982
 0.0013890688965634296 0.012788378811956486 -0.0011906860722538143 -0.007957345086437874 0.0047473390985626465 0.024637811338536722 0.9941498437518728 -0.058526498439566026
 -0.0011909303911522822 -0.00795733576018845 0.0014011161992802384 0.012786882484771982 0.9941498437518728 -0.058526498439566026 0.004744961718210942 0.024638005875189294
0.11879949979160001 0.005046704138569752 0.026138069517392563 0.9937553242618031 -0.0618861755793238 0.00152272346273168 0.013503496628634357 -0.0013044896118126514 -0.008406143186243381
 0.9937553242618031 -0.0618861755793238 0.005044617502075839 0.026138229387980706 -0.0013042182014179609 -0.008406154859424772 0.0015361557424486284 0.013501794263318989
 0.00152272346273168 0.013503496628634357 -0.0013042182014179609 -0.008406154859424772 0.00504692198810411 0.026136447704590914 0.9937552636241623 -0.0618877507541947
 -0.0013044896118126514 -0.008406143186243381 0.0015361557424486284 0.013501794263318989 0.9937552636241623 -0.0618877507541947 0.005044273209758104 0.026136663421344505
0.1250521050438 0.005358407823157827 0.027649183034844562 0.9933450937594119 -0.06525862245151844 0.0016629840591853413 0.014218655059856361 -0.0014237086666030335 -0.00885515246876094
 0.9933450937594119 -0.06525862245151844 0.0053560964400718915 0.027649358477250866 -0.0014234088168952309 -0.008855166753599743 0.001677877717978184 0.01421672839398929
 0.0016629840591853413 0.014218655059856361 -0.0014234088168952309 -0.008855166753599743 0.005358649719367217 0.02764747272225512 0.9933450270001918 -0.06526027954483687
 -0.0014237086666030335 -0.00885515246876094 0.001677877717978184 0.01421672839398929 0.9933450270001918 -0.06526027954483687 0.005355714818391292 0.02764771098852695
0.131304710296 0.0056824481784275935 0.029172529530581137 0.9929190170113161 -0.06864223689938159 0.0018099045268652825 0.014933774458007847 -0.0015486425115037734 -0.009304283253459075
 0.9929190170113161 -0.06864223689938159 0.005679900551851336 0.02917272135393704 -0.001548312885417344 -0.009304300425314346 0.0018263360938245532 0.01493160438381341
 0.0018099045268652825 0.014933774458007847 -0.001548312885417344 -0.009304300425314346 0.005682715393292578 0.02917073022529693 0.9929189438551722 -0.06864397578134378
 -0.0015486425115037734 -0.009304283253459075 0.0018263360938245532 0.01493160438381341 0.9929189438551722 -0.06864397578134378 0.005679479627188741 0.029170992454805218
0.1375573155481 0.0059377142402711434 0.030506471723845685 0.9925582290878368 -0.07183536396070843 0.0019428164132707516 0.01562712256491201 -0.001658607555011715 -0.009731826044913221
 0.9925582290878368 -0.07183536396070843 0.005934917426173583 0.0305066753313556 -0.0016582460549729716 -0.009731846055447163 0.0019608249651497643 0.01562471518398676
 0.0019428164132707516 0.01562712256491201 -0.0016582460549729716 -0.009731846055447163 0.005938007377416761 0.030504583155282063 0.992558149247709 -0.07183718451078007
 -0.001658607555011715 -0.009731826044913221 0.0019608249651497643 0.01562471518398676 0.992558149247709 -0.07183718451078007 0.00593445591053823 0.030504864898246963
0.1438099208003 0.006201681121222026 0.031834451073651376 0.9921852407978702 -0.07502152760423568 0.002081104162660892 0.016318514775000577 -0.0017730027256325188 -0.010157577662872942
 0.9921852407978702 -0.07502152760423568 0.0061986233734072785 0.031834666886262165 -0.0017726078930699423 -0.010157600778399268 0.0021007596208051345 0.016315852903931984
 0.002081104162660892 0.016318514775000577 -0.0017726078930699423 -0.010157600778399268 0.006202001332008823 0.031832472744401666 0.9921851540011647 -0.07502342968725059
 -0.0017730027256325188 -0.010157577662872942 0.0021007596208051345 0.016315852903931984 0.9921851540011647 -0.07502342968725059 0.006198119404506219 0.03183277499424793
0.1500625260525 0.006474269602232314 0.03315638954314539 0.9918001342425408 -0.07820068300303493 0.002224729460841905 0.017007907885162543 -0.0018917905952647257 -0.010581495563278228
 0.9918001342425408 -0.07820068300303493 0.006470939153351114 0.03315661800925677 -0.0018913609727683636 -0.010581522060716192 0.0022461014301916548 0.017004973720962734
 0.002224729460841905 0.017007907885162543 -0.0018913609727683636 -0.010581522060716192 0.006474618030603393 0.033154320934736886 0.9918000402199286 -0.0782026664794895
 -0.0018917905952647257 -0.010581495563278228 0.0022461014301916548 0.017004973720962734 0.9918000402199286 -0.0782026664794895 0.006470390868756689 0.03315464473427225
0.15631513130469998 0.006755400054546891 0.03447221165539293 0.9914029917721413 -0.08137278485473894 0.0023736536461837258 0.017695259261587742 -0.00201493336786932 -0.011003538009871257
