! Created with skrf 1.8.0 (http://scikit-rf.org).
# GHz S RI R 50.0 
!freq ReS11 ImS11 ReS12 ImS12 ReS13 ImS13
! ReS14 ImS14
! ReS21 ImS21 ReS22 ImS22 ReS23 ImS23
! ReS24 ImS24
! ReS31 ImS31 ReS32 ImS32 ReS33 ImS33
! ReS34 ImS34
! ReS41 ImS41 ReS42 ImS42 ReS43 ImS43
! ReS44 ImS44
!
0.0 0.001446105576036 0.0 0.998553894424 0.0 5.590283506585e-05 0.0 -5.590283515462e-05 6.846122813536752e-21
 0.998553894424 0.0 0.001446105576006 0.0 -5.590283515412e-05 6.84612281347552e-21 5.590283506528e-05 0.0
 5.590283506585e-05 0.0 -5.590283515412e-05 6.84612281347552e-21 0.001446105558974 0.0 0.9985538944069 0.0
 -5.590283515462e-05 6.846122813536752e-21 5.590283506528e-05 0.0 0.9985538944069 0.0 0.001446105558973 0.0
0.005 0.0015556757052375963 0.00117786312557149 0.9984152849953754 -0.00302985995752175 7.904237231301048e-05 0.00064814733817972 -7.65361876320804e-05 -0.00040127127659625786
 0.9984152849953754 -0.00302985995752175 0.0015557033927885852 0.0011778469428464402 -7.653225982383266e-05 -0.0004012682585693434 7.888636264341462e-05 0.0006482067369822438
 7.904237231301048e-05 0.00064814733817972 -7.653225982383266e-05 -0.0004012682585693434 0.0015556780620779274 0.001177928988394968 0.9984152853451964 -0.003029792891713694
 -7.65361876320804e-05 -0.00040127127659625786 7.888636264341462e-05 0.0006482067369822438 0.9984152853451964 -0.003029792891713694 0.001555701729757795 0.0011779152067947466
0.006252605252188 0.0015843320293314335 0.0014769982591586021 0.9983788107318738 -0.0037880804720372492 8.562852921881211e-05 0.0008104870347500073 -8.233017539275377e-05 -0.000502119930072739
 0.9983788107318738 -0.0037880804720372492 0.0015843753102123262 0.0014769777155996104 -8.23240633677214e-05 -0.0005021162083543717 8.53847775423482e-05 0.0008105641364160634
 8.562852921881211e-05 0.0008104870347500073 -8.23240633677214e-05 -0.0005021162083543717 0.0015843356444531374 0.0014770805665953602 0.998378811209391 -0.0037879966554494834
 -8.233017539275377e-05 -0.000502119930072739 8.53847775423482e-05 0.0008105641364160634 0.998378811209391 -0.0037879966554494834 0.0015843726408044361 0.0014770630304531743
0.01250521050438 0.0017347164240849406 0.0029852506974884815 0.9981861535465364 -0.007577071191468172 0.00012326678124446324 0.0016212543165234703 -0.00011503497929348862 -0.001006755401546941
 0.9981861535465364 -0.007577071191468172 0.0017348892489010353 0.002985206430059701 -0.00011501089148950388 -0.0010067485126295584 0.00012229473432715895 0.0016214391792417958
 0.00012326678124446324 0.0016212543165234703 -0.00011501089148950388 -0.0010067485126295584 0.001734730285972965 0.0029854149906921386 0.9981861548776078 -0.007576903794483566
 -0.00011503497929348862 -0.001006755401546941 0.00012229473432715895 0.0016214391792417958 0.9981861548776078 -0.007576903794483566 0.0017348780073073032 0.0029853768285665466
0.01875781575657 0.0018975721482346521 0.004515243131772949 0.9979756943259698 -0.011376215987994648 0.00016890055894978838 0.0024328888335427576 -0.00015411524003511757 -0.00151314592219102
 0.9979756943259698 -0.011376215987994648 0.001897960500741168 0.004515171715702261 -0.000154061521490948 -0.001513136521301188 0.0001667169073820253 0.0024332178352981853
 0.00016890055894978838 0.0024328888335427576 -0.000154061521490948 -0.001513136521301188 0.0018976028783730982 0.004515489175302262 0.9979756968958832 -0.011375965072064934
 -0.00015411524003511757 -0.00151314592219102 0.0001667169073820253 0.0024332178352981853 0.9979756968958832 -0.011375965072064934 0.0018979348049472085 0.004515427148956278
0.02501042100875 0.0020732041326562752 0.00606483902425761 0.9977471959790589 -0.015187372135317161 0.00022261478296287465 0.003245441118443663 -0.00019966591211026833 -0.002021062520270502
 0.9977471959790589 -0.015187372135317161 0.00207389382792361 0.006064736820297479 -0.0001995710458076687 -0.002021051375173923 0.00021873598855969836 0.0032459561412495055
 0.00022261478296287465 0.003245441118443663 -0.0001995710458076687 -0.002021051375173923 0.002073258340349281 0.006065166515641787 0.9977472001726028 -0.0151870377432404
 -0.00019966591211026833 -0.002021062520270502 0.00021873598855969836 0.0032459561412495055 0.9977472001726028 -0.0151870377432404 0.0020738477976459863 0.0060650772623935595
0.03126302626094 0.002261904599359724 0.007632946431215598 0.9975004087836001 -0.019011343382659644 0.0002844952200884748 0.004058883397879554 -0.0002517793617029026 -0.0025303494873648497
 0.9975004087836001 -0.019011343382659644 0.0022629813295665956 0.007632809590920864 -0.0002516319448334948 -0.002530337479879896 0.00027843705848130024 0.004059631858234656
 0.0002844952200884748 0.004058883397879554 -0.0002516319448334948 -0.002530337479879896 0.002261988884486947 0.007633355029609946 0.9975004149859283 -0.019010925509594694
 -0.0002517793617029026 -0.0025303494873648497 0.00027843705848130024 0.004059631858234656 0.9975004149859283 -0.019010925509594694 0.0022629090828325377 0.007633235067766744
0.037515631513130004 0.002463959521251543 0.009218859139684185 0.9972350770189727 -0.02284853876150653 0.000354627508135207 0.004873157199539649 -0.00031054608363629524 -0.0030408767572373254
 0.9972350770189727 -0.02284853876150653 0.002465508885420198 0.009218683607789538 -0.00031033481538600763 -0.00304086488371401 0.0003459048595874916 0.004874192103977287
 0.000354627508135207 0.004873157199539649 -0.00031033481538600763 -0.00304086488371401 0.002464080476805046 0.009219348428622457 0.9972350856176208 -0.022848037391573792
 -0.00031054608363629524 -0.0030408767572373254 0.0003459048595874916 0.004874192103977287 0.9972350856176208 -0.022848037391573792 0.002465404538702795 0.009219194160715555
0.043768236765320004 0.0026796511215393904 0.01082205611800404 0.9969509416429416 -0.026699173069946555 0.0004330967122093532 0.005688187824167138 -0.00037605495996836556 -0.003552525426285945
 0.9969509416429416 -0.026699173069946555 0.0026817586486221744 0.01082183763359097 -0.0003757686342855362 -0.003552514797797236 0.00042122345836352756 0.005689567832652805
 0.0004330967122093532 0.005688187824167138 -0.0003757686342855362 -0.003552514797797236 0.0026798153337330923 0.010822625621768361 0.9969509530281366 -0.026698588158994195
 -0.00037605495996836556 -0.003552525426285945 0.00042122345836352756 0.005689567832652805 0.9969509530281366 -0.026698588158994195 0.002681616315275872 0.010822433336919565
0.050020842017509996 0.0029092590367884668 0.01244211865863843 0.9966477416367634 -0.030563349662544086 0.0005199870643710129 0.006503890321623085 -0.0004483933597167952 -0.0040651817731985505
 0.9966477416367634 -0.030563349662544086 0.002912010205551277 0.01244185275556234 -0.00044802086062713475 -0.004065173615625338 0.0005044760410648454 0.00650567981416844
 0.0005199870643710129 0.006503890321623085 -0.00044802086062713475 -0.004065173615625338 0.002909473085356607 0.012442767824403431 0.9966477562020988 -0.030562681155151573
 -0.0004483933597167952 -0.0040651817731985505 0.0005044760410648454 0.00650567981416844 0.9966477562020988 -0.030562681155151573 0.0029118239953259753 0.012442533699984317
0.055454545454549996 0.0031203127059905304 0.013863420592178802 0.9963685652104296 -0.03393246078140955 0.0006024010740418771 0.00721323464820199 -0.0005168707702867849 -0.004511427425321652
 0.9963685652104296 -0.03393246078140955 0.0031236926125428536 0.013863109694302963 -0.0005164144239594433 -0.004511422499802717 0.0005833322595259665 0.007215436772956342
 0.0006024010740418771 0.00721323464820199 -0.0005164144239594433 -0.004511422499802717 0.003120575401356258 0.013864138483518522 0.996368582861486 -0.03393171956600253
 -0.0005168707702867849 -0.004511427425321652 0.0005833322595259665 0.007215436772956342 0.996368582861486 -0.03393171956600253 0.003123463484079126 0.013863864808960855
0.056273447269699996 0.0031530609202650595 0.014078689707536382 0.9963252147938715 -0.03444110105423449 0.0006153817823466708 0.00732017243080171 -0.0005276471693348805 -0.004578734317718697
 0.9963252147938715 -0.03444110105423449 0.0031565411771121406 0.014078371714293282 -0.0005271774678122132 -0.004578729971778129 0.0005957447664376164 0.007322441575580244
 0.0006153817823466708 0.00732017243080171 -0.0005271774678122132 -0.004578729971778129 0.0031533313772563673 0.014079417910871585 0.9963252329362465 -0.034440348877327116
 -0.0005276471693348805 -0.004578734317718697 0.0005957447664376164 0.007322441575580244 0.9963252329362465 -0.034440348877327116 0.003156305194382609 0.014079138013763441
0.06252605252188 0.003411332768040983 0.01573145148699525 0.9959830982359474 -0.038332411232615514 0.0007193629323855339 0.008136936184573298 -0.0006139007836076717 -0.00509307221753766
 0.9959830982359474 -0.038332411232615514 0.0034156275438703173 0.015731076526066205 -0.0006133229353954712 -0.005093073138790808 0.000695110650674141 0.008139761006649118
 0.0007193629323855339 0.008136936184573298 -0.0006133229353954712 -0.005093073138790808 0.0034116661986060568 0.015732258033414968 0.9959831203567774 -0.038331575292974616
 -0.0006139007836076717 -0.00509307221753766 0.000695110650674141 0.008139761006649118 0.9959831203567774 -0.038331575292974616 0.0034153358883701385 0.015731928320755786
0.06877865777407 0.003684349096166597 0.017400112181758683 0.9956211287820752 -0.04223722890947772 0.0008320113120389872 0.008954078873631154 -0.000707237078207544 -0.0056080843095581995
 0.9956211287820752 -0.04223722890947772 0.003689543822557336 0.017399675168557602 -0.0007065402223476328 -0.0056080920684023405 0.0008026534661023951 0.008957541323877265
 0.0008320113120389872 0.008954078873631154 -0.0007065402223476328 -0.0056080920684023405 0.003684752057081348 0.01740099629691142 0.9956211552869582 -0.04223630910274945
 -0.000707237078207544 -0.0056080843095581995 0.0008026534661023951 0.008957541323877265 0.9956211552869582 -0.04223630910274945 0.003689190587739774 0.017400612616389994
0.07503126302626001 0.003972383028717522 0.019084397472633383 0.995239043232799 -0.04615547592820892 0.0009534063478383381 0.009771493659868144 -0.0008077373681001551 -0.006123658505138826
 0.995239043232799 -0.04615547592820892 0.003978563153561615 0.01908389311387205 -0.0008069107259255257 -0.006123674786761922 0.0009184516503707253 0.009775681683757812
 0.0009534063478383381 0.009771493659868144 -0.0008069107259255257 -0.006123674786761922 0.0039728620688470676 0.019085358305702065 0.9952390745335233 -0.046154472134590216
 -0.0008077373681001551 -0.006123658505138826 0.0009184516503707253 0.009775681683757812 0.9952390745335233 -0.046154472134590216 0.003978142427291543 0.019084916395450544
0.08128386827845 0.004275706330525844 0.02078404491762564 0.9948365786023063 -0.050087052826861454 0.0010836260009112373 0.010589069981502336 -0.0009154813577267524 -0.006639681397191074
 0.9948365786023063 -0.050087052826861454 0.004282957333414803 0.020783467709313674 -0.0009145142321725731 -0.006639708001545752 0.001042582221298961 0.010594077587534508
 0.0010836260009112373 0.010589069981502336 -0.0009145142321725731 -0.006639708001545752 0.004276267989172542 0.0207850815401781 0.9948366151160093 -0.050085964911416564
 -0.0009154813577267524 -0.006639681397191074 0.001042582221298961 0.010594077587534508 0.9948366151160093 -0.050085964911416564 0.004282463196766546 0.020784577028164317
0.08753647353064001 0.004594589402823629 0.022498800058564843 0.9944134723165312 -0.054031842679839626 0.0012227466770176017 0.011406693844085219 -0.0010305470862962934 -0.007156037985167625
 0.9944134723165312 -0.054031842679839626 0.004602996810667112 0.022498144283437955 -0.001029428861562499 -0.007156076826905641 0.0011751206942524769 0.011412621171722412
 0.0012227466770176017 0.011406693844085219 -0.001029428861562499 -0.007156076826905641 0.004595240209214927 0.0224999114658388 0.994413514466387 -0.05403067049028814
 -0.0010305470862962934 -0.007156037985167625 0.0011751206942524769 0.011412621171722412 0.994413514466387 -0.05403067049028814 0.004602423337541301 0.02249933986872337
0.09378907878283 0.004929301253394294 0.024228413648827263 0.9939694623881798 -0.05798971382207532 0.0013708431416883512 0.012224248025141857 -0.0011530108674631379 -0.007672611490271303
 0.9939694623881798 -0.05798971382207532 0.004938950655354358 0.02422767337336863 -0.0011517310088079646 -0.007672664598680387 0.0013161410032590868 0.012231201412171842
 0.0013708431416883512 0.012224248025141857 -0.0011517310088079646 -0.007672664598680387 0.004930047726069555 0.02422959875502464 0.9939695106044747 -0.057988457192811885
 -0.0011530108674631379 -0.007672611490271303 0.0013161410032590868 0.012231201412171842 0.9939695106044747 -0.057988457192811885 0.00493829191264223 0.02422895547671165
0.100041684035 0.005280109448541327 0.025972639608385997 0.9935042875776048 -0.06196052185061137 0.0015279884361140675 0.013041612235294639 -0.0012829472271796778 -0.008189283218200796
 0.9935042875776048 -0.06196052185061137 0.005291086511750723 0.025971808679259984 -0.0012814952809717666 -0.00818935273711495 0.0014657154224458518 0.01304970428436533
 0.0015279884361140675 0.013041612235294639 -0.0012814952809717666 -0.00818935273711495 0.005280958094341625 0.025973897247249984 0.9935043422978683 -0.06195918060127347
 -0.0012829472271796778 -0.008189283218200796 0.0014657154224458518 0.01304970428436533 0.9935043422978683 -0.06195918060127347 0.005290336558513647 0.025973177576718146
0.1059090909091 0.005624182207587145 0.027622482701079587 0.9930482892057725 -0.06569833147267733 0.0016837459187188973 0.013808339336323054 -0.0014117397081138997 -0.008674106677238022
 0.9930482892057725 -0.06569833147267733 0.005636483135947375 0.027621560907354795 -0.0014101168408742766 -0.008674193647419228 0.0016139178765046344 0.013817607948322328
 0.0016837459187188973 0.013808339336323054 -0.0014101168408742766 -0.008674193647419228 0.00562513263882165 0.02762380727103226 0.9930483504344162 -0.06569691063928021
 -0.0014117397081138997 -0.008674106677238022 0.0016139178765046344 0.013817607948322328 0.9930483504344162 -0.06569691063928021 0.005635642181227992 0.027623011525280558
0.1062942892872 0.0056472800513464524 0.02773123349681821 0.9930176875417587 -0.06594411111218247 0.0016942537962891088 0.013858663235348937 -0.001420428838050195 -0.0087059324700314
 0.9930176875417587 -0.06594411111218247 0.0056596705359474005 0.027730305536815065 -0.001418794431877362 -0.008706020657735456 0.0016239144892223557 0.013868012879790009
 0.0016942537962891088 0.013858663235348937 -0.001418794431877362 -0.008706020657735456 0.005648237364650337 0.02773256242116689 0.9930177492116546 -0.0659426850473667
 -0.001420428838050195 -0.0087059324700314 0.0016239144892223557 0.013868012879790009 0.9930177492116546 -0.0659426850473667 0.005658823423516233 0.027731761529929073
0.11254689453939999 0.00603107755012445 0.029503951342734366 0.9925094029771157 -0.06994031583915677 0.001869708571889269 0.014675274941338102 -0.001565526452659267 -0.009222436469311602
 0.9925094029771157 -0.06994031583915677 0.006044967324562959 0.029502919746262322 -0.0015636992956008645 -0.009222545698427662 0.0017908069276848498 0.014686007509970811
 0.001869708571889269 0.014675274941338102 -0.0015636992956008645 -0.009222545698427662 0.006032150011583471 0.029505350222714045 0.9925094720504436 -0.06993880474944723
 -0.001565526452659267 -0.009222436469311602 0.0017908069276848498 0.014686007509970811 0.9925094720504436 -0.06993880474944723 0.00604401709596093 0.02950446316170955
0.11879949979160001 0.0064317647780009 0.03129054872728499 0.9919791757558446 -0.07394896103621716 0.0020544201468097037 0.015491318503470882 -0.0017183088349226878 -0.009738670319521112
 0.9919791757558446 -0.07394896103621716 0.006447239834841349 0.031289406655147456 -0.0017162787179115146 -0.009738803076877718 0.0019664595725917486 0.015503565784533465
 0.0020544201468097037 0.015491318503470882 -0.0017162787179115146 -0.009738803076877718 0.006432958853936352 0.03129201615088784 0.9919792526954975 -0.07394736469693414
 -0.0017183088349226878 -0.009738670319521112 0.0019664595725917486 0.015503565784533465 0.9919792526954975 -0.07394736469693414 0.006446180524824637 0.03129103784677726
0.1250521050438 0.006849602826699485 0.03309078007153903 0.9914267490581686 -0.07796986316779453 0.002248453860004042 0.01630666237997365 -0.001878842690387911 -0.010254506971098098
 0.9914267490581686 -0.07796986316779453 0.006866749297711343 0.03308952044528908 -0.0018765994866415069 -0.01025466585758822 0.0021509372936937103 0.016320562683920504
 0.002248453860004042 0.01630666237997365 -0.0018765994866415069 -0.01025466585758822 0.006850924967807102 0.033092314541815625 0.9914268343369469 -0.0779681813411975
 -0.001878842690387911 -0.010254506971098098 0.0021509372936937103 0.016320562683920504 0.9914268343369469 -0.0779681813411975 0.0068655749324105 0.03309123979278506
0.131304710296 0.007284850954918851 0.03490439805385459 0.9908518675032899 -0.0820028307207947 0.0024518729269306875 0.017121172398416793 -0.0020471925954759513 -0.010769817205379334
 0.9908518675032899 -0.0820028307207947 0.00730375512698456 0.034903013549518525 -0.0020447262610539625 -0.010770004935768785 0.002344302920131789 0.0171368706196182
 0.0024518729269306875 0.017121172398416793 -0.0020447262610539625 -0.010770004935768785 0.007286307595268458 0.0349059979915252 0.9908519616038302 -0.0820010631527263
 -0.0020471925954759513 -0.010769817205379334 0.002344302920131789 0.0171368706196182 0.9908519616038302 -0.0820010631527263 0.007302459723530855 0.03490482146242123
0.1375573155481 0.007635610625257335 0.03649315330043323 0.9903564664160424 -0.08580958180361681 0.002638967871758087 0.01791033930035139 -0.002197780229266355 -0.011260023443933318
 0.9903564664160424 -0.08580958180361681 0.007656364467076202 0.036491665902971294 -0.002195075931013774 -0.011260240106562453 0.0025210949725178386 0.017927807651085908
 0.002638967871758087 0.01791033930035139 -0.002195075931013774 -0.011260240106562453 0.007637207744355844 0.036494817118547365 0.9903565697433209 -0.08580772835344119
 -0.002197780229266355 -0.011260023443933318 0.0025210949725178386 0.017927807651085908 0.9903565697433209 -0.08580772835344119 0.007654942632728225 0.03649356298002421
0.1438099208003 0.007998616125131659 0.0380738652392935 0.9898437890116059 -0.08960703816140896 0.0028336500386014606 0.01869653377776764 -0.002354412274951998 -0.011747566893067104
 0.9898437890116059 -0.08960703816140896 0.00802130699185234 0.038072269451109204 -0.002351459225112379 -0.011747815143793083 0.0027050210989032993 0.01871590426450851
 0.0028336500386014606 0.01869653377776764 -0.002351459225112379 -0.011747815143793083 0.008000360052635158 0.03807559129439211 0.9898439020470113 -0.08960509858419288
 -0.002354412274951998 -0.011747566893067104 0.0027050210989032993 0.01871590426450851 0.9898439020470113 -0.08960509858419288 0.00801975283720991 0.038074256114822846
0.1500625260525 0.00837374404004979 0.03964641218150921 0.989313962436632 -0.09339511628082017 0.0030358565442226058 0.01947968215136613 -0.002517028717519303 -0.01223237943308037
 0.989313962436632 -0.09339511628082017 0.00839845946677937 0.039644702187453314 -0.002513816149974627 -0.012232662034063405 0.002896020925057226 0.01950109158658888
 0.0030358565442226058 0.01947968215136613 -0.002513816149974627 -0.012232662034063405 0.0083756410846833 0.03964819876574084 0.9893140856699703 -0.09339309032022944
 -0.002517028717519303 -0.01223237943308037 0.002896020925057226 0.01950109158658888 0.9893140856699703 -0.09339309032022944 0.008396767100452559 0.03964677888047147
0.15631513130469998 0.008760870130734436 0.04121067617381609 0.9887671144264758 -0.09717373272652502 0.003245523795179258 0.02025971190302055 -0.0026855688332191987 -0.012714394341274086
 0.9887671144264758 -0.09717373272652502 0.008787697838291234 0.04120884583370689 -0.0026820860037832283 -0.01271471416055826 0.0030940334023871166 0.020283301857185635
