! Created with skrf 1.8.0 (http://scikit-rf.org).
# GHz S RI R 50.0 
!freq ReS11 ImS11 ReS12 ImS12 ReS13 ImS13
! ReS14 ImS14
! ReS21 ImS21 ReS22 ImS22 ReS23 ImS23
! ReS24 ImS24
! ReS31 ImS31 ReS32 ImS32 ReS33 ImS33
! ReS34 ImS34
! ReS41 ImS41 ReS42 ImS42 ReS43 ImS43
! ReS44 ImS44
!
0.0 0.001818120316854 0.0 0.9981818796668 0.0 7.078158773568e-05 0.0 -7.078158838111e-05 8.668244564949184e-21
 0.9981818796668 0.0 0.001818120316836 0.0 -7.07815883813e-05 8.668244564972453e-21 7.078158773887e-05 0.0
 7.078158773568e-05 0.0 -7.07815883813e-05 8.668244564972453e-21 0.0018181203094 0.0 0.9981818796594 0.0
 -7.078158838111e-05 8.668244564949184e-21 7.078158773887e-05 0.0 0.9981818796594 0.0 0.001818120309382 0.0
0.005 0.0019571326083531225 0.0014828925927944637 0.9980058542039112 -0.0038076624276836735 0.00010021273527083977 0.0008018888445220314 -9.718334201412623e-05 -0.0004992969319420382
 0.9980058542039112 -0.0038076624276836735 0.001957114903507264 0.001482902898214143 -9.718135392245854e-05 -0.0004992953598010774 0.00010033033195973113 0.0008018440108751463
 0.00010021273527083977 0.0008018888445220314 -9.718135392245854e-05 -0.0004992953598010774 0.001957133484829698 0.0014828247516587023 0.9980058538239247 -0.0038077294958950353
 -9.718334201412623e-05 -0.0004992969319420382 0.00010033033195973113 0.0008018440108751463 0.9980058538239247 -0.0038077294958950353 0.0019571132806351114 0.0014828366166905655
0.006252605252188 0.0019938747473314585 0.0018594265675136027 0.9979589950270883 -0.004760465658354516 0.00010875889297502958 0.0010027219988994682 -0.00010477281684343354 -0.0006247542411476555
 0.9979589950270883 -0.004760465658354516 0.0019938470718398565 0.0018594396631803924 -0.00010476972361593533 -0.000624752302438425 0.00010894262449061943 0.0010026637370563521
 0.00010875889297502958 0.0010027219988994682 -0.00010476972361593533 -0.000624752302438425 0.0019938761857248403 0.0018593417733900267 0.9979589945006062 -0.004760549486472001
 -0.00010477281684343354 -0.0006247542411476555 0.00010894262449061943 0.0010026637370563521 0.9979589945006062 -0.004760549486472001 0.0019938446022220216 0.0018593568313762694
0.01250521050438 0.002188942202557277 0.003757513885046683 0.9977083891042161 -0.009521417788228867 0.00015849785265670095 0.0020056128118253916 -0.00014855997192580285 -0.0012523655239864804
 0.9977083891042161 -0.009521417788228867 0.0021888316969913943 0.003757542223985813 -0.0001485477868087544 -0.0012523619400048275 0.000159230483455263 0.002005472072590639
 0.00015849785265670095 0.0020056128118253916 -0.0001485477868087544 -0.0012523619400048275 0.002188948522578621 0.003757344553874635 0.9977083875645671 -0.009521585218750099
 -0.00014855997192580285 -0.0012523655239864804 0.000159230483455263 0.002005472072590639 0.9977083875645671 -0.009521585218750099 0.002188822397209969 0.003757376972710801
0.01875781575657 0.002403806212119573 0.005682218996871349 0.9974297096990157 -0.014294376910047979 0.00022012334873177864 0.0030093233124816174 -0.00020229016305437384 -0.0018818544489514798
 0.9974297096990157 -0.014294376910047979 0.002403557904201847 0.005682264858038911 -0.0002022629974250813 -0.0018818495770173598 0.00022176900140450666 0.0030090705254751876
 0.00022012334873177864 0.0030093233124816174 -0.0002022629974250813 -0.0018818495770173598 0.002403820861245699 0.005681965263002706 0.9974297066569358 -0.01429462790802261
 -0.00020229016305437384 -0.0018818544489514798 0.00022176900140450666 0.0030090705254751876 0.9974297066569358 -0.01429462790802261 0.0024035374261157354 0.005682017558933696
0.02501042100875 0.002638932375625211 0.007630764805238492 0.9971225892918674 -0.01908158044959742 0.00029376090117495845 0.004013853765785726 -0.0002661042279518635 -0.002512882562291475
 0.9971225892918674 -0.01908158044959742 0.0026384914004758345 0.007630830579806187 -0.00026605626681230714 -0.00251287682951714 0.0002966837244138519 0.004013454159158087
 0.00029376090117495845 0.004013853765785726 -0.00026605626681230714 -0.00251287682951714 0.0026389588110118946 0.007630426798690889 0.9971225842524548 -0.019081915054031517
 -0.0002661042279518635 -0.002512882562291475 0.0002966837244138519 0.004013454159158087 0.9971225842524548 -0.019081915054031517 0.0026384554038688004 0.007630501679425772
0.03126302626094 0.0028947668026830017 0.009601683541494838 0.9967866439598381 -0.023883939256696456 0.0003795355011357813 0.005019108099178366 -0.0003401379568463486 -0.0031451982506142417
 0.9967866439598381 -0.023883939256696456 0.0028940783673909827 0.009601771728817793 -0.0003400634466512903 -0.0031451921545166484 0.00038409998461529576 0.0050185216682504565
 0.0003795355011357813 0.005019108099178366 -0.0003400634466512903 -0.0031451921545166484 0.002894808496623175 0.009601261417806638 0.9967866364239492 -0.023884357550683688
 -0.0003401379568463486 -0.0031451982506142417 0.00038409998461529576 0.0050185216682504565 0.9967866364239492 -0.023884357550683688 0.002894022522872743 0.009601361779079541
0.037515631513130004 0.003171745068761596 0.011593988947084658 0.9964214827690916 -0.02870186537384178 0.0004775704078089192 0.006024951512828129 -0.00042452308113565906 -0.0037785791920430713
 0.9964214827690916 -0.02870186537384178 0.0031707544277296083 0.011594102152805031 -0.0004244163236842093 -0.003778573300683062 0.0004841415100458274 0.006024132969551922
 0.0004775704078089192 0.006024951512828129 -0.0004244163236842093 -0.003778573300683062 0.003171805506346569 0.011593482889191212 0.9964214722272765 -0.028702367482584173
 -0.00042452308113565906 -0.0037785791920430713 0.0004841415100458274 0.006024132969551922 0.9964214722272765 -0.028702367482584173 0.003170674413035691 0.011593611813685055
0.043768236765320004 0.0034702956447007897 0.013606924371382634 0.9960267116388167 -0.03353552387747235 0.0005879865611479677 0.0070312280107183555 -0.0005193875928619405 -0.004412814880058802
 0.9960267116388167 -0.03353552387747235 0.0034689480786547584 0.013607065306345019 -0.0005192429417101071 -0.004412809832008252 0.0005969297569705725 0.007030126727331676
 0.0005879865611479677 0.0070312280107183555 -0.0005192429417101071 -0.004412809832008252 0.0034703783300102215 0.013606334585810207 0.9960266975738732 -0.03353610997164113
 -0.0005193875928619405 -0.004412814880058802 0.0005969297569705725 0.007030126727331676 0.9960266975738732 -0.03353610997164113 0.003468839584490633 0.013606495343360003
0.050020842017509996 0.0037908414671438775 0.015639858667746347 0.9956019353489263 -0.038384936921478374 0.0007109022021128326 0.008037767666823816 -0.0006248558362096609 -0.0050476994159265815
 0.9956019353489263 -0.038384936921478374 0.003789082263709907 0.015640030147905763 -0.0006246676943907241 -0.005047695920200456 0.0007225834871026749 0.00803632761745209
 0.0007109022021128326 0.008037767666823816 -0.0006246676943907241 -0.005047695920200456 0.003790949922583786 0.01563918538906766 0.9956019172324034 -0.038385607212409634
 -0.0006248558362096609 -0.0050476994159265815 0.0007225834871026749 0.00803632761745209 0.9956019172324034 -0.038385607212409634 0.0037889409932839817 0.015639381437703943
0.055454545454549996 0.0040875932186302455 0.01742234801052788 0.9952081171161712 -0.042611965995319766 0.0008279603263564732 0.00891255504668833 -0.0007252162819376567 -0.005599801213071252
 0.9952081171161712 -0.042611965995319766 0.004085431848738074 0.017422548404211705 -0.0007249858373621683 -0.005599799696809153 0.0008423187154104789 0.008910770862616782
 0.0008279603263564732 0.00891255504668833 -0.0007249858373621683 -0.005599799696809153 0.004087726945795639 0.017421602392969044 0.995208095040092 -0.04261270965171044
 -0.0007252162819376567 -0.005599801213071252 0.0008423187154104789 0.008910770862616782 0.995208095040092 -0.04261270965171044 0.0040852586165440186 0.017421832066418178
0.056273447269699996 0.004133800710394417 0.017692235101622267 0.9951467587550921 -0.04325003477450852 0.000846432590117193 0.009044390198072459 -0.0007410484912447502 -0.005683028001489009
 0.9951467587550921 -0.04325003477450852 0.004131575146335445 0.017692440048450088 -0.0007408113098661197 -0.00568302683745274 0.0008612184589103127 0.009042549899620188
 0.000846432590117193 0.009044390198072459 -0.0007408113098661197 -0.00568302683745274 0.004133938478998409 0.01769147860125415 0.9951467360461179 -0.04325078950484676
 -0.0007410484912447502 -0.005683028001489009 0.0008612184589103127 0.009042549899620188 0.9951467360461179 -0.04325078950484676 0.004131396817435409 0.017691713588918634
0.06252605252188 0.0044995871700601745 0.01976354328806424 0.9946607876205404 -0.04813068383601419 0.000994689765521567 0.010050906950594832 -0.0008680825062554961 -0.006318595027289449
 0.9946607876205404 -0.04813068383601419 0.004496840493590682 0.019763784729700168 -0.0008677907835275789 -0.0063185970445572715 0.0010129471728530775 0.01004859940369342
 0.000994689765521567 0.010050906950594832 -0.0008677907835275789 -0.0063185970445572715 0.00449975781727577 0.01976270385759952 0.994660759764649 -0.04813152329579239
 -0.0008680825062554961 -0.006318595027289449 0.0010129471728530775 0.01004859940369342 0.994660759764649 -0.04813152329579239 0.0044966208409476915 0.01976298162452566
0.06877865777407 0.00488861043269664 0.021853302449639487 0.9941436292398739 -0.053026703341545696 0.0011557823395591282 0.011057122099054609 -0.0010060709986011015 -0.00695419295709307
 0.9941436292398739 -0.053026703341545696 0.004885287846413528 0.02185358352266555 -0.001005719279226362 -0.0069541990754123885 0.0011778786485556103 0.011054274729573123
 0.0011557823395591282 0.011057122099054609 -0.001005719279226362 -0.0069541990754123885 0.004888817547165197 0.02185238041955315 0.9941435956664236 -0.05302762784877151
 -0.0010060709986011015 -0.00695419295709307 0.0011778786485556103 0.011054274729573123 0.9941435956664236 -0.05302762784877151 0.004885022623105241 0.021852705001306254
0.07503126302626001 0.005301275916109448 0.02396105083505965 0.9935948929376498 -0.05793787591823199 0.001329815298528072 0.012062833427510149 -0.001155123138130373 -0.007589611640987656
 0.9935948929376498 -0.05793787591823199 0.005297322559627066 0.0239613747869677 -0.0011547060129527321 -0.007589622850119055 0.0013561182196015502 0.012059368028813145
 0.001329815298528072 0.012062833427510149 -0.0011547060129527321 -0.007589622850119055 0.005301523111791153 0.02396004655803744 0.9935948530590627 -0.057938885834759035
 -0.001155123138130373 -0.007589611640987656 0.0013561182196015502 0.012059368028813145 0.9935948530590627 -0.057938885834759035 0.00529700753984498 0.023960422189301497
0.08128386827845 0.005737984831097111 0.02608633866679981 0.9930141904947786 -0.06286395462277697 0.0015168898191910167 0.013067832867968962 -0.0013153440173209396 -0.008224637881398867
 0.9930141904947786 -0.06286395462277697 0.00573334576435111 0.02608670885909521 -0.0013148561231627433 -0.008224655240983864 0.0015477673413853467 0.013063665544171287
 0.0015168898191910167 0.013067832867968962 -0.0013148561231627433 -0.008224655240983864 0.00573827574873317 0.026085252526483468 0.9930141437046851 -0.06286505034472244
 -0.0013153440173209396 -0.008224637881398867 0.0015477673413853467 0.013063665544171287 0.9930141437046851 -0.06286505034472244 0.00573297674548374 0.026085683645402598
0.08753647353064001 0.006199134088597347 0.02822872329733013 0.9924011365240448 -0.06780466778292493 0.0017171030894558485 0.014071906893275305 -0.0014868345145824778 -0.008859055155496506
 0.9924011365240448 -0.06780466778292493 0.006193754274730923 0.028229143209343034 -0.0014862705342311145 -0.008859079794922871 0.0017529234057392991 0.014066948003732769
 0.0017171030894558485 0.014071906893275305 -0.0014862705342311145 -0.008859079794922871 0.006199472397203722 0.028227555705470104 0.9924010821957814 -0.06780584974248421
 -0.0014868345145824778 -0.008859055155496506 0.0017529234057392991 0.014066948003732769 0.9924010821957814 -0.06780584974248421 0.006193327079550762 0.028228046958790123
0.09378907878283 0.006685116170240949 0.030387765751215413 0.9917553488142867 -0.07275972246593013 0.0019305481345357222 0.015074836819655277 -0.0016696911513608454 -0.009492643439292382
 0.9917553488142867 -0.07275972246593013 0.006678940458561054 0.030388238984636263 -0.0016690458136170516 -0.009492676557543893 0.0019716795617026046 0.015068990924650982
 0.0019305481345357222 0.015074836819655277 -0.0016690458136170516 -0.009492676557543893 0.006685505568734868 0.030386517143189306 0.9917552862992252 -0.07276099113472964
 -0.0016696911513608454 -0.009492643439292382 0.0019716795617026046 0.015068990924650982 0.9917552862992252 -0.07276099113472964 0.0066784509380333435 0.030387073392034256
0.100041684035 0.007196318972822058 0.0325630281999908 0.9910764486514847 -0.07772880702704581 0.0021573136460715753 0.016076399050208853 -0.0018640059456895336 -0.010125179102037115
 0.9910764486514847 -0.07772880702704581 0.007189292081794131 0.03256355848418699 -0.0018632740256023898 -0.010125221967539524 0.0022041245402133463 0.016069564858188598
 0.0021573136460715753 0.016076399050208853 -0.0018632740256023898 -0.010125221967539524 0.00719676319133656 0.03256169904129116 0.9910763772773228 -0.07773016290852636
 -0.0018640059456895336 -0.010125179102037115 0.0022041245402133463 0.016069564858188598 0.9910763772773228 -0.07773016290852636 0.007188736116918335 0.032562325367737
0.1059090909091 0.007699307910458798 0.034618642554147504 0.9904089234238255 -0.08240423350763333 0.0023822989006244267 0.017014811759767913 -0.0020568487262291177 -0.010717586962428931
 0.9904089234238255 -0.08240423350763333 0.007691431868165268 0.03461922988523633 -0.002056030847095742 -0.010717640190026627 0.0024347743450615898 0.017006952774397552
 0.0023822989006244267 0.017014811759767913 -0.002056030847095742 -0.010717640190026627 0.007699806993377493 0.03461723824972505 0.9904088431022328 -0.08240567172166144
 -0.0020568487262291177 -0.010717586962428931 0.0024347743450615898 0.017006952774397552 0.9904088431022328 -0.08240567172166144 0.0076908098354563845 0.03461793516181753
0.1062942892872 0.007733125631433874 0.03475407208749807 0.9903640611228773 -0.0827115930212909 0.0023974838140756894 0.017076365280156835 -0.002069866263346661 -0.01075643485052926
 0.9903640611228773 -0.0827115930212909 0.007725192131310689 0.03475466328548452 -0.002069042582366435 -0.010756488800979692 0.002450342481874907 0.017068435596421145
 0.0023974838140756894 0.017076365280156835 -0.002069042582366435 -0.010756488800979692 0.007733628432925172 0.034752662865435206 0.9903639801918941 -0.08271303665768401
 -0.002069866263346661 -0.01075643485052926 0.002450342481874907 0.017068435596421145 0.9903639801918941 -0.08271303665768401 0.0077245656360521294 0.03475336457975482
0.11254689453939999 0.008295914330514954 0.036960456703526726 0.9896178154119163 -0.08770773668069692 0.0026511381611885364 0.018074502676596153 -0.002287354666882664 -0.011386179710787196
 0.9896178154119163 -0.08770773668069692 0.008287018626282842 0.03696111281883763 -0.0022864340932345286 -0.011386246152988047 0.0027104127677652504 0.018065364353667263
 0.0026511381611885364 0.018074502676596153 -0.0022864340932345286 -0.011386246152988047 0.008296479512178689 0.03695896793055665 0.989617724199475 -0.08770926864827011
 -0.002287354666882664 -0.011386179710787196 0.0027104127677652504 0.018065364353667263 0.989617724199475 -0.08770926864827011 0.008286317550003811 0.03695975057929128
0.11879949979160001 0.008885058100906021 0.039181738088968215 0.9888373450822062 -0.09271688007412317 0.002918351379105708 0.019070574042390695 -0.002516548764045865 -0.012014179037357872
 0.9888373450822062 -0.09271688007412317 0.00887514441508623 0.03918246327319068 -0.0025155262130741943 -0.012014259447028153 0.002984409852385572 0.019060107932118445
 0.002918351379105708 0.019070574042390695 -0.0025155262130741943 -0.012014259447028153 0.008885689495765488 0.03918017030116242 0.9888372428349197 -0.09271850098316169
 -0.002516548764045865 -0.012014179037357872 0.002984409852385572 0.019060107932118445 0.9888372428349197 -0.09271850098316169 0.008874364745129988 0.03918103967593917
0.1250521050438 0.00950092460983853 0.04141746819096571 0.9880222883563201 -0.0977386520316153 0.003199193166654112 0.020064337969598223 -0.002757521055756464 -0.012640194545377011
 0.9880222883563201 -0.0977386520316153 0.009489936965283087 0.04141826675213491 -0.0027563914903424853 -0.012640290466919642 0.0032724030987675867 0.020052418877075623
 0.003199193166654112 0.020064337969598223 -0.0027563914903424853 -0.012640290466919642 0.009501626088333787 0.04141582194640943 0.9880221742904123 -0.09774036252630944
 -0.002757521055756464 -0.012640194545377011 0.0032724030987675867 0.020052418877075623 0.9880221742904123 -0.09774036252630944 0.009489074729517656 0.041416784093614954
0.131304710296 0.010143875943703655 0.043667194196353926 0.9871722883895415 -0.10277266890500276 0.0034937280702532734 0.0210555489860339 -0.0030103387841529045 -0.013263984361534859
 0.9871722883895415 -0.10277266890500276 0.010131758146223255 0.04366807060828789 -0.0030090972150589885 -0.013264097407879065 0.003574456615950098 0.021042045625437805
 0.0034937280702532734 0.0210555489860339 -0.0030090972150589885 -0.013264097407879065 0.010144651414894266 0.04366547007270875 0.9871721616891964 -0.10277446966430452
 -0.0030103387841529045 -0.013263984361534859 0.003574456615950098 0.021042045625437805 0.9871721616891964 -0.10277446966430452 0.01013080941569159 0.04366653130393196
0.1375573155481 0.01067670966359255 0.0456371793713092 0.9864246285551647 -0.10752505374497487 0.0037673634792948444 0.02201563103633844 -0.0032403280119463907 -0.013857075810994931
 0.9864246285551647 -0.10752505374497487 0.010663400448202352 0.045638118337415955 -0.0032389668503767666 -0.013857206301403845 0.0038557945680016917 0.02200055027031819
 0.0037673634792948444 0.02201563103633844 -0.0032389668503767666 -0.013857206301403845 0.010677561979001207 0.04563537806703005 0.9864244886079275 -0.10752694519897522
 -0.0032403280119463907 -0.013857075810994931 0.0038557945680016917 0.02200055027031819 0.9864244886079275 -0.10752694519897522 0.010662361998611616 0.04563652431942049
0.1438099208003 0.011228556328698049 0.047594900314694884 0.9856501230756994 -0.11226348752389555 0.004051971793520378 0.022970730138122838 -0.0034794334248896344 -0.01444553856467528
 0.9856501230756994 -0.11226348752389555 0.011213998449642423 0.04759590526990637 -0.0034779472833311007 -0.014445688109424985 0.004148438957676558 0.02295395067105785
 0.004051971793520378 0.022970730138122838 -0.0034779472833311007 -0.014445688109424985 0.011229489264364135 0.04759302248707567 0.985649969061521 -0.11226547033889962
 -0.0034794334248896344 -0.01444553856467528 0.004148438957676558 0.02295395067105785 0.985649969061521 -0.11226547033889962 0.011212866539769984 0.04759425902060052
0.1500625260525 0.011799191696676386 0.0495401378044175 0.9848490016129066 -0.11698779578573064 0.004347434666037016 0.023920713696904627 -0.003727538531969694 -0.015029246536245187
 0.9848490016129066 -0.11698779578573064 0.011783327679590271 0.04954121244131236 -0.003725922037914084 -0.015029416810673345 0.004452268923337055 0.023902109812568746
 0.004347434666037016 0.023920713696904627 -0.003725922037914084 -0.015029416810673345 0.011800209054429765 0.04953818413287771 0.9848488326837169 -0.11698987065259939
 -0.003727538531969694 -0.015029246536245187 0.004452268923337055 0.023902109812568746 0.9848488326837169 -0.11698987065259939 0.011782098617603081 0.049539516538085915
0.15631513130469998 0.012388389567701585 0.05147267917820358 0.9840214954056018 -0.12169780601480179 0.0046536321412912335 0.024865451850294158 -0.003984525210653956 -0.015608076708764204
 0.9840214954056018 -0.12169780601480179 0.01237116170369371 0.05147382745778312 -0.003982773006887774 -0.015608269453052754 0.004767161949418495 0.02484489346703738
