! Created with skrf 1.8.0 (http://scikit-rf.org).
# GHz S RI R 50.0 
!freq ReS11 ImS11 ReS12 ImS12 ReS13 ImS13
! ReS14 ImS14
! ReS21 ImS21 ReS22 ImS22 ReS23 ImS23
! ReS24 ImS24
! ReS31 ImS31 ReS32 ImS32 ReS33 ImS33
! ReS34 ImS34
! ReS41 ImS41 ReS42 ImS42 ReS43 ImS43
! ReS44 ImS44
!
0.0 0.001582590317816 0.0 0.9984174096821 0.0 6.096494213042e-05 0.0 -6.096494150992e-05 7.466052048032913e-21
 0.9984174096821 0.0 0.001582590317795 0.0 -6.096494150855e-05 7.466052047865136e-21 6.096494213155e-05 0.0
 6.096494213042e-05 0.0 -6.096494150855e-05 7.466052047865136e-21 0.001582590314948 0.0 0.9984174096793 0.0
 -6.096494150992e-05 7.466052048032913e-21 6.096494213155e-05 0.0 0.9984174096793 0.0 0.001582590314997 0.0
0.005 0.0017028072706081914 0.001297330014942041 0.9982653001539843 -0.003314791041158004 8.5127039983039e-05 0.0006554507336853733 -8.270377347547673e-05 -0.0004142496389341941
 0.9982653001539843 -0.003314791041158004 0.001702840225803466 0.001297310850472523 -8.270085563019512e-05 -0.0004142475109858595 8.493116185684893e-05 0.0006555253515237214
 8.5127039983039e-05 0.0006554507336853733 -8.270085563019512e-05 -0.0004142475109858595 0.0017028078236282424 0.0012972624894011103 0.9982652997850285 -0.003314858094080798
 -8.270377347547673e-05 -0.0004142496389341941 8.493116185684893e-05 0.0006555253515237214 0.9982652997850285 -0.003314858094080798 0.001702838935123405 0.0012972442692390242
0.006252605252188 0.0017343653562074612 0.0016267486037808904 0.9982251103521856 -0.0041442929127197695 9.206169881163325e-05 0.0008196353601433425 -8.885163060098298e-05 -0.0005183418461465645
 0.9982251103521856 -0.0041442929127197695 0.0017344168703303563 0.001626724268321474 -8.884708928428466e-05 -0.0005183392250133112 9.175565809750193e-05 0.0008197322563073263
 9.206169881163325e-05 0.0008196353601433425 -8.884708928428466e-05 -0.0005183392250133112 0.0017343663027243315 0.0016266642071399839 0.9982251098581135 -0.0041443767267112346
 -8.885163060098298e-05 -0.0005183418461465645 9.175565809750193e-05 0.0008197322563073263 0.9982251098581135 -0.0041443767267112346 0.0017344149359372143 0.0016266410352910527
0.01250521050438 0.0019006621869414907 0.0032874237601558396 0.9980118911260459 -0.008289336406065847 0.0001319965008959745 0.0016396509567335365 -0.00012378815060382447 -0.001039159070882186
 0.9980118911260459 -0.008289336406065847 0.0019008678697199017 0.003287371238361632 -0.00012377024266201555 -0.0010391542565181772 0.00013077609320846434 0.0016398839158838965
 0.0001319965008959745 0.0016396509567335365 -0.00012377024266201555 -0.0010391542565181772 0.0019006665385097456 0.003287255281354895 0.9980118897346372 -0.008289503793475983
 -0.00012378815060382447 -0.001039159070882186 0.00013077609320846434 0.0016398839158838965 0.9980118897346372 -0.008289503793475983 0.0019008607372567698 0.0032872049304717575
0.01875781575657 0.0020818515692562064 0.004971604007041161 0.9977774816099254 -0.012445207380790269 0.00018086204629532392 0.00246056827829647 -0.00016588297122280794 -0.0015617191284846644
 0.9977774816099254 -0.012445207380790269 0.002082313719956407 0.004971519114198252 -0.00016584302058032742 -0.0015617126378710555 0.00017812056111686777 0.002460984294858743
 0.00018086204629532392 0.00246056827829647 -0.00016584302058032742 -0.0015617126378710555 0.0020818617509091486 0.004971351616303552 0.9977774789064731 -0.012445458224349712
 -0.00016588297122280794 -0.0015617191284846644 0.00017812056111686777 0.002460984294858743 0.9977774789064731 -0.012445458224349712 0.0020822981366135315 0.004971269779379039
0.02501042100875 0.0022782928325026926 0.006676929319835358 0.9975216005106978 -0.016613909854391182 0.00023875293542128316 0.0032824077803619853 -0.0002152410387192851 -0.002085784525163565
 0.9975216005106978 -0.016613909854391182 0.0022791135294899915 0.006676807572856086 -0.00021517046817017262 -0.002085776972794297 0.00023388345452682462 0.003283061412490928
 0.00023875293542128316 0.0032824077803619853 -0.00021517046817017262 -0.002085776972794297 0.0022783112589978027 0.006676593117727358 0.9975215960870835 -0.016614244087590813
 -0.0002152410387192851 -0.002085784525163565 0.00023388345452682462 0.003283061412490928 0.9975215960870835 -0.016614244087590813 0.0022790862657250774 0.006676475219556026
0.03126302626094 0.0024903304581531775 0.008402180369645173 0.9972439524485637 -0.020796295687160845 0.0003057643080440536 0.004105116194292436 -0.00027196432014533854 -0.002611185382181918
 0.9972439524485637 -0.020796295687160845 0.0024916116153001857 0.008402016993842826 -0.00027185463465861974 -0.002611177481182701 0.00029815914355985453 0.004106069608074006
 0.0003057643080440536 0.004105116194292436 -0.00027185463465861974 -0.002611177481182701 0.0024903595284435794 0.008401760430687808 0.9972439458952647 -0.020796713250981515
 -0.00027196432014533854 -0.002611185382181918 0.00029815914355985453 0.004106069608074006 0.9972439458952647 -0.020796713250981515 0.002491569455374506 0.00840160163418531
0.037515631513130004 0.0027183013987925678 0.010146558463064378 0.9969442355143587 -0.024992784581149365 0.00038199081655698925 0.004928610927882224 -0.0003361525010589058 -0.003137775027684136
 0.9969442355143587 -0.024992784581149365 0.0027201448029021517 0.010146348395271784 -0.00033599527938780907 -0.0031377675902148844 0.0003710412607369437 0.004929933973428319
 0.00038199081655698925 0.004928610927882224 -0.00033599527938780907 -0.0031377675902148844 0.0027183435018991674 0.010146054844143205 0.9969442264258036 -0.024993285415754556
 -0.0003361525010589058 -0.003137775027684136 0.0003710412607369437 0.004929933973428319 0.9969442264258036 -0.024993285415754556 0.002720084548536687 0.010145850053496568
0.043768236765320004 0.0029625379122232135 0.011909466423813676 0.9966221443497363 -0.029203583126575103 0.00046752614130456436 0.0057527935633640715 -0.0004079032312472897 -0.0036654165002797533
 0.9966221443497363 -0.029203583126575103 0.0029650452533486363 0.011909204313940703 -0.00040769012109539044 -0.0036654104377375823 0.0004526223496648408 0.005754563860839873
 0.00046752614130456436 0.0057527935633640715 -0.00040769012109539044 -0.0036654104377375823 0.0029625954232076566 0.01190887914810216 0.9966221323192669 -0.029204167187412117
 -0.0004079032312472897 -0.0036654165002797533 0.0004526223496648408 0.005754563860839873 0.9966221323192669 -0.029204167187412117 0.00296496371800597 0.011908623010445131
0.050020842017509996 0.003223368867044685 0.013690418020134312 0.9962773717026143 -0.033428775300507196 0.0005624627015326019 0.006577555431952615 -0.0004873122051145779 -0.004193976980862745
 0.9962773717026143 -0.033428775300507196 0.0032266417639312947 0.013690098231815353 -0.0004870349201266679 -0.004193973303999588 0.0005429936466487158 0.006579858461651772
 0.0005624627015326019 0.006577555431952615 -0.0004870349201266679 -0.004193973303999588 0.003223444150594665 0.01368974709336608 0.9962773563254208 -0.033429442542115176
 -0.0004873122051145779 -0.004193976980862745 0.0005429936466487158 0.006579858461651772 0.9962773563254208 -0.033429442542115176 0.0032265357753072503 0.013689433999682693
0.055454545454549996 0.0034637689525836295 0.01525244540112646 0.9959590943216312 -0.03711229063848329 0.0006526710775769676 0.00729467882824758 -0.0005626133011328661 -0.004653956333166518
 0.9959590943216312 -0.03711229063848329 0.0034677896302766293 0.0152520706885598 -0.0005622735665252938 -0.004653955627617311 0.0006287375199130909 0.007297520412519374
 0.0006526710775769676 0.00729467882824758 -0.0005622735665252938 -0.004653955627617311 0.0034638615917263966 0.01525170177448045 0.9959590757069834 -0.03711303012464718
 -0.0005626133011328661 -0.004653956333166518 0.0006287375199130909 0.007297520412519374 0.9959590757069834 -0.03711303012464718 0.0034676598231785406 0.015251334430217563
0.056273447269699996 0.003501120412952271 0.015488993522497947 0.9959096093534509 -0.03766836683679599 0.000666891446913001 0.007402780362547691 -0.0005744731737898401 -0.004723325054644266
 0.9959096093534509 -0.03766836683679599 0.0035052604370513223 0.015488610132873525 -0.000574123491654293 -0.0047233248736583055 0.0006422449150252916 0.007405709556753892
 0.000666891446913001 0.007402780362547691 -0.000574123491654293 -0.0047233248736583055 0.0035012158213898322 0.015488238936668015 0.9959095902245946 -0.03766911720896024
 -0.0005744731737898401 -0.004723325054644266 0.0006422449150252916 0.007405709556753892 0.9959095902245946 -0.03766911720896024 0.003505126834031846 0.015487863021886813
0.06252605252188 0.0037961163354213495 0.017304815269337363 0.9955185487299066 -0.04192230959100465 0.0007809016953531433 0.00822834618192498 -0.000669477916443926 -0.005253329226316652
 0.9955185487299066 -0.04192230959100465 0.003801225033228329 0.017304362068135463 -0.0006690476777144965 -0.005253333750906209 0.00075046431132951 0.008232003017420936
 0.0007809016953531433 0.00822834618192498 -0.0006690476777144965 -0.005253333750906209 0.0037962342109519576 0.01730397698986305 0.9955185254456349 -0.04192314305163127
 -0.000669477916443926 -0.005253329226316652 0.00075046431132951 0.008232003017420936 0.9955185254456349 -0.04192314305163127 0.003801060667347739 0.017303532132260886
0.06877865777407 0.004108678237413472 0.01913753308937149 0.9951038813523948 -0.046190516053086966 0.0009045809920554611 0.009054125624714965 -0.0007724161927901451 -0.00578385703020984
 0.9951038813523948 -0.046190516053086966 0.004114857152211078 0.019137003577358775 -0.00077189730019436 -0.005783867569615871 0.0008677382643812469 0.009058619715324638
 0.0009045809920554611 0.009054125624714965 -0.00077189730019436 -0.005783867569615871 0.004108820911377636 0.019136611066090832 0.9951038535094003 -0.046191432557058265
 -0.0007724161927901451 -0.00578385703020984 0.0008677382643812469 0.009058619715324638 0.9951038535094003 -0.046191432557058265 0.004114658886012334 0.01913609088614061
0.07503126302626001 0.004439125619717011 0.0209868150796925 0.9946652991838026 -0.05047286850922917 0.0010380149835076593 0.009879986908123993 -0.0008833756815065654 -0.006314774480750459
 0.9946652991838026 -0.05047286850922917 0.004446476312724572 0.020986202466349933 -0.000882760099556821 -0.006314792443775687 0.0009941513643484925 0.009885436096863641
 0.0010380149835076593 0.009879986908123993 -0.000882760099556821 -0.006314792443775687 0.004439295413173536 0.020985809243396162 0.9946652663794866 -0.050473868011882174
 -0.0008833756815065654 -0.006314774480750459 0.0009941513643484925 0.009885436096863641 0.9946652663794866 -0.050473868011882174 0.004446241020011268 0.020985207101795418
0.08128386827845 0.00478777589720342 0.022852341447279496 0.9942024949178913 -0.054769225145592355 0.001181287300044553 0.01070579412524493 -0.0010024419102105547 -0.006845945709522313
 0.9942024949178913 -0.054769225145592355 0.004796399968848576 0.022851638647797514 -0.0010017216651713751 -0.006845972604549704 0.001129786256904587 0.010712324575819424
 0.001181287300044553 0.01070579412524493 -0.0010017216651713751 -0.006845972604549704 0.004787975120955492 0.02285125171058778 0.994202456750003 -0.05477030760169557
 -0.0010024419102105547 -0.006845945709522313 0.001129786256904587 0.010712324575819424 0.994202456750003 -0.05477030760169557 0.0047961245336733856 0.022850560705662812
0.08753647353064001 0.005154944372482462 0.02473380027892133 0.9937151622300401 -0.05907942422943754 0.0013344794439963566 0.011531407521600773 -0.0011296981794279718 -0.007377232724501679
 0.9937151622300401 -0.05907942422943754 0.00516494348298653 0.024732999910479714 -0.0011288653593832096 -0.007377270159468846 0.0012747235411346741 0.011539153808988975
 0.0013344794439963566 0.011531407521600773 -0.0011288653593832096 -0.007377270159468846 0.005155175327735033 0.02473262653510529 0.9937151182973174 -0.059080589594290994
 -0.0011296981794279718 -0.007377232724501679 0.0012747235411346741 0.011539153808988975 0.9937151182973174 -0.059080589594290994 0.005164624800113873 0.024731839499605838
0.09378907878283 0.005540944179968115 0.026630884494464997 0.9932029960016436 -0.06340328711303714 0.0014976706817612347 0.012356683700718409 -0.0012652254822541264 -0.00790849524577639
 0.9932029960016436 -0.06340328711303714 0.00555242007049801 0.02662997887182534 -0.0012642722373799517 -0.007908544928161912 0.0014290416694625 0.012365788900718074
 0.0014976706817612347 0.012356683700718409 -0.0012642722373799517 -0.007908544928161912 0.005541209157972425 0.026629626620368444 0.9932029459030889 -0.06340453533951405
 -0.0012652254822541264 -0.00790849524577639 0.0014290416694625 0.012365788900718074 0.9932029459030889 -0.06340453533951405 0.0055520550444807335 0.02662873611737663
0.100041684035 0.0059460862086210325 0.028543289637805763 0.9926656925272573 -0.06774062040630756 0.0016709379383730016 0.013181475783398375 -0.0014091024209088923 -0.008439590593294
 0.9926656925272573 -0.06774062040630756 0.005959140722055841 0.0285422707680614 -0.001408020963915905 -0.008439654330063858 0.0015928168490425291 0.013192091560902723
 0.0016709379383730016 0.013181475783398375 -0.001408020963915905 -0.008439654330063858 0.005946387491261075 0.028541947490212372 0.9926656358623447 -0.06774195144831406
 -0.0014091024209088923 -0.008439590593294 0.0015928168490425291 0.013192091560902723 0.9926656358623447 -0.06774195144831406 0.005958726267075055 0.02854094580842646
0.1059090909091 0.006343953558037528 0.030351542876368286 0.9921383590292668 -0.0718228150895143 0.0018427612882504598 0.013954881608676476 -0.0015517774147317848 -0.008937685935258856
 0.9921383590292668 -0.0718228150895143 0.0063585821757044265 0.030350410187442303 -0.0015505686179277788 -0.008937764592561057 0.0017551693976093005 0.013967060567975148
 0.0018427612882504598 0.013954881608676476 -0.0015505686179277788 -0.008937764592561057 0.00634429097591225 0.03035012150023642 0.9921382958390362 -0.07182422380270902
 -0.0015517774147317848 -0.008937685935258856 0.0017551693976093005 0.013967060567975148 0.9921382958390362 -0.07182422380270902 0.0063581185389454285 0.030349008226347344
0.1062942892872 0.0063706790092363744 0.03047071220232987 0.9921029497092579 -0.07209121762155335 0.001854355694021463 0.01400563353465855 -0.001561405120727723 -0.008970373612708398
 0.9921029497092579 -0.07209121762155335 0.006385414111293646 0.03046957177891258 -0.001560187727339049 -0.008970453310249872 0.0017661229444934235 0.014017920230593998
 0.001854355694021463 0.01400563353465855 -0.001560187727339049 -0.008970453310249872 0.006371018869243838 0.030469285619038507 0.9921028860782038 -0.07209263143285093
 -0.001561405120727723 -0.008970373612708398 0.0017661229444934235 0.014017920230593998 0.9921028860782038 -0.07209263143285093 0.006384947151060932 0.030468164767256844
0.11254689453939999 0.006815028689515021 0.03241284836153359 0.9915144672438392 -0.07645486041979406 0.0020479958817678427 0.014829003471854004 -0.0017222071426711955 -0.009500696625981448
 0.9915144672438392 -0.07645486041979406 0.006831546489447202 0.03241157775749922 -0.001720846152180968 -0.009500794290026647 0.0019490313807817685 0.014843130188657643
 0.0020479958817678427 0.014829003471854004 -0.001720846152180968 -0.009500794290026647 0.006815409390144227 0.032411337163632745 0.9915143962472862 -0.07645635695168587
 -0.0017222071426711955 -0.009500696625981448 0.0019490313807817685 0.014843130188657643 0.9915143962472862 -0.07645635695168587 0.006831023956807263 0.03241008886448565
0.11879949979160001 0.007279438799458968 0.034369392983051916 0.9908999468012004 -0.08083131958110464 0.002251927786473973 0.015651428956201273 -0.001891579394005055 -0.010030409404717843
 0.9908999468012004 -0.08083131958110464 0.007297841571565788 0.034367983243423786 -0.0018900672100103427 -0.010030527140226236 0.002141611047244168 0.015667573641653068
 0.002251927786473973 0.015651428956201273 -0.0018900672100103427 -0.010030527140226236 0.007279862595523656 0.03436779697092587 0.9908998680403621 -0.08083289878619324
 -0.001891579394005055 -0.010030409404717843 0.002141611047244168 0.015667573641653068 0.9908998680403621 -0.08083289878619324 0.007297260408448697 0.03436641265378068
0.1250521050438 0.007764210210099244 0.03634003884754949 0.9902590922007255 -0.08522035577701385 0.0024662179444284484 0.01647275027690213 -0.0020695900382368577 -0.010559359156967886
 0.9902590922007255 -0.08522035577701385 0.0077846004149179256 0.03633848068083913 -0.002067919129362596 -0.010559499167994367 0.0023439282016643167 0.016491099806315083
 0.0024662179444284484 0.01647275027690213 -0.002067919129362596 -0.010559499167994367 0.007764679347473309 0.036338357804965506 0.9902590052773258 -0.08522201760505885
 -0.0020695900382368577 -0.010559359156967886 0.0023439282016643167 0.016491099806315083 0.9902590052773258 -0.08522201760505885 0.007783957571888279 0.036336828597962
0.131304710296 0.008269640985692966 0.038324476035831286 0.9895916095832599 -0.0896217201823607 0.0026909300438380797 0.017292804727095778 -0.0022563044041157827 -0.011087390528494808
 0.9895916095832599 -0.0896217201823607 0.008292121290909426 0.03832275980480109 -0.0022544673047379753 -0.011087555118049156 0.0025560463749007456 0.017313554983625037
 0.0026909300438380797 0.017292804727095778 -0.0022544673047379753 -0.011087555118049156 0.008270157701398806 0.03832270972525268 0.9895915140993801 -0.08962346458484916
 -0.0022563044041157827 -0.011087390528494808 0.0025560463749007456 0.017313554983625037 0.9895915140993801 -0.08962346458484916 0.008291413727053533 0.038321026446551394
0.1375573155481 0.008681239849241063 0.04006461266260828 0.9890120372325804 -0.09377726752042494 0.0028986783296265375 0.018086145689806085 -0.0024244984698971236 -0.011588966957128447
 0.9890120372325804 -0.09377726752042494 0.008705922065415312 0.0400627640608444 -0.0024224844276373534 -0.01158915638982121 0.0027508887990988318 0.018109270901395153
 0.0028986783296265375 0.018086145689806085 -0.0024224844276373534 -0.01158915638982121 0.008681807531253704 0.04006276005521648 0.9890119328054372 -0.09377909442020421
 -0.0024244984698971236 -0.011588966957128447 0.0027508887990988318 0.018109270901395153 0.9890119328054372 -0.09377909442020421 0.008705145554280945 0.040060950379904266
0.1438099208003 0.00910736489606697 0.041795372794372065 0.9884119871324296 -0.09792204635378121 0.0031148256328454396 0.018876014570798214 -0.002599405857445289 -0.012087423125449715
 0.9884119871324296 -0.09792204635378121 0.00913435339769389 0.04179338421117341 -0.0025972069090366926 -0.012087639664387985 0.002953564902177898 0.018901694356941414
 0.0031148256328454396 0.018876014570798214 -0.0025972069090366926 -0.012087639664387985 0.009107985977240373 0.04179343355013607 0.9884118733688152 -0.09792395569194548
 -0.002599405857445289 -0.012087423125449715 0.002953564902177898 0.018901694356941414 0.9884118733688152 -0.09792395569194548 0.009133504694027121 0.04179149050987407
0.1500625260525 0.009547862509101354 0.04351660505250118 0.98779161701241 -0.10205594645705808 0.003339295619486222 0.019662322326103668 -0.0027809537443200054 -0.01258267761563182
 0.98779161701241 -0.10205594645705808 0.009577261927562898 0.04351446842727986 -0.002778561949910647 -0.012582923614249477 0.003164001768665081 0.01969074288379531
 0.003339295619486222 0.019662322326103668 -0.002778561949910647 -0.012582923614249477 0.00954853942773092 0.04351457881185858 0.9877914935197928 -0.10205793817426317
 -0.0027809537443200054 -0.01258267761563182 0.003164001768665081 0.01969074288379531 0.9877914935197928 -0.10205793817426317 0.009576337779655312 0.04351249502117426
0.15631513130469998 0.010002577943008817 0.04522816260691105 0.9871510854415801 -0.1061788581480604 0.0035720110246656614 0.020444981459269353 -0.0029690683903065038 -0.013074650764768433
