! Created with skrf 1.8.0 (http://scikit-rf.org).
# GHz S RI R 50.0 
!freq ReS11 ImS11 ReS12 ImS12 ReS13 ImS13
! ReS14 ImS14
! ReS21 ImS21 ReS22 ImS22 ReS23 ImS23
! ReS24 ImS24
! ReS31 ImS31 ReS32 ImS32 ReS33 ImS33
! ReS34 ImS34
! ReS41 ImS41 ReS42 ImS42 ReS43 ImS43
! ReS44 ImS44
!
0.0 0.001554205325035 0.0 0.9984457946664 0.0 6.017128543642e-05 0.0 -6.017128650066e-05 7.368857341361161e-21
 0.9984457946664 0.0 0.00155420532505 0.0 -6.017128650158e-05 7.368857341473828e-21 6.017128543421e-05 0.0
 6.017128543642e-05 0.0 -6.017128650158e-05 7.368857341473828e-21 0.001554205320798 0.0 0.9984457946622 0.0
 -6.017128650066e-05 7.368857341361161e-21 6.017128543421e-05 0.0 0.9984457946622 0.0 0.001554205320768 0.0
0.005 0.0016722761583712624 0.0012676583588480113 0.9982964069234498 -0.0032557981286776994 8.487436370765687e-05 0.0006859264284993047 -8.231755575020552e-05 -0.00042652681933312304
 0.9982964069234498 -0.0032557981286776994 0.0016722764997882257 0.0012676582027821895 -8.231458353706494e-05 -0.0004265246523636669 8.489466519230364e-05 0.0006859189777173974
 8.487436370765687e-05 0.0006859264284993047 -8.231458353706494e-05 -0.0004265246523636669 0.0016722767533055636 0.0012675908053671147 0.9982964065653169 -0.003255865195912361
 -8.231755575020552e-05 -0.00042652681933312304 8.489466519230364e-05 0.0006859189777173974 0.9982964065653169 -0.003255865195912361 0.001672275194638356 0.0012675916271245478
0.006252605252188 0.0017032535673975329 0.0015895756829096238 0.9982569638201935 -0.004070543924601114 9.193076159803984e-05 0.0008577294477892729 -8.857844184161838e-05 -0.0005337144968235127
 0.9982569638201935 -0.004070543924601114 0.0017032540999337034 0.00158957542829611 -8.857381590053924e-05 -0.0005337118274786855 9.196248417407385e-05 0.0008577197277316168
 9.193076159803984e-05 0.0008577294477892729 -8.857381590053924e-05 -0.0005337118274786855 0.0017032545641349442 0.0015894912736615153 0.9982569633276307 -0.004070627737049393
 -8.857844184161838e-05 -0.0005337144968235127 9.196248417407385e-05 0.0008577197277316168 0.9982569633276307 -0.004070627737049393 0.001703252127539946 0.001589492224572603
0.01250521050438 0.001866389392301555 0.003212572820524084 0.998047863729405 -0.008141899285066501 0.00013239174229870743 0.0017157485625140924 -0.00012414569342078334 -0.0010700300950523415
 0.998047863729405 -0.008141899285066501 0.001866391503057445 0.003212571685668629 -0.00012412745152483908 -0.0010700251897846087 0.00013251834692341332 0.001715724767839117
 0.00013239174229870743 0.0017157485625140924 -0.00012412745152483908 -0.0010700251897846087 0.0018663939433453609 0.003212404343134646 0.9980478623406176 -0.008142066691539683
 -0.00012414569342078334 -0.0010700300950523415 0.00013251834692341332 0.001715724767839117 0.9980478623406176 -0.008142066691539683 0.0018663842177229228 0.003212405461658405
0.01875781575657 0.0020439719821590675 0.0048587500482586725 0.9978182323878227 -0.012223975691158141 0.00018164851297221065 0.002574655684778989 -0.00016698363536264032 -0.001608140893079987
 0.9978182323878227 -0.012223975691158141 0.002043976694976604 0.004858747320548728 -0.00016694293925303508 -0.001608134273756435 0.00018193315508777854 0.0025746126634853053
 0.00018164851297221065 0.002574655684778989 -0.00016694293925303508 -0.001608134273756435 0.0020439826189352366 0.00485849773997598 0.9978182296909488 -0.01222422660495239
 -0.00016698363536264032 -0.001608140893079987 0.00018193315508777854 0.0025746126634853053 0.9978182296909488 -0.01222422660495239 0.002043960774547502 0.0048584981881909205
0.02501042100875 0.002236349738768519 0.006525791055302791 0.997567797398476 -0.01631874675358926 0.00023979651368885972 0.0034344904561315038 -0.0002171991152075743 -0.0021477935616048627
 0.997567797398476 -0.01631874675358926 0.0022363580535720903 0.006525785931274099 -0.0002171272270208485 -0.0021477858471640903 0.00024030251092481823 0.003434422270598968
 0.00023979651368885972 0.0034344904561315038 -0.0002171272270208485 -0.0021477858471640903 0.002236368977860104 0.00652545512115814 0.9975677929780198 -0.016319081150338866
 -0.0002171991152075743 -0.0021477935616048627 0.00024030251092481823 0.003434422270598968 0.9975677929780198 -0.016319081150338866 0.0022363301948643954 0.006525453998528654
0.03126302626094 0.002443856637354739 0.00821250103155123 0.9972962725803531 -0.02042705360628495 0.0003069315831857932 0.0042952106370336635 -0.0002748958615578016 -0.002688810560543407
 0.9972962725803531 -0.02042705360628495 0.002443869527731884 0.008212492614959562 -0.00027478412677508905 -0.002688802468143834 0.0003077224658158591 0.004295110555290668
 0.0003069315831857932 0.0042952106370336635 -0.00027478412677508905 -0.002688802468143834 0.002443886988609572 0.008212081679576586 0.9972962660225286 -0.020427471489099215
 -0.0002748958615578016 -0.002688810560543407 0.0003077224658158591 0.004295110555290668 0.9972962660225286 -0.020427471489099215 0.0024438264507378278 0.00821207802072624
0.037515631513130004 0.0026668193735659407 0.009918098829387895 0.9970033653524243 -0.024549312683356705 0.0003831490217951482 0.005156741661973481 -0.00034017526440310473 -0.0032310405920096493
 0.9970033653524243 -0.024549312683356705 0.0026668377839177654 0.009918086129655645 -0.0003400151033093736 -0.00323103293745622 0.00038428855432822453 0.005156602146912156
 0.0003831490217951482 0.005156741661973481 -0.0003400151033093736 -0.00323103293745622 0.0026668633388238216 0.009917596277421847 0.9970033562414303 -0.0245498140763013
 -0.00034017526440310473 -0.0032310405920096493 0.00038428855432822453 0.005156602146912156 0.9970033562414303 -0.0245498140763013 0.0026667762278845884 0.009917589050525942
0.043768236765320004 0.002905560125015305 0.011642001545288534 0.9966887797321942 -0.028685731067370806 0.00046854315603691356 0.006018991701573113 -0.0004131366463253585 -0.0037743435437908555
 0.9966887797321942 -0.028685731067370806 0.0029055849676036206 0.011641983476169375 -0.0004129195489291901 -0.003774337241747396 0.00047009534689960905 0.00601880439955357
 0.00046854315603691356 0.006018991701573113 -0.0004129195489291901 -0.003774337241747396 0.0029056201979479877 0.011641416018855932 0.9966887676484164 -0.02868631601767296
 -0.0004131366463253585 -0.0037743435437908555 0.00047009534689960905 0.00601880439955357 0.9966887676484164 -0.02868631601767296 0.0029055016901063852 0.011641404124558125
0.050020842017509996 0.00316039782734003 0.013383735488860307 0.9963522178525129 -0.03283639544856408 0.0005632070686273208 0.006881857894896185 -0.0004938773645760355 -0.004318584264171016
 0.9963522178525129 -0.03283639544856408 0.0031604299795989182 0.013383710867270169 -0.0004935948876129415 -0.004318580328307477 0.0005652361728685012 0.006881613624112541
 0.0005632070686273208 0.006881857894896185 -0.0004935948876129415 -0.004318580328307477 0.0031604764956982257 0.013383067230432843 0.9963522023727793 -0.032837064017419745
 -0.0004938773645760355 -0.004318584264171016 0.0005652361728685012 0.006881613624112541 0.9963522023727793 -0.032837064017419745 0.0031603217567766875 0.013383049500856762
0.055454545454549996 0.0033951779566326465 0.014911518040688842 0.9960416558801879 -0.03645502719784138 0.0006530722894954935 0.0076321292340614634 -0.0005704354166583437 -0.004792204037028104
 0.9960416558801879 -0.03645502719784138 0.0033952171441846432 0.014911486687975666 -0.0005700893161717415 -0.004792203057639425 0.0006555682198643335 0.007631827346924265
 0.0006530722894954935 0.0076321292340614634 -0.0005700893161717415 -0.004792203057639425 0.003395274801297369 0.014910778089279455 0.9960416371023835 -0.036455768500864315
 -0.0005704354166583437 -0.004792204037028104 0.0006555682198643335 0.007631827346924265 0.9960416371023835 -0.036455768500864315 0.0033950846396937333 0.014910754286438762
0.056273447269699996 0.0034316488291807287 0.015142892496855092 0.9959933808606747 -0.03700131574052839 0.0006672324099897776 0.007745229397470698 -0.000582492828480972 -0.00486362952415904
 0.9959933808606747 -0.03700131574052839 0.0034316891303512844 0.015142860041794276 -0.0005821365933709133 -0.0048636290672468205 0.0006698029284933832 0.007744918136215461
 0.0006672324099897776 0.007745229397470698 -0.0005821365933709133 -0.0048636290672468205 0.003431748575752468 0.015142141759664678 0.9959933615578385 -0.03700206800940926
 -0.000582492828480972 -0.00486362952415904 0.0006698029284933832 0.007744918136215461 0.9959933615578385 -0.03700206800940926 0.0034315527574203643 0.015142116957688233
0.06252605252188 0.0037196272409029943 0.016919105904940324 0.9956119695154332 -0.04118044904143249 0.0007807092446807422 0.00860898907151244 -0.0006790764798506969 -0.005409346341391469
 0.9956119695154332 -0.04118044904143249 0.003719676488888948 0.016919064236503096 -0.0006786381714231079 -0.005409350575383388 0.00078388592036699 0.008608599946420447
 0.0007807092446807422 0.00860898907151244 -0.0006786381714231079 -0.005409350575383388 0.0037197505433335795 0.016918272957168756 0.9956119459564673 -0.041181285107774565
 -0.0006790764798506969 -0.005409346341391469 0.00078388592036699 0.008608599946420447 0.9956119459564673 -0.041181285107774565 0.0037195087793199565 0.016918239775751243
0.06877865777407 0.0040246451133281284 0.018712036229450547 0.9952076846175831 -0.045373713888917255 0.0009037259201558714 0.009473014489453657 -0.0007837197487231761 -0.005955600995104265
 0.9952076846175831 -0.045373713888917255 0.004024704061192143 0.01871198386797873 -0.0007831911144786855 -0.005955611231181886 0.0009075737323596039 0.009472535763760526
 0.0009037259201558714 0.009473014489453657 -0.0007831911144786855 -0.005955611231181886 0.0040247944468535905 0.018711121351680137 0.9952076563648565 -0.04537463386872326
 -0.0007837197487231761 -0.005955600995104265 0.0009075737323596039 0.009472535763760526 0.9952076563648565 -0.04537463386872326 0.004024501848499728 0.018711078413453243
0.07503126302626001 0.004347012519827446 0.020521362085469595 0.9947802273485256 -0.0495809992837315 0.001036368947154494 0.010337178578232865 -0.0008965119954468932 -0.00650225840502433
 0.9947802273485256 -0.0495809992837315 0.004347081873020764 0.020521297450728934 -0.0008958848451832966 -0.006502276053645179 0.0010409531049633913 0.0103365976400658
 0.001036368947154494 0.010337178578232865 -0.0008958848451832966 -0.006502276053645179 0.004347190357559441 0.020520365576045193 0.9947801939585281 -0.04958200330603322
 -0.0008965119954468932 -0.00650225840502433 0.0010409531049633913 0.0103365976400658 0.9947801939585281 -0.04958200330603322 0.004346842010253471 0.02052031143285642
0.08128386827845 0.004687037575445747 0.022346774152107996 0.994329299548709 -0.05380217067089765 0.001178722888394243 0.011201350051623968 -0.0010175404433539097 -0.007049181727117623
 0.994329299548709 -0.05380217067089765 0.004687117987691791 0.022346695562664592 -0.0010168066489320516 -0.007049208298038318 0.0011841088221567618 0.011200653402420751
 0.001178722888394243 0.011201350051623968 -0.0010168066489320516 -0.007049208298038318 0.00468724638824829 0.022345696322246505 0.9943292605705345 -0.05380325888257161
 -0.0010175404433539097 -0.007049181727117623 0.0011841088221567618 0.011200653402420751 0.9943292605705345 -0.05380325888257161 0.004686837347423526 0.022345629454900304
0.08753647353064001 0.005045026412821486 0.024187970996130313 0.993854603957224 -0.05803707406818458 0.001330870251316307 0.012065393717096709 -0.0011468901049976098 -0.007596232080024156
 0.993854603957224 -0.05803707406818458 0.00504511848283558 0.024187876668733458 -0.001146041600474245 -0.007596269182304378 0.0013371236039031473 0.012064566960051223
 0.001330870251316307 0.012065393717096709 -0.001146041600474245 -0.007596269182304378 0.00504526867188432 0.024186812171914512 0.9938545589332596 -0.05803824663176388
 -0.0011468901049976098 -0.007596232080024156 0.0013371236039031473 0.012064566960051223 0.9938545589332596 -0.05803824663176388 0.005044793958770582 0.024186730990100803
0.09378907878283 0.005421283132130337 0.026044656088737555 0.9933558444287532 -0.06228553900718316 0.001492891384809856 0.0129291707001855 -0.0012846437036976046 -0.00814326835923259
 0.9933558444287532 -0.06228553900718316 0.005421387400194593 0.026044544137871464 -0.0012836724855304052 -0.008143317701239095 0.0015000780017173482 0.012928198528822397
 0.001492891384809856 0.0129291707001855 -0.0012836724855304052 -0.008143317701239095 0.0054215613087423035 0.02604341661352075 0.9933557928935328 -0.062286796098344505
 -0.0012846437036976046 -0.00814326835923259 0.0015000780017173482 0.012928198528822397 0.9933557928935328 -0.062286796098344505 0.005421015906509682 0.02604331945567921
0.100041684035 0.005816109728713034 0.02791653562927797 0.9928327261316849 -0.06654738067345885 0.0016648643777599753 0.013792538618820122 -0.0014308815918381002 -0.00869014710675798
 0.9928327261316849 -0.06654738067345885 0.005816226672471846 0.0279164040667929 -0.0014297797192131573 -0.008690210496128066 0.0016730502964712936 0.013791404805712223
 0.0016648643777599753 0.013792538618820122 -0.0014297797192131573 -0.008690210496128066 0.005816426295511387 0.02791521585692511 0.9928326676109994 -0.06654872248739759
 -0.0014308815918381002 -0.00869014710675798 0.0016730502964712936 0.013791404805712223 0.9928326676109994 -0.06654872248739759 0.005815805144983539 0.02791510099041971
0.1059090909091 0.006203768804180531 0.029686654461760865 0.9923194197448273 -0.07055865723250615 0.001835361387979982 0.014602216007928812 -0.0015758961303342228 -0.009203061602059507
 0.9923194197448273 -0.07055865723250615 0.006203898018380563 0.029686502595998372 -0.0015746644865871086 -0.009203139905813682 0.0018445452671833388 0.014600914922328222
 0.001835361387979982 0.014602216007928812 -0.0015746644865871086 -0.009203139905813682 0.006204123646839372 0.029685259675189285 0.9923193542298092 -0.070560078739654
 -0.0015758961303342228 -0.009203061602059507 0.0018445452671833388 0.014600914922328222 0.9923193542298092 -0.070560078739654 0.0062034267720078575 0.029685126551998994
0.1062942892872 0.006229806005425704 0.029803316896581212 0.9922849557344078 -0.07082240152530868 0.0018468649589217494 0.01465535171958315 -0.0015856816665834222 -0.009236722424546503
 0.9922849557344078 -0.07082240152530868 0.006229936036624123 0.029803163631417894 -0.0015844412619203084 -0.009236801768148383 0.0018561163979869764 0.014654039105178858
 0.0018468649589217494 0.01465535171958315 -0.0015844412619203084 -0.009236801768148383 0.006230163437250462 0.029801917197151206 0.9922848897450454 -0.07082382827090507
 -0.0015856816665834222 -0.009236722424546503 0.0018561163979869764 0.014654039105178858 0.9922848897450454 -0.07082382827090507 0.006229461432827029 0.029801782818425753
0.11254689453939999 0.00666266947453501 0.03170470700378846 0.9917122415835048 -0.0751103925155317 0.002038966398467848 0.01551746099181931 -0.0017491192834187374 -0.009782845915719951
 0.9917122415835048 -0.0751103925155317 0.0066628129347667655 0.03170452984187578 -0.0017477325328707325 -0.009782943219590107 0.002049349745772538 0.015515951473412259
 0.002038966398467848 0.01551746099181931 -0.0017477325328707325 -0.009782943219590107 0.00666307024942795 0.03170322776145074 0.9917121676326455 -0.07511190441704044
 -0.0017491192834187374 -0.009782845915719951 0.002049349745772538 0.015515951473412259 0.9917121676326455 -0.07511190441704044 0.00666228223495212 0.03170307199644523
0.11879949979160001 0.007114995249115868 0.033620411926506874 0.9911142938760905 -0.07941113404666363 0.0022412394099504697 0.016378714266012874 -0.0019212671683915983 -0.010328366647443252
 0.9911142938760905 -0.07941113404666363 0.007115152406146278 0.03362020857071436 -0.0019197263225135767 -0.010328484016698024 0.002252821210469395 0.016376988786903617
 0.0022412394099504697 0.016378714266012874 -0.0019197263225135767 -0.010328484016698024 0.007115441849228644 0.033618853539843084 0.9911142114604459 -0.07941273134307335
 -0.0019212671683915983 -0.010328366647443252 0.002252821210469395 0.016376988786903617 0.9911142114604459 -0.07941273134307335 0.007114562613495708 0.03361867444440864
0.1250521050438 0.0075870759280240625 0.03555013573553828 0.9904908248266627 -0.08372439672836594 0.0024537520529451613 0.01723895629835229 -0.0021021953290455628 -0.010873131133538012
 0.9904908248266627 -0.08372439672836594 0.007587246971861828 0.03554990378574559 -0.0021004927034760194 -0.010873270772276388 0.0024665989962872653 0.017236994837118005
 0.0024537520529451613 0.01723895629835229 -0.0021004927034760194 -0.010873270772276388 0.007587570840319586 0.03554849861571719 0.9904907334318577 -0.08372607967476355
 -0.0021021953290455628 -0.010873131133538012 0.0024665989962872653 0.017236994837118005 0.9904907334318577 -0.08372607967476355 0.007586595113147357 0.03554829417621542
0.131304710296 0.008079201475252264 0.037493579991110915 0.989841548832008 -0.08804994198037744 0.0026765696364472145 0.018098028850438885 -0.002291970964696551 -0.011416983328012402
 0.989841548832008 -0.08804994198037744 0.008079386513550012 0.03749331694452981 -0.0022900989408465764 -0.011417147539203587 0.0026907485436007215 0.01809581041042973
 0.0026765696364472145 0.018098028850438885 -0.0022900989408465764 -0.011417147539203587 0.00807974719241662 0.03749186456303005 0.9898414479319824 -0.08805171084644643
 -0.002291970964696551 -0.011416983328012402 0.0026907485436007215 0.01809581041042973 0.9898414479319824 -0.08805171084644643 0.008078669639963903 0.037491632697119096
0.1375573155481 0.008479562286901828 0.039196227402231915 0.989278323974837 -0.09213318912449694 0.002881804669827843 0.018930156858237818 -0.0024626923628018604 -0.011934182346638211
 0.989278323974837 -0.09213318912449694 0.008479762461899682 0.03919593743769836 -0.0024606399814695703 -0.011934371356274781 0.002897338719187348 0.01892768471435582
 0.002881804669827843 0.018930156858237818 -0.0024606399814695703 -0.011934371356274781 0.008480162381303573 0.03919443323896108 0.9892782131310986 -0.09213504405920973
 -0.0024626923628018604 -0.011934182346638211 0.002897338719187348 0.01892768471435582 0.9892782131310986 -0.09213504405920973 0.008478976390767686 0.03919418006288717
0.1438099208003 0.008894026359921498 0.04088973894626039 0.9886952511740132 -0.09620593204971492 0.0030953284220522187 0.01975888142544676 -0.0026402461687924134 -0.012448247685244263
 0.9886952511740132 -0.09620593204971492 0.008894241862975055 0.040889420146918445 -0.0026380053039404662 -0.012448463752131015 0.0031122767452746434 0.0197561365231985
 0.0030953284220522187 0.01975888142544676 -0.0026380053039404662 -0.012448463752131015 0.008894683528398875 0.0408878664072007 0.9886951298617924 -0.09620787331664193
 -0.0026402461687924134 -0.012448247685244263 0.0031122767452746434 0.0197561365231985 0.9886951298617924 -0.09620787331664193 0.008893383455841427 0.040887590604524904
0.1500625260525 0.009322445673096126 0.04257396846031076 0.9880924827240409 -0.10026806503983189 0.0033170662485984817 0.020584116558786367 -0.0028245594558748963 -0.012959097328438408
 0.9880924827240409 -0.10026806503983189 0.00932267663361995 0.04257361884112455 -0.0028221220042007607 -0.012959342801530402 0.003335487597954487 0.02058107915835779
 0.0033170662485984817 0.020584116558786367 -0.0028221220042007607 -0.012959342801530402 0.009323162631425528 0.04257201791811455 0.9880923504088944 -0.10027009290971198
 -0.0028245594558748963 -0.012959097328438408 0.003335487597954487 0.02058107915835779 0.9880923504088944 -0.10027009290971198 0.009321742760266954 0.04257171813463252
0.15631513130469998 0.00976467112615838 0.044248774184395316 0.9874701717277583 -0.10431948284704161 0.0035469426080433773 0.0214057777483171 -0.0030155583828619346 -0.013466651018693288
 0.9874701717277583 -0.10431948284704161 0.00976491760988963 0.04424839169413956 -0.003012916264204963 -0.013466928336556888 0.0035668953512368808 0.021402427432056413
