! Created with skrf 1.8.0 (http://scikit-rf.org).
# GHz S RI R 50.0 
!freq ReS11 ImS11 ReS12 ImS12 ReS13 ImS13
! ReS14 ImS14
! ReS21 ImS21 ReS22 ImS22 ReS23 ImS23
! ReS24 ImS24
! ReS31 ImS31 ReS32 ImS32 ReS33 ImS33
! ReS34 ImS34
! ReS41 ImS41 ReS42 ImS42 ReS43 ImS43
! ReS44 ImS44
!
0.0 0.001323702479112 0.0 0.9986762975067 0.0 5.049844169282e-05 0.0 -5.049844160414e-05 6.1842754872439585e-21
 0.9986762975067 0.0 0.001323702479129 0.0 -5.049844160433e-05 6.184275487267226e-21 5.049844169333e-05 0.0
 5.049844169282e-05 0.0 -5.049844160433e-05 6.184275487267226e-21 0.001323702480537 0.0 0.9986762975081 0.0
 -5.049844160414e-05 6.1842754872439585e-21 5.049844169333e-05 0.0 0.9986762975081 0.0 0.00132370248054 0.0
0.005 0.001423592547756094 0.0010868270556802938 0.9985500197527925 -0.0027733141334959008 6.991745968701372e-05 0.0005350819711798426 -6.80605506372453e-05 -0.00033968405265910986
 0.9985500197527925 -0.0027733141334959008 0.001423610033199777 0.0010868168189577447 -6.806176048705679e-05 -0.0003396849095100183 6.981499767382137e-05 0.000535121030756322
 6.991745968701372e-05 0.0005350819711798426 -6.806176048705679e-05 -0.0003396849095100183 0.0014235926496916397 0.0010868942115784305 0.9985500200965572 -0.0027732470670432958
 -6.80605506372453e-05 -0.00033968405265910986 6.981499767382137e-05 0.000535121030756322 0.9985500200965572 -0.0027732470670432958 0.0014236106151655637 0.0010868837929085308
0.006252605252188 0.0014496248646609117 0.0013628157970728351 0.9985169289992828 -0.0034673448711544097 7.538003619186197e-05 0.0006691313464435681 -7.294054560045047e-05 -0.00042504856499866973
 0.9985169289992828 -0.0034673448711544097 0.0014496521975111152 0.0013628027558685487 -7.294242883004758e-05 -0.0004250496202893774 7.521994795742486e-05 0.0006691820170303559
 7.538003619186197e-05 0.0006691313464435681 -7.294242883004758e-05 -0.0004250496202893774 0.0014496249464195472 0.0013628997284116913 0.99851692945877 -0.0034672610439057706
 -7.294054560045047e-05 -0.00042504856499866973 7.521994795742486e-05 0.0006691820170303559 0.99851692945877 -0.0034672610439057706 0.0014496530287593274 0.0013628864721412937
0.01250521050438 0.0015856993874089115 0.0027542929435737124 0.9983429389999889 -0.006935626892347782 0.0001062555936154242 0.0013387350785403014 -0.00010020787956235978 -0.0008522380628333907
 0.9983429389999889 -0.006935626892347782 0.0015858085297469082 0.002754264382550073 -0.0001002153087958536 -0.0008522400015035463 0.00010561719054587148 0.0013388561640686686
 0.0001062555936154242 0.0013387350785403014 -0.0001002153087958536 -0.0008522400015035463 0.0015856991465776776 0.002754460457251616 0.9983429402608767 -0.006935459499781496
 -0.00010020787956235978 -0.0008522380628333907 0.00010561719054587148 0.0013388561640686686 0.9983429402608767 -0.006935459499781496 0.0015858112662816717 0.0027544315890637096
0.01875781575657 0.0017321891766947076 0.004165754577885194 0.9981541356102227 -0.010413317823465038 0.00014319115771745114 0.002009254469102615 -0.00013237670609100486 -0.0012810032213767945
 0.9981541356102227 -0.010413317823465038 0.0017324344290777674 0.00416570784074552 -0.00013239328453186478 -0.0012810058403129284 0.00014175702984001425 0.002009469176096017
 0.00014319115771745114 0.002009254469102615 -0.00013239328453186478 -0.0012810058403129284 0.0017321882209337947 0.004166005501714713 0.9981541380173824 -0.010413066926373456
 -0.00013237670609100486 -0.0012810032213767945 0.00014175702984001425 0.002009469176096017 0.9981541380173824 -0.010413066926373456 0.001732440133234745 0.004165958485422818
0.02501042100875 0.0018893513355892398 0.005595268734728962 0.9979503203134176 -0.013902137760692813 0.0001862540081273106 0.0026807316141858467 -0.00016952145399211975 -0.001711176440601974
 0.9979503203134176 -0.013902137760692813 0.0018897868887711537 0.005595201003484223 -0.0001695507458323256 -0.0017111795019854042 0.00018370658729707304 0.0026810664641516583
 0.0001862540081273106 0.0026807316141858467 -0.0001695507458323256 -0.0017111795019854042 0.0018893492847515453 0.005595602880535287 0.9979503242169174 -0.013901803410522343
 -0.00016952145399211975 -0.001711176440601974 0.00018370658729707304 0.0026810664641516583 0.9979503242169174 -0.013901803410522343 0.0018897966149844818 0.005595535017118662
0.03126302626094 0.002057432156583728 0.007041859097509197 0.9977312833059866 -0.01740284435821972 0.00023551212801783814 0.0033531501462216195 -0.0002117148408289422 -0.0021426449962102913
 0.9977312833059866 -0.01740284435821972 0.0020581121180853388 0.007041767395440666 -0.00021176037813508056 -0.0021426482270171915 0.00023153337740519102 0.003353634992010236
 0.00023551212801783814 0.0033531501462216195 -0.00021176037813508056 -0.0021426482270171915 0.0020574286340876826 0.00704227628055684 0.9977312890535726 -0.017402426577361876
 -0.0002117148408289422 -0.0021426449962102913 0.00023153337740519102 0.003353634992010236 0.9977312890535726 -0.017402426577361876 0.0020581269053936138 0.007042184711360994
0.037515631513130004 0.0022366727915132103 0.00850490264635162 0.9974968092851808 -0.020915835128226225 0.000291033534175763 0.004026470819717829 -0.0002590283792511281 -0.0025753154369891453
 0.9974968092851808 -0.020915835128226225 0.0022376512014350494 0.00850478383939972 -0.00025909366537345236 -0.002575318528781834 0.00028530480159422535 0.004027138878604355
 0.000291033534175763 0.004026470819717829 -0.00025909366537345236 -0.002575318528781834 0.002236667426249659 0.008505402679987275 0.9974968172257882 -0.020915333915145207
 -0.0002590283792511281 -0.0025753154369891453 0.00028530480159422535 0.004027138878604355 0.9974968172257882 -0.020915333915145207 0.0022376720770488985 0.008505284388236058
0.043768236765320004 0.002427311456599193 0.009983946358961824 0.997246679778318 -0.024441330681050845 0.00035288596650704735 0.004700642352270533 -0.0003115325689276784 -0.0030091027312307943
 0.997246679778318 -0.024441330681050845 0.002428642300628429 0.009983797156429688 -0.00031162108062492757 -0.003009105340021111 0.00034508790739630214 0.0047015302442447145
 0.00035288596650704735 0.004700642352270533 -0.00031162108062492757 -0.003009105340021111 0.0024273038821529223 0.009984529042193447 0.9972466902613826 -0.02444074602231678
 -0.0003115325689276784 -0.0030091027312307943 0.00034508790739630214 0.0047015302442447145 0.9972466902613826 -0.02444074602231678 0.0024286702791616877 0.009984380853985687
0.050020842017509996 0.0026295844625563265 0.011478631452149541 0.9969806742972239 -0.02797945042224224 0.000421136712289066 0.005375605869192783 -0.0003692969684974034 -0.003443925811378387
 0.9969806742972239 -0.02797945042224224 0.002631321681939539 0.01147844840727652 -0.0003694121571950962 -0.003443927557548373 0.0004109492499580929 0.005376753657499463
 0.000421136712289066 0.005375605869192783 -0.0003694121571950962 -0.003443927557548373 0.002629574317601492 0.01147929656563603 0.9969806876746896 -0.027978782296514015
 -0.0003692969684974034 -0.003443925811378387 0.0004109492499580929 0.005376753657499463 0.9969806876746896 -0.027978782296514015 0.0026313577668114676 0.011479115150479655
0.055454545454549996 0.0028149968391068445 0.012790025447888431 0.996736441977085 -0.03106448023217493 0.00048569671748982713 0.005962763010065458 -0.0004238212518318112 -0.0038225798048808074
 0.996736441977085 -0.03106448023217493 0.0028171309901522668 0.012789810072732642 -0.0004239624075856051 -0.0038225804653769166 0.0004731722674912651 0.0059641718979064895
 0.00048569671748982713 0.005962763010065458 -0.0004239624075856051 -0.0038225804653769166 0.0028149841702697965 0.01279076201039638 0.9967364581576036 -0.031063739540350042
 -0.0004238212518318112 -0.0038225798048808074 0.0004731722674912651 0.0059641718979064895 0.9967364581576036 -0.031063739540350042 0.0028171749257724973 0.012790548893872723
0.056273447269699996 0.002843726752494677 0.012988656201611075 0.9966985710046921 -0.03153024967143082 0.0004958524813378925 0.006051297111009618 -0.00043239022291279597 -0.0038797053575267615
 0.9966985710046921 -0.03153024967143082 0.002845924253051259 0.012988435711765833 -0.000432535515536729 -0.003879705825747552 0.00048295478885372026 0.006052748343750592
 0.0004958524813378925 0.006051297111009618 -0.000432535515536729 -0.003879705825747552 0.002843713680147628 0.012989403515305142 0.9966985876310135 -0.031529498041464925
 -0.00043239022291279597 -0.0038797053575267615 0.00048295478885372026 0.006052748343750592 0.9966985876310135 -0.031529498041464925 0.002845969436416058 0.012989185386440725
0.06252605252188 0.0030699722033584445 0.014513755491608651 0.99640014714674 -0.035093740051916004 0.0005770993136341063 0.006727647620295496 -0.0005008800603008267 -0.004316362603339501
 0.99640014714674 -0.035093740051916004 0.003072683864088946 0.014513493798274256 -0.0005010588598895367 -0.00431636134250709 0.0005611698106862807 0.006729449372601356
 0.0005770993136341063 0.006727647620295496 -0.0005010588598895367 -0.00431636134250709 0.0030699558494909243 0.014514584759741843 0.9964001673777668 -0.03509290486944524
 -0.0005008800603008267 -0.004316362603339501 0.0005611698106862807 0.006729449372601356 0.9964001673777668 -0.03509290486944524 0.0030727391253160437 0.014514326274260836
0.06877865777407 0.0033085537936008457 0.016053688634189617 0.9960851793535249 -0.03866990161208905 0.0006649425003607417 0.007404585463356575 -0.0005748332766872429 -0.0047538186090327296
 0.9960851793535249 -0.03866990161208905 0.0033118334743564575 0.016053381822863113 -0.0005750489627009949 -0.004753815132213599 0.0006456588600969214 0.007406788379790136
 0.0006649425003607417 0.007404585463356575 -0.0005750489627009949 -0.004753815132213599 0.0033085338078851223 0.016054599591854308 0.9960852035488608 -0.03866898282108959
 -0.0005748332766872429 -0.0047538186090327296 0.0006456588600969214 0.007406788379790136 0.9960852035488608 -0.03866898282108959 0.0033118997819826463 0.016054296950530428
0.07503126302626001 0.0035597036965833747 0.017608231633361754 0.9957534438688506 -0.04225869050362231 0.0007594465149316787 0.008082035683417822 -0.0006543157106716797 -0.00519199380484906
 0.9957534438688506 -0.04225869050362231 0.00356360524622411 0.01760787563308346 -0.0006545716393023103 -0.005191987589226711 0.0007364856781629447 0.008084694020471543
 0.0007594465149316787 0.008082035683417822 -0.0006545716393023103 -0.005191987589226711 0.00355967973067798 0.01760922400063484 0.9957534723901692 -0.04225768803598101
 -0.0006543157106716797 -0.00519199380484906 0.0007364856781629447 0.008084694020471543 0.9957534723901692 -0.04225768803598101 0.003563683555820217 0.017608873247614683
0.08128386827845 0.00382365332448232 0.019177172044804465 0.9954047167318584 -0.045860044066063886 0.0008606749505624909 0.008759920594604405 -0.0007393922111154037 -0.005630807695851686
 0.9954047167318584 -0.045860044066063886 0.00382823058770465 0.019176762627619467 -0.0007396917153170567 -0.005630798182677986 0.000833713146148833 0.008763092263141979
 0.0008606749505624909 0.008759920594604405 -0.0007396917153170567 -0.005630798182677986 0.003823625032586344 0.01917824552418234 0.9954047499449892 -0.04585895784402194
 -0.0007393922111154037 -0.005630807695851686 0.000833713146148833 0.008763092263141979 0.9954047499449892 -0.04585895784402194 0.003828321843637726 0.01917784254645278
0.08753647353064001 0.004100633341732636 0.02076030541282566 0.9950387739319929 -0.04947388433638648 0.0009686904597170368 0.00943815999791719 -0.0008301266025750885 -0.0060701786469274785
 0.9950387739319929 -0.04947388433638648 0.004105940166939472 0.02075983819299189 -0.0008304729921625458 -0.006070165241488623 0.000937403229249764 0.009441906605454112
 0.0009686904597170368 0.00943815999791719 -0.0008304729921625458 -0.006070165241488623 0.004100600379211493 0.02076145968958306 0.9950388122062015 -0.04947271427209477
 -0.0008301266025750885 -0.0060701786469274785 0.000937403229249764 0.009441906605454112 0.9950388122062015 -0.04947271427209477 0.0041060453009000115 0.02076100021618815
0.09378907878283 0.004390873655538108 0.022357432729018682 0.9946553915422671 -0.05310012053921671 0.0010835546977754067 0.010116671327707891 -0.000926581645697007 -0.006510023739550358
 0.9946553915422671 -0.05310012053921671 0.004396963902049217 0.022356903162037117 -0.0009269782072895768 -0.006510005811130497 0.0010476169242418063 0.010121058220505954
 0.0010835546977754067 0.010116671327707891 -0.0009269782072895768 -0.006510005811130497 0.004390835678492579 0.022358667471627153 0.9946554352506514 -0.05309886653418016
 -0.000926581645697007 -0.006510023739550358 0.0010476169242418063 0.010121058220505954 0.9946554352506514 -0.05309886653418016 0.004397083833287806 0.022358147072704948
0.100041684035 0.004694603391027801 0.02396835856480008 0.9942543458401255 -0.056738650905653554 0.0012053282669528406 0.010795369762900867 -0.0010288189966099887 -0.006950258666172845
 0.9942543458401255 -0.056738650905653554 0.004701530936304225 0.023967761946154485 -0.0010292689935774194 -0.006950235548015774 0.0011644142066300188 0.010800466067767382
 0.0012053282669528406 0.010795369762900867 -0.0010292689935774194 -0.006950235548015774 0.004694560056241168 0.02396967342201671 0.9942543953603287 -0.05673731285357753
 -0.0010288189966099887 -0.006950258666172845 0.0011644142066300188 0.010800466067767382 0.9942543953603287 -0.05673731285357753 0.004701666571732436 0.02396908750764129
0.1059090909091 0.004992093399402874 0.0254924190303335 0.993861743385355 -0.060164108032850376 0.0013259368182648521 0.011432348968432397 -0.0011300707678207399 -0.007363650614355627
 0.993861743385355 -0.060164108032850376 0.004999855684398022 0.02549175506835 -0.0011305738553874021 -0.0073636219876589805 0.0012800562525121786 0.011438177255474075
 0.0013259368182648521 0.011432348968432397 -0.0011305738553874021 -0.0073636219876589805 0.004992044724686742 0.025493808732173828 0.9938617987070348 -0.06016269100524718
 -0.0011300707678207399 -0.007363650614355627 0.0012800562525121786 0.011438177255474075 0.9938617987070348 -0.06016269100524718 0.0050000068701443945 0.025493157020158565
0.1062942892872 0.005012050855575537 0.02559288966516187 0.99383541341996 -0.06038936403345893 0.0013340706619699415 0.01147416831339006 -0.0011368991638372 -0.007390797651836557
 0.99383541341996 -0.06038936403345893 0.005019869602726473 0.025592221128936422 -0.001137405836173005 -0.0073907686411354015 0.0012878539791277297 0.01148004697916366
 0.0013340706619699415 0.01147416831339006 -0.001137405836173005 -0.0073907686411354015 0.0050120018196948765 0.025594284269045673 0.9938354691343935 -0.06038794181714177
 -0.0011368991638372 -0.007390797651836557 0.0012878539791277297 0.01148004697916366 0.9938354691343935 -0.06038794181714177 0.005020021836570096 0.025593628087777473
0.11254689453939999 0.005343443493088135 0.027230833871536735 0.9933983712971847 -0.06405213992096176 0.0014698402162808442 0.012152977885763963 -0.0012508814638355007 -0.00783155339901918
 0.9933983712971847 -0.06405213992096176 0.005352207378127248 0.02723008838869888 -0.0012514480279890014 -0.007831517756892411 0.001417994020389577 0.012159715724421476
 0.0014698402162808442 0.012152977885763963 -0.0012514480279890014 -0.007831517756892411 0.005343388411844814 0.02723230783622605 0.9933984335929331 -0.06405063341345289
 -0.0012508814638355007 -0.00783155339901918 0.001417994020389577 0.012159715724421476 0.9933984335929331 -0.06405063341345289 0.005352377091625031 0.027231576473454578
0.11879949979160001 0.0056890078324580455 0.028881999282047106 0.9929429970092092 -0.067726850766354 0.001612694048365564 0.01283170734095992 -0.0013708239757525725 -0.008272437042975032
 0.9929429970092092 -0.067726850766354 0.005698770831783818 0.028881171658594797 -0.0013714536244645288 -0.008272393994456215 0.0015548909334599462 0.012839385068311724
 0.001612694048365564 0.01283170734095992 -0.0013714536244645288 -0.008272393994456215 0.005688946360437078 0.028883552204244073 0.9929430662789289 -0.0677252598304714
 -0.0013708239757525725 -0.008272437042975032 0.0015548909334599462 0.012839385068311724 0.9929430662789289 -0.0677252598304714 0.0056989588931830835 0.02888274058029805
0.1250521050438 0.006048969430116171 0.030546193590338343 0.9924690687126823 -0.0714133615914432 0.0017626880088968705 0.013510263537036025 -0.0014967834945576882 -0.008713358124723559
 0.9924690687126823 -0.0714133615914432 0.0060597855678400725 0.030545278465152183 -0.0014974793966428402 -0.008713306858761552 0.0016986000950365144 0.013518965812985074
 0.0017626880088968705 0.013510263537036025 -0.0014974793966428402 -0.008713306858761552 0.006048901219896798 0.030547825045809333 0.9924691453546223 -0.07141168608328316
 -0.0014967834945576882 -0.008713358124723559 0.0016986000950365144 0.013518965812985074 0.9924691453546223 -0.07141168608328316 0.006059992831938449 0.03054692791379538
0.131304710296 0.006423552807810707 0.032223223542459364 0.9919763652782038 -0.07511153075039584 0.001919876627570903 0.014188551370295927 -0.0016288154838204796 -0.009154224568307178
 0.9919763652782038 -0.07511153075039584 0.0064354761633703544 0.03222221538487083 -0.0016295807839210874 -0.009154164237768292 0.0018491756042492901 0.014198366838575019
 0.001919876627570903 0.014188551370295927 -0.0016295807839210874 -0.009154164237768292 0.006423477509673043 0.03222493309156726 0.9919764496965485 -0.07510977051376129
 -0.0016288154838204796 -0.009154224568307178 0.0018491756042492901 0.014198366838575019 0.9919764496965485 -0.07510977051376129 0.006435703471665012 0.03222394503497488
0.1375573155481 0.006721656808908981 0.03369473468285651 0.9915560163346406 -0.07860298832509287 0.002063269510546386 0.014844436348404532 -0.0017460120002146624 -0.009572855693511255
 0.9915560163346406 -0.07860298832509287 0.006734744815188528 0.033693651299702546 -0.0017468511077354677 -0.009572786308062185 0.0019857881812885077 0.014855343000482475
 0.002063269510546386 0.014844436348404532 -0.0017468511077354677 -0.009572786308062185 0.006721573234960272 0.03369652243602737 0.991556108882353 -0.07860114328226128
 -0.0017460120002146624 -0.009572855693511255 0.0019857881812885077 0.014855343000482475 0.991556108882353 -0.07860114328226128 0.006734993939314375 0.033695460395373335
0.1438099208003 0.007030068665430665 0.03515940535470237 0.9911212177823969 -0.08208649731653994 0.0022124604579696868 0.015498107238129884 -0.00186790120092802 -0.009989487451756441
 0.9911212177823969 -0.08208649731653994 0.007044375975812727 0.03515824280341429 -0.0018688174538631194 -0.009989408191726681 0.0021278990750985298 0.015510185414727196
 0.0022124604579696868 0.015498107238129884 -0.0018688174538631194 -0.009989408191726681 0.0070299763106083735 0.0351612709113478 0.9911213188617346 -0.0820845673158381
 -0.00186790120092802 -0.009989487451756441 0.0021278990750985298 0.015510185414727196 0.9911213188617346 -0.0820845673158381 0.0070446479068926515 0.0351601309529892
0.1500625260525 0.007348691153294861 0.036617139912961165 0.990672070046041 -0.08556199808775634 0.00236740470321697 0.01614951210413213 -0.0019944401899697254 -0.010404071429798652
 0.990672070046041 -0.08556199808775634 0.007364272492545619 0.03661589404335951 -0.001995436918557104 -0.010403981442992163 0.002275464984512593 0.016162845068517687
 0.00236740470321697 0.01614951210413213 -0.001995436918557104 -0.010403981442992163 0.007348589500100246 0.03661908285652338 0.990672180064285 -0.08555998297344658
 -0.0019944401899697254 -0.010404071429798652 0.002275464984512593 0.016162845068517687 0.990672180064285 -0.08555998297344658 0.007364568219841168 0.03661786083603615
0.15631513130469998 0.007677426495418624 0.0380678457419737 0.9902086739077351 -0.08902943070387515 0.002528057026326097 0.01679859976920426 -0.0021255856145945985 -0.010816560154133365
