! Created with skrf 1.8.0 (http://scikit-rf.org).
# GHz S RI R 50.0 
!freq ReS11 ImS11 ReS12 ImS12 ReS13 ImS13
! ReS14 ImS14
! ReS21 ImS21 ReS22 ImS22 ReS23 ImS23
! ReS24 ImS24
! ReS31 ImS31 ReS32 ImS32 ReS33 ImS33
! ReS34 ImS34
! ReS41 ImS41 ReS42 ImS42 ReS43 ImS43
! ReS44 ImS44
!
0.0 0.001497136347541 0.0 0.9985028636183 0.0 5.774446678391e-05 0.0 -5.774446642884e-05 7.07165759805507e-21
 0.9985028636183 0.0 0.001497136347563 0.0 -5.77444664293e-05 7.071657598111403e-21 5.774446678486e-05 0.0
 5.774446678391e-05 0.0 -5.77444664293e-05 7.071657598111403e-21 0.001497136364608 0.0 0.9985028636354 0.0
 -5.774446642884e-05 7.07165759805507e-21 5.774446678486e-05 0.0 0.9985028636354 0.0 0.001497136364604 0.0
0.005 0.0016106812707246743 0.0012235324499527275 0.9983592360972408 -0.003136302489127417 8.102430381768544e-05 0.0006445875606944146 -7.866254378242442e-05 -0.0004031613948700757
 0.9983592360972408 -0.003136302489127417 0.0016106854842937216 0.0012235299707343992 -7.86629613372486e-05 -0.00040316164503970944 8.099810955531176e-05 0.0006445975192382792
 8.102430381768544e-05 0.0006445875606944146 -7.86629613372486e-05 -0.00040316164503970944 0.0016106810581467796 0.0012234652512569922 0.9983592357377368 -0.003136369560237449
 -7.866254378242442e-05 -0.0004031613948700757 8.099810955531176e-05 0.0006445975192382792 0.9983592357377368 -0.003136369560237449 0.0016106849892107377 0.0012234630388627068
0.006252605252188 0.0016404220263555134 0.0015342402946312997 0.9983213848800082 -0.003921151814683587 8.765003190821468e-05 0.0008060454745549891 -8.455048451450856e-05 -0.0005044771125734403
 0.9983213848800082 -0.003921151814683587 0.001640428613127659 0.001534237143267973 -8.455113482944286e-05 -0.0005044774195528901 8.760910559471782e-05 0.0008060584047014927
 8.765003190821468e-05 0.0008060454745549891 -8.455113482944286e-05 -0.0005044774195528901 0.0016404217725323328 0.0015341563150191588 0.9983213843957828 -0.00392123563395459
 -8.455048451450856e-05 -0.0005044771125734403 8.760910559471782e-05 0.0008060584047014927 0.9983213843957828 -0.00392123563395459 0.0016404279167794365 0.0015341535099447667
0.01250521050438 0.0017967588877759756 0.0031007263382257016 0.9981211303032168 -0.007843153547610676 0.00012551402222016147 0.0016124406037960326 -0.00011786116473122932 -0.0010114320902689603
 0.9981211303032168 -0.007843153547610676 0.0017967851932195343 0.003100719508023371 -0.00011786373448636716 -0.0010114326406699017 0.00012535081171877527 0.0016124716540516515
 0.00012551402222016147 0.0016124406037960326 -0.00011786373448636716 -0.0010114326406699017 0.0017967584568362833 0.0031005586149236955 0.9981211289396666 -0.007843320975503444
 -0.00011786116473122932 -0.0010114320902689603 0.00012535081171877527 0.0016124716540516515 0.9981211289396666 -0.007843320975503444 0.0017967829795947484 0.0031005526103726057
0.01875781575657 0.001966480953783464 0.004689607167692951 0.9979018562377947 -0.011775559870002686 0.0001714229621487421 0.0024197384880295628 -0.00015777762463026326 -0.001520128262077496
 0.9979018562377947 -0.011775559870002686 0.0019665400725096868 0.0046895960941716166 -0.0001577833649529259 -0.00152012897791924 0.0001710563123788196 0.0024197938425751025
 0.0001714229621487421 0.0024197384880295628 -0.0001577833649529259 -0.00152012897791924 0.0019664804285680747 0.004689355861649789 0.9979018535890902 -0.011775810854321146
 -0.00015777762463026326 -0.001520128262077496 0.0001710563123788196 0.0024197938425751025 0.9979018535890902 -0.011775810854321146 0.0019665355103523864 0.00468934624299994
0.02501042100875 0.002149912775842025 0.006298663914837766 0.9976633095814432 -0.015720283578159924 0.00022546459645051274 0.0032279788403464745 -0.0002043977833839129 -0.0020303369716299937
 0.9976633095814432 -0.015720283578159924 0.0021500177812821637 0.006298648000480657 -0.00020440793363593035 -0.0020303377594257928 0.0002248133089070892 0.003228065642578475
 0.00022546459645051274 0.0032279788403464745 -0.00020440793363593035 -0.0020303377594257928 0.002149912257746228 0.006298329199528251 0.9976633052414134 -0.01572061813771178
 -0.0002043977833839129 -0.0020303369716299937 0.0002248133089070892 0.003228065642578475 0.9976633052414134 -0.01572061813771178 0.002150010041815294 0.006298315536271622
0.03126302626094 0.0023473654576988095 0.007926758127306543 0.9974052240620479 -0.019678147241812265 0.0002877271729102063 0.004037126217461099 -0.0002578168533133419 -0.0025418993379892453
 0.9974052240620479 -0.019678147241812265 0.0023475294090605503 0.007926736742445654 -0.00025783264309406806 -0.0025419000885614786 0.0002867099280268319 0.004037252575940935
 0.0002877271729102063 0.004037126217461099 -0.00025783264309406806 -0.0025419000885614786 0.0023473650666943997 0.007926340208120946 0.9974052176222957 -0.019678565447217702
 -0.0002578168533133419 -0.0025418993379892453 0.0002867099280268319 0.004037252575940935 0.9974052176222957 -0.019678565447217702 0.0023475176663241607 0.007926322055009545
0.037515631513130004 0.002559143423214784 0.009573150072243521 0.9971273272073027 -0.0236495648403619 0.0003582985749165202 0.004847115567865772 -0.00031812804524169146 -0.0030546807061293197
 0.9971273272073027 -0.0236495648403619 0.0025593793701211504 0.009573122555396578 -0.0003181506953887988 -0.0030546812945002307 0.0003568338954075434 0.004847290566466213
 0.0003582985749165202 0.004847115567865772 -0.0003181506953887988 -0.0030546812945002307 0.002559143292575743 0.009572649203189613 0.9971273182500373 -0.023650066797496656
 -0.00031812804524169146 -0.0030546807061293197 0.0003568338954075434 0.004847290566466213 0.9971273182500373 -0.023650066797496656 0.0025593627959660157 0.009572626100971145
0.043768236765320004 0.0027855470254336927 0.011237291318314293 0.9968293431578453 -0.027634749112186413 0.00043726592169609493 0.005657866064203553 -0.0003854228158647954 -0.0035685568133104716
 0.9968293431578453 -0.027634749112186413 0.0027858680116339195 0.011237256976432653 -0.000385453538947504 -0.0035685570986289596 0.00043527215421396007 0.005658099773616924
 0.00043726592169609493 0.005657866064203553 -0.000385453538947504 -0.0035685570986289596 0.002785547309311702 0.011236707807354153 0.9968293312614714 -0.027635334957027496
 -0.0003854228158647954 -0.0035685568133104716 0.00043527215421396007 0.005658099773616924 0.9968293312614714 -0.027635334957027496 0.002785845783912649 0.011236679283295976
0.050020842017509996 0.003026873769486962 0.012918738997310292 0.9965109940970451 -0.03163379722258915 0.0005247153236519314 0.0064692868307921385 -0.00045979096279700533 -0.004083408062169496
 0.9965109940970451 -0.03163379722258915 0.003027292836172628 0.012918697105808365 -0.0004598309634562873 -0.004083407887632688 0.0005221106292988728 0.006469590320611366
 0.0005247153236519314 0.0064692868307921385 -0.0004598309634562873 -0.004083407887632688 0.003026874639567748 0.01291807319916685 0.9965109788304759 -0.031634467128502014
 -0.00045979096279700533 -0.004083408062169496 0.0005221106292988728 0.006469590320611366 0.9965109788304759 -0.031634467128502014 0.0030272641354107234 0.012918038767554253
0.055454545454549996 0.003248942818704808 0.014393727141497063 0.9962175836157636 -0.035120370051283864 0.0006076659638346475 0.007174904348141248 -0.000530232092174236 -0.004531529882435312
 0.9962175836157636 -0.035120370051283864 0.0032494577115257718 0.014393678076291877 -0.0005302811275664063 -0.004531529168502232 0.0006044637455429486 0.007175278254234888
 0.0006076659638346475 0.007174904348141248 -0.0005302811275664063 -0.004531529168502232 0.003248944353148006 0.014392990157916268 0.9962175650634364 -0.03512111317856276
 -0.000530232092174236 -0.004531529882435312 0.0006044637455429486 0.007175278254234888 0.9962175650634364 -0.03512111317856276 0.003249422724598028 0.01439295018814986
0.056273447269699996 0.0032834189359562623 0.014617113721135368 0.9961720010842607 -0.03564673277709157 0.0006207317123336467 0.007281279743692198 -0.0005413206446211947 -0.0045991167239775735
 0.9961720010842607 -0.03564673277709157 0.003283949124697447 0.01461706352400067 -0.0005413711196765658 -0.004599115916783808 0.0006174340631961519 0.007281665094811668
 0.0006207317123336467 0.007281279743692198 -0.0005413711196765658 -0.004599115916783808 0.0032834205839733614 0.014616366038343166 0.9961719820075864 -0.03564748695396185
 -0.0005413206446211947 -0.0045991167239775735 0.0006174340631961519 0.007281665094811668 0.9961719820075864 -0.03564748695396185 0.003283913137442729 0.014616325200776888
0.06252605252188 0.0035554759181463985 0.01633207645349939 0.9958120846058346 -0.039673528882627186 0.0007253987035613109 0.008093740976718873 -0.0006300983672041934 -0.005115565399293239
 0.9958120846058346 -0.039673528882627186 0.0035561302737052635 0.016332017163150154 -0.0006301605057694814 -0.005115563770566661 0.0007213258826482181 0.00809422129383465
 0.0007253987035613109 0.008093740976718873 -0.0006301605057694814 -0.005115563770566661 0.0035554785570914424 0.01633124734289348 0.9958120612695369 -0.03967436757029458
 -0.0006300983672041934 -0.005115565399293239 0.0007213258826482181 0.00809422129383465 0.9958120612695369 -0.03967436757029458 0.003556086193759971 0.01633119958859755
0.06877865777407 0.0038433364021911564 0.018063314710466783 0.995430964972893 -0.04371412188270926 0.0008387984812512868 0.008906561922392777 -0.0007262089478928423 -0.005632636107231528
 0.995430964972893 -0.04371412188270926 0.003844127975421328 0.018063245507690864 -0.0007262839313499559 -0.005632633451992564 0.0008338680853702161 0.008907151346621126
 0.0008387984812512868 0.008906561922392777 -0.0007262839313499559 -0.005632633451992564 0.0038433402670212218 0.01806240467893326 0.9954309369160063 -0.04371504535541502
 -0.0007262089478928423 -0.005632636107231528 0.0008338680853702161 0.008907151346621126 0.9954309369160063 -0.04371504535541502 0.003844075005094583 0.018062349484905673
0.07503126302626001 0.004147290451768154 0.01981053382181007 0.9950283626268541 -0.04776842003592997 0.0009610116924769308 0.009719629782570413 -0.0008297354674239272 -0.006150209708995184
 0.9950283626268541 -0.04776842003592997 0.004148232302605016 0.019810453855422853 -0.0008298244694301666 -0.006150205806088791 0.0009551411367636892 0.009720343504056024
 0.0009610116924769308 0.009719629782570413 -0.0008298244694301666 -0.006150205806088791 0.004147295800876101 0.019809543426360113 0.9950283293762631 -0.04776942860204893
 -0.0008297354674239272 -0.006150209708995184 0.0009551411367636892 0.009720343504056024 0.9950283293762631 -0.04776942860204893 0.004148169654258958 0.019809480257467718
0.08128386827845 0.004467626537232696 0.02157345110700485 0.9946039983922583 -0.05183630928346259 0.0010921173498682683 0.010532827957810778 -0.000940759213090323 -0.006668165536689788
 0.9946039983922583 -0.05183630928346259 0.004468731736633594 0.02157335949367714 -0.0009408633994116595 -0.006668160148756645 0.0010852238738814808 0.010533682228346643
 0.0010921173498682683 0.010532827957810778 -0.0009408633994116595 -0.006668160148756645 0.004467633652858029 0.021572380962618466 0.9946039594612872 -0.05183740327766745
 -0.000940759213090323 -0.006668165536689788 0.0010852238738814808 0.010533682228346643 0.9946039594612872 -0.05183740327766745 0.004468658634291915 0.021572309271639518
0.08753647353064001 0.004804631522214896 0.023351791859484706 0.9941575936919492 -0.05591765721310801 0.0012321927380441857 0.01134603632919295 -0.0010593596163418417 -0.007186381133986978
 0.9941575936919492 -0.05591765721310801 0.004805913155543414 0.023351687683301647 -0.0010594801448175696 -0.007186374007413196 0.001224193413379269 0.011347048474743035
 0.0012321927380441857 0.01134603632919295 -0.0010594801448175696 -0.007186374007413196 0.004804640712336561 0.023350642627213057 0.9941575485793099 -0.05591883700809245
 -0.0010593596163418417 -0.007186381133986978 0.001224193413379269 0.011347048474743035 0.9941575485793099 -0.05591883700809245 0.004805828836575831 0.023350561854725407
0.09378907878283 0.005158590626400935 0.025145286467720084 0.9936888707403649 -0.06001231589100783 0.0013813133236555777 0.012159131457811305 -0.001185614186054554 -0.007704732083424636
 0.9936888707403649 -0.06001231589100783 0.005160061796094878 0.02514516877971509 -0.0011857522064701905 -0.007704722948307714 0.0013721250621102057 0.012160319891065481
 0.0013813133236555777 0.012159131457811305 -0.0011857522064701905 -0.007704722948307714 0.0051586022255537215 0.025144058863415513 0.9936888189291028 -0.0600135818885634
 -0.001185614186054554 -0.007704732083424636 0.0013721250621102057 0.012160319891065481 0.9936888189291028 -0.0600135818885634 0.00515996551248993 0.02514396843767047
0.100041684035 0.005529787367183673 0.026953668308410544 0.9931975527192454 -0.06412012392636086 0.001539552667059951 0.012971986741718055 -0.0013195984386172982 -0.008223091880821412
 0.9931975527192454 -0.06412012392636086 0.005531461195299512 0.026953536126024465 -0.0013197550925623809 -0.008223080450936665 0.001529092229960098 0.012973370974465711
 0.001539552667059951 0.012971986741718055 -0.0013197550925623809 -0.008223080450936665 0.005529801737908628 0.026952363097670646 0.9931974936756781 -0.06412147656216774
 -0.0013195984386172982 -0.008223091880821412 0.001529092229960098 0.012973370974465711 0.9931974936756781 -0.06412147656216774 0.005531352215571348 0.026952262434320143
0.1059090909091 0.0058940445778050445 0.028663946372795474 0.9927157073075399 -0.06798667104941172 0.001696400694835649 0.013734431629397881 -0.001452423968351881 -0.00870941102523565
 0.9927157073075399 -0.06798667104941172 0.005895920533458907 0.028663799664887895 -0.0014525991386576357 -0.00870939716707376 0.0016846706259436676 0.013736018334892856
 0.001696400694835649 0.013734431629397881 -0.0014525991386576357 -0.00870939716707376 0.005894061904575509 0.02866256908011599 0.9927156409756384 -0.06798810540936927
 -0.001452423968351881 -0.00870941102523565 0.0016846706259436676 0.013736018334892856 0.9927156409756384 -0.06798810540936927 0.005895798990609202 0.02866245826688051
0.1062942892872 0.005918503487783416 0.028776672165689694 0.9926833639433109 -0.06824090801496868 0.0017069823352923496 0.013784472535886123 -0.0014613858259592306 -0.008741331851319652
 0.9926833639433109 -0.06824090801496868 0.005920393118681088 0.028776524472153737 -0.0014615622466212172 -0.008741317824091863 0.0016951663434784541 0.013786073191377105
 0.0017069823352923496 0.013784472535886123 -0.0014615622466212172 -0.008741317824091863 0.005918521021314867 0.02877529016789745 0.9926832971154852 -0.06824234775428205
 -0.0014613858259592306 -0.008741331851319652 0.0016951663434784541 0.013786073191377105 0.9926832971154852 -0.06824234775428205 0.005920270729406161 0.028775178669654285
0.11254689453939999 0.006325018873927771 0.030614033022669882 0.99214603001713 -0.07237448411615408 0.0018836718163495873 0.01459645625327429 -0.001611047661244873 -0.009259321089010857
 0.99214603001713 -0.07237448411615408 0.006327137477285585 0.0306138687662493 -0.001611244973288858 -0.009259304145494156 0.0018704167607897723 0.014598295078419801
 0.0018836718163495873 0.01459645625327429 -0.001611244973288858 -0.009259304145494156 0.0063250399919460324 0.030612575106334226 0.9921459548338415 -0.07237601145799587
 -0.001611047661244873 -0.009259321089010857 0.0018704167607897723 0.014598295078419801 0.9921459548338415 -0.07237601145799587 0.006327000984872241 0.030612452162487157
0.11879949979160001 0.006749611462775987 0.03246548511745127 0.9915852779871906 -0.07652065837038574 0.0020696884339460437 0.01540780244736946 -0.0017686530433398732 -0.009776926419969967
 0.9915852779871906 -0.07652065837038574 0.0067519722362448685 0.03246530321066428 -0.0017688723627145653 -0.009776906224823835 0.002054910687071653 0.015409902324868595
 0.0020696884339460437 0.01540780244736946 -0.0017688723627145653 -0.009776906224823835 0.0067496366182624706 0.032463952203593494 0.9915851938565239 -0.07652227384372566
 -0.0017686530433398732 -0.009776926419969967 0.002054910687071653 0.015409902324868595 0.9915851938565239 -0.07652227384372566 0.006751820968418003 0.03246381718954207
0.1250521050438 0.007192557143988971 0.0343307612037547 0.9910008364882326 -0.08067922781808305 0.0022650972627896583 0.016218372887390642 -0.0019342687802256491 -0.010294012377603573
 0.9910008364882326 -0.08067922781808305 0.00719517331609631 0.03433056052240236 -0.001934511213955908 -0.010293988579073923 0.0022487130902892876 0.016220757847662085
 0.0022650972627896583 0.016218372887390642 -0.001934511213955908 -0.010293988579073923 0.0071925868225997495 0.034329154263859164 0.9910007427967341 -0.08068093198343836
 -0.0019342687802256491 -0.010294012377603573 0.0022487130902892876 0.016220757847662085 0.9910007427967341 -0.08068093198343836 0.007195006623655207 0.03432900654038372
0.131304710296 0.0076541296559774555 0.03620959195818723 0.9903924358888878 -0.08484998097771757 0.0024699610443048013 0.017028026624323123 -0.002107959311349399 -0.010810441192127693
 0.9903924358888878 -0.08484998097771757 0.007657014488941531 0.03620937134037707 -0.0021082259573511402 -0.010810413422068383 0.002451886617430714 0.017030721857357992
 0.0024699610443048013 0.017028026624323123 -0.0021082259573511402 -0.010810413422068383 0.0076541643776964164 0.03620791201420402 0.990392332000089 -0.08485177442648788
 -0.002107959311349399 -0.010810441192127693 0.002451886617430714 0.017030721857357992 0.990392332000089 -0.08485177442648788 0.007656831747907535 0.03620775092672315
0.1375573155481 0.00802777302404514 0.037856391586694245 0.9898666753886506 -0.08878727921773193 0.00265826627329082 0.017811902769463428 -0.0022637360709522564 -0.011301353520443948
 0.9898666753886506 -0.08878727921773193 0.00803094033780662 0.03785615469189475 -0.0022640283490785694 -0.011301321742212973 0.00263845967923526 0.017814904139375184
 0.00265826627329082 0.017811902769463428 -0.0022640283490785694 -0.011301321742212973 0.008027812261299136 0.03785463994909728 0.9898665608230255 -0.08878916233128267
 -0.0022637360709522564 -0.011301353520443948 0.00263845967923526 0.017814904139375184 0.9898665608230255 -0.08878916233128267 0.00803074170065408 0.03785446877787364
0.1438099208003 0.008414529905922605 0.03949467178577136 0.9893224849778244 -0.09271475669408347 0.0028541796350286847 0.018592698726975127 -0.002425748637036888 -0.011789454098521343
 0.9893224849778244 -0.09271475669408347 0.008417993080436729 0.03949441775279058 -0.002426067690355947 -0.011789417955202417 0.0028325644881883904 0.01859602925794457
 0.0028541796350286847 0.018592698726975127 -0.002426067690355947 -0.011789417955202417 0.008414574038387584 0.039492849581817174 0.9893223590974607 -0.09271673005831152
 -0.002425748637036888 -0.011789454098521343 0.0028325644881883904 0.01859602925794457 0.9893223590974607 -0.09271673005831152 0.008417778099875031 0.03949266789003636
0.1500625260525 0.008814266373463038 0.04112430035182368 0.9887600025782505 -0.09663232062005021 0.003057634910518143 0.01937033764795 -0.002593932765543993 -0.012274670504252452
 0.9887600025782505 -0.09663232062005021 0.00881803882145981 0.041124028268980414 -0.0025942797323725425 -0.01227462962487583 0.0030341352200312934 0.0193740212132916
 0.003057634910518143 0.01937033764795 -0.0025942797323725425 -0.01227462962487583 0.008814315801362166 0.041122408753428596 0.9887598647250835 -0.09663438484453075
 -0.002593932765543993 -0.012274670504252452 0.0030341352200312934 0.0193740212132916 0.9887598647250835 -0.09663438484453075 0.008817807083341109 0.04112221606794555
0.15631513130469998 0.009226847573556445 0.042745149095191254 0.9881793667855063 -0.10053987844377293 0.003268565109086068 0.0201447439574071 -0.0027682234321259468 -0.012756931828742607
