! Created with skrf 1.8.0 (http://scikit-rf.org).
# GHz S RI R 50.0 
!freq ReS11 ImS11 ReS12 ImS12 ReS13 ImS13
! ReS14 ImS14
! ReS21 ImS21 ReS22 ImS22 ReS23 ImS23
! ReS24 ImS24
! ReS31 ImS31 ReS32 ImS32 ReS33 ImS33
! ReS34 ImS34
! ReS41 ImS41 ReS42 ImS42 ReS43 ImS43
! ReS44 ImS44
!
0.0 0.001552142686854 0.0 0.9984478573018 0.0 6.004910446655e-05 0.0 -6.004910286793e-05 7.353894161888062e-21
 0.9984478573018 0.0 0.001552142686878 0.0 -6.004910286859e-05 7.353894161968889e-21 6.004910446748e-05 0.0
 6.004910446655e-05 0.0 -6.004910286859e-05 7.353894161968889e-21 0.001552142682614 0.0 0.9984478572975 0.0
 -6.004910286793e-05 7.353894161888062e-21 6.004910446748e-05 0.0 0.9984478572975 0.0 0.001552142682604 0.0
0.005 0.0016700354537438132 0.0012667115631519073 0.9982986905864176 -0.0032514427195174077 8.463361963419382e-05 0.000680161182604785 -8.206523212215043e-05 -0.00042368858302949
 0.9982986905864176 -0.0032514427195174077 0.001670049059708199 0.0012667036708842287 -8.2063723372785e-05 -0.0004236875158481992 8.455766184144905e-05 0.0006801901999556911
 8.463361963419382e-05 0.000680161182604785 -8.2063723372785e-05 -0.0004236875158481992 0.001670035421419448 0.0012666443743856936 0.998298690231181 -0.0032515097857733224
 -8.206523212215043e-05 -0.00042368858302949 8.455766184144905e-05 0.0006801901999556911 0.998298690231181 -0.0032515097857733224 0.0016700483912123764 0.0012666367369501392
0.006252605252188 0.0017009620570778254 0.001588385398949066 0.9982593092892714 -0.004065098592297615 9.166725768035087e-05 0.0008505214413763411 -8.828729061608468e-05 -0.0005301621458306445
 0.9982593092892714 -0.004065098592297615 0.0017009833249940565 0.0015883753577648628 -8.828494216414414e-05 -0.0005301608319777889 9.154858181261955e-05 0.0008505591051025323
 9.166725768035087e-05 0.0008505214413763411 -8.828494216414414e-05 -0.0005301608319777889 0.0017009620756631113 0.0015883014293801 0.9982593088034015 -0.004065182420730063
 -8.828729061608468e-05 -0.0005301621458306445 9.154858181261955e-05 0.0008505591051025323 0.9982593088034015 -0.004065182420730063 0.0017009823499154067 0.001588291692056644
0.01250521050438 0.0018638067702020859 0.0032101438478266474 0.9980505565692119 -0.008131006842287085 0.00013205566284219835 0.0017013371897860125 -0.0001236230012266466 -0.0010629054740276837
 0.9980505565692119 -0.008131006842287085 0.0018638916830096722 0.0032101219872242297 -0.0001236137371728929 -0.0010629030682104735 0.00013158244417877017 0.0017014275524976498
 0.00013205566284219835 0.0017013371897860125 -0.0001236137371728929 -0.0010629030682104735 0.0018638073875746773 0.0032099762945998985 0.9980505551767302 -0.008131174264068652
 -0.0001236230012266466 -0.0010629054740276837 0.00013158244417877017 0.0017014275524976498 0.9980505551767302 -0.008131174264068652 0.0018638883501670633 0.0032099548951884578
0.01875781575657 0.0020410350342359965 0.004855049335590051 0.9978213378922262 -0.012207620789793395 0.00018130757485102658 0.0025530340816282433 -0.00016616593118294956 -0.0015974355488632295
 0.9978213378922262 -0.012207620789793395 0.002041225817501148 0.0048550137388919225 -0.00016614525945082866 -0.0015974323193510313 0.00018024462018716413 0.0025531951545680093
 0.00018130757485102658 0.0025530340816282433 -0.00016614525945082866 -0.0015974323193510313 0.0020410368351204606 0.0048547984797884455 0.9978213351836978 -0.012207871750626409
 -0.00016616593118294956 -0.0015974355488632295 0.00018024462018716413 0.0025531951545680093 0.9978213351836978 -0.012207871750626409 0.0020412187770421537 0.004854763358450474
0.02501042100875 0.0022329942988102507 0.006520789539070568 0.9975713816491216 -0.01629691188759663 0.00023951781445300782 0.003405648611317251 -0.0002160220731757795 -0.0021335022677769137
 0.9975713816491216 -0.01629691188759663 0.0022333330815060893 0.006520738164609597 -0.00021598555133868434 -0.002133498533500345 0.00023762989241144262 0.00340590127380144
 0.00023951781445300782 0.003405648611317251 -0.00021598555133868434 -0.002133498533500345 0.0022329978555764266 0.006520455673465011 0.9975713772047348 -0.01629724639852518
 -0.0002160220731757795 -0.0021335022677769137 0.00023762989241144262 0.00340590127380144 0.9975713772047348 -0.01629724639852518 0.0022333209944304967 0.006520404646980722
0.03126302626094 0.0024400176212811156 0.008206172036957098 0.9973004024717711 -0.020399720762875582 0.00030678171813466664 0.0042591365956674305 -0.0002732943434296345 -0.0026709301575296423
 0.9973004024717711 -0.020399720762875582 0.0024405464586074936 0.008206102720399665 -0.0002732375703190065 -0.0026709262886903833 0.00030383334126934556 0.004259504609831907
 0.00030678171813466664 0.0042591365956674305 -0.0002732375703190065 -0.0026709262886903833 0.0024400235055923253 0.008205755495308385 0.9973003958704046 -0.020400138871483335
 -0.0002732943434296345 -0.0026709301575296423 0.00030383334126934556 0.004259504609831907 0.9973003958704046 -0.020400138871483335 0.0024405280060962875 0.008205686258953543
0.037515631513130004 0.0026624308011255543 0.009910417491582082 0.9970081085987976 -0.024516463974943933 0.00038319414764311036 0.005113421965588414 -0.0003380833439266527 -0.0032095695826457066
 0.9970081085987976 -0.024516463974943933 0.0026631916893297683 0.009910327946889385 -0.0003380019553761167 -0.003209566000949454 0.0003789494764185361 0.005113932003772335
 0.00038319414764311036 0.005113421965588414 -0.0003380019553761167 -0.003209566000949454 0.002662439583051301 0.009909918657905694 0.9970080994145998 -0.024516965756465302
 -0.0003380833439266527 -0.0032095695826457066 0.0003789494764185361 0.005113932003772335 0.9970080994145998 -0.024516965756465302 0.0026631655710253267 0.00990982878626022
0.043768236765320004 0.002900555132271719 0.011632944552730519 0.9966942048623586 -0.028647349041581963 0.0004688490224602799 0.005968411608577322 -0.00041048763614131157 -0.003749281905846797
 0.9966942048623586 -0.028647349041581963 0.0029015900205616404 0.011632832372552648 -0.0004103773026521459 -0.003749279084639889 0.00046307182138225655 0.005969093284587522
 0.0004688490224602799 0.005968411608577322 -0.0004103773026521459 -0.003749279084639889 0.0029005673810366538 0.01163236385263226 0.9966941926625382 -0.028647934607858045
 -0.00041048763614131157 -0.003749281905846797 0.00046307182138225655 0.005969093284587522 0.9966941926625382 -0.028647934607858045 0.002901554953527537 0.011632250799902958
0.050020842017509996 0.003154708681452282 0.013373280945937122 0.9963583942042222 -0.03279246327911924 0.0005638390413112501 0.0068240014986948065 -0.0004906038365153412 -0.004289933363960996
 0.9963583942042222 -0.03279246327911924 0.0031560594821977515 0.013373143601706852 -0.0004904602617501939 -0.004289931828324625 0.0005562926628980112 0.006824887400628664
 0.0005638390413112501 0.0068240014986948065 -0.0004904602617501939 -0.004289931828324625 0.003154724968446101 0.013372618852368056 0.9963583785499506 -0.03279313277314705
 -0.0004906038365153412 -0.004289933363960996 0.0005562926628980112 0.006824887400628664 0.9963583785499506 -0.03279313277314705 0.003156014203393534 0.013372479952384534
0.055454545454549996 0.003388838588819947 0.014899832237476745 0.9960485419981989 -0.03640625871143088 0.0006540404533485338 0.007567935754514341 -0.0005665638466052175 -0.004760436102949068
 0.9960485419981989 -0.03640625871143088 0.0033904979433624608 0.014899670877027866 -0.0005663879201019364 -0.004760436151178233 0.0006447640998484676 0.007569027935631569
 0.0006540404533485338 0.007567935754514341 -0.0005663879201019364 -0.004760436151178233 0.0033888588517169997 0.014899099836330712 0.9960485229798698 -0.03640700127675344
 -0.0005665638466052175 -0.004760436102949068 0.0006447640998484676 0.007569027935631569 0.9960485229798698 -0.03640700127675344 0.00339044277978625 0.014898936215351407
0.056273447269699996 0.003425206941665835 0.015131019841292993 0.9960003785711284 -0.036951817363479626 0.0006682554815528047 0.007680079715531316 -0.0005785266377731882 -0.004831392058481179
 0.9960003785711284 -0.036951817363479626 0.0034269155395566775 0.01513085468292759 -0.0005783455576708581 -0.004831392385303829 0.0006587028669661685 0.007681205439224822
 0.0006682554815528047 0.007680079715531316 -0.0005783455576708581 -0.004831392385303829 0.00342522784159181 0.015130276879916492 0.9960003590163489 -0.03695257095426382
 -0.0005785266377731882 -0.004831392058481179 0.0006587028669661685 0.007681205439224822 0.9960003590163489 -0.03695257095426382 0.003426858805755337 0.015130109345854088
0.06252605252188 0.0037123631807569604 0.016905795872565448 0.9956198595103452 -0.041125369243927797 0.0007821880440135107 0.00853652808872716 -0.0006743487858047694 -0.005373526324682913
 0.9956198595103452 -0.041125369243927797 0.0037144714415983226 0.016905600127872476 -0.0006741259680037763 -0.005373529142711977 0.0007703917347657768 0.008537932271395638
 0.0007821880440135107 0.00853652808872716 -0.0006741259680037763 -0.005373529142711977 0.0037123892718022708 0.016904972623541195 0.9956198355989522 -0.0411262071247961
 -0.0006743487858047694 -0.005373526324682913 0.0007703917347657768 0.008537932271395638 0.9956198355989522 -0.0411262071247961 0.0037144020290446936 0.0169047735473994
0.06877865777407 0.004016488620075616 0.018697270831975057 0.99521653859749 -0.04531303838493159 0.0009057247163086841 0.00939322319955414 -0.0007781610378059469 -0.005916203748139604
 0.99521653859749 -0.04531303838493159 0.004019038398900655 0.018697041605987348 -0.000777892281348658 -0.00591620973803604 0.000891446873962206 0.009394947553371983
 0.0009057247163086841 0.00939322319955414 -0.000777892281348658 -0.00591620973803604 0.004016520487435055 0.01869636791891717 0.9952165098651534 -0.04531396078486824
 -0.0007781610378059469 -0.005916203748139604 0.000891446873962206 0.009394947553371983 0.9952165098651534 -0.04531396078486824 0.00401895510599558 0.018696134270717556
0.07503126302626001 0.004337892517434823 0.0205051246053949 0.9947901177745663 -0.0495147147726562 0.0010389516518034523 0.010250037010820619 -0.0008900521041993758 -0.00645929055765228
 0.9947901177745663 -0.0495147147726562 0.004340925666892863 0.020504858879160575 -0.0008897332394438734 -0.006459300452018927 0.0010219540833874595 0.010252126356287692
 0.0010389516518034523 0.010250037010820619 -0.0008897332394438734 -0.006459300452018927 0.004337930752969778 0.020504142709715314 0.9947900837449979 -0.049515721941760044
 -0.0008900521041993758 -0.00645929055765228 0.0010219540833874595 0.010252126356287692 0.9947900837449979 -0.049515721941760044 0.0043408273127576395 0.02050387133651035
0.08128386827845 0.004676882185861084 0.022329049144532306 0.9943402996262357 -0.0537302648889037 0.0011819530563017453 0.011106837292943268 -0.0010101085817738839 -0.0070026512269732565
 0.9943402996262357 -0.0537302648889037 0.0046804405642391494 0.022328743773784895 -0.0010097354703442268 -0.007002665810388866 0.001161997244573584 0.011109339591914518
 0.0011819530563017453 0.011106837292943268 -0.0010097354703442268 -0.007002665810388866 0.004676927391152556 0.022327988997190837 0.994340259812421 -0.053731357106893016
 -0.0010101085817738839 -0.0070026512269732565 0.001161997244573584 0.011109339591914518 0.994340259812421 -0.053731357106893016 0.004680325991543995 0.02232767662170451
0.08753647353064001 0.005033762971734232 0.024168744294046956 0.9938667876194499 -0.05795953583607633 0.0013348110797191416 0.011963487928727264 -0.0011384148810218836 -0.007546148202919457
 0.9938667876194499 -0.05795953583607633 0.005037888450674515 0.024168396007613845 -0.0011379834159469687 -0.007546168311952941 0.0013116582167838806 0.011966454317013347
 0.0013348110797191416 0.011963487928727264 -0.0011379834159469687 -0.007546168311952941 0.0050338157585208595 0.024167606678117945 0.9938667415212489 -0.05796071340948785
 -0.0011384148810218836 -0.007546148202919457 0.0013116582167838806 0.011966454317013347 0.9938667415212489 -0.05796071340948785 0.005037756525101088 0.0241672498972387
0.09378907878283 0.005408838203693882 0.026023914819080025 0.9933692863181277 -0.062202358267067104 0.0014976057116009222 0.01281984913274647 -0.001275053148232162 -0.008089641724267514
 0.9933692863181277 -0.062202358267067104 0.005413572676612423 0.026023520216914356 -0.0012745592541496646 -0.00808966824748049 0.0014710167361885868 0.012823333952215856
 0.0014976057116009222 0.01281984913274647 -0.0012745592541496646 -0.00808966824748049 0.0054088991960181245 0.026022700569675917 0.9933692334217528 -0.06220362152934358
 -0.001275053148232162 -0.008089641724267514 0.0014710167361885868 0.012823333952215856 0.9933692334217528 -0.06220362152934358 0.005413422288193572 0.02602229585259329
0.100041684035 0.005802409121891939 0.027894268222243702 0.9928475015806122 -0.06645854853194698 0.0016704146794084753 0.01367577762262434 -0.0014201031843652523 -0.008632989694075856
 0.9928475015806122 -0.06645854853194698 0.005807794511343818 0.02789382377322112 -0.0014195428177703738 -0.008633023572020717 0.0016401503163771623 0.013679838452813117
 0.0016704146794084753 0.01367577762262434 -0.0014195428177703738 -0.008633023572020717 0.0058024789575920445 0.02789297822682012 0.9928474413576456 -0.06645989784280586
 -0.0014201031843652523 -0.008632989694075856 0.0016401503163771623 0.013679838452813117 0.9928474413576456 -0.06645989784280586 0.005807624575368437 0.027892521912956554
0.1059090909091 0.006188821742648582 0.029662945593387998 0.9923355157088506 -0.07046451482645866 0.0018417526605240832 0.01447845159534169 -0.0015639366253578193 -0.00914260305222654
 0.9923355157088506 -0.07046451482645866 0.006194856109687656 0.029662451037849803 -0.0015633102324994971 -0.009142644733524715 0.0018078215644388908 0.014483108229660977
 0.0018417526605240832 0.01447845159534169 -0.0015633102324994971 -0.009142644733524715 0.006188900470665591 0.029661585370831252 0.9923354481159183 -0.07046594523650197
 -0.0015639366253578193 -0.00914260305222654 0.0018078215644388908 0.014483108229660977 0.9923354481159183 -0.07046594523650197 0.006194666867020866 0.02966107719186836
0.1062942892872 0.0062147747909902335 0.02977951310649452 0.9923011407449669 -0.07072791028475044 0.001853313347602145 0.014531126756096911 -0.0015736423619000376 -0.009176047591916925
 0.9923011407449669 -0.07072791028475044 0.006220853057143695 0.029779015145855982 -0.0015730115114722034 -0.009176089817117511 0.0018191341500810297 0.014535824445088342
 0.001853313347602145 0.014531126756096911 -0.0015730115114722034 -0.009176089817117511 0.006214854123327582 0.029778148303829653 0.9923010726511786 -0.07072934603105102
 -0.0015736423619000376 -0.009176047591916925 0.0018191341500810297 0.014535824445088342 0.9923010726511786 -0.07072934603105102 0.006220662514927801 0.029777636600405485
0.11254689453939999 0.0066462320029413765 0.031679357928246395 0.9917299128064769 -0.07501023570658837 0.002046374619121933 0.015385746641870906 -0.001735745538852848 -0.009718668417934803
 0.9917299128064769 -0.07501023570658837 0.006653045150864069 0.03167880265479968 -0.0017350402257614423 -0.00971872003485562 0.0020080410125256037 0.015391145336647658
 0.002046374619121933 0.015385746641870906 -0.0017350402257614423 -0.00971872003485562 0.006646321501750849 0.031677919308385566 0.9917298362806083 -0.07501175830198907
 -0.001735745538852848 -0.009718668417934803 0.0020080410125256037 0.015391145336647658 0.9917298362806083 -0.07501175830198907 0.00665283297069423 0.03167734828773099
0.11879949979160001 0.007097075168429847 0.03359351002448531 0.9911335285879302 -0.07930530646128157 0.002249668836569105 0.016239484237191126 -0.001906484972137946 -0.010260702656056936
 0.9911335285879302 -0.07930530646128157 0.0071046652567622786 0.03359289349740896 -0.0019057012505081827 -0.010260764761065577 0.0022069411649039785 0.016245651413221412
 0.002249668836569105 0.016239484237191126 -0.0019057012505081827 -0.010260764761065577 0.0070971755224386104 0.03359199862898898 0.9911334430507975 -0.0793069163456545
 -0.001906484972137946 -0.010260702656056936 0.0022069411649039785 0.016245651413221412 0.9911334430507975 -0.0793069163456545 0.007104430434832766 0.03359136422553032
0.1250521050438 0.0075675962036957315 0.035521674848353044 0.990511700906414 -0.08361289444950488 0.0024632636851178416 0.017092183432999807 -0.0020859302292975126 -0.010801998255515885
 0.990511700906414 -0.08361289444950488 0.007576005352055618 0.03552099298370531 -0.002085064186588414 -0.010802071996826701 0.00241590225869507 0.01709918992306314
 0.0024632636851178416 0.017092183432999807 -0.002085064186588414 -0.010802071996826701 0.007567708121796648 0.03552009177114655 0.9905116057602825 -0.08361459208758878
 -0.0020859302292975126 -0.010801998255515885 0.00241590225869507 0.01709918992306314 0.9905116057602825 -0.08361459208758878 0.007575746913590235 0.035519389778126735
0.131304710296 0.008058084409857866 0.03746355536553511 0.9898641447371963 -0.08793276240897979 0.0026872240956278192 0.01794368513173267 -0.002274148099253635 -0.011342400625822245
 0.9898641447371963 -0.08793276240897979 0.008067354807009763 0.037462803932445624 -0.002273195856756225 -0.01134248720344106 0.0026349892406473487 0.01795160515399377
 0.0026872240956278192 0.01794368513173267 -0.002273195856756225 -0.01134248720344106 0.008058208622703296 0.03746190175091596 0.9898640393637267 -0.08793454829180167
 -0.002274148099253635 -0.011342400625822245 0.0026349892406473487 0.01795160515399377 0.9898640393637267 -0.08793454829180167 0.008067071806975409 0.03746112781672488
0.1375573155481 0.008456917211273703 0.0391650225950586 0.9893025293279144 -0.09201072364086488 0.0028937897962453183 0.01876835524913302 -0.0024434429164058597 -0.011856253901041516
 0.9893025293279144 -0.09201072364086488 0.008467095168385192 0.039164214167982006 -0.002442398987303002 -0.011856353436095455 0.002836558325463948 0.018777177974186623
 0.0028937897962453183 0.01876835524913302 -0.002442398987303002 -0.011856353436095455 0.00845705536135047 0.03916329886552678 0.9893024132475536 -0.09201259807873366
 -0.0024434429164058597 -0.011856253901041516 0.002836558325463948 0.018777177974186623 0.9893024132475536 -0.09201259807873366 0.00846678550878684 0.03916246661797925
0.1438099208003 0.008869793292634542 0.04085738340340731 0.988721126312069 -0.09607821257156073 0.0031087065200881715 0.019589604872888 -0.0026195111475671605 -0.012366999369882734
 0.988721126312069 -0.09607821257156073 0.008880921745998154 0.040856514803931994 -0.0026183714118044508 -0.01236711303688202 0.0030462598276160316 0.019599398271521275
 0.0031087065200881715 0.019589604872888 -0.0026183714118044508 -0.01236711303688202 0.008869946308165165 0.04085559069188129 0.9887209989056984 -0.09608017604921178
 -0.0026195111475671605 -0.012366999369882734 0.0030462598276160316 0.019599398271521275 0.9887209989056984 -0.09608017604921178 0.008880584315510073 0.040854696960091544
0.1500625260525 0.009296565224641078 0.04254049236477103 0.9881200873025242 -0.10013512413886742 0.003331899400134044 0.020407347133763555 -0.002802280525549799 -0.012874555806965343
 0.9881200873025242 -0.10013512413886742 0.009308687206122924 0.04253956022894564 -0.0028010408760908946 -0.012874684826985883 0.003264020242832565 0.020418181649490084
 0.003331899400134044 0.020407347133763555 -0.0028010408760908946 -0.012874684826985883 0.009296734066306954 0.0425386318456524 0.9881199479340674 -0.10013717715950908
 -0.002802280525549799 -0.012874555806965343 0.003264020242832565 0.020418181649490084 0.9881199479340674 -0.10013717715950908 0.009308320908566278 0.042537673279044945
0.15631513130469998 0.009737084505180916 0.04421420843683789 0.9874995647123004 -0.1041813537397512 0.0035632926666194155 0.02122149665102248 -0.002991677878096111 -0.013378843725536077
 0.9874995647123004 -0.1041813537397512 0.009750243145059899 0.0442132092108618 -0.0029903342211511858 -0.013378989365931456 0.003489765186419094 0.021233445172728002
