! Created with skrf 1.8.0 (http://scikit-rf.org).
# GHz S RI R 50.0 
!freq ReS11 ImS11 ReS12 ImS12 ReS13 ImS13
! ReS14 ImS14
! ReS21 ImS21 ReS22 ImS22 ReS23 ImS23
! ReS24 ImS24
! ReS31 ImS31 ReS32 ImS32 ReS33 ImS33
! ReS34 ImS34
! ReS41 ImS41 ReS42 ImS42 ReS43 ImS43
! ReS44 ImS44
!
0.0 0.001602073212239 0.0 0.9983979267707 0.0 6.174148195282e-05 0.0 -6.174148195178e-05 7.561150824686146e-21
 0.9983979267707 0.0 0.001602073212246 0.0 -6.17414819528e-05 7.561150824811061e-21 6.174148195176e-05 0.0
 6.174148195282e-05 0.0 -6.17414819528e-05 7.561150824811061e-21 0.001602073220785 0.0 0.9983979267792 0.0
 -6.174148195178e-05 7.561150824686146e-21 6.174148195176e-05 0.0 0.9983979267792 0.0 0.001602073220739 0.0
0.005 0.0017238447214026884 0.0013133470989103884 0.9982438630846495 -0.003355527832654423 8.612523401523653e-05 0.0006632005415138002 -8.377000368494381e-05 -0.00041922459596571254
 0.9982438630846495 -0.003355527832654423 0.0017238431719127894 0.0013133480210931795 -8.377233164689236e-05 -0.0004192264120533492 8.613303320317919e-05 0.0006631976747278278
 8.612523401523653e-05 0.0006632005415138002 -8.377233164689236e-05 -0.0004192264120533492 0.0017238430158842463 0.00131328085967616 0.9982438627272006 -0.0033555949011246406
 -8.377000368494381e-05 -0.00041922459596571254 8.613303320317919e-05 0.0006631976747278278 0.9982438627272006 -0.0033555949011246406 0.0017238441653790013 0.0013132801247814191
0.006252605252188 0.001755833499266632 0.0016468296758443118 0.9982031322432652 -0.004195220964886683 9.310429841931467e-05 0.0008293274824019064 -9.000672696187631e-05 -0.0005245657592043014
 0.9982031322432652 -0.004195220964886683 0.00175583107651947 0.001646830808250543 -9.001034923611981e-05 -0.0005245679988222809 9.311648512584254e-05 0.000829323742953101
 9.310429841931467e-05 0.0008293274824019064 -9.001034923611981e-05 -0.0005245679988222809 0.001755830897469432 0.0016467468957711508 0.9982031317490733 -0.004195304787421215
 -9.000672696187631e-05 -0.0005245657592043014 9.311648512584254e-05 0.000829323742953101 0.9982031317490733 -0.004195304787421215 0.001755832694620456 0.0016467459466958938
0.01250521050438 0.0019245306300440048 0.0033279731814891103 0.9979869012352949 -0.008391171704823114 0.00013319570371950591 0.0016590499495389322 -0.00012548550029992586 -0.0010516249405190497
 0.9979869012352949 -0.008391171704823114 0.0019245209494645086 0.0033279752458115516 -0.0001254997726768666 -0.0010516290845914537 0.00013324433848509122 0.0016590407957775765
 0.00013319570371950591 0.0016590499495389322 -0.0001254997726768666 -0.0010516290845914537 0.00192452080289093 0.0033278079524876763 0.9979868998290339 -0.008391339096650042
 -0.00012548550029992586 -0.0010516249405190497 0.00013324433848509122 0.0016590407957775765 0.9979868998290339 -0.008391339096650042 0.001924527984912926 0.0033278057265896978
0.01875781575657 0.0021085438956815975 0.005032876970335976 0.9977489570329338 -0.012598048535530322 0.00018211113944891085 0.0024896949695640855 -0.000168288767422571 -0.0015804343926875632
 0.9977489570329338 -0.012598048535530322 0.002108522130813519 0.00503287977725109 -0.00016832059149387692 -0.0015804400395801339 0.00018222048010979396 0.0024896784095282767
 0.00018211113944891085 0.0024896949695640855 -0.00016832059149387692 -0.0015804400395801339 0.002108522229381928 0.005032629514332236 0.9977489542980238 -0.012598299406334312
 -0.000168288767422571 -0.0015804343926875632 0.00018222048010979396 0.0024896784095282767 0.9977489542980238 -0.012598299406334312 0.002108538379375518 0.005032625616808562
0.02501042100875 0.002308240758144705 0.00675914775146988 0.997489011677413 -0.016817875679016454 0.0002399469860735506 0.0033212835204434903 -0.00021852376684947745 -0.002110751217683823
 0.997489011677413 -0.016817875679016454 0.0023082020836235465 0.006759151119014371 -0.00021857996036931006 -0.00211075789231218 0.00024014135355921018 0.0033212572495936042
 0.0002399469860735506 0.0033212835204434903 -0.00021857996036931006 -0.00211075789231218 0.0023082026377922358 0.006758818307076681 0.9974890071924379 -0.01681820997391217
 -0.00021852376684947745 -0.002110751217683823 0.00024014135355921018 0.0033212572495936042 0.9974890071924379 -0.01681820997391217 0.0023082313371218578 0.006758812275797396
0.03126302626094 0.0025239735094628782 0.008505546808430617 0.9972067629164207 -0.021051510914019078 0.00030679981135282365 0.004153762010009348 -0.0002762946181539147 -0.0026424007753420974
 0.9972067629164207 -0.021051510914019078 0.0025239130974471485 0.008505550561400212 -0.0002763819291885469 -0.0026424079283329464 0.0003071036117288342 0.004153723407401371
 0.00030679981135282365 0.004153762010009348 -0.0002763819291885469 -0.0026424079283329464 0.0025239143275963428 0.008505135645291415 0.9972067562652757 -0.02105192859950745
 -0.0002762946181539147 -0.0026424007753420974 0.0003071036117288342 0.004153723407401371 0.9972067562652757 -0.02105192859950745 0.0025239591558793933 0.008505126949976795
0.037515631513130004 0.0027560867244652474 0.010271261091537953 0.9969019019180623 -0.025299374420469176 0.0003827654821047723 0.004987047170049163 -0.0003417030413236378 -0.003175231799356477
 0.9969019019180623 -0.025299374420469176 0.002755999742566492 0.010271265061230477 -0.00034182815553406904 -0.003175238806831108 0.00038320321730789155 0.00498699329361066
 0.0003827654821047723 0.004987047170049163 -0.00034182815553406904 -0.003175238806831108 0.0027560018737639662 0.010270768526167278 0.9969018926823427 -0.0252998754692064
 -0.0003417030413236378 -0.003175231799356477 0.00038320321730789155 0.00498699329361066 0.9969018926823427 -0.0252998754692064 0.0027560664076533986 0.010270756567306742
0.043768236765320004 0.0030049201302820706 0.012055681407597375 0.9965741164018868 -0.02956167051700426 0.0004679387391422689 0.0058210397024711725 -0.00041484860607010263 -0.003709102760073307
 0.9965741164018868 -0.02956167051700426 0.0030048017396810873 0.012055685431758716 -0.0004150181509711196 -0.00370910892358203 0.00046853501316512064 0.005820967283981831
 0.0004679387391422689 0.0058210397024711725 -0.0004150181509711196 -0.00370910892358203 0.00300480500491552 0.01205510778876241 0.99657410416255 -0.029562254922979026
 -0.00041484860607010263 -0.003709102760073307 0.00046853501316512064 0.005820967283981831 0.99657410416255 -0.029562254922979026 0.0030048928168852945 0.012055091896751503
0.050020842017509996 0.003270809935623136 0.013858310726361301 0.9962230922331108 -0.033838479280124865 0.0005624129346141062 0.0066556299243065225 -0.0004958288150236595 -0.004243876230661695
 0.9962230922331108 -0.033838479280124865 0.0032706552894336497 0.013858314649347253 -0.0004960493627120307 -0.004243880777198491 0.0005631924570865924 0.00665553536425165
 0.0005624129346141062 0.0066556299243065225 -0.0004960493627120307 -0.004243880777198491 0.003270659931550497 0.013857656459776537 0.9962230765702653 -0.03383914703475461
 -0.0004958288150236595 -0.004243876230661695 0.0005631924570865924 0.00665553536425165 0.9962230765702653 -0.03383914703475461 0.0032707745883993685 0.013857635893854307
0.055454545454549996 0.003515987091036533 0.015439303138447878 0.9958989242990092 -0.03756694381174317 0.0006521386903626999 0.0073813085719735185 -0.000572639938123187 -0.00470923784175349
 0.9958989242990092 -0.03756694381174317 0.0035157969941243803 0.015439306852258125 -0.0005729101044581017 -0.004709240297427234 0.0006530976122563071 0.007381191585711567
 0.0006521386903626999 0.0073813085719735185 -0.0005729101044581017 -0.004709240297427234 0.0035158030384646634 0.015438579148020902 0.9958989053188743 -0.037567684002573244
 -0.000572639938123187 -0.00470923784175349 0.0006530976122563071 0.007381191585711567 0.9958989053188743 -0.037567684002573244 0.0035159439154491485 0.015438553862867823
0.056273447269699996 0.0035540895081472485 0.015678719205726215 0.9958485143689156 -0.0381298014464863 0.0006662798415258463 0.007490700535907976 -0.0005847391118402326 -0.004779416133801554
 0.9958485143689156 -0.0381298014464863 0.0035538937500613345 0.01567872287854654 -0.000585017180803952 -0.004779418215823375 0.0006672674298373493 0.0074905798982019215
 0.0006662798415258463 0.007490700535907976 -0.000585017180803952 -0.004779418215823375 0.0035539000226872835 0.01567798473857611 0.9958484948609072 -0.038130552554680716
 -0.0005847391118402326 -0.004779416133801554 0.0006672674298373493 0.0074905798982019215 0.9958484948609072 -0.038130552554680716 0.003554045084029283 0.01567795868601696
0.06252605252188 0.003855089730057296 0.017516519446933745 0.9954500674872128 -0.04243558308876396 0.0007796294978166214 0.008326128151513748 -0.0006816728523595929 -0.005315586230367424
 0.9954500674872128 -0.04243558308876396 0.0038548479928445984 0.017516522727454038 -0.0006820149087340459 -0.005315584925847096 0.0007808500782621157 0.008325977158121924
 0.0007796294978166214 0.008326128151513748 -0.0006820149087340459 -0.005315584925847096 0.003854856163791108 0.017515705277366806 0.9954500437116305 -0.04243641756020899
 -0.0006816728523595929 -0.005315586230367424 0.0007808500782621157 0.008325977158121924 0.9954500437116305 -0.04243641756020899 0.0038550351799555337 0.01751567285251345
0.06877865777407 0.004174139181636667 0.01937135175323933 0.9950274364476597 -0.04675573029252769 0.0009025500717722889 0.009161784209803759 -0.0007867212523403476 -0.005852249232973121
 0.9950274364476597 -0.04675573029252769 0.004173846586031664 0.019371354506461658 -0.0007871337107248453 -0.005852243545453654 0.0009040286800627393 0.009161598235345915
 0.0009025500717722889 0.009161784209803759 -0.0007871337107248453 -0.005852243545453654 0.004173856937162093 0.019370458424947716 0.9950274079796401 -0.04675664814776663
 -0.0007867212523403476 -0.005852249232973121 0.0009040286800627393 0.009161598235345915 0.9950274079796401 -0.04675664814776663 0.0041740734476244665 0.01937041866840644
0.07503126302626001 0.0045115642180400895 0.021242874770788015 0.9945803066496303 -0.05109011845635921 0.0010351277380922766 0.009997535566005064 -0.0008999733228214351 -0.006389266243155641
 0.9945803066496303 -0.05109011845635921 0.004511215871187783 0.021242876869054274 -0.0009004625468112666 -0.006389255101812085 0.0010368895190649718 0.00999730963231005
 0.0010351277380922766 0.009997535566005064 -0.0009004625468112666 -0.006389255101812085 0.004511228701524021 0.02124190288445238 0.9945802730627027 -0.05109111971594611
 -0.0008999733228214351 -0.006389266243155641 0.0010368895190649718 0.00999730963231005 0.9945802730627027 -0.05109111971594611 0.004511486232740173 0.02124185476228734
0.08128386827845 0.004867688982968844 0.023130759286226377 0.9941083643322225 -0.05543859844072705 0.0011774465614478652 0.010833244883574103 -0.0010215157959293443 -0.006926496394437484
 0.9941083643322225 -0.05543859844072705 0.004867279977113721 0.023130760609591215 -0.0010220880984285303 -0.0069264786541534595 0.0011795167688493037 0.01083297365416273
 0.0011774465614478652 0.010833244883574103 -0.0010220880984285303 -0.0069264786541534595 0.004867295604355939 0.023129709488952096 0.9941083251973553 -0.055439683136595225
 -0.0010215157959293443 -0.006926496394437484 0.0011795167688493037 0.01083297365416273 0.9941083251973553 -0.055439683136595225 0.004867597667881399 0.023129651891865707
0.08753647353064001 0.005242835377251183 0.02503468391893524 0.9936112968320867 -0.05980100082876882 0.0013295883846451216 0.01166877092078614 -0.0011514330450361873 -0.0074637966061179345
 0.9936112968320867 -0.05980100082876882 0.005242360788647872 0.025034684355446295 -0.001152094688442551 -0.007463771047552596 0.0013319923801569367 0.011668448695360921
 0.0013295883846451216 0.01166877092078614 -0.001152094688442551 -0.007463771047552596 0.005242379550851505 0.02503355691156559 0.9936112517175787 -0.059802168997442076
 -0.0011514330450361873 -0.0074637966061179345 0.0013319923801569367 0.011668448695360921 0.9936112517175787 -0.059802168997442076 0.005242729641217125 0.0250334886542505
0.09378907878283 0.005637322998859067 0.02695433205445187 0.993088792816874 -0.06417713895211766 0.0014916327199787516 0.012503968737751687 -0.0012898070000997705 -0.008001021422483684
 0.993088792816874 -0.06417713895211766 0.0056367778862379024 0.026954331500580225 -0.00129056419632232 -0.00800098675217164 0.0014943959722040758 0.012503589446584334
 0.0014916327199787516 0.012503968737751687 -0.00129056419632232 -0.00800098675217164 0.005636800144259048 0.026953128593291163 0.9930887412884228 -0.06417839063369261
 -0.0012898070000997705 -0.008001021422483684 0.0014943959722040758 0.012503589446584334 0.9930887412884228 -0.06417839063369261 0.005637201736695314 0.026953048413656915
0.100041684035 0.006051469060385766 0.028889389603248293 0.9925405425003413 -0.06856681109819883 0.0016636566425877282 0.013338689859680822 -0.0014367170600190309 -0.008538022901706847
 0.9925405425003413 -0.06856681109819883 0.006050848463764362 0.028889387964296635 -0.0014375759704153674 -0.008537977752143601 0.001666804725739401 0.013338247058053003
 0.0016636566425877282 0.013338689859680822 -0.0014375759704153674 -0.008537977752143601 0.006050874602853355 0.028888110495165365 0.9925404841203866 -0.06856814634182341
 -0.0014367170600190309 -0.008538022901706847 0.001666804725739401 0.013338247058053003 0.9925404841203866 -0.06856814634182341 0.006051331151036282 0.028888017053779375
0.1059090909091 0.006458260740052191 0.030718971511676983 0.9920023773290348 -0.07269817044135699 0.0018342256002780134 0.014121418303705946 -0.0015824084910085077 -0.009041604679916004
 0.9920023773290348 -0.07269817044135699 0.006457564780821705 0.030718968776640154 -0.0015833684078575701 -0.00904154838710406 0.0018377581587096963 0.014120909703887735
 0.0018342256002780134 0.014121418303705946 -0.0015833684078575701 -0.00904154838710406 0.006457594936017096 0.030717622201942917 0.9920023121187691 -0.07269958414636897
 -0.0015824084910085077 -0.009041604679916004 0.0018377581587096963 0.014120909703887735 0.9920023121187691 -0.07269958414636897 0.006458106174516865 0.030717515028128018
0.1062942892872 0.006485588290470531 0.030839543305671457 0.9919662378439508 -0.07296980217859096 0.0018457346853836241 0.014172782408697007 -0.0015922400024399109 -0.009074650542360218
 0.9919662378439508 -0.07296980217859096 0.006484887229764466 0.030839540496231447 -0.0015932067376193113 -0.009074593472119013 0.0018492932778200726 0.014172269271297241
 0.0018457346853836241 0.014172782408697007 -0.0015932067376193113 -0.009074593472119013 0.006484917661840996 0.03083818941436568 0.9919661721717116 -0.07297122103685862
 -0.0015922400024399109 -0.009074650542360218 0.0018492932778200726 0.014172269271297241 0.9919661721717116 -0.07297122103685862 0.00648543259598207 0.030838081293790905
0.11254689453939999 0.006939992823561787 0.03280447945500384 0.9913655727514152 -0.07738588498645008 0.00203793873483518 0.015006091213564403 -0.0017564498919957012 -0.009610751238360573
 0.9913655727514152 -0.07738588498645008 0.0069392062973253 0.032804475399452554 -0.0017575305116572435 -0.009610680732193587 0.002041933617313496 0.015005500528782578
 0.00203793873483518 0.015006091213564403 -0.0017575305116572435 -0.009610680732193587 0.006939241463144755 0.032803051698704684 0.9913654993422952 -0.07738738751818756
 -0.0017564498919957012 -0.009610751238360573 0.002041933617313496 0.015005500528782578 0.9913654993422952 -0.07738738751818756 0.0069398181870236894 0.03280292740303152
0.11879949979160001 0.0074149920793982055 0.03478388289577808 0.990738243254737 -0.0818148211861364 0.002240337928128894 0.015838457905939306 -0.0019294179866612996 -0.010146169253591485
 0.990738243254737 -0.0818148211861364 0.007414115063532803 0.03478387752883617 -0.0019306184992730873 -0.010146083722562175 0.0022447949819001194 0.015837782070271648
 0.002240337928128894 0.015838457905939306 -0.0019306184992730873 -0.010146083722562175 0.007414155434779367 0.034782382247066077 0.9907381616605342 -0.0818164074572093
 -0.0019294179866612996 -0.010146169253591485 0.0022447949819001194 0.015837782070271648 0.9907381616605342 -0.0818164074572093 0.007414797323848237 0.034782240201358804
0.1250521050438 0.007910892636166855 0.03677743623629297 0.990083947697948 -0.08625636209656118 0.002452998550345078 0.016669721006856566 -0.002111212643614148 -0.010680746213017869
 0.990083947697948 -0.08625636209656118 0.007909920082353028 0.03677742950357393 -0.0021125390060656286 -0.010680643994623195 0.0024579437552954162 0.016668952019204427
 0.002452998550345078 0.016669721006856566 -0.0021125390060656286 -0.010680643994623195 0.007909966163519449 0.03677586372546526 0.9900838574659562 -0.08625803217705431
 -0.002111212643614148 -0.010680746213017869 0.0024579437552954162 0.016668952019204427 0.9900838574659562 -0.08625803217705431 0.007910676562269134 0.03677570227535212
0.131304710296 0.00842799809527903 0.0387848192307477 0.9894023869148978 -0.09071024931263079 0.002675983932997584 0.01749971600651226 -0.0023018992238673696 -0.011214321106901362
 0.9894023869148978 -0.09071024931263079 0.008426924929932725 0.03878481108937273 -0.0023033573411124436 -0.011214200465234601 0.002681443365298552 0.01749884546249464
 0.002675983932997584 0.01749971600651226 -0.0023033573411124436 -0.011214200465234601 0.0084269772611386 0.03878317594317921 0.9894022875884362 -0.09071200327993699
 -0.0023018992238673696 -0.011214321106901362 0.002681443365298552 0.01749884546249464 0.9894022875884362 -0.09071200327993699 0.0084277594804643 0.038782993354486095
0.1375573155481 0.008849992587547855 0.04054503892500542 0.9888099297895946 -0.0949154161309854 0.002881621807961813 0.01830267350818206 -0.0024738005207824184 -0.011721147571837513
 0.9888099297895946 -0.0949154161309854 0.0088488140996119 0.040545031857789876 -0.0024753992408750643 -0.01172100830587635 0.002887605067417846 0.018301702448299668
 0.002881621807961813 0.01830267350818206 -0.0024753992408750643 -0.01172100830587635 0.008848873550075013 0.04054332572791584 0.9888098209557775 -0.09491725399181272
 -0.0024738005207824184 -0.011721147571837513 0.002887605067417846 0.018301702448299668 0.9888098209557775 -0.09491725399181272 0.008849729797619575 0.04054312311227958
0.1438099208003 0.009286911172012264 0.0422956668655825 0.9881965067256855 -0.0991095777505212 0.0030955437036919537 0.019102133594224 -0.0026525560584926625 -0.012224755558088994
 0.9881965067256855 -0.0991095777505212 0.009285622322004394 0.04229566108432506 -0.0026543017415399726 -0.012224595951520928 0.00310207403023966 0.019101054345575175
 0.0030955437036919537 0.019102133594224 -0.0026543017415399726 -0.012224595951520928 0.009285689535060813 0.042293884854793046 0.9881963879310437 -0.09911149957233706
 -0.0026525560584926625 -0.012224755558088994 0.00310207403023966 0.019101054345575175 0.9881963879310437 -0.09911149957233706 0.009286622880661718 0.042293660716984635
0.1500625260525 0.00973859534237739 0.044036546654478335 0.9875622806083496 -0.10329261938836266 0.003317671949952213 0.019898006972808552 -0.0028380901431014926 -0.012725060766819235
 0.9875622806083496 -0.10329261938836266 0.009737191072015733 0.04403654238420061 -0.0028399891347356504 -0.012724879034101943 0.003324772486269323 0.01989681157337072
 0.003317671949952213 0.019898006972808552 -0.0028399891347356504 -0.012724879034101943 0.009737266726936006 0.04403469697012368 0.9875621513957675 -0.10329462523976281
 -0.0028380901431014926 -0.012725060766819235 0.003324772486269323 0.01989681157337072 0.9875621513957675 -0.10329462523976281 0.009738280197051447 0.044034449760234955
0.15631513130469998 0.010204885412453289 0.045767526578782525 0.9869074152120267 -0.10746442689289173 0.0035479279174443286 0.020690205950326276 -0.003030326114095318 -0.01322198073897431
 0.9869074152120267 -0.10746442689289173 0.010203360644223867 0.04576752405816308 -0.0030323847452218655 -0.013221775025551061 0.003555621708596787 0.020688886150690526
