! Created with skrf 1.8.0 (http://scikit-rf.org).
# GHz S RI R 50.0 
!freq ReS11 ImS11 ReS12 ImS12 ReS13 ImS13
! ReS14 ImS14
! ReS21 ImS21 ReS22 ImS22 ReS23 ImS23
! ReS24 ImS24
! ReS31 ImS31 ReS32 ImS32 ReS33 ImS33
! ReS34 ImS34
! ReS41 ImS41 ReS42 ImS42 ReS43 ImS43
! ReS44 ImS44
!
0.0 0.001666647629987 0.0 0.9983333523677 0.0 6.472447334672e-05 0.0 -6.472447214732e-05 7.926461764171746e-21
 0.9983333523677 0.0 0.001666647629983 0.0 -6.472447214689e-05 7.926461764119085e-21 6.472447334557e-05 0.0
 6.472447334672e-05 0.0 -6.472447214689e-05 7.926461764119085e-21 0.001666647621001 0.0 0.9983333523587 0.0
 -6.472447214732e-05 7.926461764171746e-21 6.472447334557e-05 0.0 0.9983333523587 0.0 0.001666647621022 0.0
0.005 0.0017936064374037982 0.001358743784216807 0.9981726472439116 -0.003491042867113313 9.160389370587285e-05 0.0007392524955465777 -8.874686633449383e-05 -0.000459387434792396
 0.9981726472439116 -0.003491042867113313 0.0017936223423572915 0.0013587344288863849 -8.874597625039149e-05 -0.00045938669309543927 9.151731877284053e-05 0.0007392856018809731
 9.160389370587285e-05 0.0007392524955465777 -8.874597625039149e-05 -0.00045938669309543927 0.0017936075486619343 0.0013588103583311757 0.9981726476160577 -0.0034909758043730264
 -8.874686633449383e-05 -0.000459387434792396 9.151731877284053e-05 0.0007392856018809731 0.9981726476160577 -0.0034909758043730264 0.0017936219667529227 0.001358801971538268
0.006252605252188 0.0018270182056741744 0.001703778781575685 0.9981300656209994 -0.004364640659511321 9.935763231602444e-05 0.000924403356102659 -9.558794213155214e-05 -0.0005748269543083699
 0.9981300656209994 -0.004364640659511321 0.0018270430682517588 0.001703766870189815 -9.558655754688426e-05 -0.0005748260387013693 9.922236926064054e-05 0.0009244463393856045
 9.935763231602444e-05 0.000924403356102659 -9.558655754688426e-05 -0.0005748260387013693 0.0018270198653370419 0.0017038619892633157 0.9981300661251657 -0.004364556830594048
 -9.558794213155214e-05 -0.0005748269543083699 9.922236926064054e-05 0.0009244463393856045 0.9981300661251657 -0.004364556830594048 0.0018270424027837275 0.0017038513010863281
0.01250521050438 0.0020035705942556136 0.0034432349492117425 0.9979034667134336 -0.008729974884205207 0.00014421575148427767 0.0018490265364800073 -0.00013471797931587087 -0.0011523857667614685
 0.9979034667134336 -0.008729974884205207 0.0020036698769784946 0.00344320892077772 -0.0001347125284835541 -0.0011523840618009099 0.00014367641251698617 0.001849129871889706
 0.00014421575148427767 0.0018490265364800073 -0.0001347125284835541 -0.0011523840618009099 0.002003576662970774 0.0034434009813998205 0.9979034681643212 -0.008729807468879506
 -0.00013471797931587087 -0.0011523857667614685 0.00014367641251698617 0.001849129871889706 0.9979034681643212 -0.008729807468879506 0.002003666646303345 0.0034433775415968603
0.01875781575657 0.0021967151751290355 0.0052073619168248805 0.9976532564801985 -0.013106602965272336 0.00019940563891403528 0.002774497180149996 -0.00018224091762532744 -0.0017317906408366379
 0.9976532564801985 -0.013106602965272336 0.002196938281101141 0.005207319378423955 -0.00018222877007681678 -0.0017317882967873004 0.00019819421277023622 0.0027746818651958665
 0.00019940563891403528 0.002774497180149996 -0.00018222877007681678 -0.0017317882967873004 0.0021967284002920146 0.005207610481199252 0.9976532593241956 -0.01310635202069549
 -0.00018224091762532744 -0.0017317906408366379 0.00019819421277023622 0.0027746818651958665 0.9976532593241956 -0.01310635202069549 0.002196930580457132 0.0052075720886420145
0.02501042100875 0.0024068487081425442 0.006993650258748988 0.997379123348472 -0.017496614604928663 0.0002650358003910881 0.003700839065567159 -0.00023827832417057574 -0.002312752198670888
 0.997379123348472 -0.017496614604928663 0.00240724494817323 0.006993588644924161 -0.00023825688356219672 -0.0023127493925625274 0.0002628842690588234 0.0037011296045687467
 0.0002650358003910881 0.003700839065567159 -0.00023825688356219672 -0.0023127493925625274 0.0024068718305527642 0.006993981029132375 0.9973791280300232 -0.017496280128144085
 -0.00023827832417057574 -0.002312752198670888 0.0002628842690588234 0.0037011296045687467 0.9973791280300232 -0.017496280128144085 0.0024072308582182163 0.006993925358337935
0.03126302626094 0.0026343514778730814 0.00880079229173328 0.9970807407934589 -0.021900884318440818 0.0003412150419270831 0.00462798706762556 -0.0003029478874961894 -0.0028950624934721224
 0.9970807407934589 -0.021900884318440818 0.00263497009700735 0.008800708866603604 -0.00030291458584203324 -0.002895059429381963 0.00033785513572205244 0.004628411490588553
 0.0003412150419270831 0.00462798706762556 -0.00030291458584203324 -0.002895059429381963 0.0026343872381651957 0.008801204878078124 0.9970807477629423 -0.021900466275998873
 -0.0003029478874961894 -0.0028950624934721224 0.00033785513572205244 0.004628411490588553 0.9970807477629423 -0.021900466275998873 0.0026349476889964184 0.008801129481671725
0.037515631513130004 0.0028795952123988728 0.010627923040056244 0.9967577755621484 -0.026319830409994523 0.00042805130263754175 0.005555840696126479 -0.00037636429473990297 -0.003478541485294674
 0.9967577755621484 -0.026319830409994523 0.0028804854072382534 0.010627814897939583 -0.0003763165894322397 -0.003478538394398482 0.000423214394486306 0.005556430592268817
 0.00042805130263754175 0.005555840696126479 -0.0003763165894322397 -0.003478538394398482 0.0028796463482577707 0.010628416989526596 0.9967577852748079 -0.02631932873626046
 -0.00037636429473990297 -0.003478541485294674 0.000423214394486306 0.005556430592268817 0.9967577852748079 -0.02631932873626046 0.0028804527399097116 0.010628319299447455
0.043768236765320004 0.003142946123882634 0.012474389256310822 0.9964098910234598 -0.030753645882292277 0.000525651098412047 0.00648428037125881 -0.00045863953680786546 -0.004063020783616326
 0.9964098910234598 -0.030753645882292277 0.003144157056727011 0.012474253321550081 -0.00045857490885668425 -0.004063017924153373 0.000519068157980311 0.006485070926958305
 0.000525651098412047 0.00648428037125881 -0.00045857490885668425 -0.004063017924153373 0.0031430153684302423 0.012474964050811124 0.9964099039393157 -0.030753060481330457
 -0.00045863953680786546 -0.004063020783616326 0.000519068157980311 0.006485070926958305 0.9964099039393157 -0.030753060481330457 0.00314411217446793 0.0124748413788996
0.050020842017509996 0.0034247663126778525 0.01433965395978392 0.996036748885243 -0.035202393827416405 0.0006341191861014983 0.007413174151747497 -0.0005498830052796945 -0.004648336941514919
 0.996036748885243 -0.035202393827416405 0.0034263471232209132 0.014339486986125425 -0.0005497989580928662 -0.004648334598735004 0.0006255207655256856 0.00741420419030535
 0.0006341191861014983 0.007413174151747497 -0.0005497989580928662 -0.004648334598735004 0.003424856393133972 0.014340309004095006 0.9960367654701107 -0.035201724584263384
 -0.0005498830052796945 -0.004648336941514919 0.0006255207655256856 0.00741420419030535 0.9960367654701107 -0.035201724584263384 0.0034262880554130205 0.01434015854228685
0.055454545454549996 0.003684954568020926 0.015975527815169283 0.995691701574965 -0.039080603598115986 0.000737287479845064 0.008220670475682078 -0.0006365426544689099 -0.005157548389323919
 0.995691701574965 -0.039080603598115986 0.00368689671183043 0.015975331098216385 -0.0006364397206625313 -0.005157546748158319 0.0007267184005468421 0.008221943016406528
 0.000737287479845064 0.008220670475682078 -0.0006364397206625313 -0.005157546748158319 0.003685064965562068 0.01597625206932187 0.9956917217322615 -0.039079861371397344
 -0.0006365426544689099 -0.005157548389323919 0.0007267184005468421 0.008221943016406528 0.9956917217322615 -0.039079861371397344 0.0036868237039825095 0.015976075083396
0.056273447269699996 0.0037254144734578877 0.016223249579549806 0.9956380102189434 -0.03966605421580079 0.0007535583186615585 0.008342381050738189 -0.0006502015023964264 -0.005234328167430022
 0.9956380102189434 -0.03966605421580079 0.0037274142899945068 0.0162230481492061 -0.000650095561005656 -0.0052343266535462086 0.0007426745574737045 0.00834369307280855
 0.0007535583186615585 0.008342381050738189 -0.000650095561005656 -0.0052343266535462086 0.0037255281109955696 0.01622398421825064 0.995638030946131 -0.039665300979010214
 -0.0006502015023964264 -0.005234328167430022 0.0007426745574737045 0.00834369307280855 0.995638030946131 -0.039665300979010214 0.0037273390508618946 0.01622380303825925
0.06252605252188 0.004045246263699925 0.018124752214964738 0.9952133361514848 -0.04414454957265662 0.0008840690491463517 0.009271752857801591 -0.000759699203329966 -0.005820832536730405
 0.9952133361514848 -0.04414454957265662 0.004047714213370234 0.018124512737245142 -0.0007595689138101039 -0.005820832190855969 0.0008706296920904191 0.009273393082022695
 0.0008840690491463517 0.009271752857801591 -0.0007595689138101039 -0.005820832190855969 0.004045386171852743 0.01812556571547957 0.9952133615027752 -0.0441437121707725
 -0.000759699203329966 -0.005820832536730405 0.0008706296920904191 0.009273393082022695 0.9952133615027752 -0.0441437121707725 0.004047620801084471 0.01812535076823964
0.06877865777407 0.004384614481166528 0.020043766274403376 0.9947623883710478 -0.048637760282128774 0.001025749560250764 0.01020113523861175 -0.0008784775928214875 -0.006407686932063137
 0.9947623883710478 -0.048637760282128774 0.004387599700291939 0.02004348498398797 -0.0008783205218803273 -0.006407688120136505 0.0010094839842198656 0.010203153642055906
 0.001025749560250764 0.01020113523861175 -0.0008783205218803273 -0.006407688120136505 0.004384783365244296 0.020044657828162896 0.9947624188380993 -0.04863683852197257
 -0.0008784775928214875 -0.006407686932063137 0.0010094839842198656 0.010203153642055906 0.9947624188380993 -0.04863683852197257 0.004387486096869253 0.020044405942942434
0.07503126302626001 0.004743869134283235 0.02197991474991618 0.9942848295299377 -0.05314553426235413 0.0011786955098668105 0.011130368439695877 -0.001006635385307388 -0.006994726385305478
 0.9942848295299377 -0.05314553426235413 0.004747420777688259 0.0219795877048596 -0.001006449119966699 -0.006994729500046943 0.0011593327574074082 0.01113281879803029
 0.0011786955098668105 0.011130368439695877 -0.001006449119966699 -0.006994729500046943 0.004744069688246094 0.021980883479488282 0.9942848656137251 -0.05314452792159818
 -0.001006635385307388 -0.006994726385305478 0.0011593327574074082 0.01113281879803029 0.9942848656137251 -0.05314452792159818 0.004747284946603035 0.021980591362477334
0.08128386827845 0.005123357438611932 0.02393283275080284 0.9937803235785797 -0.05766769338906577 0.0013429998863177996 0.012059287769657307 -0.0011442684341980678 -0.007581783650213751
 0.9937803235785797 -0.05766769338906577 0.0051275246898778975 0.023932455830007977 -0.0011440505816275007 -0.007581789111039721 0.0013202687047868178 0.012062227696817234
 0.0013429998863177996 0.012059287769657307 -0.0011440505816275007 -0.007581789111039721 0.005123592344807244 0.023933877702785017 0.9937803657911954 -0.05766660222286848
 -0.0011442684341980678 -0.007581783650213751 0.0013202687047868178 0.012062227696817234 0.9937803657911954 -0.05766660222286848 0.0051273645761577636 0.02393354193550928
0.08753647353064001 0.005523423769617966 0.02590216303237191 0.9932485360593953 -0.062204037931732306 0.001518752870093749 0.01298772393933516 -0.0012914696340253218 -0.008168688923309684
 0.9932485360593953 -0.062204037931732306 0.00552825585023036 0.025901731932847505 -0.0012912178213547551 -0.008168697176276133 0.0014923817550969646 0.012991214926628218
 0.001518752870093749 0.01298772393933516 -0.0012912178213547551 -0.008168697176276133 0.005523695697281781 0.025903283179774007 0.993248584925578 -0.062202861670170716
 -0.0012914696340253218 -0.008168688923309684 0.0014923817550969646 0.012991214926628218 0.993248584925578 -0.062202861670170716 0.005528069379884303 0.025902900216951987
0.09378907878283 0.005944409582103533 0.027887552816122308 0.9926891343723812 -0.0667543497066675 0.0017060416994598138 0.013915503320192606 -0.001448328817874288 -0.008755269654123867
 0.9926891343723812 -0.0667543497066675 0.0059499557609937375 0.027887063049746027 -0.0014480406920729773 -0.008755281171861522 0.0016757589418373027 0.013919610774681068
 0.0017060416994598138 0.013915503320192606 -0.0014480406920729773 -0.008755281171861522 0.005944721185463237 0.027888747055659444 0.992689190429776 -0.066753088057112
 -0.001448328817874288 -0.008755269654123867 0.0016757589418373027 0.013919610774681068 0.992689190429776 -0.066753088057112 0.0059497408400806745 0.027888313222790572
0.100041684035 0.006386653306847813 0.029888651448986815 0.9921017880209797 -0.07131839439951557 0.0019049505395565068 0.014842448146430117 -0.001614932650468756 -0.00934135041930028
 0.9921017880209797 -0.07131839439951557 0.006392962910246184 0.02988809833894682 -0.0016146058783253019 -0.009341365700938535 0.001870484275714897 0.014847241428646584
 0.0019049505395565068 0.014842448146430117 -0.0016146058783253019 -0.009341365700938535 0.006387007223748183 0.02988991860211042 0.9921018518213026 -0.07131704704547076
 -0.001614932650468756 -0.00934135041930028 0.001870484275714897 0.014847241428646584 0.9921018518213026 -0.07131704704547076 0.006392717423923864 0.02988943009257077
0.1059090909091 0.006821284687085294 0.03178044528612203 0.991524918047545 -0.07561353483293316 0.002102245824438414 0.015711366694526736 -0.0017802096524715482 -0.009890711484590566
 0.991524918047545 -0.07561353483293316 0.006828355604410292 0.031779828309643154 -0.001779844510460363 -0.009890730775749436 0.0020636064358225178 0.01571687019006684
 0.002102245824438414 0.015711366694526736 -0.001779844510460363 -0.009890730775749436 0.006821680693642917 0.03178177972188089 0.9915249896288 -0.07561210674525187
 -0.0017802096524715482 -0.009890711484590566 0.0020636064358225178 0.01571687019006684 0.9915249896288 -0.07561210674525187 0.006828079492649015 0.03178123632144986
0.1062942892872 0.0068504902296171915 0.03190510866540964 0.9914861688439629 -0.07589592329392893 0.0021155603533214375 0.015768376679648043 -0.001791364519134392 -0.009926752842066677
 0.9914861688439629 -0.07589592329392893 0.00685761265045136 0.03190448734216148 -0.0017909967872239826 -0.009926772413177251 0.0020766386182765268 0.015773929140449585
 0.0021155603533214375 0.015768376679648043 -0.0017909967872239826 -0.009926772413177251 0.006850889079712642 0.031906447478415007 0.9914862409539232 -0.07589448989485552
 -0.001791364519134392 -0.009926752842066677 0.0020766386182765268 0.015773929140449585 0.9914862409539232 -0.07589448989485552 0.006857334461923733 0.03190590035018719
0.11254689453939999 0.007336252357687182 0.033936573255567266 0.9908419512388118 -0.08048667460314034 0.0023379487746313862 0.01669310334536637 -0.001977704422190964 -0.010511295547834441
 0.9908419512388118 -0.08048667460314034 0.007344237064944872 0.0339358786524667 -0.001977293436865334 -0.01051131996033162 0.0022942995575354575 0.01669949236192545
 0.0023379487746313862 0.01669310334536637 -0.001977293436865334 -0.01051131996033162 0.007336698741230779 0.03393798239902258 0.990842032241394 -0.08048515479491695
 -0.001977704422190964 -0.010511295547834441 0.0022942995575354575 0.01669949236192545 0.990842032241394 -0.08048515479491695 0.007343924015503984 0.033937372570976704
0.11879949979160001 0.007844268275904558 0.0359826920377143 0.9901688123771921 -0.08509037450693077 0.002572189982424321 0.01761643885628947 -0.002174028856269422 -0.011094794141169314
 0.9901688123771921 -0.08509037450693077 0.007853164824547895 0.03598191888609172 -0.0021735723436530578 -0.01109482397326226 0.002523541284497442 0.017623745867093164
 0.002572189982424321 0.01761643885628947 -0.0021735723436530578 -0.01109482397326226 0.007844764771825507 0.03598417010422423 0.9901689028725768 -0.08508876790415865
 -0.002174028856269422 -0.011094794141169314 0.002523541284497442 0.017623745867093164 0.9901689028725768 -0.08508876790415865 0.007852814732149636 0.035983493351950925
0.1250521050438 0.00837486299531259 0.038043109051135594 0.9894664324155179 -0.0897067379773926 0.0028183545761876995 0.01853819032557657 -0.0023804107025883646 -0.011677061200987264
 0.9894664324155179 -0.0897067379773926 0.008384721035319658 0.038042251875107666 -0.0023799064086321826 -0.011677097057112857 0.0027644344705209543 0.018546500864558536
 0.0028183545761876995 0.01853819032557657 -0.0023799064086321826 -0.011677097057112857 0.00837541215929302 0.03804465456005147 0.9894665330221742 -0.08970504416884158
 -0.0023804107025883646 -0.011677061200987264 0.0027644344705209543 0.018546500864558536 0.9894665330221742 -0.08970504416884158 0.008384331693908283 0.03804390651126852
0.131304710296 0.008928357794158182 0.040117464924703625 0.9887344947021677 -0.09433546943935858 0.003076509452435626 0.01945816136804233 -0.0025969191125285325 -0.012257906296301028
 0.9887344947021677 -0.09433546943935858 0.008939227080632816 0.04011651803532627 -0.002596364803087016 -0.012257948807030274 0.0030170461460550333 0.01946756509754921
 0.003076509452435626 0.01945816136804233 -0.002596364803087016 -0.012257948807030274 0.008928962157365614 0.04011907631589237 0.9887346060575255 -0.09433368799431323
 -0.0025969191125285325 -0.012257906296301028 0.0030170461460550333 0.01946756509754921 0.9887346060575255 -0.09433368799431323 0.008938796259414985 0.040118252445290804
0.1375573155481 0.00938233202372764 0.04193429291900212 0.9880954790731321 -0.09870502102139826 0.003315721765650224 0.020349345518927833 -0.0027926952950795636 -0.012810301006912153
 0.9880954790731321 -0.09870502102139826 0.009394265119056347 0.04193327099754771 -0.0027920874831211906 -0.012810350252856453 0.0032505746792838137 0.02035983335372474
 0.003315721765650224 0.020349345518927833 -0.0027920874831211906 -0.012810350252856453 0.009382993340242583 0.041935969114448496 0.9880956016827616 -0.09870315167712197
 -0.0027926952950795636 -0.012810301006912153 0.0032505746792838137 0.02035983335372474 0.9880956016827616 -0.09870315167712197 0.009393791597202997 0.041935084559027544
0.1438099208003 0.009852392246725027 0.04374072640681287 0.9874337400491017 -0.10306267600344816 0.003564589650191 0.021236425393565798 -0.0029962811971404337 -0.013358961708854726
 0.9874337400491017 -0.10306267600344816 0.009865439442972515 0.043739625035093495 -0.0029956174518832447 -0.013359018318595563 0.003493510859476783 0.02124807984045032
 0.003564589650191 0.021236425393565798 -0.0029956174518832447 -0.013359018318595563 0.009853112872307201 0.04374246582661546 0.987433874551095 -0.10306071833510919
 -0.0029962811971404337 -0.013358961708854726 0.003493510859476783 0.02124807984045032 0.987433874551095 -0.10306071833510919 0.00986492113620639 0.04374151728623857
0.1500625260525 0.010338360504697032 0.04553659034932463 0.9867494602238203 -0.10740830163522418 0.0038230200924367526 0.022119293926811966 -0.003207586928933431 -0.013903788614251789
 0.9867494602238203 -0.10740830163522418 0.010352572202899845 0.045535404859610745 -0.0032068648236867926 -0.013903853242004879 0.003745763311698103 0.022132200508645086
 0.0038230200924367526 0.022119293926811966 -0.0032068648236867926 -0.013903853242004879 0.010339142762356337 0.045538391349879116 0.9867496072728246 -0.10740625520541838
 -0.003207586928933431 -0.013903788614251789 0.003745763311698103 0.022132200508645086 0.9867496072728246 -0.10740625520541838 0.010352007014814521 0.045537375317391694
0.15631513130469998 0.010840057423661936 0.047321714939878363 0.986042823288628 -0.11174176617570644 0.00409091888950863 0.022997846030794352 -0.0034265214120632087 -0.014444684185748782
 0.986042823288628 -0.11174176617570644 0.010855484136614253 0.04732044040938222 -0.003425738524312033 -0.014444757511343796 0.00400723949929324 0.023012093252400823
