! Created with skrf 1.8.0 (http://scikit-rf.org).
# GHz S RI R 50.0 
!freq ReS11 ImS11 ReS12 ImS12 ReS13 ImS13
! ReS14 ImS14
! ReS21 ImS21 ReS22 ImS22 ReS23 ImS23
! ReS24 ImS24
! ReS31 ImS31 ReS32 ImS32 ReS33 ImS33
! ReS34 ImS34
! ReS41 ImS41 ReS42 ImS42 ReS43 ImS43
! ReS44 ImS44
!
0.0 0.001790095108351 0.0 0.998209904844 0.0 6.945796767918e-05 0.0 -6.94579669243e-05 8.506147686912671e-21
 0.998209904844 0.0 0.001790095108374 0.0 -6.945796692393e-05 8.50614768686736e-21 6.945796767898e-05 0.0
 6.945796767918e-05 0.0 -6.945796692393e-05 8.50614768686736e-21 0.001790095132136 0.0 0.9982099048678 0.0
 -6.94579669243e-05 8.506147686912671e-21 6.945796767898e-05 0.0 0.9982099048678 0.0 0.001790095132181 0.0
0.005 0.0019268118476296447 0.0014636787457579495 0.9980367987635591 -0.003748924511968247 9.780633898915855e-05 0.0007652141887839168 -9.490551995028503e-05 -0.0004801768711779175
 0.9980367987635591 -0.003748924511968247 0.0019268261417696815 0.0014636703232639172 -9.490458060466505e-05 -0.00048017608967544466 9.772547185786661e-05 0.0007652450619598393
 9.780633898915855e-05 0.0007652141887839168 -9.490458060466505e-05 -0.00048017608967544466 0.0019268130215461018 0.0014637452846042018 0.9980367991494375 -0.00374885745669101
 -9.490551995028503e-05 -0.0004801768711779175 9.772547185786661e-05 0.0007652450619598393 0.9980367991494375 -0.00374885745669101 0.0019268257355780694 0.001463737892952491
0.006252605252188 0.0019629129826979536 0.0018353218241836992 0.9979907614868936 -0.004687032794904569 0.00010604245166159964 0.0009568722448722685 -0.00010220209301690045 -0.000600826870077354
 0.9979907614868936 -0.004687032794904569 0.0019629353276732703 0.0018353111185706458 -0.00010220063181848305 -0.0006008259054975898 0.00010591610638097466 0.0009569123542800753
 0.00010604245166159964 0.0009568722448722685 -0.00010220063181848305 -0.0006008259054975898 0.00196291472851555 0.0018354049913008616 0.9979907620002528 -0.004686948974165535
 -0.00010220209301690045 -0.000600826870077354 0.00010591610638097466 0.0009569123542800753 0.9979907620002528 -0.004686948974165535 0.0019629346023728447 0.001835395588012991
0.01250521050438 0.0021543798864229625 0.003708719528097969 0.9977448049048682 -0.009374575532243296 0.00015399823596342493 0.0019139834011459972 -0.00014420131475926745 -0.0012044014258552017
 0.9977448049048682 -0.009374575532243296 0.002154469119349379 0.003708696308221722 -0.00014419556233178103 -0.0012043996323556285 0.00015349444797265743 0.001914080166807152
 0.00015399823596342493 0.0019139834011459972 -0.00014419556233178103 -0.0012043996323556285 0.002154386320904771 0.003708885510685994 0.9977448064117924 -0.00937440814393773
 -0.00014420131475926745 -0.0012044014258552017 0.00015349444797265743 0.001914080166807152 0.9977448064117924 -0.00937440814393773 0.0021544656706813567 0.003708865052305695
0.01875781575657 0.0023649647992432196 0.005608350156389132 0.99747169347534 -0.014073975440694652 0.000213443548422382 0.0028719313378626045 -0.00019559501568083962 -0.0018098160394623513
 0.99747169347534 -0.014073975440694652 0.002365165328177373 0.005608312437524076 -0.00019558219614376968 -0.0018098135804327277 0.00021231196406181407 0.0028721049341427158
 0.000213443548422382 0.0028719313378626045 -0.00019558219614376968 -0.0018098135804327277 0.0023649788480137506 0.005608598727174423 0.9974716964402247 -0.01407372456461091
 -0.00019559501568083962 -0.0018098160394623513 0.00021231196406181407 0.0028721049341427158 0.9974716964402247 -0.01407372456461091 0.002365157138480646 0.005608565442977746
0.02501042100875 0.002595119645418759 0.007531489931885604 0.9971710707813368 -0.01878744415266492 0.00028449801588274076 0.0038307114713345513 -0.00025651692574282895 -0.0024167566517386413
 0.9971710707813368 -0.01878744415266492 0.002595475801164983 0.007531435568099258 -0.00025649429939754816 -0.002416753721219795 0.0002824882873052484 0.0038309855910137244
 0.00028449801588274076 0.0038307114713345513 -0.00025649429939754816 -0.002416753721219795 0.0025951442403856226 0.007531820837138884 0.9971710756742037 -0.018787109846727986
 -0.00025651692574282895 -0.0024167566517386413 0.0002824882873052484 0.0038309855910137244 0.9971710756742037 -0.018787109846727986 0.002595460851578842 0.00753177285049356
0.03126302626094 0.0028452774941293306 0.009476703925981085 0.9968425642428216 -0.023515888031172376 0.0003672810644336119 0.004790229940939662 -0.00032709617079231885 -0.0030249895938866496
 0.9968425642428216 -0.023515888031172376 0.0028458335549480006 0.009476630612103723 -0.0003270610279965996 -0.0030249864168302573 0.00036414263406388974 0.004790631814846694
 0.0003672810644336119 0.004790229940939662 -0.0003270610279965996 -0.0030249864168302573 0.0028453155658861454 0.009477116891980384 0.9968425715322775 -0.023515470324483017
 -0.00032709617079231885 -0.0030249895938866496 0.00036414263406388974 0.004790631814846694 0.9968425715322775 -0.023515470324483017 0.002845809817369868 0.009477052222916591
0.037515631513130004 0.003115861316791888 0.011443031362404564 0.9964857942720596 -0.028259722812529014 0.0004619106659463978 0.0057503569442334665 -0.0004074581801602268 -0.003634308288339806
 0.9964857942720596 -0.028259722812529014 0.003116661525145726 0.011442936634567673 -0.00040740783825104246 -0.0036343051206513114 0.00045739267998219397 0.005750917374125256
 0.0004619106659463978 0.0057503569442334665 -0.00040740783825104246 -0.0036343051206513114 0.0031159157963108375 0.011443526083525349 0.9964858044272709 -0.028259221716762647
 -0.0004074581801602268 -0.003634308288339806 0.00045739267998219397 0.005750917374125256 0.9964858044272709 -0.028259221716762647 0.0031166269635378033 0.011443442649885173
0.043768236765320004 0.0034072873452774344 0.013429737723164852 0.9961003780334404 -0.03301912143537732 0.0005685027313117842 0.00671094296846479 -0.0004977249831677096 -0.004244517057931861
 0.9961003780334404 -0.03301912143537732 0.0034083759209630232 0.013429618958600249 -0.0004976567845570556 -0.004244514186436351 0.0005623540093217176 0.006711696363867935
 0.0005685027313117842 0.00671094296846479 -0.0004976567845570556 -0.004244514186436351 0.003407361165549593 0.013430313845297595 0.9961003915268333 -0.03301853696071705
 -0.0004977249831677096 -0.004244517057931861 0.0005623540093217176 0.006711696363867935 0.9961003915268333 -0.03301853696071705 0.0034083284936293036 0.013430209463321678
0.050020842017509996 0.003719966612503136 0.015436212264409754 0.9956859313911439 -0.037794116459598334 0.0006871707296614245 0.007671825510693378 -0.000598015291057644 -0.004855424452689182
 0.9956859313911439 -0.037794116459598334 0.003721387764319025 0.015436066680655263 -0.0005979266019527285 -0.0048554221950802 0.0006791397633610186 0.007672809927163809
 0.0006871707296614245 0.007671825510693378 -0.0005979266019527285 -0.0048554221950802 0.0037200627045953297 0.015436869405388819 0.9956859486954911 -0.037793448593829417
 -0.000598015291057644 -0.004855424452689182 0.0006791397633610186 0.007672809927163809 0.9956859486954911 -0.037793448593829417 0.0037213254210730125 0.015436741789593422
0.055454545454549996 0.004009270485463162 0.017195535095607204 0.9953018900119457 -0.041956354959274085 0.00080019003313888 0.008506968841652121 -0.0006934006137065088 -0.005386740937478345
 0.9953018900119457 -0.041956354959274085 0.004011016558666217 0.017195363820568774 -0.0006932919966810123 -0.005386739495297112 0.0007903188421756698 0.0085081877889223
 0.00080019003313888 0.008506968841652121 -0.0006932919966810123 -0.005386739495297112 0.004009388312269959 0.017196262296363674 0.9953019110137983 -0.04195561461226433
 -0.0006934006137065088 -0.005386740937478345 0.0007903188421756698 0.0085081877889223 0.9953019110137983 -0.04195561461226433 0.004010939582525522 0.017196112554313286
0.056273447269699996 0.004054305711692899 0.01746191776201228 0.9952420700809145 -0.04258465026033813 0.0008180254062941343 0.008632832384132096 -0.0007084444832939622 -0.0054668399979265715
 0.9952420700809145 -0.04258465026033813 0.004056103648350221 0.017461742415743435 -0.0007083326929164215 -0.0054668387027151655 0.0008078603768247552 0.008634089561842612
 0.0008180254062941343 0.008632832384132096 -0.0007083326929164215 -0.0054668387027151655 0.004054427005721573 0.01746265549071125 0.9952420916711467 -0.04258389898920089
 -0.0007084444832939622 -0.0054668399979265715 0.0008078603768247552 0.008634089561842612 0.9952420916711467 -0.04258389898920089 0.004056024331819781 0.01746250225349936
0.06252605252188 0.0044107071804600955 0.019506362867410424 0.9947684105127199 -0.04739060261917462 0.0009611745506364355 0.009593783554616302 -0.0008291245452617313 -0.006078572420493517
 0.9947684105127199 -0.04739060261917462 0.004412926120722559 0.01950615465273713 -0.0008289870652262046 -0.006078572466938226 0.0009486233575518808 0.009595358956909904
 0.0009611745506364355 0.009593783554616302 -0.0008289870652262046 -0.006078572466938226 0.0044108566047113 0.019507180714534188 0.9947684368665503 -0.04738976791490372
 -0.0008291245452617313 -0.006078572420493517 0.0009486233575518808 0.009595358956909904 0.9947684368665503 -0.04738976791490372 0.004412827766629677 0.01950699936534832
0.06877865777407 0.004789569673841438 0.021569085641558707 0.9942645703679539 -0.052211807145563706 0.0011167227926805778 0.010554492248960514 -0.0009601639769929898 -0.006690428612102284
 0.9942645703679539 -0.052211807145563706 0.00479225385610313 0.021568841288097163 -0.0009599982408488679 -0.006690430410155494 0.0011015330918337908 0.010556435100400947
 0.0011167227926805778 0.010554492248960514 -0.0009599982408488679 -0.006690430410155494 0.004789750154016763 0.021569983090400105 0.994264601966106 -0.05221088897579896
 -0.0009601639769929898 -0.006690428612102284 0.0011015330918337908 0.010556435100400947 0.994264601966106 -0.05221088897579896 0.0047921343938824084 0.021569771034361626
0.07503126302626001 0.005191288013292502 0.023649643122274525 0.9937301690774399 -0.05704806167511456 0.001284771415275347 0.011514765672382538 -0.0011016676856405623 -0.007302212992866866
 0.9937301690774399 -0.05704806167511456 0.0051944817054747905 0.023649359192625157 -0.0011014711486114488 -0.00730221698311591 0.0012666906631267794 0.011517128996255592
 0.001284771415275347 0.011514765672382538 -0.0011014711486114488 -0.00730221698311591 0.005191502471158166 0.02365061961198368 0.9937302064034903 -0.057047059998985274
 -0.0011016676856405623 -0.007302212992866866 0.0012666906631267794 0.011517128996255592 0.9937302064034903 -0.057047059998985274 0.00519433905759066 0.02365037414825263
0.08128386827845 0.005616253156465217 0.025747604393294533 0.9931648282258888 -0.061899135176239475 0.0014654181775596692 0.012474405509251106 -0.0012537368661402603 -0.007913727101244775
 0.9931648282258888 -0.061899135176239475 0.005620000665531776 0.025747277280171513 -0.0012535070048859472 -0.007913733754843787 0.001444193680795549 0.012477246164250238
 0.0014654181775596692 0.012474405509251106 -0.0012535070048859472 -0.007913733754843787 0.005616504509429961 0.02574865932041718 0.9931648717674775 -0.06189804994247804
 -0.0012537368661402603 -0.007913727101244775 0.001444193680795549 0.012477246164250238 0.9931648717674775 -0.06189804994247804 0.005619832748361767 0.025748377639961798
0.08753647353064001 0.0060648521164306905 0.027862545805103455 0.9925681719103167 -0.06676477251632756 0.0016587571448708719 0.01343320828070014 -0.0014164688749050448 -0.008524769337021969
 0.9925681719103167 -0.06676477251632756 0.006069197797543969 0.02786217172803826 -0.001416203187338463 -0.008524779155647403 0.0016341361142662276 0.013436586996730724
 0.0016587571448708719 0.01343320828070014 -0.001416203187338463 -0.008524779155647403 0.006065143275876549 0.027863678519159985 0.9925682221586068 -0.0667636036672445
 -0.0014164688749050448 -0.008524769337021969 0.0016341361142662276 0.013436586996730724 0.9925682221586068 -0.0667636036672445 0.006069002521322181 0.027863357702134606
0.09378907878283 0.0065374678436432325 0.029994047563111963 0.9919398270656449 -0.07164469787208169 0.001864878523803897 0.014390965624249021 -0.0015899570979791893 -0.009135134792549625
 0.9919398270656449 -0.07164469787208169 0.00654245610978996 0.029993622564749654 -0.0015896531031930605 -0.009135148308335585 0.001836608131787046 0.014394947037288008
 0.001864878523803897 0.014390965624249021 -0.0015896531031930605 -0.009135148308335585 0.006537801714416737 0.02999525736770425 0.9919398845162849 -0.07164344534203135
 -0.0015899570979791893 -0.009135134792549625 0.001836608131787046 0.014394947037288008 0.9919398845162849 -0.07164344534203135 0.006542231379138811 0.029994894380395876
0.100041684035 0.007034479081524994 0.03214169124650818 0.99127942376822 -0.07653861722107538 0.0020838685010194018 0.015347464514433045 -0.0017742908156272014 -0.009744615153311025
 0.99127942376822 -0.07653861722107538 0.007040154412639722 0.03214121118834145 -0.0017739460538452186 -0.009744632928792657 0.0020516959420248636 0.015352117200312891
 0.0020838685010194018 0.015347464514433045 -0.0017739460538452186 -0.009744632928792657 0.00703485856095028 0.032142977396912194 0.9912794889216623 -0.07653728093854903
 -0.0017742908156272014 -0.009744615153311025 0.0020516959420248636 0.015352117200312891 0.9912794889216623 -0.07653728093854903 0.007039898126728734 0.032142569088179605
0.1059090909091 0.007523392411707573 0.03417133481064598 0.9906302219939711 -0.0811434926131236 0.0023011443236599883 0.016243699036344202 -0.0019572081239299798 -0.010315554238722697
 0.9906302219939711 -0.0811434926131236 0.007529753002375132 0.034170799155351705 -0.001956822888342504 -0.010315576550123067 0.0022650801465294817 0.01624904754782744
 0.0023011443236599883 0.016243699036344202 -0.001956822888342504 -0.010315576550123067 0.007523817317486166 0.03417269188665971 0.9906302948354359 -0.08114207766364134
 -0.0019572081239299798 -0.010315554238722697 0.0022650801465294817 0.01624904754782744 0.9906302948354359 -0.08114207766364134 0.007529465190025859 0.03417223807450217
0.1062942892872 0.007556260204295145 0.03430505794373605 0.9905865955251653 -0.08144622022915667 0.0023158090839914902 0.01630248745259631 -0.0019695550647107108 -0.010352998640065569
 0.9905865955251653 -0.08144622022915667 0.007562667156698123 0.03430451850149291 -0.0019691670972900106 -0.010353021268112815 0.002279481638212022 0.016307883959633927
 0.0023158090839914902 0.01630248745259631 -0.0019691670972900106 -0.010353021268112815 0.007556688181097924 0.0343064196514372 0.9905866688871101 -0.08144480011184424
 -0.0019695550647107108 -0.010352998640065569 0.002279481638212022 0.016307883959633927 0.9905866688871101 -0.08144480011184424 0.0075623772096727005 0.03430596274866638
0.11254689453939999 0.00810318103965559 0.03648372685337571 0.989860979552002 -0.08636718168497574 0.0025607779452257004 0.017255812629198473 -0.0021758304988474626 -0.01096006998909746
 0.989860979552002 -0.08636718168497574 0.00811036425530842 0.0364831235118641 -0.002175396908242603 -0.0109600980928931 0.002520043044361956 0.017262029509611348
 0.0025607779452257004 0.017255812629198473 -0.002175396908242603 -0.0109600980928931 0.008103660392400009 0.03648516327923519 0.9898610616332544 -0.08636567764644686
 -0.0021758304988474626 -0.01096006998909746 0.002520043044361956 0.017262029509611348 0.9898610616332544 -0.08636567764644686 0.008110038536257724 0.03648465438376317
0.11879949979160001 0.008675606679840797 0.038677274193163864 0.9891022170415424 -0.09130116263950167 0.002818848267420377 0.018207214073643396 -0.0023931932480067545 -0.011565610456025718
 0.9891022170415424 -0.09130116263950167 0.008683610895511418 0.0386766022406582 -0.0023927116378036264 -0.011565644688957103 0.002773453563012377 0.01821433191368813
 0.002818848267420377 0.018207214073643396 -0.0023927116378036264 -0.011565644688957103 0.008676140276341475 0.03867878445195088 0.9891023083592675 -0.09129957458435017
 -0.0023931932480067545 -0.011565610456025718 0.002773453563012377 0.01821433191368813 0.9891023083592675 -0.09129957458435017 0.00868324728915048 0.03867822003402247
0.1250521050438 0.009273897284614323 0.040885272359542944 0.988309953428062 -0.0962478113082488 0.0030900885911968393 0.019156461792354064 -0.002621714777229859 -0.012169397842265473
 0.988309953428062 -0.0962478113082488 0.009282767341099911 0.040884526881656974 -0.0026211827722382617 -0.012169438887922475 0.003039782024911442 0.01916456524116224
 0.0030900885911968393 0.019156461792354064 -0.0026211827722382617 -0.012169438887922475 0.00927448798050247 0.040886855517582 0.988310054505381 -0.09624613913422493
 -0.002621714777229859 -0.012169397842265473 0.003039782024911442 0.01916456524116224 0.988310054505381 -0.09624613913422493 0.009282363727778202 0.04088623191076812
0.131304710296 0.009898407877141968 0.04310728926746527 0.9874838386452768 -0.10120676380670794 0.0033745626640375712 0.02010332190339874 -0.002861461745656539 -0.012771206536263615
 0.9874838386452768 -0.10120676380670794 0.009908188728357274 0.04310646514054761 -0.0028608769919079425 -0.012771255108328345 0.0033190925401516847 0.02011249970037409
 0.0033745626640375712 0.02010332190339874 -0.0028608769919079425 -0.012771255108328345 0.009899058514690707 0.04310894434301816 0.9874839500119866 -0.10120500740418692
 -0.002861461745656539 -0.012771206536263615 0.0033190925401516847 0.02011249970037409 0.9874839500119866 -0.10120500740418692 0.009907742984666566 0.043108257738080115
0.1375573155481 0.01041470100886475 0.045054074455622393 0.9867583836224008 -0.10588865634401863 0.0036390885371375453 0.021019866464023776 -0.0030793226201393884 -0.013343091398608823
 0.9867583836224008 -0.10588865634401863 0.010425439726872779 0.045053182694883044 -0.003078681435373338 -0.013343147632063825 0.0035783273905264862 0.021030113143236683
 0.0036390885371375453 0.021019866464023776 -0.003078681435373338 -0.013343147632063825 0.010415413535917739 0.045055800941312736 0.986758505748022 -0.10588681569138651
 -0.0030793226201393884 -0.013343091398608823 0.0035783273905264862 0.021030113143236683 0.986758505748022 -0.10588681569138651 0.010424950735068555 0.04505506287462957
0.1438099208003 0.010949397391392182 0.046989005687867534 0.9860069180804741 -0.11055704657842015 0.0039142424994070574 0.021931639943975408 -0.0033058217129707185 -0.013910630756437293
 0.9860069180804741 -0.11055704657842015 0.010961139357550038 0.04698804206828578 -0.0033051215350381326 -0.013910695367725288 0.0038479615324408757 0.021943037424648974
 0.0039142424994070574 0.021931639943975408 -0.0033051215350381326 -0.013910695367725288 0.010950174470989605 0.04699080262373101 0.9860070514911968 -0.11055512157914557
 -0.0033058217129707185 -0.013910630756437293 0.0038479615324408757 0.021943037424648974 0.9860070514911968 -0.11055512157914557 0.010960605171645795 0.0469900101312932
0.1500625260525 0.01150228311937124 0.04891187373669482 0.9852296610134192 -0.11521176962887417 0.00419991251005714 0.022838515159345617 -0.003540850760615472 -0.014473707000977514
 0.9852296610134192 -0.11521176962887417 0.011515073822640182 0.04891083378652546 -0.003540089032001879 -0.014473780736154927 0.004127884696300819 0.022851148328828595
 0.00419991251005714 0.022838515159345617 -0.003540089032001879 -0.014473780736154927 0.011503127391681425 0.04891374012879183 0.9852298062403212 -0.11520976018192022
 -0.003540850760615472 -0.014473707000977514 0.004127884696300819 0.022851148328828595 0.9852298062403212 -0.11520976018192022 0.0115144925052072 0.04891289004619762
0.15631513130469998 0.012073142462361797 0.05082247563307452 0.9844268328688301 -0.1198526623177569 0.0044959850132011035 0.02374036747622869 -0.003784300001310164 -0.015032205340514738
 0.9844268328688301 -0.1198526623177569 0.01208702750143671 0.05082135462778385 -0.003783474169059774 -0.015032288975251874 0.004417985130409114 0.023754324151252365
