! Created with skrf 1.8.0 (http://scikit-rf.org).
# GHz S RI R 50.0 
!freq ReS11 ImS11 ReS12 ImS12 ReS13 ImS13
! ReS14 ImS14
! ReS21 ImS21 ReS22 ImS22 ReS23 ImS23
! ReS24 ImS24
! ReS31 ImS31 ReS32 ImS32 ReS33 ImS33
! ReS34 ImS34
! ReS41 ImS41 ReS42 ImS42 ReS43 ImS43
! ReS44 ImS44
!
0.0 0.001508141158403 0.0 0.9984918588389 0.0 5.79048261424e-05 0.0 -5.790482635906e-05 7.091296025580612e-21
 0.9984918588389 0.0 0.001508141158413 0.0 -5.79048263593e-05 7.091296025610003e-21 5.790482614295e-05 0.0
 5.79048261424e-05 0.0 -5.79048263593e-05 7.091296025610003e-21 0.001508141153076 0.0 0.9984918588336 0.0
 -5.790482635906e-05 7.091296025580612e-21 5.790482614295e-05 0.0 0.9984918588336 0.0 0.001508141153069 0.0
0.005 0.0016224832033431716 0.0012377924516471096 0.9983472315182503 -0.0031590190526301167 8.049293333137382e-05 0.0006145872705104703 -7.830377165070668e-05 -0.00038987861220543877
 0.9983472315182503 -0.0031590190526301167 0.0016225009606323348 0.0012377821244412245 -7.830386750157987e-05 -0.0003898787458456529 8.037612556137695e-05 0.0006146316400972358
 8.049293333137382e-05 0.0006145872705104703 -7.830386750157987e-05 -0.0003898787458456529 0.0016224824807861808 0.0012377256482560847 0.9983472311599396 -0.003159086116796694
 -7.830377165070668e-05 -0.00038987861220543877 8.037612556137695e-05 0.0006146316400972358 0.9983472311599396 -0.003159086116796694 0.001622500966965389 0.0012377147985085908
0.006252605252188 0.0016524381406661723 0.001552095861629571 0.9983091094112316 -0.003949549556524367 8.693105999370468e-05 0.0007685443629089814 -8.404254371309373e-05 -0.0004878486846770044
 0.9983091094112316 -0.003949549556524367 0.0016524658982497021 0.001552082768190839 -8.404269238752104e-05 -0.0004878488507403396 8.674855698854577e-05 0.0007686019862683067
 8.693105999370468e-05 0.0007685443629089814 -8.404269238752104e-05 -0.0004878488507403396 0.001652437090011991 0.001552012366644977 0.9983091089302882 -0.003949633383280421
 -8.404254371309373e-05 -0.0004878486846770044 8.674855698854577e-05 0.0007686019862683067 0.9983091089302882 -0.003949633383280421 0.0016524659878950731 0.001551998607859704
0.01250521050438 0.0018099325293167924 0.0031366060771024357 0.9981073791510487 -0.00789991251260069 0.00012377178568680037 0.001537524246201468 -0.00011649281665259431 -0.0009780593754579285
 0.9981073791510487 -0.00789991251260069 0.0018100433601317561 0.0031365780322303847 -0.0001164933967896277 -0.0009780596974307808 0.0001230439559288254 0.00153766276666087
 0.00012377178568680037 0.001537524246201468 -0.0001164933967896277 -0.0009780596974307808 0.0018099288946148281 0.003136439416388463 0.9981073777986003 -0.007900079897504676
 -0.00011649281665259431 -0.0009780593754579285 0.0001230439559288254 0.00153766276666087 0.9981073777986003 -0.007900079897504676 0.0018100442933022926 0.003136409910472431
0.01875781575657 0.0019809622098981346 0.004743615134543753 0.9978864215489249 -0.011860705380928344 0.00016851136334023123 0.0023074295270117144 -0.00015535360129526388 -0.0014699623670501843
 0.9978864215489249 -0.011860705380928344 0.00198121123851757 0.0047435701401252525 -0.0001553548869572923 -0.0014699628348291847 0.00016687625383274683 0.002307676678707196
 0.00016851136334023123 0.0023074295270117144 -0.0001553548869572923 -0.0014699628348291847 0.001980954451910387 0.0047433654718166554 0.997886418933667 -0.011860956230294381
 -0.00015535360129526388 -0.0014699623670501843 0.00016687625383274683 0.002307676678707196 0.997886418933667 -0.011860956230294381 0.0019812137741498305 0.004743318063105604
0.02501042100875 0.0021658553958188993 0.006370889159458032 0.9976459804999002 -0.015833853118115932 0.0002212355994377521 0.0030782876005532875 -0.00020071992397113422 -0.001963345259578328
 0.9976459804999002 -0.015833853118115932 0.0021662976291765305 0.006370825098225655 -0.00020072218337260697 -0.001963345862678236 0.0002183310442918819 0.003078675425658161
 0.0002212355994377521 0.0030782876005532875 -0.00020072218337260697 -0.001963345862678236 0.00216584197191001 0.0063705566513879396 0.9976459762333363 -0.015834187354579747
 -0.00020071992397113422 -0.001963345259578328 0.0002183310442918819 0.003078675425658161 0.9976459762333363 -0.015834187354579747 0.0021663025347756068 0.006370489038396226
0.03126302626094 0.002364926725871343 0.008017281692564904 0.9973857866013239 -0.019820183322140826 0.00028203082681150995 0.0038500579934069045 -0.0002526842884094799 -0.0024580582686159814
 0.9973857866013239 -0.019820183322140826 0.0023656170843324416 0.008017196332793183 -0.00025268778491255544 -0.0024580589961692035 0.0002774941100234573 0.003850622868534487
 0.00028203082681150995 0.0038500579934069045 -0.00025268778491255544 -0.0024580589961692035 0.002364906086551681 0.008016866486287362 0.997385780294216 -0.019820600887443616
 -0.0002526842884094799 -0.0024580582686159814 0.0002774941100234573 0.003850622868534487 0.997385780294216 -0.019820600887443616 0.002365625132908729 0.00801677622600376
0.037515631513130004 0.002578484095215419 0.009682047567474693 0.9971055641840266 -0.02382011229387242 0.00035098304724428934 0.004622673348707222 -0.00031133730247309 -0.0029539732315657227
 0.9971055641840266 -0.02382011229387242 0.0025794774334852283 0.009681938565462456 -0.0003113422951603332 -0.002953974072349721 0.0003444507496421167 0.004623456029746974
 0.00035098304724428934 0.004622673348707222 -0.0003113422951603332 -0.002953974072349721 0.0025784546866049725 0.009681549811098158 0.9971055554490112 -0.023820613138677175
 -0.00031133730247309 -0.0029539732315657227 0.0003444507496421167 0.004623456029746974 0.9971055554490112 -0.023820613138677175 0.0025794894057916407 0.00968143432113267
0.043768236765320004 0.002806831297389965 0.011364634122791486 0.9968050341588177 -0.02783385375488142 0.00042817752518567204 0.005396051895269415 -0.0003767679050313834 -0.0034509711349362806
 0.9968050341588177 -0.02783385375488142 0.0028081824211581255 0.01136449902461428 -0.00037677464909250904 -0.003450972077418955 0.00041928545008383113 0.005397097567947771
 0.00042817752518567204 0.005396051895269415 -0.00037677464909250904 -0.003450972077418955 0.0028067915599279064 0.011364053974824206 0.9968050226088414 -0.02783443782967182
 -0.0003767679050313834 -0.0034509711349362806 0.00041928545008383113 0.005397097567947771 0.9968050226088414 -0.02783443782967182 0.002808199104085878 0.011363910534726955
0.050020842017509996 0.003050269248897493 0.013064594906787085 0.9964839154485743 -0.03186150507043814 0.0005136985467778767 0.006170102592518681 -0.0004490634441488575 -0.003948936968813552
 0.9964839154485743 -0.03186150507043814 0.003052032929505729 0.013064431149337278 -0.0004490721911785965 -0.0039489380011984805 0.0005020816875502118 0.006171460925364273
 0.0005136985467778767 0.006170102592518681 -0.0004490721911785965 -0.0039489380011984805 0.0030502176184360914 0.013063932533296619 0.9964839006981484 -0.03186217232864219
 -0.0004490634441488575 -0.003948936968813552 0.0005020816875502118 0.006171460925364273 0.9964839006981484 -0.03186217232864219 0.003052055116638904 0.01306375828522085
0.055454545454549996 0.0032743117550187704 0.014555724067392209 0.996187913862764 -0.03537297208113653 0.000594845676221739 0.006843246168592199 -0.00051753228185728 -0.004382382263428026
 0.996187913862764 -0.03537297208113653 0.003276478424428032 0.014555533238475901 -0.0005175429712270532 -0.004382383364194813 0.0005805638320149623 0.00684492007175189
 0.000594845676221739 0.006843246168592199 -0.0005175429712270532 -0.004382383364194813 0.003274248514520761 0.014554990379297618 0.9961878960179932 -0.03537371159194028
 -0.00051753228185728 -0.004382382263428026 0.0005805638320149623 0.00684492007175189 0.9961878960179932 -0.03537371159194028 0.003276506043446967 0.014554786930768223
0.056273447269699996 0.00330909662365113 0.014781547331332785 0.9961419258354491 -0.03590308952409954 0.0006076292479796002 0.006944727655741107 -0.0005283096929123699 -0.004447757204130626
 0.9961419258354491 -0.03590308952409954 0.0033113276115275332 0.014781352243183898 -0.0005283206911450583 -0.004447758314407932 0.0005929217804805276 0.006946452854145104
 0.0006076292479796002 0.006944727655741107 -0.0005283206911450583 -0.004447758314407932 0.0033090315305310766 0.01478080290770711 0.9961419074991145 -0.03590383992076285
 -0.0005283096929123699 -0.004447757204130626 0.0005929217804805276 0.006946452854145104 0.9961419074991145 -0.03590383992076285 0.0033113561016827582 0.014780594856735189
0.06252605252188 0.0035836101911492883 0.016515149381488462 0.9957787825140906 -0.03995857953896654 0.0007100514787295715 0.007719823947474869 -0.0006145908313613222 -0.0049473184072356515
 0.9957787825140906 -0.03995857953896654 0.0035863632284242743 0.016514920183080595 -0.0006146043258257656 -0.004947319583217191 0.0006918867707928889 0.007721974808205977
 0.0007100514787295715 0.007719823947474869 -0.0006146043258257656 -0.004947319583217191 0.0035835300609516536 0.016514323092006667 0.9957787602074407 -0.039959413031430545
 -0.0006145908313613222 -0.0049473184072356515 0.0006918867707928889 0.007721974808205977 0.9957787602074407 -0.039959413031430545 0.003586398826252319 0.016514078106050684
0.06877865777407 0.00387410499839003 0.018265085728558485 0.9953942024936291 -0.04402791049855902 0.0008210456872223173 0.008495283806314051 -0.0007079894094234793 -0.005447506420678894
 0.9953942024936291 -0.04402791049855902 0.003877434831386186 0.0182648195322494 -0.0007080056421664223 -0.0054475076500436655 0.0007990563194730732 0.008497923772160717
 0.0008210456872223173 0.008495283806314051 -0.0007080056421664223 -0.0054475076500436655 0.0038740082519083197 0.018264177771136186 0.9953941758326493 -0.04402882704205555
 -0.0007079894094234793 -0.005447506420678894 0.0007990563194730732 0.008497923772160717 0.9953941758326493 -0.04402882704205555 0.003877478346272272 0.018263892580514127
0.07503126302626001 0.004180874455719103 0.020031058938263006 0.9949879029066083 -0.048110989476234975 0.0009406908157024622 0.009270995575455966 -0.0008085862979216931 -0.0059482058481471695
 0.9949879029066083 -0.048110989476234975 0.004184835847304621 0.02003075274785412 -0.0008086055081521653 -0.0059482071184851 0.0009145086114506041 0.009274192789734724
 0.0009406908157024622 0.009270995575455966 -0.0008086055081521653 -0.0059482071184851 0.0041807595095722785 0.02003006952051565 0.994987871508193 -0.04811198902814176
 -0.0008085862979216931 -0.0059482058481471695 0.0009145086114506041 0.009274192789734724 0.994987871508193 -0.04811198902814176 0.0041848880935591885 0.020029740717111236
0.08128386827845 0.004504210365019671 0.02181278360211793 0.9945596012639498 -0.05220770104559703 0.001069064203097736 0.010046843962040787 -0.0009164606324272811 -0.006449299712603896
 0.9945596012639498 -0.05220770104559703 0.004508858106376566 0.021812434312167464 -0.0009164830566418783 -0.0064493010114494214 0.0010383202648624522 0.010050671322863405
 0.001069064203097736 0.010046843962040787 -0.0009164830566418783 -0.0064493010114494214 0.004504075631028 0.021811712946554096 0.9945595647452101 -0.052208783560623855
 -0.0009164606324272811 -0.006449299712603896 0.0010383202648624522 0.010050671322863405 0.9945595647452101 -0.052208783560623855 0.004508919902087591 0.021811336982684677
0.08753647353064001 0.004844402906629416 0.02360998229567602 0.9941090156724525 -0.05631791126856726 0.001206241492875328 0.010822710283463285 -0.0010316897509279274 -0.0069506692317032005
 0.9941090156724525 -0.05631791126856726 0.0048497918293952304 0.0236095866902497 -0.0010317156230454626 -0.006950670546569431 0.001170566244614965 0.010827245497570267
 0.001206241492875328 0.010822710283463285 -0.0010317156230454626 -0.006950670546569431 0.004844246792948089 0.023608830635629914 0.9941089736513115 -0.05631907670308726
 -0.0010316897509279274 -0.0069506692317032005 0.001170566244614965 0.010827245497570267 0.9941089736513115 -0.05631907670308726 0.004849863996966817 0.023608403822464135
0.09378907878283 0.00520174060103785 0.025422382685269376 0.9936358650298567 -0.06044147053942785 0.0013522965436545146 0.011598472652597452 -0.001154349128065557 -0.007452193658544831
 0.9936358650298567 -0.06044147053942785 0.0052079255894520475 0.025421937436471264 -0.0011543786795844202 -0.007452194976960063 0.0013113197774511985 0.011603798288718686
 0.0013522965436545146 0.011598472652597452 -0.0011543786795844202 -0.007452194976960063 0.005201561511960882 0.02542115026600557 0.9936358171248669 -0.06044271885069166
 -0.001154349128065557 -0.007452193658544831 0.0013113197774511985 0.011603798288718686 0.9936358171248669 -0.06044271885069166 0.005208008954511909 0.025420668771700794
0.100041684035 0.005576510249794366 0.027249715399409954 0.9931398692034186 -0.06457821566949265 0.0015073013418669733 0.012374006117784206 -0.0012845123063690564 -0.007953750172158951
 0.9931398692034186 -0.06457821566949265 0.005583546252709683 0.027249217065407682 -0.0012845457664495007 -0.007953751481694147 0.0014606522687093527 0.01238020965943555
 0.0015073013418669733 0.012374006117784206 -0.0012845457664495007 -0.007953751481694147 0.005576306586041372 0.02724840248308743 0.9931398150333455 -0.06457954681101193
 -0.0012845123063690564 -0.007953750172158951 0.0014606522687093527 0.01238020965943555 0.9931398150333455 -0.06457954681101193 0.005583641644016641 0.027247862330410707
0.1059090909091 0.0059442998951231675 0.02897781538279482 0.9926534037413016 -0.06847194867665597 0.0016609590079010627 0.013101439937188389 -0.0014135450217496886 -0.008424325650401642
 0.9926534037413016 -0.06847194867665597 0.0059521845284345645 0.028977264000113086 -0.0014135823560876525 -0.008424326940360544 0.0016086493777706665 0.01310855128920014
 0.0016609590079010627 0.013101439937188389 -0.0014135823560876525 -0.008424326940360544 0.005944071713474164 0.02897642717808853 0.9926533433463038 -0.06847335750414048
 -0.0014135450217496886 -0.008424325650401642 0.0016086493777706665 0.01310855128920014 0.9926533433463038 -0.06847335750414048 0.005952291961278859 0.028975828231727955
0.1062942892872 0.005968996862252238 0.02909171244236019 0.9926207491960891 -0.06872797143448149 0.0016713259158887455 0.013149182775323853 -0.001422250825217207 -0.008455213800017888
 0.9926207491960891 -0.06872797143448149 0.005976938905230075 0.029091157465067442 -0.001422288420848024 -0.008455215088313647 0.001618633219859756 0.013156356672930206
 0.0016713259158887455 0.013149182775323853 -0.001422288420848024 -0.008455215088313647 0.005968767021574671 0.029090319303700016 0.9926206883807595 -0.06872938536062959
 -0.001422250825217207 -0.008455213800017888 0.001618633219859756 0.013156356672930206 0.9926206883807595 -0.06872938536062959 0.0059770471542975635 0.029089716367456088
0.11254689453939999 0.006379483571536697 0.030948105973480557 0.9920782273066668 -0.07289055176173108 0.0018444382512118188 0.013923871858130847 -0.0015676341480881037 -0.008956457369076104
 0.9920782273066668 -0.07289055176173108 0.006388386769318666 0.030947490675750377 -0.001567676104150673 -0.008956458623870123 0.0017853301467961784 0.013932113580486797
 0.0018444382512118188 0.013923871858130847 -0.001567676104150673 -0.008956458623870123 0.006379225948564609 0.030946632902074986 0.9920781594661987 -0.07289204842580294
 -0.0015676341480881037 -0.008956457369076104 0.0017853301467961784 0.013932113580486797 0.9920781594661987 -0.07289204842580294 0.0063885087099231725 0.030945962905828853
0.11879949979160001 0.006808251541587092 0.032818627361830874 0.9915120272825685 -0.07706576064753333 0.0020267042063128204 0.01469793981558061 -0.0017207295884108392 -0.009457351470380423
 0.9915120272825685 -0.07706576064753333 0.006818171110209408 0.032817947944315085 -0.0017207761278411411 -0.00945735267952747 0.0019608084983821893 0.01470735190044716
 0.0020267042063128204 0.01469793981558061 -0.0017207761278411411 -0.00945735267952747 0.006807964528359803 0.03281707466095621 0.9915119520375844 -0.07706734000317281
 -0.0017207295884108392 -0.009457351470380423 0.0019608084983821893 0.01470735190044716 0.9915119520375844 -0.07706734000317281 0.006818307577865175 0.032816333173638544
0.1250521050438 0.007255579867070386 0.03470300643484338 0.9909218744689899 -0.08125339288616892 0.00221818742900894 0.01547125038094845 -0.0018816022343025659 -0.009957764440950933
 0.9909218744689899 -0.08125339288616892 0.007266571136373489 0.03470225897227947 -0.0018816535781998594 -0.009957765592432406 0.0021451315756021105 0.015481940484908729
 0.00221818742900894 0.01547125038094845 -0.0018816535781998594 -0.009957765592432406 0.007255261853472804 0.03470137442186453 0.9909217914406258 -0.08125505488727029
 -0.0018816022343025659 -0.009957764440950933 0.0021451315756021105 0.015481940484908729 0.9909217914406258 -0.08125505488727029 0.0072667229680650515 0.03470055685378341
0.131304710296 0.007721745468079324 0.03660097088384436 0.9903074959553705 -0.08545323464802738 0.0024189492732641206 0.016243664634086514 -0.002050314872575305 -0.010457562355354777
 0.9903074959553705 -0.08545323464802738 0.007733863894166785 0.03660015132102869 -0.0020503712402739323 -0.010457563437321576 0.002338360450665091 0.016255745581451694
 0.0024189492732641206 0.016243664634086514 -0.0020503712402739323 -0.010457563437321576 0.007721394841986196 0.03659925989303097 0.9903074047653935 -0.08545497924624343
 -0.002050314872575305 -0.010457562355354777 0.002338360450665091 0.016255745581451694 0.9903074047653935 -0.08545497924624343 0.007734031928104482 0.036598361491391486
0.1375573155481 0.00809915392004009 0.03826584583360264 0.989776528087284 -0.0894185632678469 0.002603736871176762 0.01699068379084744 -0.0022017136806014377 -0.010932196520557071
 0.989776528087284 -0.0894185632678469 0.00811246008376649 0.038264967009563104 -0.00220177557131074 -0.01093219754033969 0.0025154322793900924 0.017004137234408506
 0.002603736871176762 0.01699068379084744 -0.00220177557131074 -0.01093219754033969 0.008098769926839276 0.038264055783845126 0.9897764283700902 -0.08942039038758037
 -0.0022017136806014377 -0.010932196520557071 0.0025154322793900924 0.017004137234408506 0.9897764283700902 -0.08942039038758037 0.008112644271609104 0.03826308946043441
0.1438099208003 0.008489824328586472 0.03992213697756295 0.9892269253769926 -0.09337400295802949 0.0027959915255432828 0.0177346740031866 -0.002359161687841095 -0.011404087495505257
 0.9892269253769926 -0.09337400295802949 0.008504374661007768 0.03992119575776809 -0.002359229368656783 -0.011404088437106824 0.0026996322848260017 0.017749603015455005
 0.0027959915255432828 0.0177346740031866 -0.002359229368656783 -0.011404088437106824 0.008489405507677834 0.03992026815757224 0.9892268167583417 -0.09337591254382883
 -0.002359161687841095 -0.011404087495505257 0.0026996322848260017 0.017749603015455005 0.9892268167583417 -0.09337591254382883 0.008504575680711932 0.03991923014592151
0.1500625260525 0.008893621400812334 0.041569710812678844 0.9886588269985592 -0.0973194600882691 0.00299564812799854 0.018475559442611273 -0.002522596358861027 -0.011873165038346286
 0.9886588269985592 -0.0973194600882691 0.008909472487480141 0.04156870386149266 -0.002522670098547811 -0.011873165884766562 0.0028908972902826698 0.018492070863169414
 0.00299564812799854 0.018475559442611273 -0.002522670098547811 -0.011873165884766562 0.008893166299503529 0.04156776352221321 0.9886587091052713 -0.09732145208098705
 -0.002522596358861027 -0.011873165038346286 0.0028908972902826698 0.018492070863169414 0.9886587091052713 -0.09732145208098705 0.008909691006858232 0.041566649832578566
0.15631513130469998 0.009310408915002694 0.043208437887415345 0.9880723727972421 -0.10125484126224599 0.003202640811821304 0.01921326554254325 -0.0026919544019182932 -0.012339360373162748
