! Created with skrf 1.8.0 (http://scikit-rf.org).
# GHz S RI R 50.0 
!freq ReS11 ImS11 ReS12 ImS12 ReS13 ImS13
! ReS14 ImS14
! ReS21 ImS21 ReS22 ImS22 ReS23 ImS23
! ReS24 ImS24
! ReS31 ImS31 ReS32 ImS32 ReS33 ImS33
! ReS34 ImS34
! ReS41 ImS41 ReS42 ImS42 ReS43 ImS43
! ReS44 ImS44
!
0.0 0.002022205436106 0.0 0.9979777945355 0.0 7.927535908868e-05 0.0 -7.927535802234e-05 9.708431345331912e-21
 0.9979777945355 0.0 0.002022205436074 0.0 -7.927535802195e-05 9.70843134528415e-21 7.927535908714e-05 0.0
 7.927535908868e-05 0.0 -7.927535802195e-05 9.70843134528415e-21 0.002022205440353 0.0 0.9979777945398 0.0
 -7.927535802234e-05 9.708431345331912e-21 7.927535908714e-05 0.0 0.9979777945398 0.0 0.002022205440348 0.0
0.005 0.002177624304415831 0.0016435795135181857 0.9977808082082851 -0.004234689667357343 0.00011361107798841788 0.0009275789163972154 -0.00010980336690737713 -0.0005724157179931255
 0.9977808082082851 -0.004234689667357343 0.002177635344085431 0.0016435729524276882 -0.00010980547106835371 -0.0005724172059058447 0.00011354385292373752 0.0009276046533591796
 0.00011361107798841788 0.0009275789163972154 -0.00010980547106835371 -0.0005724172059058447 0.002177624226167145 0.001643646773812185 0.9977808086108427 -0.0042346225958197
 -0.00010980336690737713 -0.0005724157179931255 0.00011354385292373752 0.0009276046533591796 0.9977808086108427 -0.0042346225958197 0.0021776362091590912 0.0016436398151998106
0.006252605252188 0.0022189301514851175 0.0020609055006236814 0.9977280331131677 -0.005294312868349051 0.00012375267401534351 0.0011598593173283568 -0.00011869701810064536 -0.0007162369237700912
 0.9977280331131677 -0.005294312868349051 0.002218947409102895 0.0020608971365155874 -0.00011870029326889606 -0.0007162387542514699 0.0001236476446563745 0.0011598927695449896
 0.00012375267401534351 0.0011598593173283568 -0.00011870029326889606 -0.0007162387542514699 0.0022189299569414025 0.0020609895414293537 0.9977280336701668 -0.005294229044338123
 -0.00011869701810064536 -0.0007162369237700912 0.0001236476446563745 0.0011598927695449896 0.9977280336701668 -0.005294229044338123 0.0022189486881136413 0.002060980699928103
0.01250521050438 0.002439539372131717 0.0041644888294638605 0.9974438823655639 -0.010588784198378939 0.00018366370145164444 0.002319607706297342 -0.00017063021889565202 -0.001435608030480842
 0.9974438823655639 -0.010588784198378939 0.002439608296730138 0.004164470453316368 -0.00017064313698348616 -0.001435611359952127 0.00018324495178511375 0.0023196887046868166
 0.00018366370145164444 0.002319607706297342 -0.00017064313698348616 -0.001435611359952127 0.0024395380321288727 0.004164656452683169 0.9974438840240986 -0.01058861675595701
 -0.00017063021889565202 -0.001435608030480842 0.00018324495178511375 0.0023196887046868166 0.9974438840240986 -0.01058861675595701 0.0024396128182613236 0.004164637314981492
0.01875781575657 0.002684625052080685 0.006297281453675797 0.9971249122881433 -0.015896164621631736 0.0002591614024284577 0.0034799809384578823 -0.0002352588967945733 -0.002156907485915604
 0.9971249122881433 -0.015896164621631736 0.0026847799590905153 0.006297251293505532 -0.00023528771810838147 -0.002156911896592002 0.0002582209369993753 0.0034801269586344405
 0.0002591614024284577 0.0034799809384578823 -0.00023528771810838147 -0.002156911896592002 0.0026846216220424005 0.006297532253384308 0.9971249155976316 -0.015895913561025973
 -0.0002352588967945733 -0.002156907485915604 0.0002582209369993753 0.0034801269586344405 0.9971249155976316 -0.015895913561025973 0.0026847896567624833 0.006297501234554849
0.02501042100875 0.0029547540303442896 0.008456123995338998 0.9967706734829367 -0.02121887203843125 0.0003504001064730772 0.004640936094486772 -0.0003127575283890854 -0.0028796948311095544
 0.9967706734829367 -0.02121887203843125 0.0029550291865308624 0.008456080164872615 -0.00031280844084427507 -0.0028796998131433937 0.0003487300241711492 0.00464116790221993
 0.0003504001064730772 0.004640936094486772 -0.00031280844084427507 -0.0028796998131433937 0.002954747570420945 0.008456457477454122 0.9967706790045325 -0.0212185372937961
 -0.0003127575283890854 -0.0028796948311095544 0.0003487300241711492 0.00464116790221993 0.9967706790045325 -0.0212185372937961 0.0029550459698099866 0.008456412874587984
0.03126302626094 0.003250468659706445 0.010639311926832177 0.9963806984673065 -0.02655784598138148 0.00045753284038219235 0.005802314136640248 -0.0004032931167994508 -0.0036036325043706944
 0.9963806984673065 -0.02655784598138148 0.003250898303475368 0.01063925242685763 -0.0004033722471837742 -0.003603637455131614 0.0004549251697727831 0.005802655805099787
 0.00045753284038219235 0.005802314136640248 -0.0004033722471837742 -0.003603637455131614 0.0032504582225828223 0.010639727530333959 0.9963807067683268 -0.02655742739918377
 -0.0004032931167994508 -0.0036036325043706944 0.0004549251697727831 0.005802655805099787 0.9963807067683268 -0.02655742739918377 0.0032509240488017544 0.010639667524265498
0.037515631513130004 0.0035722972943243235 0.012845674382630741 0.9959545128131321 -0.0319134687982404 0.0005807095562044602 0.006963908797263582 -0.0005070264407631747 -0.004328417072653024
 0.9959545128131321 -0.0319134687982404 0.0035729156509454797 0.012845597101082334 -0.0005071398600945123 -0.004328421296511569 0.000576956199402395 0.0069643877353472265
 0.0005807095562044602 0.006963908797263582 -0.0005071398600945123 -0.004328421296511569 0.003572281925824506 0.012846171432156233 0.9959545244737265 -0.03191296618451688
 -0.0005070264407631747 -0.004328417072653024 0.000576956199402395 0.0069643877353472265 0.9959545244737265 -0.03191296618451688 0.0035729522048838403 0.012846094087574006
0.043768236765320004 0.003920758281798457 0.015074293829312788 0.9954916397929324 -0.037285845964930286 0.0007200762487142189 0.0081254875858596 -0.0006241124423634898 -0.005053758351704649
 0.9954916397929324 -0.037285845964930286 0.003921599575905135 0.015074196540628568 -0.0006242661687354657 -0.00505376105992982 0.0007149689717046344 0.008126134569710518
 0.0007200762487142189 0.0081254875858596 -0.0006242661687354657 -0.00505376105992982 0.0039207370172935135 0.0150748715634548 0.9954916554084673 -0.03728525905684868
 -0.0006241124423634898 -0.005053758351704649 0.0007149689717046344 0.008126134569710518 0.9954916554084673 -0.03728525905684868 0.003921648753685742 0.015074774828212303
0.050020842017509996 0.004296361752474455 0.017324390278610963 0.9949916028282696 -0.04267492185992619 0.0008757743885600518 0.009286800487244942 -0.0007547003071763733 -0.005779370847257733
 0.9949916028282696 -0.04267492185992619 0.004297460219211393 0.01732427064265792 -0.0007549003072725655 -0.0057793711579947156 0.0008691048367328702 0.00928764969254537
 0.0008757743885600518 0.009286800487244942 -0.0007549003072725655 -0.0057793711579947156 0.00429633361200033 0.01732504782167967 0.9949916230109255 -0.042674250354236665
 -0.0007547003071763733 -0.005779370847257733 0.0008691048367328702 0.00928764969254537 0.9949916230109255 -0.042674250354236665 0.0042975238019318665 0.017324929525583715
0.055454545454549996 0.004645206217908801 0.019296689723184417 0.9945265049857402 -0.047371631338072887 0.0010244500781877133 0.010295596520066784 -0.0008792617843836802 -0.006409949049577006
 0.9945265049857402 -0.047371631338072887 0.004646555995029282 0.01929654867608931 -0.0008795068041006664 -0.006409946488333022 0.0010162535822259438 0.01029665188130305
 0.0010244500781877133 0.010295596520066784 -0.0008795068041006664 -0.006409946488333022 0.0046451712921540215 0.019297415839701952 0.9945265296494389 -0.04737088601994962
 -0.0008792617843836802 -0.006409949049577006 0.0010162535822259438 0.01029665188130305 0.9945265296494389 -0.04737088601994962 0.004646633514948239 0.019297276950964604
0.056273447269699996 0.004699610471703323 0.019595264437646028 0.9944539270094217 -0.04808053661354721 0.0010479404913019913 0.010447584299040986 -0.0008989334113773072 -0.006504969571420829
 0.9944539270094217 -0.04808053661354721 0.004701000367736675 0.019595119998061284 -0.0008991856012564304 -0.006504966509700417 0.0010395002204181506 0.010448673333260662
 0.0010479404913019913 0.010447584299040986 -0.0008991856012564304 -0.006504966509700417 0.004699574457124614 0.019596000821041445 0.9944539523907134 -0.048079780145381244
 -0.0008989334113773072 -0.006504969571420829 0.0010395002204181506 0.010448673333260662 0.9944539523907134 -0.048079780145381244 0.004701080100914961 0.019595858673918224
0.06252605252188 0.005131000229712653 0.02188626652202669 0.9938781401572745 -0.05350245730951373 0.0012367057600812293 0.011607565021143365 -0.0010569491964158406 -0.007230267823191415
 0.9938781401572745 -0.05350245730951373 0.005132715843659126 0.02188609470407454 -0.0010572594418232879 -0.007230260320945485 0.0012262862774459077 0.011608934955301239
 0.0012367057600812293 0.011607565021143365 -0.0010572594418232879 -0.007230260320945485 0.005130955321052256 0.02188708067652309 0.9938781713907753 -0.05350161546055416
 -0.0010569491964158406 -0.007230267823191415 0.0012262862774459077 0.011608934955301239 0.9938781713907753 -0.05350161546055416 0.005132813434803776 0.021886912265888323
0.06877865777407 0.005591019975198091 0.024196777672316573 0.9932637736366116 -0.05894039660073486 0.0014421957638919194 0.012766459346940125 -0.001228879008583309 -0.007954975884263547
 0.9932637736366116 -0.05894039660073486 0.005593095637547384 0.02419657578024896 -0.0012292531247228976 -0.007954962780399222 0.0014295885774154944 0.012768154746437157
 0.0014421957638919194 0.012766459346940125 -0.0012292531247228976 -0.007954962780399222 0.005590965126426476 0.02419766842353753 0.993263811399943 -0.05893946890436157
 -0.001228879008583309 -0.007954975884263547 0.0014295885774154944 0.012768154746437157 0.993263811399943 -0.05893946890436157 0.005593212754450485 0.024197471211609024
0.07503126302626001 0.006080151797796018 0.026526198203317926 0.9926103630233838 -0.06439402451138249 0.0016645301425832829 0.013923975638928053 -0.001414847912772236 -0.008678800248070377
 0.9926103630233838 -0.06439402451138249 0.006082621891027832 0.02652596341727119 -0.0014152916640410732 -0.008678780288546692 0.0016495268152526797 0.013926044593529743
 0.0016645301425832829 0.013923975638928053 -0.0014152916640410732 -0.008678780288546692 0.006080085933430256 0.02652716427528478 0.9926104080210884 -0.06439301044995382
 -0.001414847912772236 -0.008678800248070377 0.0016495268152526797 0.013926044593529743 0.9926104080210884 -0.06439301044995382 0.006082760159239982 0.026526935595504283
0.08128386827845 0.0065988708147532065 0.028873939814701724 0.9919174486811118 -0.06986297629757475 0.0019038223262731145 0.015079814623600156 -0.0016149744929120882 -0.009401443147931966
 0.9919174486811118 -0.06986297629757475 0.006601769783344395 0.028873669186997842 -0.0016154935923687807 -0.00940141498586489 0.001886214535305572 0.015082308776087374
 0.0019038223262731145 0.015079814623600156 -0.0016154935923687807 -0.00940141498586489 0.006598792826167361 0.02887497983475823 0.9919175016465074 -0.06986187529838629
 -0.0016149744929120882 -0.009401443147931966 0.001886214535305572 0.015082308776087374 0.9919175016465074 -0.06986187529838629 0.006601930783835612 0.028874716887732035
0.08753647353064001 0.007147644994750908 0.03123942024593845 0.9911845762785073 -0.07534685788469563 0.0021601792661987856 0.016233669911660233 -0.0018293706426247482 -0.010122602278376283
 0.9911845762785073 -0.07534685788469563 0.007151007354915753 0.031239110696880686 -0.001829970751231018 -0.010122564474193957 0.002139758866243305 0.01623664448529162
 0.0021601792661987856 0.016233669911660233 -0.001829970751231018 -0.010122564474193957 0.00714755373647766 0.031240532735928996 0.991184637977195 -0.07534566933016575
 -0.0018293706426247482 -0.010122602278376283 0.002139758866243305 0.01623664448529162 0.991184637977195 -0.07534566933016575 0.0071511926223948785 0.031240232584682184
0.09378907878283 0.0077269349372535556 0.033622059472193815 0.990411297267125 -0.08084524978544477 0.0024337011738962055 0.01738522841641066 -0.0020581413500257713 -0.010841970637370423
 0.990411297267125 -0.08084524978544477 0.00773079528690818 0.03362170778529549 -0.002058828075923868 -0.010841921658960014 0.0024102602632351893 0.0173887422409542
 0.0024337011738962055 0.01738522841641066 -0.002058828075923868 -0.010841921658960014 0.007726829222919009 0.033623242859187955 0.9904113684982359 -0.08084397300356395
 -0.0020581413500257713 -0.010841970637370423 0.0024102602632351893 0.0173887422409542 0.9904113684982359 -0.08084397300356395 0.0077310063065552 0.033622902423997285
0.100041684035 0.008337193622021736 0.03602127696472574 0.9895971693305113 -0.08635770997536502 0.0027244812665235805 0.018534170701310484 -0.0023013844793230314 -0.011559236458481193
 0.9895971693305113 -0.08635770997536502 0.008341586650193456 0.03602087978147585 -0.0023021633768894583 -0.01155917468141159 0.0026978122562211883 0.018538286237650362
 0.0027244812665235805 0.018534170701310484 -0.0023021633768894583 -0.01155917468141159 0.00833707222066487 0.03602252957446023 0.98959725093029 -0.08635634424803688
 -0.0023013844793230314 -0.011559236458481193 0.0026978122562211883 0.018538286237650362 0.98959725093029 -0.08635634424803688 0.00834182485584471 0.03602214562699227
0.1059090909091 0.008938418988952288 0.03828724650736383 0.9887956567954139 -0.09154295253769702 0.003013120353691316 0.01960966189506692 -0.002542885599124457 -0.012230120212660043
 0.9887956567954139 -0.09154295253769702 0.008943343518769178 0.03828680344432893 -0.0025437559929404946 -0.012230044865951662 0.002983233656071169 0.019614402136377555
 0.003013120353691316 0.01960966189506692 -0.0025437559929404946 -0.012230044865951662 0.008938281704711597 0.03828856246545283 0.988795748920446 -0.09154150264871161
 -0.002542885599124457 -0.012230120212660043 0.002983233656071169 0.019614402136377555 0.988795748920446 -0.09154150264871161 0.008943608491792274 0.03828813461209162
0.1062942892872 0.00897886613452096 0.03843648965256417 0.9887417568129435 -0.09188377608994266 0.0030326055182031846 0.019680171287007407 -0.0025591905503175596 -0.012274083203156429
 0.9887417568129435 -0.09188377608994266 0.008983826631476162 0.03843604346644389 -0.0025600671191814543 -0.012274006910896732 0.003002501203871029 0.01968495465012499
 0.0030326055182031846 0.019680171287007407 -0.0025600671191814543 -0.012274006910896732 0.008978727767007134 0.03843780971219267 0.988741849656683 -0.09188232065195895
 -0.0025591905503175596 -0.012274083203156429 0.003002501203871029 0.01968495465012499 0.988741849656683 -0.09188232065195895 0.008984093403126052 0.03843737886897512
0.11254689453939999 0.00965238937715836 0.04086711040251895 0.9878446311335418 -0.09742296712633283 0.0033581524162213054 0.02082289893067906 -0.0028316425174328944 -0.012986189600278229
 0.9878446311335418 -0.09742296712633283 0.009657952243494458 0.040866611552618094 -0.00283262220148719 -0.012986096984456422 0.00332440605197914 0.020828419910987196
 0.0033581524162213054 0.02082289893067906 -0.00283262220148719 -0.012986096984456422 0.009652232712033207 0.04086849604599076 0.9878447361385927 -0.09742142116213487
 -0.0028316425174328944 -0.012986189600278229 0.00332440605197914 0.020828419910987196 0.9878447361385927 -0.09742142116213487 0.009658248904734395 0.04086801476133587
0.11879949979160001 0.010358191766207525 0.04331254687264662 0.986905371187967 -0.10297478479518682 0.003701192722368814 0.021962016886381133 -0.0031188155493428195 -0.013695229724300899
 0.986905371187967 -0.10297478479518682 0.010364392022694577 0.04331199153652773 -0.003119903735597281 -0.013695118885010623 0.003663598096838763 0.02196834896942932
 0.003701192722368814 0.021962016886381133 -0.003119903735597281 -0.013695118885010623 0.0103580154158793 0.04331399613672214 0.9869054893159802 -0.10297314744504402
 -0.0031188155493428195 -0.013695229724300899 0.003663598096838763 0.02196834896942932 0.9869054893159802 -0.10297314744504402 0.010364719838272824 0.043313460694942796
0.1250521050438 0.011096692921015682 0.045772200634779964 0.9859235637410896 -0.10853871462714255 0.004061789238446892 0.02309718315860206 -0.0034207768102729663 -0.014400873100202277
 0.9859235637410896 -0.10853871462714255 0.011103565717858097 0.045771584820841725 -0.0034219788277046795 -0.014400742046350948 0.004020140752867869 0.023104403542908207
 0.004061789238446892 0.02309718315860206 -0.0034219788277046795 -0.014400742046350948 0.011096495438332077 0.04577371146466329 0.9859236960007302 -0.10853698498406013
 -0.0034207768102729663 -0.014400873100202277 0.004020140752867869 0.023104403542908207 0.9859236960007302 -0.10853698498406013 0.011103925891283535 0.04577311797173824
0.131304710296 0.011868303346427994 0.04824546651632148 0.9848988038108365 -0.11411422688406463 0.0044399965772122935 0.024228050751302837 -0.0037375852432831556 -0.015102784832623697
 0.9848988038108365 -0.11411422688406463 0.01187588397258437 0.04824478605551567 -0.003738906361720814 -0.01510263148227282 0.004394089325163313 0.02423624036437388
 0.0044399965772122935 0.024228050751302837 -0.003738906361720814 -0.01510263148227282 0.011868083220294832 0.04824703676353375 0.984898951260395 -0.11411240399864046
 -0.0037375852432831556 -0.015102784832623697 0.004394089325163313 0.02423624036437388 0.984898951260395 -0.11411240399864046 0.011876277643230026 0.04824638113794562
0.1375573155481 0.012515034186960263 0.0504085998148145 0.9839891887690828 -0.11937738597508075 0.0047942309483390505 0.025324103405192325 -0.004027721076320099 -0.015770460644101876
 0.9839891887690828 -0.11937738597508075 0.012523359131574584 0.050407865488989304 -0.004029168903050894 -0.0157702844422586 0.004743959765589863 0.025333262405405135
 0.0047942309483390505 0.025324103405192325 -0.004029168903050894 -0.0157702844422586 0.012514788841253776 0.05041022834290404 0.9839893521706431 -0.11937546922818117
 -0.004027721076320099 -0.015770460644101876 0.004743959765589863 0.025333262405405135 0.9839893521706431 -0.11937546922818117 0.012523789017752803 0.0504095198874044
0.1438099208003 0.013184919281445676 0.05255652018989724 0.9830466088757449 -0.1246233576423997 0.005162604391290717 0.02641331234379068 -0.0043292526521828845 -0.016431890603539015
 0.9830466088757449 -0.1246233576423997 0.0131940241317144 0.05255572866679804 -0.004330832792935079 -0.016431689477953114 0.005107783268688188 0.026423515881932966
 0.005162604391290717 0.02641331234379068 -0.004330832792935079 -0.016431689477953114 0.013184646918415768 0.05255820483844266 0.9830467892983734 -0.12462134609702125
 -0.0043292526521828845 -0.016431890603539015 0.005107783268688188 0.026423515881932966 0.9830467892983734 -0.12462134609702125 0.013194491567602837 0.05255744012699013
0.1500625260525 0.013877655795083139 0.05468893742567642 0.9820713730111285 -0.12985189814336776 0.005544945008299931 0.02749548990963051 -0.004642013308288852 -0.017086901449702045
 0.9820713730111285 -0.12985189814336776 0.01388757625740685 0.054688085152700405 -0.004643731340074594 -0.017086673246473557 0.005485389729482584 0.027506815823956348
 0.005544945008299931 0.02749548990963051 -0.004643731340074594 -0.017086673246473557 0.013877354541416196 0.054690675957221255 0.9820715715661968 -0.12984979083447437
 -0.004642013308288852 -0.017086901449702045 0.005485389729482584 0.027506815823956348 0.9820715715661968 -0.12984979083447437 0.013888082533840846 0.05468985132812532
0.15631513130469998 0.01459293794798895 0.05680557024060864 0.9810637925120345 -0.1350627674872004 0.0059410784140075485 0.028570452789839176 -0.004965833923688315 -0.017735324621338134
 0.9810637925120345 -0.1350627674872004 0.0146037098502347 0.056804653437127595 -0.004967695394138524 -0.01773506710557784 0.00587660659252108 0.028582981563139362
