! Created with skrf 1.8.0 (http://scikit-rf.org).
# GHz S RI R 50.0 
!freq ReS11 ImS11 ReS12 ImS12 ReS13 ImS13
! ReS14 ImS14
! ReS21 ImS21 ReS22 ImS22 ReS23 ImS23
! ReS24 ImS24
! ReS31 ImS31 ReS32 ImS32 ReS33 ImS33
! ReS34 ImS34
! ReS41 ImS41 ReS42 ImS42 ReS43 ImS43
! ReS44 ImS44
!
0.0 0.001510191188496 0.0 0.9984898087973 0.0 5.825148532094e-05 0.0 -5.825148487691e-05 7.133749450008828e-21
 0.9984898087973 0.0 0.00151019118848 0.0 -5.825148487665e-05 7.133749449976988e-21 5.825148532082e-05 0.0
 5.825148532094e-05 0.0 -5.825148487665e-05 7.133749449976988e-21 0.001510191189891 0.0 0.9984898087987 0.0
 -5.825148487691e-05 7.133749450008828e-21 5.825148532082e-05 0.0 0.9984898087987 0.0 0.001510191189888 0.0
0.005 0.0016247641222733491 0.0012344574947340161 0.9983448820839136 -0.00316365435600267 8.166841301034049e-05 0.0006481144340299859 -7.93302082292661e-05 -0.00040572145128227
 0.9983448820839136 -0.00316365435600267 0.001624757960783251 0.001234461010180871 -7.933255194666684e-05 -0.0004057231494320534 8.171001787562718e-05 0.0006480987192412585
 8.166841301034049e-05 0.0006481144340299859 -7.933255194666684e-05 -0.0004057231494320534 0.0016247637860368758 0.0012345248918991416 0.9983448824382105 -0.0031635872985081187
 -7.93302082292661e-05 -0.00040572145128227 8.171001787562718e-05 0.0006480987192412585 0.9983448824382105 -0.0031635872985081187 0.0016247590018157168 0.0012345277254059025
0.006252605252188 0.0016547865635406455 0.0015479367378257562 0.998306673090675 -0.0039553464971831594 8.832934256548455e-05 0.0008104567463297773 -8.526774605862321e-05 -0.0005076794122853115
 0.998306673090675 -0.0039553464971831594 0.0016547769322923494 0.001547941156072312 -8.527139389522445e-05 -0.0005076815040006388 8.839434783970117e-05 0.0008104363233239844
 8.832934256548455e-05 0.0008104567463297773 -8.527139389522445e-05 -0.0005076815040006388 0.001654785966540889 0.0015480209735476713 0.9983066735726732 -0.003955262676902191
 -8.526774605862321e-05 -0.0005076794122853115 8.839434783970117e-05 0.0008104363233239844 0.9983066735726732 -0.003955262676902191 0.0016547784872904623 0.0015480245549010418
0.01250521050438 0.0018126763416044455 0.003128379342416875 0.9981044373427587 -0.007911529973516502 0.00012637491815735842 0.001621272789204955 -0.00011888266816602105 -0.0010178437140742538
 0.9981044373427587 -0.007911529973516502 0.0018126378927378758 0.0031283884146358675 -0.00011889705418588651 -0.0010178475571598947 0.00012663419075905526 0.0016212235591005126
 0.00012637491815735842 0.001621272789204955 -0.00011889705418588651 -0.0010178475571598947 0.0018126734000064638 0.0031285474752102724 0.9981044387022453 -0.007911362574230404
 -0.00011888266816602105 -0.0010178437140742538 0.00012663419075905526 0.0016212235591005126 0.9981044387022453 -0.007911362574230404 0.0018126435259345772 0.0031285550221493083
0.01875781575657 0.001984200032729486 0.004731389176379455 0.9978828538242327 -0.011878185592253324 0.00017247625891391095 0.00243300231048297 -0.00015919882806489087 -0.0015297532921972595
 0.9978828538242327 -0.011878185592253324 0.0019841136561613354 0.0047314031604694965 -0.00015923092388694569 -0.0015297584780951182 0.0001730587946677828 0.002432914299531178
 0.00017247625891391095 0.00243300231048297 -0.00015923092388694569 -0.0015297584780951182 0.0019841930177744993 0.0047316410057826 0.9978828564587944 -0.011877934704135958
 -0.00015919882806489087 -0.0015297532921972595 0.0001730587946677828 0.002432914299531178 0.9978828564587944 -0.011877934704135958 0.0019841258717067404 0.004731652903744753
0.02501042100875 0.002169687407930569 0.006354725739604837 0.997641665160682 -0.01585724035973976 0.00022672232093499478 0.0032456850330356674 -0.00020631553448220604 -0.0020431774708081197
 0.997641665160682 -0.01585724035973976 0.0021695340419668188 0.006354744906254027 -0.00020637223323747935 -0.0020431835159680526 0.00022775722645366415 0.003245546727833404
 0.00022672232093499478 0.0032456850330356674 -0.00020637223323747935 -0.0020431835159680526 0.0021696745988686855 0.006355061098198749 0.9976416694650513 -0.015856906025391485
 -0.00020631553448220604 -0.0020431774708081197 0.00022775722645366415 0.003245546727833404 0.9976416694650513 -0.015856906025391485 0.0021695553230939415 0.006355077727360608
0.03126302626094 0.0023694545953987685 0.007997238201557897 0.9973806006632376 -0.019849521557707497 0.0002892024542705855 0.004059285356776921 -0.0002603293398901081 -0.0025579554175982604
 0.9973806006632376 -0.019849521557707497 0.0023692152148545717 0.00799726283190025 -0.0002604174696833645 -0.002557961762550181 0.0002908190623301456 0.0040590836939547285
 0.0002892024542705855 0.004059285356776921 -0.0002604174696833645 -0.002557961762550181 0.0023694342858100992 0.007997656918022213 0.9973806070364627 -0.01984910380862822
 -0.0002603293398901081 -0.0025579554175982604 0.0002908190623301456 0.0040590836939547285 0.9973806070364627 -0.01984910380862822 0.0023692480327352416 0.007997678651447316
0.037515631513130004 0.002583810926434493 0.009658177851260151 0.9970993833850668 -0.02385544423182033 0.00036000558440045104 0.004873737968214062 -0.0003213347488597788 -0.003073950539017757
 0.9970993833850668 -0.02385544423182033 0.0025834665342675993 0.00965820823552531 -0.0003214610795272631 -0.0030739565480236474 0.00036233350487703417 0.004873458317996138
 0.00036000558440045104 0.004873737968214062 -0.0003214610795272631 -0.0030739565480236474 0.002583781415669524 0.00965867976948571 0.9970993922241771 -0.02385494306912196
 -0.0003213347488597788 -0.003073950539017757 0.00036233350487703417 0.004873458317996138 0.9970993922241771 -0.02385494306912196 0.0025835133412439133 0.00965870697187035
0.043768236765320004 0.0028130615812623208 0.011336988852347825 0.9967977329796738 -0.02787522036697383 0.00043921982460719077 0.005688961726410837 -0.00038942447382047166 -0.0035910365955094596
 0.9967977329796738 -0.02787522036697383 0.0028125932019691653 0.011337025288939933 -0.0003895957208578709 -0.003591041556369723 0.0004423889677447711 0.005688587874325842
 0.00043921982460719077 0.005688961726410837 -0.0003895957208578709 -0.003591041556369723 0.0028130211775767543 0.011337573808170279 0.9967977446836064 -0.02787463578437289
 -0.00038942447382047166 -0.0035910365955094596 0.0004423889677447711 0.005688587874325842 0.9967977446836064 -0.02787463578437289 0.002812656435943095 0.011337606834881327
0.050020842017509996 0.00305750881886052 0.01303322175956559 0.9964753671439611 -0.03190894529907265 0.0005269322433327733 0.0065048653859973845 -0.0004646895268478677 -0.004109091980562955
 0.9964753671439611 -0.03190894529907265 0.003056897492368188 0.013033264554373522 -0.0004649123538718289 -0.0041090951044924036 0.0005310728283701548 0.006504379513811173
 0.0005269322433327733 0.0065048653859973845 -0.0004649123538718289 -0.0041090951044924036 0.0030574558385274377 0.01303388958107206 0.9964753821140456 -0.031908277282570494
 -0.0004646895268478677 -0.004109091980562955 0.0005310728283701548 0.006504379513811173 0.9964753821140456 -0.031908277282570494 0.0030569795767745557 0.013033928777353983
0.055454545454549996 0.0032825153839937797 0.014521147740858388 0.9961781779104563 -0.035425720370087684 0.0006101252660856291 0.007214386179990393 -0.000535993805520244 -0.004559991973001549
 0.9961781779104563 -0.035425720370087684 0.00328176444188576 0.014521196315050732 -0.0005362668296531953 -0.004559992800441878 0.0006152160573024765 0.007213787228254137
 0.0006101252660856291 0.007214386179990393 -0.0005362668296531953 -0.004559992800441878 0.0032824501118158163 0.014521887436966922 0.9961781960459972 -0.03542497982204601
 -0.000535993805520244 -0.004559991973001549 0.0006152160573024765 0.007213787228254137 0.9961781960459972 -0.03542497982204601 0.0032818648644436046 0.014521932266866721
0.056273447269699996 0.0033174526108988678 0.014746491076262197 0.9961320024698254 -0.03595664008720607 0.0006232286967173606 0.007321350417057335 -0.0005472192413558893 -0.004627996905258651
 0.9961320024698254 -0.03595664008720607 0.003316679386848426 0.014746540542221718 -0.0005475002616396371 -0.0046279973267964025 0.0006284712514824581 0.007320733083440569
 0.0006232286967173606 0.007321350417057335 -0.0005475002616396371 -0.0046279973267964025 0.0033173853767929553 0.014747241591943664 0.9961320211090529 -0.03595588860675218
 -0.0005472192413558893 -0.004627996905258651 0.0006284712514824581 0.007320733083440569 0.9961320211090529 -0.03595588860675218 0.003316782730329124 0.014747287292333032
0.06252605252188 0.0035931909806367498 0.016476451924163405 0.9957673550036829 -0.04001827477573778 0.0007281936951430846 0.008138312543768492 -0.0006371012560386245 -0.0051476318672732625
 0.9957673550036829 -0.04001827477573778 0.0035922369134565035 0.016476508380905322 -0.0006374470335754768 -0.005147628644204732 0.0007346690500332307 0.008137542664820046
 0.0007281936951430846 0.008138312543768492 -0.0006374470335754768 -0.005147628644204732 0.0035931078218616797 0.016477284954615035 0.9957673777174685 -0.04001743979351137
 -0.0006371012560386245 -0.0051476318672732625 0.0007346690500332307 0.008137542664820046 0.9957673777174685 -0.04001743979351137 0.0035923639097070028 0.016477337482403393
0.06877865777407 0.0038850201815640024 0.018222786127968148 0.995381140648999 -0.04409378224490696 0.0008419102881151125 0.00895564267319272 -0.0007344214781612431 -0.005667876733298716
 0.995381140648999 -0.04409378224490696 0.0038838663247912865 0.018222849901707416 -0.0007348385282419412 -0.005667868846599146 0.0008497495656323115 0.00895469750303
 0.0008419102881151125 0.00895564267319272 -0.0007348385282419412 -0.005667868846599146 0.0038849194331909294 0.018223701485891912 0.9953811678460427 -0.044092863715224584
 -0.0007344214781612431 -0.005667876733298716 0.0008497495656323115 0.00895469750303 0.9953811678460427 -0.044092863715224584 0.0038840193531740857 0.018223761152881834
0.07503126302626001 0.004193234784305305 0.0199851933947505 0.9949730754818266 -0.04818306697061281 0.0009644599593311207 0.009773227484771612 -0.0008392640340764503 -0.006188610164702021
 0.9949730754818266 -0.04818306697061281 0.004191862185912857 0.01998526481828185 -0.0008397588236728119 -0.006188596518484858 0.0009737945607210342 0.009772082596207394
 0.0009644599593311207 0.009773227484771612 -0.0008397588236728119 -0.006188596518484858 0.004193114786438663 0.019986190889534152 0.994973107573587 -0.04818206483536439
 -0.0008392640340764503 -0.006188610164702021 0.0009737945607210342 0.009772082596207394 0.994973107573587 -0.04818206483536439 0.004192043610732564 0.01998625799577332
0.08128386827845 0.0045181277016598485 0.02176338544522003 0.9945428760067831 -0.05228601083655092 0.0010959225291037435 0.0105909498236766 -0.0009517112107692209 -0.006709709243455846
 0.9945428760067831 -0.05228601083655092 0.0045165173987439505 0.02176346485811707 -0.0009522901586329879 -0.00670968866493813 0.001106884118378555 0.010589579089076255
 0.0010959225291037435 0.0105909498236766 -0.0009522901586329879 -0.00670968866493813 0.004517986798833412 0.02176446487784539 0.9945429134080405 -0.05228492503025494
 -0.0009517112107692209 -0.006709709243455846 0.001106884118378555 0.010589579089076255 0.9945429134080405 -0.05228492503025494 0.004516729569303855 0.021764539711662548
0.08753647353064001 0.0048599901748003285 0.023557081958831463 0.9940902593780622 -0.05640247713711379 0.0012363760606673702 0.011408688980084057 -0.0010718433915918354 -0.007231049216485785
 0.9940902593780622 -0.05640247713711379 0.0048581231884924254 0.023557169707765092 -0.001072512868240857 -0.007231020455967998 0.0012490965467503122 0.011407064552414515
 0.0012363760606673702 0.011408688980084057 -0.001072512868240857 -0.007231020455967998 0.004859826715504825 0.02355824312483774 0.9940903025074292 -0.056401307583955465
 -0.0010718433915918354 -0.007231049216485785 0.0012490965467503122 0.011407064552414515 0.9940903025074292 -0.056401307583955465 0.004858368439030611 0.023558325962879743
0.09378907878283 0.0052191117322053495 0.025366007671675406 0.9936149435968665 -0.06053231343237318 0.0013858967692021414 0.012226320894017153 -0.0011997389879431371 -0.0077525033189071325
 0.9936149435968665 -0.06053231343237318 0.0052169690626497735 0.02536610411094626 -0.0012005053154850876 -0.0077524650497566615 0.0014005082863077169 0.012224413188168243
 0.0013858967692021414 0.012226320894017153 -0.0012005053154850876 -0.0077524650497566615 0.005218924068671951 0.025367250358890023 0.9936149928774388 -0.06053106004856971
 -0.0011997389879431371 -0.0077525033189071325 0.0014005082863077169 0.012224413188168243 0.9936149928774388 -0.06053106004856971 0.005217249712629214 0.025367341466425317
0.100041684035 0.0055957801296852355 0.027189890255669966 0.9931166476926667 -0.06467535362702782 0.0015445589326836006 0.013043718310108806 -0.0013354743676824458 -0.00827394265203846
 0.9931166476926667 -0.06467535362702782 0.005593342750854329 0.02718999574785393 -0.0013363438196043974 -0.008273893470695482 0.0015611938192700342 0.013041495984415556
 0.0015445589326836006 0.013043718310108806 -0.0013363438196043974 -0.008273893470695482 0.005595566616824097 0.027191214244965678 0.9931167035516238 -0.06467401632005713
 -0.0013354743676824458 -0.00827394265203846 0.0015611938192700342 0.013041495984415556 0.9931167035516238 -0.06467401632005713 0.00559366110390271 0.02719131387635147
0.1059090909091 0.005965456837339668 0.028914772312477143 0.9926279004335216 -0.06857500765457818 0.0017018249866028704 0.013810429759469315 -0.0014700439915424001 -0.008763127961484974
 0.9926279004335216 -0.06857500765457818 0.005962725573476773 0.028914886637728347 -0.0014710158767647602 -0.008763067195174518 0.0017204791136492506 0.01380788211091032
 0.0017018249866028704 0.013810429759469315 -0.0014710158767647602 -0.008763067195174518 0.005965217573754833 0.028916172390157695 0.9926279628588085 -0.06857359150235147
 -0.0014700439915424001 -0.008763127961484974 0.0017204791136492506 0.01380788211091032 0.9926279628588085 -0.06857359150235147 0.005963081388520145 0.028916280242293955
0.1062942892872 0.0059902812746422856 0.029028458717415537 0.9925950918921421 -0.06883141953479018 0.0017124348041719362 0.013860750898023248 -0.001479123780971997 -0.00879523610038356
 0.9925950918921421 -0.06883141953479018 0.005987530129298761 0.02902857363421727 -0.0014801025817393584 -0.008795174526382224 0.0017312255807516927 0.013858180836194911
 0.0017124348041719362 0.013860750898023248 -0.0014801025817393584 -0.008795174526382224 0.005990040269879588 0.029029863782676517 0.9925951547619017 -0.06882999820362334
 -0.001479123780971997 -0.00879523610038356 0.0017312255807516927 0.013858180836194911 0.9925951547619017 -0.06882999820362334 0.005987888473903518 0.02902997218181894
0.11254689453939999 0.006402899140334879 0.030881442182873295 0.9920499977813392 -0.07300032206274905 0.00188959452484677 0.014677285356017969 -0.0016307592844143437 -0.009316250270495437
 0.9920499977813392 -0.07300032206274905 0.00639981513488277 0.030881566906140218 -0.0016318536091159993 -0.009316174746485066 0.0019106738704574807 0.014674332649307467
 0.00188959452484677 0.014677285356017969 -0.0016318536091159993 -0.009316174746485066 0.006402629002786141 0.03088292809269979 0.9920500680992469 -0.07299881659610094
 -0.0016307592844143437 -0.009316250270495437 0.0019106738704574807 0.014674332649307467 0.9920500680992469 -0.07299881659610094 0.006400215743411224 0.030883045493949112
0.11879949979160001 0.00683391567072058 0.032748568949273 0.9914810884608025 -0.07718186213399975 0.002076106037678088 0.015493185494519144 -0.0017904506636464616 -0.009836849454649922
 0.9914810884608025 -0.07718186213399975 0.006830479669822193 0.03274870387224179 -0.001791666637461257 -0.00983675834645158 0.0020996067654893763 0.015489813424310116
 0.002076106037678088 0.015493185494519144 -0.001791666637461257 -0.00983675834645158 0.006833614760806972 0.032750135464050374 0.9914811666697774 -0.07718027241355567
 -0.0017904506636464616 -0.009836849454649922 0.0020996067654893763 0.015489813424310116 0.9914811666697774 -0.07718027241355567 0.006830924798943434 0.03275026209300503
0.1250521050438 0.007283610678794121 0.0346295657346581 0.9908880886973521 -0.08137583141866117 0.002272035001548209 0.016308312310315466 -0.0019582653547878157 -0.010356895609128966
 0.9908880886973521 -0.08137583141866117 0.00727980350034795 0.03462971126330813 -0.0019596090525229974 -0.010356787205793767 0.0022980900334306693 0.016304482331006245
 0.002272035001548209 0.016308312310315466 -0.0019596090525229974 -0.010356787205793767 0.007283277357635417 0.03463121260770357 0.9908881752463173 -0.08137415731799953
 -0.0019582653547878157 -0.010356895609128966 0.0022980900334306693 0.016304482331006245 0.9908881752463173 -0.08137415731799953 0.0072802953903525576 0.03463134868240292
0.131304710296 0.007752261738971016 0.03652415708004041 0.9902707250725592 -0.08558201291833438 0.002477444705786627 0.01712252405568542 -0.002134268365026184 -0.010876248342615446
 0.9902707250725592 -0.08558201291833438 0.007748064148782313 0.0365243136346609 -0.002135745810496993 -0.010876120856499558 0.002506187045988027 0.017118195778062534
 0.002477444705786627 0.01712252405568542 -0.002135745810496993 -0.010876120856499558 0.007751894367937736 0.03652588405966815 0.9902708204167651 -0.08558025430104711
 -0.002134268365026184 -0.010876248342615446 0.002506187045988027 0.017118195778062534 0.9902708204167651 -0.08558025430104711 0.007748605023587656 0.036526029791837784
0.1375573155481 0.008132115580677269 0.038184812384139726 0.989736797217885 -0.0895528174135289 0.0026661284945514135 0.01791078712911319 -0.0022922213844374225 -0.011369914901715428
 0.989736797217885 -0.0895528174135289 0.00812750544818433 0.038184978466502685 -0.0022938411976568106 -0.01136976818861525 0.002697620180750024 0.01790596729451236
 0.0026661284945514135 0.01791078712911319 -0.0022938411976568106 -0.01136976818861525 0.0081317114886522 0.03818661996364761 0.9897369017582821 -0.08955097422452256
 -0.0022922213844374225 -0.011369914901715428 0.002697620180750024 0.01790596729451236 0.9897369017582821 -0.08955097422452256 0.008128098661614762 0.03818677229342543
0.1438099208003 0.00852531902813395 0.03983681746786145 0.9891841284553287 -0.09351365903530319 0.0028624291858329464 0.018695958986971444 -0.0024564965073248877 -0.011860723510466636
 0.9891841284553287 -0.09351365903530319 0.008520276564410859 0.039836993521945085 -0.002458265106877996 -0.011860555820952483 0.0028967905178434623 0.018690610771448932
 0.0028624291858329464 0.018695958986971444 -0.002458265106877996 -0.011860555820952483 0.008524876390158406 0.03983870546336092 0.9891842426446703 -0.09351173114689536
 -0.0024564965073248877 -0.011860723510466636 0.0028967905178434623 0.018690610771448932 0.9891842426446703 -0.09351173114689536 0.008520924522449529 0.03983886446986721
0.1500625260525 0.008931735330817881 0.041480037150511614 0.9886128595962177 -0.09746444242806614 0.003066279976865231 0.019477962785335187 -0.0026270282626076904 -0.012348600410772678
 0.9886128595962177 -0.09746444242806614 0.008926240672011383 0.0414802236683502 -0.002628952049590815 -0.01234840992566257 0.0031036305106778165 0.019472048033004223
 0.003066279976865231 0.019477962785335187 -0.002628952049590815 -0.01234840992566257 0.008931252309695825 0.04148200537405528 0.9886129838922213 -0.09746242970764746
 -0.0026270282626076904 -0.012348600410772678 0.0031036305106778165 0.019472048033004223 0.9886129838922213 -0.09746242970764746 0.008926945778377342 0.04148217116463287
0.15631513130469998 0.009351226786062185 0.04311434034070453 0.9880231321484535 -0.10140507251272919 0.0032776132875476367 0.02025672297119004 -0.002803750381591062 -0.012833473392155969
