! Created with skrf 1.8.0 (http://scikit-rf.org).
# GHz S RI R 50.0 
!freq ReS11 ImS11 ReS12 ImS12 ReS13 ImS13
! ReS14 ImS14
! ReS21 ImS21 ReS22 ImS22 ReS23 ImS23
! ReS24 ImS24
! ReS31 ImS31 ReS32 ImS32 ReS33 ImS33
! ReS34 ImS34
! ReS41 ImS41 ReS42 ImS42 ReS43 ImS43
! ReS44 ImS44
!
0.0 0.001416843006648 0.0 0.9985831569933 0.0 5.420025731579e-05 0.0 -5.420025720425e-05 6.6376171498148035e-21
 0.9985831569933 0.0 0.001416843006677 0.0 -5.420025720533e-05 6.637617149947065e-21 5.420025731584e-05 0.0
 5.420025731579e-05 0.0 -5.420025720533e-05 6.637617149947065e-21 0.001416843001249 0.0 0.9985831569879 0.0
 -5.420025720425e-05 6.6376171498148035e-21 5.420025731584e-05 0.0 0.9985831569879 0.0 0.001416843001221 0.0
0.005 0.0015240157358830607 0.0011638357065856437 0.9984476483669116 -0.002968028241679059 7.50384082575474e-05 0.0005704777582418874 -7.309475305482001e-05 -0.0003628002358017557
 0.9984476483669116 -0.002968028241679059 0.0015240185217995164 0.0011638340468323404 -7.30919657885819e-05 -0.00036279808181457915 7.501912134313809e-05 0.0005704849200181611
 7.50384082575474e-05 0.0005704777582418874 -7.30919657885819e-05 -0.00036279808181457915 0.0015240168983257617 0.001163767728000105 0.9984476480199445 -0.002968095308022936
 -7.309475305482001e-05 -0.0003628002358017557 7.501912134313809e-05 0.0005704849200181611 0.9984476480199445 -0.002968095308022936 0.001524016666978534 0.001163767893160929
0.006252605252188 0.0015520221976950482 0.0014593662233450756 0.9984120336947222 -0.003710775167608523 8.092595700192717e-05 0.0007133928367795938 -7.837766409274862e-05 -0.0004539689242830358
 0.9984120336947222 -0.003710775167608523 0.0015520265533680048 0.0014593641784128553 -7.837332694823616e-05 -0.0004539662677437434 8.089582067408192e-05 0.00071340216231875
 8.092595700192717e-05 0.0007133928367795938 -7.837332694823616e-05 -0.0004539662677437434 0.0015520240928416282 0.0014592812550917155 0.9984120332299691 -0.0037108589921146943
 -7.837766409274862e-05 -0.0004539689242830358 8.089582067408192e-05 0.00071340216231875 0.9984120332299691 -0.0037108589921146943 0.0015520237311469642 0.0014592814988925239
0.01250521050438 0.0016988620647126126 0.002949287842204683 0.9982241673797768 -0.007422429941115059 0.00011434277315891372 0.001427265420667379 -0.00010807451206937602 -0.0009101758553098142
 0.9982241673797768 -0.007422429941115059 0.0016988794648120156 0.002949284051022119 -0.00010805742022426729 -0.0009101709340408547 0.0001142225263617686 0.0014272880571684916
 0.00011434277315891372 0.001427265420667379 -0.00010805742022426729 -0.0009101709340408547 0.001698870187973966 0.0029491181234570386 0.9982241660739333 -0.007422597328025966
 -0.00010807451206937602 -0.0009101758553098142 0.0001142225263617686 0.0014272880571684916 0.9982241660739333 -0.007422597328025966 0.0016988687413074502 0.002949119010380137
0.01875781575657 0.001857662206461655 0.004460465247702116 0.9980193393983133 -0.011144014694729028 0.00015452585080948 0.0021420787166052096 -0.00014337709558946165 -0.001368013845355481
 0.9980193393983133 -0.011144014694729028 0.0018577013168663884 0.004460460002720448 -0.00014333898027514883 -0.0013680071213093357 0.00015425556356115535 0.0021421193442393086
 0.00015452585080948 0.0021420787166052096 -0.00014333898027514883 -0.0013680071213093357 0.0018576808956044114 0.004460210789290851 0.9980193368884431 -0.011144265556634494
 -0.00014337709558946165 -0.001368013845355481 0.00015425556356115535 0.0021421193442393086 0.9980193368884431 -0.011144265556634494 0.0018576776365908131 0.004460212789378814
0.02501042100875 0.002028714518148638 0.00599081584943516 0.9977973230241086 -0.014877354537216007 0.00020155124084636874 0.0028578690141518367 -0.00018436944050301545 -0.0018272962903756464
 0.9977973230241086 -0.014877354537216007 0.0020287839948216393 0.005990809443746216 -0.00018430213121292145 -0.0018272883040781687 0.00020107085869809716 0.002857932991523469
 0.00020155124084636874 0.0028578690141518367 -0.00018430213121292145 -0.0018272883040781687 0.0020287481035812962 0.0059904766068944685 0.9977973189421483 -0.01487768881212443
 -0.00018436944050301545 -0.0018272962903756464 0.00020107085869809716 0.002857932991523469 0.9977973189421483 -0.01487768881212443 0.002028742301596361 0.005990480263340646
0.03126302626094 0.002212298762972003 0.007539279168178968 0.9975578792188792 -0.018623244188255846 0.0002554954913715477 0.0035746105023012095 -0.00023113352924452043 -0.0022878943534569043
 0.9975578792188792 -0.018623244188255846 0.002212407258112868 0.007539271896965329 -0.00023102893682318422 -0.0022878857250789334 0.00025474478180201126 0.0035747038730555535
 0.0002554954913715477 0.0035746105023012095 -0.00023102893682318422 -0.0022878857250789334 0.0022123515757732108 0.007538855046576668 0.997557873197126 -0.018623661834818596
 -0.00023113352924452043 -0.0022878943534569043 0.00025474478180201126 0.0035747038730555535 0.997557873197126 -0.018623661834818596 0.0022123424985103987 0.007538860977336544
0.037515631513130004 0.0024086888153325354 0.009105172261230426 0.9973007630349201 -0.02238209249512658 0.0003164349703724359 0.004292252927660619 -0.0002837498524516306 -0.0027496993010259485
 0.9973007630349201 -0.02238209249512658 0.002408844981369449 0.009105164422611407 -0.00028359996038466805 -0.002749690730716977 0.0003153534972909698 0.004292382429445758
 0.0003164349703724359 0.004292252927660619 -0.00028359996038466805 -0.002749690730716977 0.0024087651883043285 0.00910466313618547 0.9973007547059822 -0.02238259347140916
 -0.0002837498524516306 -0.0027496993010259485 0.0003153534972909698 0.004292382429445758 0.9973007547059822 -0.02238259347140916 0.002408752103964411 0.009104672035482472
0.043768236765320004 0.002618155081868976 0.010687993577329894 0.9970257261974663 -0.026154118511957508 0.0003844455457859273 0.005010733046399612 -0.000342297612329528 -0.0032126110440450764
 0.9970257261974663 -0.026154118511957508 0.002618367574780479 0.010687985472841126 -0.0003420944715667831 -0.003212603312059892 0.00038297265632538887 0.005010906120571324
 0.0003844455457859273 0.005010733046399612 -0.0003420944715667831 -0.003212603312059892 0.0026182593508347484 0.010687399274096392 0.9970257151952575 -0.026154702796151685
 -0.000342297612329528 -0.0032126110440450764 0.00038297265632538887 0.005010906120571324 0.9970257151952575 -0.026154702796151685 0.002618241530197019 0.010687411913711526
0.050020842017509996 0.0028409656275867256 0.012287341893610712 0.9967325183949794 -0.029939432494809706 0.0004596023972206067 0.005729979349712029 -0.0004068547968515817 -0.0036765334064485793
 0.9967325183949794 -0.029939432494809706 0.0028412431093932807 0.012287333828548614 -0.0004065905224199894 -0.0036765273731901747 0.0004576772146535912 0.0057302041513724025
 0.0004596023972206067 0.005729979349712029 -0.0004065905224199894 -0.0036765273731901747 0.002841102129934368 0.012286662206901779 0.9967325043522741 -0.02994010006493698
 -0.0004068547968515817 -0.0036765334064485793 0.0004576772146535912 0.0057302041513724025 0.9967325043522741 -0.02994010006493698 0.00284107884870251 0.012286679437552904
0.055454545454549996 0.003045638798032835 0.013690380306584097 0.9964627595055552 -0.03323980978400533 0.0005307774004599135 0.006355588383371308 -0.0004678970057910064 -0.00408044327039283
 0.9964627595055552 -0.03323980978400533 0.0030459797989509127 0.013690372526745933 -0.0004675732488789905 -0.004080439474390781 0.0005284095459633267 0.006355865322730499
 0.0005307774004599135 0.006355588383371308 -0.0004675732488789905 -0.004080439474390781 0.003045806836137041 0.013689626225358907 0.9964627425218149 -0.03324054971715797
 -0.0004678970057910064 -0.00408044327039283 0.0005284095459633267 0.006355865322730499 0.9964627425218149 -0.03324054971715797 0.003045778226957701 0.013689648198823182
0.056273447269699996 0.0030773867622760145 0.01390287651355856 0.9964208880318198 -0.03373807563581079 0.0005419798819621526 0.006449914380617461 -0.00047749819949961743 -0.0041413718039105376
 0.9964208880318198 -0.03373807563581079 0.003077737904251143 0.013902868797122511 -0.00047716496828712266 -0.004141368409943575 0.000539541302676531 0.006450199788821075
 0.0005419798819621526 0.006449914380617461 -0.00047716496828712266 -0.004141368409943575 0.003077559837459169 0.013902111201852755 0.9964208705807395 -0.03373882647507868
 -0.00047749819949961743 -0.0041413718039105376 0.000539541302676531 0.006450199788821075 0.9964208705807395 -0.03373882647507868 0.003077530378696429 0.013902133954372084
0.06252605252188 0.0033276833603658497 0.015534295408464887 0.996090582718148 -0.03755004185523674 0.0006316514288076332 0.00717045600881471 -0.0005543034107330121 -0.004607031966702306
 0.996090582718148 -0.03755004185523674 0.0033281168454691373 0.015534288353934686 -0.0005538934599028671 -0.0046070322327474815 0.0006286381217367045 0.0071708116368937235
 0.0006316514288076332 0.00717045600881471 -0.0005538934599028671 -0.0046070322327474815 0.0033278973508469043 0.015533444194473505 0.9960905614908869 -0.03755087595119663
 -0.0005543034107330121 -0.004607031966702306 0.0006286381217367045 0.0071708116368937235 0.9960905614908869 -0.03755087595119663 0.003327861007608263 0.015533473480953741
0.06877865777407 0.003592119038319981 0.017181322160456702 0.995741349619742 -0.041375290794188044 0.0007286894483359231 0.00789151818753892 -0.0006373447919938566 -0.00507341918303246
 0.995741349619742 -0.041375290794188044 0.003592643563674343 0.01718131608520118 -0.0006368504179128977 -0.005073424209939371 0.0007250398560886413 0.00789195439348739
 0.0007286894483359231 0.00789151818753892 -0.0006368504179128977 -0.005073424209939371 0.0035923782893727183 0.01718038472989506 0.9957413242481479 -0.04137620813954926
 -0.0006373447919938566 -0.00507341918303246 0.0007250398560886413 0.00789195439348739 0.9957413242481479 -0.04137620813954926 0.003592334367087368 0.01718042164483086
0.07503126302626001 0.0038709562452757663 0.01884369769396956 0.9953729357247098 -0.04521375602121532 0.0008331652521569868 0.008613011435274234 -0.0007266954394963526 -0.005540437820204108
 0.9953729357247098 -0.04521375602121532 0.0038715805246382923 0.018843692919450445 -0.0007261089969865442 -0.005540448788919541 0.0008288175936369321 0.008613539332147015
 0.0008331652521569868 0.008613011435274234 -0.0007261089969865442 -0.005540448788919541 0.0038712651043666113 0.018842673696009504 0.9953729058393267 -0.04521475661293851
 -0.0007266954394963526 -0.005540437820204108 0.0008288175936369321 0.008613539332147015 0.9953729058393267 -0.04521475661293851 0.003871212923512435 0.018842719417383014
0.08128386827845 0.004164456300296933 0.020521174773904433 0.9949850880592971 -0.04906535047532961 0.0009451489771382509 0.009334843157980164 -0.0008224271420551472 -0.006007991008089815
 0.9949850880592971 -0.04906535047532961 0.00416518906668193 0.020521171625523943 -0.0008217410438952758 -0.006008009179618167 0.0009400412509762752 0.009335474624328976
 0.0009451489771382509 0.009334843157980164 -0.0008217410438952758 -0.006008009179618167 0.0041648191173371905 0.0205200638235838 0.9949850532897273 -0.049066434311800494
 -0.0008224271420551472 -0.006007991008089815 0.0009400412509762752 0.009335474624328976 0.9949850532897273 -0.049066434311800494 0.004164758016462306 0.020520119613744104
0.08753647353064001 0.004472879394913861 0.022213514195835338 0.9945775538719087 -0.05292997021995109 0.0010647095138317266 0.010056917872142872 -0.0009246103333149034 -0.006475980424783964
 0.9945775538719087 -0.05292997021995109 0.004473729402984033 0.022213513002807442 -0.0009238170499588969 -0.006476007140133825 0.0010587795028917935 0.010057665562434736
 0.0010647095138317266 0.010056917872142872 -0.0009238170499588969 -0.006476007140133825 0.004473300522541884 0.022212315870290288 0.9945775138474006 -0.05293113730435382
 -0.0009246103333149034 -0.006475980424783964 0.0010587795028917935 0.010057665562434736 0.9945775138474006 -0.05293113730435382 0.00447322986081178 0.022212383076990208
0.09378907878283 0.004796484570422418 0.02392048206614327 0.9941500807957429 -0.056807497110433765 0.0011919144368976108 0.010779137369182849 -0.0010333140410967415 -0.006944306143969711
 0.9941500807957429 -0.056807497110433765 0.004797460598991811 0.023920483161272054 -0.001032406100509386 -0.006944342824096052 0.00118509971321662 0.010780014724207273
 0.0011919144368976108 0.010779137369182849 -0.001032406100509386 -0.006944342824096052 0.0047969683631007235 0.023919195906083855 0.9941500351438186 -0.05680874744876678
 -0.0010333140410967415 -0.006944306143969711 0.00118509971321662 0.010780014724207273 0.9941500351438186 -0.05680874744876678 0.0047968875234291235 0.023919275963297244
0.100041684035 0.005135529678155793 0.025641847802061225 0.9937024169957359 -0.06069780074512882 0.001326829936889191 0.011501400836605582 -0.001148605834033523 -0.007412866528776525
 0.9937024169957359 -0.06069780074512882 0.005136640532794064 0.02564185152137805 -0.0011475758217070696 -0.007412914674503263 0.0013190678674497398 0.01150242209388302
 0.001326829936889191 0.011501400836605582 -0.0011475758217070696 -0.007412914674503263 0.005136080492948777 0.025640473312582422 0.9937023653429155 -0.06069913434498395
 -0.001148605834033523 -0.007412866528776525 0.0013190678674497398 0.01150242209388302 0.9937023653429155 -0.06069913434498395 0.00513598888468788 0.025640567741306984
0.1059090909091 0.005467958601931024 0.02727005786957026 0.9932637450148077 -0.06435993274682664 0.0014605041973679723 0.01217911648138788 -0.0012628456049305393 -0.007852682073384971
 0.9932637450148077 -0.06435993274682664 0.00546920401109231 0.02727006435961509 -0.0012616943490948627 -0.007852742414427969 0.001451796003059165 0.01218028644330998
 0.0014605041973679723 0.01217911648138788 -0.0012616943490948627 -0.007852742414427969 0.005468576274084768 0.0272686000081783 0.9932636873899078 -0.06436134448902726
 -0.0012628456049305393 -0.007852682073384971 0.001451796003059165 0.01218028644330998 0.9932636873899078 -0.06436134448902726 0.005468474049907994 0.027268709384510117
0.1062942892872 0.005490271326788805 0.027377382635877485 0.9932343113066034 -0.06460073991611325 0.0014695207533958648 0.012223604953081474 -0.0012705517660893365 -0.007881558154973302
 0.9932343113066034 -0.06460073991611325 0.005491525842273494 0.02737738931831554 -0.001269392325081988 -0.007881619346919588 0.001460748506223648 0.012224785157184413
 0.0014695207533958648 0.012223604953081474 -0.001269392325081988 -0.007881619346919588 0.005490893522401257 0.027375919284063938 0.9932342532779455 -0.06460215678863034
 -0.0012705517660893365 -0.007881558154973302 0.001460748506223648 0.012224785157184413 0.9932342532779455 -0.06460215678863034 0.005490790584651413 0.027376029693035316
0.11254689453939999 0.005860964819074526 0.029126858460856605 0.992745513362232 -0.06851616372197696 0.0016200501085643648 0.012945643964462225 -0.0013992163195564854 -0.008350275756643433
 0.992745513362232 -0.06851616372197696 0.005862371861984143 0.029126868447804998 -0.0013979201506750941 -0.00835035165513188 0.0016102046593555667 0.01294699897735987
 0.0016200501085643648 0.012945643964462225 -0.0013979201506750941 -0.00835035165513188 0.0058616627563944914 0.029125305673854133 0.9927454485814715 -0.06851766388330893
 -0.0013992163195564854 -0.008350275756643433 0.0016102046593555667 0.01294699897735987 0.9927454485814715 -0.06851766388330893 0.005861547961001047 0.0291254337602029
0.11879949979160001 0.006247864081778552 0.03089004693695274 0.9922357737213741 -0.0724439124249638 0.001778479641084264 0.013667409748196904 -0.0015346623467754944 -0.008818912186922736
 0.9922357737213741 -0.0724439124249638 0.006249432553020741 0.030890060571712917 -0.0015332222087790898 -0.008819004531874149 0.0017674977803403711 0.01366895625949758
 0.001778479641084264 0.013667409748196904 -0.0015332222087790898 -0.008819004531874149 0.0062486421231254955 0.030888404105220285 0.9922357018106125 -0.07244549589250696
 -0.0015346623467754944 -0.008818912186922736 0.0017674977803403711 0.01366895625949758 0.9922357018106125 -0.07244549589250696 0.006248514977998742 0.0308885516551045
0.1250521050438 0.006651221588566878 0.032666718781692555 0.9917048439884106 -0.07638381812697147 0.0019448693405050793 0.014388791867481559 -0.001676951010828636 -0.009287358392521667
 0.9917048439884106 -0.07638381812697147 0.006652960426168494 0.03266673640889398 -0.0016753597207823713 -0.009287469003333097 0.0019326876807936669 0.014390547404688286
 0.0019448693405050793 0.014388791867481559 -0.0016753597207823713 -0.009287469003333097 0.0066520840977101064 0.0326649852565174 0.9917047645677305 -0.07638548492145084
 -0.001676951010828636 -0.009287358392521667 0.0019326876807936669 0.014390547404688286 0.9917047645677305 -0.07638548492145084 0.006651944149728747 0.03266515414559204
0.131304710296 0.007071288278171246 0.03445664320313887 0.9911524769321911 -0.08033570530787047 0.002119277481699435 0.01510967761850562 -0.00182614172524809 -0.009755503398882924
 0.9911524769321911 -0.08033570530787047 0.007073206459591399 0.03445666516810052 -0.0018243921587739504 -0.009755634174324292 0.002105832465592958 0.01511166055712232
 0.002119277481699435 0.01510967761850562 -0.0018243921587739504 -0.009755634174324292 0.007072239620203796 0.034454818297768315 0.9911523896199315 -0.08033745545171085
 -0.00182614172524809 -0.009755503398882924 0.002105832465592958 0.01511166055712232 0.9911523896199315 -0.08033745545171085 0.007072086458804224 0.03445501049159349
0.1375573155481 0.007408739677415897 0.036027182030187885 0.9906780339333037 -0.08406689341272826 0.0022788082912646736 0.01580671605945666 -0.0019593633639203353 -0.010199999202205398
 0.9906780339333037 -0.08406689341272826 0.007410846461181983 0.03602720501314544 -0.001957444967620672 -0.01020015018962116 0.002264074596198634 0.015808922561317662
 0.0022788082912646736 0.01580671605945666 -0.001957444967620672 -0.01020015018962116 0.0074097835996417396 0.03602526503488994 0.9906779383737047 -0.08406872688723055
 -0.0019593633639203353 -0.010199999202205398 0.002264074596198634 0.015808922561317662 0.9906779383737047 -0.08406872688723055 0.007409618280926734 0.03602547879405103
0.1438099208003 0.0077579713837599 0.03759003699102909 0.9901870962932645 -0.08778919626650972 0.0024447795662389687 0.016501215826006537 -0.002097915801630561 -0.010642157409139286
 0.9901870962932645 -0.08778919626650972 0.007760275843208032 0.03759006094509565 -0.002095820917711646 -0.01064233046593085 0.0024287003052439905 0.016503662528417888
 0.0024447795662389687 0.016501215826006537 -0.002095820917711646 -0.01064233046593085 0.007759112141263145 0.03758802719237591 0.990186992107624 -0.08779111308753915
 -0.002097915801630561 -0.010642157409139286 0.0024287003052439905 0.016503662528417888 0.990186992107624 -0.08779111308753915 0.007758934567508876 0.037588264137658804
0.1500625260525 0.008118868255004503 0.03914509435220512 0.9896797827065623 -0.09150253835314863 0.002617138263690319 0.017193115844981965 -0.0022417473987352177 -0.011081919735421978
 0.9896797827065623 -0.09150253835314863 0.008121379501288753 0.039145119218577884 -0.002239468384218212 -0.011082116793395495 0.002599656831021318 0.01719581999263687
 0.002617138263690319 0.017193115844981965 -0.002239468384218212 -0.011082116793395495 0.008120110096580018 0.03914299100626839 0.98967966951509 -0.0915045385381209
 -0.0022417473987352177 -0.011081919735421978 0.002599656831021318 0.01719581999263687 0.98967966951509 -0.0915045385381209 0.008119920224594205 0.03914325281438629
0.15631513130469998 0.008491314427216299 0.04069224388608005 0.9891562123639752 -0.09520684408842946 0.0027958307677185407 0.017882356007174697 -0.0023908059294070775 -0.01151922906330321
