! Created with skrf 1.8.0 (http://scikit-rf.org).
# GHz S RI R 50.0 
!freq ReS11 ImS11 ReS12 ImS12 ReS13 ImS13
! ReS14 ImS14
! ReS21 ImS21 ReS22 ImS22 ReS23 ImS23
! ReS24 ImS24
! ReS31 ImS31 ReS32 ImS32 ReS33 ImS33
! ReS34 ImS34
! ReS41 ImS41 ReS42 ImS42 ReS43 ImS43
! ReS44 ImS44
!
0.0 0.001779016001297 0.0 0.9982209839987 0.0 6.906168699339e-05 0.0 -6.906168646062e-05 8.45761732677164e-21
 0.9982209839987 0.0 0.001779016001317 0.0 -6.906168646104e-05 8.457617326823074e-21 6.90616869941e-05 0.0
 6.906168699339e-05 0.0 -6.906168646104e-05 8.457617326823074e-21 0.001779015995632 0.0 0.998220983993 0.0
 -6.906168646062e-05 8.45761732677164e-21 6.90616869941e-05 0.0 0.998220983993 0.0 0.001779015995626 0.0
0.005 0.0019148525296764664 0.0014538039524265125 0.9980489837051887 -0.003725744910299623 9.743362705210398e-05 0.0007663771959571385 -9.445264153864821e-05 -0.0004799585856661923
 0.9980489837051887 -0.003725744910299623 0.0019148852491849401 0.0014537849091683396 -9.445091305602175e-05 -0.0004799573633908008 9.723264875068965e-05 0.0007664538006282132
 9.743362705210398e-05 0.0007663771959571385 -9.445091305602175e-05 -0.0004799573633908008 0.0019148525322305032 0.001453736748163971 0.9980489833392407 -0.003725811972456045
 -9.445264153864821e-05 -0.0004799585856661923 9.723264875068965e-05 0.0007664538006282132 0.9980489833392407 -0.003725811972456045 0.0019148845231094244 0.0014537179970237775
0.006252605252188 0.0019507079854161318 0.001822945277738459 0.998003254948906 -0.004658055021142556 0.000105688580343628 0.0009583234916977449 -0.00010172953558311921 -0.0006005556506653573
 0.998003254948906 -0.004658055021142556 0.0019507591313266104 0.0018229211041153935 -0.00010172684509748137 -0.0006005541464228973 0.00010537457389536364 0.0009584230290374721
 0.000105688580343628 0.0009583234916977449 -0.00010172684509748137 -0.0006005541464228973 0.0019507080447509428 0.0018228612999562272 0.998003254432817 -0.004658138833575529
 -0.00010172953558311921 -0.0006005556506653573 0.00010537457389536364 0.0009584230290374721 0.998003254432817 -0.004658138833575529 0.001950758052953944 0.001822837474579307
0.01250521050438 0.0021407956726558026 0.0036837583502027735 0.9977590286671851 -0.009316640515343732 0.00015381515998770968 0.001916861306478693 -0.00014359725991708194 -0.001203870041686551
 0.9977590286671851 -0.009316640515343732 0.0021409998917762945 0.003683706264556446 -0.00014358664728296588 -0.0012038672964590348 0.0001525630421091553 0.0019171015723774207
 0.00015381515998770968 0.001916861306478693 -0.00014358664728296588 -0.0012038672964590348 0.0021407964578468107 0.0036835907523056198 0.997759027160727 -0.009316807930140975
 -0.00014359725991708194 -0.001203870041686551 0.0001525630421091553 0.0019171015723774207 0.997759027160727 -0.009316807930140975 0.002140996153701552 0.0036835391956807975
0.01875781575657 0.0023497428355021637 0.005570670719901122 0.9974879673600722 -0.01398703729021558 0.00021355841308578745 0.0028762174897345263 -0.00019480355272421558 -0.0018090298868906577
 0.9974879673600722 -0.01398703729021558 0.002350201714036389 0.005570586674416514 -0.00019477987332462926 -0.0018090262258311286 0.0002107458360731761 0.0028766486449817684
 0.00021355841308578745 0.0028762174897345263 -0.00019477987332462926 -0.0018090262258311286 0.0023497450036380936 0.005570419794932273 0.9974879643886403 -0.013987288223633028
 -0.00019480355272421558 -0.0018090298868906577 0.0002107458360731761 0.0028766486449817684 0.9974879643886403 -0.013987288223633028 0.002350193757428593 0.005570336296412914
0.02501042100875 0.0025779964617428435 0.0074809777807967005 0.997189718669156 -0.01867144610666974 0.0002850373312099532 0.0038363880489359916 -0.00025548148340185083 -0.0024157212265201095
 0.997189718669156 -0.01867144610666974 0.002578811383157123 0.007480857454214616 -0.00025543965067417485 -0.002415717041539568 0.00028004186329629515 0.003837068961264283
 0.0002850373312099532 0.0038363880489359916 -0.00025543965067417485 -0.002415717041539568 0.0025780006678500014 0.007480643801090227 0.9971897137605354 -0.01867178055869566
 -0.00025548148340185083 -0.0024157212265201095 0.00028004186329629515 0.003837068961264283 0.9971897137605354 -0.01867178055869566 0.002578797673161233 0.007480523878958331
0.03126302626094 0.0028259848912347498 0.009413256008194322 0.9968639141967417 -0.023370770493258995 0.0003683709171252352 0.00479727893293715 -0.00032575955619786805 -0.0030237113503279512
 0.9968639141967417 -0.023370770493258995 0.0028272570978449406 0.009413094812618622 -0.00032569453215058745 -0.0030237071007354075 0.0003605694935104679 0.004798277230142818
 0.0003683709171252352 0.00479727893293715 -0.00032569453215058745 -0.0030237071007354075 0.0028259917840328945 0.009412839283087641 0.9968639068739884 -0.02337118849032849
 -0.00032575955619786805 -0.0030237113503279512 0.0003605694935104679 0.004798277230142818 0.9968639068739884 -0.02337118849032849 0.0028272361169487453 0.009412678190899183
0.037515631513130004 0.0030941264853399917 0.011366553253970789 0.9965101785602353 -0.028085426398305743 0.00046367683593473826 0.005758759871891864 -0.0004057626212786123 -0.003632794982031269
 0.9965101785602353 -0.028085426398305743 0.003095957121578655 0.011366346337584385 -0.00040566941188096585 -0.0036327911947631525 0.00045244552972382134 0.005760152027806283
 0.00046367683593473826 0.005758759871891864 -0.00040566941188096585 -0.0036327911947631525 0.0030941367097364948 0.011366054133113136 0.9965101683413033 -0.028085927990333055
 -0.0004057626212786123 -0.003632794982031269 0.00045244552972382134 0.005760152027806283 0.9965101683413033 -0.028085927990333055 0.003095927370263659 0.011365846862377587
0.043768236765320004 0.003382832965983663 0.013340142330126118 0.9961281331220704 -0.0328155885416363 0.0005710707712818935 0.00672068074811667 -0.0004956121716855481 -0.004242777944234845
 0.9961281331220704 -0.0328155885416363 0.003385323113989857 0.01333988457821658 -0.0004954858242725945 -0.004242775213976523 0.00055578470168972 0.006722552178644824
 0.0005710707712818935 0.00672068074811667 -0.0004954858242725945 -0.004242775213976523 0.0033828471660750817 0.013339561188553548 0.9961281195203675 -0.03281617381705593
 -0.0004956121716855481 -0.004242777944234845 0.00055578470168972 0.006722552178644824 0.9961281195203675 -0.03281617381705593 0.0033852831124767443 0.01333930246965494
0.050020842017509996 0.003692510938641709 0.015333419155325101 0.9957173979103384 -0.037561292202835786 0.0006906660212667489 0.007682878386017737 -0.0005954264308376833 -0.004853470412226251
 0.9957173979103384 -0.037561292202835786 0.00369576165033784 0.015333105190059421 -0.0005952620326101103 -0.004853469401504034 0.0006706993347931822 0.007685323549027675
 0.0006906660212667489 0.007682878386017737 -0.0005952620326101103 -0.004853469401504034 0.0036925297585373054 0.015332756421296535 0.9957173804330482 -0.03756196126113147
 -0.0005954264308376833 -0.004853470412226251 0.0006706993347931822 0.007685323549027675 0.9957173804330482 -0.03756196126113147 0.003695709938112777 0.015332440723127658
0.055454545454549996 0.003978974408704976 0.017081212359227993 0.9953368617139339 -0.04169803363077366 0.000804592862020551 0.008519147978370568 -0.0006903499612695142 -0.005384610288944069
 0.9953368617139339 -0.04169803363077366 0.003982968138491809 0.017080844969972343 -0.0006901485362390027 -0.005384611363320219 0.0007800495714736023 0.008522175542264266
 0.000804592862020551 0.008519147978370568 -0.0006901485362390027 -0.005384611363320219 0.003978997767217143 0.017080479089102527 0.9953368404625669 -0.04169877560722215
 -0.0006903499612695142 -0.005384610288944069 0.0007800495714736023 0.008522175542264266 0.9953368404625669 -0.04169877560722215 0.00398290507823564 0.01708010917823253
0.056273447269699996 0.004023562654590136 0.017345852817798692 0.9952775927843578 -0.042322483097929575 0.0008225732067543802 0.008645179886977033 -0.0007053203397561185 -0.0054646836309353184
 0.9952775927843578 -0.042322483097929575 0.00402767498124277 0.01734547699677592 -0.0007051130169291235 -0.005464685070153766 0.0007972991029212596 0.008648302383548053
 0.0008225732067543802 0.008645179886977033 -0.0007051130169291235 -0.005464685070153766 0.004023586739535924 0.017345108948459753 0.9952775709311288 -0.04232323607397727
 -0.0007053203397561185 -0.0054646836309353184 0.0007972991029212596 0.008648302383548053 0.9952775709311288 -0.04232323607397727 0.004027610117146753 0.017344730477104484
0.06252605252188 0.004376386388748123 0.019376958080746298 0.9948083382222537 -0.04709904482046699 0.000966900032032185 0.009607404481352414 -0.0008254054973858454 -0.006076228123268829
 0.9948083382222537 -0.04709904482046699 0.004381461409814102 0.019376514494607956 -0.0008251504147205727 -0.006076232810748691 0.0009356908187696415 0.009611317157198674
 0.000966900032032185 0.009607404481352414 -0.0008251504147205727 -0.006076232810748691 0.004376416387759895 0.019376133583073774 0.9948083114854471 -0.04709988186369013
 -0.0008254054973858454 -0.006076228123268829 0.0009356908187696415 0.009611317157198674 0.9948083114854471 -0.04709988186369013 0.004381381973695194 0.01937568627936326
0.06877865777407 0.004751376616160777 0.02142627902704519 0.9943092559125435 -0.051890815151892346 0.0011237510769146314 0.010569364643617594 -0.0009557900718289454 -0.006687912644267519
 0.9943092559125435 -0.051890815151892346 0.0047575154671538455 0.021425761495983343 -0.0009554824324868283 -0.006687921446266892 0.0010859782471052326 0.010574189689913086
 0.0011237510769146314 0.010569364643617594 -0.0009554824324868283 -0.006687921446266892 0.0047514131822985126 0.021425374446038325 0.9943092237748818 -0.05189173643806182
 -0.0009557900718289454 -0.006687912644267519 0.0010859782471052326 0.010574189689913086 0.9943092237748818 -0.05189173643806182 0.004757420059120381 0.021424851982198352
0.07503126302626001 0.005148924060945034 0.023493378688452925 0.9937799692237147 -0.056697596396903804 0.0012932276066187829 0.011530866821442585 -0.0010965786947797528 -0.007299543530570718
 0.9937799692237147 -0.056697596396903804 0.005156227961265276 0.023492780757658274 -0.001096213740359987 -0.007299557381284844 0.0012482619307123005 0.011536735874632558
 0.0012932276066187829 0.011530866821442585 -0.001096213740359987 -0.007299557381284844 0.005148967853962006 0.02349239461000862 0.9937799311584858 -0.0566986021251853
 -0.0010965786947797528 -0.007299543530570718 0.0012482619307123005 0.011536735874632558 0.9937799311584858 -0.0566986021251853 0.00515611520345412 0.02349179038515979
0.08128386827845 0.005569415670465686 0.025577832154148324 0.9932201036035867 -0.06151916224955875 0.0014754273934379062 0.012491711932445464 -0.0012478723445346574 -0.007910924291886877
 0.9932201036035867 -0.06151916224955875 0.005577985951012354 0.025577147088230376 -0.001247445355296826 -0.007910944193432218 0.0014226390247179283 0.012498766172633602
 0.0014754273934379062 0.012491711932445464 -0.001247445355296826 -0.007910944193432218 0.005569467357491982 0.025576769208446686 0.9932200590728503 -0.061520252639009634
 -0.0012478723445346574 -0.007910924291886877 0.0014226390247179283 0.012498766172633602 0.9932200590728503 -0.061520252639009634 0.005577854487151311 0.025576076343169756
0.08753647353064001 0.006013234536121099 0.027679221818884717 0.9926292869306601 -0.06635526253077074 0.0016704445458542504 0.013451695728014256 -0.0014097682217802147 -0.008521855345065176
 0.9926292869306601 -0.06635526253077074 0.006023172666405724 0.027678442595200494 -0.0014092745169224216 -0.008521882367463226 0.001609203135959229 0.013460085975703792
 0.0016704445458542504 0.013451695728014256 -0.0014092745169224216 -0.008521882367463226 0.006013294794172533 0.027678080676701525 0.9926292353854693 -0.06635643782383921
 -0.0014097682217802147 -0.008521855345065176 0.001609203135959229 0.013460085975703792 0.9926292353854693 -0.06635643782383921 0.006023021163772437 0.02767729200649596
0.09378907878283 0.006480759779897371 0.029797133994514516 0.9920071498357838 -0.07120562657360219 0.0018783693429985885 0.014410609072420618 -0.0015823596199247224 -0.009132133843097535
 0.9920071498357838 -0.07120562657360219 0.006492167395756693 0.0297962532953849 -0.001581794558027377 -0.009132169124220543 0.00180804416639973 0.014420495883410309
 0.0018783693429985885 0.014410609072420618 -0.001581794558027377 -0.009132169124220543 0.006480829296330159 0.029795915371031805 0.9920070907133626 -0.07120688703195058
 -0.0015823596199247224 -0.009132133843097535 0.00180804416639973 0.014420495883410309 0.9920070907133626 -0.07120688703195058 0.006491994544476255 0.02979502343867601
0.100041684035 0.00697236641309029 0.03193115644159228 0.991353325998773 -0.07606996570003638 0.0020992880731559495 0.015368238164655984 -0.0017657357918918577 -0.009741553571606946
 0.991353325998773 -0.07606996570003638 0.006985345343979144 0.03193016664530769 -0.0017650947713877395 -0.009741598317121524 0.002019248159050596 0.01537979192277735
 0.0020992880731559495 0.015368238164655984 -0.0017650947713877395 -0.009741598317121524 0.0069724458880327245 0.031929861090435954 0.9913532587234379 -0.07607131161029532
 -0.0017657357918918577 -0.009741553571606946 0.002019248159050596 0.01537979192277735 0.9913532587234379 -0.07607131161029532 0.006985149858747521 0.03192885813721022
0.1059090909091 0.007455919168370715 0.03394799471355826 0.9907106395422685 -0.08064707090616721 0.0023184879328717674 0.016265509104006662 -0.0019476993547508353 -0.010312461606033985
 0.9907106395422685 -0.08064707090616721 0.0074704654213535735 0.0339468953295717 -0.0019469829061029786 -0.010312516389736893 0.0022287578104278945 0.016278790911701677
 0.0023184879328717674 0.016265509104006662 -0.0019469829061029786 -0.010312516389736893 0.0074560086377544075 0.03394662808512787 0.9907105640792787 -0.08064849728251546
 -0.0019476993547508353 -0.010312461606033985 0.0022287578104278945 0.016278790911701677 0.9907105640792787 -0.08064849728251546 0.007470247549887419 0.03394551361686528
0.1062942892872 0.007488425177921853 0.03408087651564669 0.9906674524338146 -0.08094797509540831 0.002333282875068582 0.016324364727461863 -0.001959981814291436 -0.010349904888573794
 0.9906674524338146 -0.08094797509540831 0.007503077474633366 0.034079769686329 -0.001959260274063521 -0.010349960371851374 0.0022428971461440814 0.01633776573509247
 0.002333282875068582 0.016324364727461863 -0.001959260274063521 -0.010349960371851374 0.007488515325736431 0.0340795052342122 0.9906673764147922 -0.08094940676325155
 -0.001959981814291436 -0.010349904888573794 0.0022428971461440814 0.01633776573509247 0.9906673764147922 -0.08094940676325155 0.0075028580951126845 0.0340783831900032
0.11254689453939999 0.00802930237406167 0.03624587977364389 0.9899491697609238 -0.08583933523472854 0.002580431581754466 0.01727876616938664 -0.0021651784499485626 -0.010956974701699996
 0.9899491697609238 -0.08583933523472854 0.008045730336429302 0.036244647649892915 -0.0021643718698705536 -0.010957042263734219 0.002479068999038887 0.017294204735565435
 0.002580431581754466 0.01727876616938664 -0.0021643718698705536 -0.010957042263734219 0.00802940392458657 0.03624443340013313 0.9899490843918787 -0.08584085298744955
 -0.0021651784499485626 -0.010956974701699996 0.002479068999038887 0.017294204735565435 0.9899490843918787 -0.08584085298744955 0.008045485827952814 0.036243183872252976
0.11879949979160001 0.008595359674542384 0.038425748890710223 0.9891981224715637 -0.09074371301152907 0.0028408075665280973 0.018231215733613318 -0.0023814020092969685 -0.011562546469660298
 0.9891981224715637 -0.09074371301152907 0.008613665878747026 0.038424382873050736 -0.0023805059109373683 -0.011562627518926975 0.0027278372796020784 0.01824889225954308
 0.0028408075665280973 0.018231215733613318 -0.0023805059109373683 -0.011562627518926975 0.008595473374850627 0.03842422830435256 0.9891980271290687 -0.09074531719713468
 -0.0023814020092969685 -0.011562546469660298 0.0027278372796020784 0.01824889225954308 0.9891980271290687 -0.09074531719713468 0.008613395033041139 0.03842284256529339
0.1250521050438 0.009186953931782989 0.04062006282333051 0.9884139591860653 -0.0956607626332722 0.003114479590805489 0.019181482635744408 -0.0026087242111651585 -0.012166400225419687
 0.9884139591860653 -0.0956607626332722 0.009207241258433347 0.04061855396030663 -0.0026077341584605992 -0.012166496237746134 0.002989271093243766 0.019201607697656404
 0.003114479590805489 0.019181482635744408 -0.0026077341584605992 -0.012166496237746134 0.0091870805481457 0.04061846894516332 0.9884138532291379 -0.09566245361910275
 -0.0026087242111651585 -0.012166400225419687 0.002989271093243766 0.019201607697656404 0.9884138532291379 -0.09566245361910275 0.009206942894626228 0.040616937918956035
0.131304710296 0.009804436978620303 0.04282839615100832 0.98759633290791 -0.10059012635133077 0.003401511653825642 0.020129332197136682 -0.0028472120434749172 -0.01276831261489571
 0.98759633290791 -0.10059012635133077 0.009826808640068957 0.04282673512406522 -0.002846123643411268 -0.01276842513333531 0.00326343494344785 0.020152126626197916
 0.003401511653825642 0.020129332197136682 -0.002846123643411268 -0.01276842513333531 0.009804577297590428 0.04282672994055909 0.9875962156768747 -0.10059190452658903
 -0.0028472120434749172 -0.01276831261489571 0.00326343494344785 0.020152126626197916 0.9875962156768747 -0.10059190452658903 0.00982648160542742 0.042825044187949995
0.1375573155481 0.01031446261299251 0.04476301618142488 0.9868786585643495 -0.10524396978215161 0.0036687149580362463 0.021046949107695223 -0.003063842050337991 -0.013340380691708613
 0.9868786585643495 -0.10524396978215161 0.01033903066458956 0.0447612275726403 -0.0030626490320903566 -0.0133405100141397 0.003517454064502176 0.021072398966774333
 0.0036687149580362463 0.021046949107695223 -0.0030626490320903566 -0.0133405100141397 0.010314618476274053 0.04476127779911266 0.9868785295284717 -0.10524583537225009
 -0.003063842050337991 -0.013340380691708613 0.003517454064502176 0.021072398966774333 0.9868785295284717 -0.10524583537225009 0.010338672522540157 0.04475946313791513
0.1438099208003 0.010842650107108507 0.04668591418499523 0.986135271078069 -0.10988445298287047 0.003946671502508148 0.021959772145735603 -0.0032890665426804086 -0.013908142321294987
 0.986135271078069 -0.10988445298287047 0.010869519547969319 0.046683990429834385 -0.0032877642367404552 -0.013908289972590724 0.0037816537316989643 0.021988081289519266
 0.003946671502508148 0.021959772145735603 -0.0032877642367404552 -0.013908289972590724 0.010842822522434833 0.04668410455327927 0.9861351295775005 -0.10988640636627915
 -0.0032890665426804086 -0.013908142321294987 0.0037816537316989643 0.021988081289519266 0.9861351295775005 -0.10988640636627915 0.01086912895264445 0.04668215345072998
0.1500625260525 0.011388788634025496 0.048596884146910976 0.985366386216761 -0.11451141392354323 0.004235269306227419 0.022867673009451157 -0.0035227784769427547 -0.014471480991478677
 0.985366386216761 -0.11451141392354323 0.011418064823307084 0.048594817182057215 -0.0035213622325137198 -0.014471648557024226 0.004055926044745608 0.02289905275222275
 0.004235269306227419 0.022867673009451157 -0.0035213622325137198 -0.014471648557024226 0.011388978641689418 0.04859500422008582 0.9853662315756904 -0.11451345549153866
 -0.0035227784769427547 -0.014471480991478677 0.004055926044745608 0.02289905275222275 0.9853662315756904 -0.11451345549153866 0.011417640440487683 0.0485929086532147
0.15631513130469998 0.011952665573515545 0.050495726225254396 0.9845722211715242 -0.1191246922165148 0.004534394874137271 0.023770525929679483 -0.0037648693312894842 -0.015030282969742742
 0.9845722211715242 -0.1191246922165148 0.011984454239422277 0.05049350747200921 -0.0037633345166577545 -0.015030472094997478 0.00434016166020155 0.023805194957567298
