! Created with skrf 1.8.0 (http://scikit-rf.org).
# GHz S RI R 50.0 
!freq ReS11 ImS11 ReS12 ImS12 ReS13 ImS13
! ReS14 ImS14
! ReS21 ImS21 ReS22 ImS22 ReS23 ImS23
! ReS24 ImS24
! ReS31 ImS31 ReS32 ImS32 ReS33 ImS33
! ReS34 ImS34
! ReS41 ImS41 ReS42 ImS42 ReS43 ImS43
! ReS44 ImS44
!
0.0 0.001342837316636 0.0 0.9986571626811 0.0 5.155895285625e-05 0.0 -5.155895387707e-05 6.3141507832939795e-21
 0.9986571626811 0.0 0.001342837316625 0.0 -5.155895387694e-05 6.314150783278058e-21 5.155895285489e-05 0.0
 5.155895285625e-05 0.0 -5.155895387694e-05 6.314150783278058e-21 0.001342837317524 0.0 0.998657162682 0.0
 -5.155895387707e-05 6.3141507832939795e-21 5.155895285489e-05 0.0 0.998657162682 0.0 0.001342837317522 0.0
0.005 0.0014442899725091707 0.0010970342893431597 0.9985288880576362 -0.0028136499185387113 7.22164297498409e-05 0.0005793681656166682 -7.012000920505725e-05 -0.00036178346938523897
 0.9985288880576362 -0.0028136499185387113 0.001444296217827009 0.0010970305903294448 -7.011905133954736e-05 -0.00036178269130389174 7.218400949230061e-05 0.0005793805175033651
 7.22164297498409e-05 0.0005793681656166682 -7.011905133954736e-05 -0.00036178269130389174 0.0014442910121418631 0.0010971009100573666 0.9985288883975328 -0.0028135828453928194
 -7.012000920505725e-05 -0.00036178346938523897 7.218400949230061e-05 0.0005793805175033651 0.9985288883975328 -0.0028135828453928194 0.0014442958513817602 0.0010970981093277239
0.006252605252188 0.0014707473449792983 0.001375638255901209 0.9984952480294698 -0.0035177748564470097 7.803290815776892e-05 0.0007244953167321122 -7.529159215081864e-05 -0.00045270852819106344
 0.9984952480294698 -0.0035177748564470097 0.0014707571079998843 0.0013756335560834588 -7.529010195457822e-05 -0.0004527075676966944 7.798225416274029e-05 0.0007245113433931911
 7.803290815776892e-05 0.0007244953167321122 -7.529010195457822e-05 -0.0004527075676966944 0.0014707489058859633 0.0013757215010466615 0.9984952484962663 -0.0035176910379495375
 -7.529159215081864e-05 -0.00045270852819106344 7.798225416274029e-05 0.0007245113433931911 0.9984952484962663 -0.0035176910379495375 0.001470756470130975 0.0013757179334053932
0.01250521050438 0.0016091481101275396 0.002780386338553121 0.9983182200775824 -0.007036506400110559 0.00011093868880300083 0.0014493707641401502 -0.00010426467359992576 -0.000907719038884606
 0.9983182200775824 -0.007036506400110559 0.0016091871011478217 0.0027803761670488892 -0.00010425880458673669 -0.0009077172488516601 0.0001107366868500037 0.0014494090961461742
 0.00011093868880300083 0.0014493707641401502 -0.00010425880458673669 -0.0009077172488516601 0.0016091537577665857 0.0027805525008068113 0.9983182213532658 -0.007036338985980575
 -0.00010426467359992576 -0.000907719038884606 0.0001107366868500037 0.0014494090961461742 0.9983182213532658 -0.007036338985980575 0.0016091839569702443 0.0027805446991040757
0.01875781575657 0.001758310887967519 0.0042054297035230385 0.9981258809074036 -0.0105647925107225 0.00015034734555053583 0.002175143983396032 -0.0001385608706607068 -0.001364380636954408
 0.9981258809074036 -0.0105647925107225 0.001758398516396466 0.004205413220600034 -0.0001385477874788812 -0.0013643781692399069 0.00014989355625187338 0.0021752120076726183
 0.00015034734555053583 0.002175143983396032 -0.0001385477874788812 -0.0013643781692399069 0.0017583231646642792 0.0042056785295973165 0.9981258833549913 -0.010564541577897841
 -0.0001385608706607068 -0.001364380636954408 0.00014989355625187338 0.0021752120076726183 0.9981258833549913 -0.010564541577897841 0.0017583910132656748 0.004205665796806784
0.02501042100875 0.0019185006017955002 0.005648802463124085 0.9979180257197355 -0.014104375288759203 0.00019633105421621694 0.002901868527944727 -0.000178260647756757 -0.0018225025987687164
 0.9979180257197355 -0.014104375288759203 0.0019186562456570593 0.005648778767729236 -0.00017823755025768177 -0.0018224996291376244 0.00019552498731188414 0.002901974693681953
 0.00019633105421621694 0.002901868527944727 -0.00017823755025768177 -0.0018224996291376244 0.0019185220412890286 0.005649133694090435 0.9979180296969055 -0.0141040408493071
 -0.000178260647756757 -0.0018225025987687164 0.00019552498731188414 0.002901974693681953 0.9979180296969055 -0.0141040408493071 0.0019186425166377557 0.005649115307398943
0.03126302626094 0.0020899710410168687 0.007109508954459244 0.9976944381970599 -0.017656019457773477 0.0002489626827626982 0.0036295304073957375 -0.0002234424890059548 -0.0022819578059080883
 0.9976944381970599 -0.017656019457773477 0.0020902140563171137 0.007109477085147785 -0.00022340660613343207 -0.0022819545343828623 0.00024770370122235297 0.0036296842312818615
 0.0002489626827626982 0.0036295304073957375 -0.00022340660613343207 -0.0022819545343828623 0.0020900041768072797 0.007109922284082365 0.9976944440644542 -0.017655601500144318
 -0.0002234424890059548 -0.0022819578059080883 0.00024770370122235297 0.0036296842312818615 0.9976944440644542 -0.017655601500144318 0.002090192226889588 0.007109897496166951
0.037515631513130004 0.0022729706756620394 0.008586912118611198 0.9974548964507159 -0.021220123932087803 0.0003083150807800352 0.004358089282979476 -0.0002741834882272773 -0.002742641539691218
 0.9974548964507159 -0.021220123932087803 0.002273320402323094 0.00858687105390314 -0.00027413207483428423 -0.0027426381906657956 0.00030650235647868934 0.004358301359634039
 0.0003083150807800352 0.004358089282979476 -0.00027413207483428423 -0.0027426381906657956 0.002273018039657847 0.008587407202866822 0.9974549045718024 -0.021219622411264173
 -0.0002741834882272773 -0.002742641539691218 0.00030650235647868934 0.004358301359634039 0.9974549045718024 -0.021219622411264173 0.0022732885884498852 0.00858737524244051
0.043768236765320004 0.0024677449039169465 0.010080547387959883 0.9971991754016041 -0.024796907869447212 0.0003744607510182482 0.005087490998000512 -0.0003305595713683035 -0.003204458940821984
 0.9971991754016041 -0.024796907869447212 0.0024682206698683766 0.010080496046358375 -0.0003304899063035034 -0.003204455763070783 0.00037199324260407516 0.005087773012012093
 0.0003744607510182482 0.005087490998000512 -0.0003304899063035034 -0.003204455763070783 0.0024678090253785418 0.010081123828528361 0.997199186142235 -0.02479632272284712
 -0.0003305595713683035 -0.003204458940821984 0.00037199324260407516 0.005087773012012093 0.997199186142235 -0.02479632272284712 0.0024681769765740025 0.010081083901020652
0.050020842017509996 0.0026745371020218387 0.011590045748315873 0.9969270479664533 -0.028386487546866592 0.00044747165958169207 0.005817672742860467 -0.00039264558454748404 -0.0036673198353411214
 0.9969270479664533 -0.028386487546866592 0.0026751582270579726 0.011589982988178217 -0.00039255496940939936 -0.0036673171020150303 0.00044424810192888797 0.005818037481483074
 0.00044747165958169207 0.005817672742860467 -0.00039255496940939936 -0.0036673171020150303 0.0026746205084167726 0.011590703097881103 0.9969270616970407 -0.02838581868847881
 -0.00039264558454748404 -0.0036673198353411214 0.00044424810192888797 0.005818037481483074 0.9969270616970407 -0.02838581868847881 0.002675100748977304 0.011590654385883506
0.055454545454549996 0.002864193756350508 0.01291448560145668 0.9966770596263971 -0.0315163736499221 0.0005165511568647765 0.006452802881102103 -0.00045129471307429046 -0.004070339023331824
 0.9966770596263971 -0.0315163736499221 0.00286495688857134 0.012914411944325499 -0.00045118371722619865 -0.004070336916974544 0.0005125881533263432 0.00645325076089786
 0.0005165511568647765 0.006452802881102103 -0.00045118371722619865 -0.004070336916974544 0.002864295972535352 0.012915212860205716 0.9966770762598188 -0.03151563195702415
 -0.00045129471307429046 -0.004070339023331824 0.0005125881533263432 0.00645325076089786 0.9966770762598188 -0.03151563195702415 0.0028648858753527466 0.012915155832899525
0.056273447269699996 0.0028935891746463254 0.013115095993099334 0.996638285746608 -0.03198891404412982 0.0005274191050198512 0.006548565594935677 -0.0004605153242642225 -0.004131136187199175
 0.996638285746608 -0.03198891404412982 0.002894374973123842 0.013115020612526434 -0.000460401082478302 -0.0041311341958055 0.0005233380057174243 0.006549026961087222
 0.0005274191050198512 0.006548565594935677 -0.000460401082478302 -0.0041311341958055 0.0028936943906279107 0.013115833752715718 0.996638302842133 -0.03198816136679974
 -0.0004605153242642225 -0.004131136187199175 0.0005233380057174243 0.006549026961087222 0.996638302842133 -0.03198816136679974 0.0028943017938952652 0.01311577541631795
0.06252605252188 0.003125141858776342 0.014655423959811285 0.9963326594733 -0.03560419394641964 0.000614373617638788 0.007280095907484572 -0.0005342415371964752 -0.004595820703612088
 0.9963326594733 -0.03560419394641964 0.00312611164271342 0.014655334696318094 -0.0005341010133925842 -0.004595819775988695 0.0006093332581602388 0.007280668932881741
 0.000614373617638788 0.007280095907484572 -0.0005341010133925842 -0.004595819775988695 0.0031252714053094446 0.0146562415763782 0.9963326803137903 -0.03560335732373149
 -0.0005342415371964752 -0.004595820703612088 0.0006093332581602388 0.007280668932881741 0.9963326803137903 -0.03560335732373149 0.0031260208340914194 0.014656172753492003
0.06877865777407 0.0033694348938121212 0.016210780161091242 0.9960099393210448 -0.03923230165359154 0.0007084048752726324 0.00801218613606001 -0.0006138959029809085 -0.005061286004981113
 0.9960099393210448 -0.03923230165359154 0.0033706079753933094 0.016210675691228627 -0.0006137264625482679 -0.00506128648726459 0.0007023033153643339 0.008012886994372626
 0.0007084048752726324 0.00801218613606001 -0.0006137264625482679 -0.00506128648726459 0.0033695912878596215 0.016211677025097255 0.9960099642927192 -0.03923138094169622
 -0.0006138959029809085 -0.005061286004981113 0.0007023033153643339 0.008012886994372626 0.9960099642927192 -0.03923138094169622 0.0033704975969007776 0.016211596831641608
0.07503126302626001 0.0036267071124329617 0.01778093192308043 0.9956698951454827 -0.04287318718415646 0.0008095816282307655 0.008744755367178825 -0.000699549006973112 -0.005527444094766658
 0.9956698951454827 -0.04287318718415646 0.0036281028065727563 0.017780810862066423 -0.0006993480357006017 -0.005527446357361151 0.000802316712668969 0.008745601387178682
 0.0008095816282307655 0.008744755367178825 -0.0006993480357006017 -0.005527446357361151 0.0036268928657118052 0.017781907374914398 0.9956699246406292 -0.042872182215015646
 -0.000699549006973112 -0.005527444094766658 0.000802316712668969 0.008745601387178682 0.9956699246406292 -0.042872182215015646 0.0036279709046570297 0.017781814905030193
0.08128386827845 0.0038971964838320347 0.019365658180592504 0.9953122966752935 -0.04652678132489719 0.0009179716310602254 0.00947771966367822 -0.0007912703051125467 -0.005994206015038949
 0.9953122966752935 -0.04652678132489719 0.003898834110647495 0.01936551908174324 -0.0007910352089125414 -0.005994210452578227 0.0009094409984144633 0.009478729342311294
 0.0009179716310602254 0.00947771966367822 -0.0007910352089125414 -0.005994210452578227 0.003897414102180499 0.01936671149992306 0.9953123310931833 -0.046525691916443186
 -0.0007912703051125467 -0.005994206015038949 0.0009094409984144633 0.009478729342311294 0.9953123310931833 -0.046525691916443186 0.003898678718428785 0.01936660582597491
0.08753647353064001 0.004181140122797911 0.02096474584828681 0.9949369136724684 -0.05019299920667286 0.0010336415772382273 0.01021099231006993 -0.0008891280850114342 -0.006461481604499681
 0.9949369136724684 -0.05019299920667286 0.004183039009934842 0.02096458720246257 -0.0008888562897600269 -0.006461488635815462 0.0010237426698240229 0.010212185325446986
 0.0010336415772382273 0.01021099231006993 -0.0008888562897600269 -0.006461488635815462 0.0041813921053459055 0.02096587626336103 0.9949369534201826 -0.05019182515314904
 -0.0008891280850114342 -0.006461481604499681 0.0010237426698240229 0.010212185325446986 0.9949369534201826 -0.05019182515314904 0.004182858146467869 0.020965756435995988
0.09378907878283 0.004478774277456195 0.02257798724592777 0.9945435160745449 -0.053871742829022476 0.001156657036953335 0.01094448398591911 -0.0009931894225951605 -0.006929179331065918
 0.9945435160745449 -0.053871742829022476 0.0044809537626507145 0.022577807480842507 -0.0009928783739824843 -0.006929189399143875 0.0011452871125439928 0.01094588121016865
 0.001156657036953335 0.01094448398591911 -0.0009928783739824843 -0.006929189399143875 0.004479063115870552 0.02257919392501113 0.9945435615673196 -0.05387048390912198
 -0.0009931894225951605 -0.006929179331065918 0.0011452871125439928 0.01094588121016865 0.9945435615673196 -0.05387048390912198 0.004480745432596018 0.02257905897301528
0.100041684035 0.004790334300685929 0.024205178202848267 0.9941318741220464 -0.0575629029081489 0.0012870823961430944 0.011678102895626215 -0.001103520136971112 -0.007397206170660461
 0.9941318741220464 -0.0575629029081489 0.004792813733706993 0.024204975682349188 -0.0011031673003910668 -0.007397219742602055 0.0012741385401574335 0.011679726407663136
 0.0012870823961430944 0.011678102895626215 -0.0011031673003910668 -0.007397219742602055 0.004790662477862759 0.024206460257868472 0.9941319257837701 -0.057561558881015634
 -0.001103520136971112 -0.007397206170660461 0.0012741385401574335 0.011679726407663136 0.9941319257837701 -0.057561558881015634 0.004792575926475064 0.02420630918809882
0.1059090909091 0.005095574590179863 0.02574463125866874 0.9937287944716373 -0.06103785173634582 0.0014162682468650898 0.012366558296372994 -0.001212813225821473 -0.007836614791377745
 0.9937287944716373 -0.06103785173634582 0.005098353104080784 0.02574440583893658 -0.0012124188880061493 -0.00783663209759012 0.0014017536817539564 0.012368415322017597
 0.0014162682468650898 0.012366558296372994 -0.0012124188880061493 -0.00783663209759012 0.005095941932712916 0.02574598318932761 0.9937288523165343 -0.06103642760722076
 -0.001212813225821473 -0.007836614791377745 0.0014017536817539564 0.012368415322017597 0.9937288523165343 -0.06103642760722076 0.005098085793321593 0.025745816071647304
0.1062942892872 0.005116054608376571 0.025846116629075877 0.9937017584757405 -0.061266360261324156 0.00142498079674922 0.012411754869642652 -0.001220184742580837 -0.007865467517422947
 0.9937017584757405 -0.061266360261324156 0.005118853353860069 0.02584588965230325 -0.0012197876030971054 -0.007865485084400757 0.001410359935836863 0.012413627967684141
 0.00142498079674922 0.012411754869642652 -0.0012197876030971054 -0.007865485084400757 0.005116424598087515 0.025847473116448357 0.9937018167400499 -0.06126493086548864
 -0.001220184742580837 -0.007865467517422947 0.001410359935836863 0.012413627967684141 0.9937018167400499 -0.06126493086548864 0.0051185840435093565 0.025847304913483683
0.11254689453939999 0.005456168631244427 0.02750060142602736 0.993252940329544 -0.06498198685477664 0.001570414077684668 0.013145343440755769 -0.001343246400115233 -0.008333867121508767
 0.993252940329544 -0.06498198685477664 0.0054593060707125935 0.027500348226487933 -0.0013428024624297912 -0.008333889198724326 0.0015540129938695262 0.013147490654740862
 0.001570414077684668 0.013145343440755769 -0.0013428024624297912 -0.008333889198724326 0.005456582896673236 0.02750203134408155 0.9932530056401275 -0.06498047181035002
 -0.001343246400115233 -0.008333867121508767 0.0015540129938695262 0.013147490654740862 0.9932530056401275 -0.06498047181035002 0.005459003214786059 0.027501844969951054
0.11879949979160001 0.005810908757033216 0.029168431635427605 0.9927851915162192 -0.06870964661640175 0.0017234427162205227 0.013878769910634615 -0.0014727668659626043 -0.00880230703965014
 0.9927851915162192 -0.06870964661640175 0.005814404291285283 0.029168150380017983 -0.001472273654370039 -0.008802334166283721 0.001705158061890898 0.013881217014449242
 0.0017234427162205227 0.013878769910634615 -0.001472273654370039 -0.008802334166283721 0.005811369750089487 0.0291699339228021 0.9927852643274405 -0.0687080456264784
 -0.0014727668659626043 -0.00880230703965014 0.001705158061890898 0.013881217014449242 0.9927852643274405 -0.0687080456264784 0.005814065830900368 0.02916972831653763
0.1250521050438 0.006180506268586632 0.030849405763072914 0.9922982846109414 -0.07244919607707581 0.0018841257696479877 0.01461193340307922 -0.0016088064406246652 -0.009270687601930755
 0.9922982846109414 -0.07244919607707581 0.006184379320038608 0.0308490945509878 -0.0016082614990564404 -0.009270720341094876 0.001863854083139798 0.014614707426570379
 0.0018841257696479877 0.01461193340307922 -0.0016082614990564404 -0.009270720341094876 0.006181016428853093 0.03085097930121304 0.9922983653887347 -0.0724475088250755
 -0.0016088064406246652 -0.009270687601930755 0.001863854083139798 0.014614707426570379 0.9922983653887347 -0.0724475088250755 0.006184003178959246 0.0308507533783514
0.131304710296 0.006565191276560977 0.03254332123770037 0.9917919930321066 -0.07620048488024256 0.0020525208171189102 0.015344730910927484 -0.001751423916150621 -0.00973890738795502
 0.9917919930321066 -0.07620048488024256 0.006569461291640636 0.032542978099247805 -0.0017508248081885857 -0.009738946326641613 0.0020301585390841066 0.015347860151658952
 0.0020525208171189102 0.015344730910927484 -0.0017508248081885857 -0.009738946326641613 0.006565753030228208 0.032544964850581316 0.991792082254622 -0.07619871102991305
 -0.001751423916150621 -0.00973890738795502 0.0020301585390841066 0.015347860151658952 0.991792082254622 -0.07619871102991305 0.006569045375853436 0.032544717502538276
0.1375573155481 0.006872231313843148 0.034028245721104855 0.9913590807244614 -0.07974155354656846 0.00220616549774141 0.01605423023838586 -0.0018781866151085427 -0.010184028743188129
 0.9913590807244614 -0.07974155354656846 0.0068769180974188595 0.03402787563506236 -0.0018775296299995414 -0.010184073857715543 0.0021816605061202375 0.016057707816910283
 0.00220616549774141 0.01605423023838586 -0.0018775296299995414 -0.010184073857715543 0.006872846454685682 0.03402995854818636 0.991359178778258 -0.07973969289361774
 -0.0018781866151085427 -0.010184028743188129 0.0021816605061202375 0.016057707816910283 0.991359178778258 -0.07973969289361774 0.006876461104496475 0.03402969517381331
0.1438099208003 0.007189904728035768 0.03550611898789068 0.9909112502574291 -0.08327443741234579 0.0023660249238326853 0.016761351559729038 -0.0020100376946361625 -0.010626981802103521
 0.9909112502574291 -0.08327443741234579 0.00719502779034233 0.035505720443706486 -0.002009320194676125 -0.010627033665393344 0.0023392828316340214 0.0167652031196047
 0.0023660249238326853 0.016761351559729038 -0.002009320194676125 -0.010627033665393344 0.007190575548492116 0.0355078998289451 0.9909113576196646 -0.08327248962523717
 -0.0020100376946361625 -0.010626981802103521 0.0023392828316340214 0.0167652031196047 0.9909113576196646 -0.08327248962523717 0.007194527743665813 0.035507619755831984
0.1500625260525 0.007518109842558557 0.036976840792264876 0.9904486066638686 -0.08679907253602995 0.002532050466480372 0.017466038767353753 -0.002146930052043299 -0.011067713097757
 0.9904486066638686 -0.08679907253602995 0.007523688714317672 0.036976412202590014 -0.0021461494029960337 -0.011067772305717169 0.002502977392895746 0.017470290877802323
 0.002532050466480372 0.017466038767353753 -0.0021461494029960337 -0.011067772305717169 0.007518838614829801 0.03697868839941387 0.9904487238218947 -0.08679703727021618
 -0.002146930052043299 -0.011067713097757 0.002502977392895746 0.017470290877802323 0.9904487238218947 -0.08679703727021618 0.007523143629287273 0.03697839091081213
0.15631513130469998 0.00785674437873486 0.038440314041035685 0.9899712553793404 -0.09031539474245372 0.0027041929940637022 0.018168236584846023 -0.0022888160701036377 -0.01150617021352142
