! Created with skrf 1.8.0 (http://scikit-rf.org).
# GHz S RI R 50.0 
!freq ReS11 ImS11 ReS12 ImS12 ReS13 ImS13
! ReS14 ImS14
! ReS21 ImS21 ReS22 ImS22 ReS23 ImS23
! ReS24 ImS24
! ReS31 ImS31 ReS32 ImS32 ReS33 ImS33
! ReS34 ImS34
! ReS41 ImS41 ReS42 ImS42 ReS43 ImS43
! ReS44 ImS44
!
0.0 0.001711305025764 0.0 0.9982886949742 0.0 6.647600426842e-05 0.0 -6.64760036679e-05 8.140962511200145e-21
 0.9982886949742 0.0 0.001711305025782 0.0 -6.647600366932e-05 8.140962511374044e-21 6.647600426792e-05 0.0
 6.647600426842e-05 0.0 -6.647600366932e-05 8.140962511374044e-21 0.001711305011945 0.0 0.9982886949604 0.0
 -6.64760036679e-05 8.140962511200145e-21 6.647600426792e-05 0.0 0.9982886949604 0.0 0.001711305011889 0.0
0.005 0.0018418035041853217 0.0013960462345196504 0.9981234984422294 -0.0035843105569471063 9.397489798327135e-05 0.0007534783410232086 -9.110965878071219e-05 -0.00046916637398980606
 0.9981234984422294 -0.0035843105569471063 0.0018418057578840235 0.001396044947361916 -9.110871420133204e-05 -0.0004691657386675971 9.397269540330211e-05 0.0007534793755728736
 9.397489798327135e-05 0.0007534783410232086 -9.110871420133204e-05 -0.0004691657386675971 0.0018418031781584723 0.0013959792058230959 0.9981234980703654 -0.003584377629518961
 -9.110965878071219e-05 -0.00046916637398980606 9.397269540330211e-05 0.0007534793755728736 0.9981234980703654 -0.003584377629518961 0.001841805352348635 0.0013959778436781188
0.006252605252188 0.0018761911132012712 0.0017505429530868272 0.9980796670997215 -0.004481240404661525 0.00010191803389561834 0.0009421927781855422 -9.814342785247303e-05 -0.0005870593155040737
 0.9980796670997215 -0.004481240404661525 0.0018761946352816696 0.0017505412736457098 -9.814195730017017e-05 -0.0005870585343094695 0.00010191459497483526 0.0009421940910719724
 0.00010191803389561834 0.0009421927781855422 -9.814195730017017e-05 -0.0005870585343094695 0.001876190669558143 0.0017504591982877133 0.998079666584661 -0.0044813242280462885
 -9.814342785247303e-05 -0.0005870593155040737 0.00010191459497483526 0.0009421940910719724 0.998079666584661 -0.0044813242280462885 0.00187619406836116 0.0017504574097174134
0.01250521050438 0.0020581565636412515 0.0035376405433696907 0.9978460776356736 -0.008963115343579589 0.00014792869154683967 0.0018846075825654609 -0.0001384745926136872 -0.0011768743476963668
 0.9978460776356736 -0.008963115343579589 0.002058170614722252 0.003537636458816109 -0.00013846878877175295 -0.0011768729297342401 0.0001479150510135863 0.0018846104459387947
 0.00014792869154683967 0.0018846075825654609 -0.00013846878877175295 -0.0011768729297342401 0.0020581553637252616 0.0035374734334277283 0.9978460761539585 -0.008963282770034272
 -0.0001384745926136872 -0.0011768743476963668 0.0001479150510135863 0.0018846104459387947 0.9978460761539585 -0.008963282770034272 0.0020581689404938594 0.0035374689729400074
0.01875781575657 0.002257632641470623 0.00534998294279742 0.9975876122543982 -0.01345649660579705 0.00020461968524815684 0.0028278723931192077 -0.0001876012473388076 -0.0017685414545776143
 0.9975876122543982 -0.01345649660579705 0.0022576641892568293 0.00534997565584221 -0.00018758829292837986 -0.0017685395783286076 0.00020458921702629304 0.002827877135355711
 0.00020461968524815684 0.0028278723931192077 -0.00018758829292837986 -0.0017685395783286076 0.0022576303612630347 0.005349732803747547 0.9975876093446054 -0.013456747595127215
 -0.0001876012473388076 -0.0017685414545776143 0.00020458921702629304 0.002827877135355711 0.9975876093446054 -0.013456747595127215 0.002257660879222172 0.005349724704465893
0.02501042100875 0.0024750357953295123 0.007184983271019303 0.9973039433523391 -0.017963518559777302 0.0002721040021144543 0.0037720042038693917 -0.0002456499938920527 -0.0023617599423602343
 0.9973039433523391 -0.017963518559777302 0.0024750917751662294 0.007184971912121848 -0.0002456271018940714 -0.002361757822964379 0.00027205018602347383 0.003772011229583973
 0.0002721040021144543 0.0037720042038693917 -0.0002456271018940714 -0.002361757822964379 0.0024750321102024633 0.00718465046904462 0.997303938550016 -0.017963853138876874
 -0.0002456499938920527 -0.0023617599423602343 0.00027205018602347383 0.003772011229583973 0.997303938550016 -0.017963853138876874 0.002475086320459699 0.0071846376787980904
0.03126302626094 0.002710765176320266 0.009041288023524708 0.9969947279413728 -0.0224850677071916 0.00035049465430386464 0.004716929913117734 -0.00031274327938075696 -0.002956311217248869
 0.9969947279413728 -0.0224850677071916 0.002710852492046161 0.009041271650170131 -0.00031270768798911876 -0.002956309106875698 0.00035041106958015226 0.004716939699604154
 0.00035049465430386464 0.004716929913117734 -0.00031270768798911876 -0.002956309106875698 0.002710759760990655 0.009040872982736519 0.9969947207756332 -0.022485485952781162
 -0.00031274327938075696 -0.002956311217248869 0.00035041106958015226 0.004716939699604154 0.9969947207756332 -0.022485485952781162 0.0027108444028711223 0.009040854362926003
0.037515631513130004 0.0029652108390521782 0.010917997825814511 0.9966596161915625 -0.02702156187050626 0.0004399035437438534 0.005662540440907484 -0.00038900028599727824 -0.003552004696141787
 0.9966596161915625 -0.02702156187050626 0.002965336364427879 0.010917975421700355 -0.0003889492563575355 -0.003552002884147682 0.00043978386880247664 0.00566255353565982
 0.0004399035437438534 0.005662540440907484 -0.0003889492563575355 -0.003552002884147682 0.0029652033722882033 0.010917501043917852 0.9966596061865414 -0.027022063893800505
 -0.00038900028599727824 -0.003552004696141787 0.00043978386880247664 0.00566255353565982 0.9966596061865414 -0.027022063893800505 0.002965325172704622 0.0109174753685397
0.043768236765320004 0.003238756902038613 0.012814430324631067 0.9962982549339142 -0.03157318723277942 0.0005404409083497876 0.0066087072185098805 -0.0004745372404748592 -0.0041486613447255525
 0.9962982549339142 -0.03157318723277942 0.0032389274799646166 0.012814400799224244 -0.0004744680552488723 -0.004148660157760887 0.0005402789231092505 0.00660872423705992
 0.0005404409083497876 0.0066087072185098805 -0.0004744680552488723 -0.004148660157760887 0.003238747066604474 0.012813852362426204 0.9962982416055797 -0.0315737731905117
 -0.0004745372404748592 -0.0041486613447255525 0.0005402789231092505 0.00660872423705992 0.9962982416055797 -0.0315737731905117 0.0032389127392151757 0.01281381831718129
0.050020842017509996 0.003531782997763742 0.014730022172455757 0.9959102894573016 -0.03613999628384581 0.0006522149834079215 0.007555288978606126 -0.0005694675066745823 -0.004746106918648091
 0.9959102894573016 -0.03613999628384581 0.003532005440445055 0.014729984360342048 -0.0005693774693823899 -0.004746106720735257 0.0006520045730822038 0.007555310602343553
 0.0006522149834079215 0.007555288978606126 -0.0005693774693823899 -0.004746106720735257 0.0035317704812106152 0.014729363670127608 0.9959102723111156 -0.03614066636225138
 -0.0005694675066745823 -0.004746106918648091 0.0006520045730822038 0.007555310602343553 0.9959102723111156 -0.03614066636225138 0.0035319867251479716 0.014729319851644654
0.055454545454549996 0.0038025437329477696 0.016409905581233307 0.9955512539739494 -0.04012099857989478 0.0007585579940850152 0.008378117462228732 -0.0006596791994073246 -0.0052658117349818605
 0.9955512539739494 -0.04012099857989478 0.0038028167554938312 0.016409859562678007 -0.0006595688670065212 -0.005265812721280047 0.0007583006202294184 0.008378143690841937
 0.0007585579940850152 0.008378117462228732 -0.0006595688670065212 -0.005265812721280047 0.0038025286391595342 0.016409177657114634 0.9955512331004074 -0.040121741947670396
 -0.0006596791994073246 -0.0052658117349818605 0.0007583006202294184 0.008378143690841937 0.9955512331004074 -0.040121741947670396 0.00380279425942812 0.016409124135815394
0.056273447269699996 0.0038446649989671983 0.01666428094818397 0.9954953645864235 -0.04072195583364192 0.0007753317489702443 0.008502135123717043 -0.0006739015904737996 -0.005344168631991346
 0.9954953645864235 -0.04072195583364192 0.003844946087005171 0.01666423360850806 -0.0006737880250133301 -0.00534416982457719 0.0007750669087481134 0.008502162097634875
 0.0007753317489702443 0.008502135123717043 -0.0006737880250133301 -0.00534416982457719 0.0038446494972720784 0.01666354261034976 0.9954953431176002 -0.0407227102637273
 -0.0006739015904737996 -0.005344168631991346 0.0007750669087481134 0.008502162097634875 0.9954953431176002 -0.0407227102637273 0.0038449229959681983 0.01666348752526929
0.06252605252188 0.004177775392241194 0.018616758700811562 0.9950531254121684 -0.045318973408351816 0.0009098947273324075 0.009449087568328221 -0.0007879470924241072 -0.005942673358537212
 0.9950531254121684 -0.045318973408351816 0.004178121874482993 0.01861670051662634 -0.0007878073429782121 -0.0059426763805495286 0.0009095695676760731 0.009449120698653642
 0.0009098947273324075 0.009449087568328221 -0.0007878073429782121 -0.0059426763805495286 0.004177756610957 0.018615941315149983 0.9950530991033172 -0.04531981244739417
 -0.0007879470924241072 -0.005942673358537212 0.0009095695676760731 0.009449120698653642 0.9950530991033172 -0.04531981244739417 0.004178094030518706 0.018615873379416094
0.06877865777407 0.004531483455633664 0.020587036212888914 0.9945832178303209 -0.049930912933487885 0.0010560048034471655 0.010395981858110566 -0.0009117086358593305 -0.006541446563074375
 0.9945832178303209 -0.049930912933487885 0.00453190204784211 0.020586965790717414 -0.0009115400667498692 -0.006541451890965141 0.0010556135557202087 0.010396022009833094
 0.0010560048034471655 0.010395981858110566 -0.0009115400667498692 -0.006541451890965141 0.004531461111624237 0.020586140635150515 0.9945831861504271 -0.04993183688022913
 -0.0009117086358593305 -0.006541446563074375 0.0010556135557202087 0.010396022009833094 0.9945831861504271 -0.04993183688022913 0.004531869099568238 0.020586058173210003
0.07503126302626001 0.004906155319302484 0.022574713003182686 0.9940852889697734 -0.05455760468595846 0.0012137600616538757 0.011342647887892883 -0.0010452877766566403 -0.007140311641567892
 0.9940852889697734 -0.05455760468595846 0.004906652703795181 0.02257462887237347 -0.0010450877725221616 -0.00714031978933446 0.001213297084206482 0.011342695982080061
 0.0012137600616538757 0.011342647887892883 -0.0010450877725221616 -0.00714031978933446 0.004906129144227924 0.022573740165668484 0.9940852513735198 -0.054558613872111965
 -0.0010452877766566403 -0.007140311641567892 0.001213297084206482 0.011342695982080061 0.9940852513735198 -0.054558613872111965 0.004906614327529192 0.022573641409768256
0.08128386827845 0.005302153955931638 0.024579400695855583 0.9935589875529708 -0.05919885188768652 0.0013832556315676833 0.012288910389789003 -0.0011887829026246428 -0.007739089498985154
 0.9935589875529708 -0.05919885188768652 0.0053027367802801866 0.024579301308008054 -0.0011885488685243759 -0.007739101018200215 0.0013827154160479015 0.012288967400771783
 0.0013832556315676833 0.012288910389789003 -0.0011885488685243759 -0.007739101018200215 0.005302123695958664 0.024578351608256416 0.9935589434775931 -0.05919994667709933
 -0.0011887829026246428 -0.007739089498985154 0.0013827154160479015 0.012288967400771783 0.9935589434775931 -0.05919994667709933 0.005302692679509855 0.024578234697685702
0.08753647353064001 0.005719839119429897 0.02660071843665153 0.9930039642110963 -0.06385443526144124 0.0015645835395120225 0.013234589289805473 -0.0013422891258893811 -0.008337598266932878
 0.9930039642110963 -0.06385443526144124 0.005720513995816608 0.026600602165048667 -0.0013420184875430664 -0.008337613746751685 0.0015639607174725658 0.013234656242138257
 0.0015645835395120225 0.013234589289805473 -0.0013420184875430664 -0.008337613746751685 0.0057198045391000695 0.026599594182840903 0.9930039130767061 -0.06385561605313327
 -0.0013422891258893811 -0.008337598266932878 0.0015639607174725658 0.013234656242138257 0.9930039130767061 -0.06385561605313327 0.005720463904043599 0.026599457163204814
0.09378907878283 0.006159567252649405 0.028638289624590817 0.9924198717713524 -0.06852411628041793 0.0017578325654082944 0.014179499971225905 -0.0015058981690291777 -0.00893565312278025
 0.9924198717713524 -0.06852411628041793 0.006160340756576939 0.028638154763690374 -0.0015055883731094012 -0.008935673189938648 0.0017571219148977695 0.014179577936528695
 0.0017578325654082944 0.014179499971225905 -0.0015055883731094012 -0.008935673189938648 0.0061595281366150344 0.028637091362535304 0.9924198129785985 -0.06852538350840302
 -0.0015058981690291777 -0.00893565312278025 0.0017571219148977695 0.014179577936528695 0.9924198129785985 -0.06852538350840302 0.006160284438221157 0.028636932185127896
0.100041684035 0.006621691369603219 0.030691739528179218 0.9918063655226862 -0.0732076395430841 0.0019630881013140756 0.015123453487331013 -0.0016796982485800204 -0.009533066168120524
 0.9918063655226862 -0.0732076395430841 0.006622570038881184 0.030691584292976113 -0.001679346762978321 -0.009533091486939045 0.0019622845539193933 0.015123543580851533
 0.0019630881013140756 0.015123453487331013 -0.001679346762978321 -0.009533091486939045 0.006621647524182484 0.030690468490496878 0.9918062984514591 -0.07320899367555492
 -0.0016796982485800204 -0.009533066168120524 0.0019622845539193933 0.015123543580851533 0.9918062984514591 -0.07320899367555492 0.006622507290419641 0.030690285011519523
0.1059090909091 0.0070760260756922416 0.032632792246111285 0.9912035987595487 -0.07761497799661453 0.0021666914128664954 0.016008211249346344 -0.0018521352261912799 -0.010092921088422437
 0.9912035987595487 -0.07761497799661453 0.007077009343008207 0.0326326161970951 -0.0018517423356122914 -0.01009295197300347 0.002165796224763794 0.016008313773943357
 0.0021666914128664954 0.016008211249346344 -0.0018517423356122914 -0.01009295197300347 0.007075977638042468 0.032631454107081174 0.9912035233365852 -0.07761641413226579
 -0.0018521352261912799 -0.010092921088422437 0.002165796224763794 0.016008313773943357 0.9912035233365852 -0.07761641413226579 0.00707694040536638 0.03263124578871007
0.1062942892872 0.007106560920065434 0.03276069348866546 0.991163103468268 -0.07790473457092272 0.0021804320132515873 0.016066256732296207 -0.0018637739550143076 -0.010129646357895634
 0.991163103468268 -0.07790473457092272 0.007107551253653065 0.03276051601416849 -0.0018633782692574939 -0.010129677630233726 0.0021795306610188888 0.01606636010932904
 0.0021804320132515873 0.016066256732296207 -0.0018633782692574939 -0.010129677630233726 0.007106512176096579 0.03275935098586295 0.9911630274765387 -0.07790617610656386
 -0.0018637739550143076 -0.010129646357895634 0.0021795306610188888 0.01606636010932904 0.9911630274765387 -0.07790617610656386 0.0071074819051252704 0.03275914096585695
0.11254689453939999 0.007614521640790123 0.03484477557452173 0.990489746567401 -0.08261511716561282 0.002409942504349021 0.017007712591069916 -0.0020582061311014655 -0.010725199459348243
 0.990489746567401 -0.08261511716561282 0.007615630097525915 0.034844573915159806 -0.0020577637567240877 -0.010725237424603734 0.0024089386070138613 0.017007830443160406
 0.002409942504349021 0.017007712591069916 -0.0020577637567240877 -0.010725237424603734 0.0076144678554836715 0.03484336298998497 0.9904896609895661 -0.0826166466379757
 -0.0020582061311014655 -0.010725199459348243 0.0024089386070138613 0.017007830443160406 0.9904896609895661 -0.0826166466379757 0.007615554014016026 0.03484312409318935
0.11879949979160001 0.008145915396175003 0.03694360752210126 0.9897859589705452 -0.08733849049025262 0.002651693979410226 0.017947620070684615 -0.002263071749159325 -0.011319528038806837
 0.9897859589705452 -0.08733849049025262 0.008147148393533473 0.03694337965116646 -0.002262580220029388 -0.011319573473827785 0.002650582971631906 0.017947753621544955
 0.002651693979410226 0.017947620070684615 -0.002262580220029388 -0.011319573473827785 0.008145856455087648 0.036942126313121465 0.9897858631154728 -0.08734010846623681
 -0.002263071749159325 -0.011319528038806837 0.002650582971631906 0.017947753621544955 0.9897858631154728 -0.08734010846623681 0.008147065476188388 0.03694185610677039
0.1250521050438 0.00870108001052591 0.03905680792224474 0.9890514082475694 -0.09207454591580672 0.0029057569110793177 0.018885774422169894 -0.0024784437869259553 -0.011912431466904768
 0.9890514082475694 -0.09207454591580672 0.008702443923145177 0.039056551731380645 -0.0024779006597692842 -0.011912485185984591 0.002904534409861831 0.018885924923485613
 0.0029057569110793177 0.018885774422169894 -0.0024779006597692842 -0.011912485185984591 0.008701015829988477 0.03905525962118733 0.9890513013977168 -0.09207625299365615
 -0.0024784437869259553 -0.011912431466904768 0.002904534409861831 0.018885924923485613 0.9890513013977168 -0.09207625299365615 0.008702354110879256 0.03905495557501928
0.131304710296 0.009280349093546735 0.04118399156918577 0.9882857656135757 -0.09682296371638427 0.0031721977071328114 0.019821967252593654 -0.002704391103406351 -0.012503705943166714
 0.9882857656135757 -0.09682296371638427 0.009281850251980521 0.04118370486775257 -0.0027037939581922954 -0.012503768797942433 0.0031708595192834707 0.01982213597953986
 0.0031721977071328114 0.019821967252593654 -0.0027037939581922954 -0.012503768797942433 0.009280279623031963 0.041182377782473016 0.9882856470234349 -0.09682476052580889
 -0.002704391103406351 -0.012503705943166714 0.0031708595192834707 0.01982213597953986 0.9882856470234349 -0.09682476052580889 0.009281753523170209 0.04118203726808635
0.1375573155481 0.009756999232090271 0.04304715160171347 0.9876158191400617 -0.10130563894425698 0.0034191824270752135 0.020728743953783404 -0.0029090860670260453 -0.013065925274090456
 0.9876158191400617 -0.10130563894425698 0.009758645649496658 0.04304683965070581 -0.0029084315484976765 -0.013065997410494778 0.003417719773603888 0.020728930781120994
 0.0034191824270752135 0.020728743953783404 -0.0029084315484976765 -0.013065997410494778 0.009756925330850423 0.043045473198662365 0.9876156882469277 -0.10130752588752807
 -0.0029090860670260453 -0.013065925274090456 0.003417719773603888 0.020728930781120994 0.9876156882469277 -0.10130752588752807 0.00975854075396144 0.043045102183395384
0.1438099208003 0.010250581868637795 0.04489939377595137 0.9869219744184146 -0.10577584327508152 0.003676113989445952 0.021631204468962818 -0.003121931321880665 -0.013624178021862785
 0.9869219744184146 -0.10577584327508152 0.010252380107018065 0.04489905495347421 -0.0031212168746894715 -0.013624260276647428 0.003674522122123954 0.021631410646391274
 0.003676113989445952 0.021631204468962818 -0.0031212168746894715 -0.013624260276647428 0.010250503698685244 0.04489765237248065 0.9869218304734342 -0.1057778209738907
 -0.003121931321880665 -0.013624178021862785 0.003674522122123954 0.021631410646391274 0.9869218304734342 -0.1057778209738907 0.010252266857114578 0.04489724891332768
0.1500625260525 0.010760906406560938 0.046740530778067745 0.9862044269103823 -0.11023343255076937 0.003942893128786629 0.022529235663024404 -0.0033428301566867124 -0.014178357562465058
 0.9862044269103823 -0.11023343255076937 0.01076286300424707 0.04674016338965514 -0.0033420532364979182 -0.014178450805349525 0.00394116742916161 0.022529462466915565
 0.003942893128786629 0.022529235663024404 -0.0033420532364979182 -0.014178450805349525 0.010760824173226506 0.046738728050397235 0.9862042691406643 -0.11023550164904165
 -0.0033428301566867124 -0.014178357562465058 0.00394116742916161 0.022529462466915565 0.9862042691406643 -0.11023550164904165 0.01076274123580509 0.046738290124249654
0.15631513130469998 0.01128778069010748 0.048570380886232924 0.9854633733010775 -0.11467826386005224 0.00421941928563761 0.02342272656361055 -0.0035716845581247963 -0.01472835973072999
