! Created with skrf 1.8.0 (http://scikit-rf.org).
# GHz S RI R 50.0 
!freq ReS11 ImS11 ReS12 ImS12 ReS13 ImS13
! ReS14 ImS14
! ReS21 ImS21 ReS22 ImS22 ReS23 ImS23
! ReS24 ImS24
! ReS31 ImS31 ReS32 ImS32 ReS33 ImS33
! ReS34 ImS34
! ReS41 ImS41 ReS42 ImS42 ReS43 ImS43
! ReS44 ImS44
!
0.0 0.001265216301561 0.0 0.9987347836979 0.0 4.82776525928e-05 0.0 -4.827765312622e-05 5.912307337137154e-21
 0.9987347836979 0.0 0.001265216301535 0.0 -4.827765312574e-05 5.91230733707837e-21 4.827765259336e-05 0.0
 4.82776525928e-05 0.0 -4.827765312574e-05 5.91230733707837e-21 0.001265216301546 0.0 0.9987347836979 0.0
 -4.827765312622e-05 5.912307337137154e-21 4.827765259336e-05 0.0 0.9987347836979 0.0 0.001265216301549 0.0
0.005 0.001360591687820945 0.001036536868796802 0.9986142443652922 -0.002651104584486754 6.703105955795857e-05 0.00052573456845605 -6.526229412142477e-05 -0.00033118442662626404
 0.9986142443652922 -0.002651104584486754 0.001360577170562768 0.001036545372570778 -6.526225310065392e-05 -0.0003311844480990317 6.711430612701582e-05 0.0005257028600869469
 6.703105955795857e-05 0.00052573456845605 -6.526225310065392e-05 -0.0003311844480990317 0.001360591756770246 0.0010366041269839566 0.9986142446912527 -0.002651037512284919
 -6.526229412142477e-05 -0.00033118442662626404 6.711430612701582e-05 0.0005257028600869469 0.9986142446912527 -0.002651037512284919 0.001360577746750713 0.0010366122522301655
0.006252605252188 0.0013854113096183817 0.0012997714999905571 0.998582714485367 -0.003314559298201508 7.226141570889663e-05 0.0006574392690776637 -6.996605208763843e-05 -0.0004144185851620425
 0.998582714485367 -0.003314559298201508 0.0013853886164269626 0.00129978232254177 -6.996598783081239e-05 -0.00041441861273241933 7.239148200972013e-05 0.0006573981389181209
 7.226141570889663e-05 0.0006574392690776637 -6.996598783081239e-05 -0.00041441861273241933 0.0013854113625283214 0.0012998555515993878 0.9985827149404757 -0.0033144754810170486
 -6.996605208763843e-05 -0.0004144185851620425 7.239148200972013e-05 0.0006573981389181209 0.9985827149404757 -0.0033144754810170486 0.0013853894630150446 0.0012998658908164528
0.01250521050438 0.0015149347284137231 0.0026270242859374043 0.9984172612057609 -0.006630093867715562 0.00010158456986498167 0.0013153323147915867 -9.616260396749908e-05 -0.0008309632758461828
 0.9984172612057609 -0.006630093867715562 0.0015148441111939213 0.0026270478772067803 -9.61623455484852e-05 -0.0008309633393845597 0.00010210326467080271 0.0013152341124861883
 0.00010158456986498167 0.0013153323147915867 -9.61623455484852e-05 -0.0008309633393845597 0.0015149343459707576 0.002627192168412851 0.998417262438569 -0.0066299264553248815
 -9.616260396749908e-05 -0.0008309632758461828 0.00010210326467080271 0.0013152341124861883 0.998417262438569 -0.0066299264553248815 0.0015148469108854283 0.0026272146859472236
0.01875781575657 0.0016540279581192655 0.0039734676044148026 0.9982382477257213 -0.009954713155286178 0.0001363096475655789 0.0019741390537497926 -0.00012693892978435934 -0.001249067599801609
 0.9982382477257213 -0.009954713155286178 0.0016538243305869145 0.0039735060484105324 -0.00012693834622145347 -0.0012490677106412659 0.00013747489125134254 0.0019739651425622574
 0.0001363096475655789 0.0019741390537497926 -0.00012693834622145347 -0.0012490677106412659 0.0016540266616166387 0.00397371920258505 0.9982382500782773 -0.009954462220261853
 -0.00012693892978435934 -0.001249067599801609 0.00013747489125134254 0.0019739651425622574 0.9982382500782773 -0.009954462220261853 0.001653830210173161 0.0039737558582180815
0.02501042100875 0.0018029274341393078 0.005337261376483476 0.9980454921806209 -0.013290069995450746 0.00017649955633257389 0.0026339126513188833 -0.00016236499402519348 -0.0016685685640841657
 0.9980454921806209 -0.013290069995450746 0.0018025657995615174 0.005337316881034294 -0.000162363953488174 -0.001668568736488855 0.00017856941893634723 0.0026336418195001127
 0.00017649955633257389 0.0026339126513188833 -0.000162363953488174 -0.001668568736488855 0.001802924728990154 0.005337596586806359 0.998045495990854 -0.013289735554634127
 -0.00016236499402519348 -0.0016685685640841657 0.00017856941893634723 0.0026336418195001127 0.998045495990854 -0.013289735554634127 0.0018025758814875592 0.00533764944714579
0.03126302626094 0.0019618595614343845 0.006717479708438197 0.9978388020466652 -0.01663689706317065 0.00022221770223890697 0.003294647192975456 -0.00020250917802444712 -0.0020893590477102215
 0.9978388020466652 -0.01663689706317065 0.00196129499067344 0.006717554602655106 -0.00020250754789245706 -0.0020893592989042883 0.00022545065597225775 0.0032942556415263436
 0.00022221770223890697 0.003294647192975456 -0.00020250754789245706 -0.0020893592989042883 0.001961854939689635 0.006717898416512157 0.9978388076517595 -0.016636479099975173
 -0.00020250917802444712 -0.0020893590477102215 0.00022545065597225775 0.0032942556415263436 0.9978388076517595 -0.016636479099975173 0.001961310396175078 0.006717969652284285
0.037515631513130004 0.0021310460417154698 0.008113534852204469 0.9976179795769535 -0.019995582863972582 0.00027352748136692036 0.003956313810056761 -0.00024743878306169437 -0.002511351672966917
 0.9976179795769535 -0.019995582863972582 0.0021302336600425294 0.008113631585334003 -0.00024743643007631665 -0.002511352023172454 0.000278182520421782 0.003955775127101047
 0.00027352748136692036 0.003956313810056761 -0.00024743643007631665 -0.002511352023172454 0.0021310389874227157 0.008114036926885561 0.9976179873199897 -0.01999508133415062
 -0.00024743878306169437 -0.002511351672966917 0.000278182520421782 0.003955775127101047 0.9976179873199897 -0.01999508133415062 0.0021302555138424362 0.008114128811532135
0.043768236765320004 0.002310705941147179 0.009525001896690428 0.9973828239771806 -0.023366346987664082 0.00033049204741139886 0.004618871649280902 -0.00029722021857185604 -0.002934467826862087
 0.9973828239771806 -0.023366346987664082 0.002309600918116542 0.009525123037444714 -0.00029721700889522625 -0.002934468299348561 0.0003368287510163118 0.0046181567802928754
 0.00033049204741139886 0.004618871649280902 -0.00029721700889522625 -0.002934468299348561 0.0023106959259164912 0.00952558718126107 0.9973828342029755 -0.023365761828015152
 -0.00029722021857185604 -0.002934467826862087 0.0003368287510163118 0.0046181567802928754 0.9973828342029755 -0.023365761828015152 0.0023096303439308825 0.009525702089944027
0.050020842017509996 0.002501056656258272 0.010951546333570107 0.997133132478965 -0.0267493124858293 0.00039317417535732473 0.005282272410959541 -0.00035191907961373777 -0.0033586331128937956
 0.997133132478965 -0.0267493124858293 0.002499614197581534 0.010951694569679439 -0.00035191487890948826 -0.003358633734016128 0.00040145274112963846 0.005281349627199259
 0.00039317417535732473 0.005282272410959541 -0.00035191487890948826 -0.003358633734016128 0.0025010431401896378 0.010952214649500936 0.9971331455368853 -0.02674864361031254
 -0.00035191907961373777 -0.0033586331128937956 0.00040145274112963846 0.005281349627199259 0.9971331455368853 -0.02674864361031254 0.0024996523188393397 0.010952355058387746
0.055454545454549996 0.002675327410121124 0.012203283161348204 0.9969041795691314 -0.029699170338052243 0.0004523386029446582 0.005859430866069031 -0.0004034979520613205 -0.0037280413612703358
 0.9969041795691314 -0.029699170338052243 0.0026735553538368814 0.012203457219198096 -0.00040349278067749165 -0.003728042135389142 0.00046251650999926667 0.005858299529163086
 0.0004523386029446582 0.005859430866069031 -0.00040349278067749165 -0.003728042135389142 0.002675310403756786 0.01220402347165215 0.9969041953751726 -0.02969842862374782
 -0.0004034979520613205 -0.0037280413612703358 0.00046251650999926667 0.005858299529163086 0.9969041953751726 -0.02969842862374782 0.0026736019431786704 0.012204188129975474
0.056273447269699996 0.0027023144242021685 0.012392888475721774 0.9968687009603252 -0.030144541396256875 0.0004616361668153961 0.005946462568301757 -0.0004116001757512094 -0.0037837751221009523
 0.9968687009603252 -0.030144541396256875 0.002700489764478666 0.012393066613737434 -0.00041159484923854905 -0.0037837759213358926 0.00047211742602521194 0.005945297434422281
 0.0004616361668153961 0.005946462568301757 -0.00041159484923854905 -0.0037837759213358926 0.002702296855094529 0.012393639623574001 0.9968687172037674 -0.03014378869506133
 -0.0004116001757512094 -0.0037837751221009523 0.00047211742602521194 0.005945297434422281 0.9968687172037674 -0.03014378869506133 0.002700537703373161 0.012393808109299128
0.06252605252188 0.0029146946071650667 0.013848783933984718 0.9965893243411154 -0.03355205420977397 0.000535939776744585 0.006611384582078057 -0.0004763275341791614 -0.0042098222097474765
 0.9965893243411154 -0.03355205420977397 0.0029124430033373935 0.01384899489923282 -0.00047632094674227363 -0.004209823219739983 0.0005488851978781256 0.006609939923282504
 0.000535939776744585 0.006611384582078057 -0.00047632094674227363 -0.004209823219739983 0.002914672420157897 0.013849617684199898 0.9965893441284648 -0.03355121755829307
 -0.0004763275341791614 -0.0042098222097474765 0.0005488851978781256 0.006609939923282504 0.9965893441284648 -0.03355121755829307 0.002912501879849257 0.013849816923603852
0.06877865777407 0.003138411854708361 0.015319011937484571 0.9962947968595871 -0.03697184149426027 0.0006161461506583587 0.007276977628545609 -0.000546164389503518 -0.004636702760040167
 0.9962947968595871 -0.03697184149426027 0.0031356885798719657 0.015319258774158923 -0.0005461564057393507 -0.004636704016632973 0.0006318178348507932 0.0072752134975670344
 0.0006161461506583587 0.007276977628545609 -0.0005461564057393507 -0.004636704016632973 0.003138384472153694 0.015319928040571522 0.9962948205548294 -0.03697092074298151
 -0.000546164389503518 -0.004636702760040167 0.0006318178348507932 0.0072752134975670344 0.9962948205548294 -0.03697092074298151 0.0031357595115542518 0.015320160810429707
0.07503126302626001 0.0033736801962233613 0.01680336795792105 0.9959849122793226 -0.04040387121634073 0.0007023157705389649 0.007943178051390888 -0.0006211731627348105 -0.005064344728325911
 0.9959849122793226 -0.04040387121634073 0.003370440533482724 0.016803653829353782 -0.000621163647045084 -0.005064346270603243 0.0007209764407432387 0.007941051695383996
 0.0007023157705389649 0.007943178051390888 -0.000621163647045084 -0.005064346270603243 0.0033736470267459484 0.01680436613472006 0.9959849402524281 -0.04040286620043074
 -0.0006211731627348105 -0.005064344728325911 0.0007209764407432387 0.007941051695383996 0.9959849402524281 -0.04040286620043074 0.0033705246340144475 0.01680463531179288
0.08128386827845 0.0036207130874057586 0.018301658777770194 0.9956594640544536 -0.04384809362037237 0.0007945084023932562 0.008609919672800692 -0.0007014154366582114 -0.005492675325766637
 0.9956594640544536 -0.04384809362037237 0.0036169123242856187 0.01830198696683456 -0.0007014042533090466 -0.00549267719608442 0.0008164213881394354 0.008607385500296183
 0.0007945084023932562 0.008609919672800692 -0.0007014042533090466 -0.00549267719608442 0.003620673525798283 0.018302738725555923 0.9956594966821872 -0.04384700415364865
 -0.0007014154366582114 -0.005492675325766637 0.0008164213881394354 0.008607385500296183 0.9956594966821872 -0.04384700415364865 0.003617010703181588 0.018303047286671932
0.08753647353064001 0.003879723427837906 0.01981369909532322 0.9953182454661524 -0.04730444457264986 0.0008927830483740759 0.009277133996154981 -0.0007869519254016246 -0.005921620814123039
 0.9953182454661524 -0.04730444457264986 0.0038753168502885043 0.01981407300501015 -0.0007869389386008874 -0.005921623058147071 0.0009182122664884513 0.009274143544119864
 0.0008927830483740759 0.009277133996154981 -0.0007869389386008874 -0.005921623058147071 0.0038796768542923915 0.01981486048630368 0.9953182831324341 -0.0473032704489623
 -0.0007869519254016246 -0.005921620814123039 0.0009182122664884513 0.009274143544119864 0.9953182831324341 -0.0473032704489623 0.003875430611721298 0.019815211508657535
0.09378907878283 0.004150923558004523 0.02133930908760873 0.9949610497423336 -0.050772847949262116 0.0009971978991735382 0.009944750361248944 -0.0008778424420516003 -0.006351106349830815
 0.9949610497423336 -0.050772847949262116 0.004145866445151593 0.0213397322417327 -0.0008778275160463009 -0.006351109016565951 0.0010264078317642606 0.009941252262293181
 0.0009971978991735382 0.009944750361248944 -0.0008778275160463009 -0.006351109016565951 0.004150869338175013 0.021340551566130385 0.994961092838802 -0.05077158894538689
 -0.0008778424420516003 -0.006351106349830815 0.0010264078317642606 0.009941252262293181 0.994961092838802 -0.05077158894538689 0.004145996687427235 0.02134094822771117
0.100041684035 0.004434525242813381 0.02287831262469565 0.9945876701638441 -0.05425321737482261 0.0011078102882044704 0.0106126960523515 -0.0009741458636316593 -0.006781055877100047
 0.9945876701638441 -0.05425321737482261 0.004428772861032099 0.02287878866877255 -0.0009741288627825505 -0.006781059018924967 0.0011410659577452398 0.010608636002183201
 0.0011078102882044704 0.0106126960523515 -0.0009741288627825505 -0.006781059018924967 0.004434462726649341 0.02287963581042686 0.9945877190906034 -0.05425187324724643
 -0.0009741458636316593 -0.006781055877100047 0.0011410659577452398 0.010608636002183201 0.9945877190906034 -0.05425187324724643 0.004428920675126184 0.022880081390672918
0.1059090909091 0.004712122530228501 0.02433453066546883 0.9942223899828763 -0.05752997312794908 0.0012172951557864878 0.01123972525346052 -0.001069490981460023 -0.007184871017418443
 0.9942223899828763 -0.05752997312794908 0.004705677011097665 0.02433505976606153 -0.0010694719103650691 -0.007184874655731954 0.0012545888129911007 0.011235085837941498
 0.0012172951557864878 0.01123972525346052 -0.0010694719103650691 -0.007184874655731954 0.004712051623599334 0.024335929218656606 0.9942224447527235 -0.05752854888117199
 -0.001069490981460023 -0.007184871017418443 0.0012545888129911007 0.011235085837941498 0.9942224447527235 -0.05752854888117199 0.0047058423000848545 0.024336423777517577
0.1062942892872 0.004730739642890332 0.02443053592554964 0.9941979001622043 -0.057745457521543544 0.0012246766461189939 0.0112808963825919 -0.001075920094388518 -0.00721139204669731
 0.9941979001622043 -0.057745457521543544 0.004724247240001425 0.02443106862786246 -0.001075900883217233 -0.0072113957193931655 0.0012622435884428306 0.011276217107661133
 0.0012246766461189939 0.0112808963825919 -0.001075900883217233 -0.0072113957193931655 0.004730668164580742 0.024431939412406685 0.9941979553284759 -0.057744028007659376
 -0.001075920094388518 -0.00721139204669731 0.0012622435884428306 0.011276217107661133 0.9941979553284759 -0.057744028007659376 0.00472441370937408 0.024432437292947147
0.11254689453939999 0.005039777278679992 0.025995806525385523 0.9937915334121541 -0.061249465099136854 0.0013478524556500024 0.011949274759368338 -0.0011832220277729678 -0.007642036155612851
 0.9937915334121541 -0.061249465099136854 0.005032500078729456 0.025996399778187868 -0.001183200471084495 -0.007642040418385929 0.0013899966909766434 0.011943915984903214
 0.0013478524556500024 0.011949274759368338 -0.001183200471084495 -0.007642040418385929 0.00503969615611141 0.02599728988267144 0.9937915952365478 -0.061247949916163454
 -0.0011832220277729678 -0.007642036155612851 0.0013899966909766434 0.011943915984903214 0.9937915952365478 -0.061247949916163454 0.005032686277975732 0.0259978435483084
0.11879949979160001 0.005361847988452044 0.027573952475975154 0.9933683639182034 -0.0647651296139805 0.0014773922069128223 0.012617752736637742 -0.001296107507133677 -0.008072908102104826
 0.9933683639182034 -0.0647651296139805 0.005353741185752065 0.027574610296879094 -0.0012960834700791555 -0.008072913017621388 0.001524380208986466 0.012611651154856338
 0.0014773922069128223 0.012617752736637742 -0.0012960834700791555 -0.008072913017621388 0.005361756522500267 0.02757551524619883 0.993368432829793 -0.06476352846128103
 -0.001296107507133677 -0.008072908102104826 0.001524380208986466 0.012611651154856338 0.993368432829793 -0.06476352846128103 0.005353948179669767 0.02757612828602513
0.1250521050438 0.005697160880698426 0.02916480170319186 0.9929281860998598 -0.06829233397342482 0.001613349352522956 0.013286250058840817 -0.001414631285594732 -0.00850392635102337
 0.9929281860998598 -0.06829233397342482 0.005688179634110476 0.02916552823679624 -0.0014146046337591847 -0.00850393198542638 0.001665448016186734 0.013279339297652425
 0.001613349352522956 0.013286250058840817 -0.0014146046337591847 -0.00850393198542638 0.005697058354977021 0.02916644340256831 0.9929282625384012 -0.06829064653215615
 -0.001414631285594732 -0.00850392635102337 0.001665448016186734 0.013279339297652425 0.9929282625384012 -0.06829064653215615 0.005688408476955373 0.0291671195113307
0.131304710296 0.006045924282472081 0.03076818149742831 0.9924707948729204 -0.0718309549597712 0.0017557762628299391 0.013954684696351279 -0.0015388469850199941 -0.008935007909995353
 0.9924707948729204 -0.0718309549597712 0.0060360237097669 0.03076898101701979 -0.00153881758448826 -0.008935014332937623 0.001813252870188151 0.013946895288313256
 0.0017557762628299391 0.013954684696351279 -0.00153881758448826 -0.008935014332937623 0.006045809962512636 0.03076990161735588 0.9924708792897543 -0.07182918089152354
 -0.0015388469850199941 -0.008935007909995353 0.001813252870188151 0.013946895288313256 0.9924708792897543 -0.07182918089152354 0.006036275444171647 0.030770644596931122
0.1375573155481 0.0063221064293559615 0.03217459034192886 0.9920822497492497 -0.07517146182450016 0.0018846469165718727 0.014601402549976533 -0.0016486648370762262 -0.009344551836140665
 0.9920822497492497 -0.07517146182450016 0.006311239082398001 0.032175448853797584 -0.0016486326499444166 -0.009344559054895587 0.0019476366400782833 0.01459275409630528
 0.0018846469165718727 0.014601402549976533 -0.0016486326499444166 -0.009344559054895587 0.006321980409124386 0.032176388150207354 0.9920823425078079 -0.07516960091918894
 -0.0016486648370762262 -0.009344551836140665 0.0019476366400782833 0.01459275409630528 0.9920823425078079 -0.07516960091918894 0.006311514074467372 0.032177184177859704
0.1438099208003 0.006607786154978487 0.03357463662391016 0.9916804551567555 -0.07850455860442938 0.0020187078427042326 0.015246150805104884 -0.0017628858471536422 -0.009752259698430035
 0.9916804551567555 -0.07850455860442938 0.006595906715817207 0.03357555715099049 -0.0017628507574657837 -0.00975226777793706 0.002087454581719228 0.015236580589612768
 0.0020187078427042326 0.015246150805104884 -0.0017628507574657837 -0.00975226777793706 0.006607647824350522 0.03357651154682138 0.991680556707137 -0.0785026105285435
 -0.0017628858471536422 -0.009752259698430035 0.002087454581719228 0.015236580589612768 0.991680556707137 -0.0785026105285435 0.006596205868319189 0.03357736323061855
0.1500625260525 0.006902876234647758 0.034968234437657404 0.9912655013752797 -0.08183019420604142 0.002157919875967864 0.015888885265875785 -0.001881471310729137 -0.010158087776880778
 0.9912655013752797 -0.08183019420604142 0.006889939331819819 0.03496922016132324 -0.001881433204162736 -0.010158096784513094 0.00223266635745015 0.0158783283051496
 0.002157919875967864 0.015888885265875785 -0.001881433204162736 -0.010158096784513094 0.006902724976116918 0.03497018588091184 0.9912656121775169 -0.08182815860886893
 -0.001881471310729137 -0.010158087776880778 0.00223266635745015 0.0158783283051496 0.9912656121775169 -0.08182815860886893 0.006890263528250639 0.034971095973000285
0.15631513130469998 0.0072072889792163825 0.03635530064928722 0.9908374789744259 -0.08514831712182507 0.002302243477471785 0.016529562364332492 -0.002004382129052795 -0.010561993184484284
