! Created with skrf 1.8.0 (http://scikit-rf.org).
# GHz S RI R 50.0 
!freq ReS11 ImS11 ReS12 ImS12 ReS13 ImS13
! ReS14 ImS14
! ReS21 ImS21 ReS22 ImS22 ReS23 ImS23
! ReS24 ImS24
! ReS31 ImS31 ReS32 ImS32 ReS33 ImS33
! ReS34 ImS34
! ReS41 ImS41 ReS42 ImS42 ReS43 ImS43
! ReS44 ImS44
!
0.0 0.001473990244316 0.0 0.9985260097415 0.0 5.694960291032e-05 0.0 -5.69496024673e-05 6.974314837429315e-21
 0.9985260097415 0.0 0.001473990244329 0.0 -5.694960246705e-05 6.974314837398699e-21 5.694960291219e-05 0.0
 5.694960291032e-05 0.0 -5.694960246705e-05 6.974314837398699e-21 0.001473990237203 0.0 0.9985260097344 0.0
 -5.69496024673e-05 6.974314837429315e-21 5.694960291219e-05 0.0 0.9985260097344 0.0 0.001473990237226 0.0
0.005 0.001585752999077652 0.0012020204259877922 0.9983846451819228 -0.003088103533465215 8.02269184213534e-05 0.0006512167832443267 -7.78353943335188e-05 -0.00040464013875303153
 0.9983846451819228 -0.003088103533465215 0.0015857418237049323 0.0012020269948113183 -7.78379268517971e-05 -0.0004046421075575895 8.028571678494689e-05 0.000651194390267136
 8.02269184213534e-05 0.0006512167832443267 -7.78379268517971e-05 -0.0004046421075575895 0.0015857519314753405 0.0012020883550298003 0.998384645531087 -0.0030880364597407396
 -7.78353943335188e-05 -0.00040464013875303153 8.028571678494689e-05 0.000651194390267136 0.998384645531087 -0.0030880364597407396 0.001585743580696031 0.0012020932043057169
0.006252605252188 0.0016150111401081865 0.0015072802162779224 0.9983474146746744 -0.003860895235225704 8.683323468203073e-05 0.000814329892505731 -8.370838215284518e-05 -0.0005063321320766793
 0.9983474146746744 -0.003860895235225704 0.0016149936705489303 0.0015072885508761744 -8.371232280490274e-05 -0.0005063345603078752 8.692510201992521e-05 0.0008143008234076598
 8.683323468203073e-05 0.000814329892505731 -8.371232280490274e-05 -0.0005063345603078752 0.0016150094021655417 0.0015073651087222975 0.9983474151518412 -0.003860811411800522
 -8.370838215284518e-05 -0.0005063321320766793 8.692510201992521e-05 0.0008143008234076598 0.9983474151518412 -0.003860811411800522 0.0016149963486922492 0.001507371285642646
0.01250521050438 0.0017687186441334465 0.0030463634328729773 0.998150583507605 -0.00772267220525031 0.00012448771439081043 0.0016289785774053723 -0.00011690308303676808 -0.0010151781733573992
 0.998150583507605 -0.00772267220525031 0.0017686488810097175 0.003046381357876432 -0.00011691861101102484 -0.001015182672022741 0.00012485406697713587 0.0016289088426741246
 0.00012448771439081043 0.0016289785774053723 -0.00011691861101102484 -0.001015182672022741 0.0017687111387232628 0.0030465329662518873 0.9981505848568609 -0.007722504792635144
 -0.00011690308303676808 -0.0010151781733573992 0.00012485406697713587 0.0016289088426741246 0.9981505848568609 -0.007722504792635144 0.0017686590204252389 0.0030465464689806454
0.01875781575657 0.0019354373652742908 0.004607550002881731 0.9979352793838235 -0.011594745692485989 0.00016999900294282155 0.0024445267963423495 -0.0001566341758114222 -0.00152578035292397
 0.9979352793838235 -0.011594745692485989 0.0019352805904808389 0.004607578892194118 -0.0001566688015891135 -0.0015257864987489064 0.0001708219928855862 0.0024444026041845436
 0.00016999900294282155 0.0024445267963423495 -0.0001566688015891135 -0.0015257864987489064 0.0019354200618866004 0.004607804079477366 0.9979352819979633 -0.011594494736451362
 -0.0001566341758114222 -0.00152578035292397 0.0001708219928855862 0.0024444026041845436 0.9979352819979633 -0.011594494736451362 0.001935302957901502 0.004607826102675465
0.02501042100875 0.0021154829444299792 0.006188657921963466 0.9977012564248104 -0.01547900346021374 0.0002234539610913054 0.0032610235254236833 -0.00020299894027125872 -0.0020379073717712924
 0.9977012564248104 -0.01547900346021374 0.002115204500485919 0.006188699255359209 -0.00020306008418033737 -0.0020379146683682956 0.00022491582715174568 0.0032608289689808868
 0.0002234539610913054 0.0032610235254236833 -0.00020306008418033737 -0.0020379146683682956 0.0021154518095067455 0.006188996446610066 0.9977012607001918 -0.01547866896722775
 -0.00020299894027125872 -0.0020379073717712924 0.00022491582715174568 0.0032608289689808868 0.9977012607001918 -0.01547866896722775 0.002115243855985997 0.006189028222209785
0.03126302626094 0.0023091579252090527 0.007788569490546864 0.9974482558216936 -0.019376259553105065 0.00028493991792639137 0.004078440058618893 -0.00025609196349398686 -0.002551400374207043
 0.9974482558216936 -0.019376259553105065 0.002308723197025829 0.007788624851707229 -0.0002561869711599471 -0.002551408251117751 0.00028722315908980006 0.004078157103750112
 0.00028493991792639137 0.004078440058618893 -0.0002561869711599471 -0.002551408251117751 0.002309108918928034 0.00778899237571272 0.9974482621584879 -0.01937584148505476
 -0.00025609196349398686 -0.002551400374207043 0.00028722315908980006 0.004078157103750112 0.9974482621584879 -0.01937584148505476 0.0023087842947976263 0.007789035170775946
0.037515631513130004 0.0025167583789653864 0.009406559895237284 0.9971760126566491 -0.0232869256558993 0.0003545438612047863 0.004896717174933927 -0.00031600586359336024 -0.0030661257847341447
 0.9971760126566491 -0.0232869256558993 0.0025161327818322716 0.009406630971211053 -0.0003161420138612072 -0.0030661335971548785 0.00035783131687084073 0.004896325638484528
 0.0003545438612047863 0.004896717174933927 -0.0003161420138612072 -0.0030661335971548785 0.002516687451123763 0.009407067050208225 0.9971760214573122 -0.023286423941028485
 -0.00031600586359336024 -0.0030661257847341447 0.00035783131687084073 0.004896325638484528 0.9971760214573122 -0.023286423941028485 0.0025162203679226502 0.00940712216561612
0.043768236765320004 0.0027385764610568276 0.011042092868681552 0.9968842586543852 -0.02721121536597983 0.0004323520551619128 0.005715779494041647 -0.0003828315558435578 -0.0035819609518466244
 0.9968842586543852 -0.02721121536597983 0.002737725431480212 0.011042181449761193 -0.00038301606548239416 -0.00358196798052393 0.00043682694524697924 0.005715257019100267
 0.0004323520551619128 0.005715779494041647 -0.00038301606548239416 -0.00358196798052393 0.0027384795534606743 0.011042684190438381 0.9968842703284223 -0.02721062990810015
 -0.0003828315558435578 -0.0035819609518466244 0.00043682694524697924 0.005715257019100267 0.9968842703284223 -0.02721062990810015 0.0027378442472868717 0.011042752959864947
0.050020842017509996 0.0029749016044593856 0.012694736250256636 0.996572723572986 -0.031149228563254767 0.0005184498141961823 0.006535541402204466 -0.00045665835083582337 -0.0040987882218905545
 0.996572723572986 -0.031149228563254767 0.0029737905923902523 0.012694844230178927 -0.0004568983775508521 -0.0040987936731129776 0.0005242957583543183 0.006534863432079883
 0.0005184498141961823 0.006535541402204466 -0.0004568983775508521 -0.0040987936731129776 0.002974774647151168 0.01269541163306676 0.9965727385351898 -0.031148559232530296
 -0.00045665835083582337 -0.0040987882218905545 0.0005242957583543183 0.006534863432079883 0.9965727385351898 -0.031148559232530296 0.002973945371717478 0.01269549542208397
0.055454545454549996 0.003192280021047302 0.014144541077873012 0.996285714732574 -0.034582649259058455 0.000600068943309161 0.007248435457560701 -0.00052657000125974 -0.004548642722326739
 0.996285714732574 -0.034582649259058455 0.0031909150226977832 0.014144667534577021 -0.0005268640426197912 -0.004548646100271411 0.0006072558118569916 0.007247600685919281
 0.000600068943309161 0.007248435457560701 -0.0005268640426197912 -0.004548646100271411 0.003192123634863095 0.014145289416040872 0.9962857328941784 -0.03458190691714772
 -0.00052657000125974 -0.004548642722326739 0.0006072558118569916 0.007247600685919281 0.9962857328941784 -0.03458190691714772 0.0031911048937125026 0.014145387390855819
0.056273447269699996 0.003226021133953404 0.014364120531291302 0.9962411360183248 -0.035100992796458175 0.000612921342402511 0.007355909953529391 -0.0005375739807056351 -0.004616492039652785
 0.9962411360183248 -0.035100992796458175 0.0032246155958437685 0.014364249907668145 -0.0005378766252078069 -0.004616495045249714 0.0006203223662427548 0.007355049705161596
 0.000612921342402511 0.007355909953529391 -0.0005378766252078069 -0.004616495045249714 0.0032258600447777133 0.014364879857124015 0.9962411546900191 -0.035100239439204726
 -0.0005375739807056351 -0.004616492039652785 0.0006203223662427548 0.007355049705161596 0.9962411546900191 -0.035100239439204726 0.003224811064574602 0.014364980062591622
0.06252605252188 0.0034922205977102345 0.01604991608148649 0.9958892239788054 -0.039066485990297314 0.0007158496040415448 0.008176786475958753 -0.0006256645901794371 -0.005134957347024457
 0.9958892239788054 -0.039066485990297314 0.003490485989847885 0.01605006895640179 -0.0006260368975614738 -0.005134956964404917 0.0007249901370646825 0.008175714913012187
 0.0007158496040415448 0.008176786475958753 -0.0006260368975614738 -0.005134956964404917 0.003492021281975187 0.016050759216835023 0.9958892467896351 -0.039065648432502306
 -0.0006256645901794371 -0.005134957347024457 0.0007249901370646825 0.008175714913012187 0.9958892467896351 -0.039065648432502306 0.0034907268659865047 0.01605087726639412
0.06877865777407 0.0037737839464460983 0.017751819542611107 0.9955167152111686 -0.04304564998822389 0.0008273162147436826 0.00899806751991496 -0.0007210147038126697 -0.005654068642272028
 0.9955167152111686 -0.04304564998822389 0.0037716857189121146 0.01775199812352042 -0.0007214636645240154 -0.005654063854460439 0.0008383810824815521 0.008996753325790186
 0.0008273162147436826 0.00899806751991496 -0.0007214636645240154 -0.005654063854460439 0.0037735422942698138 0.017752746352025082 0.9955167425981346 -0.043044728022495
 -0.0007210147038126697 -0.005654068642272028 0.0008383810824815521 0.008996753325790186 0.9955167425981346 -0.043044728022495 0.003771976709912067 0.017752883703792962
0.07503126302626001 0.0040709936179060685 0.0194695452347708 0.9951233375347822 -0.047038399086272435 0.0009474013418739239 0.009819645466538678 -0.0008237071818553288 -0.006173709383286113
 0.9951233375347822 -0.047038399086272435 0.004068497208175386 0.019469751835397647 -0.0008242397323521565 -0.006173699098977499 0.0009605757533630771 0.009818055017369542
 0.0009474013418739239 0.009819645466538678 -0.0008242397323521565 -0.006173699098977499 0.004070705505337612 0.019470555568990154 0.9951233699454483 -0.04703739248403036
 -0.0008237071818553288 -0.006173709383286113 0.0009605757533630771 0.009818055017369542 0.9951233699454483 -0.04703739248403036 0.004068843011969885 0.019470713711378432
0.08128386827845 0.004384130568885031 0.021202819409701854 0.9947088190774788 -0.05104462572342208 0.001076183611681344 0.01064140893836383 -0.000933823166950279 -0.006693761592147766
 0.9947088190774788 -0.05104462572342208 0.004381201396205682 0.021203056451282228 -0.0009344461901101617 -0.006693744645766917 0.0010916531438843664 0.010639506276133505
 0.001076183611681344 0.01064140893836383 -0.0009344461901101617 -0.006693744645766917 0.004383791855155454 0.02120391311293386 0.9947088569685997 -0.05104353422820675
 -0.000933823166950279 -0.006693761592147766 0.0010916531438843664 0.010639506276133505 0.9947088569685997 -0.05104353422820675 0.004381606698405705 0.02120409356469627
0.08753647353064001 0.004713474265275497 0.022951376301143123 0.9942728884810474 -0.0550642043793019 0.001213740021190591 0.011463243079252108 -0.00105144202469458 -0.00721410559439893
 0.9942728884810474 -0.0550642043793019 0.0047100777244219166 0.022951646313779005 -0.0010521623500721238 -0.007214080746170706 0.0012316906002605241 0.011460989885044282
 0.001213740021190591 0.011463243079252108 -0.0010521623500721238 -0.007214080746170706 0.004713080793037265 0.02295255320594794 0.9942729323208609 -0.05506302771236712
 -0.00105144202469458 -0.00721410559439893 0.0012316906002605241 0.011460989885044282 0.9942729323208609 -0.05506302771236712 0.004710547198277434 0.0229527575163829
0.09378907878283 0.005059302647422333 0.02471495528264643 0.9938152750869239 -0.059096994368655995 0.0013601458521224677 0.012285029765305077 -0.0011766412801824482 -0.007734619831468695
 0.9938152750869239 -0.059096994368655995 0.005055404103176784 0.024715260906860534 -0.0011774656841172034 -0.007734585767493984 0.0013807637327911144 0.012282385332730907
 0.0013601458521224677 0.012285029765305077 -0.0011774656841172034 -0.007734585767493984 0.005058850241740924 0.02471621521429332 0.9938153253560855 -0.05909573222523286
 -0.0011766412801824482 -0.007734619831468695 0.0013807637327911144 0.012282385332730907 0.9938153253560855 -0.05909573222523286 0.0050559424082358955 0.024716444963625756
0.100041684035 0.005421892078100891 0.026493298797361137 0.9933357091066151 -0.06314284186851749 0.0015154745869703653 0.013106647760325519 -0.0013094965514146126 -0.008255180732746357
 0.9933357091066151 -0.06314284186851749 0.005417456859177566 0.026493642785855604 -0.0013104317570089294 -0.008255136065096562 0.0015389463296162256 0.013103568969197975
 0.0015154745869703653 0.013106647760325519 -0.0013104317570089294 -0.008255136065096562 0.005421376544679848 0.026494641575171726 0.9933357662980185 -0.06314149391710525
 -0.0013094965514146126 -0.008255180732746357 0.0015389463296162256 0.013103568969197975 0.9933357662980185 -0.06314149391710525 0.005418068639333682 0.026494898375088026
0.1059090909091 0.005777632528063039 0.028175285649775915 0.9928654822389889 -0.06695116907073088 0.0016694132185534533 0.01387738506780296 -0.0014411958203565064 -0.008743602441370832
 0.9928654822389889 -0.06695116907073088 0.005772662126351488 0.02817566824429057 -0.0014422410686614228 -0.00874354649512649 0.0016957329333566469 0.013873857286869237
 0.0016694132185534533 0.01387738506780296 -0.0014422410686614228 -0.00874354649512649 0.005777053924173015 0.02817670599767692 0.9928655463869079 -0.0669497402754402
 -0.0014411958203565064 -0.008743602441370832 0.0016957329333566469 0.013873857286869237 0.9928655463869079 -0.0669497402754402 0.005773347064314439 0.028176989676301268
0.1062942892872 0.005801517273409132 0.028286150796329065 0.9928339217780507 -0.06720158144166277 0.0016797978260623078 0.013927972844088435 -0.0014500814801635862 -0.008775662619182176
 0.9928339217780507 -0.06720158144166277 0.005796510666500659 0.028286536015961247 -0.0014511341572175107 -0.008775605885992273 0.0017063102722630085 0.013924414134414762
 0.0016797978260623078 0.013927972844088435 -0.0014511341572175107 -0.008775605885992273 0.0058009343987213205 0.028287576230442098 0.9928339863986658 -0.06720014732785462
 -0.0014500814801635862 -0.008775662619182176 0.0017063102722630085 0.013924414134414762 0.9928339863986658 -0.06720014732785462 0.005797200549533134 0.028287861724957158
0.11254689453939999 0.006198451225816015 0.030093255548594957 0.9923096455174231 -0.07127303719321217 0.001853185205734274 0.014748877905533609 -0.0015984676607603211 -0.009295937646556375
 0.9923096455174231 -0.07127303719321217 0.006192838469947201 0.03009368498250532 -0.0015996444255821627 -0.009295867312135882 0.0018829254524042507 0.014744791251665232
 0.001853185205734274 0.014748877905533609 -0.0015996444255821627 -0.009295867312135882 0.006197796775720246 0.030094763442120104 0.9923097180889271 -0.07127151653838795
 -0.0015984676607603211 -0.009295937646556375 0.0018829254524042507 0.014744791251665232 0.9923097180889271 -0.07127151653838795 0.006193611065808084 0.030095079308486802
0.11879949979160001 0.006612965117251878 0.03191435670753403 0.9917626140630464 -0.07535702367618906 0.002035704316890735 0.01556923303201744 -0.0017547245676599738 -0.009815875757075019
 0.9917626140630464 -0.07535702367618906 0.006606711397751837 0.031914833457515154 -0.001756031982830405 -0.009815790212031003 0.002068859688871316 0.015564567917321954
 0.002035704316890735 0.01556923303201744 -0.001756031982830405 -0.009815790212031003 0.006612234836273614 0.031915946858565934 0.9917626951228821 -0.07535541607628671
 -0.0017547245676599738 -0.009815875757075019 0.002068859688871316 0.015564567917321954 0.9917626951228821 -0.07535541607628671 0.006607571297501599 0.031916294808437704
0.1250521050438 0.007045328226570958 0.033749196586017216 0.9911925626170786 -0.07945334659353911 0.002227420624096666 0.016388905580826296 -0.0019189194816848234 -0.01033534465353091
 0.9911925626170786 -0.07945334659353911 0.007038398669064596 0.03374972387515819 -0.0019203640557917065 -0.010335242214900139 0.0022641786453328756 0.016383608972565314
 0.002227420624096666 0.016388905580826296 -0.0019203640557917065 -0.010335242214900139 0.007044517836967217 0.033750868787668774 0.9911926527194843 -0.07945165161982853
 -0.0019189194816848234 -0.01033534465353091 0.0022641786453328756 0.016383608972565314 0.9911926527194843 -0.07945165161982853 0.007039350443210007 0.03375125056857724
0.131304710296 0.007495807830484273 0.03559751556630806 0.9905992279831024 -0.0835618033709056 0.0024283973847895727 0.017207760243798963 -0.002091117415255364 -0.010854209785048731
 0.9905992279831024 -0.0835618033709056 0.007488167495170996 0.03559809674173227 -0.0020927056025159077 -0.010854088696425861 0.002468945748860635 0.017201776568437317
 0.0024283973847895727 0.017207760243798963 -0.0020927056025159077 -0.010854088696425861 0.007494913031387857 0.03559926960546618 0.9905993276996146 -0.0835600205721491
 -0.002091117415255364 -0.010854209785048731 0.002468945748860635 0.017201776568437317 0.9905993276996146 -0.0835600205721491 0.0074892156924675855 0.03559968700235744
0.1375573155481 0.00785997410511646 0.03721697875814883 0.9900870825045425 -0.08744000179201379 0.0026127149199818792 0.018000947634025287 -0.002245355275040272 -0.011347671025373424
 0.9900870825045425 -0.08744000179201379 0.007851586666922723 0.037217605936621434 -0.0022470966846447173 -0.01134753120690965 0.002657147881914617 0.017994286743506605
 0.0026127149199818792 0.018000947634025287 -0.0022470966846447173 -0.01134753120690965 0.00785899135705326 0.037218814465712124 0.9900871922824941 -0.0874381308851313
 -0.002245355275040272 -0.011347671025373424 0.002657147881914617 0.017994286743506605 0.9900871922824941 -0.0874381308851313 0.007852735289891288 0.03721925819877748
0.1438099208003 0.008236901111332724 0.03882813181989628 0.9895570251850966 -0.09130861366149891 0.002804477949414826 0.018791153409319163 -0.002405776718405003 -0.011838376436101066
 0.9895570251850966 -0.09130861366149891 0.008227731354820468 0.03882880766130045 -0.0024076782946203476 -0.011838216165450008 0.00285296654861632 0.018783764584639942
 0.002804477949414826 0.018791153409319163 -0.0024076782946203476 -0.011838216165450008 0.008235826216545504 0.03883004895133046 0.9895571455962678 -0.09130665419856548
 -0.002405776718405003 -0.011838376436101066 0.00285296654861632 0.018783764584639942 0.9895571455962678 -0.09130665419856548 0.008228984823058214 0.0388305200902033
0.1500625260525 0.008626459716482387 0.04043084707482012 0.989009189116223 -0.09516755030240827 0.00300362264061867 0.01957830416318015 -0.0025723191377951516 -0.012326255202551744
 0.989009189116223 -0.09516755030240827 0.008616472360089437 0.040431574382831105 -0.002574387810713964 -0.012326072688407644 0.0030563369955886334 0.019570134827443703
 0.00300362264061867 0.01957830416318015 -0.002574387810713964 -0.012326072688407644 0.008625288463030517 0.04043284537473945 0.9890093207476939 -0.09516550182046403
 -0.0025723191377951516 -0.012326255202551744 0.0030563369955886334 0.019570134827443703 0.9890093207476939 -0.09516550182046403 0.008617835066155672 0.0404333450678671
0.15631513130469998 0.009028519909728411 0.04202500073035443 0.9884437080261259 -0.09901672320411874 0.003210084432034389 0.02036232769170037 -0.0027449191751495834 -0.012811237978298322
