! Created with skrf 1.8.0 (http://scikit-rf.org).
# GHz S RI R 50.0 
!freq ReS11 ImS11 ReS12 ImS12 ReS13 ImS13
! ReS14 ImS14
! ReS21 ImS21 ReS22 ImS22 ReS23 ImS23
! ReS24 ImS24
! ReS31 ImS31 ReS32 ImS32 ReS33 ImS33
! ReS34 ImS34
! ReS41 ImS41 ReS42 ImS42 ReS43 ImS43
! ReS44 ImS44
!
0.0 0.001902856073397 0.0 0.9980971439138 0.0 7.419365082011e-05 0.0 -7.419364987761e-05 9.08610158396745e-21
 0.9980971439138 0.0 0.001902856073357 0.0 -7.419364987655e-05 9.086101583837637e-21 7.419365082147e-05 0.0
 7.419365082011e-05 0.0 -7.419364987655e-05 9.086101583837637e-21 0.001902856079769 0.0 0.9980971439202 0.0
 -7.419364987761e-05 9.08610158396745e-21 7.419365082147e-05 0.0 0.9980971439202 0.0 0.001902856079783 0.0
0.005 0.002048626628375737 0.0015517482566380313 0.9979124866677377 -0.003984891471662398 0.0001053027912929969 0.000839878216917939 -0.00010200604241875988 -0.0005230224326422034
 0.9979124866677377 -0.003984891471662398 0.0020486385211322977 0.0015517412320501468 -0.00010200307767719542 -0.000523020124095108 0.00010524315575899414 0.0008399010273495935
 0.0001053027912929969 0.000839878216917939 -0.00010200307767719542 -0.000523020124095108 0.0020486287085037394 0.0015518142809354306 0.99791248706213 -0.003984824409719303
 -0.00010200604241875988 -0.0005230224326422034 0.00010524315575899414 0.0008399010273495935 0.99791248706213 -0.003984824409719303 0.002048637222790503 0.001551809326087987
0.006252605252188 0.002087239882286736 0.0019457533370974074 0.9978632017025388 -0.0049820284347686285 0.00011441162442232347 0.001050218263095839 -0.00011004292543956587 -0.0006544353766438848
 0.9978632017025388 -0.0049820284347686285 0.0020872584735135247 0.0019457444148725353 -0.00011003831239707894 -0.0006544325309166931 0.00011431845189558391 0.0010502479026864263
 0.00011441162442232347 0.001050218263095839 -0.00011003831239707894 -0.0006544325309166931 0.002087243051202618 0.0019458358607083617 0.9978632022358733 -0.004981944604985445
 -0.00011004292543956587 -0.0006544353766438848 0.00011431845189558391 0.0010502479026864263 0.9978632022358733 -0.004981944604985445 0.0020872563601270883 0.0019458295382335134
0.01250521050438 0.002292731527116312 0.003931825407773763 0.9975988964660851 -0.009964408227640963 0.00016781530386056736 0.002100529095597859 -0.00015663196139267338 -0.001311799901841968
 0.9975988964660851 -0.009964408227640963 0.002292805770978764 0.003931806109422551 -0.0001566137861399279 -0.0013117946555412175 0.0001674438107771951 0.0021006007124695016
 0.00016781530386056736 0.002100529095597859 -0.0001566137861399279 -0.0013117946555412175 0.002292743629439507 0.003931990069503511 0.9975988980408493 -0.009964240824995035
 -0.00015663196139267338 -0.001311799901841968 0.0001674438107771951 0.0021006007124695016 0.9975988980408493 -0.009964240824995035 0.0022927967673145224 0.00393197613340129
0.01875781575657 0.002519858057078298 0.005945588261954928 0.9973038447086914 -0.014959171217663571 0.00023453904691496947 0.003151592749787802 -0.0002141204702157579 -0.001971052774485874
 0.9973038447086914 -0.014959171217663571 0.002520024904748755 0.005945556960880453 -0.000214079946144024 -0.001971045675016712 0.00023370467226190597 0.0031517215147507135
 0.00023453904691496947 0.003151592749787802 -0.000214079946144024 -0.001971045675016712 0.002519884834999902 0.0059458347628093995 0.9973038478252085 -0.014958920309748231
 -0.0002141204702157579 -0.001971052774485874 0.00023370467226190597 0.0031517215147507135 0.9973038478252085 -0.014958920309748231 0.0025200042303864883 0.005945811859844521
0.02501042100875 0.00276912581223777 0.007984110530764324 0.9969776459423445 -0.019968632987149237 0.0003147185549578177 0.004203388125409828 -0.0002826608852673663 -0.002631823671510284
 0.9969776459423445 -0.019968632987149237 0.002769422152661854 0.007984065439909878 -0.0002825893346286445 -0.0026318153772169526 0.00031323678421817775 0.0042035919610935
 0.0003147185549578177 0.004203388125409828 -0.0002825893346286445 -0.0026318153772169526 0.002769173001808418 0.0079844385135787 0.9969776511048001 -0.019968298598849684
 -0.0002826608852673663 -0.002631823671510284 0.00031323678421817775 0.0042035919610935 0.9969776511048001 -0.019968298598849684 0.0027693850270925947 0.007984405236333437
0.03126302626094 0.0030410197088248194 0.010045830325969647 0.9966198825138174 -0.024993719982813006 0.00040848885010832676 0.005255792822550053 -0.00036239980464646503 -0.0032938327475850308
 0.9966198825138174 -0.024993719982813006 0.0030414823899460393 0.010045769498853626 -0.00036228864082734025 -0.0032938240286768663 0.0004061750616988205 0.005256092418212594
 0.00040848885010832676 0.005255792822550053 -0.00036228864082734025 -0.0032938240286768663 0.003041093040425105 0.010046239362134255 0.9966198902298038 -0.024993302109026123
 -0.00036239980464646503 -0.0032938327475850308 0.0004061750616988205 0.005256092418212594 0.9966198902298038 -0.024993302109026123 0.0030414240288507365 0.01004619425070824
0.037515631513130004 0.0033360128260339276 0.012129688878364232 0.996230129700136 -0.03003483584073041 0.0005159828018118397 0.006308643458740136 -0.0004534790495191452 -0.003956830388894688
 0.996230129700136 -0.03003483584073041 0.0033366786684262246 0.012129610208849295 -0.0004533197680556158 -0.00395682212763146 0.0005126522093306391 0.006309062295033154
 0.0005159828018118397 0.006308643458740136 -0.0004533197680556158 -0.00395682212763146 0.003336118021700503 0.012130178459242556 0.9962301404791912 -0.03003433445408156
 -0.0004534790495191452 -0.003956830388894688 0.0005126522093306391 0.006309062295033154 0.9962301404791912 -0.03003433445408156 0.0033365942802252493 0.012130120002231003
0.043768236765320004 0.0036545700610422496 0.014234866916214606 0.9958079598764136 -0.035092124959184075 0.0006373304083267297 0.007361754018020628 -0.000556035995571965 -0.004620578939641101
 0.9958079598764136 -0.035092124959184075 0.0036554758688415304 0.014234768137643182 -0.0005558201690012495 -0.004620572130328621 0.0006327980440528091 0.007362318394603509
 0.0006373304083267297 0.007361754018020628 -0.0005558201690012495 -0.004620572130328621 0.0036547128356588013 0.014235436449495214 0.9958079742322847 -0.035091540012777624
 -0.000556035995571965 -0.004620578939641101 0.0006327980440528091 0.007362318394603509 0.9958079742322847 -0.035091540012777624 0.003655360655483696 0.014235363084477952
0.050020842017509996 0.003997149794754662 0.0163606757181612 0.9953529446995525 -0.040165581399000914 0.0007726583352898735 0.008414923467372881 -0.0006702036554986169 -0.005284845169556939
 0.9953529446995525 -0.040165581399000914 0.0039983323655239595 0.01636055440174956 -0.0006699229301841832 -0.00528484091846334 0.0007667390559336941 0.008415662531436786
 0.0007726583352898735 0.008414923467372881 -0.0006699229301841832 -0.00528484091846334 0.003997335854303364 0.016361324528770007 0.9953529631503472 -0.04016491282455743
 -0.0006702036554986169 -0.005284845169556939 0.0007667390559336941 0.008415662531436786 0.9953529631503472 -0.04016491282455743 0.003998181520850247 0.01636123464232977
0.055454545454549996 0.00431472287588291 0.018224346320395796 0.9949305160510541 -0.044587620571593226 0.0009017117505364789 0.009330042818283252 -0.0007789481346143426 -0.005862352545812688
 0.9949305160510541 -0.044587620571593226 0.0043161758474908 0.018224203318269995 -0.0007786042819331137 -0.005862351503199279 0.0008944367186661553 0.009330959595274661
 0.0009017117505364789 0.009330042818283252 -0.0007786042819331137 -0.005862351503199279 0.004314951178407172 0.018225063406938052 0.9949305384856204 -0.04458687925505911
 -0.0007789481346143426 -0.005862352545812688 0.0008944367186661553 0.009330959595274661 0.9949305384856204 -0.04458687925505911 0.004315990129373033 0.018224957812764894
0.056273447269699996 0.004364204699013426 0.01850650365660478 0.9948646564403398 -0.045255102300813616 0.000922089570829219 0.009467939513316436 -0.0007961106476990859 -0.00594939661155688
 0.9948646564403398 -0.045255102300813616 0.004365700832253355 0.018506357209741132 -0.000795756741771877 -0.005949396136814454 0.000914598076443131 0.009468885288270352
 0.000922089570829219 0.009467939513316436 -0.000795756741771877 -0.005949396136814454 0.004364439740595016 0.018507230979722126 0.9948646795100533 -0.04525435001475174
 -0.0007961106476990859 -0.00594939661155688 0.000914598076443131 0.009468885288270352 0.9948646795100533 -0.04525435001475174 0.004365509543038472 0.018507122907142584
0.06252605252188 0.004756182126332602 0.020671786828257335 0.9943426689035905 -0.05036051722600383 0.0010857431390255484 0.010520580689618484 -0.0009338811066770915 -0.006613999579827316
 0.9943426689035905 -0.05036051722600383 0.00475802863204484 0.020671612492177065 -0.0009334458088332726 -0.006614004211293096 0.0010764940013357244 0.010521768103564626
 0.0010857431390255484 0.010520580689618484 -0.0009334458088332726 -0.006614004211293096 0.004756471836102888 0.020672591812467746 0.9943426971219796 -0.0503596811253811
 -0.0009338811066770915 -0.006613999579827316 0.0010764940013357244 0.010521768103564626 0.9943426971219796 -0.0503596811253811 0.004757792076155999 0.020672463837113894
0.06877865777407 0.0051735242686912425 0.022855991559605375 0.9937865581238103 -0.05548160563498734 0.0012637338461656557 0.011572617631382757 -0.0010836345608417855 -0.007278418013863109
 0.9937865581238103 -0.05548160563498734 0.0051757579753162215 0.022855786406838073 -0.001083109729545348 -0.007278429192984616 0.0012525415432817378 0.01157408454502299
 0.0012637338461656557 0.011572617631382757 -0.001083109729545348 -0.007278429192984616 0.005173874321626736 0.022856873264949094 0.9937865920288829 -0.0554806855986268
 -0.0010836345608417855 -0.007278418013863109 0.0012525415432817378 0.01157408454502299 0.9937865920288829 -0.0554806855986268 0.005175471322985923 0.022856723617180653
0.07503126302626001 0.0056166681795373225 0.025058603329217444 0.9931959029299882 -0.06061810796245089 0.0014561720459960216 0.012623813910287836 -0.0012454857910028498 -0.00794241277409884
 0.9931959029299882 -0.06061810796245089 0.0056193259413905485 0.025058364260611907 -0.0012448633540981663 -0.007942432053755026 0.0014428510018150008 0.012625601144313459
 0.0014561720459960216 0.012623813910287836 -0.0012448633540981663 -0.007942432053755026 0.0056170842357843994 0.02505956072092269 0.9931959430659942 -0.060617103856377974
 -0.0012454857910028498 -0.00794241277409884 0.0014428510018150008 0.012625601144313459 0.9931959430659942 -0.060617103856377974 0.0056189843528448415 0.025059387576705526
0.08128386827845 0.0060860457061277014 0.02727911941566919 0.9925702854256809 -0.0657697329814119 0.0016631634183481116 0.01367392660919244 -0.0014195446749114776 -0.008605741211587253
 0.9925702854256809 -0.0657697329814119 0.006089164411591118 0.027278843156956976 -0.001418816629566324 -0.008605770255933239 0.001647528046547079 0.013676077970789749
 0.0016631634183481116 0.01367392660919244 -0.001418816629566324 -0.008605770255933239 0.006086533411968315 0.02728015137214095 0.9925703323465083 -0.06576864465013556
 -0.0014195446749114776 -0.008605741211587253 0.001647528046547079 0.013676077970789749 0.9925703323465083 -0.06576864465013556 0.006088763038878029 0.027279952851185174
0.08753647353064001 0.006582083368560439 0.02951704383392048 0.9919092914205914 -0.07093616289406506 0.0018848087553002743 0.01472270676010045 -0.0016059160251056554 -0.009268156887837596
 0.9919092914205914 -0.07093616289406506 0.0065856999470862276 0.029516726932045913 -0.0016050744378437237 -0.009268197472118414 0.0018666735060664625 0.014725269068645965
 0.0018848087553002743 0.01472270676010045 -0.0016050744378437237 -0.009268197472118414 0.006582648353271726 0.02951814913723439 0.9919093456893268 -0.07093499016947012
 -0.0016059160251056554 -0.009268156887837596 0.0018666735060664625 0.014725269068645965 0.9919093456893268 -0.07093499016947012 0.006585233933019031 0.029517923300784555
0.09378907878283 0.007105202196134004 0.031771883734705346 0.9912125108242161 -0.07611705697560571 0.0021212037545119493 0.015769899675911483 -0.0018046994196709958 -0.009929409414816537
 0.9912125108242161 -0.07611705697560571 0.007109353625876423 0.031771522553623116 -0.0018037364266783572 -0.00992946342518379 0.0021003831642781925 0.0157729227877575
 0.0021212037545119493 0.015769899675911483 -0.0018037364266783572 -0.00992946342518379 0.007105850070688309 0.03177306107559128 0.9912125730140998 -0.07611579967123563
 -0.0018046994196709958 -0.009929409414816537 0.0021003831642781925 0.0157729227877575 0.9912125730140998 -0.07611579967123563 0.007108818104025083 0.03177280592374891
0.100041684035 0.0076558175360447595 0.034043146785374234 0.9904795380152375 -0.08131205425272053 0.002372438816648651 0.01681524522888652 -0.0020159890301336735 -0.010589244362410556
 0.9904795380152375 -0.08131205425272053 0.007660540851262738 0.03404273750144756 -0.0020148968376998283 -0.010589313795694992 0.002348747560104938 0.016818782061082397
 0.002372438816648651 0.01681524522888652 -0.0020148968376998283 -0.010589313795694992 0.007656553891750011 0.03404439475936892 0.9904796087105353 -0.08131071216703704
 -0.0020159890301336735 -0.010589244362410556 0.002348747560104938 0.016818782061082397 0.9904796087105353 -0.08131071216703704 0.007659930945720682 0.03404410822811649
0.1059090909091 0.008197884226309923 0.03618898311829534 0.9897584472626934 -0.08619949734734011 0.0026217688559161405 0.017794274712654542 -0.0022257151759839193 -0.011206909980247847
 0.9897584472626934 -0.08619949734734011 0.008203177933932321 0.03618852504600591 -0.00222449471815723 -0.011206995800789201 0.0025952154031733403 0.017798344490795072
 0.0026217688559161405 0.017794274712654542 -0.00222449471815723 -0.011206995800789201 0.008198708677994816 0.03619029601083123 0.9897585264815476 -0.08619807550736334
 -0.0022257151759839193 -0.011206909980247847 0.0025952154031733403 0.017798344490795072 0.9897585264815476 -0.08619807550736334 0.008202493784388455 0.03618997809583096
0.1062942892872 0.00823433884127259 0.03633033922044814 0.9897099721935302 -0.08652077552911788 0.0026385988469534187 0.01785847808664088 -0.002239873446629534 -0.011247403222704407
 0.9897099721935302 -0.08652077552911788 0.008239671139545848 0.03632987781755082 -0.0022386443316317634 -0.011247490186193188 0.002611851791461868 0.017862584639647877
 0.0026385988469534187 0.01785847808664088 -0.0022386443316317634 -0.011247490186193188 0.00823516924761572 0.03633165632789498 0.9897100519904412 -0.08651934844514816
 -0.002239873446629534 -0.011247403222704407 0.002611851791461868 0.017862584639647877 0.9897100519904412 -0.08651934844514816 0.008238981965070254 0.036331336285492864
0.11254689453939999 0.008841169442913167 0.038632964371176526 0.9889034177195372 -0.0917428249494775 0.00291976305975188 0.01889932792429073 -0.0024764355022952158 -0.011903623412715137
 0.9889034177195372 -0.0917428249494775 0.008847147892288012 0.0386324466352365 -0.0024750618127880007 -0.011903730123940743 0.002889775321541067 0.01890406330344143
 0.00291976305975188 0.01889932792429073 -0.0024750618127880007 -0.011903730123940743 0.008842099445657082 0.0386343490170358 0.9889035072269104 -0.09174131263450015
 -0.0024764355022952158 -0.011903623412715137 0.002889775321541067 0.01890406330344143 0.9889035072269104 -0.09174131263450015 0.008846374554327964 0.038633993260026075
0.11879949979160001 0.009476706310441464 0.04095052154487689 0.9880594844438771 -0.09697779123083203 0.0032160047867142456 0.019937519621949812 -0.0027257520964680203 -0.012557638306396805
 0.9880594844438771 -0.09697779123083203 0.009483368156666427 0.0409499430580312 -0.0027242262524096207 -0.012557767092834935 0.003182591788718445 0.0199429460578894
 0.0032160047867142456 0.019937519621949812 -0.0027242262524096207 -0.012557767092834935 0.00947774143006949 0.04095197203850259 0.9880595842839272 -0.09697619343621934
 -0.0027257520964680203 -0.012557638306396805 0.003182591788718445 0.0199429460578894 0.9880595842839272 -0.09697619343621934 0.009482505750880327 0.04095157828741568
0.1250521050438 0.010141339803023232 0.04328250515988219 0.9871777880289093 -0.1022252486563182 0.0035273912873787887 0.02097277344915126 -0.002987894018632315 -0.013209177294612785
 0.9871777880289093 -0.1022252486563182 0.010148722376454191 0.04328186129418227 -0.0029862085125666633 -0.013209330593429472 0.0034903688190467325 0.020978956316860472
 0.0035273912873787887 0.02097277344915126 -0.0029862085125666633 -0.013209330593429472 0.010142485532646281 0.04328401971322445 0.9871778988383725 -0.1022235651190429
 -0.002987894018632315 -0.013209177294612785 0.0034903688190467325 0.020978956316860472 0.9871778988383725 -0.1022235651190429 0.010147765989224011 0.04328358560758256
0.131304710296 0.010835453413930756 0.04562840407365079 0.9862579502651453 -0.10748475789362898 0.0038539835632059585 0.022004805246133734 -0.003262925772817526 -0.01385796586311829
 0.9862579502651453 -0.10748475789362898 0.010843594136505114 0.04562768998441608 -0.0032610731708055184 -0.01385814622083807 0.0038131678415274095 0.022011813082829446
 0.0038539835632059585 0.022004805246133734 -0.0032610731708055184 -0.01385814622083807 0.010836715217294035 0.045629980802228375 0.9862580726958816 -0.10748298833518115
 -0.003262925772817526 -0.01385796586311829 0.0038131678415274095 0.022011813082829446 0.9862580726958816 -0.10748298833518115 0.010842538844633624 0.045629503895200145
0.1375573155481 0.011413330973117615 0.047682140030436915 0.9854457766733333 -0.11245009120855624 0.0041587452282615305 0.02300438147967135 -0.0035138682662836616 -0.01447477537873503
 0.9854457766733333 -0.11245009120855624 0.011422268652920323 0.047681363640504786 -0.003511837330912102 -0.014474983382772031 0.004114042161818055 0.023012212327478795
 0.0041587452282615305 0.02300438147967135 -0.003511837330912102 -0.014474983382772031 0.011414713569821969 0.04768377740406542 0.9854459112678545 -0.1124482354917445
 -0.0035138682662836616 -0.01447477537873503 0.004114042161818055 0.023012212327478795 0.9854459112678545 -0.1124482354917445 0.011421110472668519 0.0476832675330158
0.1438099208003 0.012011866299488238 0.04972247222618204 0.9846043120177052 -0.11740021921566443 0.004475713810612006 0.023998266347494232 -0.0037747190948891627 -0.015086388702562412
 0.9846043120177052 -0.11740021921566443 0.012021638647838383 0.04972162937265003 -0.003772501813925586 -0.015086626900764441 0.004426956360408145 0.02400698368379546
 0.004475713810612006 0.023998266347494232 -0.003772501813925586 -0.015086626900764441 0.012013374980255008 0.04972416832894794 0.9846044594262289 -0.11739827707622513
 -0.0037747190948891627 -0.015086388702562412 0.004426956360408145 0.02400698368379546 0.9846044594262289 -0.11739827707622513 0.012020372811130392 0.04972362374278042
0.1500625260525 0.012630805404369479 0.0517491543028544 0.983733815865196 -0.12233494113534117 0.004804751132084839 0.024986305737204683 -0.004045344349982559 -0.015692663189116652
 0.983733815865196 -0.12233494113534117 0.012641450215879977 0.051748240587418386 -0.004042932736227786 -0.015692934232578892 0.004751773691120334 0.024995975328965043
 0.004804751132084839 0.024986305737204683 -0.004042932736227786 -0.015692934232578892 0.012632445423546421 0.05175090714501277 0.9837339767506917 -0.12233291229984034
 -0.004045344349982559 -0.015692663189116652 0.004751773691120334 0.024995975328965043 0.9837339767506917 -0.12233291229984034 0.012640071956228701 0.05175032595279477
0.15631513130469998 0.013269891977962352 0.053761947343670895 0.9828345496786913 -0.12725405877442283 0.005145717074025272 0.02596834885395025 -0.004325608202112868 -0.01629345981890778
 0.9828345496786913 -0.12725405877442283 0.013281447132100607 0.053760958127298385 -0.00432299429405565 -0.016293766461480574 0.005088355495390073 0.025979038724899855
