! Created with skrf 1.8.0 (http://scikit-rf.org).
# GHz S RI R 50.0 
!freq ReS11 ImS11 ReS12 ImS12 ReS13 ImS13
! ReS14 ImS14
! ReS21 ImS21 ReS22 ImS22 ReS23 ImS23
! ReS24 ImS24
! ReS31 ImS31 ReS32 ImS32 ReS33 ImS33
! ReS34 ImS34
! ReS41 ImS41 ReS42 ImS42 ReS43 ImS43
! ReS44 ImS44
!
0.0 0.001629392994567 0.0 0.9983706069827 0.0 6.32986973454e-05 0.0 -6.329869707864e-05 7.75185467675544e-21
 0.9983706069827 0.0 0.001629392994605 0.0 -6.329869707946e-05 7.75185467685586e-21 6.329869734561e-05 0.0
 6.32986973454e-05 0.0 -6.329869707946e-05 7.75185467685586e-21 0.001629393005964 0.0 0.998370606994 0.0
 -6.329869707864e-05 7.75185467675544e-21 6.329869734561e-05 0.0 0.998370606994 0.0 0.001629393005956 0.0
0.005 0.0017534332062148887 0.0013269977192270248 0.998213628200772 -0.003413214297051462 8.966256851835672e-05 0.0007318125525589451 -8.690217887107896e-05 -0.0004532824123470244
 0.998213628200772 -0.003413214297051462 0.0017534191396058945 0.0013270060182366031 -8.689968956339684e-05 -0.00045328061332867666 8.974515847160562e-05 0.0007317809403353563
 8.966256851835672e-05 0.0007318125525589451 -8.689968956339684e-05 -0.00045328061332867666 0.0017534342891697252 0.0013270644164050701 0.998213628564168 -0.0034131472377164794
 -8.690217887107896e-05 -0.0004532824123470244 8.974515847160562e-05 0.0007317809403353563 0.998213628564168 -0.0034131472377164794 0.001753418773686182 0.0013270734297404093
0.006252605252188 0.0017860481471766664 0.0016639825284670065 0.998172080470832 -0.004267342303861617 9.722752613962888e-05 0.0009150997794669022 -9.361014878521876e-05 -0.0005671918432776379
 0.998172080470832 -0.004267342303861617 0.0017860261583761848 0.0016639931249863953 -9.360627433974149e-05 -0.0005671896277886322 9.735656287914056e-05 0.0009150587461313578
 9.722752613962888e-05 0.0009150997794669022 -9.360627433974149e-05 -0.0005671896277886322 0.001786049772371795 0.0016640658990151153 0.9981720809718719 -0.004267258484218295
 -9.361014878521876e-05 -0.0005671918432776379 9.735656287914056e-05 0.0009150587461313578 0.9981720809718719 -0.004267258484218295 0.0017860255196409825 0.0016640773717406586
0.01250521050438 0.001958222869769463 0.003362911397243087 0.9979512489060544 -0.008535427732488032 0.00014078540247484486 0.00183042738906033 -0.00013190542326752927 -0.0011371101724982613
 0.9979512489060544 -0.008535427732488032 0.0019581350605713515 0.003362934839283421 -0.00013189014355264586 -0.0011371061094112517 0.00014129990502537355 0.001830328868452475
 0.00014078540247484486 0.00183042738906033 -0.00013189014355264586 -0.0011371061094112517 0.001958228776137281 0.0033630779175245567 0.9979512503376515 -0.008535260315272387
 -0.00013190542326752927 -0.0011371101724982613 0.00014129990502537355 0.001830328868452475 0.9979512503376515 -0.008535260315272387 0.0019581319466791154 0.003363102951365293
0.01875781575657 0.0021463104207206066 0.005086031013495713 0.9977078254936218 -0.012814629989482074 0.00019407651329664665 0.0027466225409256656 -0.0001783069607756891 -0.0017088742012045857
 0.9977078254936218 -0.012814629989482074 0.0021461130937488015 0.005086069699208655 -0.0001782728716715758 -0.0017088687371504345 0.00019523212797725343 0.00274644669320452
 0.00019407651329664665 0.0027466225409256656 -0.0001782728716715758 -0.0017088687371504345 0.0021463232503118636 0.005086280540658034 0.9977078282986108 -0.012814379028936642
 -0.0001783069607756891 -0.0017088742012045857 0.00019523212797725343 0.00274644669320452 0.9977078282986108 -0.012814379028936642 0.0021461056931160456 0.0050863213946532185
0.02501042100875 0.0023506914299393413 0.006830895267593787 0.9974415117031737 -0.017107000706806177 0.00025720600996738245 0.003663719897128245 -0.000232932674284829 -0.0022822010215237452
 0.9974415117031737 -0.017107000706806177 0.0023503409687028196 0.006830951732788251 -0.00023287245569436217 -0.002282194688992494 0.000259258372310008 0.0036634436159540093
 0.00025720600996738245 0.003663719897128245 -0.00023287245569436217 -0.002282194688992494 0.0023507137920199153 0.006831227632223097 0.9974415163167196 -0.017106666195287494
 -0.000232932674284829 -0.0022822010215237452 0.000259258372310008 0.0036634436159540093 0.9974415163167196 -0.017106666195287494 0.0023503274671878398 0.00683128672134611
0.03126302626094 0.0025717307450100974 0.008596233487390342 0.9971519944347971 -0.021413403460840853 0.0003302792127149113 0.004581665280249613 -0.00029589679465559624 -0.002856889496948852
 0.9971519944347971 -0.021413403460840853 0.002571183591899784 0.008596310403670144 -0.00029580319650154277 -0.0028568829152372664 0.0003334841798328175 0.00458126217670651
 0.0003302792127149113 0.004581665280249613 -0.00029580319650154277 -0.0028568829152372664 0.0025717652326817256 0.008596648469979543 0.9971520013006224 -0.02141298535221618
 -0.00029589679465559624 -0.002856889496948852 0.0003334841798328175 0.00458126217670651 0.9971520013006224 -0.02141298535221618 0.0025711621852421386 0.008596728363019484
0.037515631513130004 0.0028097850955510245 0.010381208187183256 0.9968389539720921 -0.02573425596269275 0.00041340061371491143 0.005500369285210616 -0.00036731072751637503 -0.0034327666742223475
 0.9968389539720921 -0.02573425596269275 0.002808997736552826 0.010381308361178506 -0.0003671765626728269 -0.0034327605497766716 0.00041801436332062264 0.00549980965777185
 0.00041340061371491143 0.005500369285210616 -0.0003671765626728269 -0.0034327605497766716 0.002809834279096317 0.010381705512317874 0.9968389635372433 -0.025733754177909542
 -0.00036731072751637503 -0.0034327666742223475 0.00041801436332062264 0.00549980965777185 0.9968389635372433 -0.025733754177909542 0.002808966621808959 0.010381808931098593
0.043768236765320004 0.003065206032364501 0.012185189190538844 0.9965020672095171 -0.030069755865226134 0.0005066733915832065 0.006419723613748886 -0.0004472833609731675 -0.004009671466228295
 0.9965020672095171 -0.030069755865226134 0.003064134985187461 0.012185315563810679 -0.00044710150126738344 -0.004009666592831265 0.0005129524637525036 0.006418974413955919
 0.0005066733915832065 0.006419723613748886 -0.00044710150126738344 -0.004009666592831265 0.0030652724625436388 0.012185768530477243 0.9965020799282513 -0.030069170288448237
 -0.0004472833609731675 -0.004009671466228295 0.0005129524637525036 0.006418974413955919 0.9965020799282513 -0.030069170288448237 0.003064092362103695 0.01218589834977353
0.050020842017509996 0.0033383412925245687 0.014007660287134526 0.9961410093072839 -0.034419974034987665 0.0006101991178794874 0.0073396078123395565 -0.0005359211664381461 -0.004587447932668074
 0.9961410093072839 -0.034419974034987665 0.003336943096197694 0.014007815936216346 -0.0005356845402139847 -0.004587445191531646 0.0006184004265384478 0.007338632608915953
 0.0006101991178794874 0.0073396078123395565 -0.0005356845402139847 -0.004587445191531646 0.0033384274986326384 0.014008321248923311 0.9961410256410552 -0.034419304526082405
 -0.0005359211664381461 -0.004587447932668074 0.0006184004265384478 0.007338632608915953 0.9961410256410552 -0.034419304526082405 0.003336887163736819 0.01400848049688289
0.055454545454549996 0.0035903580226500807 0.015606109911303685 0.9958073562653592 -0.03821239210864627 0.0007085702778918074 0.0081393451411964 -0.0006200681711271183 -0.00509014141563734
 0.9958073562653592 -0.03821239210864627 0.003588640237438309 0.015606293605665848 -0.0006197782508242419 -0.005090141311112874 0.0007186509990503305 0.008138141292389954
 0.0007085702778918074 0.0081393451411964 -0.0006197782508242419 -0.005090141311112874 0.003590463451410231 0.015606841441000881 0.9958073761212348 -0.03821164952140343
 -0.0006200681711271183 -0.00509014141563734 0.0007186509990503305 0.008138141292389954 0.9958073761212348 -0.03821164952140343 0.0035885712739542252 0.015607028842282178
0.056273447269699996 0.0036295354881891416 0.0158481734042857 0.9957554546752566 -0.038784900311874176 0.0007240775418674291 0.008259892585057153 -0.000633328213505128 -0.005165941989559813
 0.9957554546752566 -0.038784900311874176 0.0036277666933776766 0.0158483615411822 -0.0006330298040906986 -0.005165942349401315 0.0007344583677123704 0.008258651527413353
 0.0007240775418674291 0.008259892585057153 -0.0006330298040906986 -0.005165942349401315 0.0036296439771491495 0.015848915536811614 0.9957554750929929 -0.03878414669900013
 -0.000633328213505128 -0.005165941989559813 0.0007344583677123704 0.008258651527413353 0.9957554750929929 -0.03878414669900013 0.0036276956477066602 0.015849107395724846
0.06252605252188 0.003939130465238505 0.017706323439504203 0.9953450776299156 -0.04316446861185857 0.0008484064161319692 0.009180441624553616 -0.0007396061387625319 -0.0057449996055102745
 0.9953450776299156 -0.04316446861185857 0.003936947625357633 0.017706547412540897 -0.000739238983572716 -0.005745004122600392 0.0008612243874598136 0.009178891406201815
 0.0008484064161319692 0.009180441624553616 -0.000739238983572716 -0.005745004122600392 0.00393926372223447 0.01770714622938794 0.9953451026102635 -0.0431636306954391
 -0.0007396061387625319 -0.0057449996055102745 0.0008612243874598136 0.009178891406201815 0.9953451026102635 -0.0431636306954391 0.003936859659144089 0.017707374036757494
0.06877865777407 0.004267465484343567 0.019581733229400173 0.9949095528784927 -0.04755857189910227 0.0009832813442140853 0.010101112707419719 -0.0008548540891257549 -0.00632446573910302
 0.9949095528784927 -0.04755857189910227 0.0042648251468269125 0.019581996524252136 -0.0008544112791658441 -0.006324475557295628 0.0009987944089081184 0.01009920652960988
 0.0009832813442140853 0.010101112707419719 -0.0008544112791658441 -0.006324475557295628 0.004267625971176277 0.01958263609972197 0.9949095829102246 -0.047557649452623786
 -0.0008548540891257549 -0.00632446573910302 0.0009987944089081184 0.01009920652960988 0.9949095829102246 -0.047557649452623786 0.004264718446550934 0.019582903349770447
0.07503126302626001 0.004614877292660609 0.021474044047705164 0.9944485558981438 -0.05196707163456906 0.0011287956414580606 0.011021758393092395 -0.0009791686490646572 -0.006904183678730693
 0.9944485558981438 -0.05196707163456906 0.004611735990121286 0.021474350288873824 -0.0009786433286850791 -0.006904200029476021 0.0011472620324514998 0.011019445928829424
 0.0011287956414580606 0.011021758393092395 -0.0009786433286850791 -0.006904200029476021 0.004615067447555432 0.021475026359860372 0.9944485914812924 -0.05196606440265575
 -0.0009791686490646572 -0.006904183678730693 0.0011472620324514998 0.011019445928829424 0.9944485914812924 -0.05196606440265575 0.004611608735167636 0.02147533670531027
0.08128386827845 0.0049817001291927905 0.023382909269061853 0.9939617632524482 -0.05638980406583958 0.0012850402037882596 0.011942226505544638 -0.0011126437575110061 -0.007483994605903806
 0.9939617632524482 -0.05638980406583958 0.004978014371216774 0.023383262221621653 -0.0011120291244714484 -0.007484018808242302 0.0013067183994534654 0.011939453864117888
 0.0012850402037882596 0.011942226505544638 -0.0011120291244714484 -0.007484018808242302 0.004981922365661515 0.0233839703213691 0.9939618048994118 -0.05638871176542948
 -0.0011126437575110061 -0.007483994605903806 0.0013067183994534654 0.011939453864117888 0.9939618048994118 -0.05638871176542948 0.0049778647314972875 0.02338432757561955
0.08753647353064001 0.005368265685281152 0.0253079900058114 0.9934488528676235 -0.060826584550846045 0.0014521033822562795 0.012862360468265875 -0.0012553706173049522 -0.008063737311770111
 0.9934488528676235 -0.060826584550846045 0.0053639919498949876 0.0253083935775053 -0.001254659922966399 -0.008063770772316087 0.0014772520624192831 0.012859070160473426
 0.0014521033822562795 0.012862360468265875 -0.001254659922966399 -0.008063770772316087 0.005368522391766359 0.025309129031832585 0.9934489011042309 -0.06082540687266491
 -0.0012553706173049522 -0.008063737311770111 0.0014772520624192831 0.012859070160473426 0.9934489011042309 -0.06082540687266491 0.005363818084516525 0.025309537171530175
0.09378907878283 0.005774903033737966 0.027248951978451393 0.9929095042809166 -0.06527721065526729 0.0016300708601766902 0.013781999558726912 -0.0014074376002789542 -0.008643248000962207
 0.9929095042809166 -0.06527721065526729 0.005769997759021076 0.027249410222118242 -0.0014066241498994815 -0.008643292213866359 0.0016589488588103869 0.01377813046272515
 0.0016300708601766902 0.013781999558726912 -0.0014066241498994815 -0.008643292213866359 0.005775196572471039 0.027250168149909448 0.9929095596475529 -0.06527594726092459
 -0.0014074376002789542 -0.008643248000962207 0.0016589488588103869 0.01377813046272515 0.9929095596475529 -0.06527594726092459 0.005769797814491629 0.02725063131776307
0.100041684035 0.006201938536307514 0.02920546324341211 0.9923433988710286 -0.06974146440053978 0.0018190255336085173 0.014700979101629609 -0.0015689301479122591 -0.00922236016350444
 0.9923433988710286 -0.06974146440053978 0.006196358112051009 0.029205980359765522 -0.0015680073011171013 -0.009222416710385905 0.0018518917882733605 0.014696466429631976
 0.0018190255336085173 0.014700979101629609 -0.0015680073011171013 -0.009222416710385905 0.006202271242629369 0.029206755664221103 0.9923434619238172 -0.06974011492838848
 -0.0015689301479122591 -0.00922236016350444 0.0018518917882733605 0.014696466429631976 0.9923434619238172 -0.06974011492838848 0.006196130220432482 0.0292072781723542
0.1059090909091 0.006621506205807848 0.031055288314428057 0.9917875519323655 -0.07394288091198946 0.002006403480152675 0.015562594060984645 -0.001729119673244069 -0.009765282265679284
 0.9917875519323655 -0.07394288091198946 0.006615252511836824 0.031055864631576616 -0.0017280881790368147 -0.009765351903015841 0.0020432478365714265 0.015557415243307395
 0.002006403480152675 0.015562594060984645 -0.0017280881790368147 -0.009765351903015841 0.006621877765557617 0.031056651416583397 0.9917876227181691 -0.07394145031056458
 -0.001729119673244069 -0.009765282265679284 0.0020432478365714265 0.015557415243307395 0.9917876227181691 -0.07394145031056458 0.006614996681397275 0.031057233685215388
0.1062942892872 0.0066496957338775765 0.031177192470749564 0.9917502200751771 -0.07421911396968987 0.0020190473929884824 0.01561913062819271 -0.0017399306697088576 -0.009800904487823168
 0.9917502200751771 -0.07421911396968987 0.006643396493065751 0.031177772811580337 -0.0017388918410085176 -0.009800975037699574 0.0020561608917076066 0.015613905894042416
 0.0020190473929884824 0.01561913062819271 -0.0017388918410085176 -0.009800975037699574 0.006650069914971751 0.031178560182827608 0.9917502913867033 -0.07421767802906777
 -0.0017399306697088576 -0.009800904487823168 0.0020561608917076066 0.015613905894042416 0.9917502913867033 -0.07421767802906777 0.006643138770046312 0.031179146516445853
0.11254689453939999 0.007118495224607295 0.03316380765088952 0.9911296535965489 -0.07870991499254341 0.0022302134063606543 0.01653628200952988 -0.001920518439324829 -0.010378708806873214
 0.9911296535965489 -0.07870991499254341 0.007111433435122254 0.033164455722583704 -0.0019193570986630033 -0.010378795116077345 0.0022718331321250414 0.01653027299714891
 0.0022302134063606543 0.01653628200952988 -0.0019193570986630033 -0.010378795116077345 0.007118913158826243 0.033165249632036375 0.9911297337574918 -0.07870839216598496
 -0.001920518439324829 -0.010378708806873214 0.0022718331321250414 0.01653027299714891 0.9911297337574918 -0.07870839216598496 0.007111143978679552 0.033165904453469855
0.11879949979160001 0.007608654531820591 0.035164975077631555 0.9904813876057093 -0.08321361156307537 0.00245259740353765 0.017452257569857684 -0.002110769489293209 -0.010955598071890012
 0.9904813876057093 -0.08321361156307537 0.007600786388147917 0.03516569554508886 -0.002109479162795573 -0.010955701983914002 0.0024989822765000983 0.017445388302676935
 0.00245259740353765 0.017452257569857684 -0.002109479162795573 -0.010955701983914002 0.0076091184680071875 0.035166490240133866 0.9904814772258873 -0.08321200140784844
 -0.002110769489293209 -0.010955598071890012 0.0024989822765000983 0.017445388302676935 0.9904814772258873 -0.08321200140784844 0.007600463276651501 0.035167218393332124
0.1250521050438 0.008120487965320076 0.037180358559020237 0.9898051129372287 -0.08772993703769551 0.0026862699612325313 0.018366878193597256 -0.0023107565046676655 -0.011531394339623373
 0.9898051129372287 -0.08772993703769551 0.008111769579758777 0.0371811562500318 -0.0023093307753061024 -0.01153151778501748 0.0027376787788628474 0.018359068905072065
 0.0026862699612325313 0.018366878193597256 -0.0023093307753061024 -0.01153151778501748 0.008121000121295196 0.037181945751171355 0.9898052126462776 -0.08772823908438608
 -0.0023107565046676655 -0.011531394339623373 0.0027376787788628474 0.018359068905072065 0.9898052126462776 -0.08772823908438608 0.008111410870058471 0.03718275226668076
0.131304710296 0.008654306474524072 0.039209618790261414 0.9891005232812476 -0.09225861468019933 0.0029312982889321756 0.019279961418513538 -0.0025205487158342756 -0.012105916781278227
 0.9891005232812476 -0.09225861468019933 0.008644693869275846 0.039210498700168496 -0.0025189812242275866 -0.012106061777453828 0.0029879896644684134 0.01927112852361365
 0.0029312982889321756 0.019279961418513538 -0.0025189812242275866 -0.012106061777453828 0.00865486903655421 0.03921127679549889 0.9891006337304898 -0.092256828434015
 -0.0025205487158342756 -0.012105916781278227 0.0029879896644684134 0.01927112852361365 0.9891006337304898 -0.092256828434015 0.008644297595001448 0.03921216689573685
0.1375573155481 0.00909124804943591 0.04098672666529125 0.9884865385670518 -0.0965335216436193 0.003157536007601708 0.020164698466067398 -0.0027099464421259938 -0.012652429620445804
 0.9884865385670518 -0.0965335216436193 0.009080694688855808 0.040987672534900876 -0.0027082280558582195 -0.012652596429729115 0.00321964468782079 0.020154851754016868
 0.003157536007601708 0.020164698466067398 -0.0027082280558582195 -0.012652596429729115 0.009091864484193173 0.04098845368427577 0.9884866602627709 -0.09653164679590256
 -0.0027099464421259938 -0.012652429620445804 0.00321964468782079 0.020154851754016868 0.9884866602627709 -0.09653164679590256 0.009080257855964259 0.04098941277244667
0.1438099208003 0.009543650623865791 0.04275385036461123 0.9878507827332208 -0.1007969874966681 0.003392896697510651 0.021045587089843106 -0.0029069110537705404 -0.01319537539387492
 0.9878507827332208 -0.1007969874966681 0.009532112053961294 0.04275486578495399 -0.00290503499666978 -0.013195565999855746 0.00346065867422181 0.021034649776570498
 0.003392896697510651 0.021045587089843106 -0.00290503499666978 -0.013195565999855746 0.009544323304868475 0.042755645043735524 0.9878509163273854 -0.1007950235596333
 -0.0029069110537705404 -0.01319537539387492 0.00346065867422181 0.021034649776570498 0.9878509163273854 -0.1007950235596333 0.009531632474772966 0.042756677106441425
0.1500625260525 0.010011346223086805 0.04451082420198745 0.9871934283777328 -0.10504888833740657 0.0036372938966402505 0.02192252839800679 -0.0031113575106483443 -0.013734659198168898
 0.9871934283777328 -0.10504888833740657 0.00999877789707108 0.04451191297327794 -0.0031093170283684104 -0.013734875663252025 0.0037109435564805747 0.02191042091291542
 0.0036372938966402505 0.02192252839800679 -0.0031093170283684104 -0.013734875663252025 0.01001207750898519 0.044512685130711785 0.9871935745411382 -0.10504683480531644
 -0.0031113575106483443 -0.013734659198168898 0.0037109435564805747 0.02191042091291542 0.9871935745411382 -0.10504683480531644 0.009998253348693175 0.044513794387437425
0.15631513130469998 0.010494165568688305 0.046257487445627916 0.9865146491035379 -0.10928910109278495 0.0038906400621263404 0.02279542529701359 -0.003323199663945052 -0.01427018823824133
 0.9865146491035379 -0.10928910109278495 0.010480522844205253 0.0462586535823123 -0.003320988024380941 -0.01427043270317049 0.003970410158242174 0.022782065316421112
