! Created with skrf 1.8.0 (http://scikit-rf.org).
# GHz S RI R 50.0 
!freq ReS11 ImS11 ReS12 ImS12 ReS13 ImS13
! ReS14 ImS14
! ReS21 ImS21 ReS22 ImS22 ReS23 ImS23
! ReS24 ImS24
! ReS31 ImS31 ReS32 ImS32 ReS33 ImS33
! ReS34 ImS34
! ReS41 ImS41 ReS42 ImS42 ReS43 ImS43
! ReS44 ImS44
!
0.0 0.001557845928142 0.0 0.9984421540662 0.0 6.03034352242e-05 0.0 -6.030343495732e-05 7.385040859807254e-21
 0.9984421540662 0.0 0.001557845928142 0.0 -6.030343495792e-05 7.385040859880733e-21 6.030343522396e-05 0.0
 6.03034352242e-05 0.0 -6.030343495792e-05 7.385040859880733e-21 0.001557845923893 0.0 0.9984421540619 0.0
 -6.030343495732e-05 7.385040859807254e-21 6.030343522396e-05 0.0 0.9984421540619 0.0 0.001557845923865 0.0
0.005 0.0016761983937212033 0.0012708301333025883 0.9982924061395095 -0.0032634638599950707 8.504441080249149e-05 0.0006857600609224602 -8.2469992495354e-05 -0.00042670537886430515
 0.9982924061395095 -0.0032634638599950707 0.0016762025981548272 0.0012708275971382516 -8.247185465613294e-05 -0.000426706711233098 8.502405996464336e-05 0.0006857679511063654
 8.504441080249149e-05 0.0006857600609224602 -8.247185465613294e-05 -0.000426706711233098 0.0016761982786998352 0.001270897403079829 0.9982924064988331 -0.00326339679913074
 -8.2469992495354e-05 -0.00042670537886430515 8.502405996464336e-05 0.0006857679511063654 0.9982924064988331 -0.00326339679913074 0.001676203422266442 0.001270894439190701
0.006252605252188 0.001707252126423362 0.001593551487386577 0.9982528636989103 -0.00408012732368339 9.211861677301225e-05 0.0008575215850135552 -8.873706576951779e-05 -0.0005339373920073014
 0.9982528636989103 -0.00408012732368339 0.0017072586989970767 0.0015935482166786231 -8.873996423660531e-05 -0.0005339390326861545 9.208682215690529e-05 0.0008575318082286036
 9.211861677301225e-05 0.0008575215850135552 -8.873996423660531e-05 -0.0005339390326861545 0.0017072518777606078 0.001593635563768373 0.9982528641914339 -0.0040800434960934304
 -8.873706576951779e-05 -0.0005339373920073014 9.208682215690529e-05 0.0008575318082286036 0.9982528641914339 -0.0040800434960934304 0.0017072599172927002 0.0015936317736971566
0.01250521050438 0.0018708041479232227 0.003220595377950179 0.9980432127624265 -0.008161060971022436 0.00013271828044114113 0.0017153320972985563 -0.00012434194682263305 -0.0010704736512088735
 0.9980432127624265 -0.008161060971022436 0.0018708303994562682 0.003220587816469745 -0.0001243533790467431 -0.0010704766593620408 0.0001325915414769891 0.0017153564519565552
 0.00013271828044114113 0.0017153320972985563 -0.0001243533790467431 -0.0010704766593620408 0.001870802587680354 0.0032207631390810854 0.9980432141571898 -0.008160893554341025
 -0.00012434194682263305 -0.0010704736512088735 0.0001325915414769891 0.0017153564519565552 0.9980432141571898 -0.008160893554341025 0.0018708346788940768 0.003220754688576163
0.01875781575657 0.002048862733575756 0.004870866037872911 0.9978129381141063 -0.012252732785210312 0.0001821967915493128 0.002574026405585895 -0.0001672290143631027 -0.0016088043042618533
 0.9978129381141063 -0.012252732785210312 0.0020489217369946567 0.004870853093494165 -0.00016725452204160963 -0.0016088083499241684 0.00018191220497433677 0.002574069599342598
 0.0001821967915493128 0.002574026405585895 -0.00016725452204160963 -0.0016088083499241684 0.002048858817781968 0.004871117212979819 0.9978129408309497 -0.012252481823837726
 -0.0001672290143631027 -0.0016088043042618533 0.00018191220497433677 0.002574069599342598 0.9978129408309497 -0.012252481823837726 0.002048930907069076 0.004871103149388885
0.02501042100875 0.0022417777602091035 0.006542041171241585 0.9975617661634538 -0.01635712025388239 0.00024064983888095624 0.0034336421931752776 -0.00021750540152400545 -0.0021486759346910156
 0.9975617661634538 -0.01635712025388239 0.002241882568092114 0.006542021681204769 -0.00021755046443663274 -0.0021486806258042084 0.00024014454849143326 0.003433709697901626
 0.00024064983888095624 0.0034336421931752776 -0.00021755046443663274 -0.0021486806258042084 0.0022417704478062575 0.006542375463302685 0.9975617706220542 -0.01635678574385599
 -0.00021750540152400545 -0.0021486759346910156 0.00024014454849143326 0.003433709697901626 0.9975617706220542 -0.01635678574385599 0.0022418984354033063 0.006542354755443145
0.03126302626094 0.002449884614190061 0.008232922552653673 0.9972894094980843 -0.02047506574764372 0.00030817354653045497 0.004294135465299222 -0.0002752750976461411 -0.002689910675367057
 0.9972894094980843 -0.02047506574764372 0.0024500482640143818 0.008232895283275709 -0.00027534514415768956 -0.0026899155570482267 0.00030738468191904907 0.004294233519253058
 0.00030817354653045497 0.004294135465299222 -0.00027534514415768956 -0.0026899155570482267 0.0024498728669974214 0.00823333963998288 0.9972894161205436 -0.020474647634593432
 -0.0002752750976461411 -0.002689910675367057 0.00030738468191904907 0.004294233519253058 0.9972894161205436 -0.020474647634593432 0.0024500726146724793 0.00823331117822003
0.037515631513130004 0.002673511364230622 0.00994272656493716 0.9969955742930989 -0.02460698592129994 0.0003848635112462679 0.005155429948909789 -0.0003406397280224615 -0.0032323568135193214
 0.9969955742930989 -0.02460698592129994 0.0026737468811136177 0.009942690211341433 -0.0003407401403080158 -0.003232361367768575 0.0003837281609973921 0.005155565562775533
 0.0003848635112462679 0.005155429948909789 -0.0003407401403080158 -0.003232361367768575 0.002673494149201097 0.009943226070546814 0.9969955835090709 -0.02460648413071437
 -0.0003406397280224615 -0.0032323568135193214 0.0003837281609973921 0.005155565562775533 0.9969955835090709 -0.02460648413071437 0.002673781484794253 0.009943188666713126
0.043768236765320004 0.002912981531304213 0.01167086825317003 0.9966799633206265 -0.02875308758974441 0.0004708143461189442 0.006017432125741326 -0.00041369883430151486 -0.003775873762549442
 0.9966799633206265 -0.02875308758974441 0.0029133019303332055 0.011670821438902758 -0.00041383495137878567 -0.003775877408103613 0.0004692695453376966 0.006017613089884652
 0.0004708143461189442 0.006017432125741326 -0.00041383495137878567 -0.003775877408103613 0.0029129578133246874 0.011671449762037586 0.99667997556295 -0.028752502009383875
 -0.00041369883430151486 -0.003775873762549442 0.0004692695453376966 0.006017613089884652 0.99667997556295 -0.028752502009383875 0.002913348534239283 0.011671402149033484
0.050020842017509996 0.0031686153678177594 0.013416872116536908 0.9963422774713326 -0.032913456864362485 0.0005661194077784728 0.006880037435615301 -0.0004945499721627257 -0.004320325865918192
 0.9963422774713326 -0.032913456864362485 0.003169033655708079 0.013416813393209963 -0.0004947270917680238 -0.004320327958148793 0.0005641021334319786 0.006880272327808867
 0.0005661194077784728 0.006880037435615301 -0.0004947270917680238 -0.004320327958148793 0.003168584113342246 0.013417535169573535 0.9963422931815389 -0.032912787350169476
 -0.0004945499721627257 -0.004320325865918192 0.0005641021334319786 0.006880272327808867 0.9963422931815389 -0.032912787350169476 0.003169093988973925 0.013417476000967985
0.055454545454549996 0.0034041425518446787 0.014948389179936468 0.9960306576884533 -0.03654053941222127 0.0006566105864401821 0.007630070162544305 -0.0005712144332495492 -0.004794126793950308
 0.9960306576884533 -0.03654053941222127 0.0034046564656851465 0.014948318874799147 -0.000571431456481715 -0.004794126963498625 0.000654131490871974 0.007630359503520944
 0.0006566105864401821 0.007630070162544305 -0.000571431456481715 -0.004794126963498625 0.0034041039061439423 0.014949122683677948 0.9960306767766925 -0.036539796821599434
 -0.0005712144332495492 -0.004794126793950308 0.000654131490871974 0.007630359503520944 0.9960306767766925 -0.036539796821599434 0.0034047301179039977 0.014949052317487114
0.056273447269699996 0.003440730517325935 0.015180328307886367 0.9959822166599123 -0.037088102883369764 0.0006708706000560289 0.007743133331242688 -0.0005832887317802186 -0.004865579352991184
 0.9959822166599123 -0.037088102883369764 0.0034412596937820183 0.015180256154738283 -0.000583512111479699 -0.004865579183817939 0.0006683177712781014 0.007743431524549907
 0.0006708706000560289 0.007743133331242688 -0.000583512111479699 -0.004865579183817939 0.0034406906897594897 0.015181072392984388 0.9959822362868971 -0.03708734926806736
 -0.0005832887317802186 -0.004865579352991184 0.0006683177712781014 0.007743431524549907 0.9959822362868971 -0.03708734926806736 0.003441335464305664 0.01518100024254897
0.06252605252188 0.003729642360841851 0.016960868546875 0.9955994804219842 -0.041276981831487376 0.000785158218413081 0.008606600951130713 -0.0006800087165001156 -0.005411500680781537
 0.9955994804219842 -0.041276981831487376 0.003730295420165454 0.016960781370255276 -0.0006802835744757804 -0.005411497478617514 0.0007820066994460516 0.008606972621900775
 0.000785158218413081 0.008606600951130713 -0.0006802835744757804 -0.005411497478617514 0.003729592919889567 0.016961693110826084 0.9955995044232465 -0.041276143912676075
 -0.0006800087165001156 -0.005411500680781537 0.0007820066994460516 0.008606972621900775 0.9955995044232465 -0.041276143912676075 0.003730388314065344 0.01696160647196258
0.06877865777407 0.004035664197925056 0.0187581517803018 0.9951937683491437 -0.04548001121667225 0.0009090708153204613 0.009470316127018314 -0.0007848014988060462 -0.0059579555457258135
 0.9951937683491437 -0.04548001121667225 0.00403645412987587 0.018758047913256422 -0.0007851330142319817 -0.00595794847542536 0.0009052574210413223 0.009470772262818762
 0.0009090708153204613 0.009470316127018314 -0.0007851330142319817 -0.00595794847542536 0.004035604098062146 0.01875905621700526 0.9951937971919 -0.045479088768479635
 -0.0007848014988060462 -0.0059579555457258135 0.0009052574210413223 0.009470772262818762 0.9951937971919 -0.045479088768479635 0.004036565811065533 0.018758953502144297
0.07503126302626001 0.004359107327565967 0.020571855073752518 0.9947647804278305 -0.04969707892015798 0.0010426950785169323 0.010334150024261027 -0.000897756562148104 -0.0065048082672652325
 0.9947647804278305 -0.04969707892015798 0.004360047118699718 0.020571732775412035 -0.0008981498753754496 -0.006504796430088685 0.0010381565813543945 0.01033470243175699
 0.0010426950785169323 0.010334150024261027 -0.0008981498753754496 -0.006504796430088685 0.004359035516712343 0.020572838729142992 0.9947648145902125 -0.049696071688288886
 -0.000897756562148104 -0.0065048082672652325 0.0010381565813543945 0.01033470243175699 0.9947648145902125 -0.049696071688288886 0.004360179228241385 0.020572718269045637
0.08128386827845 0.004700281066231577 0.02240166755933357 0.9943122173194484 -0.05392804919558087 0.0011861157176414454 0.011197969575830724 -0.001018961232729859 -0.007051921382822415
 0.9943122173194484 -0.05392804919558087 0.004701383700844762 0.0224015250142792 -0.001019421445289812 -0.0070519038164076776 0.0011807888559998674 0.011198630888568723
 0.0011861157176414454 0.011197969575830724 -0.001019421445289812 -0.0070519038164076776 0.004700196484414529 0.022402729731944074 0.9943122572918683 -0.053926956896821206
 -0.001018961232729859 -0.007051921382822415 0.0011807888559998674 0.011198630888568723 0.9943122572918683 -0.053926956896821206 0.004701537856496434 0.02240258977492796
0.08753647353064001 0.005059492725006189 0.02424728625495952 0.9938357806030896 -0.05817276680202334 0.0013394153555678038 0.012061637786390295 -0.0011485006054811283 -0.007599155377986394
 0.9938357806030896 -0.05817276680202334 0.0050607711862271886 0.02424712157261086 -0.0011490327800131699 -0.007599131056341234 0.0013332368429631526 0.012062421472434278
 0.0013394153555678038 0.012061637786390295 -0.0011490327800131699 -0.007599131056341234 0.00505939430196017 0.02424842619188135 0.9938358268880461 -0.05817158912841347
 -0.0011485006054811283 -0.007599155377986394 0.0013332368429631526 0.012062421472434278 0.9938358268880461 -0.05817158912841347 0.005060948980405219 0.024248264903018592
0.09378907878283 0.005437047556709284 0.026108413072881136 0.9933351729913883 -0.06243105995380166 0.0015026744233900171 0.012925013959695603 -0.0012864574648392313 -0.008146368498679174
 0.9933351729913883 -0.06243105995380166 0.005438514827645317 0.026108224286745786 -0.0012870666248990367 -0.008146336332175182 0.0014955809587308686 0.012925934329155262
 0.0015026744233900171 0.012925013959695603 -0.0012870666248990367 -0.008146336332175182 0.005436934211185797 0.02610962997478321 0.9933352261055618 -0.06242979656768756
 -0.0012864574648392313 -0.008146368498679174 0.0014955809587308686 0.012925934329155262 0.9933352261055618 -0.06242979656768756 0.005438717827264819 0.02610944543501634
0.100041684035 0.0058332486835887785 0.027984752637972534 0.992810098531782 -0.06670274246641326 0.0016759710573939254 0.013787953869543906 -0.0014329122026558525 -0.008693416625381197
 0.992810098531782 -0.06670274246641326 0.005834917748195585 0.027984537704867328 -0.001433603332395592 -0.00869337546075908 0.0016678993359263569 0.013789026081918206
 0.0016759710573939254 0.013787953869543906 -0.001433603332395592 -0.00869337546075908 0.0058331193215445595 0.027986045655695322 0.9928101590067623 -0.06670139300415104
 -0.0014329122026558525 -0.008693416625381197 0.0016678993359263569 0.013789026081918206 0.9928101590067623 -0.06670139300415104 0.005835147493791797 0.027985835860877988
0.1059090909091 0.0062222680919635075 0.029759071955077557 0.9922948572171582 -0.07072326384199643 0.0018477881245782765 0.014597203220845989 -0.0015781426060064864 -0.009206482676827407
 0.9922948572171582 -0.07072326384199643 0.006224138328923106 0.02975883055854489 -0.0015789151532056846 -0.009206431962903503 0.0018387408447790255 0.014598432471965468
 0.0018477881245782765 0.014597203220845989 -0.0015789151532056846 -0.009206431962903503 0.006222122692242937 0.029760435583514645 0.9922949250973131 -0.07072183325204089
 -0.0015781426060064864 -0.009206482676827407 0.0018387408447790255 0.014598432471965468 0.9922949250973131 -0.07072183325204089 0.006224394549506302 0.02976020019000149
0.1062942892872 0.006248397009105486 0.02987601063686394 0.992260262792998 -0.07098761537806414 0.0018593809980463213 0.014650309899331717 -0.0015879427330270908 -0.009240153184436405
 0.992260262792998 -0.07098761537806414 0.006250280853183381 0.02987576743611719 -0.0015887207768313701 -0.009240101804847458 0.0018502677229424798 0.014651549970617088
 0.0018593809980463213 0.014650309899331717 -0.0015887207768313701 -0.009240101804847458 0.006248250522138364 0.029877378871985907 0.9922603311765171 -0.07098617944980645
 -0.0015879427330270908 -0.009240153184436405 0.0018502677229424798 0.014651549970617088 0.9922603311765171 -0.07098617944980645 0.006250538857996197 0.02987714173178882
0.11254689453939999 0.006682791118162694 0.03178189257015667 0.9916853730456184 -0.0752854681747594 0.002052977489948348 0.01551193115519083 -0.0017516244054567663 -0.009786429091520039
 0.9916853730456184 -0.0752854681747594 0.006684902730385312 0.03178161890268624 -0.001752494267590269 -0.009786366216545363 0.002042759384265436 0.015513355964925247
 0.002052977489948348 0.01551193115519083 -0.001752494267590269 -0.009786366216545363 0.006682626381833204 0.031783335077466106 0.9916854499023451 -0.07528394536226617
 -0.0017516244054567663 -0.009786429091520039 0.002042759384265436 0.015513355964925247 0.9916854499023451 -0.07528394536226617 0.0066851904789123505 0.03178306841431749
0.11879949979160001 0.007136727167954117 0.03370210277880329 0.9910851384341791 -0.0795960797477676 0.0022568311825506347 0.01637266356517462 -0.0019240299164207605 -0.01033209271509677
 0.9910851384341791 -0.0795960797477676 0.007139079540760088 0.03370179636616198 -0.0019249964604868275 -0.010332017000813704 0.0022454450020772815 0.016374290863117775
 0.0022568311825506347 0.01637266356517462 -0.0019249964604868275 -0.010332017000813704 0.007136543040277489 0.03370361856178021 0.991085224346791 -0.07959446960940902
 -0.0019240299164207605 -0.01033209271509677 0.0022454450020772815 0.016374290863117775 0.991085224346791 -0.07959446960940902 0.007139398488211423 0.03370332010964245
0.1250521050438 0.007610498771809276 0.03563634367314587 0.9904592701464251 -0.08391921915563083 0.00247101003182794 0.017232349965388177 -0.0021052292196357164 -0.010876989858831305
 0.9904592701464251 -0.08391921915563083 0.007613104902687815 0.03563600215647595 -0.0021062972682111625 -0.010876899897881133 0.0024583925782422655 0.017234198378117824
 0.00247101003182794 0.017232349965388177 -0.0021062972682111625 -0.010876899897881133 0.007610294091798969 0.03563793169062621 0.9904593657170241 -0.0839175212202308
 -0.0021052292196357164 -0.010876989858831305 0.0024583925782422655 0.017234198378117824 0.9904593657170241 -0.0839175212202308 0.007613456473715463 0.0356375990937145
0.131304710296 0.008104396877469233 0.037584315128113374 0.9898074815786292 -0.08825464622686992 0.0026955792025436607 0.018090830179163464 -0.0022952894357586595 -0.011420963757232094
 0.9898074815786292 -0.08825464622686992 0.008107269769219189 0.0375839360671301 -0.002296463769659235 -0.01142085807889244 0.002681667336846417 0.018092919216366066
 0.0026955792025436607 0.018090830179163464 -0.002296463769659235 -0.01142085807889244 0.008104170463250496 0.03758597429037147 0.9898075874295447 -0.0882528599982824
 -0.0022952894357586595 -0.011420963757232094 0.002681667336846417 0.018092919216366066 0.9898075874295447 -0.0882528599982824 0.008107655357143745 0.03758560510184047
0.1375573155481 0.008506272589036388 0.03929097774276089 0.9892419709261847 -0.09234725904852112 0.00290258387859129 0.01892233449617707 -0.0024662736375381006 -0.011938253477562439
 0.9892419709261847 -0.09234725904852112 0.008509425196956839 0.039290568496142105 -0.002467561064069624 -0.01193813193155151 0.002887341015045147 0.01892466141937579
 0.00290258387859129 0.01892233449617707 -0.002467561064069624 -0.01193813193155151 0.008506022315161677 0.03929270772330515 0.9892420875399015 -0.0923453842157245
 -0.0024662736375381006 -0.011938253477562439 0.002887341015045147 0.01892466141937579 0.9892420875399015 -0.0923453842157245 0.00850984738186376 0.03929230803561967
0.1438099208003 0.008922306935900464 0.040988469125000725 0.9886565254223468 -0.09642932725342572 0.003117951167480881 0.019750399178013633 -0.0026440981071013986 -0.01245239751056314
 0.9886565254223468 -0.09642932725342572 0.008925752230417435 0.040988027985399925 -0.00264550371260922 -0.012452258655928033 0.003101319051797654 0.019752981921354194
 0.003117951167480881 0.019750399178013633 -0.00264550371260922 -0.012452258655928033 0.00892203141912105 0.040990268851453154 0.9886566534222593 -0.09642736332661979
 -0.0026440981071013986 -0.01245239751056314 0.003101319051797654 0.019752981921354194 0.9886566534222593 -0.09642736332661979 0.008926212575601798 0.04098983680987172
0.1500625260525 0.009352351029090005 0.042676642354868045 0.98805129822944 -0.10050074438035912 0.003341605587326705 0.020574936973758527 -0.0028286895177518307 -0.012963313508355558
 0.98805129822944 -0.10050074438035912 0.009356101979309948 0.04267616753335453 -0.0028302183730322646 -0.012963155846898123 0.003323526329049075 0.020577794126141778
 0.003341605587326705 0.020574936973758527 -0.0028302183730322646 -0.012963155846898123 0.009352048854003266 0.04267851071498679 0.9880514382560195 -0.10049869085198253
 -0.0028286895177518307 -0.012963313508355558 0.003323526329049075 0.020577794126141778 0.9880514382560195 -0.10049869085198253 0.0093566020318233 0.042678044371548075
0.15631513130469998 0.009796254891268775 0.044355354936801455 0.9874264433250936 -0.10456140445376338 0.0035734707442059924 0.02139586213689427 -0.003019973620907303 -0.01347092089378562
 0.9874264433250936 -0.10456140445376338 0.009800324465292255 0.04435484456226647 -0.00302163078110756 -0.013470742870368826 0.00355388682312077 0.021399012934563165
