! Created with skrf 1.8.0 (http://scikit-rf.org).
# GHz S RI R 50.0 
!freq ReS11 ImS11 ReS12 ImS12 ReS13 ImS13
! ReS14 ImS14
! ReS21 ImS21 ReS22 ImS22 ReS23 ImS23
! ReS24 ImS24
! ReS31 ImS31 ReS32 ImS32 ReS33 ImS33
! ReS34 ImS34
! ReS41 ImS41 ReS42 ImS42 ReS43 ImS43
! ReS44 ImS44
!
0.0 0.001682565551611 0.0 0.998317434426 0.0 6.538319559743e-05 0.0 -6.538319534769e-05 8.007132090057467e-21
 0.998317434426 0.0 0.001682565551634 0.0 -6.538319534828e-05 8.007132090129721e-21 6.538319559817e-05 0.0
 6.538319559743e-05 0.0 -6.538319534828e-05 8.007132090129721e-21 0.001682565552254 0.0 0.9983174344266 0.0
 -6.538319534769e-05 8.007132090057467e-21 6.538319559817e-05 0.0 0.9983174344266 0.0 0.001682565552242 0.0
0.005 0.001810799724831036 0.0013713710407131116 0.9981551166104747 -0.003524348694731443 9.255431706724394e-05 0.0007485818441888647 -8.970995984107685e-05 -0.0004648616582482895
 0.9981551166104747 -0.003524348694731443 0.001810797256630158 0.001371372416344806 -8.970667010229513e-05 -0.00046485911259145767 9.258573181645109e-05 0.0007485699509810586
 9.255431706724394e-05 0.0007485818441888647 -8.970667010229513e-05 -0.00046485911259145767 0.0018108018786145228 0.0013714370158855885 0.9981551169846504 -0.003524281635455026
 -8.970995984107685e-05 -0.0004648616582482895 9.258573181645109e-05 0.0007485699509810586 0.9981551169846504 -0.003524281635455026 0.0018107958433729121 0.001371440552104826
0.006252605252188 0.0018445649833740928 0.00171961173676928 0.9981120859059374 -0.004406278629997605 0.00010038495723831851 0.0009360685678134012 -9.664554967360281e-05 -0.0005816762347649388
 0.9981120859059374 -0.004406278629997605 0.001844561125596309 0.0017196134809902585 -9.664043075857566e-05 -0.0005816730961768198 0.00010043404037162921 0.0009360531069627011
 0.00010038495723831851 0.0009360685678134012 -9.664043075857566e-05 -0.0005816730961768198 0.001844568273634263 0.001719694191702764 0.9981120864139615 -0.004406194811436983
 -9.664554967360281e-05 -0.0005816762347649388 0.00010043404037162921 0.0009360531069627011 0.9981120864139615 -0.004406194811436983 0.0018445588389016557 0.0017196986462885112
0.01250521050438 0.002023088401789847 0.0034752196002776534 0.9978829730147454 -0.008813233338719192 0.00014565114365162272 0.001872354287487812 -0.00013635781942393567 -0.0011661079811716578
 0.9978829730147454 -0.008813233338719192 0.0020230730040997564 0.0034752233131308263 -0.00013633764844670545 -0.0011661021837333686 0.00014584689581847106 0.0018723169251882853
 0.00014565114365162272 0.001872354287487812 -0.00013633764844670545 -0.0011661021837333686 0.0020231009714931627 0.0034753841558343296 0.9978829744725737 -0.008813065929875763
 -0.00013635781942393567 -0.0011661079811716578 0.00014584689581847106 0.0018723169251882853 0.9978829744725737 -0.008813065929875763 0.0020230632928808154 0.003475393418869739
0.01875781575657 0.002218553643932497 0.005255707699373645 0.9976297911498598 -0.01323156201334346 0.00020129110580798733 0.002809494609747873 -0.0001846488120197987 -0.0017523940222419028
 0.9976297911498598 -0.01323156201334346 0.0022185190570726144 0.005255713563540038 -0.00018460383362678786 -0.0017523861451322483 0.00020173088855925757 0.002809427574180482
 0.00020129110580798733 0.002809494609747873 -0.00018460383362678786 -0.0017523861451322483 0.0022185814743746314 0.005255954053218482 0.9976297940088371 -0.013231311078362678
 -0.0001846488120197987 -0.0017523940222419028 0.00020173088855925757 0.002809427574180482 0.9976297940088371 -0.013231311078362678 0.0022184967980218113 0.0052559685382327125
0.02501042100875 0.002431364508147664 0.007058538588432586 0.9973522229824582 -0.01766337029431854 0.0002674153655814285 0.003747513845737458 -0.0002416424053095119 -0.002340238528830985
 0.9973522229824582 -0.01766337029431854 0.002431303104554115 0.007058546741645839 -0.00024156298255199418 -0.002340229260441026 0.0002681966020386266 0.0037474080712613877
 0.0002674153655814285 0.003747513845737458 -0.00024156298255199418 -0.002340229260441026 0.0024314135653635636 0.007058866379451028 0.9973522276902757 -0.017663035846203313
 -0.0002416424053095119 -0.002340238528830985 0.0002681966020386266 0.0037474080712613877 0.9973522276902757 -0.017663035846203313 0.0024312631662876416 0.007058886551584867
0.03126302626094 0.0026619080303026733 0.008882387941070453 0.9970499360785464 -0.022109536880290357 0.00034413453611820415 0.004686346031136069 -0.00030745847594053187 -0.0029294282647563574
 0.9970499360785464 -0.022109536880290357 0.0026618121977582203 0.00888239847434975 -0.0003073350704686335 -0.002929418403817028 0.0003453547983271683 0.004686191149097952
 0.00034413453611820415 0.004686346031136069 -0.0003073350704686335 -0.002929418403817028 0.0026619842754842388 0.008882796735987838 0.9970499430887355 -0.022109118893779228
 -0.00030745847594053187 -0.0029294282647563574 0.0003453547983271683 0.004686191149097952 0.9970499430887355 -0.022109118893779228 0.0026617494463670793 0.008882823110762019
0.037515631513130004 0.0029105625013359166 0.010726378270345581 0.9967225912386506 -0.026570479748598604 0.00043155822143017006 0.005625889274125139 -0.00038221379147865975 -0.0035197782658425614
 0.9967225912386506 -0.026570479748598604 0.0029104246372959053 0.010726391226614776 -0.0003820369535162874 -0.0035197687217399776 0.0004333152690615415 0.005625673598804215
 0.00043155822143017006 0.005625889274125139 -0.0003820369535162874 -0.0035197687217399776 0.0029106718865505262 0.010726867553167539 0.9967226010066508 -0.026569978170009372
 -0.00038221379147865975 -0.0035197782658425614 0.0004333152690615415 0.005625673598804215 0.9967226010066508 -0.026569978170009372 0.002910333929778172 0.010726900696088466
0.043768236765320004 0.0031777005483001317 0.0125898457069425 0.9963698459013566 -0.031046389307785353 0.0005297944927247371 0.006566022273089759 -0.0004660223132629679 -0.0041111153461486204
 0.9963698459013566 -0.031046389307785353 0.0031775130554997024 0.012589861079650754 -0.0004657826757777426 -0.0041111071389709685 0.0005321862903887881 0.006565732786153116
 0.0005297944927247371 0.006566022273089759 -0.0004657826757777426 -0.0041111071389709685 0.00317784901822449 0.01259041487213398 0.9963698588875425 -0.031045804060823134
 -0.0004660223132629679 -0.0041111153461486204 0.0005321862903887881 0.006565732786153116 0.9963698588875425 -0.031045804060823134 0.003177389239820779 0.01259045539881236
0.050020842017509996 0.003463690552737007 0.014472243641781502 0.9959913558885148 -0.03553732468452462 0.0006389495601729762 0.007506611161861058 -0.0005589952973174747 -0.004703271279339044
 0.9959913558885148 -0.03553732468452462 0.003463445834211566 0.014472261373809208 -0.0005586835723092696 -0.004703265539864408 0.0006420742839655182 0.007506233496199197
 0.0006389495601729762 0.007506611161861058 -0.0005586835723092696 -0.004703265539864408 0.003463884045513912 0.014472891994225285 0.9959913725599082 -0.0355366556694153
 -0.0005589952973174747 -0.004703271279339044 0.0006420742839655182 0.007506233496199197 0.9959913725599082 -0.0355366556694153 0.003463283749644731 0.014472940570739822
0.055454545454549996 0.0037278180733065656 0.016123106938962625 0.9956412610266001 -0.03945226864245235 0.0007427569337684403 0.008324270723254479 -0.0006473186809097155 -0.005218408345995331
 0.9956412610266001 -0.03945226864245235 0.003727517450829046 0.01612312663487716 -0.0006469368262410167 -0.005218405755275376 0.0007465984873509895 0.008323803699854948
 0.0007427569337684403 0.008324270723254479 -0.0006469368262410167 -0.005218405755275376 0.003728055507348532 0.016123823472140624 0.9956412812840599 -0.039451526731637834
 -0.0006473186809097155 -0.005218408345995331 0.0007465984873509895 0.008323803699854948 0.9956412812840599 -0.039451526731637834 0.0037273179087782718 0.016123879624730598
0.056273447269699996 0.0037688973678030036 0.016373095417696295 0.9955867764526258 -0.04004326096476809 0.0007591275359454736 0.00844751286962947 -0.0006612413004304636 -0.005296079470263648
 0.9955867764526258 -0.04004326096476809 0.003768587821986397 0.016373115400342947 -0.0006608482765358047 -0.005296077439889981 0.0007630835726577613 0.008447031292906597
 0.0007591275359454736 0.00844751286962947 -0.0006608482765358047 -0.005296077439889981 0.003769141811982252 0.016373822173937784 0.9955867972818654 -0.04004250805611635
 -0.0006612413004304636 -0.005296079470263648 0.0007630835726577613 0.008447031292906597 0.9955867972818654 -0.04004250805611635 0.0037683822955977145 0.016373879517361134
0.06252605252188 0.0040936826846165765 0.01829196833598662 0.9951557629798266 -0.04456411512524686 0.0008904302396485814 0.009388576973844653 -0.0007728661401701931 -0.005889373139434431
 0.9951557629798266 -0.04456411512524686 0.004093300701079104 0.018291990408028046 -0.0007723826811101615 -0.0058893761701032 0.0008953161821100161 0.009387974371935864
 0.0008904302396485814 0.009388576973844653 -0.0007723826811101615 -0.0058893761701032 0.0040939839999214744 0.018292772616854355 0.9951557884471005 -0.04456327817845873
 -0.0007728661401701931 -0.005889373139434431 0.0008953161821100161 0.009387974371935864 0.9951557884471005 -0.04456327817845873 0.004093046548220843 0.01829283949591267
0.06877865777407 0.004438405212197784 0.020228458154740628 0.994697971509687 -0.04909976147935036 0.0010329570289934044 0.01032964681741631 -0.0008939728276624922 -0.0064829842497258474
 0.994697971509687 -0.04909976147935036 0.004437943166627234 0.02022848210173741 -0.0008933898712486491 -0.0064829938038038605 0.0010388716678775916 0.010328904677881067
 0.0010329570289934044 0.01032964681741631 -0.0008933898712486491 -0.0064829938038038605 0.004438769307817116 0.020229338992247523 0.9946980021031169 -0.049098840322835444
 -0.0008939728276624922 -0.0064829842497258474 0.0010388716678775916 0.010328904677881067 0.9946980021031169 -0.049098840322835444 0.004437635189162085 0.020229416228255193
0.07503126302626001 0.004803420741946031 0.022182179273929847 0.9942130591447955 -0.05365004144358088 0.0011868046446957263 0.011270560226598256 -0.0010246614838990535 -0.007076742839405677
 0.9942130591447955 -0.05365004144358088 0.004802870991301858 0.022182204827597425 -0.0010239700414085547 -0.007076760489580001 0.0011938469578453433 0.011269658622205702
 0.0011868046446957263 0.011270560226598256 -0.0010239700414085547 -0.007076760489580001 0.00480385351602036 0.0221831356020071 0.9942130953621243 -0.05364903588721663
 -0.0010246614838990535 -0.007076742839405677 0.0011938469578453433 0.011269658622205702 0.9942130953621243 -0.05364903588721663 0.004802503977539602 0.022183224069873848
0.08128386827845 0.005189082143566445 0.024152758203478997 0.9937006843972521 -0.05821477002878296 0.0013520670640176113 0.01221115000116163 -0.001165029245363885 -0.007670476590154209
 0.9937006843972521 -0.05821477002878296 0.005188437021418458 0.024152785041179747 -0.0011642204012405307 -0.007670504019288266 0.001360336204233942 0.012210067573480815
 0.0013520670640176113 0.01221115000116163 -0.0011642204012405307 -0.007670504019288266 0.005189589481545672 0.02415378886074194 0.9937007267455504 -0.058213679860203225
 -0.001165029245363885 -0.007670476590154209 0.001360336204233942 0.012210067573480815 0.9937007267455504 -0.058213679860203225 0.005188005744754943 0.02415388949014204
0.08753647353064001 0.005595739311965302 0.026139829054005966 0.9931605074884582 -0.06279374031684737 0.001528835360794625 0.013151244260667862 -0.0013151701619860843 -0.008264010546551603
 0.9931605074884582 -0.06279374031684737 0.005594991123522011 0.02613985679851136 -0.0013142350738417404 -0.008264049547538769 0.0015384306417676249 0.013149958203925227
 0.001528835360794625 0.013151244260667862 -0.0013142350738417404 -0.008264049547538769 0.0055963270857299794 0.026140932781481226 0.993160556485883 -0.06279256530309013
 -0.0013151701619860843 -0.008264010546551603 0.0015384306417676249 0.013149958203925227 0.993160556485883 -0.06279256530309013 0.005594490341458505 0.026141046558245576
0.09378907878283 0.00602373908264032 0.02814303032115075 0.9925921906234186 -0.06738672665263204 0.001717197568882941 0.014090666710361742 -0.0014751750903505467 -0.008857166923794195
 0.9925921906234186 -0.06738672665263204 0.006022880099562476 0.028143058540419843 -0.001474104988994427 -0.008857219399391854 0.0017282184499411942 0.01408915275537054
 0.001717197568882941 0.014090666710361742 -0.001474104988994427 -0.008857219399391854 0.006024413149162576 0.028144205762526048 0.9925922467996188 -0.06738546653908828
 -0.0014751750903505467 -0.008857166923794195 0.0017282184499411942 0.01408915275537054 0.9925922467996188 -0.06738546653908828 0.006022304553544218 0.028144333730101348
0.100041684035 0.006473425122683747 0.03016200253627715 0.9919953982430627 -0.0719934869784543 0.00191723854866231 0.01502923684523066 -0.0016451315828598747 -0.009449764985190666
 0.9919953982430627 -0.0719934869784543 0.006472447578191683 0.030162030743503224 -0.001643917772654377 -0.009449832947836814 0.0019297846182718078 0.015027469243594552
 0.00191723854866231 0.01502923684523066 -0.001643917772654377 -0.009449832947836814 0.006474191322742286 0.03016324823667886 0.9919954621405997 -0.07199214148941213
 -0.0016451315828598747 -0.009449764985190666 0.0019297846182718078 0.015027469243594552 0.9919954621405997 -0.07199214148941213 0.006471791992132915 0.030163391497915498
0.1059090909091 0.0069154344462163736 0.03207061735637735 0.9914091769843741 -0.07632874174931832 0.0021156501981815334 0.015909045859266804 -0.0018137435555176755 -0.010005183971699676
 0.9914091769843741 -0.07632874174931832 0.006914338541713944 0.03207064506092357 -0.001812387046991547 -0.010005268395118888 0.0021297181701294757 0.01590701548788838
 0.0021156501981815334 0.015909045859266804 -0.001812387046991547 -0.010005268395118888 0.006916292400157576 0.032071927575064246 0.9914092486327656 -0.07632731587572163
 -0.0018137435555176755 -0.010005183971699676 0.0021297181701294757 0.01590701548788838 0.9914092486327656 -0.07632731587572163 0.0069136030323032 0.03207208624527317
0.1062942892872 0.006945137805015257 0.032196386500587995 0.9913697972647743 -0.07661376459442214 0.0021290398554372936 0.015966770119525516 -0.001825123774263344 -0.01004162096242471
 0.9913697972647743 -0.07661376459442214 0.006944033888624852 0.032196414154376456 -0.0018237576334181724 -0.01004170653404055 0.002143210814113649 0.01596472162802706
 0.0021290398554372936 0.015966770119525516 -0.0018237576334181724 -0.01004170653404055 0.006946001961720262 0.03219770090514037 0.9913698694395086 -0.0766123334339448
 -0.001825123774263344 -0.01004162096242471 0.002143210814113649 0.01596472162802706 0.9913698694395086 -0.0766123334339448 0.006943292968778162 0.03219786062404736
0.11254689453939999 0.007439214069405647 0.03424582195323828 0.9907150573119144 -0.08124728949446186 0.002352679609786845 0.01690307809017634 -0.0020152322661504754 -0.01063254801021624
 0.9907150573119144 -0.08124728949446186 0.0074379759216933105 0.0342458484579309 -0.00201370524727157 -0.010632653421984628 0.002368575251573321 0.01690071995544494
 0.002352679609786845 0.01690307809017634 -0.00201370524727157 -0.010632653421984628 0.007440181986605404 0.03424720340640859 0.990715138333846 -0.0812457723464231
 -0.0020152322661504754 -0.01063254801021624 0.002368575251573321 0.01690071995544494 0.990715138333846 -0.0812457723464231 0.0074371443552783585 0.03424738081027832
0.11879949979160001 0.00795598727253201 0.0363099465260004 0.9900308509358692 -0.08589377942557251 0.002588232368877269 0.01783796854188403 -0.002215534010139406 -0.011222356187820467
 0.9900308509358692 -0.08589377942557251 0.007954606979609345 0.03630997123226735 -0.0022138376407488973 -0.011222483779945306 0.002605952562314575 0.017835270485345358
 0.002588232368877269 0.01783796854188403 -0.0022138376407488973 -0.011222483779945306 0.007957064733631256 0.03631139327367921 0.9900309413905103 -0.08589217595107489
 -0.002215534010139406 -0.011222356187820467 0.002605952562314575 0.017835270485345358 0.9900309413905103 -0.08589217595107489 0.007953679434621524 0.03631158965526201
0.1250521050438 0.008495787030564543 0.0383883949444881 0.9893168538343718 -0.09055294071062668 0.002835768999094233 0.018771245603812003 -0.002426102189907129 -0.011810852457495807
 0.9893168538343718 -0.09055294071062668 0.008494256619196361 0.03838841714996506 -0.002424228073125915 -0.011811004678941646 0.002855413667567659 0.018768175806900156
 0.002835768999094233 0.018771245603812003 -0.002424228073125915 -0.011811004678941646 0.00849697979703314 0.0383899051271919 0.9893169543234682 -0.09055125055440869
 -0.002426102189907129 -0.011810852457495807 0.002855413667567659 0.018768175806900156 0.9893169543234682 -0.09055125055440869 0.008493227743490024 0.03839012184714318
0.131304710296 0.009058939055283804 0.040480798376501995 0.9885727450638516 -0.09522446893438684 0.0030953565498791605 0.019702709856747096 -0.0026470061029132985 -0.012397840701290342
 0.9885727450638516 -0.09522446893438684 0.009057250486937238 0.04048081732675577 -0.0026449459180831122 -0.012398020109534608 0.0031170256508829246 0.019699234946439617
 0.0030953565498791605 0.019702709856747096 -0.0026449459180831122 -0.012398020109534608 0.009060252864941568 0.04048237003561933 0.9885728562065146 -0.09522269171814184
 -0.0026470061029132985 -0.012397840701290342 0.0031170256508829246 0.019699234946439617 0.9885728562065146 -0.09522269171814184 0.009056114907746327 0.04048260852505979
0.1375573155481 0.009521498766952876 0.04231329314797485 0.9879225326323533 -0.09963440401795212 0.00333566960253639 0.020605093163633556 -0.0028469043466721605 -0.012956100287584194
 0.9879225326323533 -0.09963440401795212 0.009519641822709415 0.04231330564278396 -0.002844645652425834 -0.012956307252171242 0.0033594108557118605 0.020601216360313562
 0.00333566960253639 0.020605093163633556 -0.002844645652425834 -0.012956307252171242 0.009522938760155083 0.042314924537258894 0.9879226549272244 -0.09963253952031455
 -0.0028469043466721605 -0.012956100287584194 0.0033594108557118605 0.020601216360313562 0.9879226549272244 -0.09963253952031455 0.009518394977094665 0.042315183586108196
0.1438099208003 0.010000468050434244 0.044135201083404296 0.9872491724652832 -0.10403223196254877 0.0035856668447509232 0.02150332094226424 -0.0030547732530153025 -0.01351052655805869
 0.9872491724652832 -0.10403223196254877 0.009998434247431057 0.044135206272846325 -0.0030523070969318954 -0.01351076361228927 0.0036115708339492128 0.021499011571436445
 0.0035856668447509232 0.02150332094226424 -0.0030523070969318954 -0.01351076361228927 0.010002039826178455 0.04413689018306034 0.9872493065314359 -0.10403027981469583
 -0.0030547732530153025 -0.01351052655805869 0.0036115708339492128 0.021499011571436445 0.9872493065314359 -0.10403027981469583 0.009997070876646127 0.04413717117129339
0.1500625260525 0.010495664399567286 0.04594634257595639 0.98655285187039 -0.10841781580651404 0.0038452534599654376 0.022397285011634148 -0.0032705200954210607 -0.014061016768143288
 0.98655285187039 -0.10841781580651404 0.01049344517648677 0.04594633960148986 -0.0032678375488624785 -0.014061286547071984 0.0038734102011915607 0.02239251127072709
 0.0038452534599654376 0.022397285011634148 -0.0032678375488624785 -0.014061286547071984 0.010497373527778471 0.0459480872851572 0.9865529983411017 -0.10841577562636302
 -0.0032705200954210607 -0.014061016768143288 0.0038734102011915607 0.02239251127072709 0.9865529983411017 -0.10841577562636302 0.010491960010080854 0.04594839167628099
0.15631513130469998 0.011006903840530722 0.04774654338447517 0.9858337592999461 -0.11279101968073496 0.004114333413561247 0.023286879223185144 -0.00349405091238022 -0.014607470510481451
 0.9858337592999461 -0.11279101968073496 0.011004490555751062 0.04774653138173022 -0.0034911430709522596 -0.014607775750431847 0.004144832346620136 0.023281608193117146
