! Created with skrf 1.8.0 (http://scikit-rf.org).
# GHz S RI R 50.0 
!freq ReS11 ImS11 ReS12 ImS12 ReS13 ImS13
! ReS14 ImS14
! ReS21 ImS21 ReS22 ImS22 ReS23 ImS23
! ReS24 ImS24
! ReS31 ImS31 ReS32 ImS32 ReS33 ImS33
! ReS34 ImS34
! ReS41 ImS41 ReS42 ImS42 ReS43 ImS43
! ReS44 ImS44
!
0.0 0.00161009273734 0.0 0.9983899072622 0.0 6.243587884903e-05 0.0 -6.243587840498e-05 7.646189864061211e-21
 0.9983899072622 0.0 0.001610092737354 0.0 -6.243587840571e-05 7.646189864150609e-21 6.243587884985e-05 0.0
 6.243587884903e-05 0.0 -6.243587840571e-05 7.646189864150609e-21 0.001610092737348 0.0 0.9983899072622 0.0
 -6.243587840498e-05 7.646189864061211e-21 6.243587884985e-05 0.0 0.9983899072622 0.0 0.00161009273732 0.0
0.005 0.0017325716062409086 0.0013129483534536962 0.9982349023036357 -0.003372693944908849 8.826609202891517e-05 0.0007125868428348382 -8.551156028139429e-05 -0.0004429393322228239
 0.9982349023036357 -0.003372693944908849 0.0017325888303391219 0.0013129383134692486 -8.551641504176498e-05 -0.00044294305148668704 8.814390637972033e-05 0.0007126333654309233
 8.826609202891517e-05 0.0007125868428348382 -8.551641504176498e-05 -0.00044294305148668704 0.0017325688005680976 0.0013128827522953157 0.9982349019398642 -0.0033727610035685566
 -8.551156028139429e-05 -0.0004429393322228239 8.814390637972033e-05 0.0007126333654309233 0.9982349019398642 -0.0033727610035685566 0.0017325909137055433 0.0013128698008386893
0.006252605252188 0.0017647533450834247 0.0016463606503103272 0.9981939038606301 -0.004216684282830568 9.569337853930532e-05 0.0008910623473199048 -9.205815824422815e-05 -0.0005542486628268802
 0.9981939038606301 -0.004216684282830568 0.0017647802691686625 0.0016463478763666527 -9.206571271503496e-05 -0.0005542532480168547 9.55024751308679e-05 0.0008911227701347893
 9.569337853930532e-05 0.0008910623473199048 -9.206571271503496e-05 -0.0005542532480168547 0.0017647490346817901 0.0016462786522950187 0.9981939033678219 -0.004216768107921206
 -9.205815824422815e-05 -0.0005542486628268802 9.55024751308679e-05 0.0008911227701347893 0.9981939033678219 -0.004216768107921206 0.0017647836020493503 0.0016462622323179408
0.01250521050438 0.0019345100938537173 0.003327267505069782 0.9979761451533677 -0.008434124884963175 0.0001385381014742013 0.0017823709334547344 -0.0001293716530167006 -0.0011111657052449118
 0.9979761451533677 -0.008434124884963175 0.0019346176003051906 0.0033272397241255708 -0.0001294014254340093 -0.0011111741726102847 0.0001377768251240133 0.0017825163300408187
 0.0001385381014742013 0.0017823709334547344 -0.0001294014254340093 -0.0011111741726102847 0.001934493434906514 0.0033271038447543473 0.9979761437407192 -0.008434292284834798
 -0.0001293716530167006 -0.0011111657052449118 0.0001377768251240133 0.0017825163300408187 0.9979761437407192 -0.008434292284834798 0.0019346314702033583 0.0033270686628703045
0.01875781575657 0.0021197472775800552 0.005032099534661521 0.9977363509409587 -0.012662575137456533 0.00019107010707031217 0.0026745369816525083 -0.00017449483949090404 -0.0016699053896718449
 0.9977363509409587 -0.012662575137456533 0.002119988846832763 0.005032054419403224 -0.00017456123404509973 -0.0016699168946142649 0.00018935999079922007 0.00267479686029182
 0.00019107010707031217 0.0026745369816525083 -0.00017456123404509973 -0.0016699168946142649 0.002119710254505865 0.005031854470517571 0.997736348180651 -0.012662826034483637
 -0.00017449483949090404 -0.0016699053896718449 0.00018935999079922007 0.00267479686029182 0.997736348180651 -0.012662826034483637 0.0021200204403620682 0.005031797962214135
0.02501042100875 0.0023208370070478043 0.006758445031426949 0.9974742296374272 -0.016904066904152967 0.00025339128749775125 0.003567590340148641 -0.00022754187876568673 -0.002230196647138052
 0.9974742296374272 -0.016904066904152967 0.0023212660119360544 0.00675838017826652 -0.00022765912751464715 -0.002230210189085517 0.0002503537371064498 0.003567999003911806
 0.00025339128749775125 0.003567590340148641 -0.00022765912751464715 -0.002230210189085517 0.0023207716245785643 0.0067581188754760576 0.9974742251081604 -0.016904401259327437
 -0.00022754187876568673 -0.002230196647138052 0.0002503537371064498 0.003567999003911806 0.9974742251081604 -0.016904401259327437 0.0023213225166226975 0.006758038278587152
0.03126302626094 0.002538135972203694 0.008505053700277779 0.9971894753031268 -0.021159458471065352 0.00032560400253016077 0.0044614754551464 -0.0002886234232829734 -0.0027918470304782094
 0.9971894753031268 -0.021159458471065352 0.0025388057092984562 0.008504966633761893 -0.0002888056152003501 -0.0027918614510980054 0.00032085995227641934 0.00446207203018151
 0.00032560400253016077 0.0044614754551464 -0.0002888056152003501 -0.0027918614510980054 0.0025380342400710934 0.008504646837149235 0.9971894685775067 -0.021159876265240365
 -0.0002886234232829734 -0.0027918470304782094 0.00032085995227641934 0.00446207203018151 0.9971894685775067 -0.021159876265240365 0.0025388943054993423 0.008504539196159708
0.037515631513130004 0.0027719929559705063 0.010271103366390246 0.9968817754253531 -0.02542916777876248 0.00040780996404630765 0.005356102895056292 -0.0003578474502456673 -0.003354691192785563
 0.9968817754253531 -0.02542916777876248 0.0027729566679380265 0.010270991541914479 -0.0003581085459870009 -0.0033547051754824844 0.000400979726235749 0.005356931378540179
 0.00040780996404630765 0.005356102895056292 -0.0003581085459870009 -0.0033547051754824844 0.002771846895088408 0.010270616246216094 0.9968817660770118 -0.025429669020626478
 -0.0003578474502456673 -0.003354691192785563 0.000400979726235749 0.005356931378540179 0.9968817660770118 -0.025429669020626478 0.002773084538112312 0.010270478413617359
0.043768236765320004 0.0030227517379894453 0.01205597681188601 0.9965508140926527 -0.02971339551563323 0.0005001097099342722 0.006251365038914388 -0.00043531955528590936 -0.003918575207859097
 0.9965508140926527 -0.02971339551563323 0.0030240626319714622 0.012055837617650542 -0.0004356733958449535 -0.0039185872775896 0.0004908129076628825 0.006252474353115701
 0.0005001097099342722 0.006251365038914388 -0.0004356733958449535 -0.0039185872775896 0.0030225533759911556 0.012055409967221322 0.9965508016917578 -0.02971398022586825
 -0.00043531955528590936 -0.003918575207859097 0.0004908129076628825 0.006252474353115701 0.9965508016917578 -0.02971398022586825 0.0030242369581992023 0.012055238603898398
0.050020842017509996 0.0032907524345095994 0.013859169557752439 0.996196273609126 -0.034012217264748595 0.0006026022868791012 0.007147142548740562 -0.0005211430531417935 -0.004483350111190224
 0.996196273609126 -0.034012217264748595 0.0032924636989462054 0.013859000315988673 -0.0005216033653733876 -0.004483358634418378 0.0005904578309759718 0.007148586597435559
 0.0006026022868791012 0.007147142548740562 -0.0005216033653733876 -0.004483358634418378 0.0032904938076826866 0.013858523604432139 0.996196257723908 -0.034012885476115674
 -0.0005211430531417935 -0.004483350111190224 0.0005904578309759718 0.007148586597435559 0.996196257723908 -0.034012885476115674 0.003292691665487424 0.013858315179265375
0.055454545454549996 0.003537917607932765 0.015440735614723283 0.9958687706622082 -0.03775987388766839 0.0007000249035251224 0.007925919755925657 -0.0006025871638067938 -0.004974765816631181
 0.9958687706622082 -0.03775987388766839 0.003540019998969108 0.015440538035570791 -0.0006031510650869546 -0.00497476980812312 0.000685095708480398 0.007927702387615582
 0.0007000249035251224 0.007925919755925657 -0.0006031510650869546 -0.00497476980812312 0.0035376001471084536 0.015440021475047846 0.9958687513951818 -0.03776061470430724
 -0.0006025871638067938 -0.004974765816631181 0.000685095708480398 0.007927702387615582 0.9958687513951818 -0.03776061470430724 0.0035403004160275437 0.015439777824420386
0.056273447269699996 0.003576332179676965 0.015680244601473107 0.995817835455232 -0.038325628696768865 0.0007153850234146096 0.008043307553899455 -0.0006154189942039531 -0.00504886873367455
 0.995817835455232 -0.038325628696768865 0.0035784969996689874 0.01568004256942321 -0.0006159993943929632 -0.005048871918385851 0.0007000111159362884 0.008045145279830291
 0.0007153850234146096 0.008043307553899455 -0.0006159993943929632 -0.005048871918385851 0.003576005331625034 0.01567952023374406 0.9958178156500925 -0.03832638046020806
 -0.0006154189942039531 -0.00504886873367455 0.0007000111159362884 0.008045145279830291 0.9958178156500925 -0.03832638046020806 0.003578785792322276 0.015679271022592405
0.06252605252188 0.0038798254836802638 0.01751880753377352 0.9954151809296536 -0.04265357038794944 0.0008385533497837111 0.008939725406286767 -0.0007182461361085366 -0.005614983969727864
 0.9954151809296536 -0.04265357038794944 0.0038824970562360557 0.017518569903954586 -0.0007189601323546544 -0.0056149798654764405 0.0008195675054467219 0.008942020848860322
 0.0008385533497837111 0.008939725406286767 -0.0007189601323546544 -0.0056149798654764405 0.003879422466700243 0.017518005537947003 0.995415156765753 -0.042654405759930084
 -0.0007182461361085366 -0.005614983969727864 0.0008195675054467219 0.008942020848860322 0.995415156765753 -0.042654405759930084 0.003882853863744457 0.01751771162220356
0.06877865777407 0.004201564412860454 0.01937449170906466 0.9949879916176099 -0.04699594258919923 0.0009722006430341104 0.009836255731974886 -0.0008297208907093683 -0.006181547754444612
 0.9949879916176099 -0.04699594258919923 0.0042047959616464846 0.01937421560920323 -0.0008305818844886609 -0.006181534252423918 0.0009492197231684078 0.009839078084847769
 0.0009722006430341104 0.009836255731974886 -0.0008305818844886609 -0.006181534252423918 0.0042010772885114275 0.019373612953252198 0.9949879626525949 -0.04699686164317015
 -0.0008297208907093683 -0.006181547754444612 0.0009492197231684078 0.009839078084847769 0.9949879626525949 -0.04699686164317015 0.004205227976091103 0.019373270217810195
0.07503126302626001 0.004541878665165432 0.021246948836327013 0.9945359497589901 -0.05135261458043407 0.0011164180864843157 0.01073275310662658 -0.0009499372563722241 -0.006748410422791903
 0.9945359497589901 -0.05135261458043407 0.00454572345519505 0.021246631328758835 -0.0009509585434953966 -0.006748385255922771 0.0010890583423557015 0.01073617677493852
 0.0011164180864843157 0.01073275310662658 -0.0009509585434953966 -0.006748385255922771 0.004541299504024964 0.02124599427712063 0.9945359155452581 -0.05135361740117024
 -0.0009499372563722241 -0.006748410422791903 0.0010890583423557015 0.01073617677493852 0.9945359155452581 -0.05135361740117024 0.004546237871410867 0.02124559840791814
0.08128386827845 0.004901095579173967 0.023135842738696615 0.9940587385540189 -0.055723430862446445 0.0012712945396845447 0.011629067510687107 -0.0010789867389467416 -0.007315420295046679
 0.9940587385540189 -0.055723430862446445 0.004905606931433697 0.02313548081930244 -0.001080181510064774 -0.007315381038099167 0.001239171663411112 0.01163317216769095
 0.0012712945396845447 0.011629067510687107 -0.001080181510064774 -0.007315381038099167 0.004900416462664828 0.02313481342121161 0.9940586986396287 -0.05572451754713943
 -0.0010789867389467416 -0.007315420295046679 0.001239171663411112 0.01163317216769095 0.9940586986396287 -0.05572451754713943 0.004906210948283203 0.02313435990211764
0.08753647353064001 0.005279540099615526 0.02504084502002711 0.9935560424293282 -0.06010821544831388 0.0014369164135135592 0.012525044654514433 -0.0012169582669969417 -0.007882423398574461
 0.9935560424293282 -0.06010821544831388 0.005284771405798257 0.025040435616620244 -0.0012183396077564393 -0.00788236746828819 0.0013996455948487568 0.012529915297524055
 0.0014369164135135592 0.012525044654514433 -0.0012183396077564393 -0.00788236746828819 0.005278753119930044 0.025039742080840633 0.9935559963567686 -0.06010938610463013
 -0.0012169582669969417 -0.007882423398574461 0.0013996455948487568 0.012529915297524055 0.9935559963567686 -0.06010938610463013 0.0052854722256641985 0.025039226190220937
0.09378907878283 0.005677534712701833 0.026961631988286685 0.9930275472777342 -0.06450677490500184 0.001613367550049802 0.013420526220276039 -0.0013639381012382039 -0.008449263279184561
 0.9930275472777342 -0.06450677490500184 0.005683539449953893 0.02696117195849834 -0.0013655189922625243 -0.0084491879344301 0.00157056353830927 0.01342625322580311
 0.001613367550049802 0.013420526220276039 -0.0013655189922625243 -0.0084491879344301 0.005676631974276177 0.02696045665687149 0.9930274945835367 -0.06450802965068397
 -0.0013639381012382039 -0.008449263279184561 0.00157056353830927 0.01342625322580311 0.9930274945835367 -0.06450802965068397 0.005684344278827855 0.026959873463530747
0.100041684035 0.006095399358436886 0.028897882404073438 0.992472940678788 -0.06891890057697209 0.0018007291047059078 0.014315350048105514 -0.0015200097411359316 -0.009015780874857429
 0.992472940678788 -0.06891890057697209 0.006102231103890109 0.02889736853274445 -0.0015218030575906158 -0.00901568321681355 0.00175200627512642 0.014322029226008084
 0.0018007291047059078 0.014315350048105514 -0.0015218030575906158 -0.00901568321681355 0.006094372978188405 0.028896635997796735 0.9924728808930953 -0.06892023954593918
 -0.0015200097411359316 -0.009015780874857429 0.00175200627512642 0.014322029226008084 0.9924728808930953 -0.06892023954593918 0.006103147151823878 0.028895980356301112
0.1059090909091 0.006505875261022323 0.030728626391997554 0.9919284764975824 -0.07307135312642561 0.001986540790505483 0.015154301406895393 -0.0016748071919657776 -0.009546960383926087
 0.9919284764975824 -0.07307135312642561 0.006513531896369591 0.030728059004260438 -0.0016768114627144794 -0.00954683901047817 0.0019319127850224533 0.015161966122306329
 0.001986540790505483 0.015154301406895393 -0.0016768114627144794 -0.00954683901047817 0.006504725699105757 0.030727314575731003 0.9919284096239147 -0.0730727712571697
 -0.0016748071919657776 -0.009546960383926087 0.0019319127850224533 0.015161966122306329 0.9919284096239147 -0.0730727712571697 0.006514558872395887 0.030726586074328686
0.1062942892872 0.006533451327756266 0.03084927577282933 0.9918919121077683 -0.07334437027373683 0.0019990794310273557 0.015209350286752014 -0.0016852538280830195 -0.009581814431702607
 0.9918919121077683 -0.07334437027373683 0.006541163773957287 0.03084870476876591 -0.0016872723393125354 -0.00958169140405163 0.0019440518548372136 0.015217082933425299
 0.0019990794310273557 0.015209350286752014 -0.0016872723393125354 -0.00958169140405163 0.006532293436806841 0.030847959707907435 0.9918918447539611 -0.07334579360599398
 -0.0016852538280830195 -0.009581814431702607 0.0019440518548372136 0.015217082933425299 0.9918918447539611 -0.07334579360599398 0.006542198254763275 0.03084722625352061
0.11254689453939999 0.006992005147624328 0.032815491072178585 0.9912841531353174 -0.07778294952992683 0.0022084939664909643 0.016102357521532214 -0.0018597480471842984 -0.010147199449412166
 0.9912841531353174 -0.07778294952992683 0.00700065211720023 0.032814859564361226 -0.0018620044159979546 -0.01014704783857065 0.0021467754845895873 0.016111250471981243
 0.0022084939664909643 0.016102357521532214 -0.0018620044159979546 -0.01014704783857065 0.006990707891946748 0.03281410685500271 0.9912840777293154 -0.07778445738124909
 -0.0018597480471842984 -0.010147199449412166 0.0021467754845895873 0.016111250471981243 0.9912840777293154 -0.07778445738124909 0.007001812248719471 0.03281328999791354
0.11879949979160001 0.007471372454980009 0.03479620573747874 0.9906493576192738 -0.08223439261509928 0.002429045119905412 0.016994198882848758 -0.002043567027114161 -0.010711768653210385
 0.9906493576192738 -0.08223439261509928 0.0074810079158826905 0.03479551027075952 -0.0020460738090938265 -0.010711585088560426 0.002360249419508982 0.01700436456159649
 0.002429045119905412 0.016994198882848758 -0.0020460738090938265 -0.010711585088560426 0.007469927996649891 0.03479475497445254 0.990649273669456 -0.08223598514814519
 -0.002043567027114161 -0.010711768653210385 0.002360249419508982 0.01700436456159649 0.990649273669456 -0.08223598514814519 0.007482300919887224 0.034793848893491935
0.1250521050438 0.0079718618650643 0.03679109488754962 0.9899872218942244 -0.08669844331174098 0.0026608021595443633 0.01788469814639506 -0.0022367822391054517 -0.011275351981150013
 0.9899872218942244 -0.08669844331174098 0.007982539945867067 0.036790331917617755 -0.002239551881692384 -0.01127513293534834 0.0025845428539316437 0.017896254617106568
 0.0026608021595443633 0.01788469814639506 -0.002239551881692384 -0.01127513293534834 0.00797026238330033 0.036789579279262165 0.9899871289003912 -0.08670012070267781
 -0.0022367822391054517 -0.011275351981150013 0.0025845428539316437 0.017896254617106568 0.9899871289003912 -0.08670012070267781 0.007983973047825806 0.03678857791500997
0.131304710296 0.008493778831835412 0.03879983069609338 0.9892974449549706 -0.09117483555565177 0.0029038311024191404 0.018773675822918744 -0.00243946189506166 -0.01183777658912703
 0.9892974449549706 -0.09117483555565177 0.008505553836869996 0.03879899658393051 -0.0024425067366064617 -0.0118375183783933 0.0028197218131540192 0.018786746836754704
 0.0029038311024191404 0.018773675822918744 -0.0024425067366064617 -0.0118375183783933 0.00849201652414577 0.03879825204016766 0.9892973424082322 -0.09117659799231442
 -0.00243946189506166 -0.01183777658912703 0.0028197218131540192 0.018786746836754704 0.9892973424082322 -0.09117659799231442 0.008507134266155255 0.03879714908738402
0.1375573155481 0.008920077843062951 0.040559435361144494 0.9886971241326518 -0.09540052370886436 0.0031286661096349274 0.019634784918976557 -0.0026222400556639614 -0.012372646987394032
 0.9886971241326518 -0.09540052370886436 0.008933009179725122 0.040558547571344646 -0.00262557838975948 -0.012372349185516603 0.003036514161161583 0.019649355153044303
 0.0031286661096349274 0.019634784918976557 -0.00262557838975948 -0.012372349185516603 0.008918145377605265 0.04055779549089186 0.9886970115941902 -0.0954023712744894
 -0.0026222400556639614 -0.012372646987394032 0.003036514161161583 0.019649355153044303 0.9886970115941902 -0.0954023712744894 0.00893474357042633 0.040556605510236106
0.1438099208003 0.009361435792825985 0.04230929219951226 0.988075549175011 -0.09961502824908741 0.003362587232720606 0.020492095947718305 -0.0028123192216429555 -0.012904090826776269
 0.988075549175011 -0.09961502824908741 0.00937557878050433 0.042308348353242195 -0.00281596430214588 -0.01290374979874683 0.0032620412296039177 0.020508278914371344
 0.003362587232720606 0.020492095947718305 -0.00281596430214588 -0.01290374979874683 0.009359325475281746 0.042307592979595694 0.9880754261380467 -0.09961696112092519
 -0.0028123192216429555 -0.012904090826776269 0.0032620412296039177 0.020508278914371344 0.9880754261380467 -0.09961696112092519 0.00937747426118273 0.042306310822181975
0.1500625260525 0.009817690116361846 0.044049241156573396 0.9874328870496073 -0.10381823040646702 0.0036055098851027283 0.02134551068080267 -0.003009618159122006 -0.013432017438453604
 0.9874328870496073 -0.10381823040646702 0.009833100269791437 0.04404823868663985 -0.003013583206897444 -0.013431629403207255 0.0034962206753073747 0.0213634240319169
 0.0036055098851027283 0.02134551068080267 -0.003013583206897444 -0.013431629403207255 0.009815394274712647 0.04404748452584212 0.9874327530001433 -0.10382024876968782
 -0.003009618159122006 -0.013432017438453604 0.0034962206753073747 0.0213634240319169 0.9874327530001433 -0.10382024876968782 0.00983516396607002 0.0440461047401911
0.15631513130469998 0.010288677006588046 0.04577912698398031 0.9867693056717761 -0.10801001213544766 0.0038573484220502273 0.02219493263272157 -0.0032140545842455656 -0.013956338152476072
 0.9867693056717761 -0.10801001213544766 0.010305410041074943 0.04577806312656786 -0.0032183527865919125 -0.01395589918363067 0.0037389691332434614 0.022214698113955298
