! Created with skrf 1.8.0 (http://scikit-rf.org).
# GHz S RI R 50.0 
!freq ReS11 ImS11 ReS12 ImS12 ReS13 ImS13
! ReS14 ImS14
! ReS21 ImS21 ReS22 ImS22 ReS23 ImS23
! ReS24 ImS24
! ReS31 ImS31 ReS32 ImS32 ReS33 ImS33
! ReS34 ImS34
! ReS41 ImS41 ReS42 ImS42 ReS43 ImS43
! ReS44 ImS44
!
0.0 0.001303452575556 0.0 0.9986965473825 0.0 4.993275786122e-05 0.0 -4.993275771835e-05 6.114999191237762e-21
 0.9986965473825 0.0 0.001303452575528 0.0 -4.993275771695e-05 6.1149991910663114e-21 4.993275786272e-05 0.0
 4.993275786122e-05 0.0 -4.993275771695e-05 6.1149991910663114e-21 0.001303452596484 0.0 0.9986965474035 0.0
 -4.993275771835e-05 6.114999191237762e-21 4.993275786272e-05 0.0 0.9986965474035 0.0 0.001303452596527 0.0
0.005 0.001401836379682908 0.001065681740098499 0.9985721887246382 -0.00273115040961766 6.96860711312924e-05 0.0005569485202916963 -6.778626226223606e-05 -0.00034849639954995796
 0.9985721887246382 -0.00273115040961766 0.0014018146202918113 0.0010656944118566985 -6.778356072517748e-05 -0.0003484943111569169 6.98336506435805e-05 0.0005568924946980306
 6.96860711312924e-05 0.0005569485202916963 -6.778356072517748e-05 -0.0003484943111569169 0.0014018374898778336 0.001065613800270115 0.9985721883830995 -0.0027312174780400075
 -6.778626226223606e-05 -0.00034849639954995796 6.98336506435805e-05 0.0005568924946980306 0.9985721883830995 -0.0027312174780400075 0.0014018128329143177 0.0010656282200562394
0.006252605252188 0.0014274686203567314 0.0013363237791822432 0.9985396176453388 -0.0034146337579266457 7.520569654656216e-05 0.0006964651486852458 -7.274671069675459e-05 -0.0004360828300220081
 0.9985396176453388 -0.0034146337579266457 0.0014274346067288625 0.0013363398678037594 -7.274250693062419e-05 -0.00043608025395596367 7.543628002361245e-05 0.000696392434556615
 7.520569654656216e-05 0.0006964651486852458 -7.274250693062419e-05 -0.00043608025395596367 0.001427470443086351 0.0013362388718823027 0.99853961719831 -0.0034147175753333195
 -7.274671069675459e-05 -0.0004360828300220081 7.543628002361245e-05 0.000696392434556615 0.99853961719831 -0.0034147175753333195 0.0014274318993103084 0.0013362571519010423
0.01250521050438 0.001561407177490482 0.0027009388391315923 0.9983684569865563 -0.006830239398632883 0.00010620725994961157 0.0013933482372588167 -0.00010046074268634145 -0.0008743975028311081
 0.9983684569865563 -0.006830239398632883 0.001561271365463628 0.0027009735026642997 -0.00010044417607376022 -0.000874392723621593 0.00010712687524888562 0.0013931741777275417
 0.00010620725994961157 0.0013933482372588167 -0.00010044417607376022 -0.000874392723621593 0.001561414994748746 0.0027007692496743146 0.9983684557339217 -0.006830406808468525
 -0.00010046074268634145 -0.0008743975028311081 0.00010712687524888562 0.0013931741777275417 0.9983684557339217 -0.006830406808468525 0.001561261084220688 0.0027008083804685576
0.01875781575657 0.0017055242174675912 0.00408529546629424 0.9981828786291955 -0.010255168068989762 0.0001430049545428716 0.0020911492802735913 -0.0001331523647779674 -0.0013143263565304625
 0.9981828786291955 -0.010255168068989762 0.0017052190545142041 0.004085351317847506 -0.00013311541976336673 -0.001314319808322906 0.0001450710168777488 0.0020908403343802354
 0.0001430049545428716 0.0020911492802735913 -0.00013311541976336673 -0.001314319808322906 0.001705542215722762 0.0040850412863329905 0.998182876231961 -0.010255418989130136
 -0.0001331523647779674 -0.0013143263565304625 0.0001450710168777488 0.0020908403343802354 0.998182876231961 -0.010255418989130136 0.0017051963662574358 0.004085104031859713
0.02501042100875 0.0018600700761329527 0.0054874914586076065 0.9979826894626377 -0.013691116901210321 0.00018566649789291404 0.002789925741545467 -0.00017089715648361148 -0.0017556905994967247
 0.9979826894626377 -0.013691116901210321 0.0018595281557568966 0.005487571214023786 -0.00017083191197312988 -0.0017556827859192116 0.0001893367756639448 0.0027894436584512358
 0.00018566649789291404 0.002789925741545467 -0.00017083191197312988 -0.0017556827859192116 0.0018601024385582082 0.005487152732127918 0.9979826855772771 -0.013691451308985424
 -0.00017089715648361148 -0.0017556905994967247 0.0001893367756639448 0.0027894436584512358 0.9979826855772771 -0.013691451308985424 0.001859488230658061 0.005487242021007741
0.03126302626094 0.002025284543345221 0.006906566497336579 0.9977676852992025 -0.017138834600239194 0.00023426004629306337 0.003489670783403024 -0.00021376891078241986 -0.0021983721782607574
 0.9977676852992025 -0.017138834600239194 0.0020244385699704176 0.006906672969291659 -0.00021366752368386568 -0.0021983636734934776 0.00023999310281371347 0.003488972576113366
 0.00023426004629306337 0.003489670783403024 -0.00021366752368386568 -0.0021983636734934776 0.0020253354518600256 0.006906143258515315 0.9977676795763812 -0.017139252494705635
 -0.00021376891078241986 -0.0021983721782607574 0.00023999310281371347 0.003488972576113366 0.9977676795763812 -0.017139252494705635 0.002024376579011259 0.006906262178335304
0.037515631513130004 0.00220140241090492 0.008341908544457358 0.9975376565467455 -0.020598714993928895 0.0002888536725628287 0.004190352562790153 -0.00026184018671998913 -0.0026422744846297014
 0.9975376565467455 -0.020598714993928895 0.0022001851762773004 0.008342044639067098 -0.0002616948833669771 -0.002642265933760608 0.0002971090748987861 0.004189390458977939
 0.0002888536725628287 0.004190352562790153 -0.0002616948833669771 -0.002642265933760608 0.0022014760547637963 0.008341400805742211 0.9975376486380646 -0.02059921640777299
 -0.00026184018671998913 -0.0026422744846297014 0.0002971090748987861 0.004189390458977939 0.9975376486380646 -0.02059921640777299 0.0022000962983327868 0.008341552600183127
0.043768236765320004 0.0023886556365930434 0.009793073165260298 0.9972923904949951 -0.024070977652557397 0.0003495151233565038 0.004891926180511002 -0.000315182516913086 -0.003087310399831869
 0.9972923904949951 -0.024070977652557397 0.002387000001811432 0.009793241879494393 -0.0003149855879908207 -0.00308730251901312 0.00036075355198501196 0.004890647566145392
 0.0003495151233565038 0.004891926180511002 -0.0003149855879908207 -0.00308730251901312 0.0023887562077337192 0.009792480942644781 0.9972923800470638 -0.024071562626704752
 -0.000315182516913086 -0.003087310399831869 0.00036075355198501196 0.004890647566145392 0.9972923800470638 -0.024071562626704752 0.0023868794174660172 0.009792669009605619
0.050020842017509996 0.002587274344239886 0.011259708888562397 0.9970316724380115 -0.02755574246881044 0.00041631167667581964 0.005594338608890613 -0.00037386649126764493 -0.0035333973583334005
 0.9970316724380115 -0.02755574246881044 0.0025851132237857516 0.011259913308106212 -0.0003736102884192781 -0.0035333909348478827 0.0004309949825354262 0.005592685968818045
 0.00041631167667581964 0.005594338608890613 -0.0003736102884192781 -0.0035333909348478827 0.002587406041843425 0.011259032185458175 0.9970316590955401 -0.027556411068360022
 -0.00037386649126764493 -0.0035333973583334005 0.0004309949825354262 0.005592685968818045 0.9970316590955401 -0.027556411068360022 0.002584956119730286 0.011259260075817821
0.055454545454549996 0.0027692879230271842 0.012546593951056001 0.9967923838623131 -0.03059430727005731 0.0004793941836909666 0.00620539201041124 -0.00042925684943130414 -0.00392185151614995
 0.9967923838623131 -0.03059430727005731 0.0027666330695953045 0.012546831973179124 -0.00042894296997943903 -0.003921847053769879 0.0004974472003353818 0.006203363769082875
 0.0004793941836909666 0.00620539201041124 -0.00042894296997943903 -0.003921847053769879 0.0027694500857025797 0.012545843832669979 0.9967923677132938 -0.030595048606250185
 -0.00042925684943130414 -0.00392185151614995 0.0004974472003353818 0.006203363769082875 0.9967923677132938 -0.030595048606250185 0.002766440323458432 0.01254610933271373
0.056273447269699996 0.002797487355824923 0.012741520548141025 0.9967552863300626 -0.03105306625653276 0.000489310041089278 0.006297531113080359 -0.00043796178740856376 -0.003980454918183047
 0.9967552863300626 -0.03105306625653276 0.0027947537036160947 0.012741763845713313 -0.00043763872097135116 -0.003980450810477634 0.0005079012712189049 0.006295441970142155
 0.000489310041089278 0.006297531113080359 -0.00043763872097135116 -0.003980450810477634 0.0027976543855055976 0.012740759362560156 0.9967552697344156 -0.031053818563330674
 -0.00043796178740856376 -0.003980454918183047 0.0005079012712189049 0.006295441970142155 0.9967552697344156 -0.031053818563330674 0.002794555271238822 0.012741030779362887
0.06252605252188 0.0030195224843035753 0.014238249140533857 0.9964630152050762 -0.03456296283375599 0.0005685762768086431 0.007001440573042059 -0.000507537172778434 -0.004428403431770664
 0.9964630152050762 -0.03456296283375599 0.003016149280150933 0.01423853457450346 -0.0005071397101702307 -0.004428402569475537 0.0005915396794827205 0.0069988474263795505
 0.0005685762768086431 0.007001440573042059 -0.0005071397101702307 -0.004428402569475537 0.0030197290585626774 0.01423740346786517 0.9964629949931052 -0.03456379894339474
 -0.000507537172778434 -0.004428403431770664 0.0005915396794827205 0.0069988474263795505 0.9964629949931052 -0.03456379894339474 0.003015904715954191 0.014237722265893909
0.06877865777407 0.0032536067013013295 0.015749659807805943 0.9961546414721737 -0.038085414982055706 0.0006541757284650945 0.007706000273263099 -0.0005826604909757278 -0.004877163250276305
 0.9961546414721737 -0.038085414982055706 0.0032495269379658794 0.015749990721160883 -0.0005821811555552204 -0.0048771666342016335 0.0006819767436132176 0.007702830536323603
 0.0006541757284650945 0.007706000273263099 -0.0005821811555552204 -0.0048771666342016335 0.0032538570398638416 0.015748729633716162 0.9961546172758314 -0.038086335010687526
 -0.0005826604909757278 -0.004877163250276305 0.0006819767436132176 0.007702830536323603 0.9961546172758314 -0.038086335010687526 0.003249231443618148 0.015749099819367198
0.07503126302626001 0.00349996622686539 0.017275534225171658 0.9958299471358418 -0.04162038200285957 0.0007461729643855098 0.008411140402561235 -0.0006633986383854686 -0.005326654219767404
 0.9958299471358418 -0.04162038200285957 0.0034951128976154957 0.017275914044731677 -0.0006628300086161953 -0.005326662921902006 0.0007792782034806326 0.008407316340961047
 0.0007461729643855098 0.008411140402561235 -0.0006628300086161953 -0.005326662921902006 0.0035002645576877717 0.017274519532857923 0.995829918582478 -0.04162138607964959
 -0.0006633986383854686 -0.005326654219767404 0.0007792782034806326 0.008407316340961047 0.995829918582478 -0.04162138607964959 0.0034947616812850317 0.017274945264333433
0.08128386827845 0.003758826575837004 0.018815665530314527 0.9954887139751152 -0.045167804733601755 0.0008446317201609848 0.009116788384975923 -0.000749817534211016 -0.00577679534809427
 0.9954887139751152 -0.045167804733601755 0.003753132661574391 0.01881609776632686 -0.0007491522430645355 -0.0057768105115830895 0.0008835089378708731 0.009112227054441913
 0.0008446317201609848 0.009116788384975923 -0.0007491522430645355 -0.0057768105115830895 0.0037591771353476717 0.018814566292696584 0.9954886806865255 -0.0451688930081751
 -0.000749817534211016 -0.00577679534809427 0.0008835089378708731 0.009112227054441913 0.9954886806865255 -0.0451688930081751 0.0037527209385002894 0.018815051880582204
0.08753647353064001 0.004030412570580889 0.02036985481043675 0.9951307236918003 -0.04872760900848377 0.0009496148444670035 0.009822869108872227 -0.000841982086337197 -0.006227504575581958
 0.9951307236918003 -0.04872760900848377 0.004023811027815671 0.02037034305646372 -0.0008412128209522128 -0.0062275274147071185 0.0009947329036250638 0.00981748229336367
 0.0009496148444670035 0.009822869108872227 -0.0008412128209522128 -0.0062275274147071185 0.0040308196042170815 0.020368671000592416 0.9951306852837305 -0.04872878164020201
 -0.000841982086337197 -0.006227504575581958 0.0009947329036250638 0.00981748229336367 0.9951306852837305 -0.04872878164020201 0.004023334020659474 0.020369220908666077
0.09378907878283 0.004314948334943587 0.021937908601248515 0.9947557580405924 -0.05229970810936683 0.00106118424676859 0.010529305093221678 -0.000939956153683333 -0.0066786986106661325
 0.9947557580405924 -0.05229970810936683 0.004307372083000649 0.021938456534400397 -0.0009390756550920373 -0.00667873041081192 0.0011130130778898703 0.010522999243360925
 0.00106118424676859 0.010529305093221678 -0.0009390756550920373 -0.00667873041081192 0.004315416096800733 0.021936640182289625 0.9947557141219588 -0.05230096527705657
 -0.000939956153683333 -0.0066786986106661325 0.0011130130778898703 0.010522999243360925 0.9947557141219588 -0.05230096527705657 0.00430682502209771 0.021937259028773012
0.100041684035 0.004612657269743381 0.02351963704344948 0.9943635989451797 -0.05588400456168304 0.0011794008458942337 0.011236016606840028 -0.0010438025061209695 -0.007130292814785265
 0.9943635989451797 -0.05588400456168304 0.004604039178489161 0.02352024842489359 -0.001042803569113969 -0.007130334932403528 0.0012384114022271347 0.011228692778673634
 0.0011794008458942337 0.011236016606840028 -0.001042803569113969 -0.007130334932403528 0.004613190023899521 0.023518283972462976 0.9943635491180053 -0.055885346459289005
 -0.0010438025061209695 -0.007130292814785265 0.0012384114022271347 0.011228692778673634 0.9943635491180053 -0.055885346459289005 0.004603417303547996 0.023518976531490914
0.1059090909091 0.004904204723497969 0.0250161911977335 0.9939797679630562 -0.0592584848776359 0.0012964334899031305 0.011899368082201304 -0.0011466469946900856 -0.0075543533727823065
 0.9939797679630562 -0.0592584848776359 0.004894547867252589 0.025016865615098124 -0.0011455304106247001 -0.00755440646918951 0.001362612528204067 0.011890994142147346
 0.0012964334899031305 0.011899368082201304 -0.0011455304106247001 -0.00755440646918951 0.0049048023531759865 0.025014758644790924 0.9939797122228052 -0.05925990647538555
 -0.0011466469946900856 -0.0075543533727823065 0.001362612528204067 0.011890994142147346 0.9939797122228052 -0.05925990647538555 0.004893851466433285 0.02501552485783211
0.1062942892872 0.00492376202025054 0.025114852498990287 0.9939540286066486 -0.05948039147282823 0.0013043245192954963 0.011942921763306611 -0.0011535827825873454 -0.007582201113884944
 0.9939540286066486 -0.05948039147282823 0.004914034897395549 0.025115531174889273 -0.0011524582557212056 -0.0075822549764369964 0.0013709887276211034 0.011934475557586553
 0.0013043245192954963 0.011942921763306611 -0.0011524582557212056 -0.0075822549764369964 0.004924364040886442 0.025113414727118512 0.993953972465443 -0.05948181830891543
 -0.0011535827825873454 -0.007582201113884944 0.0013709887276211034 0.011934475557586553 0.993953972465443 -0.05948181830891543 0.004913333457707474 0.025114185930681664
0.11254689453939999 0.0052484844329515135 0.026723368488663087 0.9935268296045054 -0.06308875355205076 0.0014360140523947639 0.012649936592427679 -0.0012693574477664123 -0.008034335935736344
 0.9935268296045054 -0.06308875355205076 0.005237581011402754 0.026724118391434425 -0.0012681002333695898 -0.008034403041648985 0.0015108047605319544 0.012640258094297103
 0.0014360140523947639 0.012649936592427679 -0.0012681002333695898 -0.008034403041648985 0.005249160004478817 0.02672184595746324 0.9935267667357182 -0.06309026555300913
 -0.0012693574477664123 -0.008034335935736344 0.0015108047605319544 0.012640258094297103 0.9935267667357182 -0.06309026555300913 0.005236795266759981 0.026722700897610065
0.11879949979160001 0.00558704550663085 0.028344998865854044 0.99308178499339 -0.06670896789666379 0.0015745270885251998 0.013356975099405184 -0.001391185747218693 -0.00848660816197981
 0.99308178499339 -0.06670896789666379 0.005574898431736523 0.028345824015802667 -0.0013897888015418425 -0.008486690080573152 0.001657918009510715 0.013345948818742107
 0.0015745270885251998 0.013356975099405184 -0.0013897888015418425 -0.008486690080573152 0.005587798924262491 0.028343391510103868 0.9930817149748337 -0.06671056530347749
 -0.001391185747218693 -0.00848660816197981 0.001657918009510715 0.013345948818742107 0.9930817149748337 -0.06671056530347749 0.005574023653198395 0.028344335441550107
0.1250521050438 0.005939665337757173 0.02997955715714151 0.9926186783968468 -0.07034090461447882 0.001719920078682848 0.014063949313058982 -0.001519125661725189 -0.008938927093645788
 0.9926186783968468 -0.07034090461447882 0.005926207154304621 0.0299804616644612 -0.0015175819950875658 -0.008939025465057813 0.0018123857321011398 0.014051454125376514
 0.001719920078682848 0.014063949313058982 -0.0015175819950875658 -0.008939025465057813 0.0059405009076912265 0.029977864904788487 0.9926186007970861 -0.07034258768219888
 -0.001519125661725189 -0.008938927093645788 0.0018123857321011398 0.014051454125376514 0.9926186007970861 -0.07034258768219888 0.0059252386251160034 0.029978903247929515
0.131304710296 0.0063065630612570735 0.03162685604010952 0.992137294097879 -0.07398442731166839 0.0018722482313447274 0.01477076932785682 -0.001653233860675605 -0.00939120042535764
 0.992137294097879 -0.07398442731166839 0.006291726200448306 0.031627844107304515 -0.0016515365376957834 -0.009391316960463145 0.001974263881917319 0.014756678415932206
 0.0018722482313447274 0.01477076932785682 -0.0016515365376957834 -0.009391316960463145 0.0063074851012174275 0.03162507880862438 0.9921372084760481 -0.07398619631261555
 -0.001653233860675605 -0.00939120042535764 0.001974263881917319 0.014756678415932206 0.9921372084760481 -0.07398619631261555 0.006290659216987292 0.03162621715290499
0.1375573155481 0.00659843397043605 0.033071183423639454 0.9917269689933991 -0.07742378692058666 0.0020102485396502534 0.015455006665973246 -0.001772131300465832 -0.009821091665880756
 0.9917269689933991 -0.07742378692058666 0.006582144585733763 0.033072235731094884 -0.0017702700869042611 -0.009821226281058248 0.0021220473727610882 0.015439353237891591
 0.0020102485396502534 0.015455006665973246 -0.0017702700869042611 -0.009821226281058248 0.00659944619104184 0.0330693210266143 0.9917268749836818 -0.07742564201437994
 -0.001772131300465832 -0.009821091665880756 0.0021220473727610882 0.015439353237891591 0.9917268749836818 -0.07742564201437994 0.006580974920895335 0.03307054147430276
0.1438099208003 0.0069003848505559285 0.03450880818461412 0.9913025762507095 -0.08085535628842329 0.002153807508728406 0.016137119321312274 -0.0018958021401873084 -0.010248977675085529
 0.9913025762507095 -0.08085535628842329 0.006882574223448267 0.034509927438603476 -0.0018937695841413802 -0.01024913203053914 0.002275822013549068 0.016119788724418375
 0.002153807508728406 0.016137119321312274 -0.0018937695841413802 -0.01024913203053914 0.006901491476127572 0.03450686054449991 0.991302473413453 -0.0808572977422347
 -0.0018958021401873084 -0.010248977675085529 0.002275822013549068 0.016119788724418375 0.991302473413453 -0.0808572977422347 0.006881297278124187 0.034508167233453006
0.1500625260525 0.007212321526188313 0.035939637309116056 0.9908642132984581 -0.08427907808187038 0.002302882181034516 0.01681705906870668 -0.0020242034760990625 -0.010674809777215168
 0.9908642132984581 -0.08427907808187038 0.007192920783903913 0.03594082639457893 -0.002021992137914819 -0.010674985599338386 0.0024355427365808442 0.016797932495633206
 0.002302882181034516 0.01681705906870668 -0.002021992137914819 -0.010674985599338386 0.007213526785095327 0.03593760434521772 0.9908641011856305 -0.08428110617336645
 -0.0020242034760990625 -0.010674809777215168 0.0024355427365808442 0.016797932495633206 0.9908641011856305 -0.08428110617336645 0.007191531976975982 0.035939001649885234
0.15631513130469998 0.007534149292772038 0.03736358073637472 0.9904119779081766 -0.08769489463890225 0.002457429176404063 0.017494778390206744 -0.002157291952753355 -0.011098540236699721
