! Created with skrf 1.8.0 (http://scikit-rf.org).
# GHz S RI R 50.0 
!freq ReS11 ImS11 ReS12 ImS12 ReS13 ImS13
! ReS14 ImS14
! ReS21 ImS21 ReS22 ImS22 ReS23 ImS23
! ReS24 ImS24
! ReS31 ImS31 ReS32 ImS32 ReS33 ImS33
! ReS34 ImS34
! ReS41 ImS41 ReS42 ImS42 ReS43 ImS43
! ReS44 ImS44
!
0.0 0.001693512604281 0.0 0.9983064873957 0.0 6.555244223382e-05 0.0 -6.555244170061e-05 8.027858790494552e-21
 0.9983064873957 0.0 0.001693512604275 0.0 -6.555244170062e-05 8.027858790495775e-21 6.555244223321e-05 0.0
 6.555244223382e-05 0.0 -6.555244170062e-05 8.027858790495775e-21 0.001693512592912 0.0 0.9983064873843 0.0
 -6.555244170061e-05 8.027858790494552e-21 6.555244223321e-05 0.0 0.9983064873843 0.0 0.001693512592906 0.0
0.005 0.001822570029149672 0.001385349931350987 0.9981431647813777 -0.0035469516465132743 9.191664540094497e-05 0.0007200094222595081 -8.937997596548818e-05 -0.00045222173832199983
 0.9981431647813777 -0.0035469516465132743 0.0018225353139504012 0.0013853702735792668 -8.937782939094364e-05 -0.000452220197004796 9.214096424914472e-05 0.0007199240511537576
 9.191664540094497e-05 0.0007200094222595081 -8.937782939094364e-05 -0.000452220197004796 0.0018225709512908238 0.001385416736078657 0.9981431651427153 -0.003546884575807607
 -8.937997596548818e-05 -0.00045222173832199983 9.214096424914472e-05 0.0007199240511537576 0.9981431651427153 -0.003546884575807607 0.0018225351086346119 0.0013854376048915858
0.006252605252188 0.001856564972060029 0.0017371153739719803 0.9980998595615153 -0.004434534115989484 9.948509262852142e-05 0.0009003552093799134 -9.61702657364193e-05 -0.0005658527217310051
 0.9980998595615153 -0.004434534115989484 0.0018565107051545628 0.0017371411984503148 -9.616692467362847e-05 -0.0005658508240508463 9.983556875238325e-05 0.000900244292485726
 9.948509262852142e-05 0.0009003552093799134 -9.616692467362847e-05 -0.0005658508240508463 0.0018565663543438388 0.0017371988699321002 0.9980998600676356 -0.004434450293237021
 -9.61702657364193e-05 -0.0005658527217310051 9.983556875238325e-05 0.000900244292485726 0.9980998600676356 -0.004434450293237021 0.0018565103259025248 0.001737225335997957
0.01250521050438 0.002036377017997536 0.0035103912169902776 0.9978692386475263 -0.008869705869085207 0.00014308271898323723 0.0018010402035944558 -0.00013503468901743119 -0.0011343524172805078
 0.9978692386475263 -0.008869705869085207 0.0020361603157536116 0.0035104468664272285 -0.00013502151209640563 -0.0011343489433035005 0.00014448032874840962 0.0018007727556041575
 0.00014308271898323723 0.0018010402035944558 -0.00013502151209640563 -0.0011343489433035005 0.002036381961988009 0.003510558005486975 0.9978692401056176 -0.008869538463753497
 -0.00013503468901743119 -0.0011343524172805078 0.00014448032874840962 0.0018007727556041575 0.9978692401056176 -0.008869538463753497 0.002036158245687551 0.003510614776477267
0.01875781575657 0.002233370612516028 0.005308646486730105 0.997614316919846 -0.013316274542198997 0.00019645351123096807 0.0027026374369051665 -0.00018227120598073753 -0.0017046621490851845
 0.997614316919846 -0.013316274542198997 0.002232883644625249 0.0053087362608123835 -0.0001822418074201449 -0.0017046574919125789 0.00019959306271679153 0.002702158288164401
 0.00019645351123096807 0.0027026374369051665 -0.0001822418074201449 -0.0017046574919125789 0.0022333812787470883 0.005308896475337761 0.997614319779559 -0.013316023631334818
 -0.00018227120598073753 -0.0017046621490851845 0.00019959306271679153 0.002702158288164401 0.997614319779559 -0.013316023631334818 0.00223287858905653 0.005308987705087247
0.02501042100875 0.002447953458520178 0.007129328137270332 0.9973347737110001 -0.017776357475246404 0.00025970571486546093 0.0036051647938092186 -0.0002380006620723148 -0.0022765018165462696
 0.9973347737110001 -0.017776357475246404 0.00244708858975983 0.007129456596427861 -0.0002379487285844718 -0.0022764964470909713 0.00026528222718543636 0.0036044095099733355
 0.00025970571486546093 0.0036051647938092186 -0.0002379487285844718 -0.0022764964470909713 0.002447971982288878 0.007129661233146843 0.9973347784168635 -0.017776023085398298
 -0.0002380006620723148 -0.0022765018165462696 0.00026528222718543636 0.0036044095099733355 0.9973347784168635 -0.017776023085398298 0.002447079256998038 0.0071297913492185715
0.03126302626094 0.002680516401985971 0.00897110324034094 0.9970302731279178 -0.022250837907184576 0.00033294728611746685 0.004508556891603617 -0.0003023400778104428 -0.0028496670705790766
 0.9970302731279178 -0.022250837907184576 0.0026791661288490176 0.008971275197934959 -0.0003022593565730347 -0.0028496615383737526 0.0003416566119835457 0.004507451716364046
 0.00033294728611746685 0.004508556891603617 -0.0003022593565730347 -0.0028496615383737526 0.0026805449055550793 0.008971519330747083 0.9970302801310783 -0.022250420033874937
 -0.0003023400778104428 -0.0028496670705790766 0.0003416566119835457 0.004507451716364046 0.9970302801310783 -0.022250420033874937 0.0026791512394804527 0.00897169302624849
0.037515631513130004 0.0029314414975572644 0.010833088245968743 0.9967004724519526 -0.02674013565253395 0.00041628502020810913 0.005412715090527348 -0.00037540347061844673 -0.003423979345490589
 0.9967004724519526 -0.02674013565253395 0.0029294984045154754 0.010833308764536738 -0.0003752877633443475 -0.003423974278980242 0.0004288241131397579 0.005411176852219233
 0.00041628502020810913 0.005412715090527348 -0.0003752877633443475 -0.003423974278980242 0.002931482084233599 0.01083358718465569 0.9967004822045167 -0.026739634273714733
 -0.00037540347061844673 -0.003423979345490589 0.0004288241131397579 0.005411176852219233 0.9967004822045167 -0.026739634273714733 0.0029294766833066754 0.010833809414362999
0.043768236765320004 0.003201105110485673 0.012714614413958549 0.9963450255700932 -0.03124444159777278 0.0005098241216594431 0.006317522716547595 -0.0004573021332251974 -0.0039992706645731796
 0.9963450255700932 -0.03124444159777278 0.0031984618337538204 0.012714888803290346 -0.00045714529280161715 -0.003999266771260541 0.0005268911507242991 0.0063154587236298075
 0.0005098241216594431 0.006317522716547595 -0.00045714529280161715 -0.003999266771260541 0.0032011598659977564 0.012715196023776992 0.9963450385270283 -0.03124385667098722
 -0.0004573021332251974 -0.0039992706645731796 0.0005268911507242991 0.0063154587236298075 0.9963450385270283 -0.03124385667098722 0.003198432009439694 0.012715472002303324
0.050020842017509996 0.003489879343933301 0.014615130897059594 0.9959635847344843 -0.03576381454524319 0.0006136679303903885 0.007222851342571152 -0.0005481447189889286 -0.004575377387132596
 0.9959635847344843 -0.03576381454524319 0.00348642853961722 0.014615464713498418 -0.0005479406474608034 -0.0045753754536590405 0.0006359623139162014 0.0072201592747313265
 0.0006136679303903885 0.007222851342571152 -0.0005479406474608034 -0.0045753754536590405 0.003489950337593257 0.014615794970924328 0.9959636013550998 -0.035763146006454596
 -0.0005481447189889286 -0.004575377387132596 0.0006359623139162014 0.0072201592747313265 0.9959636013550998 -0.035763146006454596 0.0034863893447273906 0.014616130172119815
0.055454545454549996 0.0037566393890380765 0.016281785325119088 0.9956107202923343 -0.03970350440322662 0.00071235873369263 0.008009926187742458 -0.0006344356418813876 -0.0050765676862327596
 0.9956107202923343 -0.03970350440322662 0.00375239963524999 0.016282175489730755 -0.0006341856100415885 -0.005076568156281643 0.0007397648190726969 0.008006597645748565
 0.00071235873369263 0.008009926187742458 -0.0006341856100415885 -0.005076568156281643 0.0037567261611852875 0.016282520864876127 0.9956107404733837 -0.03970276314056941
 -0.0006344356418813876 -0.0050765676862327596 0.0007397648190726969 0.008006597645748565 0.9956107404733837 -0.03970276314056941 0.0037523512691895397 0.01628291217954508
0.056273447269699996 0.0037981327578822436 0.01653415716373903 0.9955558016162639 -0.040298228720597615 0.0007279177140270325 0.008128563890239417 -0.0006480372430820716 -0.0051521371385946585
 0.9955558016162639 -0.040298228720597615 0.003793767071877155 0.016534556210583792 -0.0006477798904052987 -0.0051521380308054985 0.0007561401042225022 0.00812513168778309
 0.0007279177140270325 0.008128563890239417 -0.0006477798904052987 -0.0051521380308054985 0.0037982220415944045 0.016534903456920443 0.9955558223644573 -0.04029747649164879
 -0.0006480372430820716 -0.0051521371385946585 0.0007561401042225022 0.00812513168778309 0.9955558223644573 -0.04029747649164879 0.0037937172408156793 0.01653530361442986
0.06252605252188 0.004126230740046972 0.018471256844662592 0.9951213280169138 -0.04484759986183367 0.0008526724954814626 0.009034516334827335 -0.0007570830382062452 -0.005729387142836467
 0.9951213280169138 -0.04484759986183367 0.004120842779435578 0.018471727173555396 -0.0007567664015976177 -0.005729391805817579 0.0008875247302871447 0.00903022208762905
 0.0008526724954814626 0.009034516334827335 -0.0007567664015976177 -0.005729391805817579 0.004126340349092893 0.0184720850795609 0.9951213533618983 -0.044846763845502666
 -0.0007570830382062452 -0.005729387142836467 0.0008875247302871447 0.00903022208762905 0.9951213533618983 -0.044846763845502666 0.004120781047787819 0.01847255618835834
0.06877865777407 0.004474535684872449 0.020426022144833276 0.9946598163908372 -0.04941180074900597 0.0009880288981178504 0.009940558734526657 -0.0008753826862320024 -0.006306963236258128
 0.9946598163908372 -0.04941180074900597 0.004468017989703126 0.020426570058063896 -0.0008750008097872952 -0.006306972694351955 0.0010302139297075875 0.009935270571362398
 0.0009880288981178504 0.009940558734526657 -0.0008750008097872952 -0.006306972694351955 0.004474667636865658 0.020426932005670452 0.994659846807883 -0.04941088083408444
 -0.0008753826862320024 -0.006306963236258128 0.0010302139297075875 0.009935270571362398 0.994659846807883 -0.04941088083408444 0.004467943092511867 0.020427480324649454
0.07503126302626001 0.00484340705880935 0.02239806396927077 0.9941709202606768 -0.053990671027502574 0.0011340810023291697 0.01084653589407713 -0.0010030339336387134 -0.006884699254204696
 0.9941709202606768 -0.053990671027502574 0.004835652074247112 0.022398696023223762 -0.001002580908269028 -0.006884714611020357 0.001184302808176076 0.010840111872802417
 0.0011340810023291697 0.01084653589407713 -0.001002580908269028 -0.006884714611020357 0.004843563353794793 0.02239905510465331 0.994170956231257 -0.05398966708604229
 -0.0010030339336387134 -0.006884699254204696 0.001184302808176076 0.010840111872802417 0.994170956231257 -0.05398966708604229 0.004835562745049377 0.022399687160263478
0.08128386827845 0.00523320139423614 0.0243870053498771 0.9936542945642327 -0.05858402373815943 0.0012909202088760713 0.0117522878099205 -0.001140131596969309 -0.007462426642989046
 0.9936542945642327 -0.05858402373815943 0.005224101443093697 0.024387728359296177 -0.0011396015604801097 -0.007462449081383008 0.0013498836889513767 0.011744575808816028
 0.0012909202088760713 0.0117522878099205 -0.0011396015604801097 -0.007462449081383008 0.005233384014453097 0.02438807737222682 0.9936543365772442 -0.058582935625968134
 -0.001140131596969309 -0.007462426642989046 0.0013498836889513767 0.011744575808816028 0.9936543365772442 -0.058582935625968134 0.005223996412865602 0.024388799963088695
0.08753647353064001 0.005644272236549766 0.026392476912976862 0.9931095959600958 -0.06319164981490874 0.0014586351059758767 0.01265765000000595 -0.0012867674618529167 -0.008039974194583547
 0.9931095959600958 -0.06319164981490874 0.00563371949168643 0.026393297956421844 -0.0012861545992481486 -0.008040004976635996 0.0015270459686260315 0.012648487610676464
 0.0014586351059758767 0.01265765000000595 -0.0012861545992481486 -0.008040004976635996 0.005644483146101761 0.02639362939731728 0.9931096445121395 -0.06319047737249996
 -0.0012867674618529167 -0.008039974194583547 0.0015270459686260315 0.012648487610676464 0.9931096445121395 -0.06319047737249996 0.00563359748736146 0.026394449599923035
0.09378907878283 0.006076970057385211 0.028414113640488427 0.9925364831023447 -0.0678133212974381 0.0016373113401680578 0.0135624537434215 -0.0014430301763001386 -0.008617167879113503
 0.9925364831023447 -0.0678133212974381 0.0060648565139952496 0.028415040066725412 -0.0014423287200995003 -0.00861720834608324 0.001715875978630646 0.013551668165381218
 0.0016373113401680578 0.0135624537434215 -0.0014423287200995003 -0.00861720834608324 0.006077211201857133 0.028415346124669918 0.9925365386985633 -0.06781206434985758
 -0.0014430301763001386 -0.008617167879113503 0.001715875978630646 0.013551668165381218 0.9925365386985633 -0.06781206434985758 0.006064716257562803 0.028416271300092902
0.100041684035 0.006531642144918799 0.030451552507812202 0.9919346168976102 -0.0724487936763479 0.0018270314885261124 0.014466526273347501 -0.0016090051413001857 -0.009193830731945908
 0.9919346168976102 -0.0724487936763479 0.006517859592946056 0.030452591943370765 -0.0016082093720528072 -0.009193882304201682 0.001916456848850481 0.014453934210510853
 0.0018270314885261124 0.014466526273347501 -0.0016082093720528072 -0.009193882304201682 0.006531915451081281 0.03045286449155544 0.9919346800523658 -0.07244745203391136
 -0.0016090051413001857 -0.009193830731945908 0.001916456848850481 0.014453934210510853 0.9919346800523658 -0.07244745203391136 0.006517699799942171 0.030453902293426285
0.1059090909091 0.006978595485659976 0.032377521474520415 0.9913433785748537 -0.07681101383211876 0.0020151787987291495 0.01531408011001475 -0.0017736613541593418 -0.009734324597135226
 0.9913433785748537 -0.07681101383211876 0.006963148123008012 0.03237867414863017 -0.0017727719235851114 -0.009734387952736743 0.0021154391248146033 0.015299616708502566
 0.0020151787987291495 0.01531408011001475 -0.0017727719235851114 -0.009734387952736743 0.006978900707509433 0.03237890757299038 0.9913434492991312 -0.07680959252523883
 -0.0017736613541593418 -0.009734324597135226 0.0021154391248146033 0.015299616708502566 0.9913434492991312 -0.07680959252523883 0.006962968822316179 0.03238005829217177
0.1062942892872 0.007008632475511748 0.03250443070492408 0.9913036607463472 -0.0770978076642941 0.0020278749325487793 0.015369690933202092 -0.0017847743983242707 -0.009769782785483887
 0.9913036607463472 -0.0770978076642941 0.006993072471689637 0.032505591062793986 -0.0017838786451186606 -0.009769846962427121 0.0021288683748522893 0.01535509849246898
 0.0020278749325487793 0.015369690933202092 -0.0017838786451186606 -0.009769846962427121 0.007008939850975368 0.03250582165080891 0.9913037319838098 -0.07709638112173108
 -0.0017847743983242707 -0.009769782785483887 0.0021288683748522893 0.01535509849246898 0.9913037319838098 -0.07709638112173108 0.006992891850350753 0.03250698003426655
0.11254689453939999 0.007508281573647814 0.034572384293345165 0.9906432807760872 -0.08176009054119354 0.002239917733508146 0.016271767312433634 -0.0019704165151163302 -0.010344841029579716
 0.9906432807760872 -0.08176009054119354 0.007490835413590921 0.034573673782662566 -0.0019694151562299235 -0.010344919389541206 0.002353186886168793 0.016254969904547882
 0.002239917733508146 0.016271767312433634 -0.0019694151562299235 -0.010344919389541206 0.007508624906451115 0.03457385362600892 0.9906433606309283 -0.0817585788782048
 -0.0019704165151163302 -0.010344841029579716 0.002353186886168793 0.016254969904547882 0.9906433606309283 -0.0817585788782048 0.007490632663429953 0.03457514085792049
0.11879949979160001 0.00803092635943313 0.0366550471617187 0.9899531460657743 -0.08643535721037876 0.002463232508452766 0.01717257136384765 -0.0021660064703303865 -0.010918819398691553
 0.9899531460657743 -0.08643535721037876 0.008011485049672524 0.03665647429887732 -0.002164893933821831 -0.010918913598799705 0.002589485116536537 0.017153353606690583
 0.002463232508452766 0.01717257136384765 -0.002164893933821831 -0.010918913598799705 0.00803130751783232 0.0366565942675496 0.9899532350841577 -0.08643376019216495
 -0.0021660064703303865 -0.010918819398691553 0.002589485116536537 0.017153353606690583 0.9899532350841577 -0.08643376019216495 0.008011258860487265 0.0366580189379169
0.1250521050438 0.008576899990046967 0.03875205020902385 0.9892329288662831 -0.09112331103759033 0.0026978883072446163 0.018071915513843136 -0.00237161553698267 -0.01149152877458896
 0.9892329288662831 -0.09112331103759033 0.008555354219635769 0.03875362382975873 -0.0023703863015071595 -0.011491640550635545 0.0028378320755459647 0.018050051138236503
 0.0026978883072446163 0.018071915513843136 -0.0023703863015071595 -0.011491640550635545 0.008577320821622178 0.038753674435284796 0.9892330276060132 -0.09112162841570885
 -0.00237161553698267 -0.01149152877458896 0.0028378320755459647 0.018050051138236503 0.9892330276060132 -0.09112162841570885 0.008555103269810297 0.03875524546989838
0.131304710296 0.009146531692688418 0.04086302069853365 0.9884823048160588 -0.09582364452955738 0.002943950490602364 0.018969608763613068 -0.0025873111655808764 -0.012062777006745948
 0.9884823048160588 -0.09582364452955738 0.009122771805054474 0.040864749971439525 -0.0025859597610567355 -0.012062908173016284 0.003098292921366988 0.018944860521837477
 0.002943950490602364 0.018969608763613068 -0.0025859597610567355 -0.012062908173016284 0.009146994024482291 0.040864721356377295 0.9884824138476842 -0.09582187603897388
 -0.0025873111655808764 -0.012062777006745948 0.003098292921366988 0.018944860521837477 0.9884824138476842 -0.09582187603897388 0.009122494760956515 0.0408664480306903
0.1375573155481 0.009614809245979211 0.042713041004911 0.9878263530638844 -0.10026132558854756 0.003171070016510309 0.019838549568491036 -0.002782574308386012 -0.012605618527044666
 0.9878263530638844 -0.10026132558854756 0.009588718250696033 0.042714899086371015 -0.0027810928888580204 -0.01260576937468304 0.003340162067581227 0.019810939311497102
 0.003171070016510309 0.019838549568491036 -0.0027810928888580204 -0.01260576937468304 0.009615316148929945 0.04271481679879107 0.9878264728641716 -0.10025947108709711
 -0.002782574308386012 -0.012605618527044666 0.003340162067581227 0.019810939311497102 0.9878264728641716 -0.10025947108709711 0.009588412703259063 0.0427166737758841
0.1438099208003 0.010099733749512809 0.04455239517356696 0.9871470274641408 -0.10468682021938812 0.003407307782978093 0.020703512203987483 -0.0029856094677741495 -0.013144696817461294
 0.9871470274641408 -0.10468682021938812 0.010071200468614932 0.04455438929393569 -0.0029839922088843937 -0.01314486913537892 0.0035917923552270716 0.020672821605162574
 0.003407307782978093 0.020703512203987483 -0.0029839922088843937 -0.01314486913537892 0.010100287247402535 0.04455424530498476 0.9871471586020877 -0.10468487945344955
 -0.0029856094677741495 -0.013144696817461294 0.0035917923552270716 0.020672821605162574 0.9871471586020877 -0.10468487945344955 0.010070864870840046 0.04455624008634238
0.1500625260525 0.010601121203470527 0.04638090170836005 0.986444516912492 -0.10909999028934159 0.003652572595006564 0.021564394104292867 -0.0031963256161691555 -0.01367991139540372
 0.986444516912492 -0.10909999028934159 0.010570034105346682 0.046383039573550645 -0.0031945667140737774 -0.013680107043629867 0.003853088295324134 0.02153039685000694
 0.003652572595006564 0.021564394104292867 -0.0031945667140737774 -0.013680107043629867 0.010601723315296985 0.04638282534676974 0.9864446599677383 -0.10909796299368267
 -0.0031963256161691555 -0.01367991139540372 0.003853088295324134 0.02153039685000694 0.9864446599677383 -0.10909796299368267 0.01056966688550656 0.04638496592801976
0.15631513130469998 0.01111878613785345 0.04819838451271202 0.9857190114499121 -0.1135006987704409 0.003906772090364082 0.022421094674970946 -0.0034146305136790755 -0.01421116406835419
 0.9857190114499121 -0.1135006987704409 0.011085033328192594 0.04820067432000493 -0.0034127241855680676 -0.01421138497758562 0.004123953159980616 0.022383556554231163
