! Created with skrf 1.8.0 (http://scikit-rf.org).
# GHz S RI R 50.0 
!freq ReS11 ImS11 ReS12 ImS12 ReS13 ImS13
! ReS14 ImS14
! ReS21 ImS21 ReS22 ImS22 ReS23 ImS23
! ReS24 ImS24
! ReS31 ImS31 ReS32 ImS32 ReS33 ImS33
! ReS34 ImS34
! ReS41 ImS41 ReS42 ImS42 ReS43 ImS43
! ReS44 ImS44
!
0.0 0.001856444565523 0.0 0.9981435554202 0.0 7.241100502259e-05 0.0 -7.241100670888e-05 8.867790758906741e-21
 0.9981435554202 0.0 0.001856444565613 0.0 -7.241100671023e-05 8.867790759072067e-21 7.241100502153e-05 0.0
 7.241100502259e-05 0.0 -7.241100671023e-05 8.867790759072067e-21 0.001856444565564 0.0 0.9981435554202 0.0
 -7.241100670888e-05 8.867790758906741e-21 7.241100502153e-05 0.0 0.9981435554202 0.0 0.001856444565582 0.0
0.005 0.0019985206730597383 0.001512397817912833 0.9979635974655847 -0.0038879499373971884 0.00010295156503582118 0.0008296774063617589 -9.96664633608877e-05 -0.0005150066708743127
 0.9979635974655847 -0.0038879499373971884 0.001998535224891144 0.0015123892404830957 -9.96648490051274e-05 -0.0005150053770435788 0.00010287053931234027 0.0008297083475322116
 0.00010295156503582118 0.0008296774063617589 -9.96648490051274e-05 -0.0005150053770435788 0.001998522160896341 0.0015124641819501824 0.9979635978570283 -0.003887882880759494
 -9.96664633608877e-05 -0.0005150066708743127 0.00010287053931234027 0.0008297083475322116 0.9979635978570283 -0.003887882880759494 0.001998534519137171 0.001512456992050689
0.006252605252188 0.002036107979356538 0.0018964257289324114 0.9979156325864074 -0.00486083779409306 0.00011187295422010017 0.0010374612900714325 -0.00010752247744415443 -0.0006444108964665326
 0.9979156325864074 -0.00486083779409306 0.002036130727195281 0.001896414832956636 -0.00010751996584406075 -0.0006444093006663142 0.00011174636156871319 0.0010375014960190719
 0.00011187295422010017 0.0010374612900714325 -0.00010751996584406075 -0.0006444093006663142 0.002036110218194481 0.001896508688468437 0.9979156331107468 -0.004860753962758636
 -0.00010752247744415443 -0.0006444108964665326 0.00011174636156871319 0.0010375014960190719 0.9979156331107468 -0.004860753962758636 0.00203612953594496 0.0018964995404983501
0.01250521050438 0.002235867288585849 0.0038322810284417337 0.9976587793667996 -0.00972211038758258 0.00016406942860023988 0.0020750136185957303 -0.00015295878057744526 -0.0012917492665420586
 0.9976587793667996 -0.00972211038758258 0.0022359581319094535 0.0038322574632304453 -0.000152948888338923 -0.0012917463132614512 0.00016356466220643714 0.0020751107454341443
 0.00016406942860023988 0.0020750136185957303 -0.000152948888338923 -0.0012917463132614512 0.0022358756813407746 0.0038324465950624847 0.997658780905973 -0.009721943008998674
 -0.00015295878057744526 -0.0012917492665420586 0.00016356466220643714 0.0020751107454341443 0.997658780905973 -0.009721943008998674 0.0022359528130194623 0.0038324266870061593
0.01875781575657 0.0024562259361818545 0.005795255501342821 0.997372629321965 -0.014595571745271195 0.0002291302333377986 0.0031133295707535856 -0.0002088744275369505 -0.0019409854486790864
 0.997372629321965 -0.014595571745271195 0.00245643008826261 0.005795217322578526 -0.00020885237611587796 -0.0019409814282769016 0.00022799647234824724 0.003113504093877565
 0.0002291302333377986 0.0031133295707535856 -0.00020885237611587796 -0.0019409814282769016 0.002456244388155017 0.005795503482661321 0.9973726323580875 -0.014595320917285541
 -0.0002088744275369505 -0.0019409854486790864 0.00022799647234824724 0.003113504093877565 0.9973726323580875 -0.014595320917285541 0.002456417699598983 0.005795471106937154
0.02501042100875 0.002697668130372645 0.007782501435270862 0.9970567999403185 -0.019483494783677297 0.0003071867659818491 0.004152400591364592 -0.0002754170779228433 -0.0025917607056166266
 0.9970567999403185 -0.019483494783677297 0.002698030729653394 0.007782446542823874 -0.0002753781492276315 -0.0025917559653439097 0.000305173214591305 0.004152676638227896
 0.0003071867659818491 0.004152400591364592 -0.0002753781492276315 -0.0025917559653439097 0.0026977005489284243 0.007782831624515563 0.9970568049553856 -0.01948316059352793
 -0.0002754170779228433 -0.0025917607056166266 0.000305173214591305 0.004152676638227896 0.9970568049553856 -0.01948316059352793 0.002698008328132366 0.0077827849904747145
0.03126302626094 0.002960657685171894 0.009792507899044645 0.996710891960188 -0.024386797286901195 0.0003983700319581744 0.005192117118688896 -0.00035272891449055014 -0.003243807112686892
 0.996710891960188 -0.024386797286901195 0.0029612238221093175 0.009792434038964775 -0.0003526684409169074 -0.003243802057172733 0.0003952257080041622 0.005192522489379402
 0.0003983700319581744 0.005192117118688896 -0.0003526684409169074 -0.003243802057172733 0.002960707977405781 0.009792920085825793 0.9967108994322476 -0.02438637979993174
 -0.00035272891449055014 -0.003243807112686892 0.0003952257080041622 0.005192522489379402 0.9967108994322476 -0.02438637979993174 0.0029611884591292156 0.00979285732241019
0.037515631513130004 0.0032456472649870344 0.011824255367102755 0.9963344990779809 -0.029305887239285993 0.0005028091988789065 0.006232328901603373 -0.00044094768883358595 -0.003896887297047361
 0.9963344990779809 -0.029305887239285993 0.00324646199963231 0.011824160131991852 -0.0004408610481850075 -0.003896882388383756 0.0004982828515831502 0.00623289510273018
 0.0005028091988789065 0.006232328901603373 -0.0004408610481850075 -0.003896882388383756 0.00324571934269418 0.011824749307791626 0.9963345094855645 -0.029305386527869275
 -0.00044094768883358595 -0.003896887297047361 0.0004982828515831502 0.00623289510273018 0.9963345094855645 -0.029305386527869275 0.0032464107255696204 0.011824668464782527
0.043768236765320004 0.0035530819279750115 0.013876958416866836 0.9959272119603272 -0.03424092007331365 0.0006206308934755322 0.007272863348381204 -0.0005402070606176617 -0.004550776150298511
 0.9959272119603272 -0.03424092007331365 0.0035541903051170653 0.013876839245286304 -0.0005400896730752701 -0.004550771908012732 0.0006144709773943507 0.007273625630813818
 0.0006206308934755322 0.007272863348381204 -0.0005400896730752701 -0.004550771908012732 0.0035531797041648576 0.013877533849553899 0.9959272257788377 -0.03424033620120699
 -0.0005402070606176617 -0.004550776150298511 0.0006144709773943507 0.007273625630813818 0.9959272257788377 -0.03424033620120699 0.0035541201661660137 0.013877432897970445
0.050020842017509996 0.003883400732561224 0.0159499594465062 0.995488620323512 -0.03919190489805873 0.0007519587579110866 0.008313533132763251 -0.0006506366889134145 -0.0052052532912881
 0.995488620323512 -0.03919190489805873 0.0038848477943600602 0.015949813621917452 -0.0006504840151204602 -0.005205250292276991 0.0007439134363550745 0.008314530530728106
 0.0007519587579110866 0.008313533132763251 -0.0006504840151204602 -0.005205250292276991 0.0038835281242116824 0.015950616077662606 0.9954886380280603 -0.03919123793296463
 -0.0006506366889134145 -0.0052052532912881 0.0007439134363550745 0.008314530530728106 0.9954886380280603 -0.03919123793296463 0.0038847558360484914 0.01595049290980417
0.055454545454549996 0.0041893795824969205 0.017767491290213818 0.9950817293850001 -0.04350735141006412 0.0008771488550755851 0.009217862837113084 -0.00075577267533388 -0.005774321191258294
 0.9950817293850001 -0.04350735141006412 0.004191157558390331 0.017767319975563713 -0.0007555856807044998 -0.0057743197857064036 0.000867260326807051 0.009219099226154645
 0.0008771488550755851 0.009217862837113084 -0.0007555856807044998 -0.0057743197857064036 0.00418953589366741 0.017768218226019917 0.9950817508508283 -0.04350661228855576
 -0.00075577267533388 -0.005774321191258294 0.000867260326807051 0.009219099226154645 0.9950817508508283 -0.04350661228855576 0.004191044237379421 0.017768073978210203
0.056273447269699996 0.004237037533196288 0.0180426764884626 0.9950183142096614 -0.04415875663841015 0.0008969131217640696 0.009354139946580494 -0.0007723622112890911 -0.005860099391612795
 0.9950183142096614 -0.04415875663841015 0.004238868331412537 0.01804250113764047 -0.0007721697511241165 -0.005860098270071695 0.0008867302885924949 0.009355415317041201
 0.0008969131217640696 0.009354139946580494 -0.0007721697511241165 -0.005860098270071695 0.0042371984593477284 0.018043413996146885 0.9950183362730969 -0.04415800664810131
 -0.0007723622112890911 -0.005860099391612795 0.0008867302885924949 0.009355415317041201 0.9950183362730969 -0.04415800664810131 0.004238751597072359 0.018043266424932917
0.06252605252188 0.004614421362885859 0.020154574551315765 0.9945158848547645 -0.049141324655335786 0.0010556107302823001 0.010394476581083884 -0.0009055051678733292 -0.0065150941826700726
 0.9945158848547645 -0.049141324655335786 0.004616680970418999 0.020154366642169023 -0.0009052684596130406 -0.006515095630007841 0.0010430380437709945 0.010396076642899342
 0.0010556107302823001 0.010394476581083884 -0.0009052684596130406 -0.006515095630007841 0.004614619745434658 0.020155392581520826 0.9945159117487598 -0.04914049171052883
 -0.0009055051678733292 -0.0065150941826700726 0.0010430380437709945 0.010396076642899342 0.9945159117487598 -0.04914049171052883 0.004616536502945553 0.02015521833949698
0.06877865777407 0.005015976599458977 0.02228514853493872 0.9939809253469548 -0.05413940980375518 0.001228164505650327 0.011434328187450863 -0.0010501828922432584 -0.007170015294554402
 0.9939809253469548 -0.05413940980375518 0.005018710121523016 0.022284904873937077 -0.0010498975119568091 -0.007170020059302627 0.0012129494313438888 0.011436303559984158
 0.001228164505650327 0.011434328187450863 -0.0010498975119568091 -0.007170020059302627 0.005016216362041341 0.022286046705485802 0.9939809575408136 -0.0541384939734394
 -0.0010501828922432584 -0.007170015294554402 0.0012129494313438888 0.011436303559984158 0.9939809575408136 -0.0541384939734394 0.005018534963619044 0.02228584344324655
0.07503126302626001 0.00544212299679544 0.02443391242577972 0.993413031154625 -0.05915277522228756 0.001414683327321212 0.012473473104698256 -0.0012065083831894088 -0.007824637538981518
 0.993413031154625 -0.05915277522228756 0.005445375581769122 0.024433629654891282 -0.001206169944460726 -0.007824646426699368 0.0013965731871322016 0.01247587834566335
 0.001414683327321212 0.012473473104698256 -0.001206169944460726 -0.007824646426699368 0.005442408065121095 0.02443489031523791 0.9934130691164151 -0.05915177658405563
 -0.0012065083831894088 -0.007824637538981518 0.0013965731871322016 0.01247587834566335 0.9934130691164151 -0.05915177658405563 0.005445166776917191 0.02443465559942754
0.08128386827845 0.005893275634005961 0.0266003921013336 0.9928118005788236 -0.06418115352694102 0.0016152718247187407 0.013511683426711605 -0.0013745901633737195 -0.008478732465072816
 0.9928118005788236 -0.06418115352694102 0.005897092484689101 0.026600066694410198 -0.0013741943170768088 -0.008478746338254782 0.0015940138520128574 0.01351457706915558
 0.0016152718247187407 0.013511683426711605 -0.0013741943170768088 -0.008478746338254782 0.005893609935506375 0.026601449259980006 0.992811844774661 -0.06418007215526984
 -0.0013745901633737195 -0.008478732465072816 0.0015940138520128574 0.01351457706915558 0.992811844774661 -0.06418007215526984 0.00589684707810319 0.026601180570676432
0.08753647353064001 0.006369844809707728 0.028784120395628943 0.9921768351538524 -0.06922425175711774 0.001830030178102419 0.01454872542573121 -0.0015545321304699902 -0.009132068070841475
 0.9921768351538524 -0.06922425175711774 0.00637427119332887 0.02878374865437207 -0.0015540745646233885 -0.009132087848824421 0.0018053715762629526 0.014552170013967216
 0.001830030178102419 0.01454872542573121 -0.0015540745646233885 -0.009132087848824421 0.006370232272576183 0.0287852563355442 0.9921768860479218 -0.06922308773256174
 -0.0015545321304699902 -0.009132068070841475 0.0018053715762629526 0.014552170013967216 0.9921768860479218 -0.06922308773256174 0.006373986232713357 0.028784951063243636
0.09378907878283 0.006872235895968562 0.03098463356659703 0.9915077400138311 -0.07428175493412803 0.002059053925714292 0.015584359871666665 -0.0017464334012485202 -0.009784408631463444
 0.9915077400138311 -0.07428175493412803 0.006877317155637941 0.030984211615879435 -0.0017459098411341844 -0.00978443529030932 0.0020307419312790976 0.015588421996045609
 0.002059053925714292 0.015584359871666665 -0.0017459098411341844 -0.00978443529030932 0.006872680449062974 0.030985847765637703 0.9915077980684144 -0.07428050833854115
 -0.0017464334012485202 -0.009784408631463444 0.0020307419312790976 0.015588421996045609 0.9915077980684144 -0.07428050833854115 0.006876989691739711 0.030985503207628086
0.100041684035 0.007400849166724417 0.03320146873776773 0.9908041242362504 -0.0793533286596798 0.0023024337747056785 0.016618342300111538 -0.0019503881534117002 -0.010435514591473028
 0.9908041242362504 -0.0793533286596798 0.0074066307314131765 0.033200992520572147 -0.001949794361528257 -0.01043554916387888 0.0022702157230820993 0.01662309263063545
 0.0023024337747056785 0.016618342300111538 -0.001949794361528257 -0.01043554916387888 0.007401354739019631 0.0332027606359465 0.9908041899117537 -0.07935199957916353
 -0.0019503881534117002 -0.010435514591473028 0.0022702157230820993 0.01662309263063545 0.9908041899117537 -0.07935199957916353 0.007406257819613148 0.03320237399206953
0.1059090909091 0.007921097363623945 0.03529616485580634 0.9901121148333014 -0.08412494650607082 0.0025439530653095324 0.017586900483465354 -0.002152819982503721 -0.01104516882157546
 0.9901121148333014 -0.08412494650607082 0.007927577493743574 0.03529563385838652 -0.002152156464962058 -0.0110452118095928 0.0025078399462644878 0.017592364558527158
 0.0025439530653095324 0.017586900483465354 -0.002152156464962058 -0.0110452118095928 0.007921663769053471 0.03529752912601746 0.9901121880769722 -0.08412354010089583
 -0.002152819982503721 -0.01104516882157546 0.0025078399462644878 0.017592364558527158 0.9901121880769722 -0.08412354010089583 0.00792715926011154 0.03529710035142661
0.1062942892872 0.007956079605097756 0.03543416197919382 0.9900656011687273 -0.08443862109036003 0.002560255416096615 0.017650423234508068 -0.00216648546357731 -0.011085142515887346
 0.9900656011687273 -0.08443862109036003 0.007962607000848025 0.03543362725086111 -0.0021658172398814103 -0.011085186091065194 0.0025238788105163114 0.017655936553080953
 0.002560255416096615 0.017650423234508068 -0.0021658172398814103 -0.011085186091065194 0.007956650125203258 0.03543553098126567 0.9900656749232726 -0.08443720961182283
 -0.00216648546357731 -0.011085142515887346 0.0025238788105163114 0.017655936553080953 0.9900656749232726 -0.08443720961182283 0.007962185701286328 0.03543509934927994
0.11254689453939999 0.008538316696009362 0.03768224687286729 0.9892917887434555 -0.0895372644428477 0.0028325993424922384 0.01868034838387534 -0.0023948091444017552 -0.01173304507889162
 0.9892917887434555 -0.0895372644428477 0.00854563555595223 0.037681649194948846 -0.002394062326482699 -0.011733098802443182 0.002791811925442555 0.018686703615208435
 0.0028325993424922384 0.01868034838387534 -0.002394062326482699 -0.011733098802443182 0.008538956091395477 0.03768369234532481 0.9892918710330296 -0.0895357706564163
 -0.0023948091444017552 -0.01173304507889162 0.002791811925442555 0.018686703615208435 0.9892918710330296 -0.0895357706564163 0.00854516293498028 0.03768321271550002
0.11879949979160001 0.009147944206799858 0.039945253398394345 0.9884823097827923 -0.0946488761946649 0.0031195406686466147 0.019707858824472985 -0.002635437580611205 -0.01237897108178548
 0.9884823097827923 -0.0946488761946649 0.009156100281970014 0.03994458813179095 -0.002634608043846267 -0.012379036155595335 0.003074090495663532 0.01971513906552364
 0.0031195406686466147 0.019707858824472985 -0.002634608043846267 -0.012379036155595335 0.00914865640343052 0.03994677466982672 0.9884824010610742 -0.09464730019250038
 -0.002635437580611205 -0.01237897108178548 0.003074090495663532 0.01971513906552364 0.9884824010610742 -0.09464730019250038 0.009155573412930544 0.03994624391906794
0.1250521050438 0.009785339959156732 0.04222270708294257 0.9876367922974472 -0.09977306003658284 0.003421148954374198 0.020732691170728727 -0.002888443565027734 -0.013022665495238025
 0.9876367922974472 -0.09977306003658284 0.009794379128754764 0.04222196938052637 -0.00288752722294922 -0.0130227431773412 0.0033707844699460416 0.020740983718627867
 0.003421148954374198 0.020732691170728727 -0.00288752722294922 -0.0130227431773412 0.009786128880848078 0.042224303441300556 0.9876368930161373 -0.0997714019149283
 -0.002888443565027734 -0.013022665495238025 0.0033707844699460416 0.020740983718627867 0.9876368930161373 -0.0997714019149283 0.00979379509295915 0.04222371832666126
0.131304710296 0.010450875594208722 0.04451412833003081 0.9867548697801153 -0.10490940666250959 0.0037374880302231263 0.021754577739068557 -0.0031538941347220694 -0.013663869522050742
 0.9867548697801153 -0.10490940666250959 0.01046084387590984 0.04451331312872279 -0.003152886939283408 -0.013663961126474023 0.003681958145937523 0.021763974117469016
 0.0037374880302231263 0.021754577739068557 -0.003152886939283408 -0.013663961126474023 0.010451745161845147 0.044515799025923765 0.9867549803881512 -0.10490766651763818
 -0.0031538941347220694 -0.013663869522050742 0.003681958145937523 0.021763974117469016 0.9867549803881512 -0.10490766651763818 0.010460199763655783 0.04451515617743688
0.1375573155481 0.01100351933179254 0.04651999664765921 0.9859776569239367 -0.10975826129775573 0.004032405896113804 0.0227445881135599 -0.0033957114382557295 -0.014273644238647092
 0.9859776569239367 -0.10975826129775573 0.011014464773290818 0.04651911464741069 -0.0033946071817333033 -0.014273750043566614 0.003971583545646056 0.022755084443437087
 0.004032405896113804 0.0227445881135599 -0.0033946071817333033 -0.014273750043566614 0.011004472549007507 0.04652174133364229 0.9859777778592369 -0.10975643926364058
 -0.0033957114382557295 -0.014273644238647092 0.003971583545646056 0.022755084443437087 0.9859777778592369 -0.10975643926364058 0.011013758620456065 0.04652105243042041
0.1438099208003 0.011575888333900032 0.04851307549600212 0.985172479946611 -0.11459258536259148 0.00433916448070698 0.02372920005487708 -0.0036471030603931563 -0.01487849617046457
 0.985172479946611 -0.11459258536259148 0.01158785739573944 0.048512122481586185 -0.0036458973617375084 -0.014878617492016683 0.004272821564548702 0.023740880970513897
 0.00433916448070698 0.02372920005487708 -0.0036458973617375084 -0.014878617492016683 0.01157692895515916 0.04851489346040657 0.9851726116508744 -0.11459068155095894
 -0.0036471030603931563 -0.01487849617046457 0.004272821564548702 0.023740880970513897 0.9851726116508744 -0.11459068155095894 0.011587086477580949 0.04851415594630501
0.1500625260525 0.012167744580630718 0.050493133193172585 0.9843395822332269 -0.11941219217725546 0.00465763441869506 0.024708268190137588 -0.003907943772888044 -0.015478290542141962
 0.9843395822332269 -0.11941219217725546 0.012180783852443734 0.050492104693305104 -0.003906632262121143 -0.015478428750209662 0.004585544701300333 0.02472122138633384
 0.00465763441869506 0.024708268190137588 -0.003906632262121143 -0.015478428750209662 0.012168876347785695 0.05049502369725574 0.9843397251453636 -0.11941020670479194
 -0.003907943772888044 -0.015478290542141962 0.004585544701300333 0.02472122138633384 0.9843397251453636 -0.11941020670479194 0.012179945464544605 0.05049423482343924
0.15631513130469998 0.01277884792128724 0.05245994502624614 0.9834792088952429 -0.12421689729808356 0.004987684557611377 0.025681650182485357 -0.004178106574302414 -0.016072895919226022
 0.9834792088952429 -0.12421689729808356 0.012793004124923303 0.05245883630627703 -0.00417668489278648 -0.01607305243725866 0.004909623703013422 0.025695966372704132
