! Created with skrf 1.8.0 (http://scikit-rf.org).
# GHz S RI R 50.0 
!freq ReS11 ImS11 ReS12 ImS12 ReS13 ImS13
! ReS14 ImS14
! ReS21 ImS21 ReS22 ImS22 ReS23 ImS23
! ReS24 ImS24
! ReS31 ImS31 ReS32 ImS32 ReS33 ImS33
! ReS34 ImS34
! ReS41 ImS41 ReS42 ImS42 ReS43 ImS43
! ReS44 ImS44
!
0.0 0.001279875265861 0.0 0.9987201247342 0.0 4.85417200782e-05 0.0 -4.854172005539e-05 5.944646209094025e-21
 0.9987201247342 0.0 0.001279875265834 0.0 -4.854172005488e-05 5.944646209031568e-21 4.854172007651e-05 0.0
 4.85417200782e-05 0.0 -4.854172005488e-05 5.944646209031568e-21 0.001279875259813 0.0 0.9987201247281 0.0
 -4.854172005539e-05 5.944646209094025e-21 4.854172007651e-05 0.0 0.9987201247281 0.0 0.00127987525981 0.0
0.005 0.0013763166239302892 0.0010546740195971139 0.9985982484398683 -0.002681358451266877 6.653095424148013e-05 0.0004919791735337178 -6.496739088525338e-05 -0.0003163915508067941
 0.9985982484398683 -0.002681358451266877 0.0013763155707925152 0.0010546746060273446 -6.496620563971438e-05 -0.0003163906088573081 6.653839984879256e-05 0.0004919762899329429
 6.653095424148013e-05 0.0004919791735337178 -6.496620563971438e-05 -0.0003163906088573081 0.0013763170816409502 0.0010546064680855038 0.9985982481107072 -0.002681425509039598
 -6.496739088525338e-05 -0.0003163915508067941 6.653839984879256e-05 0.0004919762899329429 0.9985982481107072 -0.002681425509039598 0.0013763144564224376 0.0010546080424669872
0.006252605252188 0.0014014206271574325 0.0013224847065219992 0.9985663592072592 -0.003352380252348627 7.155531905940712e-05 0.0006152443815812672 -6.951370542821012e-05 -0.0003958989824412264
 0.9985663592072592 -0.003352380252348627 0.001401418981375552 0.0013224854721323094 -6.951186131390954e-05 -0.00039589781998026954 7.15669517138498e-05 0.0006152406486583844
 7.155531905940712e-05 0.0006152443815812672 -6.951186131390954e-05 -0.00039589781998026954 0.0014014214070652824 0.0013224002703475864 0.9985663587568713 -0.003352464067455022
 -6.951370542821012e-05 -0.0003958989824412264 7.15669517138498e-05 0.0006152406486583844 0.9985663587568713 -0.003352464067455022 0.001401417303042924 0.0013224022793859628
0.01250521050438 0.0015324691226543893 0.002672689361462214 0.9983989644029307 -0.006705697237479172 9.976203901743377e-05 0.0012310399164145729 -9.481885666250096e-05 -0.0007937891461804451
 0.9983989644029307 -0.006705697237479172 0.0015324625564544848 0.002672691218740651 -9.481159163494259e-05 -0.0007937869831120808 9.98084122824476e-05 0.001231031074847671
 9.976203901743377e-05 0.0012310399164145729 -9.481159163494259e-05 -0.0007937869831120808 0.0015324728109577784 0.002672520685239184 0.9983989631724404 -0.006705864628576749
 -9.481885666250096e-05 -0.0007937891461804451 9.98084122824476e-05 0.001231031074847671 0.9983989631724404 -0.006705864628576749 0.0015324564177735091 0.0026725251272352625
0.01875781575657 0.0016732667119196771 0.004042236180396623 0.9982177609059657 -0.01006814413090585 0.00013322242377988443 0.0018477737216392313 -0.0001245257843959177 -0.0011931793507698205
 0.9982177609059657 -0.01006814413090585 0.0016732519666723558 0.004042239465943353 -0.00012450958613568455 -0.0011931763745728432 0.00013332656072052754 0.001847758152098922
 0.00013322242377988443 0.0018477737216392313 -0.00012450958613568455 -0.0011931763745728432 0.0016732754340232452 0.004041983303472218 0.9982177585630295 -0.010068395001823834
 -0.0001245257843959177 -0.0011931793507698205 0.00013332656072052754 0.001847758152098922 0.9982177585630295 -0.010068395001823834 0.0016732385850669752 0.004041990652873302
0.02501042100875 0.001824054147182076 0.005429265114717432 0.9980225633388704 -0.013441390290542895 0.00017199755582259334 0.002465484185948423 -0.0001587016860331313 -0.0015939240624127933
 0.9980225633388704 -0.013441390290542895 0.0018240279764658673 0.0054292701755584635 -0.00015867308473967837 -0.0015939204898671878 0.00017218246795556086 0.0024654600388072582
 0.00017199755582259334 0.002465484185948423 -0.00015867308473967837 -0.0015939204898671878 0.0018240700301365086 0.005428928033238833 0.9980225595500208 -0.013441724575568309
 -0.0001587016860331313 -0.0015939240624127933 0.00017218246795556086 0.0024654600388072582 0.9980225595500208 -0.013441724575568309 0.0018240045675683653 0.005428938812966286
0.03126302626094 0.001985061999034438 0.006832839772884374 0.9978131755163218 -0.016826175303833155 0.00021614900371246575 0.0030841588997718656 -0.0001974123452243132 -0.0019959254303749054
 0.9978131755163218 -0.016826175303833155 0.0019850211671700035 0.006832846966479249 -0.00019736790617462153 -0.0019959215080291026 0.00021643771399528576 0.0030841240948115004
 0.00021614900371246575 0.0030841588997718656 -0.00019736790617462153 -0.0019959215080291026 0.001985087178109585 0.006832418448650005 0.9978131699528046 -0.01682659295895939
 -0.0001974123452243132 -0.0019959254303749054 0.00021643771399528576 0.0030841240948115004 0.9978131699528046 -0.01682659295895939 0.0019849849496230234 0.006832433230145952
0.037515631513130004 0.0021565160627809187 0.008252365390817987 0.9975893959593921 -0.020222890967297246 0.00026573833074888424 0.003703765593391287 -0.00024072255773329625 -0.002399102340352843
 0.9975893959593921 -0.020222890967297246 0.0021564573438693133 0.0082523750849744 -0.00024065887744329176 -0.002399098344661387 0.0002661538839201697 0.0037037178180895484
 0.00026573833074888424 0.003703765593391287 -0.00024065887744329176 -0.002399098344661387 0.0021565526744036583 0.008251859758844095 0.9975893882890217 -0.02022339196258518
 -0.00024072255773329625 -0.002399102340352843 0.0002661538839201697 0.0037037178180895484 0.9975893882890217 -0.02022339196258518 0.002156405531381579 0.008251879162395911
0.043768236765320004 0.0023386394495999822 0.00968741170067025 0.9973510200946479 -0.023631758361521153 0.0003208268660205983 0.004324261542928669 -0.0002886962914123795 -0.0028033809978690936
 0.9973510200946479 -0.023631758361521153 0.0023385596268702584 0.00968742427346806 -0.00028860999529214335 -0.002803377235250206 0.0003213923336947598 0.004324198250348931
 0.0003208268660205983 0.004324261542928669 -0.00028860999529214335 -0.002803377235250206 0.002338689636876668 0.009686821680565255 0.9973510099874234 -0.023632342669600574
 -0.0002886962914123795 -0.0028033809978690936 0.0003213923336947598 0.004324198250348931 0.9973510099874234 -0.023632342669600574 0.0023384894335103557 0.009686846375648506
0.050020842017509996 0.0025316535733493355 0.01113763973052644 0.9970978413505405 -0.02705290099307524 0.00038147557015910416 0.004945597448786808 -0.0003413967496340247 -0.0032086910392434827
 0.9970978413505405 -0.02705290099307524 0.0025315494385418297 0.011137655570227254 -0.0003412844904705274 -0.0032086878460837183 0.0003822140529160094 0.004945515855300207
 0.00038147557015910416 0.004945597448786808 -0.0003412844904705274 -0.0032086878460837183 0.002531719483122047 0.011136965221715532 0.9970978284754405 -0.027053568593797823
 -0.0003413967496340247 -0.0032086910392434827 0.0003822140529160094 0.004945515855300207 0.9970978284754405 -0.027053568593797823 0.0025314580755250245 0.011136995927478148
0.055454545454549996 0.0027084043712946155 0.01241003998975068 0.9968656381278004 -0.030035995750453622 0.0004387436675132724 0.005486197503230296 -0.000391082251472955 -0.0035617018715580853
 0.9968656381278004 -0.030035995750453622 0.002708276509163451 0.01241005899162845 -0.0003909447317227493 -0.00356169946973473 0.00043965128919247606 0.005486097559449452
 0.0004387436675132724 0.005486197503230296 -0.0003909447317227493 -0.00356169946973473 0.0027084856914806584 0.01240929196114508 0.9968656225782814 -0.03003673572331977
 -0.000391082251472955 -0.0035617018715580853 0.00043965128919247606 0.005486097559449452 0.9968656225782814 -0.03003673572331977 0.0027081644829793187 0.012409328513307115
0.056273447269699996 0.002735778662819759 0.012602765872441225 0.9968296517811336 -0.03048638066784826 0.0004477449413862429 0.005567719337379747 -0.0003988863926656386 -0.0036149636200372075
 0.9968296517811336 -0.03048638066784826 0.0027356470156515997 0.012602785377378505 -0.0003987448495376622 -0.003614961362687288 0.0004486795695380024 0.0055676164203005375
 0.0004477449413862429 0.005567719337379747 -0.0003987448495376622 -0.003614961362687288 0.0027358624467155074 0.012602006755074112 0.9968296358070179 -0.03048713154723202
 -0.0003988863926656386 -0.0036149636200372075 0.0004486795695380024 0.0055676164203005375 0.9968296358070179 -0.03048713154723202 0.002735531692594492 0.012602044240753379
0.06252605252188 0.0029512340531177256 0.014082542131318699 0.9965462424714624 -0.033932217183997755 0.0005196949426480884 0.006190569604255376 -0.00046122693695388776 -0.004022130363218763
 0.9965462424714624 -0.033932217183997755 0.002951071700966139 0.014082565709860365 -0.0004610528144511614 -0.004022129437988364 0.0005208488755811645 0.006190442099479222
 0.0005196949426480884 0.006190569604255376 -0.0004610528144511614 -0.004022129437988364 0.0029513378669535043 0.014081698270930738 0.9965462230663278 -0.03393305132935351
 -0.00046122693695388776 -0.004022130363218763 0.0005208488755811645 0.006190442099479222 0.9965462230663278 -0.03393305132935351 0.0029509296256241993 0.014081743356305724
0.06877865777407 0.003178238348551724 0.015576744345515712 0.99624740381579 -0.03739040005408884 0.0005973849405255336 0.006814087632202179 -0.0005284793411911884 -0.004430122733754925
 0.99624740381579 -0.03739040005408884 0.003178042105945399 0.015576772415942415 -0.0005282693689105534 -0.0044301235668913735 0.0005987813653244611 0.006813932031816585
 0.0005973849405255336 0.006814087632202179 -0.0005282693689105534 -0.0044301235668913735 0.003178364353513327 0.015575815583543503 0.9962473806480829 -0.03739131746342141
 -0.0005284793411911884 -0.004430122733754925 0.0005987813653244611 0.006813932031816585 0.9962473806480829 -0.03739131746342141 0.0031778704850615788 0.015575869139466047
0.07503126302626001 0.0034170095166043105 0.017085164714350034 0.9959329257301199 -0.040860895921828996 0.0006808736500287731 0.007438210182931498 -0.0006007037854189011 -0.004838871641101248
 0.9959329257301199 -0.040860895921828996 0.003416776205019668 0.01708519770481042 -0.0006004547175281194 -0.004838874688773496 0.0006825357795816614 0.007438022732859422
 0.0006808736500287731 0.007438210182931498 -0.0006004547175281194 -0.004838874688773496 0.003417159877874098 0.017084150880944754 0.9959328984668058 -0.040861896590787435
 -0.0006007037854189011 -0.004838871641101248 0.0006825357795816614 0.007438022732859422 0.9959328984668058 -0.040861896590787435 0.0034165722434695714 0.017084213829787205
0.08128386827845 0.0036677649350095754 0.018607606827058212 0.9956025978190548 -0.044343653478807435 0.0007702190839323751 0.008062871657695975 -0.000677959644504873 -0.005248307174415819
 0.9956025978190548 -0.044343653478807435 0.003667491382311952 0.018607645175497137 -0.0006776682594418627 -0.005248312922685249 0.0007721701545026428 0.008062648355354066
 0.0007702190839323751 0.008062871657695975 -0.0006776682594418627 -0.005248312922685249 0.0036679418222089347 0.018606507733644258 0.995602566126615 -0.04434473740798417
 -0.000677959644504873 -0.005248307174415819 0.0007721701545026428 0.008062648355354066 0.995602566126615 -0.04434473740798417 0.003667252283843906 0.018606581049774733
0.08753647353064001 0.00393072140836918 0.020143882230349106 0.9952562095148872 -0.04783860684437653 0.0008654785046234218 0.008688004276365508 -0.0007603054580023626 -0.0056583584210019005
 0.9952562095148872 -0.04783860684437653 0.003930404448369949 0.02014392638446695 -0.0007599685582370267 -0.005658367385805463 0.000867741773138749 0.008687740868368422
 0.0008654785046234218 0.008688004276365508 -0.0007599685582370267 -0.005658367385805463 0.003930926995510504 0.020142697671105315 0.9952561730589211 -0.047839774037606905
 -0.0007603054580023626 -0.0056583584210019005 0.000867741773138749 0.008687740868368422 0.9952561730589211 -0.047839774037606905 0.003930127416081574 0.02014278238148672
0.09378907878283 0.0042060951656309005 0.021693807960995685 0.9948935501996199 -0.05134567798240567 0.0009667083773569429 0.009313538206007463 -0.0008477988976168301 -0.0060689533370761484
 0.9948935501996199 -0.05134567798240567 0.004205731637780458 0.021693858378228924 -0.0008474133095192112 -0.006068966064193829 0.0009693071183382047 0.009313230185903994
 0.0009667083773569429 0.009313538206007463 -0.0008474133095192112 -0.006068966064193829 0.004206331630750197 0.021692537712523812 0.9948935086447778 -0.051346928447010665
 -0.0008477988976168301 -0.0060689533370761484 0.0009693071183382047 0.009313230185903994 0.9948935086447778 -0.051346928447010665 0.004205413873939467 0.02169263489715973
0.100041684035 0.004494101841618663 0.023257204742697272 0.9945144093134618 -0.05486477845587504 0.0010739643248794124 0.00993940165494026 -0.0009404967323263867 -0.006480018654923507
 0.9945144093134618 -0.05486477845587504 0.004493688590821796 0.02325726189014696 -0.000940059306068735 -0.006480035719945803 0.001076921827159156 0.009939044260986279
 0.0010739643248794124 0.00993940165494026 -0.000940059306068735 -0.006480035719945803 0.004494371367006301 0.023255848563488175 0.9945143623234748 -0.05486611220292609
 -0.0009404967323263867 -0.006480018654923507 0.001076921827159156 0.009939044260986279 0.9945143623234748 -0.05486611220292609 0.004493327297417985 0.023255959355990254
0.1059090909091 0.004776046600335442 0.024736380928229124 0.9941434485718482 -0.058177934790067005 0.0011801420735062932 0.01052694220952188 -0.0010322669038990116 -0.0068661212802699646
 0.9941434485718482 -0.058177934790067005 0.004775583824494358 0.024736444824756013 -0.0010317779894344363 -0.006866142965978222 0.0011834574257369923 0.01052653392338634
 0.0011801420735062932 0.01052694220952188 -0.0010317779894344363 -0.006866142965978222 0.004776349137230701 0.024734943878476294 0.9941433961741671 -0.05817934670001392
 -0.0010322669038990116 -0.0068661212802699646 0.0011834574257369923 0.01052653392338634 0.9941433961741671 -0.05817934670001392 0.004775179138075711 0.024735068519781918
0.1062942892872 0.004794956448495041 0.02483389562844621 0.9941185764545827 -0.05839581073790889 0.0011873010823834087 0.010565520946392229 -0.0010384547923002283 -0.006891479812354023
 0.9941185764545827 -0.05839581073790889 0.004794490324331544 0.024833959982940083 -0.0010379624017842854 -0.006891501820651368 0.0011906406455151894 0.010565109159400125
 0.0011873010823834087 0.010565520946392229 -0.0010379624017842854 -0.006891501820651368 0.004795261220146419 0.02483245326159713 0.9941185236915699 -0.05839722777935196
 -0.0010384547923002283 -0.006891479812354023 0.0011906406455151894 0.010565109159400125 0.9941185236915699 -0.05839722777935196 0.004794082703107004 0.024832578849767722
0.11254689453939999 0.005108873338321881 0.026423704960534318 0.9937058414729261 -0.06193866920762652 0.00130677245303928 0.01119182057376781 -0.0011417279312075886 -0.007303260902604711
 0.9937058414729261 -0.06193866920762652 0.005108351195222613 0.02642377700854085 -0.0011411774740491519 -0.007303288489294784 0.0013105173837104143 0.011191349114953267
 0.00130677245303928 0.01119182057376781 -0.0011411774740491519 -0.007303288489294784 0.005109215546113755 0.02642217612929195 0.9937057825979116 -0.061940169560572966
 -0.0011417279312075886 -0.007303260902604711 0.0013105173837104143 0.011191349114953267 0.9937057825979116 -0.061940169560572966 0.005107894448154024 0.026422317755540523
0.11879949979160001 0.00543606615978008 0.028026457551132037 0.9932759945594548 -0.06549324092758611 0.001432431263770333 0.011818223246064208 -0.0012503699877089158 -0.007715284636064855
 0.9932759945594548 -0.06549324092758611 0.005435484856072052 0.02802653778885743 -0.0012497583852217604 -0.007715318465966951 0.001436604871747526 0.011817686575027537
 0.001432431263770333 0.011818223246064208 -0.0012497583852217604 -0.007715318465966951 0.005436447997347718 0.028024841961403688 0.9932759292321695 -0.06549482461154962
 -0.0012503699877089158 -0.007715284636064855 0.001436604871747526 0.011817686575027537 0.9932759292321695 -0.06549482461154962 0.005434976185967322 0.02802500092348806
0.1250521050438 0.005776747809291058 0.029641978043840042 0.9928288263324817 -0.06905940624269556 0.0015643293210518328 0.012444649926200032 -0.001364433745833522 -0.008127472311253903
 0.9928288263324817 -0.06905940624269556 0.005776104207280724 0.029642066977189976 -0.001363757943091633 -0.008127513078852415 0.0015689549152131017 0.012444042238911948
 0.0015643293210518328 0.012444649926200032 -0.001363757943091633 -0.008127513078852415 0.005777171473726601 0.029640275383506085 0.992828754210983 -0.06906107328019075
 -0.001364433745833522 -0.008127472311253903 0.0015689549152131017 0.012444042238911948 0.992828754210983 -0.06906107328019075 0.005775540817620794 0.029640453034991437
0.131304710296 0.006131130378069833 0.03127009039278028 0.9923641279215395 -0.0726370392642874 0.001702517366729984 0.013071019862523766 -0.0014839708948387361 -0.008539743794768942
 0.9923641279215395 -0.0726370392642874 0.0061304213433123495 0.0312701885374933 -0.0014832278606759796 -0.008539792224167177 0.0017076182508495893 0.013070335089373459
 0.001702517366729984 0.013071019862523766 -0.0014832278606759796 -0.008539792224167177 0.006131598069774502 0.03126830033280672 0.9923640486622641 -0.07263878967945096
 -0.0014839708948387361 -0.008539743794768942 0.0017076182508495893 0.013070335089373459 0.9923640486622641 -0.07263878967945096 0.006129800439070587 0.03126849808368431
0.1375573155481 0.006411876838724135 0.032699692413017276 0.9919692639054706 -0.0760150151301845 0.0018277858414796106 0.013676087182033971 -0.0015897697178168528 -0.008930865175252328
 0.9919692639054706 -0.0760150151301845 0.006411098579187288 0.032699796903075555 -0.001588954902800474 -0.008930921221901787 0.0018333753985937513 0.013675326975090255
 0.0018277858414796106 0.013676087182033971 -0.001588954902800474 -0.008930921221901787 0.006412390085248619 0.032697814751970776 0.9919691771869528 -0.07601684891135994
 -0.0015897697178168528 -0.008930865175252328 0.0018333753985937513 0.013675326975090255 0.9919691771869528 -0.07601684891135994 0.006410417996373238 0.03269803029886912
0.1438099208003 0.006702298128099189 0.034122851668879677 0.9915609067827156 -0.07938549186138444 0.0019580981192691554 0.01427922625496781 -0.001699797153710894 -0.009320203272635543
 0.9915609067827156 -0.07938549186138444 0.0067014474051453 0.03412296275671047 -0.0016989072872525873 -0.009320267640310334 0.0019641978475259934 0.014278385111935776
 0.0019580981192691554 0.01427922625496781 -0.0016989072872525873 -0.009320267640310334 0.006702859012080081 0.03412088607999708 0.9915608122639762 -0.07938740902734669
 -0.001699797153710894 -0.009320203272635543 0.0019641978475259934 0.014278385111935776 0.9915608122639762 -0.07938740902734669 0.006700704464300249 0.03412112056162766
0.1500625260525 0.007002305388676734 0.03553948075001215 0.99113914843927 -0.08274841732570931 0.002093415836588072 0.014880393488552322 -0.0018140157294816472 -0.009707716025847253
 0.99113914843927 -0.08274841732570931 0.0070013789610820845 0.03553959870213048 -0.0018130475454994344 -0.009707789446494515 0.0021000471130990087 0.014879465710180926
 0.002093415836588072 0.014880393488552322 -0.0018130475454994344 -0.009707789446494515 0.007002915987972097 0.035537426892134835 0.9911390457780805 -0.08275041789746013
 -0.0018140157294816472 -0.009707716025847253 0.0021000471130990087 0.014879465710180926 0.9911390457780805 -0.08275041789746013 0.007000570991222371 0.035537681495807626
0.15631513130469998 0.00731180929182879 0.03694949505639811 0.9907040810516125 -0.08610373898516459 0.0022337002621355194 0.015479545919441885 -0.0019323875916744321 -0.010093362171732644
