! Created with skrf 1.8.0 (http://scikit-rf.org).
# GHz S RI R 50.0 
!freq ReS11 ImS11 ReS12 ImS12 ReS13 ImS13
! ReS14 ImS14
! ReS21 ImS21 ReS22 ImS22 ReS23 ImS23
! ReS24 ImS24
! ReS31 ImS31 ReS32 ImS32 ReS33 ImS33
! ReS34 ImS34
! ReS41 ImS41 ReS42 ImS42 ReS43 ImS43
! ReS44 ImS44
!
0.0 0.001616278603327 0.0 0.9983837213626 0.0 6.260810857254e-05 0.0 -6.260810821793e-05 7.667281932975908e-21
 0.9983837213626 0.0 0.001616278603345 0.0 -6.260810821816e-05 7.667281933004075e-21 6.260810857415e-05 0.0
 6.260810857254e-05 0.0 -6.260810821816e-05 7.667281933004075e-21 0.00161627861472 0.0 0.9983837213739 0.0
 -6.260810821793e-05 7.667281932975908e-21 6.260810857415e-05 0.0 0.9983837213739 0.0 0.001616278614727 0.0
0.005 0.0017392347385480937 0.001319421405680318 0.9982281224574954 -0.0033855487626386527 8.82558822818895e-05 0.0007058812828033869 -8.559591079067009e-05 -0.0004402247065802128
 0.9982281224574954 -0.0033855487626386527 0.0017392411461855202 0.001319417689628241 -8.559550380037107e-05 -0.00044022447041273607 8.82107467956835e-05 0.0007058983938195717
 8.82558822818895e-05 0.0007058812828033869 -8.559550380037107e-05 -0.00044022447041273607 0.0017392342089896469 0.0013193545068733408 0.9982281220950593 -0.003385615821233632
 -8.559591079067009e-05 -0.0004402247065802128 8.82107467956835e-05 0.0007058983938195717 0.9982281220950593 -0.003385615821233632 0.0017392409601905494 0.0013193504805032107
0.006252605252188 0.0017715484623588719 0.0016544699441405518 0.9981869607571212 -0.004232754475575954 9.562097035912253e-05 0.000882681648324401 -9.2118843893483e-05 -0.0005508495664533823
 0.9981869607571212 -0.004232754475575954 0.0017715584786159794 0.001654465251401165 -9.211820996240398e-05 -0.0005508492769365593 9.555044952328823e-05 0.0008827038856131291
 9.562097035912253e-05 0.000882681648324401 -9.211820996240398e-05 -0.0005508492769365593 0.0017715477034604271 0.001654386335348776 0.9981869602597829 -0.0042328382954684085
 -9.2118843893483e-05 -0.0005508495664533823 9.555044952328823e-05 0.0008827038856131291 0.9981869602597829 -0.0042328382954684085 0.0017715582578533406 0.0016543812408499731
0.01250521050438 0.0019420394580694222 0.0033435943678251415 0.9979682997384559 -0.008466251426887204 0.00013805662740859514 0.0017656417877870438 -0.00012930406058149943 -0.0011043393349709852
 0.9979682997384559 -0.008466251426887204 0.001942079450884514 0.003343584510012194 -0.00012930155494311396 -0.0011043388195579801 0.00013777537881088113 0.0017656954325883849
 0.00013805662740859514 0.0017656417877870438 -0.00012930155494311396 -0.0011043388195579801 0.0019420369844379698 0.0033434275205081886 0.9979682983132712 -0.008466418842764781
 -0.00012930406058149943 -0.0011043393349709852 0.00013777537881088113 0.0017656954325883849 0.9979682983132712 -0.008466418842764781 0.001942079142332023 0.0033434167141387057
0.01875781575657 0.0021281383903471985 0.0050567128688658505 0.9977274562543644 -0.012710780524524883 0.0001900152788822117 0.0026494770574960434 -0.0001742816008761673 -0.0016596395872785696
 0.9977274562543644 -0.012710780524524883 0.00212822824997598 0.005056697348094405 -0.0001742760029863603 -0.0016596389251791563 0.0001893834215169479 0.0026495731173821467
 0.0001900152788822117 0.0026494770574960434 -0.0001742760029863603 -0.0016596389251791563 0.0021281332438729318 0.005056463066950029 0.9977274534696225 -0.01271103148301552
 -0.0001742816008761673 -0.0016596395872785696 0.0001893834215169479 0.0026495731173821467 0.9977274534696225 -0.01271103148301552 0.002128228001388092 0.005056445885327397
0.02501042100875 0.0023302197545282477 0.006791404075412383 0.997464136745688 -0.01696838015816651 0.00025159853414687973 0.0035342153394100698 -0.00022716508831231285 -0.00221648259390812
 0.997464136745688 -0.01696838015816651 0.002330379329942898 0.00679138237736999 -0.00022715518894829998 -0.002216481880989671 0.0002504761041805439 0.003534366603583439
 0.00025159853414687973 0.0035342153394100698 -0.00022715518894829998 -0.002216481880989671 0.0023302109757908263 0.006791071641042555 0.997464132167839 -0.016968714652337534
 -0.00022716508831231285 -0.00221648259390812 0.0002504761041805439 0.003534366603583439 0.997464132167839 -0.016968714652337534 0.0023303793045041693 0.0067910473833760815
0.03126302626094 0.002548642536804577 0.008546412229196453 0.9971780332269609 -0.021239910829956292 0.0003229083198371777 0.004419800922037227 -0.00028806468045652667 -0.00277467744535709
 0.9971780332269609 -0.021239910829956292 0.002548891648185116 0.008546383825388082 -0.00028804927984783785 -0.002774676794315509 0.000321155147312547 0.004420021972803309
 0.0003229083198371777 0.004419800922037227 -0.00028804927984783785 -0.002774676794315509 0.0025486291660472213 0.008545997517404185 0.9971780264188412 -0.02124032890505468
 -0.00028806468045652667 -0.00277467744535709 0.000321155147312547 0.004420021972803309 0.9971780264188412 -0.02124032890505468 0.0025488920249901108 0.008545965447470629
0.037515631513130004 0.0027837577715051046 0.010320911196511172 0.996868831115464 -0.025525791082802295 0.00040404584212446994 0.00530614490605186 -0.0003570878777183687 -0.003334059656516236
 0.996868831115464 -0.025525791082802295 0.0027841162193946454 0.010320875545506099 -0.00035706578470781354 -0.0033340591969928143 0.00040152149859332673 0.00530645213717876
 0.00040404584212446994 0.00530614490605186 -0.00035706578470781354 -0.0033340591969928143 0.002783738849082172 0.010320414618240218 0.9968688216350355 -0.025526292813707507
 -0.0003570878777183687 -0.003334059656516236 0.00040152149859332673 0.00530645213717876 0.9968688216350355 -0.025526292813707507 0.0027841171930770106 0.010320373965209163
0.043768236765320004 0.0030359114595863174 0.012114280511899864 0.9965362124241359 -0.029826221386078128 0.0004951110925001268 0.006193140541560089 -0.0004343398077581618 -0.0038944758408820134
 0.9965362124241359 -0.029826221386078128 0.0030363990320512683 0.012114237060108682 -0.0004343098392473063 -0.0038944757195305537 0.0004916748688123777 0.006193552178661868
 0.0004951110925001268 0.006193140541560089 -0.0004343098392473063 -0.0038944757195305537 0.0030358860258604876 0.012113702535267666 0.9965361998225019 -0.02982680687649711
 -0.0004343398077581618 -0.0038944758408820134 0.0004916748688123777 0.006193552178661868 0.9965361998225019 -0.02982680687649711 0.0030364008129054104 0.012113652494121734
0.050020842017509996 0.0033054459082479896 0.013926012823524351 0.9961798573797505 -0.03414127661814558 0.0005962025493111975 0.007080669560065497 -0.0005199233189147075 -0.004455777393199047
 0.9961798573797505 -0.03414127661814558 0.0033060823879163094 0.013925961005805591 -0.000519884299731888 -0.004455777773774143 0.0005917134496969666 0.00708120568182224
 0.0005962025493111975 0.007080669560065497 -0.000519884299731888 -0.004455777773774143 0.003305413008797296 0.013925353975839185 0.9961798412033367 -0.03414194599908168
 -0.0005199233189147075 -0.004455777393199047 0.0005917134496969666 0.00708120568182224 0.9961798412033367 -0.03414194599908168 0.0033060852057916375 0.013925293707510234
0.055454545454549996 0.003554058404209163 0.015515033441857796 0.9958506482508109 -0.037903064942005155 0.000692271779223475 0.007852294145467589 -0.0006011424219151796 -0.004944170356916933
 0.9958506482508109 -0.037903064942005155 0.003554840354671393 0.015514973886240548 -0.0006010945890312016 -0.004944171319992997 0.0006867529725724987 0.007852956209867154
 0.000692271779223475 0.007852294145467589 -0.0006010945890312016 -0.004944171319992997 0.0035540182430542997 0.015514304790610967 0.9958506285919736 -0.03790380735251641
 -0.0006011424219151796 -0.004944170356916933 0.0006867529725724987 0.007852956209867154 0.9958506285919736 -0.03790380735251641 0.003554844273171703 0.01551423492669612
0.056273447269699996 0.003592700420864072 0.015755668472549902 0.9957994453947241 -0.03847095141722628 0.000707416959672797 0.007968605298526669 -0.0006139389948695394 -0.005017817384390184
 0.9957994453947241 -0.03847095141722628 0.003593505590562579 0.01575560771256257 -0.0006138897575554551 -0.005017818447801548 0.000701733705161763 0.007969287858185872
 0.000707416959672797 0.007968605298526669 -0.0006138897575554551 -0.005017818447801548 0.003592659103221433 0.015754929341699447 0.995799425180585 -0.03847170484585737
 -0.0006139389948695394 -0.005017817384390184 0.000701733705161763 0.007969287858185872 0.995799425180585 -0.03847170484585737 0.003593509691960624 0.01575485797309003
0.06252605252188 0.003898011652711059 0.017602850511041827 0.9953946557101669 -0.04281518509741813 0.0008288491661713921 0.00885681440621161 -0.000716485123436443 -0.005580448878659557
 0.9953946557101669 -0.04281518509741813 0.003899005301988919 0.017602780221333207 -0.0007164245083318902 -0.005580450823023087 0.0008218302050527162 0.008857667253137589
 0.0008288491661713921 0.00885681440621161 -0.0007164245083318902 -0.005580450823023087 0.0038979609708601594 0.017602031743696803 0.9953946309876784 -0.04281602275931853
 -0.000716485123436443 -0.005580448878659557 0.0008218302050527162 0.008857667253137589 0.9953946309876784 -0.04281602275931853 0.0038990109531937913 0.017601948367490745
0.06877865777407 0.0042217137916713 0.01946718982147138 0.9949651678677135 -0.04717387646839223 0.0009605919562575781 0.009745157879155973 -0.0008276576423562124 -0.006143523928412461
 0.9949651678677135 -0.04717387646839223 0.004222915722431383 0.019467109403464206 -0.0008275844975779214 -0.006143526969124552 0.0009520954787585273 0.009746206780283616
 0.0009605919562575781 0.009745157879155973 -0.0008275844975779214 -0.006143526969124552 0.0042216528065444755 0.01946629212551313 0.9949651381569234 -0.04717479857538908
 -0.0008276576423562124 -0.006143523928412461 0.0009520954787585273 0.009746206780283616 0.9949651381569234 -0.04717479857538908 0.004222923210051308 0.019466195799620712
0.07503126302626001 0.004564138634282785 0.021348335673790853 0.9945106620814195 -0.05154689322308616 0.0011027359252172885 0.010633491720161157 -0.00094755006982894 -0.006706892949451183
 0.9945106620814195 -0.05154689322308616 0.004565568666658365 0.021348244517456483 -0.0009474632513972166 -0.006706897319212566 0.001092619881967254 0.010634764381231746
 0.0011027359252172885 0.010633491720161157 -0.0009474632513972166 -0.006706897319212566 0.004564066414361444 0.02134735981688182 0.9945106268912492 -0.05154790001486949
 -0.00094755006982894 -0.006706892949451183 0.001092619881967254 0.010634764381231746 0.9945106268912492 -0.05154790001486949 0.0045655782973295575 0.02134724956396244
0.08128386827845 0.004925615593922235 0.023245949456634683 0.9940308195452123 -0.05593407815753307 0.0012553693481742708 0.01152166738423681 -0.001076253425132811 -0.007270404316648194
 0.9940308195452123 -0.05593407815753307 0.004927293572058507 0.023245846940116895 -0.0010761517970734812 -0.007270410265527683 0.0012434914711619855 0.01152319347081668
 0.0012553693481742708 0.01152166738423681 -0.0010761517970734812 -0.007270410265527683 0.0049255312176826604 0.023244896272008226 0.9940307783734235 -0.05593516989608809
 -0.001076253425132811 -0.007270404316648194 0.0012434914711619855 0.01152319347081668 0.9940307783734235 -0.05593516989608809 0.004927305674498557 0.023244771078571428
0.08753647353064001 0.005306471664782347 0.02515970034154621 0.9935253227011308 -0.06033525346450492 0.001418578057166003 0.012409532098016558 -0.001213856142720123 -0.007833904091982802
 0.9935253227011308 -0.06033525346450492 0.005308417462609429 0.025159585830388638 -0.0012137385772231215 -0.0078339118874463 0.0014047958831579477 0.012411343256153774
 0.001418578057166003 0.012409532098016558 -0.0012137385772231215 -0.0078339118874463 0.005306374221532237 0.025158570721817652 0.9935252750327934 -0.06033643044035957
 -0.001213856142720123 -0.007833904091982802 0.0014047958831579477 0.012411343256153774 0.9935252750327934 -0.06033643044035957 0.005308432387913463 0.02515842953724821
0.09378907878283 0.005707031355994233 0.027089262182407925 0.9929938554809447 -0.06475022379869086 0.0015924453224688215 0.013296929095747456 -0.001360443981243348 -0.008397235842345387
 0.9929938554809447 -0.06475022379869086 0.005709264883100581 0.027089135028755852 -0.0013603093588427 -0.008397245769289652 0.0015766162180437405 0.013299058972323967
 0.0015924453224688215 0.013296929095747456 -0.0013603093588427 -0.008397245769289652 0.005706919947904617 0.027088057083478282 0.9929938007876175 -0.06475148632711866
 -0.001360443981243348 -0.008397235842345387 0.0015766162180437405 0.013299058972323967 0.9929938007876175 -0.06475148632711866 0.005709283005918916 0.02708789881885882
0.100041684035 0.006127616603859996 0.029034311256735407 0.9924361035293959 -0.06917877850756513 0.0017770517360653864 0.01418369780317762 -0.0015160999292030634 -0.00896024051608415
 0.9924361035293959 -0.06917877850756513 0.006130157811242633 0.029034170798186897 -0.0015159471389504307 -0.00896025287687094 0.0017590329246475645 0.014186182065778116
 0.0017770517360653864 0.01418369780317762 -0.0015159471389504307 -0.00896025287687094 0.006127490347075249 0.029033031698424375 0.9924360412682622 -0.06918012692797113
 -0.0015160999292030634 -0.00896024051608415 0.0017590329246475645 0.014186182065778116 0.9924360412682622 -0.06918012692797113 0.006130179530572199 0.029032855225062066
0.1059090909091 0.006540788703613114 0.030873331251322564 0.9918885284692224 -0.07334666262496424 0.0019601217523874405 0.01501511850792522 -0.0016704852827184916 -0.009488119164847545
 0.9918885284692224 -0.07334666262496424 0.0065436368235036405 0.030873177691032302 -0.0016703144412246677 -0.009488134100101485 0.0019399181767543825 0.015017969580693818
 0.0019601217523874405 0.01501511850792522 -0.0016703144412246677 -0.009488134100101485 0.006540647722706171 0.030871982801929376 0.991888458598731 -0.07334809197919383
 -0.0016704852827184916 -0.009488119164847545 0.0019399181767543825 0.015017969580693818 0.991888458598731 -0.07334809197919383 0.006543662303106151 0.030871788178252643
0.1062942892872 0.006568546667167629 0.03099452456150517 0.991851754414658 -0.07362069331524151 0.0019724750972941432 0.015069673985997747 -0.001680904107986238 -0.009522756361690737
 0.991851754414658 -0.07362069331524151 0.0065714155530005435 0.030994370119831877 -0.001680732047658991 -0.00952277147615801 0.0019521236873338299 0.015072550342444408
 0.0019724750972941432 0.015069673985997747 -0.001680732047658991 -0.00952277147615801 0.006568404693211939 0.03099317162274889 0.9918516840270836 -0.07362212799576187
 -0.001680904107986238 -0.009522756361690737 0.0019521236873338299 0.015072550342444408 0.9918516840270836 -0.07362212799576187 0.00657144129299242 0.03099297577062603
0.11254689453939999 0.007030138009986875 0.032969578523015984 0.9912404978295531 -0.07807573160006355 0.0021787902996953895 0.01595468987470996 -0.0018549336728992253 -0.01008461887694306
 0.9912404978295531 -0.07807573160006355 0.007033354625844649 0.03296940940260866 -0.0018547412492055746 -0.010084637082437148 0.002155963314306591 0.015957998092090225
 0.0021787902996953895 0.01595468987470996 -0.0018547412492055746 -0.010084637082437148 0.007029979467853278 0.032968153349460606 0.9912404187402962 -0.07807725292991535
 -0.0018549336728992253 -0.01008461887694306 0.002155963314306591 0.015957998092090225 0.9912404187402962 -0.07807725292991535 0.007033384837067644 0.03296793690533102
0.11879949979160001 0.007512704176063337 0.034959147990639754 0.9906020257861962 -0.08254364539643398 0.002396069219128865 0.016838574272891215 -0.0020382627126904382 -0.010645660781756015
 0.9906020257861962 -0.08254364539643398 0.007516288632545973 0.03495896347668073 -0.002038048841567489 -0.010645682433111618 0.00237062362683106 0.01684235619604763
 0.002396069219128865 0.016838574272891215 -0.002038048841567489 -0.010645682433111618 0.00751252823325349 0.03495765178926942 0.9906019374022192 -0.08254525379106074
 -0.0020382627126904382 -0.010645660781756015 0.00237062362683106 0.01684235619604763 0.9906019374022192 -0.08254525379106074 0.007516323792399212 0.03495741349464137
0.1250521050438 0.008016555653868941 0.036962905449216626 0.9899360328059881 -0.08702417618628612 0.002624380602572938 0.01772115265570286 -0.0022309621482311474 -0.011205712007697273
 0.9899360328059881 -0.08702417618628612 0.008020528126510627 0.03696270480576382 -0.002230725754950882 -0.01120573747729401 0.0025961733491487345 0.017725452225315127
 0.002624380602572938 0.01772115265570286 -0.002230725754950882 -0.01120573747729401 0.008016361498196085 0.03696133948858885 0.9899359345155456 -0.08702587208681128
 -0.0022309621482311474 -0.011205712007697273 0.0025961733491487345 0.017725452225315127 0.9899359345155456 -0.08702587208681128 0.008020568740766763 0.03696107803743512
0.131304710296 0.008541999736451807 0.03898052039529651 0.9892422161058946 -0.09151705553519696 0.0028637899580901843 0.018602247259141936 -0.002433099630052741 -0.011764599704260054
 0.9892422161058946 -0.09151705553519696 0.008546380472121817 0.03898030286286383 -0.002432839649616622 -0.011764629381952933 0.0028326779995180556 0.018607110529106036
 0.0028637899580901843 0.018602247259141936 -0.002432839649616622 -0.011764629381952933 0.00854178657777625 0.03897888600731992 0.9892421072773765 -0.09151883940621593
 -0.002433099630052741 -0.011764599704260054 0.0028326779995180556 0.018607110529106036 0.9892421072773765 -0.09151883940621593 0.008546427075517908 0.038978600043502364
0.1375573155481 0.008971402548684887 0.040748253428038 0.9886382633395252 -0.09575846674036907 0.0030850426318276137 0.019455514832682184 -0.0026154638384289068 -0.012295977032568961
 0.9886382633395252 -0.09575846674036907 0.008976213915260283 0.0407480223699341 -0.0026151789062477597 -0.012296010976193554 0.003050957807921556 0.019460936039396172
 0.0030850426318276137 0.019455514832682184 -0.0026151789062477597 -0.012296010976193554 0.008971170452975455 0.040746551331972455 0.988638143477521 -0.0957603388664077
 -0.0026154638384289068 -0.012295977032568961 0.003050957807921556 0.019460936039396172 0.988638143477521 -0.0957603388664077 0.00897626594934403 0.04074624458467313
0.1438099208003 0.009415986979375145 0.04250618297460103 0.9880129167052661 -0.09998863443868371 0.003315223926553299 0.020305023407922545 -0.0028051087969945434 -0.012823927545381333
 0.9880129167052661 -0.09998863443868371 0.009421249654488475 0.0425059377770566 -0.0028047978076486983 -0.012823966134225519 0.0032780367237640893 0.020311044736209306
 0.003315223926553299 0.020305023407922545 -0.0028047978076486983 -0.012823966134225519 0.00941573534268462 0.04250441450477471 0.988012785177353 -0.09999059527746372
 -0.0028051087969945434 -0.012823927545381333 0.0032780367237640893 0.020311044736209306 0.988012785177353 -0.09999059527746372 0.00942130749808709 0.042504085853403525
0.1500625260525 0.009875589262607738 0.0442541476941538 0.9873663444395658 -0.10420743880744436 0.0035542499029859805 0.021150676064188467 -0.003001953220743969 -0.013348360591298136
 0.9873663444395658 -0.10420743880744436 0.009881324005372616 0.04425388768295018 -0.003001615074311603 -0.013348404219478237 0.0035138316823548456 0.021157341226208163
 0.0035542499029859805 0.021150676064188467 -0.003001615074311603 -0.013348404219478237 0.00987531751251217 0.04425231423666406 0.987366200596316 -0.10420948883223362
 -0.003001953220743969 -0.013348360591298136 0.0035138316823548456 0.021157341226208163 0.987366200596316 -0.10420948883223362 0.009881388052632419 0.044251962483451895
0.15631513130469998 0.01035004438106397 0.04599199108074537 0.9866987157346184 -0.10841476076891829 0.0038020355711098517 0.021992377618639616 -0.0032059147721996283 -0.01386918751960152
 0.9866987157346184 -0.10841476076891829 0.010356272033649683 0.04599171551796398 -0.0032055483744316067 -0.013869236595905377 0.0037582585827054173 0.021999731835968248
