! Created with skrf 1.8.0 (http://scikit-rf.org).
# GHz S RI R 50.0 
!freq ReS11 ImS11 ReS12 ImS12 ReS13 ImS13
! ReS14 ImS14
! ReS21 ImS21 ReS22 ImS22 ReS23 ImS23
! ReS24 ImS24
! ReS31 ImS31 ReS32 ImS32 ReS33 ImS33
! ReS34 ImS34
! ReS41 ImS41 ReS42 ImS42 ReS43 ImS43
! ReS44 ImS44
!
0.0 0.001567059212333 0.0 0.9984329407877 0.0 6.054534963875e-05 0.0 -6.054534977067e-05 7.414666879990795e-21
 0.9984329407877 0.0 0.001567059212353 0.0 -6.054534977102e-05 7.414666880033658e-21 6.054534963652e-05 0.0
 6.054534963875e-05 0.0 -6.054534977102e-05 7.414666880033658e-21 0.001567059199555 0.0 0.9984329407749 0.0
 -6.054534977067e-05 7.414666879990795e-21 6.054534963652e-05 0.0 0.9984329407749 0.0 0.001567059199552 0.0
0.005 0.0016861118850207823 0.0012808173662012705 0.9982823158674398 -0.0032825283572853136 8.502280994953583e-05 0.0006739457878584461 -8.254165984272318e-05 -0.00042181305368156185
 0.9982823158674398 -0.0032825283572853136 0.0016861124746700474 0.0012808169854118558 -8.254283081832101e-05 -0.000421813867211627 8.500495013153516e-05 0.0006739523702864542
 8.502280994953583e-05 0.0006739457878584461 -8.254283081832101e-05 -0.000421813867211627 0.001686111365363533 0.0012807503315692215 0.9982823155142694 -0.0032825954362586773
 -8.254165984272318e-05 -0.00042181305368156185 8.500495013153516e-05 0.0006739523702864542 0.9982823155142694 -0.0032825954362586773 0.0016861122936589442 0.0012807498670842471
0.006252605252188 0.0017173570036574997 0.0016060622541172345 0.9982425332825037 -0.004103960410915909 9.202197602404036e-05 0.0008427545388044294 -8.876108566694842e-05 -0.0005278119355813843
 0.9982425332825037 -0.004103960410915909 0.0017173579263316287 0.0016060618208054707 -8.876290847616532e-05 -0.0005278129367764582 9.199406918618295e-05 0.000842763121762963
 9.202197602404036e-05 0.0008427545388044294 -8.876290847616532e-05 -0.0005278129367764582 0.0017173562508562806 0.0016059784900836504 0.9982425327894209 -0.004104044225655472
 -8.876108566694842e-05 -0.0005278119355813843 9.199406918618295e-05 0.000842763121762963 0.9982425327894209 -0.004104044225655472 0.0017173577020245328 0.0016059779665162659
0.01250521050438 0.0018819614118654295 0.0032457763853017247 0.9980315600174664 -0.008208706435555385 0.0001321929370624477 0.0016858410698080124 -0.00012409782951641827 -0.0010581751293973123
 0.9980315600174664 -0.008208706435555385 0.0018819651088648583 0.003245775964701666 -0.00012410502144562198 -0.0010581769581686554 0.00013208157141760582 0.001685862042434146
 0.0001321929370624477 0.0016858410698080124 -0.00012410502144562198 -0.0010581769581686554 0.0018819589918491102 0.003245609051411024 0.9980315586236728 -0.008208873839371194
 -0.00012409782951641827 -0.0010581751293973123 0.00013208157141760582 0.001685862042434146 0.9980315586236728 -0.008208873839371194 0.0018819647817413937 0.003245608595417632
0.01875781575657 0.002061236784160248 0.004908818855198519 0.9977997551485898 -0.0123242238862545 0.00018115243177562861 0.0025298285013660355 -0.00016666564122696462 -0.0015903134264303844
 0.9977997551485898 -0.0123242238862545 0.002061245115509043 0.004908818944837144 -0.0001666816911508353 -0.0015903158719761108 0.00018090207494098786 0.0025298663780158287
 0.00018115243177562861 0.0025298285013660355 -0.0001666816911508353 -0.0015903158719761108 0.002061231791762831 0.004908568042781386 0.9977997524387026 -0.012324474795901121
 -0.00016666564122696462 -0.0015903134264303844 0.00018090207494098786 0.0025298663780158287 0.9977997524387026 -0.012324474795901121 0.0020612447914081446 0.0049085683003880975
0.02501042100875 0.0022555364459314123 0.006592853242466896 0.9975468422175916 -0.0164525002877381 0.0002389958900539092 0.0033747502703700936 -0.0002165708917346509 -0.002123980036231085
 0.9975468422175916 -0.0164525002877381 0.0022555512853163003 0.006592854395455963 -0.00021659925062918068 -0.002123982847289054 0.00023855087988917373 0.0033748102612888835
 0.0002389958900539092 0.0033747502703700936 -0.00021659925062918068 -0.002123982847289054 0.0022555279932107274 0.006592519027977037 0.9975468377774633 -0.0164528346739341
 -0.0002165708917346509 -0.002123980036231085 0.00023855087988917373 0.0033748102612888835 0.9975468377774633 -0.0164528346739341 0.0022555510652343736 0.006592520705509874
0.03126302626094 0.0024651991094342776 0.008296673388464222 0.9972725308333693 -0.02059438170282106 0.000305819137627258 0.0042205612271250656 -0.0002739168827879248 -0.0026590006600482594
 0.9972725308333693 -0.02059438170282106 0.0024652223473105015 0.008296676215011683 -0.0002739609700886414 -0.00265900354440307 0.0003051236364859485 0.004220649245900452
 0.000305819137627258 0.0042205612271250656 -0.0002739609700886414 -0.00265900354440307 0.0024651863221450596 0.008296255856525827 0.9972725242460229 -0.020594799567181202
 -0.0002739168827879248 -0.0026590006600482594 0.0003051236364859485 0.004220649245900452 0.9972725242460229 -0.020594799567181202 0.002465222325862106 0.008296259722628511
0.037515631513130004 0.0026905561051047537 0.0100194899565778 0.9969765241448704 -0.024750286111246456 0.00038171746274294537 0.005067185115885323 -0.00033880460162460577 -0.0031952260167739904
 0.9969765241448704 -0.024750286111246456 0.0026905896521538107 0.010019495125083329 -0.0003388678084763107 -0.0031952286410666057 0.0003807154372752662 0.0050673077888288755
 0.00038171746274294537 0.005067185115885323 -0.0003388678084763107 -0.0031952286410666057 0.002690538124994206 0.010018989216842553 0.9969765149921676 -0.0247507874694908
 -0.00033880460162460577 -0.0031952260167739904 0.0003807154372752662 0.0050673077888288755 0.9969765149921676 -0.0247507874694908 0.002690589920315114 0.010018996103778712
0.043768236765320004 0.00293193417041044 0.011760713346849139 0.9966585218722896 -0.028920420423571312 0.00046678517737345327 0.005914529007838704 -0.00041133298626805094 -0.0037325174152313357
 0.9966585218722896 -0.028920420423571312 0.0029319799598784 0.011760721584831688 -0.0004114186773201138 -0.0037325194048381987 0.00046542038906482666 0.00591469368403529
 0.00046678517737345327 0.005914529007838704 -0.0004114186773201138 -0.0037325194048381987 0.0029319101537774632 0.011760129519867641 0.9966585097331936 -0.028921005319833926
 -0.00041133298626805094 -0.0037325174152313357 0.00046542038906482666 0.00591469368403529 0.9966585097331936 -0.028921005319833926 0.0029319806045110747 0.011760140324657794
0.050020842017509996 0.003189656739781937 0.013519863956608848 0.9963182218436237 -0.033104870147609614 0.0005611153510543139 0.006762489270250673 -0.0004915990182813728 -0.004270740792175297
 0.9963182218436237 -0.033104870147609614 0.0031897167305775906 0.013519876051434067 -0.000491710532801455 -0.004270741731117494 0.0005593313527120214 0.006762704031788444
 0.0005611153510543139 0.006762489270250673 -0.000491710532801455 -0.004270741731117494 0.0031896258575127216 0.013519197190486583 0.9963182062929122 -0.033105538637815776
 -0.0004915990182813728 -0.004270740792175297 0.0005593313527120214 0.006762704031788444 0.9963182062929122 -0.033105538637815776 0.003189717834972774 0.013519212875879079
0.055454545454549996 0.003427148401846192 0.015062855823077427 0.996004146871044 -0.03675291732861444 0.0006506845868505092 0.0074998066330553914 -0.0005677104120477296 -0.004739127297961523
 0.996004146871044 -0.03675291732861444 0.0034272223470108777 0.015062871955978637 -0.000567847060631117 -0.004739126953843698 0.0006484902782687465 0.007500072061005641
 0.0006506845868505092 0.0074998066330553914 -0.000567847060631117 -0.004739126953843698 0.0034271108922114797 0.015062117116729152 0.996004128007843 -0.03675365852445621
 -0.0005677104120477296 -0.004739127297961523 0.0006484902782687465 0.007500072061005641 0.996004128007843 -0.03675365852445621 0.0034272239173672855 0.015062137876969603
0.056273447269699996 0.003464044605451195 0.015296528156154633 0.9959553209049118 -0.0373036433410779 0.0006647996190565039 0.007610954488581088 -0.0005796977401900243 -0.004809763800468924
 0.9959553209049118 -0.0373036433410779 0.0034641207850767434 0.015296544955650606 -0.0005798383927433962 -0.004809763231339228 0.0006625397550154997 0.007611228160923498
 0.0006647996190565039 0.007610954488581088 -0.0005798383927433962 -0.004809763231339228 0.003464006044519488 0.015295778621069811 0.9959553015142191 -0.03730439549856398
 -0.0005796977401900243 -0.004809763800468924 0.0006625397550154997 0.007611228160923498 0.9959553015142191 -0.03730439549856398 0.0034641224309698475 0.015295800216269506
0.06252605252188 0.0037554162689126657 0.017090334063915923 0.9955695155253265 -0.041516694767957406 0.0007779280292269077 0.008459807086368816 -0.0006757222331064849 -0.005349454203418951
 0.9955695155253265 -0.041516694767957406 0.0037555106560308417 0.01709035647695806 -0.0006758953139345061 -0.0053494516273204515 0.0007751354375248004 0.008460149248786315
 0.0007779280292269077 0.008459807086368816 -0.0006758953139345061 -0.0053494516273204515 0.003755369231539277 0.017089501954420553 0.9955694918616006 -0.041517530681207004
 -0.0006757222331064849 -0.005349454203418951 0.0007751354375248004 0.008460149248786315 0.9955694918616006 -0.041517530681207004 0.003755512923434575 0.017089530555879407
0.06877865777407 0.004064088121501881 0.018900937127118662 0.9951605022365578 -0.04574394025341906 0.0009005889098782688 0.009308924285765777 -0.0007797635713320547 -0.00588967893287344
 0.9951605022365578 -0.04574394025341906 0.004064202769371885 0.018900966124058054 -0.0007799723466214523 -0.00588967380935613 0.0008972065264265835 0.009309345281747336
 0.0009005889098782688 0.009308924285765777 -0.0007799723466214523 -0.00588967380935613 0.004064031825878583 0.0189000226594156 0.995160473861137 -0.04574486002886262
 -0.0007797635713320547 -0.00588967893287344 0.0008972065264265835 0.009309345281747336 0.995160473861137 -0.04574486002886262 0.004064205737305934 0.018900059431418675
0.07503126302626001 0.004390374524535642 0.020728010954409987 0.994727977973576 -0.04998526579156012 0.001032868749660529 0.01015817872647226 -0.000891910763797607 -0.006430303493606125
 0.994727977973576 -0.04998526579156012 0.004390511523337506 0.020728047567504026 -0.000892158475637152 -0.006430295240634519 0.001028839313517772 0.010158689674122263
 0.001032868749660529 0.01015817872647226 -0.000892158475637152 -0.006430295240634519 0.004390308205118595 0.0207270143721915 0.9947279444425366 -0.04998626954783933
 -0.000891910763797607 -0.006430303493606125 0.001028839313517772 0.010158689674122263 0.9947279444425366 -0.04998626954783933 0.004390515271468349 0.020727060547351725
0.08128386827845 0.004734587827021017 0.022571241247893187 0.9942716403593356 -0.05424053355897253 0.001174852085524341 0.011007438880681527 -0.001012250685610684 -0.006971191576661761
 0.9942716403593356 -0.05424053355897253 0.0047347493075391885 0.022571286571514155 -0.0010125405521015521 -0.006971179570564778 0.0011701181451369772 0.01100805168308292
 0.001174852085524341 0.011007438880681527 -0.0010125405521015521 -0.006971179570564778 0.004734510735200195 0.02257016281720772 0.9942716012221747 -0.054241621431966994
 -0.001012250685610684 -0.006971191576661761 0.0011701181451369772 0.01100805168308292 0.9942716012221747 -0.054241621431966994 0.004734753916226383 0.022570219696893552
0.08753647353064001 0.0050970383420090234 0.024430321581397817 0.9937911879496308 -0.058509586087617964 0.0013266213950272785 0.011856569347409678 -0.0011408680041085073 -0.007512204798515335
 0.9937911879496308 -0.058509586087617964 0.005097226478001225 0.024430376772300224 -0.0011412032191245396 -0.007512188373960847 0.0013211253153308507 0.011857296702912721
 0.0013266213950272785 0.011856569347409678 -0.0011412032191245396 -0.007512188373960847 0.005096949746133988 0.02442916159346463 0.993791142749293 -0.05851075822777877
 -0.0011408680041085073 -0.007512204798515335 0.0013211253153308507 0.011857296702912721 0.993791142749293 -0.05851075822777877 0.005097232029744604 0.024429230548113728
0.09378907878283 0.005478034291696139 0.026304950402914754 0.9932863204526283 -0.06279224921953692 0.0014882569923826664 0.012705431068796298 -0.0012778450995832968 -0.00805320252358491
 0.9932863204526283 -0.06279224921953692 0.0054782513037785405 0.026305016680276322 -0.001278228832688863 -0.008053180973549288 0.0014819409627155778 0.012706286481226788
 0.0014882569923826664 0.012705431068796298 -0.001278228832688863 -0.008053180973549288 0.005477933477645873 0.026303709174692366 0.9932862687242681 -0.06279350579112652
 -0.0012778450995832968 -0.00805320252358491 0.0014819409627155778 0.012706286481226788 0.9932862687242681 -0.06279350579112652 0.005478257883504912 0.0263037916440279
0.100041684035 0.005877881734166479 0.028194828832118442 0.9927567389310038 -0.06708833427246659 0.0016598369263913031 0.013553881498273508 -0.0014232619834107917 -0.008594041740323362
 0.9927567389310038 -0.06708833427246659 0.00587812989234342 0.028194907477641026 -0.0014236973795767288 -0.008594014316087408 0.001652642968675069 0.013554879287111705
 0.0016598369263913031 0.013553881498273508 -0.0014236973795767288 -0.008594014316087408 0.005877768005930433 0.02819350670570056 0.9927566802021628 -0.06708967545426144
 -0.0014232619834107917 -0.008594041740323362 0.001652642968675069 0.013554879287111705 0.9927566802021628 -0.06708967545426144 0.0058781375888888035 0.02819360419886511
0.1059090909091 0.006270512031612863 0.029981883301961006 0.9922370407747271 -0.07113178212243688 0.0018299582098830246 0.014349558245574776 -0.0015674653205431308 -0.009101288271196243
 0.9922370407747271 -0.07113178212243688 0.00627079152900739 0.02998197477490721 -0.0015679520352300297 -0.00910125461653964 0.0018218875382381688 0.014350703398334545
 0.0018299582098830246 0.014349558245574776 -0.0015679520352300297 -0.00910125461653964 0.006270385568206603 0.029980485593183875 0.9922369750389582 -0.07113320287877326
 -0.0015674653205431308 -0.009101288271196243 0.0018218875382381688 0.014350703398334545 0.9922369750389582 -0.07113320287877326 0.00627080035813451 0.02998059861901115
0.1062942892872 0.006296884472849816 0.03009965900795508 0.9922021459930899 -0.07139763966211692 0.0018414368800477468 0.014401774731732889 -0.0015771962130209387 -0.009134576980124815
 0.9922021459930899 -0.07139763966211692 0.006297166100340916 0.030099751365652638 -0.0015776863924064962 -0.009134542891258446 0.0018333068579011263 0.014402930042102422
 0.0018414368800477468 0.014401774731732889 -0.0015776863924064962 -0.009134542891258446 0.006296757152842065 0.03009825634882158 0.9922020797821978 -0.07139906564893435
 -0.0015771962130209387 -0.009134576980124815 0.0018333068579011263 0.014402930042102422 0.9922020797821978 -0.07139906564893435 0.00629717500676265 0.030098370444382364
0.11254689453939999 0.006735343955305558 0.03201914282828539 0.9916222459737353 -0.07571995213867838 0.002033130071236784 0.01524896161925307 -0.0017397228054204883 -0.009674660261226755
 0.9916222459737353 -0.07571995213867838 0.006735661431304858 0.03201925030447169 -0.0017402708630050057 -0.00967461867560577 0.002024005699238039 0.015250290431901807
 0.002033130071236784 0.01524896161925307 -0.0017402708630050057 -0.00967461867560577 0.006735202384818129 0.032017660028817584 0.9916221717904625 -0.07572146313782654
 -0.0017397228054204883 -0.009674660261226755 0.002024005699238039 0.015250290431901807 0.9916221717904625 -0.07572146313782654 0.006735671646320546 0.03201779237465924
0.11879949979160001 0.007193559162252915 0.033952980970796284 0.991016745110797 -0.08005504774925672 0.0022349871542623814 0.016095289860070833 -0.0019109141488818026 -0.01021414105545607
 0.991016745110797 -0.08005504774925672 0.0071939149254343394 0.03395310503366775 -0.001911523154194463 -0.010214091099258995 0.0022248100078137967 0.016096809001162622
 0.0022349871542623814 0.016095289860070833 -0.001911523154194463 -0.010214091099258995 0.007193402702000754 0.03395141844773571 0.9910166624548007 -0.08005664398292069
 -0.0019109141488818026 -0.01021414105545607 0.0022248100078137967 0.016096809001162622 0.9910166624548007 -0.08005664398292069 0.007193926553969617 0.033951570760903056
0.1250521050438 0.007671826488795843 0.03590087212348543 0.9903853517155555 -0.08440269259759543 0.0024470761221057065 0.01694060408583994 -0.0020908399136299804 -0.0107528662726048
 0.9903853517155555 -0.08440269259759543 0.007672223040980657 0.03590101430279572 -0.0020915129103256922 -0.010752807030351934 0.0024357876476973155 0.016942331236654885
 0.0024470761221057065 0.01694060408583994 -0.0020915129103256922 -0.010752807030351934 0.007671654519297289 0.035899230316220686 0.9903852600758468 -0.08440437430432801
 -0.0020908399136299804 -0.0107528662726048 0.0024357876476973155 0.016942331236654885 0.9903852600758468 -0.08440437430432801 0.007672236195155422 0.03589940438251949
0.131304710296 0.00817043962085964 0.03786251236767454 0.9897277763409033 -0.0887626434584877 0.002669462209023725 0.017784745938785006 -0.002279566961735188 -0.011290680255989857
 0.9897277763409033 -0.0887626434584877 0.008170879530028095 0.03786267425426395 -0.0022803069672506417 -0.011290610770578061 0.002657003734899458 0.01778669964528127
 0.002669462209023725 0.017784745938785006 -0.0022803069672506417 -0.011290610770578061 0.008170251543210195 0.03786079174251473 0.9897276751957058 -0.0887644108888116
 -0.002279566961735188 -0.011290680255989857 0.002657003734899458 0.01778669964528127 0.9897276751957058 -0.0887644108888116 0.00817089433044949 0.037860989416175723
0.1375573155481 0.008576380564004631 0.03958174530872821 0.9891570878225714 -0.09287867271269906 0.002874460719861859 0.01860202835817792 -0.002449435466749014 -0.011801907016606326
 0.9891570878225714 -0.09287867271269906 0.008576865703657134 0.03958192357159853 -0.0024502467087855633 -0.011801827180054075 0.002860810793684268 0.018604205873799108
 0.002874460719861859 0.01860202835817792 -0.0024502467087855633 -0.011801827180054075 0.008576174692081802 0.03957994679654401 0.989156976733743 -0.09288052600278919
 -0.002449435466749014 -0.011801907016606326 0.002860810793684268 0.018604205873799108 0.989156976733743 -0.09288052600278919 0.008576883208622653 0.03958016390171334
0.1438099208003 0.008996638842594107 0.041291727742782953 0.9885662634634707 -0.09698407797948166 0.003087739812392077 0.01941591324586489 -0.002626096496633696 -0.012310007564514544
 0.9885662634634707 -0.09698407797948166 0.00899717173755354 0.04129192352059124 -0.0026269821732655906 -0.012309916439828152 0.0030728463110139227 0.019418331434757807
 0.003087739812392077 0.01941591324586489 -0.0026269821732655906 -0.012309916439828152 0.00899641440952533 0.0412898518914731 0.9885661419105051 -0.09698601737228553
 -0.002626096496633696 -0.012310007564514544 0.0030728463110139227 0.019418331434757807 0.9885661419105051 -0.09698601737228553 0.008997192248574305 0.041290089714929604
0.1500625260525 0.00943106392942022 0.04299231089043703 0.9879554579642865 -0.1010787515097382 0.0033092248018887814 0.02022631468900105 -0.002809477272429574 -0.012814900210495252
 0.9879554579642865 -0.1010787515097382 0.009431647156364764 0.04299252535847311 -0.0028104405712727942 -0.01281479682342638 0.0032930359191620496 0.020228991027121872
 0.0033092248018887814 0.02022631468900105 -0.0028104405712727942 -0.01281479682342638 0.009430820175110051 0.04299035827019985 0.9879553254175487 -0.10108077725821953
 -0.002809477272429574 -0.012814900210495252 0.0032930359191620496 0.020228991027121872 0.9879553254175487 -0.10108077725821953 0.009431670993855695 0.0429906181373558
0.15631513130469998 0.009879504196646698 0.04468335043763118 0.987324826846175 -0.10516258605472124 0.003538840108802062 0.02103314826847807 -0.0029995041040209837 -0.01331650501643046
 0.987324826846175 -0.10516258605472124 0.00988014038520981 0.04468358480618455 -0.0030005482020241843 -0.01331638835572299 0.003521304359740919 0.02103610083730553
