! Created with skrf 1.8.0 (http://scikit-rf.org).
# GHz S RI R 50.0 
!freq ReS11 ImS11 ReS12 ImS12 ReS13 ImS13
! ReS14 ImS14
! ReS21 ImS21 ReS22 ImS22 ReS23 ImS23
! ReS24 ImS24
! ReS31 ImS31 ReS32 ImS32 ReS33 ImS33
! ReS34 ImS34
! ReS41 ImS41 ReS42 ImS42 ReS43 ImS43
! ReS44 ImS44
!
0.0 0.001319116007479 0.0 0.998680883987 0.0 5.035963529236e-05 0.0 -5.035963539234e-05 6.167276628945694e-21
 0.998680883987 0.0 0.001319116007443 0.0 -5.035963539154e-05 6.167276628847722e-21 5.035963529167e-05 0.0
 5.035963529236e-05 0.0 -5.035963539154e-05 6.167276628847722e-21 0.001319116010202 0.0 0.9986808839898 0.0
 -5.035963539234e-05 6.167276628945694e-21 5.035963529167e-05 0.0 0.9986808839898 0.0 0.001319116010206 0.0
0.005 0.0014186550787263742 0.0010822264860202017 0.9985550447223609 -0.0027637682588411094 6.986469091521394e-05 0.0005386995410021706 -6.796290293870088e-05 -0.00034106250772840706
 0.9985550447223609 -0.0027637682588411094 0.0014186782315889757 0.0010822129536718547 -6.796164361308172e-05 -0.00034106150612758 6.972936031960697e-05 0.00053875102146156
 6.986469091521394e-05 0.0005386995410021706 -6.796164361308172e-05 -0.00034106150612758 0.0014186562494104139 0.0010822930140137123 0.9985550450679359 -0.002763701209629144
 -6.796290293870088e-05 -0.00034106250772840706 6.972936031960697e-05 0.00053875102146156 0.9985550450679359 -0.002763701209629144 0.0014186777474648946 0.0010822805201693639
0.006252605252188 0.0014445918947807266 0.0013570513507005937 0.9985220729309575 -0.0034554109907757404 7.535547514544628e-05 0.0006736525646503247 -7.285423104380506e-05 -0.000426774806901224
 0.9985220729309575 -0.0034554109907757404 0.0014446280869337936 0.0013570341578522452 -7.285227167527558e-05 -0.0004267735708763555 7.514403114618692e-05 0.0006737193654546451
 7.535547514544628e-05 0.0006736525646503247 -7.285227167527558e-05 -0.0004267735708763555 0.0014445936421513847 0.001357134511624225 0.9985220733882116 -0.003455327172065992
 -7.285423104380506e-05 -0.000426774806901224 7.514403114618692e-05 0.0006737193654546451 0.9985220733882116 -0.003455327172065992 0.0014446272467221277 0.0013571186255381764
0.01250521050438 0.001580143758854086 0.0027426789797316154 0.9983487318448866 -0.00691176600462197 0.00010641157094745802 0.0013477603055668474 -0.00010018433357039238 -0.0008557060803861291
 0.9983487318448866 -0.00691176600462197 0.0015802882756281726 0.002742641789421832 -0.00010017661464871002 -0.0008557037812080493 0.00010556832864977999 0.0013479200944239039
 0.00010641157094745802 0.0013477603055668474 -0.00010017661464871002 -0.0008557037812080493 0.0015801501730551503 0.002742844980191792 0.9983487331036107 -0.006911598605703375
 -0.00010018433357039238 -0.0008557060803861291 0.00010556832864977999 0.0013479200944239039 0.9983487331036107 -0.006911598605703375 0.0015802843461315403 0.0027428105042638755
0.01875781575657 0.0017260331348268301 0.004148235208604021 0.9981606699967318 -0.010377509327484848 0.0001435939348642374 0.0020227757195120104 -0.00013242632091049682 -0.0012862195306945529
 0.9981606699967318 -0.010377509327484848 0.001726357871778933 0.0041481749964862435 -0.00013240911091786221 -0.001286216369261908 0.00014169955148008863 0.0020230592406059018
 0.0001435939348642374 0.0020227757195120104 -0.00013240911091786221 -0.001286216369261908 0.0017260471339090957 0.0041484838395697676 0.9981606724043747 -0.010377258420730827
 -0.00013242632091049682 -0.0012862195306945529 0.00014169955148008863 0.0020230592406059018 0.9981606724043747 -0.010377258420730827 0.0017263486054038316 0.004148427892568419
0.02501042100875 0.001882515614444881 0.005571794982821903 0.9979576901219024 -0.013854355907983385 0.00018697000041660418 0.0026987428746020944 -0.00016965474550151692 -0.0017181458227638795
 0.9979576901219024 -0.013854355907983385 0.0018830923205987002 0.005571708528934722 -0.00016962435824569234 -0.0017181420318815584 0.0001836048645229165 0.00269918524070314
 0.00018697000041660418 0.0026987428746020944 -0.00016962435824569234 -0.0017181420318815584 0.0018825401127635193 0.00557212601284212 0.9979576940243744 -0.013854021535236766
 -0.00016965474550151692 -0.0017181458227638795 0.0001836048645229165 0.00269918524070314 0.9979576940243744 -0.013854021535236766 0.0018830754627458441 0.0055720455582371296
0.03126302626094 0.0020498360173978004 0.007012385724784379 0.99773958370076 -0.0173430614820013 0.0002366079828469662 0.003375646349092364 -0.00021194244655113582 -0.002151371534079665
 0.99773958370076 -0.0173430614820013 0.002050736331019685 0.007012269618242387 -0.0002118952332735995 -0.0021513673789635445 0.00023135180572782534 0.00337628706485503
 0.0002366079828469662 0.003375646349092364 -0.0002118952332735995 -0.0021513673789635445 0.0020498739320697415 0.007012798899726613 0.997739589448567 -0.017342643654601152
 -0.00021194244655113582 -0.002151371534079665 0.00023135180572782534 0.00337628706485503 0.997739589448567 -0.017342643654601152 0.0020507096245251668 0.0070126907504155225
0.037515631513130004 0.002228234058869885 0.008469387023530587 0.9975061367430702 -0.020844022831777113 0.0002925761711121382 0.0040534474694035065 -0.0002593610659640868 -0.0025858028977705657
 0.9975061367430702 -0.020844022831777113 0.0022295295302835172 0.008469237664661535 -0.00025929341124582495 -0.0025857986761875927 0.0002850077932123141 0.004054330476205728
 0.0002925761711121382 0.0040534474694035065 -0.00025929341124582495 -0.0025857986761875927 0.0022282883027414297 0.008469882059953797 0.9975061446844192 -0.020843521536778035
 -0.0002593610659640868 -0.0025858028977705657 0.0002850077932123141 0.004054330476205728 0.9975061446844192 -0.020843521536778035 0.0022294907075677255 0.008469742880798173
0.043768236765320004 0.0024179465333513217 0.009942347918512135 0.9972571320916238 -0.024357460443509178 0.0003549426094909282 0.004732095324738552 -0.0003119812366475259 -0.003021354774617015
 0.9972571320916238 -0.024357460443509178 0.0024197086421797777 0.009942161520158437 -0.000311889555977526 -0.0030213508169248007 0.0003446398982638243 0.00473326905233945
 0.0003549426094909282 0.004732095324738552 -0.000311889555977526 -0.0030213508169248007 0.002418020021741054 0.009942924490878897 0.997257142579737 -0.02435687565596509
 -0.0003119812366475259 -0.003021354774617015 0.0003446398982638243 0.00473326905233945 0.997257142579737 -0.02435687565596509 0.0024196554314130517 0.009942750800639505
0.050020842017509996 0.002619208347378491 0.011430911387454331 0.9969923505791198 -0.027883493958659945 0.00042377490970643185 0.005411531322393213 -0.00036987266100725966 -0.0034579460865567855
 0.9969923505791198 -0.027883493958659945 0.0026215085166523423 0.011430683975800904 -0.00036975339911737544 -0.003457942755720496 0.00041031470594348824 0.0054130487434372165
 0.00042377490970643185 0.005411531322393213 -0.00036975339911737544 -0.003457942755720496 0.00261930399270635 0.01143156913302576 0.9969923639677037 -0.02788282563626464
 -0.00036987266100725966 -0.0034579460865567855 0.00041031470594348824 0.0054130487434372165 0.9969923639677037 -0.02788282563626464 0.0026214386365507633 0.011431357305637126
0.055454545454549996 0.0028036718542891748 0.012736955237110678 0.9967492634406956 -0.030957997849964992 0.0004888954280320381 0.006002572224038436 -0.00042451641863188686 -0.0038381397470091134
 0.9967492634406956 -0.030957997849964992 0.0028064975843695317 0.012736688811793313 -0.00042437032241471063 -0.0038381372810165426 0.00047234679435504887 0.0060044349156832075
 0.0004888954280320381 0.006002572224038436 -0.00042437032241471063 -0.0038381372810165426 0.0028037891195247604 0.01273768319382323 0.9967492796395083 -0.030957256892415984
 -0.00042451641863188686 -0.0038381397470091134 0.00047234679435504887 0.0060044349156832075 0.9967492796395083 -0.030957256892415984 0.0028064113597131126 0.01273743516765837
0.056273447269699996 0.002832253051670044 0.012934777304920719 0.9967115716866667 -0.031422179154228305 0.0004991401259598933 0.006091691407292376 -0.0004331041351059262 -0.003895497587682283
 0.9967115716866667 -0.031422179154228305 0.002835162660719876 0.01293450471992625 -0.00043295376489341025 -0.00389549527926099 0.0004820982191023392 0.006093610093269037
 0.0004991401259598933 0.006091691407292376 -0.00043295376489341025 -0.00389549527926099 0.0028323737656970258 0.012935515816687943 0.9967115883323899 -0.03142142724390005
 -0.0004331041351059262 -0.003895497587682283 0.0004820982191023392 0.006093610093269037 0.9967115883323899 -0.03142142724390005 0.0028350738224945564 0.012935262082375457
0.06252605252188 0.0030573131422774904 0.014453682050182513 0.9964145739739909 -0.03497352827458992 0.0005811046576348903 0.00677250729235236 -0.0005017435489981442 -0.004333930626206886
 0.9964145739739909 -0.03497352827458992 0.003060903538321566 0.014453359945712525 -0.0005015585706996144 -0.004333929768340131 0.0005600557801640941 0.00677488947030206
 0.0005811046576348903 0.00677250729235236 -0.0005015585706996144 -0.004333929768340131 0.003057461835182142 0.01445450087903461 0.9964145942369635 -0.03497269270980136
 -0.0005017435489981442 -0.004333930626206886 0.0005600557801640941 0.00677488947030206 0.9964145942369635 -0.03497269270980136 0.0030607934451181906 0.01445420132505315
0.06877865777407 0.003294620229077955 0.015987386361383152 0.9961011353801822 -0.038537522118162665 0.0006697341698848062 0.007453907180474038 -0.0005758578708202031 -0.004773166416694243
 0.9961011353801822 -0.038537522118162665 0.0032989627385533156 0.015987010205108586 -0.0005756348114482967 -0.0047731674700809724 0.0006442520050335731 0.007456819790036376
 0.0006697341698848062 0.007453907180474038 -0.0005756348114482967 -0.0047731674700809724 0.0032947998091383238 0.015988285019622298 0.9961011596241284 -0.038536602814996136
 -0.0005758578708202031 -0.004773166416694243 0.0006442520050335731 0.007456819790036376 0.9961011596241284 -0.038536602814996136 0.0032988290850820335 0.01598793559066711
0.07503126302626001 0.0035444051279851173 0.017535667643335612 0.9957710334498329 -0.04211411767234482 0.0007650935240342582 0.008135816227392309 -0.0006555131216292097 -0.0052131255734098455
 0.9957710334498329 -0.04211411767234482 0.0035495710672524064 0.017535232716269673 -0.0006552485345681697 -0.005213129031278185 0.0007347507233350671 0.00813933097799568
 0.0007650935240342582 0.008135816227392309 -0.0006552485345681697 -0.005213129031278185 0.003544618500762515 0.017536645595256493 0.9957710620421921 -0.042113114538344265
 -0.0006555131216292097 -0.0052131255734098455 0.0007347507233350671 0.00813933097799568 0.9957710620421921 -0.042113114538344265 0.0035494115392282377 0.017536242093761926
0.08128386827845 0.003806897905990465 0.019098314821822865 0.9954240455152845 -0.045703253203577515 0.0008672467132596157 0.008818156847630883 -0.0007407743449527129 -0.0056537278026612325
 0.9954240455152845 -0.045703253203577515 0.003812958591859429 0.019097816217603186 -0.0007404648096154078 -0.005653734190740459 0.0008316149217136301 0.008822350275633429
 0.0008672467132596157 0.008818156847630883 -0.0007404648096154078 -0.005653734190740459 0.003807147973599492 0.019099371488828277 0.9954240788275074 -0.04570216613231464
 -0.0007407743449527129 -0.0056537278026612325 0.0008316149217136301 0.008822350275633429 0.9954240788275074 -0.04570216613231464 0.0038127708657437805 0.0190989095747839
0.08753647353064001 0.004082327893679656 0.020675124810572015 0.9950599488480464 -0.04930485173727021 0.0009762568031794324 0.009500848925546477 -0.0008317055710375035 -0.006094891692195537
 0.9950599488480464 -0.04930485173727021 0.0040893546538555625 0.02067455743449203 -0.0008313476926792159 -0.006094901568687954 0.0009349066904289471 0.009505802451238625
 0.0009762568031794324 0.009500848925546477 -0.0008313476926792159 -0.006094901568687954 0.0040826175549667386 0.02067625956832306 0.9950599872566064 -0.04930368061064661
 -0.0008317055710375035 -0.006094891692195537 0.0009349066904289471 0.009505802451238625 0.9950599872566064 -0.04930368061064661 0.004089136397179671 0.02067573475893286
0.09378907878283 0.0043709236773938525 0.02226589996850986 0.9946785207929711 -0.052918823549306056 0.0010921858737374473 0.01018380996967386 -0.0009283697792026101 -0.006536534559562557
 0.9946785207929711 -0.052918823549306056 0.004378987860948296 0.02226525853627782 -0.0009279601887469881 -0.006536548515100758 0.001044687170429711 0.010189609954035969
 0.0010921858737374473 0.01018380996967386 -0.0009279601887469881 -0.006536548515100758 0.004371255826704954 0.022267112149835108 0.9946785646794285 -0.052917568234338075
 -0.0009283697792026101 -0.006536534559562557 0.001044687170429711 0.010189609954035969 0.9946785646794285 -0.052917568234338075 0.004378736731558114 0.022266519818934932
0.100041684035 0.004672913074608759 0.023870446241973108 0.9942795388877367 -0.056545067975568346 0.0012150949642690102 0.010866955223879295 -0.0010308288564797041 -0.006978572346004937
 0.9942795388877367 -0.056545067975568346 0.0046820860622662636 0.02386972527808768 -0.00103036421045124 -0.006978591003616814 0.0011610165024503643 0.010873693025001113
 0.0012150949642690102 0.010866955223879295 -0.00103036421045124 -0.006978591003616814 0.004673290601423544 0.023871735129915934 0.9942795886391143 -0.056543728330800284
 -0.0010308288564797041 -0.006978572346004937 0.0011610165024503643 0.010873693025001113 0.9942795886391143 -0.056543728330800284 0.004681799708239751 0.023871070506972073
0.1059090909091 0.0049686816703532815 0.025388496476161166 0.9938889737525143 -0.05995897747949616 0.0013368337722717333 0.011508104714812666 -0.0011323003362315482 -0.007393660943065899
 0.9938889737525143 -0.05995897747949616 0.004978960110344397 0.025387695728434165 -0.0011317810082942894 -0.007393684608533709 0.0012761880008012462 0.01151581014729875
 0.0013368337722717333 0.011508104714812666 -0.0011317810082942894 -0.007393684608533709 0.004969104402002432 0.025389856652228333 0.9938890293646313 -0.05995755856027017
 -0.0011323003362315482 -0.007393660943065899 0.0012761880008012462 0.01151581014729875 0.9938890293646313 -0.05995755856027017 0.004978638553554674 0.02538911972239807
0.1062942892872 0.004988523098291074 0.025488571761537186 0.9938627809730419 -0.060183474768885775 0.001345044018286504 0.011550197754560102 -0.0011391435557676142 -0.007420919536650276
 0.9938627809730419 -0.060183474768885775 0.004998876312764477 0.02548776559748732 -0.001138620536228395 -0.007420943551717432 0.0012839537755187733 0.011557969783706783
 0.001345044018286504 0.011550197754560102 -0.001138620536228395 -0.007420943551717432 0.004988948886326897 0.025489936593907365 0.9938628369821609 -0.06018205063962972
 -0.0011391435557676142 -0.007420919536650276 0.0012839537755187733 0.011557969783706783 0.9938628369821609 -0.06018205063962972 0.00499855237199066 0.025489194762755036
0.11254689453939999 0.0053179799125954415 0.02712008577050734 0.9934280252974976 -0.06383392512744346 0.0014820918299540973 0.012233448519053612 -0.0012533734514770258 -0.007863489102010133
 0.9934280252974976 -0.06383392512744346 0.005329584829098599 0.027119188542544435 -0.0012527887660123615 -0.007863519162225273 0.0014135569768146678 0.012242356296243272
 0.0014820918299540973 0.012233448519053612 -0.0012527887660123615 -0.007863519162225273 0.0053184568393374295 0.027121525740197463 0.9934280879634487 -0.06383241634496781
 -0.0012533734514770258 -0.007863489102010133 0.0014135569768146678 0.012242356296243272 0.9934280879634487 -0.06383241634496781 0.005329220929234497 0.027120701637524305
0.11879949979160001 0.005661508781505451 0.028764797785974915 0.9929750506169239 -0.06749629249329518 0.0016262959905262836 0.012916616420948443 -0.0013735768946400127 -0.008306192455061895
 0.9929750506169239 -0.06749629249329518 0.005674436938031503 0.02876380343263227 -0.0013729272763718546 -0.008306229280374748 0.001549882940928034 0.012926766630084357
 0.0016262959905262836 0.012916616420948443 -0.0013729272763718546 -0.008306229280374748 0.005662039717445719 0.02876631203716685 0.9929751203456634 -0.06749469887833004
 -0.0013735768946400127 -0.008306192455061895 0.001549882940928034 0.012926766630084357 0.9929751203456634 -0.06749469887833004 0.00567403069633921 0.028765400450605945
0.1250521050438 0.006019334011816565 0.03042251693851738 0.9925036362901611 -0.07117044317508948 0.0017777128354009848 0.013599608356721627 -0.0014998109666544092 -0.008748939419620606
 0.9925036362901611 -0.07117044317508948 0.006033657020035775 0.030421419197774132 -0.0014990931743089002 -0.008748983762190058 0.001692987299550449 0.013611112900115794
 0.0017777128354009848 0.013599608356721627 -0.0014990931743089002 -0.008748983762190058 0.006019921819752608 0.030424104568095148 0.9925037134947167 -0.0711687645361088
 -0.0014998109666544092 -0.008748939419620606 0.001692987299550449 0.013611112900115794 0.9925037134947167 -0.0711687645361088 0.006033206042895703 0.030423100134014443
0.131304710296 0.006391678892451315 0.03209305143584795 0.9920135623736127 -0.0748562368500021 0.0019363973913272359 0.014282329253573556 -0.001632131432258656 -0.009191638210113798
 0.9920135623736127 -0.0748562368500021 0.006407468447916639 0.03209184384195838 -0.0016313422502044097 -0.009191690854253644 0.0018429244311096054 0.014295305305933722
 0.0019363973913272359 0.014282329253573556 -0.0016313422502044097 -0.009191690854253644 0.006392326426669484 0.032094711493817596 0.9920136474747465 -0.07485447298253596
 -0.001632131432258656 -0.009191638210113798 0.0018429244311096054 0.014295305305933722 0.9920136474747465 -0.07485447298253596 0.006406970330782967 0.03209360869472134
0.1375573155481 0.006687846635912877 0.03355866061539846 0.9915955532989427 -0.07833591914617422 0.002081261335515399 0.014942642810355714 -0.001749562641279552 -0.009612090137979427
 0.9915955532989427 -0.07833591914617422 0.006705179213750301 0.03355736266379006 -0.0017486972366797116 -0.009612151051070217 0.001978823476298428 0.014957060942179858
 0.002081261335515399 0.014942642810355714 -0.0017486972366797116 -0.009612151051070217 0.006688556134214161 0.033560392395256766 0.9915956466556571 -0.07833406993913242
 -0.001749562641279552 -0.009612090137979427 0.001978823476298428 0.014957060942179858 0.9915956466556571 -0.07833406993913242 0.0067046322766303335 0.03355921133053905
0.1438099208003 0.006994246815118753 0.035017463269056616 0.9911631832345058 -0.08180769176483038 0.0022319902488611974 0.015600739241433263 -0.001871699486118789 -0.010030547123135673
 0.9911631832345058 -0.08180769176483038 0.007013194954587272 0.03501607017397668 -0.0018707543888890283 -0.010030617068995232 0.002120191008327892 0.015616705572800831
 0.0022319902488611974 0.015600739241433263 -0.0018707543888890283 -0.010030617068995232 0.006995021008339808 0.03501926580490712 0.991163285265779 -0.08180575701991286
 -0.001871699486118789 -0.010030547123135673 0.002120191008327892 0.015616705572800831 0.991163285265779 -0.08180575701991286 0.007012596908356217 0.035018002628347734
0.1500625260525 0.0073107829165345055 0.036469364439743183 0.9907165518416103 -0.08527149567951549 0.0023885393776118696 0.016256566585927848 -0.001998499243233742 -0.01044696087125004
 0.9907165518416103 -0.08527149567951549 0.007331419267001564 0.03646787115801858 -0.001997470988353322 -0.01044704064428699 0.0022669841876572306 0.016274191097228417
 0.0023885393776118696 0.016256566585927848 -0.001997470988353322 -0.01044704064428699 0.007311624520192213 0.036471236728731496 0.9907166629726734 -0.08526947518934645
 -0.001998499243233742 -0.01044696087125004 0.0022669841876572306 0.016274191097228417 0.9907166629726734 -0.08526947518934645 0.007330767820754095 0.0364698873734608
0.15631513130469998 0.0076373578793616295 0.037914272184941505 0.9902557591343073 -0.08872727155349272 0.0025508635197828864 0.01691007363532934 -0.0021299187371602705 -0.010861284022304768
