! Created with skrf 1.8.0 (http://scikit-rf.org).
# GHz S RI R 50.0 
!freq ReS11 ImS11 ReS12 ImS12 ReS13 ImS13
! ReS14 ImS14
! ReS21 ImS21 ReS22 ImS22 ReS23 ImS23
! ReS24 ImS24
! ReS31 ImS31 ReS32 ImS32 ReS33 ImS33
! ReS34 ImS34
! ReS41 ImS41 ReS42 ImS42 ReS43 ImS43
! ReS44 ImS44
!
0.0 0.001827983140904 0.0 0.9981720168307 0.0 7.080101759817e-05 0.0 -7.080101706523e-05 8.670623892531105e-21
 0.9981720168307 0.0 0.001827983140923 0.0 -7.080101706556e-05 8.670623892571519e-21 7.080101759846e-05 0.0
 7.080101759817e-05 0.0 -7.080101706556e-05 8.670623892571519e-21 0.001827983145171 0.0 0.9981720168349 0.0
 -7.080101706523e-05 8.670623892531105e-21 7.080101759846e-05 0.0 0.9981720168349 0.0 0.00182798314517 0.0
0.005 0.0019676876973693884 0.0014979126177573228 0.997995130223489 -0.003827949041244778 9.918169665305116e-05 0.0007596885721333819 -9.641206869468793e-05 -0.000480225824984117
 0.997995130223489 -0.003827949041244778 0.0019676872076946792 0.0014979128365804517 -9.641282631337013e-05 -0.00048022631799641294 9.920301109436396e-05 0.0007596807282616554
 9.918169665305116e-05 0.0007596885721333819 -9.641282631337013e-05 -0.00048022631799641294 0.001967688141067302 0.0014979795752121828 0.9979951306084223 -0.0038278819769283364
 -9.641206869468793e-05 -0.000480225824984117 9.920301109436396e-05 0.0007596807282616554 0.9979951306084223 -0.0038278819769283364 0.001967687522083557 0.0014979799963684194
0.006252605252188 0.002004616996723561 0.0018782271706888729 0.9979480371627855 -0.004785824396827414 0.00010742758214337925 0.0009499709084820673 -0.00010376704487848783 -0.0006008812592338277
 0.9979480371627855 -0.004785824396827414 0.0020046162309205863 0.0018782273630532213 -0.00010376822448395353 -0.0006008818648774304 0.00010746088688073722 0.0009499606677172128
 0.00010742758214337925 0.0009499709084820673 -0.00010376822448395353 -0.0006008818648774304 0.002004617619311081 0.0018783108435042422 0.9979480376932558 -0.0047857405768848595
 -0.00010376704487848783 -0.0006008812592338277 0.00010746088688073722 0.0009499606677172128 0.9979480376932558 -0.0047857405768848595 0.00200461665030634 0.0018783113049314364
0.01250521050438 0.0022007024726321926 0.0037952398256174236 0.9976961539541424 -0.009572086491619945 0.000155443547594855 0.0019002380791125898 -0.00014616323081751963 -0.0012044671704744935
 0.9976961539541424 -0.009572086491619945 0.002200699415146963 0.0037952393637469646 -0.00014616788781607548 -0.0012044682624794071 0.0001555764546564749 0.0019002128774509909
 0.000155443547594855 0.0019002380791125898 -0.00014616788781607548 -0.0012044682624794071 0.002200704384553516 0.0037954067754468615 0.997696155493775 -0.009571919072619228
 -0.00014616323081751963 -0.0012044671704744935 0.0001555764546564749 0.0019002128774509909 0.997696155493775 -0.009571919072619228 0.002200700496692911 0.0037954070191358736
0.01875781575657 0.00241672675553812 0.005738941064740074 0.9974160122663328 -0.014370359717620148 0.00021496989080267397 0.002851369017038162 -0.00019813111940134625 -0.0018098726432738189
 0.9974160122663328 -0.014370359717620148 0.0024167198879153523 0.0057389390054909525 -0.00019814151578698226 -0.0018098740719646826 0.00021526867631910354 0.00285132315227236
 0.00021496989080267397 0.002851369017038162 -0.00019814151578698226 -0.0018098740719646826 0.0024167306367743895 0.005739190972628826 0.9974160153059811 -0.01437010874296873
 -0.00019813111940134625 -0.0018098726432738189 0.00021526867631910354 0.00285132315227236 0.9974160153059811 -0.01437010874296873 0.0024167218661122285 0.005739190241460609
0.02501042100875 0.002653158929914574 0.007706541638870712 0.9971072416297185 -0.019182892495192724 0.00028612838657441925 0.003803350363079108 -0.0002598064795786575 -0.002416784195496464
 0.9971072416297185 -0.019182892495192724 0.002653146732878389 0.007706536936092206 -0.0002598248534896041 -0.0024167857787833684 0.0002866594813231681 0.0038032771616424805
 0.00028612838657441925 0.003803350363079108 -0.0002598248534896041 -0.0024167857787833684 0.0026531654602456323 0.007706874141532807 0.9971072466620395 -0.019182557951351143
 -0.0002598064795786575 -0.002416784195496464 0.0002866594813231681 0.0038032771616424805 0.9971072466620395 -0.019182557951351143 0.0026531498217721274 0.007706871594850308
0.03126302626094 0.0029104485069459574 0.009696567513243905 0.9967694550331214 -0.02401060066142181 0.0003690403014863162 0.004756082469584374 -0.00033132037770250807 -0.003024965456505926
 0.9967694550331214 -0.02401060066142181 0.002910429454402692 0.009696559015310803 -0.00033134894719371693 -0.003024966979581034 0.0003698703444371822 0.004755974275104547
 0.0003690403014863162 0.004756082469584374 -0.00033134894719371693 -0.003024966979581034 0.002910458364469651 0.009696982196178622 0.9967694625542196 -0.02401018248429185
 -0.00033132037770250807 -0.003024965456505926 0.0003698703444371822 0.004755974275104547 0.9967694625542196 -0.02401018248429185 0.00291043384737167 0.009696976907772875
0.037515631513130004 0.0031890344350863683 0.011708028330633145 0.9964022583656391 -0.028853898953739607 0.0004638252417247199 0.0057094307698355475 -0.0004128000512226727 -0.0036342058477975693
 0.9964022583656391 -0.028853898953739607 0.0031890069884224896 0.011708014778692804 -0.00041284101606129124 -0.0036342070630077227 0.0004650211035572658 0.005709278929470078
 0.0004638252417247199 0.0057094307698355475 -0.00041284101606129124 -0.0036342070630077227 0.0031890482980960074 0.011708524705642875 0.9964022688798773 -0.02885339705072353
 -0.0004128000512226727 -0.0036342058477975693 0.0004650211035572658 0.005709278929470078 0.9964022688798773 -0.02885339705072353 0.0031890128609531575 0.01170851566224945
0.043768236765320004 0.003489348559308655 0.013740164337770805 0.9960052543087922 -0.033712954018666794 0.0005706005781403617 0.006663241433953612 -0.0005043691943610975 -0.004244304976460463
 0.9960052543087922 -0.033712954018666794 0.0034893111619147643 0.013740144364305568 -0.0005044247369644081 -0.004244305603200768 0.0005722293718285974 0.0066630362838927025
 0.0005706005781403617 0.006663241433953612 -0.0005044247369644081 -0.004244305603200768 0.003489367100997395 0.013740741863664096 0.9960052683270783 -0.03371236824744965
 -0.0005043691943610975 -0.004244304976460463 0.0005722293718285974 0.0066630362838927025 0.9960052683270783 -0.03371236824744965 0.003489318667235211 0.013740727964108607
0.050020842017509996 0.0038118171923900023 0.015792341838291847 0.9955780443457032 -0.03858778889433978 0.0006894810788508532 0.007617347839512411 -0.0006061480307604505 -0.0048550662188947295
 0.9955780443457032 -0.03858778889433978 0.003811768264606937 0.015792313965800057 -0.0006062203167089259 -0.004855065943551435 0.0006916101631905894 0.007617078690150329
 0.0006894810788508532 0.007617347839512411 -0.0006062203167089259 -0.004855065943551435 0.0038118410810452485 0.015792999894295785 0.995578062388236 -0.03858711908917246
 -0.0006061480307604505 -0.0048550662188947295 0.0006916101631905894 0.007617078690150329 0.995578062388236 -0.03858711908917246 0.0038117775344653593 0.01579297994844868
0.055454545454549996 0.0041103718970007365 0.017591586978655337 0.9951819455493915 -0.042836931179786125 0.0008027096856025876 0.008446598739772968 -0.0007029791906343506 -0.005386221765243063
 0.9951819455493915 -0.042836931179786125 0.004110311643697406 0.01759155095566774 -0.0007030677728194242 -0.005386220425590079 0.0008053284317667492 0.008446264483874148
 0.0008027096856025876 0.008446598739772968 -0.0007030677728194242 -0.005386220425590079 0.004110400969659997 0.017592314460441013 0.995181967520064 -0.0428361881848826
 -0.0007029791906343506 -0.005386221765243063 0.0008053284317667492 0.008446264483874148 0.995181967520064 -0.0428361881848826 0.004110322536746121 0.017592288224135014
0.056273447269699996 0.004156861897838758 0.017864001857672132 0.9951202299865755 -0.04347833428637685 0.000820578633884022 0.008571573767302257 -0.000718253290232345 -0.005466293586727642
 0.9951202299865755 -0.04347833428637685 0.004156799831133648 0.017863964497750913 -0.0007183444684521999 -0.00546629206262048 0.0008232756129873998 0.008571228888264388
 0.000820578633884022 0.008571573767302257 -0.0007183444684521999 -0.00546629206262048 0.004156891794647095 0.017864739754333225 0.9951202525844752 -0.043477580246844845
 -0.000718253290232345 -0.005466293586727642 0.0008232756129873998 0.008571228888264388 0.9951202525844752 -0.043477580246844845 0.004156810974812526 0.01786471248252904
0.06252605252188 0.004524899875192817 0.019954631943456272 0.9946314136032586 -0.048384456716502766 0.0009640020239276413 0.009525735173259602 -0.0008407981386763847 -0.006077790025164969
 0.9946314136032586 -0.048384456716502766 0.0045248230266620865 0.019954583395924177 -0.0008409103414955187 -0.006077786872500461 0.0009673347436894774 0.00952530177832796
 0.0009640020239276413 0.009525735173259602 -0.0008409103414955187 -0.006077786872500461 0.004524936431737797 0.019955448920401006 0.9946314412989246 -0.04838361820958338
 -0.0008407981386763847 -0.006077790025164969 0.0009673347436894774 0.00952530177832796 0.9946314412989246 -0.04838361820958338 0.0045248361292270015 0.019955412952896164
0.06877865777407 0.004916344130393394 0.022063749356689547 0.9941111990544858 -0.05330597528969984 0.0011198567156587283 0.01047964126010641 -0.0009738920789358548 -0.006689356420916959
 0.9941111990544858 -0.05330597528969984 0.004916250817546776 0.02206368780889981 -0.0009740274220719199 -0.006689351226753939 0.0011238932584079588 0.010479105492115474
 0.0011198567156587283 0.01047964126010641 -0.0009740274220719199 -0.006689351226753939 0.0049163879873143955 0.022064644582714097 0.9941112324033293 -0.053305052049477816
 -0.0009738920789358548 -0.006689356420916959 0.0011238932584079588 0.010479105492115474 0.9941112324033293 -0.053305052049477816 0.004916265938825552 0.022064598459337736
0.07503126302626001 0.005331603518548332 0.02419089043131266 0.9935591921885734 -0.05824267230379186 0.0012882446712078072 0.011433095176290502 -0.0011176408359437854 -0.007300790992694016
 0.9935591921885734 -0.05824267230379186 0.005331492013144266 0.024190813957656866 -0.001117801418276587 -0.007300783310921094 0.0012930533487434672 0.011432442091998191
 0.0012882446712078072 0.011433095176290502 -0.001117801418276587 -0.007300783310921094 0.005331655303212392 0.024191863001245078 0.9935592317605616 -0.058241664034630145
 -0.0011176408359437854 -0.007300790992694016 0.0012930533487434672 0.011432442091998191 0.9935592317605616 -0.058241664034630145 0.0053315091868405655 0.024191805171131037
0.08128386827845 0.0057710827046065505 0.026335603497019407 0.9929750012697935 -0.06319430030734578 0.0014692641680918075 0.012385894503018554 -0.0012721462299100906 -0.007911888903766207
 0.9929750012697935 -0.06319430030734578 0.00577095122734686 0.02633551005852618 -0.0012723341333140822 -0.007911878255074957 0.00147491351337309 0.012385108058110507
 0.0014692641680918075 0.012385894503018554 -0.0012723341333140822 -0.007911878255074957 0.005771143029759268 0.02633665243516956 0.9929750476510463 -0.06319320668034252
 -0.0012721462299100906 -0.007911888903766207 0.00147491351337309 0.012385108058110507 0.9929750476510463 -0.06319320668034252 0.005770970459927338 0.026336581256754286
0.08753647353064001 0.006235182071552386 0.028497444001940847 0.9923582373572373 -0.0681605869695053 0.0016630096251316927 0.01333783160488259 -0.0014375060425092126 -0.008522442021608245
 0.9923582373572373 -0.0681605869695053 0.006235028785671758 0.02849733144620933 -0.0014377233314908499 -0.008522427893504304 0.0016695683831688735 0.013336894638890128
 0.0016630096251316927 0.01333783160488259 -0.0014377233314908499 -0.008522427893504304 0.006235251532272499 0.028498568258384784 0.992358291150703 -0.06815940762647534
 -0.0014375060425092126 -0.008522442021608245 0.0016695683831688735 0.013336894638890128 0.992358291150703 -0.06815940762647534 0.006235050055028113 0.028498481999403667
0.09378907878283 0.006724297589965891 0.030675971042221282 0.9917085146493451 -0.0731412385557319 0.0018695714328427942 0.014288693906423778 -0.001613813878092662 -0.00913223876229803
 0.9917085146493451 -0.0731412385557319 0.006724120595680381 0.030675837103351658 -0.0016140625995788116 -0.009132220609090485 0.0018771085504757088 0.014287588127834407
 0.0018695714328427942 0.014288693906423778 -0.0016140625995788116 -0.009132220609090485 0.006724376762479491 0.030677169492047615 0.9917085764769097 -0.07313997311015817
 -0.001613813878092662 -0.00913223876229803 0.0018771085504757088 0.014287588127834407 0.9917085764769097 -0.07313997311015817 0.0067241438497616 0.03067706632991171
0.100041684035 0.00723882066129789 0.032870744819238004 0.991025450806571 -0.0781359424889046 0.0020890357871424185 0.015238264112341762 -0.001801159021288141 -0.00974106400239717
 0.991025450806571 -0.0781359424889046 0.007238617989461256 0.03287058711808593 -0.0018014412041984535 -0.009741041245227212 0.0020976204023447245 0.015236970083775949
 0.0020890357871424185 0.015238264112341762 -0.0018014412041984535 -0.009741041245227212 0.007238910100093752 0.032872016269686465 0.9910255213098664 -0.07813459051905752
 -0.001801159021288141 -0.00974106400239717 0.0020976204023447245 0.015236970083775949 0.9910255213098664 -0.07813459051905752 0.0072386431449389535 0.032871894291822114
0.1059090909091 0.007745098376367801 0.03494469100971524 0.9903538071652644 -0.08283542952390834 0.0023067874893231365 0.01612796234827684 -0.001987076494957529 -0.010311303569471238
 0.9903538071652644 -0.08283542952390834 0.007744869751090318 0.03494450874576721 -0.001987391906771788 -0.010311275935982701 0.0023164181101519715 0.01612647295528136
 0.0023067874893231365 0.01612796234827684 -0.001987391906771788 -0.010311275935982701 0.007745197932829175 0.034946029810461694 0.9903538864126038 -0.08283399595356235
 -0.001987076494957529 -0.010311303569471238 0.0023164181101519715 0.01612647295528136 0.9903538864126038 -0.08283399595356235 0.0077448965866224306 0.03494588835686242
0.1062942892872 0.007779137941018281 0.03508132475949108 0.99030866725816 -0.08314436926109359 0.002321484525828212 0.01618632039726523 -0.0019996262923144747 -0.010348699032577324
 0.99030866725816 -0.08314436926109359 0.007778907547263132 0.03508114080397979 -0.001999943947196476 -0.010348671059452199 0.002331185956074773 0.01618481752068514
 0.002321484525828212 0.01618632039726523 -0.001999943947196476 -0.010348671059452199 0.007779238177648598 0.03508266794185036 0.9903087471005576 -0.08314293031870329
 -0.0019996262923144747 -0.010348699032577324 0.002331185956074773 0.01618481752068514 0.9903087471005576 -0.08314293031870329 0.007778934488915026 0.0350825251462143
0.11254689453939999 0.008345631148001664 0.03730726807142515 0.9895577894975579 -0.08816617392232425 0.0025669949673006844 0.017132636571632952 -0.002209295900506144 -0.010954921546406829
 0.9895577894975579 -0.08816617392232425 0.00834537090612704 0.03730705525720238 -0.002209651019153629 -0.010954887712206452 0.0025778826973431707 0.017130903073830986
 0.0025669949673006844 0.017132636571632952 -0.002209651019153629 -0.010954887712206452 0.008345742687967549 0.03730868164548893 0.9895578793650771 -0.0881646475285521
 -0.002209295900506144 -0.010954921546406829 0.0025778826973431707 0.017130903073830986 0.9895578793650771 -0.0881646475285521 0.008345399484645114 0.03730851594150459
0.11879949979160001 0.008938676860477578 0.03954812865131659 0.9887724473689621 -0.0932009972342846 0.0028256397508855465 0.01807698223223959 -0.002430243297272434 -0.01155950565626364
 0.9887724473689621 -0.0932009972342846 0.008938384556337742 0.03954788426246375 -0.0024306378522604404 -0.011559465282835673 0.002837783420277935 0.018074995150264953
 0.0028256397508855465 0.01807698223223959 -0.0024306378522604404 -0.011559465282835673 0.008938800181729383 0.03954961120531579 0.9887725479721384 -0.0931993828805739
 -0.002430243297272434 -0.01155950565626364 0.002837783420277935 0.018074995150264953 0.9887725479721384 -0.0931993828805739 0.00893841458789636 0.03954942041460037
0.1250521050438 0.009558646304791476 0.04180345622512081 0.9879522753479003 -0.09824846660263688 0.0030974866796995484 0.019019122908847108 -0.002662539028423858 -0.012162221924779906
 0.9879522753479003 -0.09824846660263688 0.009558319629741501 0.04180317743519941 -0.0026629749726978956 -0.012162174300983609 0.003110956069282179 0.019016858075733292
 0.0030974866796995484 0.019019122908847108 -0.0026629749726978956 -0.012162174300983609 0.009558781855148815 0.041805006273904474 0.9879523874227831 -0.0982467637531598
 -0.002662539028423858 -0.012162221924779906 0.003110956069282179 0.019016858075733292 0.9879523874227831 -0.0982467637531598 0.009558350893945513 0.041804788131552764
0.131304710296 0.010205905135716738 0.0440727956790334 0.9870969128160348 -0.10330819683517527 0.003382598564712177 0.019958820199355454 -0.0029062485869078857 -0.012762837419568608
 0.9870969128160348 -0.10330819683517527 0.01020554168038192 0.044072479552167476 -0.002906727853325485 -0.01276278180137166 0.0033974635829793678 0.01995625222993272
 0.003382598564712177 0.019958820199355454 -0.002906727853325485 -0.01276278180137166 0.010206053330971968 0.04407441166775625 0.9870970371262668 -0.10330640492421019
 -0.0029062485869078857 -0.012762837419568608 0.0033974635829793678 0.01995625222993272 0.9870970371262668 -0.10330640492421019 0.010205573919423446 0.04407416382353943
0.1375573155481 0.010742252610488369 0.04606172143928135 0.9863446407233571 -0.10808563549055358 0.003647625949445687 0.020867955593116886 -0.0031280085184501086 -0.013333278536763417
 0.9863446407233571 -0.10808563549055358 0.010741848599063719 0.04606137349406093 -0.003128533754149087 -0.013333214763240996 0.003663911577718215 0.02086508600272142
 0.003647625949445687 0.020867955593116886 -0.003128533754149087 -0.013333214763240996 0.010742412906883509 0.04606340256648979 0.9863447778566622 -0.108083754171506
 -0.0031280085184501086 -0.013333278536763417 0.003663911577718215 0.02086508600272142 0.9863447778566622 -0.108083754171506 0.010741882820465702 0.04606312993879146
0.1438099208003 0.011297760780122987 0.04803834022983239 0.9855653321269621 -0.11284908246457398 0.003923276831009156 0.02177225466498949 -0.003358543717639382 -0.013899247302808865
 0.9855653321269621 -0.11284908246457398 0.011297313432083752 0.048037958312602574 -0.003359116955618789 -0.01389917464094474 0.003941045073108212 0.021769060154141397
 0.003923276831009156 0.02177225466498949 -0.003359116955618789 -0.01389917464094474 0.011297933373758179 0.04804008494198867 0.9855654828496699 -0.11284711118342125
 -0.003358543717639382 -0.013899247302808865 0.003941045073108212 0.021769060154141397 0.9855654828496699 -0.11284711118342125 0.01129734955289777 0.0480397858441337
0.1500625260525 0.011872204709911757 0.05000243194369017 0.9847592171666371 -0.11759836300674416 0.004209436379268474 0.02267158871483366 -0.0035977419426190976 -0.014460622563887015
 0.9847592171666371 -0.11759836300674416 0.011871711137852218 0.050002013836444245 -0.0035983652052995075 -0.014460540251913227 0.004228748848009824 0.022668045120212487
 0.004209436379268474 0.02267158871483366 -0.0035983652052995075 -0.014460540251913227 0.0118723897544571 0.050004238629049284 0.9847593822684645 -0.11759630119151404
 -0.0035977419426190976 -0.014460622563887015 0.004228748848009824 0.022668045120212487 0.9847593822684645 -0.11759630119151404 0.01187174905364133 0.050003911323338805
0.15631513130469998 0.012465357518340854 0.05195378304000668 0.983926527538745 -0.1223333042859909 0.0045059882057557205 0.023565831701900748 -0.0038454893880619295 -0.015017286108985636
 0.983926527538745 -0.1223333042859909 0.0124648147249981 0.05195332646365446 -0.003846164687011083 -0.015017193356675253 0.004526906118109583 0.023561914004316124
