! Created with skrf 1.8.0 (http://scikit-rf.org).
# GHz S RI R 50.0 
!freq ReS11 ImS11 ReS12 ImS12 ReS13 ImS13
! ReS14 ImS14
! ReS21 ImS21 ReS22 ImS22 ReS23 ImS23
! ReS24 ImS24
! ReS31 ImS31 ReS32 ImS32 ReS33 ImS33
! ReS34 ImS34
! ReS41 ImS41 ReS42 ImS42 ReS43 ImS43
! ReS44 ImS44
!
0.0 0.001477697942562 0.0 0.9985223020404 0.0 5.701493226752e-05 0.0 -5.701493266725e-05 6.982315479454957e-21
 0.9985223020404 0.0 0.001477697942571 0.0 -5.701493266773e-05 6.982315479513741e-21 5.701493226807e-05 0.0
 5.701493226752e-05 0.0 -5.701493266773e-05 6.982315479513741e-21 0.001477697951097 0.0 0.9985223020489 0.0
 -5.701493266725e-05 6.982315479454957e-21 5.701493226807e-05 0.0 0.9985223020489 0.0 0.001477697951081 0.0
0.005 0.001589722589397459 0.00120661935929102 0.9983805973414477 -0.0030957693700936336 8.013581168683835e-05 0.0006424880872761969 -7.775628068855216e-05 -0.0004008196073456646
 0.9983805973414477 -0.0030957693700936336 0.0015897331098955877 0.0012066131655890243 -7.775441005064727e-05 -0.00040081813700721525 8.008694248092298e-05 0.0006425068378165315
 8.013581168683835e-05 0.0006424880872761969 -7.775441005064727e-05 -0.00040081813700721525 0.0015897240709421047 0.0012066857194890036 0.9983805977000865 -0.0030957023097231886
 -7.775628068855216e-05 -0.0004008196073456646 8.008694248092298e-05 0.0006425068378165315 0.9983805977000865 -0.0030957023097231886 0.001589732338247884 0.0012066809186494771
0.006252605252188 0.001619048466383163 0.001513039447387078 0.9983432746827327 -0.0038704783411142325 8.671199510697797e-05 0.0008034181628510579 -8.358864323879388e-05 -0.0005015491605823662
 0.9983432746827327 -0.0038704783411142325 0.0016190649118629095 0.0015130315490386606 -8.358573261396519e-05 -0.0005015473468127515 8.66356429593334e-05 0.0008034424813736017
 8.671199510697797e-05 0.0008034181628510579 -8.358573261396519e-05 -0.0005015473468127515 0.0016190507014958609 0.0015131223876108507 0.9983432751623064 -0.0038703945174536434
 -8.358864323879388e-05 -0.0005015491605823662 8.66356429593334e-05 0.0008034424813736017 0.9983432751623064 -0.0038703945174536434 0.0016190636240438858 0.0015131162396265802
0.01250521050438 0.0017731073650166112 0.003057942271914392 0.9981459415442735 -0.0077418274880284785 0.00012426976755964403 0.001607173003307866 -0.0001165535094922415 -0.0010055780765891552
 0.9981459415442735 -0.0077418274880284785 0.0017731730352094565 0.0030579248829456307 -0.00011654204186405067 -0.0010055747126418006 0.00012396533948769801 0.0016072311301009114
 0.00012426976755964403 0.001607173003307866 -0.00011654204186405067 -0.0010055747126418006 0.0017731157253056556 0.0030581078042657924 0.9981459428919695 -0.0077416600726418865
 -0.0001165535094922415 -0.0010055780765891552 0.00012396533948769801 0.0016072311301009114 0.9981459428919695 -0.0077416600726418865 0.0017731673161863767 0.003058094029216796
0.01875781575657 0.0019402006294651308 0.004624986784997421 0.997930064800628 -0.011623483446022665 0.00016977332253530206 0.0024118256690237004 -0.00015600907057713211 -0.0015113487217546526
 0.997930064800628 -0.011623483446022665 0.001940348200399101 0.004624958168403529 -0.00015598350114023936 -0.0015113441191054772 0.00016908956495549366 0.0024119289233107597
 0.00016977332253530206 0.0024118256690237004 -0.00015598350114023936 -0.0015113441191054772 0.001940219002995815 0.004625234634835027 0.9979300674129046 -0.01162323250754868
 -0.00015600907057713211 -0.0015113487217546526 0.00016908956495549366 0.0024119289233107597 0.9979300674129046 -0.01162323250754868 0.001940334913247547 0.0046252116692490014
0.02501042100875 0.002120645201182219 0.006211985899484505 0.9976953975401361 -0.01551733818618777 0.00022330910767730968 0.0032174205669860054 -0.0002020517892821634 -0.002018634631828265
 0.9976953975401361 -0.01551733818618777 0.002120907285217601 0.006211944182156687 -0.00020200664052666623 -0.0020186291555143237 0.0002220947673961046 0.0032175820230229578
 0.00022330910767730968 0.0032174205669860054 -0.00020200664052666623 -0.0020186291555143237 0.0021206774652864713 0.00621231576559312 0.9976954018095068 -0.015517003731192495
 -0.0002020517892821634 -0.002018634631828265 0.0002220947673961046 0.0032175820230229578 0.9976954018095068 -0.015517003731192495 0.002120883281594356 0.00621228196745659
0.03126302626094 0.002314744868383771 0.007817819250904091 0.9974416798736866 -0.01942420749574693 0.0002849641813245493 0.00402392654343691 -0.0002547755065117906 -0.0025272796990761146
 0.9974416798736866 -0.01942420749574693 0.002315154029734159 0.007817762424555973 -0.0002547053567260955 -0.0025272737683967837 0.00028306785792467853 0.004024161038418828
 0.0002849641813245493 0.00402392654343691 -0.0002547053567260955 -0.0025272737683967837 0.0023147948995628537 0.007818230773039307 0.997441686198399 -0.019423789500863896
 -0.0002547755065117906 -0.0025272796990761146 0.00028306785792467853 0.004024161038418828 0.997441686198399 -0.019423789500863896 0.0023151161566067184 0.007818184422884605
0.037515631513130004 0.0025227969176988573 0.009441760211846995 0.9971686457771904 -0.02334450390444217 0.00035482533436445617 0.004831282734076297 -0.0003142721417594306 -0.0030371523179224106
 0.9971686457771904 -0.02334450390444217 0.0025233856818925693 0.009441686132921913 -0.00031417161901992334 -0.003037146406631874 0.0003520954123999088 0.0048316068846486525
 0.00035482533436445617 0.004831282734076297 -0.00031417161901992334 -0.003037146406631874 0.0025228685869365317 0.00944225296758275 0.9971686545575653 -0.02334400231891677
 -0.0003142721417594306 -0.0030371523179224106 0.0003520954123999088 0.0048316068846486525 0.9971686545575653 -0.02334400231891677 0.0025233307762601584 0.009442192269004194
0.043768236765320004 0.002745094704268361 0.011083271121848138 0.9968760258549205 -0.02727844138656586 0.0004329786834010407 0.0056394124952785325 -0.00038063194547119735 -0.003548131450387106
 0.9968760258549205 -0.02727844138656586 0.0027458955655185156 0.011083177511162 -0.00038049572420502094 -0.0035481260867465925 0.00042926329832941145 0.005639844716736367
 0.0004329786834010407 0.0056394124952785325 -0.00038049572420502094 -0.0035481260867465925 0.002745191879372145 0.01108384462420315 0.99687603749652 -0.02727785613400429
 -0.00038063194547119735 -0.003548131450387106 0.00042926329832941145 0.005639844716736367 0.99687603749652 -0.02727785613400429 0.002745820455301497 0.011083767704367151
0.050020842017509996 0.0029819288480828336 0.012741918648228084 0.9965635487325538 -0.031226119930418496 0.0005195094286393613 0.006448229166164357 -0.0004539435935434073 -0.004060100862420749
 0.9965635487325538 -0.031226119930418496 0.0029829742750715465 0.012741803090336814 -0.0004537663922095839 -0.004060096629196702 0.0005146564508516233 0.006448789692728161
 0.0005195094286393613 0.006448229166164357 -0.0004537663922095839 -0.004060096629196702 0.0029820553914431886 0.012742572343781075 0.9965635636452127 -0.03122545090995202
 -0.0004539435935434073 -0.004060100862420749 0.0005146564508516233 0.006448789692728161 0.9965635636452127 -0.03122545090995202 0.0029828757768747454 0.012742477253656702
0.055454545454549996 0.0031997743081871696 0.014196961733140116 0.9962756585243285 -0.03466795432624049 0.0006015760950905759 0.007151600471271681 -0.0005233670899485354 -0.004505733271712651
 0.9962756585243285 -0.03466795432624049 0.003201058622883683 0.014196825034486172 -0.0005231500194966805 -0.004505730536457317 0.0005956107571252039 0.0071522903598541104
 0.0006015760950905759 0.007151600471271681 -0.0005231500194966805 -0.004505730536457317 0.0031999295057954704 0.014197684617464837 0.9962756766166171 -0.03466721240804164
 -0.0005233670899485354 -0.004505733271712651 0.0005956107571252039 0.0071522903598541104 0.9962756766166171 -0.03466721240804164 0.0032009372051792035 0.014197572094896412
0.056273447269699996 0.003233587851315276 0.014417332242313835 0.9962309418744223 -0.03518756701264452 0.0006145016841840793 0.007257638890149934 -0.0005342942114000986 -0.004572946303244238
 0.9962309418744223 -0.03518756701264452 0.00323491029244207 0.01441719218481343 -0.00053407079098268 -0.004572943837696617 0.0006083587139129521 0.007258349795790523
 0.0006145016841840793 0.007257638890149934 -0.00053407079098268 -0.004572943837696617 0.003233747619999751 0.014418065508016852 0.9962309604738 -0.03518681410147995
 -0.0005342942114000986 -0.004572946303244238 0.0006083587139129521 0.007258349795790523 0.9962309604738 -0.03518681410147995 0.0032347852111963065 0.014417950222535822
0.06252605252188 0.003500358431382054 0.016109181300782507 0.9958779321204794 -0.03916276036993255 0.0007180383443022312 0.008067542167911598 -0.0006217693625738621 -0.0050865539563065935
 0.9958779321204794 -0.03916276036993255 0.003501990319251302 0.01610901405338015 -0.0006214945254686343 -0.005086553950143942 0.0007104527134145982 0.00806842738742583
 0.0007180383443022312 0.008067542167911598 -0.0006214945254686343 -0.005086553950143942 0.0035005552756458805 0.01610999344579426 0.9958779548279493 -0.03916192342090357
 -0.0006217693625738621 -0.0050865539563065935 0.0007104527134145982 0.00806842738742583 0.9958779548279493 -0.03916192342090357 0.0035018354470716345 0.016109855863863893
0.06877865777407 0.003782525699089339 0.01781716155301772 0.9955042460710283 -0.04315164154743321 0.0008302009694686703 0.008877834785742998 -0.0007164530164872567 -0.005600809518204088
 0.9955042460710283 -0.04315164154743321 0.003784499455222858 0.017816964286521936 -0.0007161216057876036 -0.0056008127175449325 0.0008210197487926202 0.00887892013588509
 0.0008302009694686703 0.008877834785742998 -0.0007161216057876036 -0.0056008127175449325 0.0037827634632183827 0.017818051812109735 0.9955042733164576 -0.04315072039488938
 -0.0007164530164872567 -0.005600809518204088 0.0008210197487926202 0.00887892013588509 0.9955042733164576 -0.04315072039488938 0.0037843115722417213 0.01781788975653409
0.07503126302626001 0.004080373247286662 0.019540986422070267 0.99510961038669 -0.047154124476993034 0.0009510696849745103 0.009688408403875073 -0.0008184275034460496 -0.00611559762121417
 0.99510961038669 -0.047154124476993034 0.004082721285981671 0.01954075616722636 -0.0008180344024220471 -0.006115604826535757 0.0009401396945858737 0.00968972160448261
 0.0009510696849745103 0.009688408403875073 -0.0008180344024220471 -0.006115604826535757 0.004080655766817839 0.019541953959860914 0.9951096426070034 -0.047153118932010546
 -0.0008184275034460496 -0.00611559762121417 0.0009401396945858737 0.00968972160448261 0.9951096426070034 -0.047153118932010546 0.0040824971577298405 0.01954176517715593
0.08128386827845 0.004394183179278947 0.021280381281808442 0.9946937520302348 -0.051170101163053316 0.0010807230857755126 0.010499150952905973 -0.0009277734614840413 -0.006630801451534005
 0.9946937520302348 -0.051170101163053316 0.004396937912183681 0.02128011492803676 -0.0009273135932697539 -0.006630813517613019 0.0010678909090154124 0.010500721647914157
 0.0010807230857755126 0.010499150952905973 -0.0009273135932697539 -0.006630813517613019 0.004394514280630588 0.021281425190258524 0.9946937896707306 -0.051169011015371725
 -0.0009277734614840413 -0.006630801451534005 0.0010678909090154124 0.010500721647914157 0.9946937896707306 -0.051169011015371725 0.004396674289324126 0.021281207350275725
0.08753647353064001 0.004724236100467823 0.023035079487754632 0.9942563984755183 -0.05519944559910491 0.0012192381468880212 0.011309946910045984 -0.0010445697773050929 -0.007146302491615601
 0.9942563984755183 -0.05519944559910491 0.004727429940263879 0.023034773781675705 -0.001044038104656693 -0.007146320327464285 0.0012043501460863389 0.011311806688391579
 0.0012192381468880212 0.011309946910045984 -0.001044038104656693 -0.007146320327464285 0.004724619600381517 0.02303619878507811 0.9942564419913275 -0.05519827061768644
 -0.0010445697773050929 -0.007146302491615601 0.0012043501460863389 0.011311806688391579 0.9942564419913275 -0.05519827061768644 0.004727123558620267 0.023035949480539258
0.09378907878283 0.0050708110841043005 0.024804819535889717 0.9937972778939251 -0.05924201656041537 0.0013666901362950833 0.012120677502582672 -0.0011688935230800216 -0.007661980339434472
 0.9937972778939251 -0.05924201656041537 0.005074476448559986 0.024804471079787165 -0.0011682850482936445 -0.007662004908238072 0.0013495924707289764 0.012122859918871168
 0.0013666901362950833 0.012120677502582672 -0.0011682850482936445 -0.007662004908238072 0.005071250788174314 0.02480601316679954 0.993797327750239 -0.059240756492653306
 -0.0011688935230800216 -0.007661980339434472 0.0013495924707289764 0.012122859918871168 0.993797327750239 -0.059240756492653306 0.005074124027844229 0.024805729912700566
0.100041684035 0.0054341856170276375 0.02658934298232797 0.9933161193236478 -0.0632976596405288 0.0015231525300302509 0.012931220860073554 -0.0013008198902175266 -0.008177712583154417
 0.9933161193236478 -0.0632976596405288 0.005438354932919664 0.0265889482324283 -0.0013001296550932153 -0.008177744902189922 0.0015036911754873778 0.01293376145509013
 0.0015231525300302509 0.012931220860073554 -0.0013001296550932153 -0.008177744902189922 0.005434685318545269 0.026590609816239025 0.993316175996424 -0.06329631421370015
 -0.0013008198902175266 -0.008177712583154417 0.0015036911754873778 0.01293376145509013 0.993316175996424 -0.06329631421370015 0.005437953176039809 0.02659029004904949
0.1059090909091 0.005790698813243109 0.02827714540211467 0.9928443192610626 -0.0671151916852598 0.0016782345610857087 0.013691548370052218 -0.0014315985630145563 -0.008661611181380436
 0.9928443192610626 -0.0671151916852598 0.00579537053742929 0.028276703855629935 -0.0014308271302731295 -0.008661651746504899 0.0016564149068244566 0.013694459188783377
 0.0016782345610857087 0.013691548370052218 -0.0014308271302731295 -0.008661651746504899 0.005791258254112714 0.028278479835216544 0.9928443827737796 -0.06711376589027403
 -0.0014315985630145563 -0.008661611181380436 0.0016564149068244566 0.013694459188783377 0.9928443827737796 -0.06711376589027403 0.005794919469827032 0.028278123402159266
0.1062942892872 0.005814635532269545 0.028388392879463632 0.9928126528288712 -0.06736620877627214 0.0016886969287909078 0.013741452134637632 -0.0014404221205990032 -0.00869337471215213
 0.9928126528288712 -0.06736620877627214 0.005819341239430418 0.028387948144070013 -0.0014396452064762751 -0.008693415852709108 0.0016667176985339343 0.01374438845554845
 0.0016886969287909078 0.013741452134637632 -0.0014396452064762751 -0.008693415852709108 0.005815199011181941 0.028389731712496383 0.992812716805987 -0.06736477769496037
 -0.0014404221205990032 -0.00869337471215213 0.0016667176985339343 0.01374438845554845 0.992812716805987 -0.06736477769496037 0.0058188868320187236 0.02838937278931036
0.11254689453939999 0.006212434930268686 0.03020171258396079 0.9922866096507017 -0.07144748740561487 0.001863392975338876 0.014551243598936984 -0.0015877714360756174 -0.009208840054668389
 0.9922866096507017 -0.07144748740561487 0.006217709485263255 0.030201214021438074 -0.0015869029639551367 -0.009208891141955182 0.00183874154235191 0.014554615219268454
 0.001863392975338876 0.014551243598936984 -0.0015869029639551367 -0.009208891141955182 0.006213065952152192 0.03020312213572741 0.9922866814323662 -0.07144597035468925
 -0.0015877714360756174 -0.009208840054668389 0.00183874154235191 0.014554615219268454 0.9922866814323662 -0.07144597035468925 0.006217199094950407 0.030202721333159013
0.11879949979160001 0.006627856092331691 0.03202904482160873 0.9917377223526113 -0.07554130937409004 0.002047308272753425 0.01536046472825854 -0.0017429369663778545 -0.009723979736041248
 0.9917377223526113 -0.07554130937409004 0.006633731972589615 0.03202848843821454 -0.001741972097049543 -0.009724041949089168 0.0020198301931397666 0.015364313267513965
 0.002047308272753425 0.01536046472825854 -0.001741972097049543 -0.009724041949089168 0.006628558406914496 0.032030523735699035 0.9917378024524109 -0.07553970601784142
 -0.0017429369663778545 -0.009723979736041248 0.0020198301931397666 0.015364313267513965 0.9917378024524109 -0.07553970601784142 0.006633162248219843 0.032030078248685666
0.1250521050438 0.0070611693869532905 0.03387013095827326 0.9911657249623904 -0.07964747964036835 0.0022405083030200257 0.016168982271540257 -0.0019059856759770187 -0.010238662652461454
 0.9911657249623904 -0.07964747964036835 0.007067679094428252 0.033869512605849535 -0.001904919610185963 -0.010238737224026729 0.002210049040466696 0.016173351414593147
 0.0022405083030200257 0.016168982271540257 -0.001904919610185963 -0.010238737224026729 0.00706194672696208 0.03387167780185471 0.9911658139078834 -0.07964578962260402
 -0.0019059856759770187 -0.010238662652461454 0.002210049040466696 0.016173351414593147 0.9911658139078834 -0.07964578962260402 0.007067046665306683 0.033871184742305736
0.131304710296 0.007512643170608655 0.03572471040628256 0.9905703531099401 -0.08376579485175152 0.0024430563461068384 0.01697666031556993 -0.002076982289811219 -0.01075275545649156
 0.9905703531099401 -0.08376579485175152 0.007519819235820872 0.03572402577970683 -0.0020758102685506778 -0.010752843672940288 0.002409461297390015 0.016981595831564698
 0.0024430563461068384 0.01697666031556993 -0.0020758102685506778 -0.010752843672940288 0.007513499250632716 0.03572632367054324 0.990570451443814 -0.08376401779516525
 -0.002076982289811219 -0.01075275545649156 0.002409461297390015 0.016981595831564698 0.990570451443814 -0.08376401779516525 0.007519120711315585 0.03572578006572444
0.1375573155481 0.00787750019345682 0.0373500445033667 0.9900564256428953 -0.08765347170367825 0.0026291824928359525 0.01775879320584426 -0.002230199618071462 -0.011241544542976318
 0.9900564256428953 -0.08765347170367825 0.007885376687538763 0.037349304213809525 -0.002228914507766102 -0.011241646464402025 0.0025923688503780577 0.01776428713142498
 0.0026291824928359525 0.01775879320584426 -0.002228914507766102 -0.011241646464402025 0.00787843811274845 0.037351722949747 0.9900565337999777 -0.0876516073784247
 -0.002230199618071462 -0.011241544542976318 0.0025923688503780577 0.01776428713142498 0.9900565337999777 -0.0876516073784247 0.00788460948118861 0.03735114041803556
0.1438099208003 0.008255140614709132 0.03896704747281053 0.9895245161396915 -0.09153153915381358 0.0028228397948196968 0.018537934925828885 -0.0023895586012086384 -0.011727598629963793
 0.9895245161396915 -0.09153153915381358 0.00826375032406637 0.03896624823685279 -0.0023881552731039764 -0.011727715519359186 0.002782665845638069 0.018544029114808222
 0.0028228397948196968 0.018537934925828885 -0.0023881552731039764 -0.011727715519359186 0.008256163951183391 0.03896878954994752 0.9895246346622288 -0.09152958718908454
 -0.0023895586012086384 -0.011727598629963793 0.002782665845638069 0.018544029114808222 0.9895246346622288 -0.09152958718908454 0.008262911160812222 0.038968166144315856
0.1500625260525 0.008645434821461233 0.04057559125464768 0.9889747580756034 -0.09539990825819365 0.003023964322838665 0.0193140115046753 -0.0025549972279982776 -0.012210847555206511
 0.9889747580756034 -0.09539990825819365 0.008654810566162104 0.04057472962501499 -0.002553470563295745 -0.012210980726238923 0.002980289121759801 0.019320749346640454
 0.003023964322838665 0.0193140115046753 -0.002553470563295745 -0.012210980726238923 0.008646547128390804 0.04057739535101259 0.9889748875185003 -0.09539786826730207
 -0.0025549972279982776 -0.012210847555206511 0.002980289121759801 0.019320749346640454 0.9889748875185003 -0.09539786826730207 0.008653896160709362 0.04057672901421431
0.15631513130469998 0.00904825232042664 0.04217555168784606 0.9884072855602373 -0.0992584902355303 0.003232491420753183 0.02008695017696069 -0.002726452747079698 -0.012691222605689816
 0.9884072855602373 -0.0992584902355303 0.00905842695550835 0.04217462405161679 -0.0027247976371248756 -0.012691373422469765 0.0031851748015696343 0.020094376582488152
