! Created with skrf 1.8.0 (http://scikit-rf.org).
# GHz S RI R 50.0 
!freq ReS11 ImS11 ReS12 ImS12 ReS13 ImS13
! ReS14 ImS14
! ReS21 ImS21 ReS22 ImS22 ReS23 ImS23
! ReS24 ImS24
! ReS31 ImS31 ReS32 ImS32 ReS33 ImS33
! ReS34 ImS34
! ReS41 ImS41 ReS42 ImS42 ReS43 ImS43
! ReS44 ImS44
!
0.0 0.001192721166284 0.0 0.9988072788337 0.0 4.548568719659e-05 0.0 -4.548568738552e-05 5.570390146369421e-21
 0.9988072788337 0.0 0.001192721166272 0.0 -4.548568738528e-05 5.570390146340029e-21 4.548568719678e-05 0.0
 4.548568719659e-05 0.0 -4.548568738528e-05 5.570390146340029e-21 0.001192721154726 0.0 0.9988072788222 0.0
 -4.548568738552e-05 5.570390146369421e-21 4.548568719678e-05 0.0 0.9988072788222 0.0 0.001192721154731 0.0
0.005 0.0012824724380015784 0.0009749926727736935 0.9986938422324095 -0.0024995036027312466 6.351342792456758e-05 0.0005092654944517253 -6.166392947185187e-05 -0.00031839516836583046
 0.9986938422324095 -0.0024995036027312466 0.0012824910320405134 0.0009749818635002692 -6.166608971126658e-05 -0.0003183968453757039 6.338742884523156e-05 0.0005093132812613022
 6.351342792456758e-05 0.0005092654944517253 -6.166608971126658e-05 -0.0003183968453757039 0.0012824709221070114 0.0009749263372643678 0.9986938419051697 -0.002499570663138817
 -6.166392947185187e-05 -0.00031839516836583046 6.338742884523156e-05 0.0005093132812613022 0.9986938419051697 -0.002499570663138817 0.0012824918985391877 0.000974914082818217
0.006252605252188 0.0013057757125554098 0.0012226153612662526 0.9986642377254668 -0.0031250276115183657 6.854636386123149e-05 0.0006368387558012959 -6.612414423025439e-05 -0.0003984211111929367
 0.9986642377254668 -0.0031250276115183657 0.0013058047780559006 0.0012226016405933707 -6.612750566462473e-05 -0.0003984231802562968 6.834949704669978e-05 0.0006369007597886254
 6.854636386123149e-05 0.0006368387558012959 -6.612750566462473e-05 -0.0003984231802562968 0.0013057734163973217 0.001222532455339369 0.9986642372875807 -0.003125111428822167
 -6.612414423025439e-05 -0.0003984211111929367 6.834949704669978e-05 0.0006369007597886254 0.9986642372875807 -0.003125111428822167 0.0013058062067070706 0.0012225169221991134
0.01250521050438 0.0014270766356596213 0.0024712379044305793 0.9985092777674922 -0.006251064845513873 9.678746195335164e-05 0.0012740764890165047 -9.085376276983925e-05 -0.0007989295327509038
 0.9985092777674922 -0.006251064845513873 0.0014271926888885635 0.0024712083774154152 -9.086700950884649e-05 -0.0007989333780837401 9.600228621471701e-05 0.001274224613620044
 9.678746195335164e-05 0.0012740764890165047 -9.086700950884649e-05 -0.0007989333780837401 0.001427068018162636 0.0024710723961816625 0.998509276573043 -0.006251232252189955
 -9.085376276983925e-05 -0.0007989295327509038 9.600228621471701e-05 0.001274224613620044 0.998509276573043 -0.006251232252189955 0.001427198953869806 0.002471039167941888
0.01875781575657 0.001556839894135579 0.003738055701499036 0.9983422416222499 -0.009385769713376062 0.00013026532129474974 0.0019121770396340646 -0.0001197401280099424 -0.0012009667223450286
 0.9983422416222499 -0.009385769713376062 0.00155710065760699 0.0037380081810050913 -0.0001197696692903541 -0.0012009720073613193 0.00012850122817066056 0.0019124392587837845
 0.00013026532129474974 0.0019121770396340646 -0.0001197696692903541 -0.0012009720073613193 0.001556820947684975 0.0037378078075075045 0.9983422393596509 -0.009386020631645838
 -0.0001197401280099424 -0.0012009667223450286 0.00012850122817066056 0.0019124392587837845 0.9983422393596509 -0.009386020631645838 0.001557115170547819 0.003737754569832158
0.02501042100875 0.001695277511391355 0.00502134184301806 0.9981629672141127 -0.012530710176930698 0.00016903763490367036 0.00255119838458999 -0.00015284737487313455 -0.0016043773249562277
 0.9981629672141127 -0.012530710176930698 0.001695740580807272 0.005021274061433147 -0.00015289954463993243 -0.0016043836626229893 0.00016590366149708943 0.0025516063570369483
 0.00016903763490367036 0.00255119838458999 -0.00015289954463993243 -0.0016043836626229893 0.0016952442283397343 0.005021011797773772 0.9981629635660715 -0.012531044572732858
 -0.00015284737487313455 -0.0016043773249562277 0.00016590366149708943 0.0025516063570369483 0.9981629635660715 -0.012531044572732858 0.001695766749920129 0.005020936108287385
0.03126302626094 0.0018425923585616009 0.006320232018810917 0.997971282594374 -0.01568658654714419 0.00021316297474665373 0.0031911397014362944 -0.00019023821350227707 -0.0020090620068109505
 0.997971282594374 -0.01568658654714419 0.0018433152324990837 0.006320141633042924 -0.00019031928377278993 -0.0020090689587692737 0.0002082674211150792 0.003191728790106852
 0.00021316297474665373 0.0031911397014362944 -0.00019031928377278993 -0.0020090689587692737 0.0018425407359236846 0.006319820085756416 0.9979712772433238 -0.015687004419302267
 -0.00019023821350227707 -0.0020090620068109505 0.0002082674211150792 0.003191728790106852 0.9979712772433238 -0.015687004419302267 0.0018433564701598004 0.006319719379049747
0.037515631513130004 0.001998983073467902 0.007634181176395857 0.9977670109399298 -0.018853774783135203 0.00026270014708468074 0.0038319774249984347 -0.00023197441952344132 -0.002414941378420089
 0.9977670109399298 -0.018853774783135203 0.0020000231721823726 0.007634065770680914 -0.0002320906072561319 -0.002414948454661048 0.0002556503921363568 0.0038327867355984497
 0.00026270014708468074 0.0038319774249984347 -0.0002320906072561319 -0.002414948454661048 0.001998909111757386 0.0076336876600839685 0.9977670035670362 -0.018854276151580356
 -0.00023197441952344132 -0.002414941378420089 0.0002556503921363568 0.0038327867355984497 0.9977670035670362 -0.018854276151580356 0.002000082895728936 0.007633559250238763
0.043768236765320004 0.002164645971269755 0.008962798165978196 0.9975499725459972 -0.022032491798593155 0.0003177079076931265 0.004473676204059645 -0.0002781170188278981 -0.002821945022957188
 0.9975499725459972 -0.022032491798593155 0.0021660606510621027 0.008962655254323465 -0.0002782744901243967 -0.002821951681701458 0.00030811030953204393 0.00447474862968472
 0.0003177079076931265 0.004473676204059645 -0.0002782744901243967 -0.002821951681701458 0.002164545673285364 0.00896222341886226 0.9975499628296614 -0.022033076698142192
 -0.0002781170188278981 -0.002821945022957188 0.00030811030953204393 0.00447474862968472 0.9975499628296614 -0.022033076698142192 0.002166142282217916 0.008962064501205841
0.050020842017509996 0.002339775939535346 0.010305777409997701 0.9973199858068494 -0.025222863741919777 0.0003782448007926599 0.005116193423203686 -0.00032872636696050153 -0.0032300069612637146
 0.9973199858068494 -0.025222863741919777 0.0023416225052064797 0.01030560443797843 -0.0003289312398413326 -0.003230012608884281 0.00036570464178539263 0.005117575691511365
 0.0003782448007926599 0.005116193423203686 -0.0003289312398413326 -0.003230012608884281 0.0023396453122413773 0.010305121824176817 0.9973199734237526 -0.02522353223101064
 -0.00032872636696050153 -0.0032300069612637146 0.00036570464178539263 0.005117575691511365 0.9973199734237526 -0.02522353223101064 0.002341729472357693 0.010304929476512664
0.055454545454549996 0.0024998082471033127 0.011484333114468384 0.9971094626649987 -0.028004913423975885 0.0004353887565336043 0.005675188119479264 -0.00037638136696969423 -0.003585435051327947
 0.9971094626649987 -0.028004913423975885 0.0025020766411419813 0.011484131892690567 -0.0003766323659145055 -0.00358543929786181 0.0004199700068008282 0.005676880613610009
 0.0004353887565336043 0.005675188119479264 -0.0003766323659145055 -0.00358543929786181 0.0024996480213141828 0.011483607640327739 0.997109447698578 -0.028005654607459823
 -0.00037638136696969423 -0.003585435051327947 0.0004199700068008282 0.005676880613610009 0.997109447698578 -0.028005654607459823 0.0025022084140710614 0.011483383777250016
0.056273447269699996 0.002524566913941926 0.011662865350960297 0.9970768677779664 -0.028424959497447645 0.000444369051320697 0.005759481426482192 -0.0003838621831096597 -0.003639063416230798
 0.9970768677779664 -0.028424959497447645 0.0025269026293911153 0.011662659697399764 -0.0003841205293805607 -0.0036390674072232475 0.00042849050954257823 0.005761224148169795
 0.000444369051320697 0.005759481426482192 -0.0003841205293805607 -0.0036390674072232475 0.0025244019661271127 0.011662129375884345 0.9970768524006145 -0.028425711641086874
 -0.0003838621831096597 -0.003639063416230798 0.00042849050954257823 0.005761224148169795 0.9970768524006145 -0.028425711641086874 0.002527038365780209 0.01166190055945033
0.06252605252188 0.0027192121419357565 0.01303384202864394 0.9968204345292954 -0.03163880905761581 0.0005161384873027545 0.0064034887243952605 -0.00044358355712386006 -0.004049051595069509
 0.9968204345292954 -0.03163880905761581 0.0027220942405761627 0.013033601006914737 -0.0004439014037862759 -0.004049053232023019 0.0004965246257085015 0.006405646442337524
 0.0005161384873027545 0.0064034887243952605 -0.0004439014037862759 -0.004049053232023019 0.002719008886921002 0.013033026155517153 0.9968204158276975 -0.031639644943431924
 -0.00044358355712386006 -0.004049051595069509 0.0004965246257085015 0.006405646442337524 0.9968204158276975 -0.031639644943431924 0.0027222621869226714 0.013032757715622475
0.06877865777407 0.0029239043409321117 0.014418510069054258 0.996550501394126 -0.03486441448396313 0.0005936104755329632 0.00704816072059411 -0.0005079489451063202 -0.004459908953031311
 0.996550501394126 -0.03486441448396313 0.0029273900352962934 0.014418230928329298 -0.000508332275331535 -0.0044599074866188484 0.0005698632431111519 0.007050791959378855
 0.0005936104755329632 0.00704816072059411 -0.000508332275331535 -0.0044599074866188484 0.002923658795799546 0.01441761484363623 0.9965504790342985 -0.034865334210065296
 -0.0005079489451063202 -0.004459908953031311 0.0005698632431111519 0.007050791959378855 0.9965504790342985 -0.034865334210065296 0.002927593639131348 0.014417303510124022
0.07503126302626001 0.0031388357868325552 0.015816687724793357 0.9962668831504252 -0.03810175681774956 0.0006768418671130595 0.007693440165404029 -0.0005770161555783045 -0.004871572731606404
 0.9962668831504252 -0.03810175681774956 0.0031429822780347926 0.015816367650914254 -0.0005774709094614131 -0.004871567360581858 0.0006485621090602668 0.007696607481016263
 0.0006768418671130595 0.007693440165404029 -0.0005774709094614131 -0.004871567360581858 0.003138543973140789 0.015815713741276497 0.9962668567942813 -0.038102760499269306
 -0.0005770161555783045 -0.004871572731606404 0.0006485621090602668 0.007696607481016263 0.9962668567942813 -0.038102760499269306 0.003143224994253473 0.015815356128750627
0.08128386827845 0.0033641983640241447 0.017228204228629026 0.9959693941656094 -0.041350800678266686 0.0007658889484094121 0.008339267458325628 -0.000650842330330992 -0.005283979649052048
 0.9959693941656094 -0.041350800678266686 0.003369062851093009 0.017227840344884962 -0.0006513744054168828 -0.0052839695202523415 0.0007326764232034479 0.008343037487877396
 0.0007658889484094121 0.008339267458325628 -0.0006513744054168828 -0.0052839695202523415 0.003363856308102748 0.017227152135646084 0.9959693634703353 -0.04135188844203498
 -0.000650842330330992 -0.005283979649052048 0.0007326764232034479 0.008343037487877396 0.9959693634703353 -0.04135188844203498 0.003369348142193833 0.017226744743452822
0.08753647353064001 0.003600183586515255 0.01865289659121271 0.9956578485140463 -0.044611497418484754 0.0008608073956109848 0.008985580857318598 -0.0007294839214916819 -0.0056970656855304695
 0.9956578485140463 -0.044611497418484754 0.0036058232756270973 0.01865248595886342 -0.0007300991731947201 -0.005697049893872728 0.0008222607974579875 0.008990024368730642
 0.0008608073956109848 0.008985580857318598 -0.0007300991731947201 -0.005697049893872728 0.0035997873204204334 0.018651767087265094 0.9956578131322018 -0.04461266940802391
 -0.0007294839214916819 -0.0056970656855304695 0.0008222607974579875 0.008990024368730642 0.9956578131322018 -0.04461266940802391 0.0036061546122853126 0.01865130629931218
0.09378907878283 0.0038469826028361596 0.02009060729650335 0.9953320600800454 -0.04788378738422882 0.0009616522317104377 0.009632316626051242 -0.0008129966657015524 -0.00611076593171643
 0.9953320600800454 -0.04788378738422882 0.0038534547165562675 0.020090146915071674 -0.0008137009075617265 -0.006110743520223422 0.0009173692175229457 0.00963750856758152
 0.0009616522317104377 0.009632316626051242 -0.0008137009075617265 -0.006110743520223422 0.0038465281644810938 0.020089401134740753 0.9953320196584254 -0.047885043755510226
 -0.0008129966657015524 -0.00611076593171643 0.0009173692175229457 0.00963750856758152 0.9953320196584254 -0.047885043755510226 0.003853835577655463 0.0200888832190666
0.100041684035 0.0041047861860210935 0.02154118262560814 0.9949918426476871 -0.05116760154635435 0.0010684777849091567 0.010279409142772788 -0.0009014355563664511 -0.006525014477269075
 0.9949918426476871 -0.05116760154635435 0.0041121479722504095 0.021540669433001657 -0.0009022345602182744 -0.006524984437075686 0.0010180550050219903 0.010285428692374886
 0.0010684777849091567 0.010279409142772788 -0.0009022345602182744 -0.006524984437075686 0.004104269620019712 0.021539900610136695 0.9949917968276188 -0.051168942472005104
 -0.0009014355563664511 -0.006525014477269075 0.0010180550050219903 0.010285428692374886 0.9949917968276188 -0.051168942472005104 0.004112581845566651 0.021539321718215154
0.1059090909091 0.004356885630768686 0.022913959240550678 0.994659295762793 -0.05425952533421004 0.0011742093822297067 0.010886901257188285 -0.0009889546604634721 -0.006914181810547424
 0.994659295762793 -0.05425952533421004 0.004365134377698708 0.02291339365027456 -0.0009898478007924788 -0.006914143647879641 0.0011176573746805296 0.010893773251556004
 0.0011742093822297067 0.010886901257188285 -0.0009898478007924788 -0.006914143647879641 0.00435630717373481 0.022912606825911147 0.9946592445451331 -0.054260945772610994
 -0.0009889546604634721 -0.006914181810547424 0.0011176573746805296 0.010893773251556004 0.9946592445451331 -0.054260945772610994 0.0043656211773252605 0.022911967109511672
0.1062942892872 0.004373784714506519 0.023004471382551465 0.9946370099838441 -0.0544628627326868 0.0011813376482301195 0.010926790981934532 -0.0009948548140410315 -0.006939744328103556
 0.9946370099838441 -0.0544628627326868 0.004382093456194782 0.02300390225487858 -0.0009957543101637757 -0.006939705598484041 0.0011243707804424218 0.010933721596347597
 0.0011813376482301195 0.010926790981934532 -0.0009957543101637757 -0.006939705598484041 0.0043732020728944835 0.02300311437419711 0.994636958400434 -0.05446428839663717
 -0.0009948548140410315 -0.006939744328103556 0.0011243707804424218 0.010933721596347597 0.994636958400434 -0.05446428839663717 0.00438258383839159 0.023002470540139326
0.11254689453939999 0.0046541681463054515 0.024480323927472052 0.9942673759150178 -0.057769486554012844 0.0013002846397284845 0.01157439297807389 -0.0010933078557569642 -0.007354887342957099
 0.9942673759150178 -0.057769486554012844 0.004663481170406033 0.024479695678712176 -0.0010943135328771512 -0.0073548388113538025 0.0012363684260794274 0.011582322441652321
 0.0013002846397284845 0.01157439297807389 -0.0010943135328771512 -0.0073548388113538025 0.004653515488819367 0.024478892839931043 0.9942673181966218 -0.057770997155895676
 -0.0010933078557569642 -0.007354887342957099 0.0012363684260794274 0.011582322441652321 0.9942673181966218 -0.057770997155895676 0.004664031567363766 0.024478179979257005
0.11879949979160001 0.004946125986457046 0.025968591412870754 0.9938827544004953 -0.061087382128889714 0.0014253707631384338 0.012222144275399924 -0.0011968472630997987 -0.007770374185916258
 0.9938827544004953 -0.061087382128889714 0.004956500673519561 0.025967900794210342 -0.001197964768410313 -0.007770314687966477 0.001354099049341904 0.012231164748576776
 0.0014253707631384338 0.012222144275399924 -0.001197964768410313 -0.007770314687966477 0.004945399381732327 0.025967087215081758 0.9938826901686054 -0.061088977882049506
 -0.0011968472630997987 -0.007770374185916258 0.001354099049341904 0.012231164748576776 0.9938826901686054 -0.061088977882049506 0.004957114600923282 0.025966301123467036
0.1250521050438 0.005249847250604866 0.02746912518468267 0.9934829596021478 -0.0644164526452375 0.0015566471689426459 0.01286997236786973 -0.001305524749373828 -0.00818613429008469
 0.9934829596021478 -0.0644164526452375 0.005261341044223767 0.027468368883677596 -0.0013067596884723377 -0.008186062609669984 0.0014776129460452238 0.01288018043529278
 0.0015566471689426459 0.01286997236786973 -0.0013067596884723377 -0.008186062609669984 0.005249042776325762 0.02746754889977488 0.9934828884705845 -0.06441813377821042
 -0.001305524749373828 -0.00818613429008469 0.0014776129460452238 0.01288018043529278 0.9934828884705845 -0.06441813377821042 0.005262022027385217 0.02746668525135846
0.131304710296 0.00556552042443698 0.028981776295182355 0.9930678059523946 -0.06775659581212531 0.0016941641153479265 0.013517803134012225 -0.0014193911261470749 -0.008602095828310268
 0.9930678059523946 -0.06775659581212531 0.005578190840976358 0.02898095093457028 -0.0014207490629433927 -0.008602010697592297 0.0016069595635969944 0.013529299852187097
 0.0016941641153479265 0.013517803134012225 -0.0014207490629433927 -0.008602010697592297 0.005564634168436602 0.02898012900432206 0.9930677275272093 -0.06775836256519185
 -0.0014193911261470749 -0.008602095828310268 0.0016069595635969944 0.013529299852187097 0.9930677275272093 -0.06775836256519185 0.005578942415452374 0.028979183349880467
0.1375573155481 0.005813264069306754 0.030308134021684564 0.992717194618846 -0.07090939845229927 0.0018188596217505928 0.014144903519183632 -0.0015194897589766861 -0.008997465531271754
 0.992717194618846 -0.07090939845229927 0.005827173846812381 0.03030725602957374 -0.0015209788957183867 -0.008997367111626759 0.0017232857935675751 0.014157655947227064
 0.0018188596217505928 0.014144903519183632 -0.0015209788957183867 -0.008997367111626759 0.005812292589225906 0.03030641672101073 0.9927171085701987 -0.0709112509688058
 -0.0015194897589766861 -0.008997465531271754 0.0017232857935675751 0.014157655947227064 0.9927171085701987 -0.0709112509688058 0.005827998967274616 0.03030540442827679
0.1438099208003 0.0060694337081559965 0.03162870029688657 0.9923547593631119 -0.0740554307940119 0.00194860366355244 0.014770174182439902 -0.0016236055892250205 -0.009391201994679974
 0.9923547593631119 -0.0740554307940119 0.006084641295794369 0.03162776759845189 -0.0016252319055962267 -0.009391089065730444 0.0018442894427342419 0.014784273050503453
 0.00194860366355244 0.014770174182439902 -0.0016252319055962267 -0.009391089065730444 0.006068373191398863 0.03162691410543183 0.9923546652987751 -0.07405736931174006
 -0.0016236055892250205 -0.009391201994679974 0.0018442894427342419 0.014784273050503453 0.9923546652987751 -0.07405736931174006 0.006085543407124604 0.031625831997920927
0.1500625260525 0.006333953458827336 0.03294340072944363 0.9919805787660682 -0.07719465142162202 0.0020833608406347283 0.015393574535130652 -0.0017317049760370677 -0.009783267327254678
 0.9919805787660682 -0.07719465142162202 0.006350517415109372 0.03294241111700253 -0.0017334744437199497 -0.009783138620157818 0.0019699367794865914 0.015409113836768872
 0.0020833608406347283 0.015393574535130652 -0.0017334744437199497 -0.009783138620157818 0.006332800107928889 0.03294154681132923 0.9919804762867347 -0.07719667618793544
 -0.0017317049760370677 -0.009783267327254678 0.0019699367794865914 0.015409113836768872 0.9919804762867347 -0.07719667618793544 0.006351499965104363 0.0329403915356758
0.15631513130469998 0.006606747065397288 0.03425216340431515 0.9915947316235458 -0.08032701839276139 0.0022230954373104353 0.016015064516698284 -0.001843753957186478 -0.010173624346906721
