! Created with skrf 1.8.0 (http://scikit-rf.org).
# GHz S RI R 50.0 
!freq ReS11 ImS11 ReS12 ImS12 ReS13 ImS13
! ReS14 ImS14
! ReS21 ImS21 ReS22 ImS22 ReS23 ImS23
! ReS24 ImS24
! ReS31 ImS31 ReS32 ImS32 ReS33 ImS33
! ReS34 ImS34
! ReS41 ImS41 ReS42 ImS42 ReS43 ImS43
! ReS44 ImS44
!
0.0 0.001612853261031 0.0 0.998387146739 0.0 6.260620718154e-05 0.0 -6.260620744804e-05 7.667049155799737e-21
 0.998387146739 0.0 0.001612853261065 0.0 -6.260620744876e-05 7.667049155887912e-21 6.260620718236e-05 0.0
 6.260620718154e-05 0.0 -6.260620744876e-05 7.667049155887912e-21 0.001612853238846 0.0 0.9983871467167 0.0
 -6.260620744804e-05 7.667049155799737e-21 6.260620718236e-05 0.0 0.9983871467167 0.0 0.001612853238845 0.0
0.005 0.0017355637610506442 0.0013140923842789806 0.998231842384815 -0.003378529886618713 8.867765622556273e-05 0.0007211219805878695 -8.587565008299408e-05 -0.00044713295072057035
 0.998231842384815 -0.003378529886618713 0.001735581000819923 0.0013140823633223302 -8.587510810504335e-05 -0.000447132614262802 8.856734765268405e-05 0.0007211639355512579
 8.867765622556273e-05 0.0007211219805878695 -8.587510810504335e-05 -0.000447132614262802 0.0017355632908302634 0.001314025452070365 0.9982318420224473 -0.003378596946379607
 -8.587565008299408e-05 -0.00044713295072057035 8.856734765268405e-05 0.0007211639355512579 0.9982318420224473 -0.003378596946379607 0.001735580757207175 0.0013140151877453607
0.006252605252188 0.001767809348240066 0.0016477998776520358 0.998190759784603 -0.004223980659910277 9.617578626024266e-05 0.0009017321418743011 -9.24807115535469e-05 -0.0005594974010302007
 0.998190759784603 -0.004223980659910277 0.0017678362969986005 0.0016477871706215342 -9.247986755536497e-05 -0.0005594969879313511 9.600343911872314e-05 0.0009017866402652722
 9.617578626024266e-05 0.0009017321418743011 -9.247986755536497e-05 -0.0005594969879313511 0.0017678086799933046 0.0016477162273297586 0.9981907592852928 -0.004224064482195206
 -9.24807115535469e-05 -0.0005594974010302007 9.600343911872314e-05 0.0009017866402652722 0.9981907592852928 -0.004224064482195206 0.001767835983956831 0.001647703202103166
0.01250521050438 0.0019379202025497971 0.0033302121835785637 0.9979725256836137 -0.0084487202821419 0.00013943697117876303 0.0018036900242712954 -0.00013014601081285808 -0.001121692376601644
 0.9979725256836137 -0.0084487202821419 0.001938027805722822 0.0033301849568751754 -0.0001301426769939605 -0.0011216916336225168 0.00013874967551795304 0.0018038212438935657
 0.00013943697117876303 0.0018036900242712954 -0.0001301426769939605 -0.0011216916336225168 0.001937918098802674 0.003330045274749589 0.9979725242574619 -0.008448887699662174
 -0.00013014601081285808 -0.001121692376601644 0.00013874967551795304 0.0018038212438935657 0.9979725242574619 -0.008448887699662174 0.0019380271367069196 0.0033300172659953726
0.01875781575657 0.002123571570346983 0.005036594993167164 0.9977321631820434 -0.012684490458451882 0.00019249095972641815 0.0027064998358613456 -0.00017572188569042984 -0.0016857220464783856
 0.9977321631820434 -0.012684490458451882 0.0021238133527844787 0.0050365513192513235 -0.00017571444047176032 -0.0016857210764607898 0.00019094699232734345 0.002706734481666435
 0.00019249095972641815 0.0027064998358613456 -0.00017571444047176032 -0.0016857210764607898 0.002123567255206654 0.005036345125409845 0.9977321603930687 -0.012684741437344832
 -0.00017572188569042984 -0.0016857220464783856 0.00019094699232734345 0.002706734481666435 0.9977321603930687 -0.012684741437344832 0.0021238122946287802 0.005036300041916784
0.02501042100875 0.0023251369476689834 0.006764531068694374 0.9974693795881068 -0.016933325865727242 0.000255440783553076 0.003610193947742701 -0.00022932375898390575 -0.0022513105436091953
 0.9974693795881068 -0.016933325865727242 0.0023255663265623057 0.006764468925215317 -0.00022931059683091592 -0.002251309470446065 0.00025269828323786956 0.0036105630628062027
 0.000255440783553076 0.003610193947742701 -0.00022931059683091592 -0.002251309470446065 0.0023251296469399135 0.006764198594043294 0.9974693749993022 -0.016933660420965595
 -0.00022932375898390575 -0.0022513105436091953 0.00025269828323786956 0.0036105630628062027 0.9974693749993022 -0.016933660420965595 0.0023255648647177956 0.0067641342314599786
0.03126302626094 0.002542974336268164 0.008512766736575784 0.9971838678161296 -0.02119608537032974 0.0003283899561223176 0.004514717512886858 -0.0002910634946825838 -0.0028182623599372525
 0.9971838678161296 -0.02119608537032974 0.0025436446529860245 0.008512684010734163 -0.0002910430234209855 -0.0028182613288018723 0.00032410661431742376 0.004515256504823631
 0.0003283899561223176 0.004514717512886858 -0.0002910430234209855 -0.0028182613288018723 0.002542963278301488 0.008512352061723584 0.9971838609876059 -0.02119650356398354
 -0.0002910634946825838 -0.0028182623599372525 0.00032410661431742376 0.004515256504823631 0.9971838609876059 -0.02119650356398354 0.00254364279184318 0.008512266106540437
0.037515631513130004 0.0027774337945386173 0.010280477212737253 0.9968753142068485 -0.025473186643146153 0.00041144133644709855 0.0054199811284283365 -0.0003610502518253859 -0.0033864096894497433
 0.9968753142068485 -0.025473186643146153 0.002778398336927195 0.01028037170354964 -0.00036102089139236214 -0.0033864088669239884 0.00040527426204500604 0.005420729813298441
 0.00041144133644709855 0.0054199811284283365 -0.00036102089139236214 -0.0033864088669239884 0.0027774182076558537 0.010279980799529905 0.9968753046906818 -0.025473688584380347
 -0.0003610502518253859 -0.0033864096894497433 0.00040527426204500604 0.005420729813298441 0.9968753046906818 -0.025473688584380347 0.002778396096387611 0.01027987083096204
0.043768236765320004 0.003028860340870483 0.012067043009163217 0.9965434017036162 -0.029764829683399812 0.0005046966032689823 0.006325876836880344 -0.00043939077641836505 -0.003955596436875733
 0.9965434017036162 -0.029764829683399812 0.00303017236128016 0.012066912428678847 -0.000439350958142534 -0.003955596011030906 0.0004963022624534228 0.0063268794885595
 0.0005046966032689823 0.006325876836880344 -0.000439350958142534 -0.003955596011030906 0.0030288394571135 0.012066465405350661 0.9965433890446442 -0.02976541549813637
 -0.00043939077641836505 -0.003955596436875733 0.0004963022624534228 0.0063268794885595 0.9965433890446442 -0.02976541549813637 0.0030301697800369206 0.012066328896256168
0.050020842017509996 0.003297595299097765 0.013871957584915636 0.9961878114747805 -0.03407108909631058 0.0006082559315098991 0.007232284756996431 -0.0005261895066815238 -0.004525671600779456
 0.9961878114747805 -0.03407108909631058 0.003299308030756613 0.01387179955901879 -0.0005261376729497031 -0.004525671781250705 0.0005972901273199357 0.007233590158676691
 0.0006082559315098991 0.007232284756996431 -0.0005261376729497031 -0.004525671781250705 0.0032975683573094553 0.013871299387410605 0.9961877952110678 -0.034071758964320194
 -0.0005261895066815238 -0.004525671600779456 0.0005972901273199357 0.007233590158676691 0.9961877952110678 -0.034071758964320194 0.0032993051684192965 0.01387113370475243
0.055454545454549996 0.003545453489911633 0.015455042361994685 0.9958593153429146 -0.03782522655552796 0.000706696787120453 0.008020297014141765 -0.0006085687194677703 -0.005021689863294516
 0.9958593153429146 -0.03782522655552796 0.00354755768008533 0.015454858490364393 -0.0006085051874310223 -0.0050216907577171266 0.0006932162606418773 0.008021908674250636
 0.000706696787120453 0.008020297014141765 -0.0006085051874310223 -0.0050216907577171266 0.003545420669635782 0.015454314673300778 0.9958592955631068 -0.03782596963234086
 -0.0006085687194677703 -0.005021689863294516 0.0006932162606418773 0.008021908674250636 0.9958592955631068 -0.03782596963234086 0.0035475546364883846 0.015454121417285848
0.056273447269699996 0.00358397698418743 0.01569478195425114 0.9958082238815612 -0.038391959415923986 0.0007222177656313203 0.008139076323911188 -0.0006215485873181087 -0.005096486051992778
 0.9958082238815612 -0.038391959415923986 0.0035861436560252332 0.01569459402286492 -0.0006214831913909394 -0.005096487070042466 0.0007083356413601923 0.008140737820504378
 0.0007222177656313203 0.008139076323911188 -0.0006214831913909394 -0.005096487070042466 0.00358394322857649 0.015694043838905554 0.995808203540226 -0.03839271354153707
 -0.0006215485873181087 -0.005096486051992778 0.0007083356413601923 0.008140737820504378 0.995808203540226 -0.03839271354153707 0.003586140590986817 0.01569384624365479
0.06252605252188 0.00388834105650747 0.017535119781670407 0.9954043191187061 -0.042727379945125876 0.0008466786356463615 0.009046116089943759 -0.0007255678428881037 -0.005667890756572933
 0.9954043191187061 -0.042727379945125876 0.0038910149079217113 0.017534899398410797 -0.0007254873488370002 -0.005667892865133175 0.0008295346944627132 0.00904819164068197
 0.0008466786356463615 0.009046116089943759 -0.0007254873488370002 -0.005667892865133175 0.003888299740710994 0.017534302497394426 0.9954042942168754 -0.04272821856319332
 -0.0007255678428881037 -0.005667890756572933 0.0008295346944627132 0.00904819164068197 0.9954042942168754 -0.04272821856319332 0.003891011740634469 0.017534070143982495
0.06877865777407 0.004211020704225385 0.019392602519579756 0.9949757776874677 -0.04707724955764369 0.0009817330015041226 0.009953262795797956 -0.0008383447234450717 -0.006239735733825881
 0.9949757776874677 -0.04707724955764369 0.004214254998601991 0.01939234705114146 -0.0008382476061169563 -0.006239739207566266 0.0009609811372255669 0.009955815026759726
 0.0009817330015041226 0.009953262795797956 -0.0008382476061169563 -0.006239739207566266 0.004210971091975665 0.019391706881013226 0.9949757477305164 -0.04707817294127079
 -0.0008383447234450717 -0.006239735733825881 0.0009609811372255669 0.009955815026759726 0.9949757477305164 -0.04707817294127079 0.004214251852033409 0.01939143681627055
0.07503126302626001 0.004552346717374159 0.021266879981023046 0.9945222807656348 -0.05144143607118736 0.0011274731115411358 0.010860370061656 -0.0009599742355182493 -0.00681186940033833
 0.9945222807656348 -0.05144143607118736 0.004556194756647811 0.02126658670585249 -0.0009598589806950464 -0.006811874535691447 0.001102766647987802 0.010863466317953723
 0.0011274731115411358 0.010860370061656 -0.0009598589806950464 -0.006811874535691447 0.004552288084645116 0.02126590687982706 0.9945222452456349 -0.05144244452045479
 -0.0009599742355182493 -0.00681186940033833 0.001102766647987802 0.010863466317953723 0.9945222452456349 -0.05144244452045479 0.004556191776953469 0.02126559604158236
0.08128386827845 0.0049126474969439955 0.02315761408347237 0.9940435105152671 -0.05581978245542175 0.0012839888707260113 0.011767286849340253 -0.0010905488627310216 -0.007384138148961372
 0.9940435105152671 -0.05581978245542175 0.004917162634845871 0.023157280190234625 -0.0010904139672035242 -0.007384145264167205 0.0012549806077861102 0.011770999246783837
 0.0012839888707260113 0.011767286849340253 -0.0010904139672035242 -0.007384145264167205 0.004912579133475088 0.023156564481709028 0.9940434689099671 -0.05582087630417173
 -0.0010905488627310216 -0.007384138148961372 0.0012549806077861102 0.011770999246783837 0.9940434689099671 -0.05582087630417173 0.0049171599926660205 0.023156209696920026
0.08753647353064001 0.005292249018226108 0.025064474517538623 0.9935391503497221 -0.06021211112191254 0.001451367714476143 0.012673857798743077 -0.0012301584799768144 -0.007956386059891017
 0.9935391503497221 -0.06021211112191254 0.005297484674441997 0.02506409710290304 -0.0012300024517093169 -0.007956395495024788 0.0014177099795516092 0.012678263274855177
 0.001451367714476143 0.012673857798743077 -0.0012300024517093169 -0.007956395495024788 0.005292170229583694 0.02506334945036908 0.9935391021216435 -0.06021329073507188
 -0.0012301584799768144 -0.007956386059891017 0.0014177099795516092 0.012678263274855177 0.9935391021216435 -0.06021329073507188 0.005297482566134732 0.025062947432640845
0.09378907878283 0.005691474765568589 0.026987135659804096 0.993008885175874 -0.06461822697698262 0.0016296944874338406 0.013579923468629013 -0.001378890261657443 -0.008528454713827389
 0.993008885175874 -0.06461822697698262 0.0056974844395356545 0.026986711725810526 -0.001378711620009284 -0.0085284668308214 0.0015910391916752445 0.013585103832901407
 0.0016296944874338406 0.013579923468629013 -0.001378711620009284 -0.0085284668308214 0.005691384875127833 0.026985936233719462 0.9930088297707804 -0.06461949275219611
 -0.001378890261657443 -0.008528454713827389 0.0015910391916752445 0.013585103832901407 0.9930088297707804 -0.06461949275219611 0.005697483088187572 0.026985483580542344
0.100041684035 0.006110645644175802 0.02892527430996317 0.9924524016164313 -0.06903791965738805 0.0018190513246352012 0.01448532053255726 -0.0015368285871346845 -0.009100183056574014
 0.9924524016164313 -0.06903791965738805 0.006117482928741552 0.02892480076089978 -0.0015366258630181906 -0.009100198239238088 0.0017750500227309597 0.014491362515936966
 0.0018190513246352012 0.01448532053255726 -0.0015366258630181906 -0.009100198239238088 0.006110543994393944 0.028924001706108343 0.9924523384619045 -0.06903927202158078
 -0.0015368285871346845 -0.009100183056574014 0.0017750500227309597 0.014491362515936966 0.9924523384619045 -0.06903927202158078 0.0061174825850839115 0.028923494895477155
0.1059090909091 0.0065224164383100545 0.030757801233665054 0.9919060780216398 -0.07319748111661098 0.002006845039627573 0.015334182790175606 -0.001693482830658582 -0.009636234107235327
 0.9919060780216398 -0.07319748111661098 0.006530079185452395 0.030757278220332838 -0.0016932561821352235 -0.009636252535269028 0.0019575099091460025 0.015341116619140569
 0.002006845039627573 0.015334182790175606 -0.0016932561821352235 -0.009636252535269028 0.006522303174920943 0.030756461098412128 0.9919060070576146 -0.07319891515214037
 -0.001693482830658582 -0.009636234107235327 0.0019575099091460025 0.015341116619140569 0.9919060070576146 -0.07319891515214037 0.006530080041269323 0.030755900153696558
0.1062942892872 0.006550079875283756 0.03087856799817232 0.9918693882198096 -0.07347096520360152 0.002019517534957327 0.015389881929172412 -0.0017040549428030745 -0.009671407316223726
 0.9918693882198096 -0.07347096520360152 0.006557798470983981 0.030878041636910214 -0.0017038266789951545 -0.009671425970246762 0.0019698214887232087 0.015396877232554815
 0.002019517534957327 0.015389881929172412 -0.0017038266789951545 -0.009671425970246762 0.006549965830413943 0.030877223468362778 0.9918693167245618 -0.07347240461677168
 -0.0017040549428030745 -0.009671407316223726 0.0019698214887232087 0.015396877232554815 0.9918693167245618 -0.07347240461677168 0.006557799414741667 0.03087665885492184
0.11254689453939999 0.0070100928802305515 0.032846693690034616 0.9912595356617823 -0.0779171273432281 0.0022311694855516946 0.01629343699174111 -0.0018806478230027535 -0.010241960947934258
 0.9912595356617823 -0.0779171273432281 0.007018746608903302 0.03284611121382845 -0.0018803925742945423 -0.010241983500896772 0.0021754297306407376 0.016301482333507176
 0.0022311694855516946 0.01629343699174111 -0.0018803925742945423 -0.010241983500896772 0.0070099658274368395 0.032845278561261695 0.9912594552134536 -0.07791865429354425
 -0.0018806478230027535 -0.010241960947934258 0.0021754297306407376 0.016301482333507176 0.9912594552134536 -0.07791865429354425 0.0070187491499235114 0.03284465237193197
0.11879949979160001 0.007490997153310963 0.03482932678941045 0.9906225369389786 -0.08237615848462079 0.0024540804885462304 0.01719581156229151 -0.0020666826283275907 -0.010811674601139522
 0.9906225369389786 -0.08237615848462079 0.007500639972616201 0.03482868478510244 -0.0020663989618892897 -0.010811701502493437 0.002391947903677533 0.01720500872476476
 0.0024540804885462304 0.01719581156229151 -0.0020663989618892897 -0.010811701502493437 0.007490856505399478 0.03482784245905109 0.9906224469039663 -0.08237777349284818
 -0.0020666826283275907 -0.010811674601139522 0.002391947903677533 0.01720500872476476 0.9906224469039663 -0.08237777349284818 0.0075006444519140295 0.03482715078815583
0.1250521050438 0.00799310212844136 0.036826140348725604 0.9899580875593966 -0.08684780051125883 0.0026883206878586274 0.01809682808913451 -0.0022622315636146965 -0.011380376110696451
 0.9899580875593966 -0.08684780051125883 0.008003788145629648 0.0368254352875169 -0.0022619180592026917 -0.01138040783175518 0.002619446067011679 0.01810728396394372
 0.0026883206878586274 0.01809682808913451 -0.0022619180592026917 -0.01138040783175518 0.00799294732536524 0.03682458828730036 0.9899579872807389 -0.0868495041275284
 -0.0022622315636146965 -0.011380376110696451 0.002619446067011679 0.01810728396394372 0.9899579872807389 -0.0868495041275284 0.008003794936724477 0.03682382709109133
0.131304710296 0.008516714038928312 0.03883680444663863 0.9892658857281345 -0.0913317854174334 0.0029339569472840174 0.018996305721186182 -0.0024673635348492467 -0.011947890498340606
 0.9892658857281345 -0.0913317854174334 0.008528497525220323 0.03883603267810017 -0.002467018785129762 -0.011947927532265461 0.002857991074138441 0.019008132353424422
 0.0029339569472840174 0.018996305721186182 -0.002467018785129762 -0.011947927532265461 0.008516544549744239 0.03883518619742718 0.9892657745240855 -0.09133357822098698
 -0.0024673635348492467 -0.011947890498340606 0.002857991074138441 0.019008132353424422 0.9892657745240855 -0.09133357822098698 0.008528507035160192 0.038834351288014005
0.1375573155481 0.0089445309793687 0.040597806654561315 0.9886632858738289 -0.09556452977500943 0.0031612207204680513 0.019867765882772552 -0.002652405706701442 -0.012487701070995129
 0.9886632858738289 -0.09556452977500943 0.008957470995002171 0.04059698113218501 -0.002652027846890382 -0.012487743486237815 0.0030779911987513977 0.01988094946212177
 0.0031612207204680513 0.019867765882772552 -0.002652027846890382 -0.012487743486237815 0.00894434711444091 0.04059612311648721 0.9886631632270455 -0.09556641213863229
 -0.002652405706701442 -0.012487701070995129 0.0030779911987513977 0.01988094946212177 0.9886631632270455 -0.09556641213863229 0.008957482503657013 0.04059522789841882
0.1438099208003 0.009387460787036683 0.042349018124561676 0.9880393462051916 -0.09978604487739 0.003397671981658098 0.020735400526387095 -0.0028448437074337315 -0.013024046893032295
 0.9880393462051916 -0.09978604487739 0.009401612564339626 0.04234813609572762 -0.0028444312660387775 -0.013024095170248122 0.003306861500905455 0.02075004380633939
 0.003397671981658098 0.020735400526387095 -0.0028444312660387775 -0.013024095170248122 0.00938726221049467 0.04234727085575621 0.9880392114320173 -0.09978801737516538
 -0.0028448437074337315 -0.013024046893032295 0.003306861500905455 0.02075004380633939 0.9880392114320173 -0.09978801737516538 0.00940162632326205 0.04234631213447918
0.1500625260525 0.009845339912309771 0.04409027774244216 0.9873942346669762 -0.10399621098920725 0.0036432254194212264 0.021599110831962587 -0.0030445953778342355 -0.013556836115218901
 0.9873942346669762 -0.10399621098920725 0.009860758867835244 0.04408933625671166 -0.0030441468901507753 -0.013556890753846931 0.0035445186996155165 0.0216153203119831
 0.0036432254194212264 0.021599110831962587 -0.0030441468901507753 -0.013556890753846931 0.009845126327007266 0.04408846836085692 0.9873940870629919 -0.10399827421567907
 -0.0030445953778342355 -0.013556836115218901 0.0035445186996155165 0.0216153203119831 0.9873940870629919 -0.10399827421567907 0.009860775147881846 0.044087442730744074
0.15631513130469998 0.010318003549644662 0.04582142922867551 0.9867281201623253 -0.108194909117091 0.0038977946587016744 0.022458799736747023 -0.0032515774967670813 -0.014085978911359806
 0.9867281201623253 -0.108194909117091 0.010334745289441904 0.045820425130157064 -0.003251091504997666 -0.014086040429474585 0.003790878483057278 0.022476685620820367
