! Created with skrf 1.8.0 (http://scikit-rf.org).
# GHz S RI R 50.0 
!freq ReS11 ImS11 ReS12 ImS12 ReS13 ImS13
! ReS14 ImS14
! ReS21 ImS21 ReS22 ImS22 ReS23 ImS23
! ReS24 ImS24
! ReS31 ImS31 ReS32 ImS32 ReS33 ImS33
! ReS34 ImS34
! ReS41 ImS41 ReS42 ImS42 ReS43 ImS43
! ReS44 ImS44
!
0.0 0.001409837287183 0.0 0.9985901627043 0.0 5.441671435375e-05 0.0 -5.441671444236e-05 6.664125516195172e-21
 0.9985901627043 0.0 0.001409837287192 0.0 -5.441671444288e-05 6.664125516258854e-21 5.441671435392e-05 0.0
 5.441671435375e-05 0.0 -5.441671444288e-05 6.664125516258854e-21 0.00140983727867 0.0 0.9985901626958 0.0
 -5.441671444236e-05 6.664125516195172e-21 5.441671435392e-05 0.0 0.9985901626958 0.0 0.001409837278652 0.0
0.005 0.0015165719797917494 0.001148807137208227 0.9984551758380721 -0.0029539034325956857 7.674913020238199e-05 0.0006288730633785956 -7.441374207543845e-05 -0.0003896811652635514
 0.9984551758380721 -0.0029539034325956857 0.0015165706576063891 0.0011488078844967252 -7.441317649910513e-05 -0.0003896806780009022 7.675671660261135e-05 0.0006288701167323174
 7.674913020238199e-05 0.0006288730633785956 -7.441317649910513e-05 -0.0003896806780009022 0.0015165721822781154 0.0011487397144308213 0.9984551754908721 -0.0029539704931807087
 -7.441374207543845e-05 -0.0003896811652635514 7.675671660261135e-05 0.0006288701167323174 0.9984551754908721 -0.0029539704931807087 0.0015165697633904873 0.0011487411881070289
0.006252605252188 0.0015444622100486659 0.0014405650652152234 0.9984196963616188 -0.0036931202520335132 8.30663703396162e-05 0.0007863894828579637 -8.00144419788339e-05 -0.0004876182843552698
 0.9984196963616188 -0.0036931202520335132 0.0015444601436392141 0.0014405660319429805 -8.001356231086574e-05 -0.00048761768234806946 8.307822285177744e-05 0.0007863856672897406
 8.30663703396162e-05 0.0007863894828579637 -8.001356231086574e-05 -0.00048761768234806946 0.001544462601347662 0.0014404807873684919 0.9984196958931636 -0.0036932040728884963
 -8.00144419788339e-05 -0.0004876182843552698 8.307822285177744e-05 0.0007863856672897406 0.9984196958931636 -0.0036932040728884963 0.0015444588197903713 0.001440482672708645
0.01250521050438 0.0016906825542418484 0.002911639502432019 0.9982325322233296 -0.00738717376774179 0.00011896159040760352 0.0015730946442986883 -0.00011154949333953548 -0.0009776970384813167
 0.9982325322233296 -0.00738717376774179 0.0016906743087320626 0.0029116417636335075 -0.00011154603161278982 -0.0009776959109773224 0.00011900883789126732 0.0015730855878992728
 0.00011896159040760352 0.0015730946442986883 -0.00011154603161278982 -0.0009776959109773224 0.0016906846894825668 0.0029114711528334778 0.9982325309175453 -0.007387341163150833
 -0.00011154949333953548 -0.0009776970384813167 0.00011900883789126732 0.0015730855878992728 0.9982325309175453 -0.007387341163150833 0.0016906695820856756 0.0029114753672029483
0.01875781575657 0.0018487966345215607 0.004403953996787266 0.9980284526333334 -0.011091178754973936 0.00016218202049223513 0.0023606901930134437 -0.00014911505932706993 -0.0014695046227581159
 0.9980284526333334 -0.011091178754973936 0.0018487781174583247 0.004403957894495199 -0.00014910734633708032 -0.0014695030580647677 0.0001622881169750177 0.002360674198816101
 0.00016218202049223513 0.0023606901930134437 -0.00014910734633708032 -0.0014695030580647677 0.001848801866875871 0.004403701628075006 0.9980284501176797 -0.011091429633832516
 -0.00014911505932706993 -0.0014695046227581159 0.0001622881169750177 0.002360674198816101 0.9980284501176797 -0.011091429633832516 0.0018487679045158373 0.004403708661924449
0.02501042100875 0.0020190950961641568 0.005915431885922981 0.9978072319716361 -0.014806952515818376 0.00021280843803527663 0.003149232109305008 -0.00019280154510370313 -0.0019628234643834625
 0.9978072319716361 -0.014806952515818376 0.0020190622300149735 0.005915437775871318 -0.00019278793361878684 -0.0019628215644458768 0.0002129968258927201 0.0031492072218547145
 0.00021280843803527663 0.003149232109305008 -0.00019278793361878684 -0.0019628215644458768 0.00201910478977899 0.005915095508619251 0.9978072278777992 -0.014807286831594869
 -0.00019280154510370313 -0.0019628234643834625 0.0002129968258927201 0.0031492072218547145 0.9978072278777992 -0.014807286831594869 0.0020190444500959525 0.005915105897406628
0.03126302626094 0.002201856465776205 0.007445015090058539 0.9975686323818057 -0.018535285483693126 0.0002709222658938287 0.003938700772761818 -0.0002426969612554162 -0.0024575069449729063
 0.9975686323818057 -0.018535285483693126 0.002201805185978405 0.007445023341621854 -0.0002426758222258198 -0.0024575048255695577 0.00027121640103284296 0.003938664777293898
 0.0002709222658938287 0.003938700772761818 -0.0002426758222258198 -0.0024575048255695577 0.002201871990504155 0.007444594701964371 0.9975686263397591 -0.01853570320507052
 -0.0002426969612554162 -0.0024575069449729063 0.00027121640103284296 0.003938664777293898 0.9975686263397591 -0.01853570320507052 0.0022017777548691123 0.007444609026380536
0.037515631513130004 0.0023973533658577274 0.008992021787642817 0.9973124101493632 -0.022276583491114405 0.0003366047739752699 0.004729047011071912 -0.0002988876121912431 -0.002953433348412914
 0.9973124101493632 -0.022276583491114405 0.0023972796192828984 0.008992032783796285 -0.0002988573327289952 -0.002953431139202044 0.000337028138223466 0.004728997431176803
 0.0003366047739752699 0.004729047011071912 -0.0002988573327289952 -0.002953431139202044 0.0023973760984424995 0.008991517372167145 0.997312401788386 -0.022277084603636973
 -0.0002988876121912431 -0.002953433348412914 0.000337028138223466 0.004728997431176803 0.997312401788386 -0.022277084603636973 0.002397240450427119 0.008991536258410017
0.043768236765320004 0.0026058549256349327 0.010555950903931044 0.9970383182767987 -0.02603106321706346 0.00040993671531393847 0.0055202060980787315 -0.0003614583457322371 -0.0034504918570587915
 0.9970383182767987 -0.02603106321706346 0.002605754669747616 0.010555965041087478 -0.0003614173278926554 -0.003450489701550502 0.00041051282333418536 0.0055201401928815595
 0.00040993671531393847 0.0055202060980787315 -0.0003614173278926554 -0.003450489701550502 0.002605886250674559 0.010555362438831149 0.9970383072255814 -0.0260316477142659
 -0.0003614583457322371 -0.0034504918570587915 0.00041051282333418536 0.0055201401928815595 0.9970383072255814 -0.0260316477142659 0.002605701675087077 0.010555386559008837
0.050020842017509996 0.0028276279037798362 0.012136401338302068 0.9967461077725561 -0.029798832893580242 0.000490998108852103 0.00631210353351992 -0.0004304926533395234 -0.003948576766746796
 0.9967461077725561 -0.029798832893580242 0.002827497105456752 0.012136419026289971 -0.0004304393132750684 -0.003948574822293456 0.0004917505122558547 0.0063120182946547615
 0.000490998108852103 0.00631210353351992 -0.0004304393132750684 -0.003948574822293456 0.0028276692125694517 0.012135728790507883 0.996746093657875 -0.029799500782148994
 -0.0004304926533395234 -0.003948576766746796 0.0004917505122558547 0.0063120182946547615 0.996746093657875 -0.029799500782148994 0.0028274281947893638 0.012135758863079445
0.055454545454549996 0.003031339186189127 0.0135230122355377 0.9964772591233324 -0.033083963852021656 0.0005677816606465457 0.007000822924555399 -0.0004957986186026767 -0.004382180853095003
 0.9964772591233324 -0.033083963852021656 0.0030311785767208207 0.013523033352577972 -0.0004957332943432764 -0.004382179230575267 0.0005687064273571954 0.00700071823086075
 0.0005677816606465457 0.007000822924555399 -0.0004957332943432764 -0.004382179230575267 0.0030313903070438336 0.013522266588220908 0.9964772420427983 -0.03308470421969495
 -0.0004957986186026767 -0.004382180853095003 0.0005687064273571954 0.00700071823086075 0.9964772420427983 -0.03308470421969495 0.003031094136555569 0.013522302453313456
0.056273447269699996 0.003062937271735894 0.013733032299136977 0.9964355284028946 -0.033579931905289656 0.0005798680894434058 0.007104657880705189 -0.0005060727010661316 -0.004447584645621017
 0.9964355284028946 -0.033579931905289656 0.0030627719063400045 0.013733053961207997 -0.0005060054684004909 -0.004447583083389335 0.0005808203791494194 0.007104550029152136
 0.0005798680894434058 0.007104657880705189 -0.0005060054684004909 -0.004447583083389335 0.003062989963195089 0.013732275630612866 0.9964355108506733 -0.03358068319915858
 -0.0005060727010661316 -0.004447584645621017 0.0005808203791494194 0.007104550029152136 0.9964355108506733 -0.03358068319915858 0.0030626849887017728 0.0137323124207102
0.06252605252188 0.003312046532120766 0.01534554151160676 0.9961063291831831 -0.03737435251751771 0.0006766247909097996 0.007897782321086965 -0.0005882793255281848 -0.004947412778330632
 0.9961063291831831 -0.03737435251751771 0.0033118425829458645 0.015345567584284297 -0.0005881966429682146 -0.004947411783255461 0.0006778005984022587 0.007897648303950712
 0.0006766247909097996 0.007897782321086965 -0.0005881966429682146 -0.004947411783255461 0.003312112012855577 0.015344700677458578 0.9961063078177913 -0.03737518723952925
 -0.0005882793255281848 -0.004947412778330632 0.0006778005984022587 0.007897648303950712 0.9961063078177913 -0.03737518723952925 0.003311735566780216 0.015344744997390766
0.06877865777407 0.003575217893678915 0.016973652208917275 0.9957582587268997 -0.04118205282313223 0.0007813452468434066 0.00869138558402852 -0.0006771920105233355 -0.005447958237646656
 0.9957582587268997 -0.04118205282313223 0.0035749713509068064 0.016973683142014813 -0.0006770923334924368 -0.00544795800840676 0.0007827682446594703 0.008691221571278277
 0.0007813452468434066 0.00869138558402852 -0.0006770923334924368 -0.00544795800840676 0.0035752975770827495 0.01697272715919757 0.9957582331703679 -0.04118297100320047
 -0.0006771920105233355 -0.005447958237646656 0.0007827682446594703 0.008691221571278277 0.9957582331703679 -0.04118297100320047 0.003574842143828019 0.016972779868894193
0.07503126302626001 0.003852712359966833 0.018617104901065083 0.9953910655128112 -0.04500296491457899 0.0008941053019848221 0.009485372535729711 -0.0007728888514394248 -0.005949117299824219
 0.9953910655128112 -0.04500296491457899 0.003852419220155242 0.01861714115765142 -0.0007727706477922193 -0.005949118048811172 0.0008957992036583647 0.009485174416899642
 0.0008941053019848221 0.009485372535729711 -0.0007727706477922193 -0.005949118048811172 0.0038528076669949074 0.018616095579313804 0.9953910353851403 -0.04500396659105673
 -0.0007728888514394248 -0.005949117299824219 0.0008957992036583647 0.009485174416899642 0.9953910353851403 -0.04500396659105673 0.003852265730340745 0.018616157586730443
0.08128386827845 0.004144789766943972 0.0202756518814288 0.9950044981030666 -0.04883700032111571 0.0010149795305086362 0.010279644572648463 -0.0008754465112940912 -0.0064507850585091685
 0.9950044981030666 -0.04883700032111571 0.004144446032058362 0.020275693937826435 -0.0008753082611502799 -0.00645078701178148 0.001016968089993851 0.010279407953518054
 0.0010149795305086362 0.010279644572648463 -0.0008753082611502799 -0.00645078701178148 0.004144902125672986 0.02027455822604244 0.9950044630217537 -0.048838085539274885
 -0.0008754465112940912 -0.0064507850585091685 0.001016968089993851 0.010279407953518054 0.9950044630217537 -0.048838085539274885 0.004144266168020669 0.020274630487688856
0.08753647353064001 0.004451708782617729 0.02194905344056139 0.9945983053267751 -0.05268405374214965 0.0011440411580206718 0.011074099896187215 -0.0009849401716400977 -0.006952855160590591
 0.9945983053267751 -0.05268405374214965 0.004451310459319993 0.021949101786388606 -0.0009847803671513902 -0.0069528585578558615 0.0011463481689209744 0.011073820095469452
 0.0011440411580206718 0.011074099896187215 -0.0009847803671513902 -0.0069528585578558615 0.00445183962824245 0.021947875384059755 0.994598264906558 -0.05268522255478864
 -0.0009849401716400977 -0.006952855160590591 0.0011463481689209744 0.011073820095469452 0.994598264906558 -0.05268522255478864 0.004451102130989583 0.02194795890542383
0.09378907878283 0.00477372688455932 0.02363707515026819 0.994172236443983 -0.05654400571363517 0.0012813619867585305 0.011868633711058259 -0.0011014434789988678 -0.007455219621665288
 0.994172236443983 -0.05654400571363517 0.004773269983479293 0.023637130288409976 -0.0011012606242702893 -0.007455224716238569 0.0012840112810935688 0.011868305757056863
 0.0012813619867585305 0.011868633711058259 -0.0011012606242702893 -0.007455224716238569 0.004773877659131148 0.023635812621353777 0.9941721902963301 -0.056545258178917285
 -0.0011014434789988678 -0.007455219621665288 0.0012840112810935688 0.011868305757056863 0.9941721902963301 -0.056545258178917285 0.004773031102042771 0.023635908457380457
0.100041684035 0.005111100318257258 0.02533948587997537 0.9937260412931953 -0.06041672454606919 0.001427012322022672 0.012663138374691452 -0.0012250284888259935 -0.007957768694005711
 0.9937260412931953 -0.06041672454606919 0.005110580853217417 0.025339548326655283 -0.0012248210997584618 -0.007957775752782238 0.001430027768894678 0.012662757001945581
 0.001427012322022672 0.012663138374691452 -0.0012248210997584618 -0.007957775752782238 0.005111272471297582 0.02533813879882411 0.9937259890268317 -0.06041806073206422
 -0.0012250284888259935 -0.007957768694005711 0.001430027768894678 0.012662757001945581 0.9937259890268317 -0.06041806073206422 0.005110309332740481 0.025338248054441737
0.1059090909091 0.005441882142062222 0.0269499001341377 0.9932888076384715 -0.06406234497615583 0.0015713265584369836 0.013408571935844106 -0.0013475033817741226 -0.008429426207033006
 0.9932888076384715 -0.06406234497615583 0.005441300344014451 0.026949969920569593 -0.001347271630486422 -0.008429435363817994 0.0015747073409783886 0.013408135381821106
 0.0015713265584369836 0.013408571935844106 -0.001347271630486422 -0.008429435363817994 0.005442075680825966 0.026948473635069588 0.9932887492710482 -0.06406375979017082
 -0.0013475033817741226 -0.008429426207033006 0.0015747073409783886 0.013408135381821106 0.9932887492710482 -0.06406375979017082 0.0054409963005299915 0.026948596533376844
0.1062942892872 0.005464084043690359 0.027056056294903093 0.9932594704304262 -0.06430206778438509 0.0015810609003383237 0.013457503511715088 -0.001355765606604862 -0.008460390772840201
 0.9932594704304262 -0.06430206778438509 0.00546349803082789 0.027056126579781833 -0.0013555322107948035 -0.008460400076267553 0.001584466404397492 0.013457063157705135
 0.0015810609003383237 0.013457503511715088 -0.0013555322107948035 -0.008460400076267553 0.0054642790313450245 0.027054624579087402 0.993259411650156 -0.06430348776299745
 -0.001355765606604862 -0.008460390772840201 0.001584466404397492 0.013457063157705135 0.993259411650156 -0.06430348776299745 0.005463191788044905 0.027054748409649724
0.11254689453939999 0.005832931671777718 0.028786557722450166 0.9927722752597431 -0.06819988330358037 0.0017435748180137404 0.014251616107774218 -0.001493723527577759 -0.008962972327095432
 0.9927722752597431 -0.06819988330358037 0.005832275128838607 0.028786636388652392 -0.0014934626642883033 -0.008962984169134486 0.0017473943176152793 0.014251110909594675
 0.0017435748180137404 0.014251616107774218 -0.0014934626642883033 -0.008962984169134486 0.005833150957424672 0.028785041281560217 0.9927722095669144 -0.06820138715581285
 -0.001493723527577759 -0.008962972327095432 0.0017473943176152793 0.014251110909594675 0.9927722095669144 -0.06820138715581285 0.0058319320841220545 0.028785180893439097
0.11879949979160001 0.006217895392275728 0.030530761250898007 0.9922642081588494 -0.07211001017637747 0.0019146194604622736 0.015045360584666998 -0.0016389691746939953 -0.009465397852483882
 0.9922642081588494 -0.07211001017637747 0.006217164338015921 0.030530848855131985 -0.0016386793947602305 -0.009465412540585623 0.001918876925854479 0.015044784375652381
 0.0019146194604622736 0.015045360584666998 -0.0016386793947602305 -0.009465412540585623 0.006218140446009503 0.030529159989458043 0.992264135150422 -0.07211159798919974
 -0.0016389691746939953 -0.009465397852483882 0.001918876925854479 0.015044784375652381 0.992264135150422 -0.07211159798919974 0.006216782415726768 0.03052931664049744
0.1250521050438 0.006619225896970804 0.03228843703075902 0.9917350226014576 -0.07603227934232205 0.0020942584318488495 0.015838618866018433 -0.0017915676355359633 -0.009967549837834537
 0.9917350226014576 -0.07603227934232205 0.006618416350052739 0.03228853414348901 -0.0017912475013144855 -0.00996756769290735 0.0020989778630544067 0.01583796517247739
 0.0020942584318488495 0.015838618866018433 -0.0017912475013144855 -0.00996756769290735 0.00661949819569381 0.03228675084766374 0.991734941870262 -0.07603395120909394
 -0.0017915676355359633 -0.009967549837834537 0.0020989778630544067 0.01583796517247739 0.991734941870262 -0.07603395120909394 0.006617993479421151 0.03228692584775393
0.131304710296 0.007037172296539735 0.03405935370985976 0.9911844732765529 -0.07996651414761678 0.0022825534849429366 0.01663127043457523 -0.0019515820981532432 -0.010469308743723186
 0.9911844732765529 -0.07996651414761678 0.007036280274867021 0.03405946091540128 -0.0019512301834889057 -0.010469330100112204 0.0022877589096660295 0.01663053247251604
 0.0022825534849429366 0.01663127043457523 -0.0019512301834889057 -0.010469330100112204 0.0070374733239030925 0.03405758249633753 0.9911843844108227 -0.07996827016995592
 -0.0019515820981532432 -0.010469308743723186 0.0022877589096660295 0.01663053247251604 0.9911843844108227 -0.07996827016995592 0.0070358143905061106 0.03405777720794642
0.1375573155481 0.007373093758204392 0.03561089967158302 0.9907112382512024 -0.08368006011168175 0.0024548907602571037 0.01739921164037527 -0.0020943989601947934 -0.01094659110685604
 0.9907112382512024 -0.08368006011168175 0.007372114392108673 0.035611014149582405 -0.0020940130097816785 -0.010946615958005406 0.0024605962671837385 0.017398390750802795
 0.0024548907602571037 0.01739921164037527 -0.0020940130097816785 -0.010946615958005406 0.007373424175717558 0.035609043559584344 0.9907111408820634 -0.08368190032514475
 -0.0020943989601947934 -0.01094659110685604 0.0024605962671837385 0.017398390750802795 0.9907111408820634 -0.08368190032514475 0.0073716041719997195 0.03560925535408424
0.1438099208003 0.007720720023305679 0.03715475204175163 0.9902215645759852 -0.08738470589068262 0.0026342010692109188 0.018164439959743227 -0.002242951616856022 -0.011421381881724608
 0.9902215645759852 -0.08738470589068262 0.007719649180220915 0.03715487412006218 -0.0022425300717043048 -0.011421410557179938 0.002640428924541174 0.018163529934442042
 0.0026342010692109188 0.018164439959743227 -0.0022425300717043048 -0.011421410557179938 0.007721081174613021 0.03715281095259128 0.9902214582941795 -0.08738663038949059
 -0.002242951616856022 -0.011421381881724608 0.002640428924541174 0.018163529934442042 0.9902214582941795 -0.08738663038949059 0.007719092701079107 0.03715304089259397
0.1500625260525 0.00807993559914674 0.0386907966584552 0.989715571397551 -0.091080375026364 0.002820427548608585 0.01892688989199516 -0.00239718461038836 -0.01189361804192805
 0.989715571397551 -0.091080375026364 0.008078769136976693 0.03869092668345746 -0.002396725912489002 -0.011893650884724483 0.002827199929815043 0.018925884289772304
 0.002820427548608585 0.01892688989199516 -0.002396725912489002 -0.011893650884724483 0.008080328824376665 0.03868877051057108 0.9897154557901711 -0.0910823839091431
 -0.00239718461038836 -0.01189361804192805 0.002827199929815043 0.018925884289772304 0.9897154557901711 -0.0910823839091431 0.008078164489681367 0.03868901970407725
0.15631513130469998 0.00845062425170009 0.04021892288012968 0.9891933783827532 -0.09476699102160487 0.0030135127168995136 0.019686496956495526 -0.0025570418459215684 -0.012363237832626136
