! Created with skrf 1.8.0 (http://scikit-rf.org).
# GHz S RI R 50.0 
!freq ReS11 ImS11 ReS12 ImS12 ReS13 ImS13
! ReS14 ImS14
! ReS21 ImS21 ReS22 ImS22 ReS23 ImS23
! ReS24 ImS24
! ReS31 ImS31 ReS32 ImS32 ReS33 ImS33
! ReS34 ImS34
! ReS41 ImS41 ReS42 ImS42 ReS43 ImS43
! ReS44 ImS44
!
0.0 0.00155100331015 0.0 0.9984489966898 0.0 5.965906124938e-05 0.0 -5.965906089418e-05 7.306127796419456e-21
 0.9984489966898 0.0 0.001551003310151 0.0 -5.965906089426e-05 7.306127796429253e-21 5.965906124956e-05 0.0
 5.965906124938e-05 0.0 -5.965906089426e-05 7.306127796429253e-21 0.001551003308726 0.0 0.9984489966884 0.0
 -5.965906089418e-05 7.306127796419456e-21 5.965906124956e-05 0.0 0.9984489966884 0.0 0.001551003308725 0.0
0.005 0.001668730119506845 0.0012721438683819452 0.9983000676084806 -0.0032487611836537786 8.307958793441193e-05 0.0006371939645141007 -8.080952597151522e-05 -0.00040347142769163235
 0.9983000676084806 -0.0032487611836537786 0.0016687429438238422 0.0012721363372677412 -8.080719685512561e-05 -0.0004034696128682577 8.301062866604963e-05 0.0006372202407908468
 8.307958793441193e-05 0.0006371939645141007 -8.080719685512561e-05 -0.0004034696128682577 0.0016687318130236446 0.0012722101129212316 0.9983000679638292 -0.003248694118360059
 -8.080952597151522e-05 -0.00040347142769163235 8.301062866604963e-05 0.0006372202407908468 0.9983000679638292 -0.003248694118360059 0.001668741959148864 0.0012722042230738585
0.006252605252188 0.0016996098781531595 0.001595167957249725 0.9982607578716887 -0.004061743619308357 8.97688244786692e-05 0.0007968103216591539 -8.677765609250549e-05 -0.0005048559129439053
 0.9982607578716887 -0.004061743619308357 0.001699629925325184 0.0015951583957398573 -8.677403200048957e-05 -0.000504853674787126 8.96610822284561e-05 0.0007968444383131838
 8.97688244786692e-05 0.0007968103216591539 -8.677403200048957e-05 -0.000504853674787126 0.001699612458534501 0.0015952507395437482 0.9982607583599079 -0.00406165980595751
 -8.677765609250549e-05 -0.0005048559129439053 8.96610822284561e-05 0.0007968444383131838 0.9982607583599079 -0.00406165980595751 0.0016996283182700008 0.0015952432392159076
0.01250521050438 0.0018621885689742966 0.003223620181345338 0.9980524349507559 -0.0081242648689565 0.00012812014802163188 0.0015940369126803153 -0.00012062143378884272 -0.0010121362292999287
 0.9980524349507559 -0.0081242648689565 0.0018622686230751694 0.0032235995513921565 -0.0001206071538582127 -0.001012132086027099 0.00012769050208806797 0.001594118869098
 0.00012812014802163188 0.0015940369126803153 -0.0001206071538582127 -0.001012132086027099 0.0018621983037823454 0.0032237854470312946 0.9980524363260461 -0.008124097475336775
 -0.00012062143378884272 -0.0010121362292999287 0.00012769050208806797 0.001594118869098 0.9980524363260461 -0.008124097475336775 0.001862261625388441 0.003223769060276988
0.01875781575657 0.002039095912200682 0.004875150207688306 0.9978237677981827 -0.012197445514774275 0.00017480241873655934 0.00239218798882171 -0.0001612941856980698 -0.0015211371790644914
 0.9978237677981827 -0.012197445514774275 0.002039275808360443 0.004875116845039449 -0.00016126234408598146 -0.0015211315279789867 0.00017383728079668602 0.0023923342097215278
 0.00017480241873655934 0.00239218798882171 -0.00016126234408598146 -0.0015211315279789867 0.0020391173770286184 0.0048753977322620835 0.9978237704686297 -0.012197194656127055
 -0.0001612941856980698 -0.0015211371790644914 0.00017383728079668602 0.0023923342097215278 0.9978237704686297 -0.012197194656127055 0.0020392596514565114 0.00487537099108846
0.02501042100875 0.002230677812321387 0.006547451802115324 0.9975744859571453 -0.016283256321537612 0.00022990628312415646 0.003191288521491522 -0.00020889646272167177 -0.002031632548837702
 0.9975744859571453 -0.016283256321537612 0.0022309973124254104 0.00654740389919145 -0.00020884023712961216 -0.0020316258585200407 0.00022819199821340908 0.003191518038791873
 0.00022990628312415646 0.003191288521491522 -0.00020884023712961216 -0.0020316258585200407 0.0022307155740178 0.00654778137818113 0.9975744903247388 -0.01628292205420789
 -0.00020889646272167177 -0.002031632548837702 0.00022819199821340908 0.003191518038791873 0.9975744903247388 -0.01628292205420789 0.00223096822154652 0.006547742743025485
0.03126302626094 0.0024372658851683627 0.008239336843910764 0.9973043052127794 -0.020382539144362485 0.00029352278732859154 0.003991292460718205 -0.00026352604086874804 -0.002543461425415822
 0.9973043052127794 -0.020382539144362485 0.0024377646982796787 0.00823927245181598 -0.0002634386783604223 -0.0025434542365604636 0.00029084543882564067 0.003991626927710626
 0.00029352278732859154 0.003991292460718205 -0.0002634386783604223 -0.0025434542365604636 0.0024373245104165222 0.00823974823230098 0.997304311679929 -0.02038212151434795
 -0.00026352604086874804 -0.002543461425415822 0.00029084543882564067 0.003991626927710626 0.997304311679929 -0.02038212151434795 0.002437718897582175 0.0082396960943961
0.037515631513130004 0.002659184572536586 0.00995002964522652 0.9970129349327932 -0.024495712547199535 0.00036574249528450705 0.004792125572790891 -0.0003252785890974746 -0.003056485357459756
 0.9970129349327932 -0.024495712547199535 0.0026599023684882564 0.0099499466744119 -0.0003251533988166403 -0.003056478283118848 0.0003618878197622292 0.00479258928948002
 0.00036574249528450705 0.004792125572790891 -0.0003251533988166403 -0.003056478283118848 0.002659268627278186 0.009950522572731118 0.997012943901781 -0.024495211591940794
 -0.0003252785890974746 -0.003056485357459756 0.0003618878197622292 0.00479258928948002 0.997012943901781 -0.024495211591940794 0.002659836079217108 0.009950455255387248
0.043768236765320004 0.0028967538873316363 0.011678952219336331 0.99670008104114 -0.028622986462818585 0.00044665507193484953 0.0055936984614626045 -0.00039424790405324337 -0.0035705753358231443
 0.99670008104114 -0.028622986462818585 0.002897730306419345 0.011678848439692673 -0.0003940782529267355 -0.0035705690614655943 0.000441408420990183 0.005594318403297949
 0.00044665507193484953 0.0055936984614626045 -0.0003940782529267355 -0.0035705690614655943 0.0028968679368542513 0.011679526377095874 0.9967000929135126 -0.028622402212168985
 -0.00039424790405324337 -0.0035705753358231443 0.000441408420990183 0.005594318403297949 0.9967000929135126 -0.028622402212168985 0.002897639746378639 0.011679442136748827
0.050020842017509996 0.0031502906860391014 0.013425635523724389 0.9963654475229358 -0.032764450876282145 0.0005363490309578597 0.006395911948951543 -0.000470525990160966 -0.0040856064166848016
 0.9963654475229358 -0.032764450876282145 0.0031515653477893666 0.013425508564188691 -0.00047030530018423475 -0.004085601700205732 0.0005294953579935604 0.006396717796902646
 0.0005363490309578597 0.006395911948951543 -0.00047030530018423475 -0.004085601700205732 0.003150439295772019 0.013426290565355114 0.9963654627008453 -0.03276378335370611
 -0.000470525990160966 -0.0040856064166848016 0.0005294953579935604 0.006396717796902646 0.9963654627008453 -0.03276378335370611 0.00315144673149451 0.013426187592210172
0.055454545454549996 0.0033838335959390474 0.01495766547360615 0.9960567224365684 -0.03637504529565477 0.000621495100838857 0.007093497598075629 -0.0005428196921425844 -0.004533852391582613
 0.9960567224365684 -0.03637504529565477 0.0033853996050428646 0.014957516334594911 -0.0005425493470646633 -0.004533849700681243 0.0006130699249992307 0.0070944912329226105
 0.000621495100838857 0.007093497598075629 -0.0005425493470646633 -0.004533849700681243 0.003384015947582917 0.014958390494868879 0.9960567408142432 -0.03637430542136483
 -0.0005428196921425844 -0.004533852391582613 0.0006130699249992307 0.0070944912329226105 0.9960567408142432 -0.03637430542136483 0.003385253530715022 0.014958269721490652
0.056273447269699996 0.0034201093223957583 0.015189675908295149 0.9960087373151039 -0.03692011930404274 0.0006349115537751308 0.007198659714578256 -0.0005542030718004458 -0.004601455090391723
 0.9960087373151039 -0.03692011930404274 0.003421721833013392 0.0151895232563337 -0.0005539248181594493 -0.0046014527620853425 0.0006262354159660475 0.007199683885744438
 0.0006349115537751308 0.007198659714578256 -0.0005539248181594493 -0.0046014527620853425 0.0034202970576712234 0.015190411450216915 0.996008756200885 -0.03691936852569628
 -0.0005542030718004458 -0.004601455090391723 0.0006262354159660475 0.007199683885744438 0.996008756200885 -0.03691936852569628 0.0034215713718541018 0.015190287868703795
0.06252605252188 0.003706521995606134 0.016970711167863813 0.9956296528948966 -0.04108995267202571 0.0007424283444952992 0.008001829750292283 -0.000645367570350022 -0.005117997837223678
 0.9956296528948966 -0.04108995267202571 0.0037085119550837446 0.016970530168580394 -0.0006450252801909685 -0.0051179987997443995 0.0007317139147758189 0.008003107428645692
 0.0007424283444952992 0.008001829750292283 -0.0006450252801909685 -0.0051179987997443995 0.0037067534220897795 0.016971526779911282 0.9956296758919638 -0.04108911865538555
 -0.000645367570350022 -0.005117997837223678 0.0007317139147758189 0.008003107428645692 0.9956296758919638 -0.04108911865538555 0.0037083258577470606 0.01697138064887126
0.06877865777407 0.004009838933439236 0.018768406254035926 0.9952278967078203 -0.04527387353777904 0.000858983505503878 0.008805305230558341 -0.0007441060604526765 -0.005635110272946213
 0.9952278967078203 -0.04527387353777904 0.004012245942225226 0.01876819410907006 -0.0007436933120462476 -0.005635115501253715 0.0008460145915708221 0.008806874397622354
 0.000858983505503878 0.008805305230558341 -0.0007436933120462476 -0.005635115501253715 0.004010118615974832 0.01876930146736642 0.9952279242196558 -0.045272956293073374
 -0.0007441060604526765 -0.005635110272946213 0.0008460145915708221 0.008806874397622354 0.9952279242196558 -0.045272956293073374 0.004012020413769878 0.018769130780057403
0.07503126302626001 0.004330368473348748 0.020582444233754757 0.9948031714976369 -0.04947177507035169 0.0009846594242162103 0.009608965067788496 -0.0008505032143201456 -0.006152666613243689
 0.9948031714976369 -0.04947177507035169 0.00433323213878524 0.0205821980000216 -0.0008500136365037807 -0.006152677154550095 0.0009692194928899583 0.009610866533079332
 0.0009846594242162103 0.009608965067788496 -0.0008500136365037807 -0.006152677154550095 0.004330700976210325 0.02058341853430403 0.994803203928537 -0.0494707746064697
 -0.0008505032143201456 -0.006152666613243689 0.0009692194928899583 0.009610866533079332 0.994803203928537 -0.0494707746064697 0.004332963381334443 0.020583221218164426
0.08128386827845 0.004668417084796961 0.022412520262631356 0.9943551805806575 -0.0536835270203379 0.0011195366675048387 0.010412684288161528 -0.0009646417373732491 -0.0066705393223997584
 0.9943551805806575 -0.0536835270203379 0.00467177702740925 0.022412236850746656 -0.0009640690091769468 -0.006670556296096468 0.0011014088734008888 0.01041496171930835
 0.0011195366675048387 0.010412684288161528 -0.0009640690091769468 -0.006670556296096468 0.004668806971141486 0.022413573096199724 0.9943552183357813 -0.053682443339054225
 -0.0009646417373732491 -0.0066705393223997584 0.0011014088734008888 0.01041496171930835 0.9943552183357813 -0.053682443339054225 0.0046714612403348415 0.022413347012386904
0.08753647353064001 0.005024289349068997 0.024258337424063504 0.9938836280823696 -0.05790897982922486 0.001263693880602342 0.011216334294358725 -0.001086602298527482 -0.007188598879846207
 0.9938836280823696 -0.05790897982922486 0.005028185208905815 0.024258013596520727 -0.0010859401490138606 -0.0071886234774325075 0.0012426610979927469 0.0112190342468178
 0.001263693880602342 0.011216334294358725 -0.0010859401490138606 -0.0071886234774325075 0.005024741181042529 0.024259468187774462 0.9938836715683134 -0.05790781293306638
 -0.001086602298527482 -0.007188598879846207 0.0012426610979927469 0.0112190342468178 0.9938836715683134 -0.05790781293306638 0.005027818589333047 0.024259211130364448
0.09378907878283 0.005398287911362025 0.026119603752272205 0.9933882191489567 -0.06214796756027085 0.0014172076891814237 0.01201978306246228 -0.0012164634560809936 -0.0077067136175211
 0.9933882191489567 -0.06214796756027085 0.005402759354354291 0.02611923612144405 -0.0012157056643157275 -0.007706747102515762 0.0013930525469252099 0.012022955008758386
 0.0014172076891814237 0.01201978306246228 -0.0012157056643157275 -0.007706747102515762 0.005398806249068507 0.02612081179901319 0.9933882687731705 -0.062146717447390296
 -0.0012164634560809936 -0.0077067136175211 0.0013930525469252099 0.012022955008758386 0.9933882687731705 -0.062146717447390296 0.005402338096600839 0.02612052149416459
0.100041684035 0.005790713411319273 0.02799603005808158 0.9928686601414684 -0.06640031003245737 0.0015801526035308573 0.012822895292214982 -0.0013543015808592733 -0.008224749608952553
 0.9928686601414684 -0.06640031003245737 0.005795800134866849 0.027995615083917826 -0.0013534419759039776 -0.008224793316806062 0.0015526575221720292 0.012826591650666798
 0.0015801526035308573 0.012822895292214982 -0.0013534419759039776 -0.008224793316806062 0.005791302812878112 0.027997314694475417 0.992868716312744 -0.06639897669805778
 -0.0013543015808592733 -0.008224749608952553 0.0015526575221720292 0.012826591650666798 0.992868716312744 -0.06639897669805778 0.00579532043162927 0.027996988799164086
0.1059090909091 0.006175988192566567 0.02977038835543347 0.9923588845478138 -0.07040265681435273 0.0017417010439466053 0.013576101565991412 -0.0014909690467276738 -0.008710678476123406
 0.9923588845478138 -0.07040265681435273 0.0061816884299363255 0.029769925596944028 -0.0014900083332009817 -0.008710733055607892 0.0017108737470667946 0.013580340352320952
 0.0017417010439466053 0.013576101565991412 -0.0014900083332009817 -0.008710733055607892 0.006176648423153763 0.029771744189343422 0.992358947236211 -0.07040124537975948
 -0.0014909690467276738 -0.008710678476123406 0.0017108737470667946 0.013580340352320952 0.992358947236211 -0.07040124537975948 0.006181150417239117 0.029771382702264006
0.1062942892872 0.006201864398808714 0.029887328288570554 0.9923246588179807 -0.07066581442653917 0.0017526009241802829 0.013625532525964872 -0.0015001907766463696 -0.00874257059492185
 0.9923246588179807 -0.07066581442653917 0.006207606138537342 0.029886862276073532 -0.0014992232377632662 -0.008742625932909446 0.0017215481555159628 0.013629808688808125
 0.0017526009241802829 0.013625532525964872 -0.0014992232377632662 -0.008742625932909446 0.006202529419554688 0.029888688774138403 0.9923247219467956 -0.07066439786306221
 -0.0015001907766463696 -0.00874257059492185 0.0017215481555159628 0.013629808688808125 0.9923247219467956 -0.07066439786306221 0.006207064180235161 0.0298883248746724
0.11254689453939999 0.006632037238851052 0.03179321027830862 0.9917559245089892 -0.07494427650566994 0.001934622648505073 0.014427553248922599 -0.0016542027992730555 -0.009260037933101449
 0.9917559245089892 -0.07494427650566994 0.006638473774308747 0.031792689374697085 -0.0016531212560612497 -0.009260106380216617 0.0018997943168853287 0.014432467609842271
 0.001934622648505073 0.014427553248922599 -0.0016531212560612497 -0.009260106380216617 0.006632782430971242 0.03179464582453793 0.9917559950070395 -0.07494277670305204
 -0.0016542027992730555 -0.009260037933101449 0.0018997943168853287 0.014432467609842271 0.9917559950070395 -0.07494277670305204 0.0066378657501713085 0.03179424143484495
0.11879949979160001 0.007081526006153338 0.033713386782125834 0.991162168284223 -0.0792354815609445 0.002126285378280697 0.015228812974395938 -0.0018164069738936491 -0.009777010568228264
 0.991162168284223 -0.0792354815609445 0.0070886971671658095 0.033712806973783274 -0.0018152054066099385 -0.00977709367505352 0.0020874635237675397 0.015234426955388406
 0.002126285378280697 0.015228812974395938 -0.0018152054066099385 -0.00977709367505352 0.007082355918346434 0.033714896552052495 0.991162246565492 -0.07923389850639272
 -0.0018164069738936491 -0.009777010568228264 0.0020874635237675397 0.015234426955388406 0.991162246565492 -0.07923389850639272 0.007088019265166596 0.033714449111661694
0.1250521050438 0.007550622373700688 0.035647566703584675 0.9905431031178841 -0.08353920516766075 0.002327654227672398 0.016029164320303223 -0.0019868701115028516 -0.010293345016526227
 0.9905431031178841 -0.08353920516766075 0.007558568046269552 0.035646923812714386 -0.001985542551314945 -0.010293444405113683 0.0022846208507167386 0.01603554239780935
 0.002327654227672398 0.016029164320303223 -0.001985542551314945 -0.010293444405113683 0.007551541550211194 0.035649149812825 0.9905431895977239 -0.08353753884406584
 -0.0019868701115028516 -0.010293345016526227 0.0022846208507167386 0.01603554239780935 0.9905431895977239 -0.08353753884406584 0.007557816453382137 0.03564865668458421
0.131304710296 0.00803961549421195 0.03759545649201525 0.9898984440483513 -0.08785521378005363 0.0025387917318748913 0.016828457078686365 -0.002165656424406066 -0.010808895362831363
 0.9898984440483513 -0.08785521378005363 0.008048375626887693 0.03759474617299631 -0.0021641969538033577 -0.010809012726538458 0.0024913288395939266 0.016835666809028628
 0.0025387917318748913 0.016828457078686365 -0.0021641969538033577 -0.010809012726538458 0.008040628474579257 0.03759711200347755 0.9898985391444516 -0.08785346417066038
 -0.002165656424406066 -0.010808895362831363 0.0024913288395939266 0.016835666809028628 0.9898985391444516 -0.08785346417066038 0.008047546529515576 0.037596570470939186
0.1375573155481 0.008436959702491401 0.03930381855678233 0.989339784269506 -0.09193021200400842 0.0027333291391226345 0.01760160041339064 -0.0023264576554550666 -0.01129855046898892
 0.989339784269506 -0.09193021200400842 0.008446576043072106 0.039303049834397044 -0.002324857427102465 -0.011298685964040364 0.0026813272894191534 0.017609631912901973
 0.0027333291391226345 0.01760160041339064 -0.002324857427102465 -0.011298685964040364 0.008438070348308173 0.039305545721950184 0.9893398883705171 -0.09192837913811003
 -0.0023264576554550666 -0.01129855046898892 0.0026813272894191534 0.017609631912901973 0.9893398883705171 -0.09192837913811003 0.008445666361026456 0.039304966164956
0.1438099208003 0.008848308299387198 0.04100314658464556 0.9887614399082841 -0.09599482192979689 0.0029357186655944545 0.018371507122432476 -0.002493679760106797 -0.01178525119030829
 0.9887614399082841 -0.09599482192979689 0.00885882112764726 0.041002315897905435 -0.002491932402754608 -0.011785406486399894 0.002878979485904545 0.018380422226350605
 0.0029357186655944545 0.018371507122432476 -0.002491932402754608 -0.011785406486399894 0.008849521022728856 0.04100494446249638 0.9887615534281362 -0.09599290579800837
 -0.002493679760106797 -0.01178525119030829 0.002878979485904545 0.018380422226350605 0.9887615534281362 -0.09599290579800837 0.008857827179508705 0.04100432496963495
0.1500625260525 0.009273515737513905 0.042693296917888264 0.9881635606135063 -0.10004894057784083 0.0031458896580687868 0.019138095451023778 -0.0026672544574332835 -0.012268921028948615
 0.9881635606135063 -0.10004894057784083 0.00928496539696309 0.042692400515125774 -0.0026653536138096317 -0.012269097862998722 0.003084216038890305 0.01914795823796976
 0.0031458896580687868 0.019138095451023778 -0.0026653536138096317 -0.012269097862998722 0.009274834938326516 0.04269516453056418 0.9881636839674734 -0.10004694117018843
 -0.0026672544574332835 -0.012268921028948615 0.003084216038890305 0.01914795823796976 0.9881636839674734 -0.10004694117018843 0.009283883509598969 0.04269450306602551
0.15631513130469998 0.009712435431565077 0.04437413022869352 0.9875462968001333 -0.10409246537239156 0.0033637706177272954 0.01990128505099072 -0.0028471126200804425 -0.012749485114231756
 0.9875462968001333 -0.10409246537239156 0.009724862331667928 0.04437316416416322 -0.0028450519471527433 -0.012749685290070598 0.003296966733506821 0.01991216181764866
