! Created with skrf 1.8.0 (http://scikit-rf.org).
# GHz S RI R 50.0 
!freq ReS11 ImS11 ReS12 ImS12 ReS13 ImS13
! ReS14 ImS14
! ReS21 ImS21 ReS22 ImS22 ReS23 ImS23
! ReS24 ImS24
! ReS31 ImS31 ReS32 ImS32 ReS33 ImS33
! ReS34 ImS34
! ReS41 ImS41 ReS42 ImS42 ReS43 ImS43
! ReS44 ImS44
!
0.0 0.001204568309681 0.0 0.9987954316832 0.0 4.581042375437e-05 0.0 -4.581042425394e-05 5.6101589430169895e-21
 0.9987954316832 0.0 0.001204568309693 0.0 -4.581042425444e-05 5.610158943078222e-21 4.581042375479e-05 0.0
 4.581042375437e-05 0.0 -4.581042425444e-05 5.610158943078222e-21 0.001204568308365 0.0 0.9987954316819 0.0
 -4.581042425394e-05 5.6101589430169895e-21 4.581042375479e-05 0.0 0.9987954316819 0.0 0.001204568308354 0.0
0.005 0.001295217652427508 0.0009875138614263233 0.9986808808812304 -0.002524128645942653 6.347345838585695e-05 0.0004957516923527623 -6.180724252940017e-05 -0.0003128760777741425
 0.9986808808812304 -0.002524128645942653 0.001295214313417166 0.0009875157964273063 -6.1805918429055e-05 -0.000312875031373561 6.350335308571621e-05 0.0004957404122195294
 6.347345838585695e-05 0.0004957516923527623 -6.1805918429055e-05 -0.000312875031373561 0.0012952181516063131 0.0009874462879253562 0.99868088054684 -0.0025241957043552286
 -6.180724252940017e-05 -0.0003128760777741425 6.350335308571621e-05 0.0004957404122195294 0.99868088054684 -0.0025241957043552286 0.001295213150068753 0.0009874492573586709
0.006252605252188 0.0013187646794069977 0.0012383020234891244 0.9986509766173217 -0.0031558128860169777 6.838347893333974e-05 0.0006199488083697747 -6.621841475387501e-05 -0.0003915105164663822
 0.9986509766173217 -0.0031558128860169777 0.0013187594599701792 0.0012383044664831073 -6.621635454275756e-05 -0.00039150922508504696 6.843018853627852e-05 0.0006199341614273598
 6.838347893333974e-05 0.0006199488083697747 -6.621635454275756e-05 -0.00039150922508504696 0.0013187655463268925 0.0012382175556380826 0.9986509761808325 -0.003155896708310176
 -6.621841475387501e-05 -0.0003915105164663822 6.843018853627852e-05 0.0006199341614273598 0.9986509761808325 -0.003155896708310176 0.0013187577273453186 0.0012382212992110436
0.01250521050438 0.0014413963414819187 0.0025028258813612307 0.9984943958018802 -0.006312617042669094 9.582247559165069e-05 0.0012403595445419644 -9.06813072066039e-05 -0.0007850515446408979
 0.9984943958018802 -0.006312617042669094 0.001441375502420781 0.002502831002436592 -9.067319014747028e-05 -0.0007850491408093427 9.600879301273444e-05 0.001240324447067635
 9.582247559165069e-05 0.0012403595445419644 -9.067319014747028e-05 -0.0007850491408093427 0.0014414003539553121 0.002502657178543938 0.9984943946025211 -0.006312784445313745
 -9.06813072066039e-05 -0.0007850515446408979 9.600879301273444e-05 0.001240324447067635 0.9984943946025211 -0.006312784445313745 0.0014413691244087906 0.002502664987910479
0.01875781575657 0.0015726828663565166 0.003785685748108321 0.9983255291386068 -0.009478141114702904 0.00012818395789640676 0.0018616665950831979 -0.00011926381930850632 -0.0011800968819137268
 0.9983255291386068 -0.009478141114702904 0.0015726360462910056 0.0037856937825992013 -0.00011924572022721501 -0.001180093571140366 0.00012860261900468796 0.0018616043209740217
 0.00012818395789640676 0.0018616665950831979 -0.00011924572022721501 -0.001180093571140366 0.0015726923195643432 0.0037854328874237664 0.9983255268658098 -0.009478392026926985
 -0.00011926381930850632 -0.0011800968819137268 0.00012860261900468796 0.0018616043209740217 0.9983255268658098 -0.009478392026926985 0.0015726221308971452 0.0037854451235946715
0.02501042100875 0.0017128397829545086 0.005085137554425655 0.9981442116523725 -0.012653966853894472 0.00016552501754671937 0.002483923706457991 -0.00015202932597819187 -0.0015764981877460249
 0.9981442116523725 -0.012653966853894472 0.0017127566451971188 0.005085148732836935 -0.0001519973667047346 -0.0015764942062473585 0.00016626887163754224 0.0024838266446131417
 0.00016552501754671937 0.002483923706457991 -0.0001519973667047346 -0.0015764942062473585 0.0017128569696871884 0.005084800597908541 0.998144207987827 -0.012654301236688576
 -0.00015202932597819187 -0.0015764981877460249 0.00016626887163754224 0.0024838266446131417 0.998144207987827 -0.012654301236688576 0.00171273229573424 0.005084817653268113
0.03126302626094 0.0018620733564624814 0.006400307898857481 0.9979502683665101 -0.015840800176544625 0.00020790332976902608 0.0031071294470523163 -0.0001890398496342367 -0.001974159541733219
 0.9979502683665101 -0.015840800176544625 0.0018619435832065742 0.006400322445421734 -0.0001889901907251656 -0.001974155156970973 0.0002090654276231602 0.0031069890959845056
 0.00020790332976902608 0.0031071294470523163 -0.0001889901907251656 -0.001974155156970973 0.0018621005746865893 0.006399886890798563 0.9979502629907238 -0.01584121802551717
 -0.0001890398496342367 -0.001974159541733219 0.0002090654276231602 0.0031069890959845056 0.9979502629907238 -0.01584121802551717 0.0018619059036146086 0.006399909187728978
0.037515631513130004 0.002020585568067825 0.007730645569539937 0.997743519371644 -0.019039019596970515 0.00025537666673956403 0.0037312610023624536 -0.00023035650932415745 -0.0023730036405616396
 0.997743519371644 -0.019039019596970515 0.0020203988563906026 0.007730663701161934 -0.0002302853457597182 -0.002372999151411295 0.0002570503024107629 0.003731067960536707
 0.00025537666673956403 0.0037312610023624536 -0.0002302853457597182 -0.002372999151411295 0.0020206251223822917 0.007730140547860175 0.9977435119636165 -0.019039520930964407
 -0.00023035650932415745 -0.0023730036405616396 0.0002570503024107629 0.003731067960536707 0.9977435119636165 -0.019039520930964407 0.002020344951757035 0.007730168538086169
0.043768236765320004 0.0021885760448018075 0.009075754659043133 0.9975237818420485 -0.02224884306264418 0.00030800267254681575 0.004356284461159693 -0.00027603969549694433 -0.0027729615009115674
 0.9975237818420485 -0.02224884306264418 0.0021883221035594374 0.00907577658442792 -0.0002759432541018978 -0.0027729572377276027 0.00031028140534644687 0.004356028415995895
 0.00030800267254681575 0.004356284461159693 -0.0002759432541018978 -0.0027729572377276027 0.0021886302472015704 0.009075165671859765 0.9975237720792777 -0.022249427907192
 -0.00027603969549694433 -0.0027729615009115674 0.00031028140534644687 0.004356028415995895 0.9975237720792777 -0.022249427907192 0.0021882490800615817 0.009075199836046419
0.050020842017509996 0.002366242968997514 0.01043532559540401 0.9972908710341197 -0.025470396871343864 0.00036583873726060646 0.004982159047257462 -0.0003261491404441248 -0.0031739682162793613
 0.9972908710341197 -0.025470396871343864 0.002365911515987736 0.010435351514291018 -0.0003260236781348422 -0.0031739645409186936 0.0003688164034318936 0.004981828763582924
 0.00036583873726060646 0.004982159047257462 -0.0003260236781348422 -0.0031739645409186936 0.002366314137979682 0.010434652688394629 0.9972908585911484 -0.025471065271184933
 -0.0003261491404441248 -0.0031739682162793613 0.0003688164034318936 0.004981828763582924 0.9972908585911484 -0.025471065271184933 0.002365816480005185 0.010434693535900982
0.055454545454549996 0.002528652552479152 0.011628378110682356 0.9970776216664045 -0.028279605461137603 0.00042037555017515696 0.0055267189609142665 -0.0003733363491757353 -0.003523258105696054
 0.9970776216664045 -0.028279605461137603 0.0025282453941225906 0.011628407654787813 -0.00037318264945078363 -0.003523255259518784 0.00042403703630920173 0.005526314311980238
 0.00042037555017515696 0.0055267189609142665 -0.00037318264945078363 -0.003523255259518784 0.002528740355949888 0.011627632308182693 0.9970776066288827 -0.028280346526169117
 -0.0003733363491757353 -0.003523258105696054 0.00042403703630920173 0.005526314311980238 0.9970776066288827 -0.028280346526169117 0.002528128880573764 0.011627679399516594
0.056273447269699996 0.002553783552459251 0.011809101284324634 0.9970446008509668 -0.02870374947669685 0.00042894190798530984 0.005608839202419472 -0.0003807439489029881 -0.0035759608630719906
 0.9970446008509668 -0.02870374947669685 0.002553364312064867 0.011809131386813691 -0.00038058575151359643 -0.0035759581689044865 0.00043271262608365185 0.005608422510664235
 0.00042894190798530984 0.005608839202419472 -0.00038058575151359643 -0.0035759581689044865 0.002553874015581073 0.01180834450002221 0.9970445854006791 -0.028704501496496036
 -0.0003807439489029881 -0.0035759608630719906 0.00043271262608365185 0.005608422510664235 0.9970445854006791 -0.028704501496496036 0.002553244372295919 0.01180839256873289
0.06252605252188 0.0027513943099704776 0.013196858497265039 0.996784784207256 -0.031948930048127495 0.0004973688233966207 0.006236275726013751 -0.000439882603226616 -0.00397887735076161
 0.996784784207256 -0.031948930048127495 0.002750877010531021 0.01319689296318154 -0.00043968798462640116 -0.003978876062662046 0.000502026995604351 0.006235759510252168
 0.0004973688233966207 0.006236275726013751 -0.00043968798462640116 -0.003978876062662046 0.0027515064020329225 0.01319601788573052 0.9967847654186343 -0.03194976576164731
 -0.000439882603226616 -0.00397887735076161 0.000502026995604351 0.006235759510252168 0.9967847654186343 -0.03194976576164731 0.0027507292764268336 0.013196073742026075
0.06877865777407 0.0029592712132412323 0.014598396767146443 0.9965112332772951 -0.03520593952382723 0.0005711756588207713 0.006864416448179371 -0.0005036229564400505 -0.0043826557395243776
 0.9965112332772951 -0.03520593952382723 0.002958645585035427 0.014598435765454802 -0.0005033882579344734 -0.004382656313867913 0.0005768159693953394 0.006863786634113666
 0.0005711756588207713 0.006864416448179371 -0.0005033882579344734 -0.004382656313867913 0.0029594072778526344 0.014597472379866677 0.9965112108160641 -0.03520685901992217
 -0.0005036229564400505 -0.0043826557395243776 0.0005768159693953394 0.006863786634113666 0.9965112108160641 -0.03520685901992217 0.0029584671679855415 0.01459753661859546
0.07503126302626001 0.0031776097823318764 0.016013531363261533 0.9962237596814947 -0.038474757585464196 0.0006504180778279084 0.00749320665827911 -0.0005720222175591179 -0.004787233803749042
 0.9962237596814947 -0.038474757585464196 0.0031768655550577 0.016013575051561427 -0.0005717438073857344 -0.004787236728392077 0.0006571354894132379 0.007492448201209146
 0.0006504180778279084 0.00749320665827911 -0.0005717438073857344 -0.004787236728392077 0.0031777721721862294 0.016012523253297852 0.9962237332099083 -0.038475760967869796
 -0.0005720222175591179 -0.004787233803749042 0.0006571354894132379 0.007492448201209146 0.9962237332099083 -0.038475760967869796 0.0031766535690861243 0.016012596497813777
0.08128386827845 0.0034066051350136605 0.01744208859665697 0.9959221746336139 -0.0417553473036792 0.0007351511878174446 0.00812258938884833 -0.0006451369316074525 -0.005192548741310634
 0.9959221746336139 -0.0417553473036792 0.0034057320358030557 0.017442137120653255 -0.0006448112046440599 -0.005192554535568321 0.0007430409362259959 0.008121686261641115
 0.0007351511878174446 0.00812258938884833 -0.0006448112046440599 -0.005192554535568321 0.0034067962116816394 0.01744099682296802 0.9959221438090278 -0.04175643468644696
 -0.0006451369316074525 -0.005192548741310634 0.0007430409362259959 0.008121686261641115 0.9959221438090278 -0.04175643468644696 0.0034054835970105963 0.01744107972528867
0.08753647353064001 0.0036464520078631803 0.018883902588723987 0.9956062890597966 -0.04504765832139333 0.0008254294986200803 0.008752505608870989 -0.0007230229557902992 -0.0055985369748349735
 0.9956062890597966 -0.04504765832139333 0.0036454397586626252 0.018883956081894658 -0.000722646333237354 -0.005598546189471577 0.0008345870861585743 0.008751440789972725
 0.0008254294986200803 0.008752505608870989 -0.000722646333237354 -0.005598546189471577 0.0036466741427406487 0.018882727211868625 0.9956062535354165 -0.04504882983317763
 -0.0007230229557902992 -0.0055985369748349735 0.0008345870861585743 0.008751440789972725 0.9956062535354165 -0.04504882983317763 0.003645151986828834 0.018882820452790033
0.09378907878283 0.003897344760249508 0.020338812952366735 0.9952759137044068 -0.04835162912631836 0.0009213068822044904 0.00938289436369038 -0.0008057354333208112 -0.006005134007742775
 0.9952759137044068 -0.04835162912631836 0.003896183075652737 0.02033887153554709 -0.0008053043625298354 -0.006005147224939645 0.0009318280700619578 0.009381649825190758
 0.0009213068822044904 0.00938289436369038 -0.0008053043625298354 -0.006005147224939645 0.003897600334513966 0.020337554034169644 0.9952758731284721 -0.04835288491040369
 -0.0008057354333208112 -0.006005134007742775 0.0009318280700619578 0.009381649825190758 0.9952758731284721 -0.04835288491040369 0.0038958530942800836 0.02033765832353177
0.100041684035 0.004159477363660305 0.021806663084158788 0.9949308592214686 -0.05166718871352288 0.0010228365335870917 0.010013692878194659 -0.0008933287651984336 -0.006412274318491003
 0.9949308592214686 -0.05166718871352288 0.004158155948926204 0.021806726865237793 -0.0008928397196027333 -0.006412292151815591 0.001034817333270796 0.010012249573947994
 0.0010228365335870917 0.010013692878194659 -0.0008928397196027333 -0.006412292151815591 0.004159768768854956 0.021805320691259098 0.9949308132369238 -0.05166852892418965
 -0.0008933287651984336 -0.006412274318491003 0.001034817333270796 0.010012249573947994 0.9949308132369238 -0.05166852892418965 0.004157780885547416 0.021805436768208487
0.1059090909091 0.004415855961047517 0.023195716033472934 0.9945935430101626 -0.054788959089259286 0.0011232987761595472 0.010605945597944555 -0.0009800126820992806 -0.006794767093722482
 0.9945935430101626 -0.054788959089259286 0.0044143752827318595 0.023195784778614555 -0.000979466049013075 -0.006794789844769298 0.0011367368028990144 0.01060429753348588
 0.0011232987761595472 0.010605945597944555 -0.000979466049013075 -0.006794789844769298 0.004416183174129402 0.023194295370859822 0.9945934916201787 -0.054790378677645024
 -0.0009800126820992806 -0.006794767093722482 0.0011367368028990144 0.01060429753348588 0.9945934916201787 -0.054790378677645024 0.004413955306727136 0.02319442320784975
0.1062942892872 0.004433043382225891 0.023287298893396854 0.9945709362598327 -0.05499425781317715 0.0011300709328886222 0.010644836629069284 -0.000985856580028647 -0.006819891287243798
 0.9945709362598327 -0.05499425781317715 0.0044315519304424745 0.023287367967080114 -0.0009853060589819806 -0.0068199143816311 0.0011436075968674427 0.01064317448291086
 0.0011300709328886222 0.010644836629069284 -0.0009853060589819806 -0.0068199143816311 0.004433373020273947 0.023285873094421417 0.9945708845035163 -0.05499568261825227
 -0.000985856580028647 -0.006819891287243798 0.0011436075968674427 0.01064317448291086 0.9945708845035163 -0.05499568261825227 0.004431128917577454 0.02328600172773739
0.11254689453939999 0.004718235944875559 0.02478056781575973 0.9941959555408796 -0.05833274983492426 0.0012430618070748917 0.011276259407832992 -0.0010833717031446418 -0.007227917133339534
 0.9941959555408796 -0.05833274983492426 0.004716564135046887 0.024780642263369818 -0.001082756231933959 -0.007227946165045859 0.001258250818759596 0.011274357301874314
 0.0012430618070748917 0.011276259407832992 -0.001082756231933959 -0.007227946165045859 0.004718606228691766 0.024779058681185052 0.9941958976440209 -0.05833425941576601
 -0.0010833717031446418 -0.007227917133339534 0.001258250818759596 0.011274357301874314 0.9941958976440209 -0.05833425941576601 0.004716090310611805 0.024779200669723514
0.11879949979160001 0.005015247712726148 0.02628631804601185 0.9938057279344132 -0.061682571595330166 0.001361860092401564 0.011907893367004783 -0.0011859261243524681 -0.007636282871270211
 0.9938057279344132 -0.061682571595330166 0.005013385207210023 0.02628639793535927 -0.001185242254194161 -0.007636318547840307 0.0013787981554483411 0.011905729130021355
 0.001361860092401564 0.011907893367004783 -0.001185242254194161 -0.007636318547840307 0.005015661066352894 0.026284725649797537 0.9938056635212459 -0.06168416614487692
 -0.0011859261243524681 -0.007636282871270211 0.0013787981554483411 0.011905729130021355 0.9938056635212459 -0.06168416614487692 0.005012857714830853 0.02628488182294385
0.1250521050438 0.00532427084077044 0.027804397934145797 0.9934000645293395 -0.06504362388343445 0.0014865158966823095 0.012539669057024298 -0.001293570965013982 -0.008044918277513928
 0.9934000645293395 -0.06504362388343445 0.005322207282858223 0.02780448331949081 -0.0012928152730224314 -0.00804496133774046 0.0015052999238095246 0.012537219452975115
 0.0014865158966823095 0.012539669057024298 -0.0012928152730224314 -0.00804496133774046 0.005324729699859822 0.0278027223503766 0.9933999932176096 -0.06504530360942147
 -0.001293570965013982 -0.008044918277513928 0.0015052999238095246 0.012537219452975115 0.9933999932176096 -0.06504530360942147 0.005321623273113101 0.027802893568539395
0.131304710296 0.005645496936750073 0.02933465549129714 0.9929787767042614 -0.06841580191871466 0.0016170784619617016 0.013171515458189072 -0.0014063564439832587 -0.008453751864124911
 0.9929787767042614 -0.06841580191871466 0.005643221948408423 0.029334746413296267 -0.0014055255332663535 -0.008453803078003712 0.0016378055632145598 0.013168756174853037
 0.0016170784619617016 0.013171515458189072 -0.0014055255332663535 -0.008453803078003712 0.00564600374862771 0.029332896796993895 0.9929786981038203 -0.06841756704044737
 -0.0014063564439832587 -0.008453751864124911 0.0016378055632145598 0.013168756174853037 0.9929786981038203 -0.06841756704044737 0.005642578578752643 0.029333083952212614
0.1375573155481 0.005898030423005685 0.030677151345433064 0.9926227836529375 -0.07159915203400503 0.001734909503476124 0.013782720078252226 -0.0015056212790440224 -0.008842095122262819
 0.9926227836529375 -0.07159915203400503 0.005895532290866384 0.03067724569229376 -0.0015047100826212848 -0.008842154396087949 0.0017576245976266332 0.013779658913074547
 0.001734909503476124 0.013782720078252226 -0.0015047100826212848 -0.008842154396087949 0.005898586980536941 0.03067530966803276 0.9926226974345655 -0.07160100267833391
 -0.0015056212790440224 -0.008842095122262819 0.0017576245976266332 0.013779658913074547 0.9926226974345655 -0.07160100267833391 0.005894827268163107 0.030675511257635436
0.1438099208003 0.006159180122130119 0.03201378006431949 0.992254762695521 -0.07477564878700323 0.0018574877348352002 0.01439216617881434 -0.0016088648162004907 -0.009228811543561408
 0.992254762695521 -0.07477564878700323 0.006156448219850681 0.03201387777536956 -0.001607869673474619 -0.009228879620214122 0.0018822787560984465 0.014388781320337544
 0.0018574877348352002 0.01439216617881434 -0.001607869673474619 -0.009228879620214122 0.006159788771161443 0.032011855501855264 0.9922546684708419 -0.07477758517075989
 -0.0016088648162004907 -0.009228811543561408 0.0018822787560984465 0.014388781320337544 0.9922546684708419 -0.07477758517075989 0.006155678811329002 0.032012072316320264
0.1500625260525 0.006428868769363582 0.033344465759864016 0.9918747938855128 -0.07794524970544955 0.0019847789985601425 0.014999815460004421 -0.0017160535616818984 -0.009613863466811383
 0.9918747938855128 -0.07794524970544955 0.006425892439275542 0.03334456678305986 -0.0017149708167429555 -0.009613941118707671 0.0020117334588565755 0.014996084316921702
 0.0019847789985601425 0.014999815460004421 -0.0017149708167429555 -0.009613941118707671 0.006429531859601187 0.033342458415372804 0.9918746912601635 -0.07794727205363182
 -0.0017160535616818984 -0.009613863466811383 0.0020117334588565755 0.014996084316921702 0.9918746912601635 -0.07794727205363182 0.006425055925656402 0.03334269128743639
0.15631513130469998 0.006707018720627274 0.03466913505300274 0.9914829574966052 -0.08110791180066218 0.0021167488333261883 0.015605630137837358 -0.0018271537011673943 -0.009997213933652863
