! Created with skrf 1.8.0 (http://scikit-rf.org).
# GHz S RI R 50.0 
!freq ReS11 ImS11 ReS12 ImS12 ReS13 ImS13
! ReS14 ImS14
! ReS21 ImS21 ReS22 ImS22 ReS23 ImS23
! ReS24 ImS24
! ReS31 ImS31 ReS32 ImS32 ReS33 ImS33
! ReS34 ImS34
! ReS41 ImS41 ReS42 ImS42 ReS43 ImS43
! ReS44 ImS44
!
0.0 0.00179395255598 0.0 0.9982060474177 0.0 6.963619017378e-05 0.0 -6.963619132175e-05 8.527973880699383e-21
 0.9982060474177 0.0 0.001793952555987 0.0 -6.963619132239e-05 8.52797388077776e-21 6.963619017216e-05 0.0
 6.963619017378e-05 0.0 -6.963619132239e-05 8.52797388077776e-21 0.001793952569124 0.0 0.9982060474308 0.0
 -6.963619132175e-05 8.527973880699383e-21 6.963619017216e-05 0.0 0.9982060474308 0.0 0.001793952569099 0.0
0.005 0.0019309999093876824 0.0014664465350164916 0.9980325416311977 -0.0037569473735711107 9.803252359075898e-05 0.0007698063512767809 -9.520450649050332e-05 -0.00048257917592752343
 0.9980325416311977 -0.0037569473735711107 0.0019309789196031474 0.0014664587463194777 -9.520428745658422e-05 -0.00048257893502866365 9.815379549224221e-05 0.0007697599173262287
 9.803252359075898e-05 0.0007698063512767809 -9.520428745658422e-05 -0.00048257893502866365 0.001931000007222612 0.0014663791332374023 0.9980325412494497 -0.00375701443551861
 -9.520450649050332e-05 -0.00048257917592752343 9.815379549224221e-05 0.0007697599173262287 0.9980325412494497 -0.00375701443551861 0.0019309780575490305 0.001466392020444844
0.006252605252188 0.001967197692856448 0.0018387933328299507 0.9979863920230335 -0.004697062816174396 0.00010625798575607851 0.0009626150131577636 -0.00010253808211339307 -0.0006038331465811308
 0.9979863920230335 -0.004697062816174396 0.0019671648829705526 0.001838808897142579 -0.00010253774184797188 -0.0006038328480467253 0.00010644745715518551 0.0009625547098833368
 0.00010625798575607851 0.0009626150131577636 -0.00010253774184797188 -0.0006038328480467253 0.0019671979241242866 0.0018387090779196022 0.9979863915043201 -0.004697146637515091
 -0.00010253808211339307 -0.0006038331465811308 0.00010644745715518551 0.0009625547098833368 0.9979863915043201 -0.004697146637515091 0.001967163612818344 0.0018387255017814335
0.01250521050438 0.0021592305946137214 0.003715740049071693 0.997739801080207 -0.009394632452807963 0.00015402602318586136 0.0019254794837025551 -0.00014476285915016659 -0.0012104277862406813
 0.997739801080207 -0.009394632452807963 0.0021590995985010537 0.003715774223777382 -0.00014476152527669517 -0.0012104272169807825 0.0001547814725340397 0.0019253342079328564
 0.00015402602318586136 0.0019254794837025551 -0.00014476152527669517 -0.0012104272169807825 0.002159232095509382 0.003715571700951363 0.9977397995783887 -0.009394799829824078
 -0.00014476285915016659 -0.0012104277862406813 0.0001547814725340397 0.0019253342079328564 0.9977397995783887 -0.009394799829824078 0.002159095086766766 0.003715607755162017
0.01875781575657 0.0023705220699002188 0.00561896977142488 0.9974659315047723 -0.014104079950341818 0.00021306033166901064 0.0028892024727714648 -0.00019645098339747159 -0.0018188678088447516
 0.9974659315047723 -0.014104079950341818 0.002370227740699187 0.005619025852834812 -0.00019644801866758595 -0.0018188670000457337 0.00021475708263475266 0.002888942100553023
 0.00021306033166901064 0.0028892024727714648 -0.00019644801866758595 -0.0018188670000457337 0.0023705258800785236 0.0056187173028842 0.9974659285529357 -0.014104330762696257
 -0.00019645098339747159 -0.0018188678088447516 0.00021475708263475266 0.002888942100553023 0.9974659285529357 -0.014104330762696257 0.002370218006159766 0.005618776484907213
0.02501042100875 0.0026015258089126686 0.007545751313893754 0.99716442533305 -0.018827620643322766 0.0002834814560965715 0.0038537845949110096 -0.0002577371776562965 -0.002428836458151065
 0.99716442533305 -0.018827620643322766 0.002601003144596891 0.007545832829665516 -0.0002577319555978539 -0.002428835445193742 0.0002864947779183089 0.0038533737173201896
 0.0002834814560965715 0.0038537845949110096 -0.0002577319555978539 -0.002428835445193742 0.0026015329789503697 0.007545414627369815 0.9971644204706237 -0.0188279547980186
 -0.0002577371776562965 -0.002428836458151065 0.0002864947779183089 0.0038533737173201896 0.9971644204706237 -0.0188279547980186 0.0026009862037385486 0.007545500706056335
0.03126302626094 0.002852676602255933 0.009494645143738904 0.9968349084063403 -0.023566161682126406 0.0003654094685398974 0.004819136364599994 -0.00032875152266534786 -0.0030400981480543975
 0.9968349084063403 -0.023566161682126406 0.0028518607091391557 0.009494755849684068 -0.0003287434257627496 -0.0030400969705294874 0.0003701149140583554 0.004818534258448898
 0.0003654094685398974 0.004819136364599994 -0.0003287434257627496 -0.0030400969705294874 0.002852688189136305 0.009494224086709236 0.9968349011750659 -0.023566579098000386
 -0.00032875152266534786 -0.0030400981480543975 0.0003701149140583554 0.004818534258448898 0.9968349011750659 -0.023566579098000386 0.0028518345709730745 0.009494341099728259
0.037515631513130004 0.0031243991077770884 0.01146468687987293 0.9964769995498634 -0.028320118479588645 0.000458962872657617 0.005785132054427686 -0.00040962036825657077 -0.003652444658451332
 0.9964769995498634 -0.028320118479588645 0.0031232251747331124 0.011464830758989486 -0.00040960878695578705 -0.003652443360116969 0.0004657364202293838 0.0057842926321130484
 0.000458962872657617 0.005785132054427686 -0.00040960878695578705 -0.003652443360116969 0.0031244161725215457 0.011464181266506446 0.9964769894918464 -0.028320619065514235
 -0.00040962036825657077 -0.003652444658451332 0.0004657364202293838 0.0057842926321130484 0.9964769894918464 -0.028320619065514235 0.0031231878384089177 0.01146433351994819
0.043768236765320004 0.00341711121460452 0.01345513885201798 0.9960903143455403 -0.03308966308597968 0.0005642580588326887 0.006751626095910885 -0.0005004666360477932 -0.004265678780980175
 0.9960903143455403 -0.03308966308597968 0.003415514492439257 0.013455320114355315 -0.0005004509680805941 -0.004265677409695751 0.0005734761705992571 0.006750497848898851
 0.0005642580588326887 0.006751626095910885 -0.0005004509680805941 -0.004265677409695751 0.003417134825788673 0.013454548446971682 0.9960903010080226 -0.03309024675699467
 -0.0005004666360477932 -0.004265678780980175 0.0005734761705992571 0.006750497848898851 0.9960903010080226 -0.03309024675699467 0.0034154639512533973 0.013454740515835036
0.050020842017509996 0.003731225586527393 0.015465387405094183 0.9956744670883683 -0.037874826819152704 0.0006814089571463915 0.007718459860816563 -0.0006014099027629147 -0.0048796075871604455
 0.9956744670883683 -0.037874826819152704 0.0037291413694742646 0.015465610488301683 -0.0006013895526562611 -0.0048796061948152385 0.0006934485922122321 0.007716985800603269
 0.0006814089571463915 0.007718459860816563 -0.0006013895526562611 -0.0048796061948152385 0.003731256816008036 0.015464711937585605 0.9956744500198947 -0.037875493482246725
 -0.0006014099027629147 -0.0048796075871604455 0.0006934485922122321 0.007716985800603269 0.9956744500198947 -0.037875493482246725 0.0037290756072323713 0.015464948666967621
0.055454545454549996 0.004021898883804349 0.017228010860481546 0.9952891004126249 -0.04204591955132211 0.000792931367707611 0.008558813056216719 -0.000697423004579326 -0.005413545434780675
 0.9952891004126249 -0.04204591955132211 0.004019338491109485 0.017228274068863694 -0.0006973981069766426 -0.005413544069351322 0.0008077295051476555 0.008556987891081303
 0.000792931367707611 0.008558813056216719 -0.0006973981069766426 -0.005413544069351322 0.004021937607690703 0.01722726121998541 0.9952890797378886 -0.042046658258817524
 -0.000697423004579326 -0.005413545434780675 0.0008077295051476555 0.008556987891081303 0.9952890797378886 -0.042046658258817524 0.004019257857627425 0.017227540906704888
0.056273447269699996 0.004067150421855536 0.01749489252143968 0.9952290719638905 -0.042675550581485026 0.000810526775758224 0.008685465003400526 -0.0007125663865226436 -0.005494039141780595
 0.9952290719638905 -0.042675550581485026 0.004064514030807728 0.01749516209197643 -0.000712540765252703 -0.00549403778422628 0.000825765376895793 0.00868358260155111
 0.000810526775758224 0.008685465003400526 -0.000712540765252703 -0.00549403778422628 0.004067190345849208 0.01749413168228291 0.9952290507164127 -0.04267630013840073
 -0.0007125663865226436 -0.005494039141780595 0.000825765376895793 0.00868358260155111 0.9952290507164127 -0.04267630013840073 0.004064431023282787 0.017494418189273754
0.06252605252188 0.004425289838650581 0.019543160117974166 0.9947537438560051 -0.04749171250958561 0.0009517197819240056 0.00965246531491348 -0.0008340488845438769 -0.006108780711724062
 0.9947537438560051 -0.04749171250958561 0.004422036604794662 0.019543481072847382 -0.0008340174092829742 -0.006108779448702274 0.0009705352434756208 0.00965010644295249
 0.0009517197819240056 0.00965246531491348 -0.0008340174092829742 -0.006108779448702274 0.004425339536549778 0.01954231356004596 0.994753717984588 -0.04749254485626669
 -0.0008340488845438769 -0.006108780711724062 0.0009705352434756208 0.00965010644295249 0.994753717984588 -0.04749254485626669 0.004421934318874734 0.019542655236109964
0.06877865777407 0.004806044045416495 0.021609725548523293 0.9942480989457672 -0.05232314442736051 0.001105093107170324 0.01061927784215093 -0.000965966681709509 -0.006723637719318443
 0.9942480989457672 -0.05232314442736051 0.004802109294183594 0.021610103017638074 -0.0009659287755350625 -0.006723636614395996 0.0011278637303803285 0.010616368711750193
 0.001105093107170324 0.01061927784215093 -0.0009659287755350625 -0.006723636614395996 0.0048061045987923285 0.02160879288501091 0.9942480680084047 -0.052324059455608626
 -0.000965966681709509 -0.006723637719318443 0.0011278637303803285 0.010616368711750193 0.9942480680084047 -0.052324059455608626 0.004801985687819904 0.021609195399051668
0.07503126302626001 0.005209809388531204 0.023694143144582666 0.993711755192454 -0.05716964227075788 0.0012707485666223154 0.011585713611790309 -0.0011084254418969482 -0.007338413099032309
 0.993711755192454 -0.05716964227075788 0.005205128424143503 0.023694582493739222 -0.0011083805335665086 -0.0073384122195470775 0.0012978530052376455 0.011582174715551544
 0.0012707485666223154 0.011585713611790309 -0.0011083805335665086 -0.0073384122195470775 0.0052098818806201866 0.02369312395181206 0.9937117187510116 -0.05717063986539076
 -0.0011084254418969482 -0.007338413099032309 0.0012978530052376455 0.011582174715551544 0.9937117187510116 -0.05717063986539076 0.005204981446619685 0.02369359325366188
0.08128386827845 0.005636978322593289 0.02579597927112009 0.9931443327421938 -0.062030973007941095 0.0014487844872318727 0.012551578133592043 -0.0012615270881745006 -0.007952906884913057
 0.9931443327421938 -0.062030973007941095 0.005631486412407452 0.025796486105519312 -0.001261474612010345 -0.00795290630189506 0.0014806016851042002 0.012547324186622964
 0.0014487844872318727 0.012551578133592043 -0.001261474612010345 -0.00795290630189506 0.0056370638379739345 0.02579487308717151 0.9931442903622719 -0.06203205304803072
 -0.0012615270881745006 -0.007952906884913057 0.0014806016851042002 0.012547324186622964 0.9931442903622719 -0.06203205304803072 0.005631314004084697 0.02579541541193907
0.08753647353064001 0.0060879393261979685 0.027914807530694807 0.9925454542870498 -0.06690687942230389 0.0016392955417056337 0.013516671762663766 -0.001425369675338235 -0.008566915948765689
 0.9925454542870498 -0.06690687942230389 0.0060815716855981816 0.027915387699197686 -0.001425309070965681 -0.008566915736903939 0.0016762046645972537 0.01351161164516616
 0.0016392955417056337 0.013516671762663766 -0.001425309070965681 -0.008566915736903939 0.006088038949174874 0.027913613859141154 0.9925454055380528 -0.06690804177751783
 -0.001425369675338235 -0.008566915948765689 0.0016762046645972537 0.01351161164516616 0.9925454055380528 -0.06690804177751783 0.006081371777783124 0.027914235731865748
0.09378907878283 0.006563076783234414 0.03005020535402038 0.9919147453939029 -0.07179708352086125 0.0018423725869259572 0.014480789977035658 -0.0016000472571160642 -0.009180233833289246
 0.9919147453939029 -0.07179708352086125 0.006555768560012299 0.030050864953887806 -0.00159997796936867 -0.009180234070856974 0.0018847529485464304 0.014474826677945753
 0.0018423725869259572 0.014480789977035658 -0.00159997796936867 -0.009180234070856974 0.006563191597848252 0.03004892365730553 0.9919146898496658 -0.07179832805804341
 -0.0016000472571160642 -0.009180233833289246 0.0018847529485464304 0.014474826677945753 0.9919146898496658 -0.07179832805804341 0.006555539075130747 0.03004963189852754
0.100041684035 0.007062770837412109 0.03220175150370251 0.9912518348103412 -0.07670128904127994 0.002058102505001052 0.015443723604578156 -0.0017856497498780128 -0.009792650646177837
 0.9912518348103412 -0.07670128904127994 0.007054457096250774 0.03220249688623368 -0.0017855712286029366 -0.009792651414995206 0.0021063334886723705 0.015436754166539687
 0.002058102505001052 0.015443723604578156 -0.0017855712286029366 -0.009792651414995206 0.007062901925937005 0.032200381209251325 0.991251772048771 -0.07670261561840648
 -0.0017856497498780128 -0.009792650646177837 0.0021063334886723705 0.015436754166539687 0.991251772048771 -0.07670261561840648 0.007054195947652341 0.032201182941052946
0.1059090909091 0.007554349428334317 0.03423506039751225 0.9906001487932807 -0.08131582161107967 0.002272123569574018 0.016346067064962985 -0.0019698304352759755 -0.010366329323946436
 0.9906001487932807 -0.08131582161107967 0.007545032969896286 0.03423589228602334 -0.001969742753311283 -0.010366330668814544 0.0023261897759657584 0.016338054489482768
 0.002272123569574018 0.016346067064962985 -0.001969742753311283 -0.010366330668814544 0.007554496770763271 0.03423360640845732 0.9906000788795359 -0.08131722504001047
 -0.0019698304352759755 -0.010366329323946436 0.0023261897759657584 0.016338054489482768 0.9906000788795359 -0.08131722504001047 0.0075447402024699075 0.03423450262329112
0.1062942892872 0.007587397227314812 0.03436902421346914 0.9905563547558234 -0.08161918333625791 0.00228656804674544 0.016405259007519064 -0.0019822627937848294 -0.010403953007277552
 0.9905563547558234 -0.08161918333625791 0.00757801293449185 0.03436986199008222 -0.0019821744936835565 -0.010403954392664536 0.0023410290229104918 0.016397174473091847
 0.00228656804674544 0.016405259007519064 -0.0019821744936835565 -0.010403954392664536 0.007587545669851407 0.034367564710581645 0.9905562843597427 -0.08162059180558458
 -0.0019822627937848294 -0.010403953007277552 0.0023410290229104918 0.016397174473091847 0.9905562843597427 -0.08162059180558458 0.007577718026582453 0.03436846736338492
0.11254689453939999 0.00813732710734181 0.03655159977958106 0.9898279412013551 -0.08655043881820183 0.002527847677211362 0.01736517824910673 -0.002189967612059881 -0.011013924024403269
 0.9898279412013551 -0.08655043881820183 0.008126807115409746 0.03655253682870464 -0.002189868992658049 -0.011013926115126704 0.002588917917427397 0.017355863608478097
 0.002527847677211362 0.01736517824910673 -0.002189868992658049 -0.011013926115126704 0.008137493981324715 0.03655005041995558 0.9898278627585891 -0.08655192902576402
 -0.002189967612059881 -0.011013924024403269 0.002588917917427397 0.017355863608478097 0.9898278627585891 -0.08655192902576402 0.008126476343720306 0.036551061739995984
0.11879949979160001 0.008712926857610933 0.038749051472542075 0.9890662341410449 -0.09149471409682494 0.002782015423064214 0.018323259241311847 -0.0024088408693196182 -0.011622343298991903
 0.9890662341410449 -0.09149471409682494 0.008701205889657764 0.038750094947275986 -0.0024087313946908185 -0.01162234618724749 0.0028500740103857493 0.01831259338150896
 0.002782015423064214 0.018323259241311847 -0.0024087313946908185 -0.01162234618724749 0.008713113236498725 0.03874741157001407 0.9890661472445313 -0.09149628588295192
 -0.0024088408693196182 -0.011622343298991903 0.0028500740103857493 0.01831259338150896 0.9890661472445313 -0.09149628588295192 0.008700837141029524 0.03874853962744846
0.1250521050438 0.009314557884826258 0.0409609486912951 0.9882708778577977 -0.09645165488777512 0.003049140721241768 0.019279275883383115 -0.0026389545294415707 -0.012228986952019042
 0.9882708778577977 -0.09645165488777512 0.009301570519027101 0.040962106027736755 -0.0026388336681146536 -0.012228990733368894 0.003124566457875905 0.019267131539096965
 0.003049140721241768 0.019279275883383115 -0.0026388336681146536 -0.012228990733368894 0.009314764837192709 0.04095921752408239 0.9882707821057558 -0.09645330808486186
 -0.0026389545294415707 -0.012228986952019042 0.003124566457875905 0.019267131539096965 0.9882707821057558 -0.09645330808486186 0.009301161671351128 0.04096047072193597
0.131304710296 0.0099425764158177 0.04318685630504029 0.9874415211838882 -0.10142089474710182 0.0033292882695873244 0.02023299819532733 -0.0028803757131831103 -0.012833627666152678
 0.9874415211838882 -0.10142089474710182 0.009928257070344173 0.043188135231345744 -0.0028802429381128234 -0.012833632439513801 0.0034124595815159583 0.020219241901478
 0.0033292882695873244 0.02023299819532733 -0.0028802429381128234 -0.012833632439513801 0.009942805005042472 0.04318503311116661 0.9874414161802225 -0.10142262918447856
 -0.0028803757131831103 -0.012833627666152678 0.0034124595815159583 0.020219241901478 0.9874414161802225 -0.10142262918447856 0.009927805992742367 0.0431864201949179
0.1375573155481 0.010462168868665026 0.04513693300720063 0.9867130562185533 -0.10611245539716867 0.0035892261981116122 0.02115630569901744 -0.003099791177844563 -0.013408247126827614
 0.9867130562185533 -0.10611245539716867 0.010446445485955377 0.04513831264533104 -0.00309964549889918 -0.01340825290554995 0.0036803407142092146 0.021140944870476994
 0.0035892261981116122 0.02115630569901744 -0.00309964549889918 -0.01340825290554995 0.010462419146638055 0.045135017478049044 0.986712941558205 -0.1061142708927088
 -0.003099791177844563 -0.013408247126827614 0.0036803407142092146 0.021140944870476994 0.986712941558205 -0.1061142708927088 0.010445951064929904 0.04513651763277348
0.1438099208003 0.011000298251843862 0.04707509567626565 0.9859584662629549 -0.11079045596347485 0.003859590310017725 0.02207492183112779 -0.003327908471764287 -0.013978491463289982
 0.9859584662629549 -0.11079045596347485 0.010983104034371862 0.04707658204561011 -0.003327749285305545 -0.0139784983524751 0.003958993339409056 0.022057833032673047
 0.003859590310017725 0.02207492183112779 -0.003327749285305545 -0.0139784983524751 0.011000571089639938 0.04707308706111923 0.9859583415573789 -0.11079235233175133
 -0.003327908471764287 -0.013978491463289982 0.003958993339409056 0.022057833032673047 0.9859583415573789 -0.11079235233175133 0.010982564307191002 0.04707470724651739
0.1500625260525 0.011556749490336755 0.04900113341686767 0.9851779715996901 -0.11545473034931349 0.004140270012182817 0.022988722630334493 -0.0035646185628869713 -0.014544242172626155
 0.9851779715996901 -0.11545473034931349 0.011538017449707717 0.04900273289839135 -0.0035644452640362055 -0.014544250282156385 0.004248304434371345 0.022969777891965686
 0.004140270012182817 0.022988722630334493 -0.0035644452640362055 -0.014544250282156385 0.01155704574156239 0.04899903093570868 0.9851778364663554 -0.11545670739875911
 -0.0035646185628869713 -0.014544242172626155 0.004248304434371345 0.022969777891965686 0.9851778364663554 -0.11545670739875911 0.011537430456469539 0.04900077850758844
0.15631513130469998 0.012131305671118774 0.050914841623254985 0.9843717939782844 -0.12010511418480817 0.004431153229035333 0.023897586654077683 -0.0038098109107520058 -0.015105383591099596
 0.9843717939782844 -0.12010511418480817 0.012110968623133864 0.05091656096882865 -0.0038096228934712513 -0.01510539303566372 0.004548159451739787 0.023876653523352488
