! Created with skrf 1.8.0 (http://scikit-rf.org).
# GHz S RI R 50.0 
!freq ReS11 ImS11 ReS12 ImS12 ReS13 ImS13
! ReS14 ImS14
! ReS21 ImS21 ReS22 ImS22 ReS23 ImS23
! ReS24 ImS24
! ReS31 ImS31 ReS32 ImS32 ReS33 ImS33
! ReS34 ImS34
! ReS41 ImS41 ReS42 ImS42 ReS43 ImS43
! ReS44 ImS44
!
0.0 0.001186120515346 0.0 0.998813879483 0.0 4.516016958705e-05 0.0 -4.516017023025e-05 5.530525792142525e-21
 0.998813879483 0.0 0.001186120515317 0.0 -4.516017023033e-05 5.5305257921523226e-21 4.516016958565e-05 0.0
 4.516016958705e-05 0.0 -4.516017023033e-05 5.5305257921523226e-21 0.001186120516053 0.0 0.9988138794837 0.0
 -4.516017023025e-05 5.530525792142525e-21 4.516016958565e-05 0.0 0.9988138794837 0.0 0.001186120516014 0.0
0.005 0.0012753581067596483 0.0009707051103355376 0.9987011124568956 -0.0024856303746122357 6.28132149988407e-05 0.0004990021734073356 -6.10956231738644e-05 -0.00031310648278330276
 0.9987011124568956 -0.0024856303746122357 0.001275354140979139 0.000970707387245407 -6.109716666836104e-05 -0.0003131075955104718 6.28294873610925e-05 0.000498995902613113
 6.28132149988407e-05 0.0004990021734073356 -6.109716666836104e-05 -0.0003131075955104718 0.00127535736494119 0.0009706382505499472 0.9987011121278028 -0.002485697429329312
 -6.10956231738644e-05 -0.00031310648278330276 6.28294873610925e-05 0.000498995902613113 0.9987011121278028 -0.002485697429329312 0.0012753542259983795 0.0009706401379861028
0.006252605252188 0.0012985266785994578 0.0012172342271809244 0.9986716899898025 -0.0031076826631301906 6.7717811010823e-05 0.0006240091323216774 -6.548573352413825e-05 -0.0003918019133595306
 0.9986716899898025 -0.0031076826631301906 0.00129852047995531 0.0012172371329527143 -6.548813596854412e-05 -0.00039180328452744525 6.774323453011783e-05 0.0006240010118692818
 6.7717811010823e-05 0.0006240091323216774 -6.548813596854412e-05 -0.00039180328452744525 0.001298525600743787 0.001217150641000046 0.9986716895567527 -0.0031077664873252744
 -6.548573352413825e-05 -0.0003918019133595306 6.774323453011783e-05 0.0006240010118692818 0.9986716895567527 -0.0031077664873252744 0.001298520693745981 0.0012171530718153337
0.01250521050438 0.0014191182530024873 0.002460325382010371 0.9985177252389242 -0.00621637025732642 9.511186087238146e-05 0.00124845026699593 -8.980916780150627e-05 -0.000785653137017642
 0.9985177252389242 -0.00621637025732642 0.0014190935094368095 0.0024603317990455975 -8.981864372723692e-05 -0.0007856556660577475 9.521322271421472e-05 0.001248431021678933
 9.511186087238146e-05 0.00124845026699593 -8.981864372723692e-05 -0.0007856556660577475 0.0014191145026985594 0.002460158410664815 0.9985177240558764 -0.006216537651873445
 -8.980916780150627e-05 -0.000785653137017642 9.521322271421472e-05 0.001248431021678933 0.9985177240558764 -0.006216537651873445 0.0014190949025023234 0.0024601639934204423
0.01875781575657 0.0015481086129155107 0.0037215072761710866 0.9983518296889794 -0.009333677900292398 0.00012739804963038013 0.001873773431583216 -0.00011819456092099945 -0.0011810140329907256
 0.9983518296889794 -0.009333677900292398 0.0015480530276913364 0.0037215178591198696 -0.00011821570473358799 -0.0011810174723659193 0.0001276256989051938 0.0018737395606510656
 0.00012739804963038013 0.001873773431583216 -0.00011821570473358799 -0.0011810174723659193 0.0015481006202589537 0.0037212569750900977 0.9983518274495795 -0.009333928766815887
 -0.00011819456092099945 -0.0011810140329907256 0.0001276256989051938 0.0018737395606510656 0.9983518274495795 -0.009333928766815887 0.0015480565635730204 0.0037212664706383894
0.02501042100875 0.0016857073477638586 0.004999063847876304 0.9981738431537778 -0.012461165657013624 0.00016463274857024562 0.002500036546684014 -0.00015070463234790783 -0.0015777343744843816
 0.9981738431537778 -0.012461165657013624 0.0016856086583429458 0.004999079297236358 -0.00015074198840992376 -0.001577738437867266 0.00016503702899364203 0.002499984080767958
 0.00016463274857024562 0.002500036546684014 -0.00015074198840992376 -0.001577738437867266 0.0016856935545832155 0.004998730235361061 0.9981738395519494 -0.012461499943228807
 -0.00015070463234790783 -0.0015777343744843816 0.00016503702899364203 0.002499984080767958 0.9981738395519494 -0.012461499943228807 0.001685615290999672 0.0049987444430461625
0.03126302626094 0.001832115001666846 0.006292136729756434 0.9979835956467283 -0.015599530942110229 0.00020687296474219011 0.003127240754491305 -0.00018740074447372684 -0.00197571802627417
 0.9979835956467283 -0.015599530942110229 0.0018319609740535658 0.006292157791522735 -0.00018745881605615675 -0.0019757223878826354 0.00020750426581020792 0.0031271652546296775
 0.00020687296474219011 0.003127240754491305 -0.00018745881605615675 -0.0019757223878826354 0.0018320938561316423 0.006291719832996676 0.9979835903721298 -0.015599948595723936
 -0.00018740074447372684 -0.00197571802627417 0.00020750426581020792 0.0031271652546296775 0.9979835903721298 -0.015599948595723936 0.0018319716444823427 0.006291739590659234
0.037515631513130004 0.001987527942870635 0.007600185013799117 0.9977809123341228 -0.01874914871148812 0.0002541758411369178 0.0037553652372909726 -0.000228343361894859 -0.0023748881171373184
 0.9977809123341228 -0.01874914871148812 0.0019873063685066595 0.007600212479441341 -0.00022842661578221694 -0.0023748924114660674 0.00025508462223622477 0.00375526179108655
 0.0002541758411369178 0.0037553652372909726 -0.00022842661578221694 -0.0023748924114660674 0.0019874979076040956 0.007599684845752285 0.9977809050806168 -0.018749649703355818
 -0.000228343361894859 -0.0023748881171373184 0.00025508462223622477 0.00375526179108655 0.9977809050806168 -0.018749649703355818 0.0019873220138002783 0.007599711029842908
0.043768236765320004 0.0021521402640449763 0.008922820844784662 0.997565615518231 -0.021910235820502447 0.00030659842245625 0.004384377816225486 -0.00027359223533057715 -0.0027751764296968097
 0.997565615518231 -0.021910235820502447 0.0021518389572333036 0.008922855551335042 -0.0002737051045252959 -0.0027751802513663634 0.00030783522560585275 0.004384241033069192
 0.00030659842245625 0.004384377816225486 -0.0002737051045252959 -0.0027751802513663634 0.0021520998097350127 0.008922237427430691 0.99756560597814 -0.021910820121488588
 -0.00027359223533057715 -0.0027751764296968097 0.00030783522560585275 0.004384241033069192 0.99756560597814 -0.021910820121488588 0.002151860505415961 0.00892227095310966
0.050020842017509996 0.0023261446637499474 0.010259741483266646 0.9973375256030192 -0.025082918910888444 0.0003641975264760782 0.0050142393162734755 -0.0003232064759187318 -0.003176519023736304
 0.9973375256030192 -0.025082918910888444 0.0023257514601157034 0.010259784313406921 -0.0003233533614489295 -0.0031765219273728654 0.0003658129829794251 0.005014063322227695
 0.0003641975264760782 0.0050142393162734755 -0.0003233533614489295 -0.0031765219273728654 0.0023260922708263905 0.010259074839458086 0.9973375134686798 -0.025083586500071257
 -0.0003232064759187318 -0.003176519023736304 0.0003658129829794251 0.005014063322227695 0.9973375134686798 -0.025083586500071257 0.002325779832173625 0.010259116660731276
0.055454545454549996 0.0024851362373215476 0.011432971184481252 0.9971287784963897 -0.027849549226139927 0.00041850075413630395 0.005562263376633467 -0.00036991341799990675 -0.003526106065285899
 0.9971287784963897 -0.027849549226139927 0.002484653309045053 0.01143302182669437 -0.0003700934149967369 -0.003526107778303412 0.00042048646232758293 0.00556204815740491
 0.00041850075413630395 0.005562263376633467 -0.0003700934149967369 -0.003526107778303412 0.002485072242293758 0.011432232235442452 0.997128763857462 -0.027850289182957275
 -0.00036991341799990675 -0.003526106065285899 0.00042048646232758293 0.00556204815740491 0.997128763857462 -0.027850289182957275 0.0024846883536359427 0.011432282070888497
0.056273447269699996 0.00250973291773434 0.011610695947664408 0.9970964616511563 -0.028267267717908964 0.000427029655649897 0.005644905708181123 -0.00037724458697620413 -0.0035788540829966384
 0.9970964616511563 -0.028267267717908964 0.0025092356727153178 0.011610747829893001 -0.0003774298590907572 -0.0035788555831520884 0.0004290744890747992 0.005644684140668304
 0.000427029655649897 0.005644905708181123 -0.0003774298590907572 -0.0035788555831520884 0.002509667075707138 0.011609946103551436 0.9970964466146488 -0.02826801858030387
 -0.00037724458697620413 -0.0035788540829966384 0.0004290744890747992 0.005644684140668304 0.9970964466146488 -0.02826801858030387 0.002509271782508317 0.011609997213423463
0.06252605252188 0.002703096142855128 0.012975466688885247 0.9968422417352527 -0.03146331334546951 0.0004951509302693492 0.006276329283970063 -0.00043576447245596654 -0.003982120729144493
 0.9968422417352527 -0.03146331334546951 0.0027024827303921872 0.012975528597701274 -0.00043599247143826376 -0.003982120300213308 0.0004976759571232336 0.006276055286407777
 0.0004951509302693492 0.006276329283970063 -0.00043599247143826376 -0.003982120300213308 0.0027030153504607117 0.012974633679893006 0.9968422234882904 -0.03146414746613055
 -0.00043576447245596654 -0.003982120729144493 0.0004976759571232336 0.006276055286407777 0.9968422234882904 -0.03146414746613055 0.002702527485466984 0.012974695110499273
0.06877865777407 0.002906424952557114 0.014353858654944611 0.9965746831814586 -0.03467105915164804 0.0005686170345007668 0.006908459350493871 -0.0004988234312138746 -0.004386258318681844
 0.9965746831814586 -0.03467105915164804 0.0029056832639426464 0.014353931611028136 -0.0004990984679724937 -0.004386255394834862 0.0005716731631760036 0.006908125566873297
 0.0005686170345007668 0.006908459350493871 -0.0004990984679724937 -0.004386255394834862 0.0029063277173759865 0.014352942518141447 0.9965746614157014 -0.03467197652342015
 -0.0004988234312138746 -0.004386258318681844 0.0005716731631760036 0.006908125566873297 0.9965746614157014 -0.03467197652342015 0.0029057375654468393 0.014353015340955583
0.07503126302626001 0.003119909545650401 0.01574569236033499 0.996293602750163 -0.037890487630405034 0.0006474831680293829 0.007541242672912555 -0.0005664781444225499 -0.004791205991001058
 0.996293602750163 -0.037890487630405034 0.0031190274886690075 0.015745777430838655 -0.0005668045009038415 -0.004791199966128892 0.0006511213966145313 0.00754084124237738
 0.0006474831680293829 0.007541242672912555 -0.0005668045009038415 -0.004791199966128892 0.0031197943842378754 0.015744693142383134 0.9962935771566986 -0.037891488246132414
 -0.0005664781444225499 -0.004791205991001058 0.0006511213966145313 0.00754084124237738 0.9962935771566986 -0.037891488246132414 0.0031190922317705454 0.0157447784683387
0.08128386827845 0.003343739756299919 0.017150799272593747 0.9959988167769094 -0.04112156497714672 0.0007318040031904859 0.008174623763539371 -0.00063878465653882 -0.005196902372275967
 0.9959988167769094 -0.04112156497714672 0.0033427052541178453 0.01715089757133272 -0.0006391665859706954 -0.005196892599924444 0.0007360754162232759 0.00817414631500253
 0.0007318040031904859 0.008174623763539371 -0.0006391665859706954 -0.005196892599924444 0.0033436051934833426 0.01714971702469167 0.9959987870461305 -0.04112264883482928
 -0.00063878465653882 -0.005196902372275967 0.0007360754162232759 0.00817414631500253 0.9959987870461305 -0.04112264883482928 0.0033427813278569946 0.017149816004456118
0.08753647353064001 0.0035781050764606423 0.01856901861993602 0.9956901412897625 -0.044364244234456604 0.0008216336434734152 0.008808545084692065 -0.0007157983537676652 -0.005603285366599241
 0.9956901412897625 -0.044364244234456604 0.003576906066572119 0.018569131307732124 -0.0007162400808012147 -0.005603271159925781 0.0008265894080382641 0.00880798273146518
 0.0008216336434734152 0.008808545084692065 -0.0007162400808012147 -0.005603271159925781 0.0035779496455060574 0.018567853401295718 0.9956901071113402 -0.04436541133389324
 -0.0007157983537676652 -0.005603285366599241 0.0008265894080382641 0.00880798273146518 0.9956901071113402 -0.04436541133389324 0.0035769943545290108 0.018567967225428385
0.09378907878283 0.003823194659976432 0.020000195113148586 0.9953673921087196 -0.04761846752479685 0.0009170255851917242 0.009442947188929619 -0.0007975739384485429 -0.006010292011070883
 0.9953673921087196 -0.04761846752479685 0.003821819093720426 0.020000323398109008 -0.0007980796592972602 -0.006010272642796492 0.0009227169463546265 0.009442290523400669
 0.0009170255851917242 0.009442947188929619 -0.0007980796592972602 -0.006010272642796492 0.0038230169026975485 0.019998946989643104 0.9953673531718008 -0.0476197178690978
 -0.0007975739384485429 -0.006010292011070883 0.0009227169463546265 0.009442290523400669 0.9953673531718008 -0.0476197178690978 0.0038219204739269458 0.019999076888871096
0.100041684035 0.004079197314815588 0.021444177265845972 0.9950303849353881 -0.050884167686256344 0.0010180326788329496 0.010077768827605558 -0.0008841654029100373 -0.006417858363950602
 0.9950303849353881 -0.050884167686256344 0.004077633156008182 0.0214443224037165 -0.0008847392853034015 -0.006417833066320054 0.0010245109545971348 0.010077007915982381
 0.0010180326788329496 0.010077768827605558 -0.0008847392853034015 -0.006417833066320054 0.004078995781288336 0.021442846309815952 0.9950303409283308 -0.05088550128213392
 -0.0008841654029100373 -0.006417858363950602 0.0010245109545971348 0.010077007915982381 0.9950303409283308 -0.05088550128213392 0.0040777485015402095 0.021442993555310885
0.1059090909091 0.004329521841019398 0.02281071526305555 0.9947010077562707 -0.05395905209387407 0.0011179705213885086 0.010673807090810474 -0.000969849745084278 -0.006800767323636044
 0.9947010077562707 -0.05395905209387407 0.00432776977197279 0.02281087740042415 -0.0009704913549751757 -0.006800735727583181 0.0011252339662807165 0.010672938847285663
 0.0011179705213885086 0.010673807090810474 -0.0009704913549751757 -0.006800735727583181 0.004329296684360653 0.02280930665065577 0.9947009587070641 -0.05396046382034134
 -0.000969849745084278 -0.006800767323636044 0.0011252339662807165 0.010672938847285663 0.9947009587070641 -0.05396046382034134 0.004327899011865376 0.02280947136611933
0.1062942892872 0.004346301484319478 0.022900816135026373 0.9946789354334243 -0.05416126948954619 0.0011247070923467886 0.010712947024672608 -0.0009756260004649531 -0.006825919429009651
 0.9946789354334243 -0.05416126948954619 0.004344536708776109 0.02290097942953001 -0.0009762721836378918 -0.0068258873937585 0.0011320236680970083 0.010712071401746555
 0.0011247070923467886 0.010712947024672608 -0.0009762721836378918 -0.0068258873937585 0.00434607473256661 0.022899402427607306 0.9946788860435636 -0.054162686345130544
 -0.0009756260004649531 -0.006825919429009651 0.0011320236680970083 0.010712071401746555 0.9946788860435636 -0.054162686345130544 0.004344666887476405 0.022899568331210634
0.11254689453939999 0.004624695222431336 0.024369964354447726 0.9943128593046577 -0.057449690563684076 0.0012371002740090816 0.011348417141128816 -0.0010720082160025543 -0.0072344090907013195
 0.9943128593046577 -0.057449690563684076 0.004622717816963899 0.024370147157710628 -0.0010727308106062779 -0.007234369469027544 0.0012453065966434296 0.011347415805159286
 0.0012371002740090816 0.011348417141128816 -0.0010727308106062779 -0.007234369469027544 0.004624441818628183 0.024368467984753964 0.9943128042182284 -0.05745119068946118
 -0.0010720082160025543 -0.0072344090907013195 0.0012453065966434296 0.011347415805159286 0.9943128042182284 -0.05745119068946118 0.0046228636920533465 0.024368653899306612
0.11879949979160001 0.004914566162137702 0.025851475379957585 0.9939319723594126 -0.06074934211132021 0.0013552629160903998 0.01198411292019368 -0.001173363735043738 -0.007643260070161004
 0.9939319723594126 -0.06074934211132021 0.004912364123760922 0.025851679092907375 -0.0011741668230212962 -0.007643211972703402 0.0013644104877373988 0.0119829743278561
 0.0013552629160903998 0.01198411292019368 -0.0011741668230212962 -0.007643211972703402 0.004914284680489003 0.025849896444225674 0.9939319112616539 -0.06075092552113217
 -0.001173363735043738 -0.007643260070161004 0.0013644104877373988 0.0119829743278561 0.9939319112616539 -0.06075092552113217 0.004912526554028334 0.02585010376389487
0.1250521050438 0.005216101480758226 0.027345202890933066 0.9935360905864945 -0.06406012946979923 0.0014792449183237976 0.01261996652768344 -0.001279743412179887 -0.008052403887561555
 0.9935360905864945 -0.06406012946979923 0.00521366281592599 0.02734542896375173 -0.0012806310466231198 -0.008052346384381345 0.0014893852897534298 0.012618678589064843
 0.0014792449183237976 0.01261996652768344 -0.0012806310466231198 -0.008052346384381345 0.0052157905033410465 0.02734354149317439 0.9935360231614365 -0.06406179618029366
 -0.001279743412179887 -0.008052403887561555 0.0014893852897534298 0.012618678589064843 0.9935360231614365 -0.06406179618029366 0.005213842655714306 0.02734377165383451
0.131304710296 0.005529487860155131 0.028851000304635874 0.9931250302184536 -0.06738195256093789 0.0016090953516293214 0.013255908582880315 -0.0013911972385801565 -0.008461770835658263
 0.9931250302184536 -0.06738195256093789 0.005526800583980588 0.02885125023721279 -0.001392173443539985 -0.0084617029562333 0.0016202801153852968 0.013254458656553773
 0.0016090953516293214 0.013255908582880315 -0.001392173443539985 -0.0084617029562333 0.005529145976953931 0.028849256558215776 0.9931249561488745 -0.06738370259013754
 -0.0013911972385801565 -0.008461770835658263 0.0016202801153852968 0.013254458656553773 0.9931249561488745 -0.06738370259013754 0.005526998683654375 0.028849511037752282
0.1375573155481 0.00577538925358711 0.030171638388442668 0.992778149978916 -0.07051756760354973 0.0017262269589966362 0.013871334903075022 -0.0014891279799823889 -0.008850772071186291
 0.992778149978916 -0.07051756760354973 0.005772439961380031 0.03017190770009965 -0.0014901984287626483 -0.008850693919906904 0.00173848480637311 0.01386972719403487
 0.0017262269589966362 0.013871334903075022 -0.0014901984287626483 -0.008850693919906904 0.00577501419965962 0.030169812871820398 0.9927780689658712 -0.07051940093787484
 -0.0014891279799823889 -0.008850772071186291 0.00173848480637311 0.01386972719403487 0.9927780689658712 -0.07051940093787484 0.0057726579912838315 0.03017008617404835
0.1438099208003 0.006029657804996581 0.03148654231744544 0.9924195844988796 -0.07364647921881491 0.0018480809734751915 0.014485028872674376 -0.0015909867550044712 -0.009238178942608737
 0.9924195844988796 -0.07364647921881491 0.006026434286730649 0.031486832072472104 -0.0015921557273691162 -0.009238089588924522 0.0018614594029575204 0.014483252003346343
 0.0018480809734751915 0.014485028872674376 -0.0015921557273691162 -0.009238089588924522 0.006029248025961511 0.03148463519517737 0.992419496227265 -0.07364839587326638
 -0.0015909867550044712 -0.009238178942608737 0.0018614594029575204 0.014483252003346343 0.992419496227265 -0.07364839587326638 0.006026673239878534 0.03148492825376277
0.1500625260525 0.006292218866207354 0.03279563879123984 0.9920494111451327 -0.07676864706448583 0.0019746239449785967 0.015096953014963466 -0.0016967408725100063 -0.009623954700838487
 0.9920494111451327 -0.07676864706448583 0.006288708906542755 0.032795950105556075 -0.0016980126404220132 -0.009623853177433304 0.0019891702267284626 0.015094995199616611
 0.0019746239449785967 0.015096953014963466 -0.0016980126404220132 -0.009623853177433304 0.006291772804718207 0.03279365023801424 0.9920493152992771 -0.07677064705262905
 -0.0016967408725100063 -0.009623954700838487 0.0019891702267284626 0.015094995199616611 0.9920493152992771 -0.07677064705262905 0.006288969781825105 0.03279396402975338
0.15631513130469998 0.0065629974289460385 0.03409885695247197 0.9916677074907009 -0.07988403025828669 0.0021058221312703967 0.015707070346700984 -0.001806357332923024 -0.010008063281896913
