! Created with skrf 1.8.0 (http://scikit-rf.org).
# GHz S RI R 50.0 
!freq ReS11 ImS11 ReS12 ImS12 ReS13 ImS13
! ReS14 ImS14
! ReS21 ImS21 ReS22 ImS22 ReS23 ImS23
! ReS24 ImS24
! ReS31 ImS31 ReS32 ImS32 ReS33 ImS33
! ReS34 ImS34
! ReS41 ImS41 ReS42 ImS42 ReS43 ImS43
! ReS44 ImS44
!
0.0 0.001074324941978 0.0 0.998925675058 0.0 4.052563686716e-05 0.0 -4.052563713307e-05 4.96295917984213e-21
 0.998925675058 0.0 0.001074324941939 0.0 -4.052563713274e-05 4.962959179801716e-21 4.052563686576e-05 0.0
 4.052563686716e-05 0.0 -4.052563713274e-05 4.962959179801716e-21 0.001074324929542 0.0 0.9989256750456 0.0
 -4.052563713307e-05 4.96295917984213e-21 4.052563686576e-05 0.0 0.9989256750456 0.0 0.001074324929523 0.0
0.005 0.0011548787363979953 0.0008817536615269133 0.9988239143607238 -0.002251575737963918 5.589231980694199e-05 0.00043317158598194595 -5.445896554903598e-05 -0.0002743877738663374
 0.9988239143607238 -0.002251575737963918 0.0011548833987795847 0.0008817509890578674 -5.445854433993342e-05 -0.0002743874998686901 5.587255477411395e-05 0.00043317923279985796
 5.589231980694199e-05 0.00043317158598194595 -5.445854433993342e-05 -0.0002743874998686901 0.0011548783645572356 0.0008816866742438729 0.9988239140355692 -0.002251642790678475
 -5.445896554903598e-05 -0.0002743877738663374 5.587255477411395e-05 0.00043317923279985796 0.9988239140355692 -0.002251642790678475 0.0011548831221685157 0.0008816838723558014
0.006252605252188 0.0011757233275599842 0.0011056902256938357 0.9987974622592675 -0.0028150625827331123 6.0127086046092745e-05 0.0005416978351524842 -5.8264870729954776e-05 -0.0003433520979722395
 0.9987974622592675 -0.0028150625827331123 0.0011757306149645847 0.001105686794788828 -5.826421487376332e-05 -0.0003433517609094229 6.009620593943852e-05 0.0005417077279375118
 6.0127086046092745e-05 0.0005416978351524842 -5.826421487376332e-05 -0.0003433517609094229 0.0011757228247974761 0.001105606491247394 0.9987974618297161 -0.0028151464042990132
 -5.8264870729954776e-05 -0.0003433520979722395 6.009620593943852e-05 0.0005417077279375118 0.9987974618297161 -0.0028151464042990132 0.0011757302618119131 0.001105602889422526
0.01250521050438 0.0012838102727833537 0.0022348776816377876 0.9986596128684593 -0.005631127017747045 8.359159153004728e-05 0.001083864959013262 -7.917184344103753e-05 -0.0006885260475764432
 0.9986596128684593 -0.005631127017747045 0.001283839362957772 0.0022348699070142944 -7.916925358189263e-05 -0.0006885254320638379 8.346848447805808e-05 0.0010838882927693375
 8.359159153004728e-05 0.001083864959013262 -7.916925358189263e-05 -0.0006885254320638379 0.0012838088515382488 0.0022347105194145188 0.9986596117446505 -0.005631294413490262
 -7.917184344103753e-05 -0.0006885260475764432 8.346848447805808e-05 0.0010838882927693375 0.9986596117446505 -0.005631294413490262 0.001283838550822953 0.0022347023097088387
0.01875781575657 0.0013987617420895303 0.0033805415193622207 0.9985119988769191 -0.008455101232565494 0.00011096401542310458 0.0016268824028309384 -0.00010329770258957343 -0.0010350758272602803
 0.9985119988769191 -0.008455101232565494 0.0013988270950223533 0.0033805284306740215 -0.00010329191951987257 -0.0010350750012506286 0.000110687550497494 0.001626923277934282
 0.00011096401542310458 0.0016268824028309384 -0.00010329191951987257 -0.0010350750012506286 0.0013987589570502554 0.0033802910895693607 0.9985119967701683 -0.00845535211764686
 -0.00010329770258957343 -0.0010350758272602803 0.000110687550497494 0.001626923277934282 0.9985119967701683 -0.00845535211764686 0.0013988257022853198 0.0033802772018191474
0.02501042100875 0.0015207513618824124 0.004541139897690356 0.9983544890254379 -0.011288410487286552 0.00014228980156076625 0.0021708036838755267 -0.00013069278057477207 -0.001382881007772476
 0.9983544890254379 -0.011288410487286552 0.00152086739926443 0.004541120469591142 -0.00013068255730471103 -0.0013828800497164926 0.00014179886382110818 0.0021708667169779905
 0.00014228980156076625 0.0021708036838755267 -0.00013068255730471103 -0.0013828800497164926 0.001520746771288631 0.004540806350545985 0.9983544856555929 -0.011288744803170452
 -0.00013069278057477207 -0.001382881007772476 0.00014179886382110818 0.0021708667169779905 0.9983544856555929 -0.011288744803170452 0.001520865320854595 0.0045407856527782
0.03126302626094 0.0016499450239625 0.005715908060444924 0.9981869434648923 -0.014131699274259182 0.00017761502397947384 0.002715635019677714 -0.0001614064394276863 -0.0017318665153903663
 0.9981869434648923 -0.014131699274259182 0.001650126135347303 0.005715881212680325 -0.00016139053890539172 -0.001731865514436412 0.00017684844902361949 0.002715725344107415
 0.00017761502397947384 0.002715635019677714 -0.00016139053890539172 -0.001731865514436412 0.001649938182742464 0.005715491536296737 0.9981869385533664 -0.014132116988858433
 -0.0001614064394276863 -0.0017318665153903663 0.00017684844902361949 0.002715725344107415 0.9981869385533664 -0.014132116988858433 0.0016501232756518022 0.005715462834517248
0.037515631513130004 0.0017865051345307395 0.006904369150415585 0.9980092180605262 -0.016985320469020317 0.00021698597036210506 0.0032613644232403266 -0.00019548743328202413 -0.002081973524941471
 0.9980092180605262 -0.016985320469020317 0.001786765680913216 0.0069043337477491485 -0.00019546462724290165 -0.002081972581021778 0.00021588251219812376 0.0032614876931335943
 0.00021698597036210506 0.0032613644232403266 -0.00019546462724290165 -0.002081972581021778 0.0017864955913441765 0.0069038697911471365 0.9980092113264984 -0.016985821565474644
 -0.00019548743328202413 -0.002081973524941471 0.00021588251219812376 0.0032614876931335943 0.9980092113264984 -0.016985821565474644 0.001786761950544184 0.006903831829137409
0.043768236765320004 0.0019305922636769128 0.008106185311691681 0.997821166095297 -0.019849484188814753 0.0002604489556514968 0.0038079705561959686 -0.00023298405021429498 -0.002433150594921544
 0.997821166095297 -0.019849484188814753 0.0019309465798986165 0.008106140163758997 -0.00023295311849241395 -0.0024331498188272117 0.0002589472685472256 0.003808132951739339
 0.0002604489556514968 0.0038079705561959686 -0.00023295311849241395 -0.0024331498188272117 0.0019305795627003674 0.008105603275427678 0.9978211572577715 -0.01985006865103127
 -0.00023298405021429498 -0.002433150594921544 0.0002589472685472256 0.003808132951739339 0.9978211572577715 -0.01985006865103127 0.001930941897229614 0.008105554734371157
0.050020842017509996 0.0020823659218244745 0.009321096185597627 0.9976226391034381 -0.022724319255895412 0.00030805021740524396 0.004355426378957788 -0.00027394417514536986 -0.0027853500056966092
 0.9976226391034381 -0.022724319255895412 0.002082828318103943 0.009321040046768465 -0.000273903905212572 -0.0027853495191193242 0.00030608884508072267 0.004355634612129112
 0.00030805021740524396 0.004355426378957788 -0.000273903905212572 -0.0027853495191193242 0.002082349603746609 0.009320431632582126 0.9976226278814714 -0.022724987082869668
 -0.00027394417514536986 -0.0027853500056966092 0.00030608884508072267 0.004355634612129112 0.9976226278814714 -0.022724987082869668 0.002082822610389761 0.009320371130764721
0.055454545454549996 0.002220627624500356 0.010387358726201949 0.997441489856334 -0.025231365766206767 0.00035281374509352323 0.004831848165021825 -0.00031238946325555836 -0.003092216638750964
 0.997441489856334 -0.025231365766206767 0.002221195549665829 0.010387291981288587 -0.0003123400991814803 -0.003092216511109532 0.0003504028918983747 0.004832102100952365
 0.00035281374509352323 0.004831848165021825 -0.0003123400991814803 -0.003092216511109532 0.0022206077863233063 0.01038662260332042 0.997441476332822 -0.025232106042831732
 -0.00031238946325555836 -0.003092216638750964 0.0003504028918983747 0.004832102100952365 0.997441476332822 -0.025232106042831732 0.0022211888971912434 0.01038655053602758
0.056273447269699996 0.0022419849723740873 0.010548888706715063 0.9974134873399743 -0.02560990336025096 0.0003598358483221665 0.004903700933926681 -0.0003184153162427534 -0.0031385259649702574
 0.9974134873399743 -0.02560990336025096 0.0022425697361553713 0.010548820275920193 -0.0003183645029736706 -0.0031385259005586356 0.0003573532178367241 0.004903962254488637
 0.0003598358483221665 0.004903700933926681 -0.0003183645029736706 -0.0031385259005586356 0.0022419645730653143 0.010548141808620608 0.9974134734510065 -0.025610654556960766
 -0.0003184153162427534 -0.0031385259649702574 0.0003573532178367241 0.004903962254488637 0.9974134734510065 -0.025610654556960766 0.002242562937339435 0.010548067901099816
0.06252605252188 0.0024096078662706488 0.011789380501161665 0.9971935600743137 -0.02850627961991184 0.00041585174528571114 0.0054527603301911184 -0.0003664446152623192 -0.0034926336122184857
 0.9971935600743137 -0.02850627961991184 0.002410329263276993 0.011789298421691788 -0.00036638206068998613 -0.0034926341136120925 0.0004127861635820941 0.00545308253182428
 0.00041585174528571114 0.0054527603301911184 -0.00036638206068998613 -0.0034926341136120925 0.002409582918521339 0.011788551439549804 0.9971935432357294 -0.028507114199047744
 -0.0003664446152623192 -0.0034926336122184857 0.0004127861635820941 0.00545308253182428 0.9971935432357294 -0.028507114199047744 0.002410321316105805 0.011788462617793094
0.06877865777407 0.0025853927848558385 0.013042409993564886 0.9969627057923565 -0.03141346643282148 0.000476143568915218 0.006002568323901531 -0.0004180788470262965 -0.003847628428010638
 0.9969627057923565 -0.03141346643282148 0.0025862650599261564 0.013042312852885256 -0.00041800336019748286 -0.0038476296498881155 0.0004724332212867413 0.006002959750409847
 0.000476143568915218 0.006002568323901531 -0.00041800336019748286 -0.0038476296498881155 0.002585362817029736 0.013041498963973242 0.9969626857198981 -0.03141438441091768
 -0.0004180788470262965 -0.003847628428010638 0.0004724332212867413 0.006002959750409847 0.9969626857198981 -0.03141438441091768 0.002586255914370253 0.01304139365546529
0.07503126302626001 0.0027694977223377136 0.014307830129989605 0.996720772340788 -0.034331463713129146 0.0005407567091098247 0.006553086681193124 -0.0004733644123122446 -0.004203465861420676
 0.996720772340788 -0.034331463713129146 0.0027705351006956504 0.014307716459544092 -0.00047327480924362115 -0.004203467969536205 0.0005363396594422103 0.006553556232747854
 0.0005407567091098247 0.006553086681193124 -0.00047327480924362115 -0.004203467969536205 0.002769462259785445 0.014306837339059898 0.9967207487492927 -0.034332465113597395
 -0.0004733644123122446 -0.004203465861420676 0.0005363396594422103 0.006553556232747854 0.9967207487492927 -0.034332465113597395 0.0027705247148906847 0.014306713907000028
0.08128386827845 0.0029620805373546453 0.015585504202581505 0.9964676070406538 -0.037260257026398264 0.00060973625390809 0.007104275425432559 -0.0005323473273362939 -0.004560101073789967
 0.9964676070406538 -0.037260257026398264 0.0029632972254474378 0.015585372477496312 -0.0005322424309344807 -0.004560104245010877 0.0006045504456859526 0.007104832564849316
 0.00060973625390809 0.007104275425432559 -0.0005322424309344807 -0.004560104245010877 0.0029620391017738533 0.015584429868891116 0.9964675796433843 -0.03726134187889718
 -0.0005323473273362939 -0.004560101073789967 0.0006045504456859526 0.007104832564849316 0.9964675796433843 -0.03726134187889718 0.002963285565068863 0.015584286611720736
0.08753647353064001 0.0031632989800577413 0.016875302961163383 0.9962030567781034 -0.0401998204382752 0.0006831269607900825 0.007656092999616965 -0.0005950732099407164 -0.00491748876808972
 0.9962030567781034 -0.0401998204382752 0.0031647091662629374 0.01687515160008787 -0.0005949518499659068 -0.004917493190433054 0.0006771102191956228 0.007656747758620021
 0.0006831269607900825 0.007656092999616965 -0.0005949518499659068 -0.004917493190433054 0.0031632510903847233 0.01687414731560857 0.9962030252869676 -0.04020098877857631
 -0.0005950732099407164 -0.00491748876808972 0.0006771102191956228 0.007656747758620021 0.9962030252869676 -0.04020098877857631 0.0031646962053278826 0.016873982466627642
0.09378907878283 0.0033733107042243932 0.018177102545880754 0.9959269680814092 -0.043150118543079694 0.0007609732293970734 0.008208496385965157 -0.0006615872639782122 -0.0052755830618352855
 0.9959269680814092 -0.043150118543079694 0.0033749285597664846 0.018176929910685036 -0.0006614482770617839 -0.005275588934502747 0.0007540632639566675 0.008209259371476894
 0.0007609732293970734 0.008208496385965157 -0.0006614482770617839 -0.005275588934502747 0.003373255876350195 0.018175865834176564 0.9959269322065857 -0.04315137041059509
 -0.0006615872639782122 -0.0052755830618352855 0.0007540632639566675 0.008209259371476894 0.9959269322065857 -0.04315137041059509 0.0033749142799650842 0.018175677561173654
0.100041684035 0.00359227326859621 0.019490782974191757 0.9956391871884399 -0.04611110793857464 0.0008433190752412457 0.008761441189658268 -0.0007319342619976012 -0.005634337396705487
 0.9956391871884399 -0.04611110793857464 0.0035941129483239975 0.01949058736967229 -0.0007317764916467029 -0.005634344930113799 0.0008354534832590049 0.008762323590035079
 0.0008433190752412457 0.008761441189658268 -0.0007317764916467029 -0.005634344930113799 0.0035922110158750405 0.01948946545342619 0.9956391466381513 -0.046112443380103625
 -0.0007319342619976012 -0.005634337396705487 0.0008354534832590049 0.008762323590035079 0.9956391466381513 -0.046112443380103625 0.00359409733942113 0.01948925185821193
0.1059090909091 0.003806027363954028 0.02073423374437162 0.9953583642472998 -0.04889936133160161 0.0009247230823501389 0.00928077295740072 -0.0008014729670762833 -0.005971548460109611
 0.9953583642472998 -0.04889936133160161 0.0038080880617788896 0.020734014992742095 -0.0008012965247861313 -0.005971557753342729 0.0009159038849086945 0.00928177811506422
 0.0009247230823501389 0.00928077295740072 -0.0008012965247861313 -0.005971557753342729 0.003805957699225013 0.020732840639317133 0.9953583190429238 -0.04890077524526836
 -0.0008014729670762833 -0.005971548460109611 0.0009159038849086945 0.00928177811506422 0.9953583190429238 -0.04890077524526836 0.0038080712037165338 0.020732601496325446
0.1062942892872 0.003820344129172699 0.020816226998718716 0.9953395601059171 -0.04908273833088872 0.0009302081040431288 0.009314881704945745 -0.0008061585269464631 -0.00599370446659277
 0.9953395601059171 -0.04908273833088872 0.0038224197721295154 0.02081600667234663 -0.0008059808235508952 -0.005993713882412792 0.0009213243742598507 0.009315895296215317
 0.0009302081040431288 0.009314881704945745 -0.0008059808235508952 -0.005993713882412792 0.00382027396274781 0.020814828939444883 0.9953395145869295 -0.0490841573986848
 -0.0008061585269464631 -0.00599370446659277 0.0009213243742598507 0.009315895296215317 0.9953395145869295 -0.0490841573986848 0.003822402832260866 0.020814588057384446
0.11254689453939999 0.004057680627165253 0.022153319226408924 0.995027932666555 -0.05206495337888306 0.0010216834865058352 0.00986877096057682 -0.0008843039125519377 -0.006353636167245307
 0.995027932666555 -0.05206495337888306 0.004060006357672104 0.022153072367986987 -0.0008841051334653922 -0.006353647698420573 0.0010117190034666529 0.009869928112635686
 0.0010216834865058352 0.00986877096057682 -0.0008841051334653922 -0.006353647698420573 0.004057602055880779 0.022151840914715025 0.995027881883107 -0.052066456128664146
 -0.0008843039125519377 -0.006353636167245307 0.0010117190034666529 0.009869928112635686 0.995027881883107 -0.052066456128664146 0.004059988092670152 0.022151570714302002
0.11879949979160001 0.004304439970363094 0.023501945443717937 0.9947041505797317 -0.055057691333515 0.0011177879332698864 0.010423060759378294 -0.0009664137832754299 -0.006714083552629117
 0.9947041505797317 -0.055057691333515 0.004307029898473174 0.023501670185050567 -0.0009661927928182501 -0.006714097443413879 0.0011066799818600932 0.010424374442161129
 0.0011177879332698864 0.010423060759378294 -0.0009661927928182501 -0.006714097443413879 0.0043043525011947975 0.023500387177574335 0.9947040942338685 -0.055059277828369294
 -0.0009664137832754299 -0.006714083552629117 0.0011066799818600932 0.010424374442161129 0.9947040942338685 -0.055059277828369294 0.0043070103225245435 0.023500085559888532
0.1250521050438 0.00456077921219466 0.024861992068527718 0.9943680594817129 -0.05806088555143557 0.001218563670052505 0.010977701706954925 -0.0010525309932838637 -0.007074996803126407
 0.9943680594817129 -0.05806088555143557 0.004563647434418144 0.02486168648307386 -0.0010522866628269838 -0.007075013309103447 0.0012062494404802488 0.010979185496549835
 0.001218563670052505 0.010977701706954925 -0.0010522866628269838 -0.007075013309103447 0.004560682350554732 0.024860354161909168 0.9943679972731287 -0.058062555857728224
 -0.0010525309932838637 -0.007074996803126407 0.0012062494404802488 0.010979185496549835 0.9943679972731287 -0.058062555857728224 0.004563626569923079 0.02486001896019129
0.131304710296 0.004826855227016307 0.026233345712481978 0.9940195049829482 -0.06107446489902726 0.0013240524128109842 0.011532643235282511 -0.0011426978649611047 -0.007436325199780164
 0.9940195049829482 -0.06107446489902726 0.004830015827188607 0.026233007814986553 -0.00114242907297571 -0.007436344587897009 0.0013104690058880816 0.011534311320041884
 0.0013240524128109842 0.011532643235282511 -0.00114242907297571 -0.007436344587897009 0.0048267484769700456 0.0262316284921693 0.9940194366089223 -0.0610762190899032
 -0.0011426978649611047 -0.007436325199780164 0.0013104690058880816 0.011534311320041884 0.9940194366089223 -0.0610762190899032 0.004829993704865594 0.02623125747123189
0.1375573155481 0.005032475359927814 0.027436792556223652 0.9937286954809522 -0.06391921874310812 0.0014184793214431063 0.012069237100632138 -0.0012211545304723229 -0.007779415418635036
 0.9937286954809522 -0.06391921874310812 0.005035943806662339 0.027436429509097197 -0.0012208597926436397 -0.0077794376460621735 0.0014035902957825058 0.012071083764203587
 0.0014184793214431063 0.012069237100632138 -0.0012208597926436397 -0.0077794376460621735 0.00503235887990274 0.027434995996753357 0.9937286206650786 -0.06392105684669294
 -0.0012211545304723229 -0.007779415418635036 0.0014035902957825058 0.012071083764203587 0.9937286206650786 -0.06392105684669294 0.005035919755283556 0.027434596700394446
0.1438099208003 0.005244972843518102 0.028635346881075496 0.9934282893428747 -0.06675822036516348 0.0015167017143235008 0.01260447557263015 -0.0013027471998927585 -0.008121265223601813
 0.9934282893428747 -0.06675822036516348 0.005248763427691182 0.028634957406286046 -0.0013024253394140165 -0.008121290543241354 0.0015004488483324704 0.012606513508914603
 0.0015167017143235008 0.01260447557263015 -0.0013024253394140165 -0.008121290543241354 0.005244846254056677 0.028633471283670896 0.9934282077841067 -0.06676014245217277
 -0.0013027471998927585 -0.008121265223601813 0.0015004488483324704 0.012606513508914603 0.9934282077841067 -0.06676014245217277 0.005248737362409722 0.02863304224442342
0.1500625260525 0.005464289081879718 0.02982895150129235 0.9931183474382799 -0.06959144286496928 0.0016186946259409989 0.013138331398762292 -0.0013874516517784162 -0.008461847921135666
 0.9931183474382799 -0.06959144286496928 0.0054684160947178545 0.029828534260942667 -0.001387101494234564 -0.008461876595810639 0.001601019922791402 0.013140573759325161
 0.0016186946259409989 0.013138331398762292 -0.001387101494234564 -0.008461876595810639 0.005464152010154871 0.029826997180150003 0.9931182588336539 -0.06959344900715263
 -0.0013874516517784162 -0.008461847921135666 0.001601019922791402 0.013140573759325161 0.9931182588336539 -0.06959344900715263 0.005468387930141486 0.029826536864993786
0.15631513130469998 0.005690365243979635 0.031017551259191378 0.99279893074475 -0.0724188586686668 0.0017244329030700618 0.013670777651840613 -0.0014752434653419629 -0.008801137300690527
