! Created with skrf 1.8.0 (http://scikit-rf.org).
# GHz S RI R 50.0 
!freq ReS11 ImS11 ReS12 ImS12 ReS13 ImS13
! ReS14 ImS14
! ReS21 ImS21 ReS22 ImS22 ReS23 ImS23
! ReS24 ImS24
! ReS31 ImS31 ReS32 ImS32 ReS33 ImS33
! ReS34 ImS34
! ReS41 ImS41 ReS42 ImS42 ReS43 ImS43
! ReS44 ImS44
!
0.0 0.00158363755813 0.0 0.998416362439 0.0 6.120389508849e-05 0.0 -6.120389508971e-05 7.495315421696375e-21
 0.998416362439 0.0 0.001583637558143 0.0 -6.120389508863e-05 7.495315421564113e-21 6.12038950898e-05 0.0
 6.120389508849e-05 0.0 -6.120389508863e-05 7.495315421564113e-21 0.001583637538199 0.0 0.9984163624191 0.0
 -6.120389508971e-05 7.495315421696375e-21 6.12038950898e-05 0.0 0.9984163624191 0.0 0.00158363753827 0.0
0.005 0.0017040076632280348 0.0012944921196137635 0.9982640767768595 -0.003317190320902137 8.58760571921728e-05 0.0006802580844227731 -8.344534395653986e-05 -0.00042591931608974777
 0.9982640767768595 -0.003317190320902137 0.0017039868286042243 0.0012945042499713196 -8.344303555850633e-05 -0.00042591751338523157 8.600518114420101e-05 0.000680208780016715
 8.58760571921728e-05 0.0006802580844227731 -8.344303555850633e-05 -0.00042591751338523157 0.001704008642802811 0.0012944242444392203 0.9982640764133224 -0.0033172573797980807
 -8.344534395653986e-05 -0.00042591931608974777 8.600518114420101e-05 0.000680208780016715 0.9982640764133224 -0.0033172573797980807 0.0017039851322756773 0.0012944380174628285
0.006252605252188 0.001735616337498308 0.001623206571838499 0.9982238348002367 -0.004147293888668714 9.291842666563787e-05 0.0008506487693859163 -8.97410838756399e-05 -0.0005329489093710936
 0.9982238348002367 -0.004147293888668714 0.0017355837699895027 0.0016232220277702745 -8.973749204426528e-05 -0.0005329466861551695 9.312016903191538e-05 0.0008505847626755061
 9.291842666563787e-05 0.0008506487693859163 -8.973749204426528e-05 -0.0005329466861551695 0.0017356179454686446 0.0016231217333407535 0.9982238343080952 -0.004147377706723966
 -8.97410838756399e-05 -0.0005329489093710936 9.312016903191538e-05 0.0008505847626755061 0.9982238343080952 -0.004147377706723966 0.0017355811942416787 0.0016231392524592486
0.01250521050438 0.0019022392275211697 0.0032803949253862527 0.9980103066016639 -0.008295355949680953 0.00013327285809922658 0.0017016398595369306 -0.0001255488165166563 -0.0010684626679985005
 0.9980103066016639 -0.008295355949680953 0.0019021091953153038 0.003280428788903757 -0.00012553466424568955 -0.001068458552721399 0.00013407730997951569 0.0017014861495980237
 0.00013327285809922658 0.0017016398595369306 -0.00012553466424568955 -0.001068458552721399 0.0019022462139988581 0.0032802254857367315 0.9980103051915942 -0.008295523367006424
 -0.0001255488165166563 -0.0010684626679985005 0.00013407730997951569 0.0017014861495980237 0.9980103051915942 -0.008295523367006424 0.0019020994634632532 0.0032802635994244886
0.01875781575657 0.0020838778260117412 0.004961129368595585 0.9977755066677823 -0.012454273625767441 0.00018236355052803603 0.0025535460007450593 -0.00016873902089528672 -0.0016057564368062737
 0.9977755066677823 -0.012454273625767441 0.002083585656528176 0.004961184784371436 -0.00016870746477452077 -0.0016057508253182072 0.00018417054820813952 0.0025532717299556525
 0.00018236355052803603 0.0025535460007450593 -0.00016870746477452077 -0.0016057508253182072 0.002083893969521121 0.004960875438391848 0.9977755039206958 -0.012454524593145255
 -0.00016873902089528672 -0.0016057564368062737 0.00018417054820813952 0.0025532717299556525 0.9977755039206958 -0.012454524593145255 0.0020835642090123695 0.004960937490645539
0.02501042100875 0.0022808923368547998 0.006663045379296158 0.9975191529196592 -0.016626051687562673 0.00024028739613164325 0.0034064001633041076 -0.00021941982738088103 -0.002144578730843588
 0.9975191529196592 -0.016626051687562673 0.002280373500555235 0.006663125665423208 -0.00021936410718137637 -0.0021445720906276325 0.00024349685739234161 0.0034059694930942304
 0.00024028739613164325 0.0034064001633041076 -0.00021936410718137637 -0.0021445720906276325 0.0022809214160431856 0.006662707062867682 0.9975191484073846 -0.016626386206791296
 -0.00021941982738088103 -0.002144578730843588 0.00024349685739234161 0.0034059694930942304 0.9975191484073846 -0.016626386206791296 0.0022803357796880746 0.006662796643205801
0.03126302626094 0.0024936280827913904 0.008384920499880086 0.9972409491802982 -0.020811541301851068 0.0003071414120624687 0.004260156077150752 -0.00027769620248118375 -0.002684751030075672
 0.9972409491802982 -0.020811541301851068 0.0024928181578326614 0.00838502914403623 -0.0002776096270335348 -0.002684743901072387 0.00031215371056067894 0.004259528160374542
 0.0003071414120624687 0.004260156077150752 -0.0002776096270335348 -0.002684743901072387 0.002493673887090257 0.008384497894230406 0.9972409424732462 -0.020811959426989192
 -0.00027769620248118375 -0.002684751030075672 0.00031215371056067894 0.004259528160374542 0.9972409424732462 -0.020811959426989192 0.0024927596153664984 0.008384618834118772
0.037515631513130004 0.0027224228401692228 0.01012595337488977 0.9969405927673217 -0.02501116093105486 0.0003830219101869389 0.0051147360784780885 -0.0003436707037785202 -0.003226119952928898
 0.9969405927673217 -0.02501116093105486 0.0027212574886168123 0.010126094032295774 -0.00034354664386720073 -0.00322611294776237 0.0003902380429846975 0.005113865010254486
 0.0003830219101869389 0.0051147360784780885 -0.00034354664386720073 -0.00322611294776237 0.0027224891676127885 0.010125446591553792 0.9969405834289158 -0.025011662746463086
 -0.0003436707037785202 -0.003226119952928898 0.0003902380429846975 0.005113865010254486 0.9969405834289158 -0.025011662746463086 0.0027211735814915644 0.010125602963168941
0.043768236765320004 0.002967609659917928 0.011885544370812434 0.9966177775692447 -0.029225115641656897 0.00046802409696567284 0.0059700456624332396 -0.00041744374609060974 -0.0037685427147399527
 0.9966177775692447 -0.029225115641656897 0.002966024608874588 0.011885720862951418 -0.0004172756301624745 -0.0037685365187619647 0.00047784576361616234 0.005968880424233246
 0.00046802409696567284 0.0059700456624332396 -0.0004172756301624745 -0.0037685365187619647 0.0029677003218034994 0.011884953533135246 0.9966177651584411 -0.029225701264483553
 -0.00041744374609060974 -0.0037685427147399527 0.00047784576361616234 0.005968880424233246 0.9966177651584411 -0.029225701264483553 0.002965910803436011 0.011885149649115693
0.050020842017509996 0.003229518181322993 0.013663204906813173 0.996272195616084 -0.03345348770010316 0.0005622418260878664 0.006825979498099859 -0.0004991136928605422 -0.004311881123909122
 0.996272195616084 -0.03345348770010316 0.003227449205660416 0.013663421220828764 -0.0004988950043259503 -0.004311876495199207 0.000575071460570526 0.006824463899078262
 0.0005622418260878664 0.006825979498099859 -0.0004988950043259503 -0.004311876495199207 0.003229637000809733 0.013662530152581407 0.9962721796837373 -0.03345415727746007
 -0.0004991136928605422 -0.004311881123909122 0.000575071460570526 0.006824463899078262 0.9962721796837373 -0.03345415727746007 0.0032273009759147867 0.013662770566397635
0.055454545454549996 0.003470958632992419 0.015222391505517439 0.9959531451404209 -0.03713978429425213 0.000651675776045367 0.0075702311497865766 -0.0005765754667501793 -0.004784696232617387
 0.9959531451404209 -0.03713978429425213 0.0034684169794589968 0.015222645792467154 -0.0005763075781611762 -0.004784693638016847 0.0006674468248498816 0.007568361380630179
 0.000651675776045367 0.0075702311497865766 -0.0005763075781611762 -0.004784693638016847 0.0034711050383561524 0.015221643948143114 0.9959531257769115 -0.03714052697335202
 -0.0005765754667501793 -0.004784696232617387 0.0006674468248498816 0.007568361380630179 0.9959531257769115 -0.03714052697335202 0.0034682351659765264 0.015221926743839691
0.056273447269699996 0.0035084752963413955 0.015458512950642114 0.9959035380053219 -0.037696281005367226 0.0006657674172946105 0.007682424380170829 -0.0005887768701755084 -0.004855998644043979
 0.9959035380053219 -0.037696281005367226 0.0035058582037995447 0.015458773239080358 -0.0005885011456172733 -0.004855996413367633 0.0006820081917894385 0.007680496997286994
 0.0006657674172946105 0.007682424380170829 -0.0005885011456172733 -0.004855996413367633 0.0035086261109727648 0.01545775443131741 0.9959035180943948 -0.03769703471476776
 -0.0005887768701755084 -0.004855998644043979 0.0006820081917894385 0.007680496997286994 0.9959035180943948 -0.03769703471476776 0.0035056710336964325 0.015458043938194409
0.06252605252188 0.0038048055044800776 0.017271088551438194 0.9955114955206108 -0.04195344548811731 0.0007786915087101841 0.00853926085758132 -0.0006865275408661916 -0.005400758783017737
 0.9955114955206108 -0.04195344548811731 0.003801576120394911 0.017271397132558812 -0.0006861883688130917 -0.005400759853771253 0.0007987473184308266 0.00853685497524419
 0.0007786915087101841 0.00853926085758132 -0.0006861883688130917 -0.005400759853771253 0.0038049921669437883 0.017270246432526934 0.9955114711648347 -0.04195428353660371
 -0.0006865275408661916 -0.005400758783017737 0.0007987473184308266 0.00853685497524419 0.9955114711648347 -0.04195428353660371 0.003801345504773101 0.01727059007084373
0.06877865777407 0.00411883109323904 0.019100579253544123 0.9950957590813598 -0.04622489163300341 0.0009011029274261609 0.009396364205293146 -0.0007924578556440927 -0.005946024143351334
 0.9950957590813598 -0.04622489163300341 0.00411492524690563 0.01910094061191385 -0.0007920488757908484 -0.0059460294915054356 0.0009253783623221433 0.009393407754944277
 0.0009011029274261609 0.009396364205293146 -0.0007920488757908484 -0.0059460294915054356 0.00411905747240488 0.019099653717127234 0.995095729804102 -0.0462258142543613
 -0.0007924578556440927 -0.005946024143351334 0.0009253783623221433 0.009393407754944277 0.995095729804102 -0.0462258142543613 0.004114646692522318 0.019100056770163694
0.07503126302626001 0.0044508722165541685 0.020946650857234538 0.9946560200930422 -0.05051049965929192 0.0010330885702591664 0.010253605049118424 -0.0009066577909375462 -0.006491655824449613
 0.9946560200930422 -0.05051049965929192 0.004446225726483177 0.02094706964495872 -0.000906172693555126 -0.006491666498468443 0.0010619888766030346 0.010250020549079497
 0.0010330885702591664 0.010253605049118424 -0.000906172693555126 -0.006491666498468443 0.004451142198557133 0.02094564209684382 0.9946559854067577 -0.050511507118618494
 -0.0009066577909375462 -0.006491655824449613 0.0010619888766030346 0.010250020549079497 0.9946559854067577 -0.050511507118618494 0.00444589475384368 0.020946110095141766
0.08128386827845 0.004801246910151518 0.022808981259800725 0.9941919707399044 -0.054810125626682416 0.0011747332917118037 0.011110849785696953 -0.0010292150766416268 -0.007037513034885538
 0.9941919707399044 -0.054810125626682416 0.0047957955702681585 0.022809462298079126 -0.0010286476022754642 -0.007037530155653471 0.0012086643260021308 0.011106554281403868
 0.0011747332917118037 0.011110849785696953 -0.0010286476022754642 -0.007037530155653471 0.004801564399056176 0.02280788948580618 0.9941919301441668 -0.05481121821438915
 -0.0010292150766416268 -0.007037513034885538 0.0012086643260021308 0.011106554281403868 0.9941919301441668 -0.05481121821438915 0.00479540771455758 0.02280842820988742
0.08753647353064001 0.005170271062891214 0.02468725621314648 0.9937033042360546 -0.059123605630375296 0.0013261197955648724 0.011967960881014482 -0.001160215118101269 -0.007583452831559105
 0.9937033042360546 -0.059123605630375296 0.005163950628982225 0.024687804494319957 -0.0011595590574761776 -0.007583477592279894 0.0013654879722138932 0.011962865885830848
 0.0013261197955648724 0.011967960881014482 -0.0011595590574761776 -0.007583477592279894 0.005170639982367288 0.024686081646453185 0.9937032572173135 -0.05912478366798434
 -0.001160215118101269 -0.007583452831559105 0.0013654879722138932 0.011962865885830848 0.9937032572173135 -0.05912478366798434 0.005163501441762289 0.024686697130071947
0.09378907878283 0.005558258360524092 0.026581166283208117 0.9931897150533072 -0.06345075880075472 0.0014873285296272793 0.012824797090274764 -0.0012997409133241196 -0.008129329943129381
 0.9931897150533072 -0.06345075880075472 0.0055510045358196855 0.026581786973318734 -0.001298990107232584 -0.008129363609234523 0.001532540763240842 0.012818808526987469
 0.0014873285296272793 0.012824797090274764 -0.001298990107232584 -0.008129363609234523 0.0055586826543203936 0.026579909157484774 0.9931896610833705 -0.06345202263792611
 -0.0012997409133241196 -0.008129329943129381 0.001532540763240842 0.012818808526987469 0.9931896610833705 -0.06345202263792611 0.005550489586693439 0.026580607691265017
0.100041684035 0.005965520206214856 0.02849040462634007 0.9926508991293895 -0.06779138949241742 0.0016584375820379881 0.013681213628242133 -0.0014478729669482836 -0.008674996648765677
 0.9926508991293895 -0.06779138949241742 0.005957268627362015 0.02849110306819541 -0.0014470213063444335 -0.008675040557803843 0.0017099012252236008 0.013674231771367545
 0.0016584375820379881 0.013681213628242133 -0.0014470213063444335 -0.008675040557803843 0.005966003839023715 0.02848906519199514 0.9926508376642788 -0.0677927395023173
 -0.0014478729669482836 -0.008674996648765677 0.0017099012252236008 0.013674231771367545 0.9926508376642788 -0.0677927395023173 0.0059566835053117 0.028489853327705875
0.1059090909091 0.006365497552754012 0.03029569069554205 0.9921220646931505 -0.07187668285306936 0.0018280769097052958 0.01448435606735862 -0.0015947759326363903 -0.009186721805919933
 0.9921220646931505 -0.07187668285306936 0.006356251078606071 0.030296467118944848 -0.0015938241195290585 -0.009186776607484671 0.0018857776525365542 0.014476346329205084
 0.0018280769097052958 0.01448435606735862 -0.0015938241195290585 -0.009186776607484671 0.006366040494940461 0.030294274256940982 0.9921219956851554 -0.0718781140955413
 -0.0015947759326363903 -0.009186721805919933 0.0018857776525365542 0.014476346329205084 0.9921219956851554 -0.0718781140955413 0.006355596113809952 0.030295152670075202
0.1062942892872 0.006392365625926509 0.03041466532850256 0.992086554064371 -0.0721452889173573 0.0018395225790181434 0.01453706230540004 -0.0016046892015493914 -0.009220302696981009
 0.992086554064371 -0.0721452889173573 0.006383051849456129 0.030415447045222123 -0.0016037306277443355 -0.009220358258496566 0.001897645356296798 0.014528981724334426
 0.0018395225790181434 0.01453706230540004 -0.0016037306277443355 -0.009220358258496566 0.006392912585152668 0.030413243843254188 0.9920864845437105 -0.07214672550528724
 -0.0016046892015493914 -0.009220302696981009 0.001897645356296798 0.014528981724334426 0.9920864845437105 -0.07214672550528724 0.006382392164853829 0.030414128398508208
0.11254689453939999 0.006839101163242418 0.03235364212478205 0.9914963793099175 -0.07651223640489266 0.0020306565836220617 0.015392191641123711 -0.0017702648671095729 -0.009765095253581747
 0.9914963793099175 -0.07651223640489266 0.006828660651060822 0.03235451282385639 -0.0017691933719681686 -0.009765163948985548 0.002095846521704159 0.015382901144276512
 0.0020306565836220617 0.015392191641123711 -0.0017691933719681686 -0.009765163948985548 0.006839715459159024 0.03235213885803162 0.9914963011551977 -0.07651376000296645
 -0.0017702648671095729 -0.009765095253581747 0.002095846521704159 0.015382901144276512 0.9914963011551977 -0.07651376000296645 0.006827922036840424 0.032353126921517476
0.11879949979160001 0.007306030762829629 0.03430702741334083 0.9908800763493392 -0.08089200037393574 0.0022319099950193684 0.016246446961640338 -0.0019446724491160212 -0.01030921887100313
 0.9908800763493392 -0.08089200037393574 0.007294398867651592 0.03430799299136231 -0.0019434820753151127 -0.010309302253446234 0.0023045753497863528 0.016235829541587997
 0.0022319099950193684 0.016246446961640338 -0.0019434820753151127 -0.010309302253446234 0.007306716429859864 0.03430544264627827 0.9908799889631279 -0.08089361144021742
 -0.0019446724491160212 -0.01030921887100313 0.0023045753497863528 0.016235829541587997 0.9908799889631279 -0.08089361144021742 0.0072935769815273156 0.0343065415835937
0.1250521050438 0.007793455647160046 0.036274511483645404 0.9902373488757023 -0.08528433909910929 0.0024433504484773837 0.017099670487890253 -0.0021279815753901857 -0.01085251547405702
 0.9902373488757023 -0.08528433909910929 0.007780567598870317 0.036275578031388846 -0.002126666416785894 -0.010852615168243223 0.002523899629274112 0.01708760326762681
 0.0024433504484773837 0.017099670487890253 -0.002126666416785894 -0.010852615168243223 0.007794216744861919 0.036272845506720386 0.9902372516403742 -0.08528603811899163
 -0.0021279815753901857 -0.01085251547405702 0.002523899629274112 0.01708760326762681 0.9902372516403742 -0.08528603811899163 0.007779658124733257 0.03627406296664863
0.131304710296 0.008301674187697176 0.0382557818900241 0.98956790296513 -0.089689001338448 0.0026650427158881676 0.017951701415168428 -0.002320258922202678 -0.011394824360295796
 0.98956790296513 -0.089689001338448 0.008287465078450552 0.03825695569833704 -0.002318813124163964 -0.011394942062365833 0.002753884206772562 0.017938055595571496
 0.0026650427158881676 0.017951701415168428 -0.002318813124163964 -0.011394942062365833 0.008302514801589143 0.038254035002251094 0.9895677952417017 -0.08969078882442988
 -0.002320258922202678 -0.011394824360295796 0.002753884206772562 0.017938055595571496 0.9895677952417017 -0.08969078882442988 0.008286463728370635 0.03825537892371556
0.1375573155481 0.008716120979178265 0.03999221138545652 0.9889863588766636 -0.09384727373496735 0.0028690475147752858 0.018776598999791522 -0.0024934729744687614 -0.011910299363620792
 0.9889863588766636 -0.09384727373496735 0.008700519588635483 0.039993470669964594 -0.002491887763922819 -0.011910435248165466 0.002966390825743847 0.018761391446997875
 0.0028690475147752858 0.018776598999791522 -0.002491887763922819 -0.011910435248165466 0.008717044340943048 0.03999038389842284 0.9889862401711665 -0.09384915000869846
 -0.0024934729744687614 -0.011910299363620792 0.002966390825743847 0.018761391446997875 0.9889862401711665 -0.09384915000869846 0.008699422678376865 0.039991833831098854
0.1438099208003 0.009145208432611667 0.04171921164432176 0.9883842680345809 -0.09799472268622629 0.0030812693153325324 0.019598059729019575 -0.002673607537441485 -0.012422559891017254
 0.9883842680345809 -0.09799472268622629 0.009128148684516738 0.04172056091991442 -0.002671876608614671 -0.012422715632402251 0.003187487096497906 0.01958117227407323
 0.0030812693153325324 0.019598059729019575 -0.002671876608614671 -0.012422715632402251 0.00914621851215176 0.04171730390406192 0.9883841377068875 -0.09799668825157927
 -0.002673607537441485 -0.012422559891017254 0.003187487096497906 0.01958117227407323 0.9883841377068875 -0.09799668825157927 0.009126952074593034 0.04171886602613738
0.1500625260525 0.009588781907033151 0.04343662979621716 0.9877617894830489 -0.10213123662212971 0.003301631963184077 0.020415996798011517 -0.002860587295652519 -0.01293152162085198
 0.9877617894830489 -0.10213123662212971 0.009570197553192609 0.04343807385439427 -0.002858704357107405 -0.012931698960789318 0.003417094638766156 0.020397306937167476
 0.003301631963184077 0.020415996798011517 -0.002858704357107405 -0.012931698960789318 0.009589882689909731 0.043434642159488564 0.9877616468747296 -0.1021332920036978
 -0.002860587295652519 -0.01293152162085198 0.003417094638766156 0.020397306937167476 0.9877616468747296 -0.1021332920036978 0.009568897138030885 0.04343632299296139
0.15631513130469998 0.010046685617077281 0.045144317548097876 0.9871190831289995 -0.10625670455035743 0.003530058378059976 0.02123032494595376 -0.0030543359781202064 -0.013437102058357235
