! Created with skrf 1.8.0 (http://scikit-rf.org).
# GHz S RI R 50.0 
!freq ReS11 ImS11 ReS12 ImS12 ReS13 ImS13
! ReS14 ImS14
! ReS21 ImS21 ReS22 ImS22 ReS23 ImS23
! ReS24 ImS24
! ReS31 ImS31 ReS32 ImS32 ReS33 ImS33
! ReS34 ImS34
! ReS41 ImS41 ReS42 ImS42 ReS43 ImS43
! ReS44 ImS44
!
0.0 0.001580130135111 0.0 0.9984198698602 0.0 6.1104748967e-05 0.0 -6.110474847325e-05 7.483173463046973e-21
 0.9984198698602 0.0 0.001580130135082 0.0 -6.110474847235e-05 7.483173462936756e-21 6.110474896668e-05 0.0
 6.1104748967e-05 0.0 -6.110474847235e-05 7.483173462936756e-21 0.001580130137393 0.0 0.9984198698625 0.0
 -6.110474847325e-05 7.483173463046973e-21 6.110474896668e-05 0.0 0.9984198698625 0.0 0.00158013013741 0.0
0.005 0.001700221584638663 0.0012908537215578057 0.998267921099941 -0.003309899737961638 8.592529038679527e-05 0.0006838580872572843 -8.339149245167962e-05 -0.000427372029163839
 0.998267921099941 -0.003309899737961638 0.0017002228908240987 0.0012908529735841281 -8.339394492436368e-05 -0.00042737394046364727 8.591094658388066e-05 0.000683863583410403
 8.592529038679527e-05 0.0006838580872572843 -8.339394492436368e-05 -0.00042737394046364727 0.001700219833090146 0.0012907875113599577 0.9982679207444572 -0.0033099668081238123
 -8.339149245167962e-05 -0.000427372029163839 8.591094658388066e-05 0.000683863583410403 0.9982679207444572 -0.0033099668081238123 0.0017002239385599778 0.001290785050305973
0.006252605252188 0.0017317509936885466 0.0016186484453602702 0.9982277716284158 -0.004138179697769539 9.302951100239638e-05 0.0008551471456485477 -8.969909421437241e-05 -0.0005347679592248283
 0.9982277716284158 -0.004138179697769539 0.0017317530352067396 0.0016186474746708633 -8.970291024868288e-05 -0.000534770316297404 9.300710057865983e-05 0.0008551542783103569
 9.302951100239638e-05 0.0008551471456485477 -8.970291024868288e-05 -0.000534770316297404 0.0017317483189138077 0.0016185657101167351 0.99822777113624 -0.004138263516081926
 -8.969909421437241e-05 -0.0005347679592248283 9.300710057865983e-05 0.0008551542783103569 0.99822777113624 -0.004138263516081926 0.0017317547370828054 0.001618562588482485
0.01250521050438 0.0018979210036663102 0.0032712179712113924 0.9980147541300867 -0.008277135082714668 0.00013384002542579342 0.0017106090073071606 -0.0001255692688436125 -0.0010721162246591408
 0.9980147541300867 -0.008277135082714668 0.001897929151157044 0.003271215679048104 -0.00012558430494692864 -0.0010721205870226637 0.00013375067045546835 0.0017106261111848034
 0.00013384002542579342 0.0017106090073071606 -0.00012558430494692864 -0.0010721205870226637 0.0018979108825015103 0.003271052840998208 0.998014752727019 -0.008277302495304156
 -0.0001255692688436125 -0.0010721162246591408 0.00013375067045546835 0.0017106261111848034 0.998014752727019 -0.008277302495304156 0.0018979365181072269 0.003271046124943421
0.01875781575657 0.002079010451885604 0.004947295292807006 0.9977805472412251 -0.012426932931671297 0.00018363212071852828 0.0025669643360193917 -0.0001688275888424286 -0.0016112513044761376
 0.9977805472412251 -0.012426932931671297 0.002079028750777618 0.004947291332935172 -0.0001688611162391255 -0.0016112572517229665 0.00018343142680923006 0.0025669948191258197
 0.00018363212071852828 0.0025669643360193917 -0.0001688611162391255 -0.0016112572517229665 0.0020789881245768644 0.004947048053666999 0.9977805445078778 -0.012427183863242545
 -0.0001688275888424286 -0.0016112513044761376 0.00018343142680923006 0.0025669948191258197 0.9977805445078778 -0.012427183863242545 0.0020790457440705247 0.0049470371967115494
0.02501042100875 0.002275378266263932 0.006644521409137929 0.9975248699865876 -0.01658957428586093 0.00024250286461841537 0.003424245321049017 -0.0002195825027758969 -0.0021519199732657076
 0.9975248699865876 -0.01658957428586093 0.0022754107482171253 0.006644515440304539 -0.00021964170458805928 -0.0021519270089766845 0.00024214644604747497 0.0034242931393103017
 0.00024250286461841537 0.003424245321049017 -0.00021964170458805928 -0.0021519270089766845 0.002275338982795218 0.0066441923789739375 0.9975248655047627 -0.016589908721908027
 -0.0002195825027758969 -0.0021519199732657076 0.00024214644604747497 0.0034242931393103017 0.9975248655047627 -0.016589908721908027 0.0022754413357356355 0.006644176765489909
0.03126302626094 0.0024873685350046263 0.00836167698956526 0.9972474273396448 -0.02076590903497887 0.0003105496772596952 0.004282403917722104 -0.0002779392691819572 -0.0026939429527391323
 0.9972474273396448 -0.02076590903497887 0.0024874192194004083 0.00836166867624807 -0.00027803125526988046 -0.002693950503632871 0.00030999311960836265 0.004282473576951695
 0.0003105496772596952 0.004282403917722104 -0.00027803125526988046 -0.002693950503632871 0.002487307546741438 0.008361266548116504 0.9972474206850791 -0.020766326992406367
 -0.0002779392691819572 -0.0026939429527391323 0.00030999311960836265 0.004282473576951695 0.9972474206850791 -0.020766326992406367 0.002487467371659633 0.008361245493341713
0.037515631513130004 0.00271531780535501 0.01009796296655662 0.9969479177719582 -0.02495635526285382 0.0003878693802778793 0.005141360296742274 -0.0003440007246233735 -0.0032371664699361504
 0.9969479177719582 -0.02495635526285382 0.002715390701285658 0.010097951979269867 -0.0003441325392317228 -0.0032371738856116893 0.0003870682263870398 0.005141456856922647
 0.0003878693802778793 0.005141360296742274 -0.0003441325392317228 -0.0032371738856116893 0.002715230369124294 0.010097471561556033 0.9969479085174995 -0.02495685678435658
 -0.0003440007246233735 -0.0032371664699361504 0.0003870682263870398 0.005141456856922647 0.9969479085174995 -0.02495685678435658 0.002715460397024049 0.01009744431133108
0.043768236765320004 0.002959557915805482 0.01185278157635295 0.9966260363368818 -0.02916111813555088 0.0004745577411167584 0.006001017584511751 -0.0004178675595410854 -0.003781447523967181
 0.9966260363368818 -0.02916111813555088 0.002959657023677491 0.011852767592137367 -0.00041804618583798616 -0.003781454076838864 0.0004734674872236782 0.006001146664728233
 0.0004745577411167584 0.006001017584511751 -0.00041804618583798616 -0.003781454076838864 0.0029594392949469687 0.011852209724731898 0.9966260240523789 -0.029161703289147505
 -0.0004178675595410854 -0.003781447523967181 0.0004734674872236782 0.006001146664728233 0.9966260240523789 -0.029161703289147505 0.002959752251407175 0.011852175454932506
0.050020842017509996 0.003220417300046277 0.013625645893460986 0.9962814762272888 -0.03338028029412042 0.0005707092008059838 0.0068612679451449735 -0.0004996384106680235 -0.004326647813310312
 0.9962814762272888 -0.03338028029412042 0.003220546612432176 0.013625628596395024 -0.0004998707735527681 -0.0043266526986240825 0.0005692852974655856 0.006861435728767951
 0.0005707092008059838 0.0068612679451449735 -0.0004998707735527681 -0.0043266526986240825 0.003220262763158538 0.013624994185747596 0.9962814604774141 -0.033380949169607516
 -0.0004996384106680235 -0.004326647813310312 0.0005692852974655856 0.006861435728767951 0.9962814604774141 -0.033380949169607516 0.003220671370264961 0.013624952001613963
0.055454545454549996 0.0034608619056674377 0.015180646272531692 0.9959633861974666 -0.037058558965129905 0.0006620251289066642 0.007609243455291342 -0.0005771938631232686 -0.004801083823633126
 0.9959633861974666 -0.037058558965129905 0.0034610207043099216 0.015180625845659067 -0.000577478504814811 -0.004801086546313849 0.0006602750626837662 0.007609450337136823
 0.0006620251289066642 0.007609243455291342 -0.000577478504814811 -0.004801086546313849 0.0034606723188128135 0.015179925705177115 0.9959633670783106 -0.037059300686872285
 -0.0005771938631232686 -0.004801083823633126 0.0006602750626837662 0.007609450337136823 0.9959633670783106 -0.037059300686872285 0.003461174379464251 0.015179875861174075
0.056273447269699996 0.0034982216525881156 0.015416135421364214 0.9959139297000719 -0.03761384619289506 0.0006764166734518218 0.00772199558061667 -0.0005894098796641888 -0.004872630748577383
 0.9959139297000719 -0.03761384619289506 0.003498385155881212 0.015416114502904766 -0.0005897028477156341 -0.004872633084435944 0.0006746145304476596 0.007722208820459057
 0.0006764166734518218 0.00772199558061667 -0.0005897028477156341 -0.004872633084435944 0.0034980264743177127 0.015415404523270644 0.9959139100440315 -0.037614598900957766
 -0.0005894098796641888 -0.004872630748577383 0.0006746145304476596 0.007722208820459057 0.9959139100440315 -0.037614598900957766 0.00349854345209451 0.015415353458646454
0.06252605252188 0.003793294282391236 0.017223871673945665 0.9955230886927977 -0.041861766450465875 0.0007917713899505557 0.008583078370401348 -0.0006872765067055165 -0.005419259830006256
 0.9955230886927977 -0.041861766450465875 0.0037934959576189898 0.017223846833293328 -0.0006876368934414803 -0.0054192586574238035 0.0007895463827384471 0.00858334439381073
 0.0007917713899505557 0.008583078370401348 -0.0006876368934414803 -0.0054192586574238035 0.00379305374502711 0.01722306232706877 0.9955230646836253 -0.04186260312272503
 -0.0006872765067055165 -0.005419259830006256 0.0007895463827384471 0.00858334439381073 0.9955230646836253 -0.04186260312272503 0.0037936918125146555 0.017223001343615846
0.06877865777407 0.004105956293587481 0.01904850362412522 0.9951086452705341 -0.046123952337643735 0.0009168627594390896 0.009444388860349123 -0.000793330724090366 -0.005966397680422568
 0.9951086452705341 -0.046123952337643735 0.004106200118088284 0.01904847456850826 -0.0007937652889043037 -0.005966391963386033 0.0009141702374820301 0.009444715574188444
 0.0009168627594390896 0.009444388860349123 -0.0007937652889043037 -0.005966391963386033 0.004105665687110549 0.01904761664960542 0.9951086164542239 -0.04612487312372401
 -0.000793330724090366 -0.005966397680422568 0.0009141702374820301 0.009444715574188444 0.9951086164542239 -0.04612487312372401 0.004106437563341744 0.019047544635875907
0.07503126302626001 0.0044365266645204375 0.020889698477852978 0.994670291976079 -0.05040028494517458 0.0010517782450795566 0.01030579489615066 -0.0009076627941305241 -0.00651390543864363
 0.994670291976079 -0.05040028494517458 0.004436816612689263 0.020889664922851683 -0.0009081782427386554 -0.006513894064192294 0.0010485735415304703 0.010306190791602438
 0.0010517782450795566 0.01030579489615066 -0.0009081782427386554 -0.006513894064192294 0.004436181287737439 0.02088873477387586 0.9946702578906704 -0.05040129001593299
 -0.0009076627941305241 -0.00651390543864363 0.0010485735415304703 0.010306190791602438 0.9946702578906704 -0.05040129001593299 0.004437099693130414 0.020888650544358102
0.08128386827845 0.00478532226297919 0.022747135537645825 0.994207722119738 -0.054690621267510044 0.0011966032479968868 0.011167160044784597 -0.0010303607374916306 -0.007061642370146065
 0.994207722119738 -0.054690621267510044 0.004785662307741458 0.02274709720732615 -0.0010309637223811503 -0.007061624148442518 0.001192841689786197 0.011167634202016481
 0.0011966032479968868 0.011167160044784597 -0.0010309637223811503 -0.007061624148442518 0.004784917424872088 0.022746096079953006 0.994207682295103 -0.05469171081511733
 -0.0010303607374916306 -0.007061642370146065 0.001192841689786197 0.011167634202016481 0.994207682295103 -0.05469171081511733 0.0047859950814326 0.022745998374116137
0.08753647353064001 0.005152657818541905 0.024620501958350065 0.9937206300304917 -0.058994798399996745 0.001351420994532302 0.012028343899933557 -0.001161510256459633 -0.007609465599301427
 0.9937206300304917 -0.058994798399996745 0.005153051932616842 0.024620458585434515 -0.0011622073770059373 -0.007609439263728843 0.0013470579138011392 0.012028905992501324
 0.001351420994532302 0.012028343899933557 -0.0011622073770059373 -0.007609439263728843 0.005152188839317417 0.02461938780454325 0.9937205839874368 -0.05899597263432058
 -0.001161510256459633 -0.007609465599301427 0.0013470579138011392 0.012028905992501324 0.9937205839874368 -0.05899597263432058 0.005153438471881406 0.024619275285740868
0.09378907878283 0.005538845866457699 0.02650948972145213 0.9932087112819737 -0.06331263652399743 0.001516312428958523 0.01288920230517198 -0.0013011946518030747 -0.008157229929430805
 0.9932087112819737 -0.06331263652399743 0.005539298023271643 0.02650944104745101 -0.0013019924542833012 -0.008157194136696124 0.0015113031748448403 0.012889862604246512
 0.001516312428958523 0.01288920230517198 -0.0013019924542833012 -0.008157194136696124 0.005538308078115248 0.02650830200982167 0.9932086585308774 -0.0633138956743166
 -0.0013011946518030747 -0.008157229929430805 0.0015113031748448403 0.012889862604246512 0.9932086585308774 -0.0633138956743166 0.005539742414970382 0.026508173264147544
0.100041684035 0.005944196669112526 0.028413793415339544 0.9926716628998745 -0.06764394109235389 0.0016913561070129037 0.01374958752235046 -0.0014494947375642843 -0.008704787723514974
 0.9926716628998745 -0.06764394109235389 0.005944710844351135 0.02841373919054423 -0.0014503997151227872 -0.008704741053755996 0.0016856560580010324 0.0137503569007008
 0.0016913561070129037 0.01374958752235046 -0.0014503997151227872 -0.008704741053755996 0.005943585416938663 0.02841253336469113 0.9926716029404541 -0.06764528540804221
 -0.0014494947375642843 -0.008704787723514974 0.0016856560580010324 0.0137503569007008 0.9926716029404541 -0.06764528540804221 0.005945217190382707 0.02841238689982806
0.1059090909091 0.006342278022415598 0.030214438902357532 0.9921445763882963 -0.07172047382319119 0.0018649171761407862 0.014556402811503989 -0.0015965642436368706 -0.009218291063877006
 0.9921445763882963 -0.07172047382319119 0.0063428540142919775 0.030214379249389318 -0.0015975756515899334 -0.009218232827732075 0.0018585283441974114 0.014557284977036044
 0.0018649171761407862 0.014556402811503989 -0.0015975756515899334 -0.009218232827732075 0.006341593612129602 0.030213112150582516 0.9921445091996426 -0.07172189830161176
 -0.0015965642436368706 -0.009218291063877006 0.0018585283441974114 0.014557284977036044 0.9921445091996426 -0.07172189830161176 0.006343422243031358 0.030212947629892538
0.1062942892872 0.006369018122119689 0.030333108572673358 0.992109183557281 -0.07198850446452162 0.0018766280915740946 0.014609348373877057 -0.0016064887527225665 -0.009251988816980923
 0.992109183557281 -0.07198850446452162 0.006369598294820261 0.030333048556122837 -0.0016075073451784416 -0.009251929773887748 0.0018701926685176825 0.01461023830961268
 0.0018766280915740946 0.014609348373877057 -0.0016075073451784416 -0.009251929773887748 0.006368328766317707 0.030331777484101322 0.992109115877979 -0.07198993421385574
 -0.0016064887527225665 -0.009251988816980923 0.0018701926685176825 0.01461023830961268 0.992109115877979 -0.07198993421385574 0.006370170713432718 0.030331611728015635
0.11254689453939999 0.0068136156496820385 0.03226713039795695 0.9915209737629649 -0.07634610715858095 0.0020722018497216677 0.015468330354972365 -0.001772252270835232 -0.009798680466567152
 0.9915209737629649 -0.07634610715858095 0.0068142658034202755 0.03226706435735527 -0.0017733908644397558 -0.009798607477518902 0.002064986529151396 0.015469352934987728
 0.0020722018497216677 0.015468330354972365 -0.0017733908644397558 -0.009798607477518902 0.006812843565863404 0.03226572965433917 0.9915208978394925 -0.07634762262961245
 -0.001772252270835232 -0.009798680466567152 0.002064986529151396 0.015469352934987728 0.9915208978394925 -0.07634762262961245 0.00681490842897674 0.03226554295404131
0.11879949979160001 0.007278292088496616 0.03421555278434225 0.9909067360401357 -0.08071651882099015 0.002278148150056179 0.01632637573409472 -0.0019468581086582418 -0.010344707317291235
 0.9909067360401357 -0.08071651882099015 0.007279016212882562 0.03421548049590307 -0.0019481230358466366 -0.0103446187334919 0.0022701084780743955 0.016327543657268316
 0.002278148150056179 0.01632637573409472 -0.0019481230358466366 -0.0103446187334919 0.007277432669613162 0.03421408385368564 0.9909066513356061 -0.08071812031865143
 -0.0019468581086582418 -0.010344707317291235 0.0022701084780743955 0.016327543657268316 0.9909066513356061 -0.08071812031865143 0.007279733196970144 0.03421387447379895
0.1250521050438 0.007763347566150634 0.036178067537685536 0.9902661751040817 -0.08509949899666562 0.0024945349615438385 0.01718332364053691 -0.002130376233084891 -0.010889911388506963
 0.9902661751040817 -0.08509949899666562 0.007764149657699089 0.0361779887859381 -0.002131773772037697 -0.010889805485147981 0.0024856265679538934 0.017184650220679935
 0.0024945349615438385 0.01718332364053691 -0.002131773772037697 -0.010889805485147981 0.007762396223475762 0.03617653196950729 0.99026608106731 -0.08510118684668613
 -0.002130376233084891 -0.010889911388506963 0.0024856265679538934 0.017184650220679935 0.99026608106731 -0.08510118684668613 0.007764945169608054 0.036176298090859295
0.131304710296 0.008269079372346421 0.03815436376027309 0.9895989980341323 -0.08949479774684128 0.002721427352452741 0.018039010145830214 -0.002322873667572088 -0.011434132072634903
 0.9895989980341323 -0.08949479774684128 0.00826996343600055 0.038154278337733355 -0.002324410041885174 -0.011434007049074043 0.0027116059652969645 0.018040509314272996
 0.002721427352452741 0.018039010145830214 -0.002324410041885174 -0.011434007049074043 0.008268031536613606 0.03815276318837713 0.9895988940990221 -0.08949657229330157
 -0.002322873667572088 -0.011434132072634903 0.0027116059652969645 0.018040509314272996 0.9895988940990221 -0.08949657229330157 0.008270841662816546 0.03815250290647811
0.1375573155481 0.008681250367152171 0.0398862397512031 0.989019492934634 -0.09364414369029565 0.0029306954563861945 0.01886755040612739 -0.0024962357439462083 -0.011951497081008346
 0.989019492934634 -0.09364414369029565 0.008682221436931025 0.03988615110344671 -0.0024979202662924306 -0.011951352756229331 0.0029199382264738093 0.018869220120079327
 0.0029306954563861945 0.01886755040612739 -0.0024979202662924306 -0.011951352756229331 0.008680102091947984 0.03988457556565352 0.9890193786414635 -0.09364600513276615
 -0.0024962357439462083 -0.011951497081008346 0.0029199382264738093 0.018869220120079327 0.9890193786414635 -0.09364600513276615 0.008683185757258858 0.03988429090814336
0.1438099208003 0.009107967885454336 0.04160871910146334 0.9884195194648633 -0.09778269966474862 0.003148411583513127 0.019692588613142274 -0.00267652615416115 -0.012465649516114865
 0.9884195194648633 -0.09778269966474862 0.009109030144173287 0.041608627279061554 -0.0026783655256493186 -0.012465484113364083 0.0031366782465306604 0.019694441613731576
 0.003148411583513127 0.019692588613142274 -0.0026783655256493186 -0.012465484113364083 0.00910671474079913 0.0416069929792822 0.9884193942480853 -0.09778464834164001
 -0.00267652615416115 -0.012465649516114865 0.0031366782465306604 0.019694441613731576 0.9884193942480853 -0.09778464834164001 0.009110084626271987 0.04160668227922568
0.1500625260525 0.009549077889604228 0.043321649745150834 0.9877992359652135 -0.10191035468455367 0.0033744983599884354 0.02051403565123503 -0.00286366964964127 -0.012976505109030098
 0.9877992359652135 -0.10191035468455367 0.009550235535817828 0.04332155478996163 -0.0028656705561202634 -0.012976316780138011 0.0033617489946987486 0.02051608512467888
 0.0033744983599884354 0.02051403565123503 -0.0028656705561202634 -0.012976316780138011 0.009547715471588543 0.04331986343385727 0.9877990992472849 -0.10191239094322298
 -0.00286366964964127 -0.012976505109030098 0.0033617489946987486 0.02051608512467888 0.9877990992472849 -0.10191239094322298 0.009551384256826115 0.043319524945920784
0.15631513130469998 0.010004425201329846 0.04502488418694626 0.9871588016344305 -0.10602699832430762 0.0036088774687980532 0.021331803968085532 -0.003057590028555123 -0.013483981416280393
 0.9871588016344305 -0.10602699832430762 0.010005682449544438 0.04502478613108795 -0.0030597591403228636 -0.013483768242011727 0.003595072503886998 0.021334063538467656
