! Created with skrf 1.8.0 (http://scikit-rf.org).
# GHz S RI R 50.0 
!freq ReS11 ImS11 ReS12 ImS12 ReS13 ImS13
! ReS14 ImS14
! ReS21 ImS21 ReS22 ImS22 ReS23 ImS23
! ReS24 ImS24
! ReS31 ImS31 ReS32 ImS32 ReS33 ImS33
! ReS34 ImS34
! ReS41 ImS41 ReS42 ImS42 ReS43 ImS43
! ReS44 ImS44
!
0.0 0.001131319485332 0.0 0.9988686805072 0.0 4.297733566443e-05 0.0 -4.297733621946e-05 5.26320572370413e-21
 0.9988686805072 0.0 0.001131319485343 0.0 -4.297733621963e-05 5.263205723724949e-21 4.297733566447e-05 0.0
 4.297733566443e-05 0.0 -4.297733621963e-05 5.263205723724949e-21 0.001131319476802 0.0 0.9988686804987 0.0
 -4.297733621946e-05 5.26320572370413e-21 4.297733566447e-05 0.0 0.9988686804987 0.0 0.001131319476796 0.0
0.005 0.0012163161632012867 0.0009254499418229106 0.9987612871920879 -0.002370996823617978 5.977439930624239e-05 0.00047769840739824457 -5.813932512337729e-05 -0.00029927006651806024
 0.9987612871920879 -0.002370996823617978 0.0012163114850854487 0.0009254526411400699 -5.813851872505609e-05 -0.0002992694118076205 5.980023818977114e-05 0.0004776884896449228
 5.977439930624239e-05 0.00047769840739824457 -5.813851872505609e-05 -0.0002992694118076205 0.0012163164329587603 0.0009253825055372771 0.9987612868699945 -0.002371063881262733
 -5.813932512337729e-05 -0.00029927006651806024 5.980023818977114e-05 0.0004776884896449228 0.9987612868699945 -0.002371063881262733 0.0012163105707934433 0.0009253859606241454
0.006252605252188 0.001238349018804056 0.0011604927750511046 0.9987333163926296 -0.0029643663842696282 6.442076074764661e-05 0.0005973693295643681 -6.230100949577779e-05 -0.00037449048653334877
 0.9987333163926296 -0.0029643663842696282 0.001238341706587901 0.0011604962356592985 -6.229975491917197e-05 -0.0003744896781251666 6.446113126621303e-05 0.0005973564829457102
 6.442076074764661e-05 0.0005973693295643681 -6.229975491917197e-05 -0.0003744896781251666 0.001238349518091407 0.0011604084814800571 0.9987333159665492 -0.0029644502001360943
 -6.230100949577779e-05 -0.00037449048653334877 6.446113126621303e-05 0.0005973564829457102 0.9987333159665492 -0.0029644502001360943 0.0012383403544010468 0.0011604128944282287
0.01250521050438 0.0013528253128651316 0.0023457057394587187 0.9985872354490366 -0.005929748572621745 9.026158409004728e-05 0.0011951653213388923 -8.52743682637569e-05 -0.0007509633861067699
 0.9985872354490366 -0.005929748572621745 0.0013527961218164884 0.0023457135294169392 -8.526942697224998e-05 -0.000750961876167151 9.042255431163279e-05 0.0011951348547470401
 9.026158409004728e-05 0.0011951653213388923 -8.526942697224998e-05 -0.000750961876167151 0.0013528278619457498 0.0023455373433476276 0.9985872342979422 -0.0059299159613949185
 -8.52743682637569e-05 -0.0007509633861067699 9.042255431163279e-05 0.0011951348547470401 0.9985872342979422 -0.0059299159613949185 0.0013527912672970062 0.0023455471225245937
0.01875781575657 0.0014749431698886418 0.0035482356939416657 0.9984302957411589 -0.008903417691747474 0.00012055097938474686 0.0017938258951835054 -0.00011195610355795684 -0.001128902715763117
 0.9984302957411589 -0.008903417691747474 0.001474877588288625 0.003548248725840512 -0.00011194508785084614 -0.001128900625486468 0.00012091254149679799 0.0017937722804328214
 0.00012055097938474686 0.0017938258951835054 -0.00011194508785084614 -0.001128900625486468 0.0014749493267052038 0.003547983230506563 0.9984302935738826 -0.008903668543298148
 -0.00011195610355795684 -0.001128902715763117 0.00012091254149679799 0.0017937722804328214 0.9984302935738826 -0.008903668543298148 0.0014748670881443969 0.0035479994000818865
0.02501042100875 0.0016048943779836925 0.004766451605854288 0.9982623514243598 -0.011886868412928462 0.00015534065767170468 0.0023934113379419403 -0.0001424037600630556 -0.0015081677588467618
 0.9982623514243598 -0.011886868412928462 0.0016047779321424665 0.0047664708331623925 -0.0001423843114906276 -0.0015081652263272218 0.00015598282077437865 0.002393328334155612
 0.00015534065767170468 0.0023934113379419403 -0.0001423843114906276 -0.0015081652263272218 0.001604905701953445 0.004766115054709467 0.9982623479490849 -0.011887202650581586
 -0.0001424037600630556 -0.0015081677588467618 0.00015598282077437865 0.002393328334155612 0.9982623479490849 -0.011887202650581586 0.0016047596392785555 0.00476613870524785
0.03126302626094 0.001742862321250981 0.005999540920114096 0.9980832474343199 -0.014880772613638684 0.00019468295437673568 0.0029939273543115093 -0.00017667368206902563 -0.0018886700329931994
 0.9980832474343199 -0.014880772613638684 0.0017426805688796655 0.005999567336708718 -0.00017664346622419254 -0.0018886672135562802 0.0001956858270157342 0.0029938080059415647
 0.00019468295437673568 0.0029939273543115093 -0.00017664346622419254 -0.0018886672135562802 0.0017428803764416435 0.005999120222648007 0.9980832423616649 -0.014881190176828742
 -0.00017667368206902563 -0.0018886700329931994 0.0001956858270157342 0.0029938080059415647 0.9980832423616649 -0.014881190176828742 0.0017426523345298675 0.00599915251069305
0.037515631513130004 0.0018890265579166849 0.007246994153537444 0.9978928241361918 -0.017885494743820996 0.00023863037574428796 0.0035953586142978785 -0.0002148214400338998 -0.00227033973461448
 0.9978928241361918 -0.017885494743820996 0.0018887650844450522 0.007247028793476265 -0.00021477814387113844 -0.002270336800917124 0.00024007420605327222 0.003595195244716712
 0.00023863037574428796 0.0035953586142978785 -0.00021477814387113844 -0.002270336800917124 0.0018890529106351257 0.0072464892266417376 0.9978928171763748 -0.01788599557424738
 -0.0002148214400338998 -0.00227033973461448 0.00024007420605327222 0.003595195244716712 0.9978928171763748 -0.01788599557424738 0.0018887247549125154 0.007246531374771093
0.043768236765320004 0.0020435645898451466 0.008508448051804918 0.9976909191628838 -0.02090124862502288 0.00028723538965833316 0.004197678962642801 -0.00025690200069687305 -0.0026531155184393463
 0.9976909191628838 -0.02090124862502288 0.002043209005450747 0.008508491989135182 -0.00025684333086076064 -0.002653112660506408 0.0002892005875645138 0.004197463166294563
 0.00028723538965833316 0.004197678962642801 -0.00025684333086076064 -0.002653112660506408 0.002043600810551844 0.008507858788794244 0.9976909100277626 -0.02090183266562755
 -0.00025690200069687305 -0.0026531155184393463 0.0002892005875645138 0.004197463166294563 0.9976909100277626 -0.02090183266562755 0.0020431544238878043 0.008507912085793
0.050020842017509996 0.002206652696101575 0.009783620776044128 0.9974773683192832 -0.023928162218313356 0.0003405503098822324 0.004800855622970934 -0.00030296979902179317 -0.003036940281729786
 0.9974773683192832 -0.023928162218313356 0.0022061886332741566 0.009783675124675826 -0.0003028934807478057 -0.0030369377069568576 0.0003431174597815594 0.00480057825696931
 0.0003405503098822324 0.004800855622970934 -0.0003028934807478057 -0.0030369377069568576 0.0022067003586289133 0.009782947043335655 0.9974773567215279 -0.023928829416421226
 -0.00030296979902179317 -0.003036940281729786 0.0003431174597815594 0.00480057825696931 0.9974773567215279 -0.023928829416421226 0.0022061176387844546 0.009783012844422748
0.055454545454549996 0.002355461223888029 0.010902744613811128 0.997282199777646 -0.02656776327958467 0.0003907480666203254 0.005325700946264137 -0.0003462841371729022 -0.003371304832326005
 0.997282199777646 -0.02656776327958467 0.0023548912378573332 0.010902808945662066 -0.00034619064832487243 -0.003371302685551785 0.00039390391628930634 0.005325362070016861
 0.0003907480666203254 0.005325700946264137 -0.00034619064832487243 -0.003371302685551785 0.002355520110178413 0.010901997348913327 0.9972821858072022 -0.02656850270070291
 -0.0003462841371729022 -0.003371304832326005 0.00039390391628930634 0.005325362070016861 0.9972821858072022 -0.02656850270070291 0.002354804221701931 0.010902075168833753
0.056273447269699996 0.0023784663745601595 0.01107228008220771 0.9972520060948088 -0.026966309398832173 0.00039862721773193527 0.005404851264113248 -0.0003530787700689402 -0.0034217590865250986
 0.9972520060948088 -0.026966309398832173 0.0023778794863189697 0.0110723459957702 -0.0003529825463949066 -0.003421757019679624 0.00040187708554860577 0.005404502439515556
 0.00039862721773193527 0.005404851264113248 -0.0003529825463949066 -0.003421757019679624 0.0023785270558257378 0.011071521724745835 0.9972519917480752 -0.0269670597005946
 -0.0003530787700689402 -0.0034217590865250986 0.00040187708554860577 0.005404502439515556 0.9972519917480752 -0.0269670597005946 0.0023777899136697605 0.011071601451864447
0.06252605252188 0.002559180591456834 0.012374225838164696 0.9970146659863675 -0.030015727392662818 0.0004615179042418411 0.00600962512814536 -0.00040728235859678337 -0.0038075180206880404
 0.9970146659863675 -0.030015727392662818 0.002558456549639848 0.01237430450998676 -0.0004071639898082242 -0.0038075167039051125 0.00046553144085758713 0.006009194201087677
 0.0004615179042418411 0.00600962512814536 -0.0004071639898082242 -0.0038075167039051125 0.0025592558717163335 0.01237338268050713 0.9970146486054302 -0.030016560741850374
 -0.00040728235859678337 -0.0038075180206880404 0.00046553144085758713 0.006009194201087677 0.9970146486054302 -0.030016560741850374 0.002558346229454405 0.012373477822626572
0.06877865777407 0.0027489699302810913 0.013689279582995713 0.9967651807209857 -0.033076427172047604 0.0005292738226429928 0.006615133702447075 -0.00046563351713239996 -0.0041941635156766775
 0.9967651807209857 -0.033076427172047604 0.0027480944237858935 0.013689372245997845 -0.0004654907803024014 -0.004194163208441091 0.0005341321646402687 0.0066146092651695985
 0.0005292738226429928 0.006615133702447075 -0.0004654907803024014 -0.004194163208441091 0.0027490613926129523 0.013688351429168003 0.9967651600217577 -0.03307734350997363
 -0.00046563351713239996 -0.0041941635156766775 0.0005341321646402687 0.0066146092651695985 0.9967651600217577 -0.03307734350997363 0.0027479611824103396 0.013688463542652837
0.07503126302626001 0.002948008678985807 0.015017277935446908 0.9965033824190782 -0.03614840000190209 0.0006019460475182424 0.00722133114331111 -0.0005281846960766298 -0.004581641913573126
 0.9965033824190782 -0.03614840000190209 0.0029469674122248285 0.015017385862113177 -0.000528015384770467 -0.0045816428927073155 0.0006077305161160411 0.007220701015149633
 0.0006019460475182424 0.00722133114331111 -0.000528015384770467 -0.0045816428927073155 0.002948117909296867 0.015016264565236088 0.9965033581184025 -0.036149399271030516
 -0.0005281846960766298 -0.004581641913573126 0.0006077305161160411 0.007220701015149633 0.9965033581184025 -0.036149399271030516 0.002946809071571538 0.015016395274198676
0.08128386827845 0.0031564708794785874 0.0163580681746396 0.9962291027205821 -0.0392316218149196 0.0006795852373019176 0.007828169555673978 -0.0005949878295536833 -0.004969899178923214
 0.9962291027205821 -0.0392316218149196 0.0031552495709289623 0.016358192677051877 -0.0005947897535235616 -0.004969901738570065 0.000686377335882052 0.007827420774037743
 0.0006795852373019176 0.007828169555673978 -0.0005947897535235616 -0.004969901738570065 0.0031565994662031225 0.01635696934683456 0.9962290745368465 -0.03923270395546577
 -0.0005949878295536833 -0.004969899178923214 0.000686377335882052 0.007827420774037743 0.9962290745368465 -0.03923270395546577 0.0031550639487477068 0.016357120343578165
0.08753647353064001 0.0033745303533668797 0.01771150520504396 0.995942172889903 -0.04232605620342208 0.0007622415997781462 0.008435599186114027 -0.0006660943172643865 -0.005358880698304215
 0.995942172889903 -0.04232605620342208 0.003373114734155437 0.017711647634872933 -0.0006658653022968196 -0.005358885149911038 0.0007701230102759896 0.008434717997452304
 0.0007622415997781462 0.008435599186114027 -0.0006658653022968196 -0.005358885149911038 0.0033746798872663544 0.017710320659338082 0.995942140542452 -0.04232722115130599
 -0.0006660943172643865 -0.005358880698304215 0.0007701230102759896 0.008434717997452304 0.995942140542452 -0.04232722115130599 0.0033728996437033323 0.017710493704763856
0.09378907878283 0.003602360710374675 0.019077449378881714 0.9956424239038838 -0.0454316565545617 0.0008499648587834007 0.009043568558497117 -0.0007415550043965404 -0.005748531138273549
 0.9956424239038838 -0.0454316565545617 0.003600736522770828 0.019077611127463433 -0.0007412928921459584 -0.005748537810571917 0.000859017437016774 0.009042540409303643
 0.0008499648587834007 0.009043568558497117 -0.0007412928921459584 -0.005748537810571917 0.0036025327842785777 0.019076178832869058 0.9956423871133427 -0.045432904244217656
 -0.0007415550043965404 -0.005748531138273549 0.000859017437016774 0.009042540409303643 0.9956423871133427 -0.045432904244217656 0.003600489772872554 0.019076375756951994
0.100041684035 0.003840135344934218 0.02045576489725903 0.9953296865299317 -0.04854836760795555 0.0009428042220523486 0.009652024574979861 -0.0008214201593988574 -0.006138794339064797
 0.9953296865299317 -0.04854836760795555 0.003838288340898265 0.020455947395695975 -0.0008211228072480165 -0.006138803578050869 0.0009531099924690919 0.00965083410281492
 0.0009428042220523486 0.009652024574979861 -0.0008211228072480165 -0.006138803578050869 0.003840331553210336 0.02045440804663697 0.9953296450182406 -0.04854969797206756
 -0.0008214201593988574 -0.006138794339064797 0.0009531099924690919 0.00965083410281492 0.9953296450182406 -0.04854969797206756 0.0038380077358002216 0.0204546307489424
0.1059090909091 0.004072460089253291 0.021760300783006597 0.9950242520062428 -0.051483119626206074 0.0010346205110577952 0.010223389952133276 -0.0009004152034445535 -0.006505521440001818
 0.9950242520062428 -0.051483119626206074 0.004070391044654005 0.02176050409008541 -0.0009000828476273178 -0.006505533417597582 0.0010461770147172816 0.010222032456668268
 0.0010346205110577952 0.010223389952133276 -0.0009000828476273178 -0.006505533417597582 0.004072680396940712 0.02175886264945777 0.9950242058127707 -0.05148452750752781
 -0.0009004152034445535 -0.006505521440001818 0.0010461770147172816 0.010222032456668268 0.9950242058127707 -0.05148452750752781 0.004070076669669437 0.021759111331963798
0.1062942892872 0.004088027423036923 0.02184631860777249 0.9950037913965236 -0.05167612661812302 0.0010408083496893426 0.01026091259008996 -0.0009057394504237863 -0.006529613236337742
 0.9950037913965236 -0.05167612661812302 0.004085943362922882 0.021846523327038073 -0.0009054047314004797 -0.006529625405255174 0.0010524494994048254 0.01025954361463998
 0.0010408083496893426 0.01026091259008996 -0.0009054047314004797 -0.006529625405255174 0.004088249362073648 0.02184487512748265 0.9950037448871292 -0.05167753958632438
 -0.0009057394504237863 -0.006529613236337742 0.0010524494994048254 0.01025954361463998 0.9950037448871292 -0.05167753958632438 0.004085626703002512 0.021845125577678773
0.11254689453939999 0.004346209864195774 0.023248979080671046 0.994664569058457 -0.054814864239346076 0.001144025323025743 0.010870176466967474 -0.000994561920708173 -0.006920929801928314
 0.994664569058457 -0.054814864239346076 0.004343874515162345 0.0232492075318033 -0.000994187723420607 -0.00692094528124224 0.0011570841951437975 0.010868611981197197
 0.001144025323025743 0.010870176466967474 -0.000994187723420607 -0.00692094528124224 0.004346459131542071 0.023247448624551772 0.9946645172763467 -0.0548163597383761
 -0.000994561920708173 -0.006920929801928314 0.0011570841951437975 0.010868611981197197 0.9946645172763467 -0.0548163597383761 0.004343519596321365 0.02324772886299684
0.11879949979160001 0.004614855316883067 0.02466361589154969 0.9943118500591975 -0.05796450520541728 0.0012525026137803052 0.011479758623331284 -0.0010879359627439596 -0.007312684996148028
 0.9943118500591975 -0.05796450520541728 0.00461225445162804 0.0246638696258031 -0.001087520191344511 -0.007312704183516105 0.0012670617003884101 0.011477980784613345
 0.0012525026137803052 0.011479758623331284 -0.001087520191344511 -0.007312704183516105 0.0046151335110727314 0.024661998091969874 0.9943117927307229 -0.05796608315944038
 -0.0010879359627439596 -0.007312684996148028 0.0012670617003884101 0.011477980784613345 0.9943117927307229 -0.05796608315944038 0.004611859065325304 0.024662310230316366
0.1250521050438 0.004894136129783884 0.02609009904755805 0.993945464988804 -0.06112496886717797 0.0013662870531868814 0.0120896000662312 -0.0011859092919371266 -0.007704818732467165
 0.993945464988804 -0.06112496886717797 0.004891255525123353 0.026090379656660903 -0.0011854498660690657 -0.00770484204272388 0.0013824289878515018 0.012087590187627829
 0.0013662870531868814 0.0120896000662312 -0.0011854498660690657 -0.00770484204272388 0.004894444850288544 0.026088393513397586 0.993945401841905 -0.0611266291996571
 -0.0011859092919371266 -0.007704818732467165 0.0013824289878515018 0.012087590187627829 0.993945401841905 -0.0611266291996571 0.0048908174587883576 0.02608873973521283
0.131304710296 0.0051842243208503275 0.027528298525624325 0.9935652445415085 -0.06429616961939805 0.0014854248014621273 0.012699640420876932 -0.0012885289192653385 -0.008097269849452323
 0.9935652445415085 -0.06429616961939805 0.005181049756057619 0.02752860764207434 -0.0012880237740328384 -0.008097297714582443 0.001503232351166207 0.012697378962442604
 0.0014854248014621273 0.012699640420876932 -0.0012880237740328384 -0.008097297714582443 0.005184565167451979 0.027526504846801154 0.993565175305832 -0.0642979122484349
 -0.0012885289192653385 -0.008097269849452323 0.001503232351166207 0.012697378962442604 0.993565175305832 -0.0642979122484349 0.005180566792897018 0.027526887408218296
0.1375573155481 0.005410324320683191 0.02878960321508024 0.9932460042256578 -0.06728948556173589 0.0015924273732478454 0.0132900398390085 -0.0013782899370260078 -0.008470218447736199
 0.9932460042256578 -0.06728948556173589 0.005406839970359772 0.028789933724933672 -0.0013777359472640252 -0.00847025078411567 0.0016119453245874832 0.013287533941090165
 0.0015924273732478454 0.0132900398390085 -0.0013777359472640252 -0.00847025078411567 0.0054106982885046935 0.028787721135791925 0.9932459286276897 -0.06729131040485778
 -0.0013782899370260078 -0.008470218447736199 0.0016119453245874832 0.013287533941090165 0.9932459286276897 -0.06729131040485778 0.0054063105002613385 0.028788133217681415
0.1438099208003 0.005644057143693053 0.030045586838727798 0.992916111622455 -0.07027656437871982 0.0017037377037895072 0.013878881112995291 -0.001471650288120121 -0.008841730266291078
 0.992916111622455 -0.07027656437871982 0.005640248529593088 0.030045939711561078 -0.0014710452200039498 -0.008841767488571404 0.0017250421228040217 0.013876113259093138
 0.0017037377037895072 0.013878881112995291 -0.0014710452200039498 -0.008841767488571404 0.0056444657229433514 0.03004361594332449 0.9929160293938958 -0.07027847135044807
 -0.001471650288120121 -0.008841730266291078 0.0017250421228040217 0.013876113259093138 0.9929160293938958 -0.07027847135044807 0.005639670439213192 0.03004405912153545
0.1500625260525 0.005885356157512863 0.031296184098112946 0.9925756358784533 -0.07325737242266732 0.001819326322523993 0.014466131722146029 -0.0015685811145892778 -0.009211773040023569
 0.9925756358784533 -0.07325737242266732 0.005881208789627462 0.031296560353295325 -0.0015679227362608728 -0.009211815579336133 0.001842492957938128 0.014463083764834309
 0.001819326322523993 0.014466131722146029 -0.0015679227362608728 -0.009211815579336133 0.005885800831376862 0.031294123954274396 0.9925755467529487 -0.07325936143427388
 -0.0015685811145892778 -0.009211773040023569 0.001842492957938128 0.014463083764834309 0.9925755467529487 -0.07325936143427388 0.005880579968807393 0.03129459987752917
0.15631513130469998 0.006134154432553339 0.0325413319296364 0.9922246462973492 -0.07623187543705001 0.0019391635182213307 0.015051759553432183 -0.001669053301611437 -0.009580315097757032
