! Created with skrf 1.8.0 (http://scikit-rf.org).
# GHz S RI R 50.0 
!freq ReS11 ImS11 ReS12 ImS12 ReS13 ImS13
! ReS14 ImS14
! ReS21 ImS21 ReS22 ImS22 ReS23 ImS23
! ReS24 ImS24
! ReS31 ImS31 ReS32 ImS32 ReS33 ImS33
! ReS34 ImS34
! ReS41 ImS41 ReS42 ImS42 ReS43 ImS43
! ReS44 ImS44
!
0.0 0.0012773969625 0.0 0.9987226030327 0.0 4.882336660371e-05 0.0 -4.882336759858e-05 5.979138085319559e-21
 0.9987226030327 0.0 0.0012773969625 0.0 -4.882336759756e-05 5.979138085194645e-21 4.882336660511e-05 0.0
 4.882336660371e-05 0.0 -4.882336759756e-05 5.979138085194645e-21 0.001277396964778 0.0 0.998722603035 0.0
 -4.882336759858e-05 5.979138085319559e-21 4.882336660511e-05 0.0 0.998722603035 0.0 0.001277396964837 0.0
0.005 0.0013737175534407607 0.00104546598756183 0.9986008414542038 -0.002676645486142523 6.805578577199123e-05 0.000537915352124904 -6.612805366186011e-05 -0.0003377662811485765
 0.9986008414542038 -0.002676645486142523 0.001373733584405157 0.001045456588079218 -6.612843858052563e-05 -0.00033776651745053715 6.7956482575971e-05 0.0005379530712319671
 6.805578577199123e-05 0.000537915352124904 -6.612843858052563e-05 -0.00033776651745053715 0.0013737179909221824 0.0010455329437228655 0.9986008417848572 -0.0026765784232917924
 -6.612805366186011e-05 -0.0003377662811485765 6.7956482575971e-05 0.0005379530712319671 0.9986008417848572 -0.0026765784232917924 0.0013737338064996945 0.0010455237568910126
0.006252605252188 0.0013987875549689123 0.00131097196153246 0.99856897838885 -0.003346491088917664 7.345219074497869e-05 0.0006726662872506758 -7.092567161336943e-05 -0.0004226555557785402
 0.99856897838885 -0.003346491088917664 0.001398812614622713 0.0013109600258175303 -7.092627105608325e-05 -0.0004226558460279385 7.329703598580032e-05 0.0006727152339506072
 7.345219074497869e-05 0.0006726662872506758 -7.092627105608325e-05 -0.0004226558460279385 0.0013987881667050842 0.0013110556446448921 0.99856897883326 -0.003346407266605847
 -7.092567161336943e-05 -0.0004226555557785402 7.329703598580032e-05 0.0006727152339506072 0.99856897883326 -0.003346407266605847 0.0013988128889319967 0.0013110439854895728
0.01250521050438 0.0015296439641446892 0.0026496892458057536 0.9984016987125008 -0.006693958522614033 0.00010388011106537516 0.0013457498503618886 -9.76735755553699e-05 -0.0008474800545248207
 0.9984016987125008 -0.006693958522614033 0.001529744033691956 0.0026496635001391315 -9.767594388399419e-05 -0.0008474805789071966 0.00010326132637080374 0.0013458669162134036
 0.00010388011106537516 0.0013457498503618886 -9.767594388399419e-05 -0.0008474805789071966 0.0015296458707918744 0.0026498562977724243 0.9984016999445114 -0.006693791128633484
 -9.76735755553699e-05 -0.0008474800545248207 0.00010326132637080374 0.0013458669162134036 0.9984016999445114 -0.006693791128633484 0.0015297445794940827 0.0026498312168508078
0.01875781575657 0.0016702124170460328 0.004007778116584104 0.9982205844777647 -0.010050589339541423 0.00014017070139339568 0.0020197247067152914 -0.00012914087210451602 -0.0012738861565104388
 0.9982205844777647 -0.010050589339541423 0.0016704372881490093 0.004007736561496507 -0.0001291461620740784 -0.0012738868480192311 0.00013878051479732437 0.0020199323063710742
 0.00014017070139339568 0.0020197247067152914 -0.0001291461620740784 -0.0012738868480192311 0.0016702162942026587 0.004008028367209858 0.9982205868271388 -0.010050338466707467
 -0.00012914087210451602 -0.0012738861565104388 0.00013878051479732437 0.0020199323063710742 0.9982205868271388 -0.010050338466707467 0.0016704380805172177 0.004007987988199079
0.02501042100875 0.0018207338917350837 0.005383378665279141 0.9980254502236834 -0.013418050614900706 0.00018238883825438405 0.002694643284483406 -0.00016539958321202855 -0.0017017048477873063
 0.9980254502236834 -0.013418050614900706 0.001821133259827715 0.005383319193471737 -0.00016540893675770735 -0.001701705627495682 0.00017991924523105856 0.0026949669383965736
 0.00018238883825438405 0.002694643284483406 -0.00016540893675770735 -0.001701705627495682 0.0018207404215935406 0.005383711961569483 0.9980254540206607 -0.01341771632477745
 -0.00016539958321202855 -0.0017017048477873063 0.00017991924523105856 0.0026949669383965736 0.9980254540206607 -0.01341771632477745 0.0018211342664576455 0.005383654312160785
0.03126302626094 0.001981439146890633 0.006775554059000095 0.9978160996950459 -0.016797080188366075 0.00023060019434730617 0.0033704967488055724 -0.00020652007398900976 -0.00213082503639888
 0.9978160996950459 -0.016797080188366075 0.0019820626361370633 0.0067754744589133215 -0.00020653462415602864 -0.0021308258132912007 0.00022674265904543662 0.003370965099859535
 0.00023060019434730617 0.0033704967488055724 -0.00020653462415602864 -0.0021308258132912007 0.0019814490204399784 0.006775970254256349 0.9978161052733842 -0.01679666252193737
 -0.00020652007398900976 -0.00213082503639888 0.00022674265904543662 0.003370965099859535 0.9978161052733842 -0.01679666252193737 0.001982063819989847 0.00677589326995564
0.037515631513130004 0.0021525541315896134 0.008183708848056059 0.9975923313577015 -0.02018806830787069 0.000284870563101978 0.004047252427586 -0.000252571575145225 -0.0025611561096153647
 0.9975923313577015 -0.02018806830787069 0.00215345131079865 0.008183606805798573 -0.000252592447046268 -0.0025611567804896098 0.0002793158766250271 0.004047897273230192
 0.000284870563101978 0.004047252427586 -0.000252592447046268 -0.0025611567804896098 0.002152568041948377 0.008184207793385925 0.9975923390481926 -0.020187567293774314
 -0.000252571575145225 -0.0025611561096153647 0.0002793158766250271 0.004047897273230192 0.9975923390481926 -0.020187567293774314 0.002153452623779169 0.008184109319680052
0.043768236765320004 0.002334302080557431 0.00960741195860776 0.997353940601823 -0.0235912345816413 0.00034526555078920855 0.004724865200841065 -0.00030362238181266935 -0.0029926165313072083
 0.997353940601823 -0.0235912345816413 0.0023355224753857447 0.009607285059162566 -0.000303650693180195 -0.002992616980714431 0.00033770375637606786 0.004725721530040682
 0.00034526555078920855 0.004724865200841065 -0.000303650693180195 -0.002992616980714431 0.002334320727473955 0.009607993498794626 0.9973539507372325 -0.023590650240108847
 -0.00030362238181266935 -0.0029926165313072083 0.00033770375637606786 0.004725721530040682 0.9973539507372325 -0.023590650240108847 0.002335523863179313 0.009607871292598219
0.050020842017509996 0.002526904499427463 0.011046323537948086 0.9971007208377177 -0.027006701075484536 0.0004118504020675127 0.005403282186777448 -0.000359739933515531 -0.003425129144071387
 0.9971007208377177 -0.027006701075484536 0.0025284976024051355 0.011046169266157828 -0.0003597767950015837 -0.003425129244258296 0.00040197075558649206 0.005404388219063285
 0.0004118504020675127 0.005403282186777448 -0.0003597767950015837 -0.003425129244258296 0.0025269285871785526 0.011046987502190093 0.9971007337511029 -0.027006033427292825
 -0.000359739933515531 -0.003425129144071387 0.00040197075558649206 0.005404388219063285 0.9971007337511029 -0.027006033427292825 0.0025284990030431955 0.011046839233054169
0.055454545454549996 0.0027032681098712093 0.012308910446969763 0.9968684607508381 -0.029984882286344265 0.0004747918939660769 0.0059934550298806465 -0.00041267435960631605 -0.0038017918667391823
 0.9968684607508381 -0.029984882286344265 0.002705225282493537 0.012308730267832219 -0.00041271954804371173 -0.0038017915500977986 0.00046264497602514673 0.005994811639781035
 0.0004747918939660769 0.0059934550298806465 -0.00041271954804371173 -0.0038017915500977986 0.0027032975006096465 0.012309645900280991 0.996868476348509 -0.029984142248415446
 -0.00041267435960631605 -0.0038017918667391823 0.00046264497602514673 0.005994811639781035 0.996868476348509 -0.029984142248415446 0.0027052266374971677 0.012309473021804065
0.056273447269699996 0.002730581680227225 0.012500159029719205 0.9968324641245419 -0.030434528179786317 0.00048468988088799434 0.006082445051271733 -0.00042099084463594397 -0.00385861884937625
 0.9968324641245419 -0.030434528179786317 0.002732596959688735 0.012499974770847577 -0.00042103736001723393 -0.0038586184602330533 0.000472180832451053 0.006083842276780608
 0.00048468988088799434 0.006082445051271733 -0.00042103736001723393 -0.0038586184602330533 0.002730611916600404 0.012500905246177179 0.9968324801485231 -0.030433777231525228
 -0.00042099084463594397 -0.00385861884937625 0.000472180832451053 0.006083842276780608 0.9968324801485231 -0.030433777231525228 0.0027325983027980372 0.012500728497093216
0.06252605252188 0.002945552989739964 0.013968669449286425 0.9965489615739443 -0.033874734276935006 0.000563848180968265 0.006762291264393223 -0.0004874409076303372 -0.00429301134214828
 0.9965489615739443 -0.033874734276935006 0.002948039898513087 0.0139684524895993 -0.00048749817393214375 -0.004293010311171727 0.0005483973706259709 0.006764024484400007
 0.000563848180968265 0.006762291264393223 -0.00048749817393214375 -0.004293010311171727 0.0029455900869862447 0.013969497731013927 0.9965489810421555 -0.0338739000348673
 -0.0004874409076303372 -0.00429301134214828 0.0005483973706259709 0.006764024484400007 0.9965489810421555 -0.0338739000348673 0.002948041106583883 0.01396928999912748
0.06877865777407 0.0031720370332637858 0.015451629607870807 0.996250003631661 -0.03732730746108192 0.000649388851901096 0.007442754855092542 -0.0005591550817268402 -0.004728232348780691
 0.996250003631661 -0.03732730746108192 0.0031750450164362873 0.015451377134751237 -0.0005592241892587263 -0.00472823051102257 0.0006306831148761024 0.00744487222283426
 0.000649388851901096 0.007442754855092542 -0.0005592241892587263 -0.00472823051102257 0.0031720817074042907 0.015452539755910072 0.9962500268786968 -0.03732638992783311
 -0.0005591550817268402 -0.004728232348780691 0.0006306831148761024 0.00744487222283426 0.9962500268786968 -0.03732638992783311 0.0031750460047454696 0.015452298452960665
0.07503126302626001 0.0034102517475440575 0.016948830640913903 0.9959353802906232 -0.04079221295506819 0.0007413747346888838 0.0081237668830579 -0.0006361974721363683 -0.005164207149712868
 0.9959353802906232 -0.04079221295506819 0.0034138302503566934 0.016948539742956674 -0.0006362795045097799 -0.005164204327743243 0.0007191001139078659 0.008126319944605703
 0.0007413747346888838 0.0081237668830579 -0.0006362795045097799 -0.005164204327743243 0.003410304717776473 0.0169498224498342 0.9959354076513423 -0.040791212123799866
 -0.0006361974721363683 -0.005164207149712868 0.0007191001139078659 0.008126319944605703 0.9959354076513423 -0.040791212123799866 0.0034138309266679417 0.01694954490237222
0.08128386827845 0.003660414446539925 0.01846007505441593 0.9956048812587186 -0.0442693980109498 0.000839867903065647 0.008805255755195042 -0.0007186313032642094 -0.005600860259178574
 0.9956048812587186 -0.0442693980109498 0.003664612921863466 0.018459742721279537 -0.0007187273373680345 -0.005600856263049917 0.0008137096672107621 0.008808299490317525
 0.000839867903065647 0.008805255755195042 -0.0007187273373680345 -0.005600856263049917 0.0036604764355671307 0.01846114830289988 0.9956049130693748 -0.04426831387469785
 -0.0007186313032642094 -0.005600860259178574 0.0008137096672107621 0.008808299490317525 0.9956049130693748 -0.04426831387469785 0.0036646131872811235 0.01846083175237575
0.08753647353064001 0.003922741838361669 0.019985173276667288 0.9952582961003793 -0.047758795307055374 0.0009449296085920022 0.009487147443926536 -0.0008065188876597032 -0.00603811520503816
 0.9952582961003793 -0.047758795307055374 0.003927609754450485 0.019984796398721683 -0.000806629993621713 -0.00603810983225435 0.0009145722744654492 0.009490740306819907
 0.0009449296085920022 0.009487147443926536 -0.000806629993621713 -0.00603810983225435 0.003922813571498142 0.019986327730822148 0.9952583326982043 -0.04775762785516272
 -0.0008065188876597032 -0.00603811520503816 0.0009145722744654492 0.009490740306819907 0.9952583326982043 -0.04775762785516272 0.003927609502914977 0.019985969333356265
0.09378907878283 0.00419745002060556 0.02152394120652886 0.9948954143584976 -0.051260325350462516 0.0010566202280581978 0.010169365642725232 -0.0008999215919145273 -0.006475894373330808
 0.9948954143584976 -0.051260325350462516 0.004203036868309117 0.021523516574318554 -0.0009000488330326352 -0.006475887408807728 0.0010217475866798212 0.010173569602588152
 0.0010566202280581978 0.010169365642725232 -0.0009000488330326352 -0.006475887408807728 0.004197532225878292 0.021525176620876846 0.9948954560820249 -0.051259074567358544
 -0.0008999215919145273 -0.006475894373330808 0.0010217475866798212 0.010173569602588152 0.9948954560820249 -0.051259074567358544 0.004203035987145025 0.02152477344701394
0.100041684035 0.004484754461709748 0.023076198407983663 0.9945160256646677 -0.05477389823523039 0.001174999212561813 0.010851831881251271 -0.0009988998001259572 -0.006914118895292226
 0.9945160256646677 -0.05477389823523039 0.004491109762413487 0.023075722711467166 -0.0009990442328072897 -0.00691411011133887 0.001135294358484719 0.010856712462591032
 0.001174999212561813 0.010851831881251271 -0.0009990442328072897 -0.00691411011133887 0.004484847869395021 0.023077514524399472 0.9945160728537591 -0.054772564101358105
 -0.0009988998001259572 -0.006914118895292226 0.001135294358484719 0.010856712462591032 0.9945160728537591 -0.054772564101358105 0.00449110813218398 0.023077063558447367
0.1059090909091 0.004766006725739682 0.024544936798936542 0.9941448094962946 -0.05808187847852424 0.0012922204302997016 0.01149240792909339 -0.001096904104093462 -0.0073256797440087555
 0.9941448094962946 -0.05808187847852424 0.00477312821053135 0.024544410083117363 -0.0010970656237679825 -0.007325669034373357 0.0012476922425323142 0.011497986243973904
 0.0012922204302997016 0.01149240792909339 -0.0010970656237679825 -0.007325669034373357 0.004766111311281142 0.02454632839708821 0.9941448621246812 -0.05808046610995009
 -0.001096904104093462 -0.0073256797440087555 0.0012476922425323142 0.011497986243973904 0.9941448621246812 -0.05808046610995009 0.004773125762882248 0.024545829763070265
0.1062942892872 0.004784869971253683 0.024641766753976654 0.9941199198400408 -0.05829941495355707 0.0013001250376693458 0.011534465613683976 -0.0011035128758076897 -0.007352708563206929
 0.9941199198400408 -0.05829941495355707 0.004792043283839356 0.024641236581583917 -0.0011036755494413678 -0.007352697719493557 0.0012552704005996725 0.0115400919363911
 0.0013001250376693458 0.011534465613683976 -0.0011036755494413678 -0.007352697719493557 0.0047849753133420506 0.024643163299195244 0.9941199728362115 -0.05829799744774554
 -0.0011035128758076897 -0.007352708563206929 0.0012552704005996725 0.0115400919363911 0.9941199728362115 -0.05829799744774554 0.004792040778586277 0.02464266143844188
0.11254689453939999 0.005098010661300576 0.026220469384691986 0.9937068869903548 -0.06183676839504533 0.001432055154169798 0.012217184285672394 -0.0012138191220136634 -0.0077915817699068905
 0.9937068869903548 -0.06183676839504533 0.005106051590216614 0.026219881222102514 -0.0012140010788929802 -0.0077915686134489275 0.0013817325333469507 0.012223629104703398
 0.001432055154169798 0.012217184285672394 -0.0012140010788929802 -0.0077915686134489275 0.005098128671319172 0.026221946074913308 0.9937069461364045 -0.06183526748963659
 -0.0012138191220136634 -0.0077915817699068905 0.0013817325333469507 0.012223629104703398 0.9937069461364045 -0.06183526748963659 0.005106048077434735 0.026221390128620906
0.11879949979160001 0.005424389902396316 0.02781212989813116 0.9932767175958209 -0.06538584411569712 0.0015708459394527595 0.012899903391658755 -0.0013298757405101921 -0.00823065546001991
 0.9932767175958209 -0.06538584411569712 0.005433348104866798 0.027811480126897933 -0.0013300780156852057 -0.008230639725157808 0.0015147365398371 0.012907243136441484
 0.0015708459394527595 0.012899903391658755 -0.0013300780156852057 -0.008230639725157808 0.005424521314910125 0.02781368643483172 0.9932767832365614 -0.0653842597806871
 -0.0013298757405101921 -0.00823065546001991 0.0015147365398371 0.012907243136441484 0.9932767832365614 -0.0653842597806871 0.005433343445852271 0.027813073122977136
0.1250521050438 0.005764220273066978 0.029416571706681063 0.9928292025989209 -0.06894652094389306 0.001716552648872554 0.013582536518755088 -0.0014517387899007782 -0.008669845097018243
 0.9928292025989209 -0.06894652094389306 0.005774145467220412 0.029415856602546128 -0.0014519624111208422 -0.008669826505393297 0.0016543371194623993 0.013590851332135993
 0.001716552648872554 0.013582536518755088 -0.0014519624111208422 -0.008669826505393297 0.005764365823860848 0.029418207775620295 0.9928292750810648 -0.06894485314766709
 -0.0014517387899007782 -0.008669845097018243 0.0016543371194623993 0.013590851332135993 0.9928292750810648 -0.06894485314766709 0.005774139517099292 0.029417533727425612
0.131304710296 0.0061177135069614315 0.031033617515657846 0.9923641334893656 -0.07251867146661774 0.0018692293676654788 0.014264995385919405 -0.001579463142799872 -0.009109064637254385
 0.9923641334893656 -0.07251867146661774 0.006128655479165506 0.03103283324672502 -0.0015797091303298093 -0.009109042897809803 0.0018005878414566884 0.014274369162717347
 0.0018692293676654788 0.014264995385919405 -0.0015797091303298093 -0.009109042897809803 0.00611787393185447 0.031035332790805805 0.9923642131614421 -0.07251692017198466
 -0.001579463142799872 -0.009109064637254385 0.0018005878414566884 0.014274369162717347 0.9923642131614421 -0.07251692017198466 0.0061286480867362835 0.031034594542952557
0.1375573155481 0.006397798721088239 0.03245172635409842 0.991968607013251 -0.07589074162690025 0.0020082239248319787 0.014925451870278824 -0.0016924805676442193 -0.009526442271193864
 0.991968607013251 -0.07589074162690025 0.0064098102606437715 0.03245088641979362 -0.001692750243450633 -0.009526417389054777 0.0019329986373841869 0.014935861469629233
 0.0020082239248319787 0.014925451870278824 -0.001692750243450633 -0.009526417389054777 0.006397973990676659 0.03245352091554012 0.9919686941994315 -0.0758889068383008
 -0.0016924805676442193 -0.009526442271193864 0.0019329986373841869 0.014935861469629233 0.9919686941994315 -0.0758889068383008 0.00640980208661638 0.03245273159749607
0.1438099208003 0.006687514986549635 0.03386336569498571 0.9915595690000207 -0.0792552798719426 0.002152845108754494 0.015583812184965951 -0.001810032744555018 -0.009941928001275418
 0.9915595690000207 -0.0792552798719426 0.00670064642159775 0.033862467390461067 -0.0018103271725870332 -0.00994189969746408 0.0020707448199581546 0.015595333353266903
 0.002152845108754494 0.015583812184965951 -0.0018103271725870332 -0.00994189969746408 0.006687705698735832 0.033865239252459635 0.9915596640462446 -0.0792533615569059
 -0.001810032744555018 -0.009941928001275418 0.0020707448199581546 0.015595333353266903 0.9915596640462446 -0.0792533615569059 0.006700637454133455 0.033864396457489176
0.1500625260525 0.006986772786662728 0.03526844749151798 0.9911371119909052 -0.08261223311762814 0.002303051110636598 0.016240028151386834 -0.0019320796027871654 -0.010355476485361679
 0.9911371119909052 -0.08261223311762814 0.00700107452750082 0.035267487959472855 -0.0019323998435701424 -0.010355444470008154 0.002213785978826331 0.016252739375541475
 0.002303051110636598 0.016240028151386834 -0.0019323998435701424 -0.010355444470008154 0.006986979530948696 0.03527039974205612 0.9911372152450869 -0.08261023124520055
 -0.0019320796027871654 -0.010355476485361679 0.002213785978826331 0.016252739375541475 0.9911372152450869 -0.08261023124520055 0.007001064758816822 0.03526950092013401
0.15631513130469998 0.0072954821168870745 0.03666688652441989 0.9907013288337805 -0.08596154789720609 0.002458799717653443 0.01689405226585059 -0.002058580660050717 -0.010767043249940187
