! Created with skrf 1.8.0 (http://scikit-rf.org).
# GHz S RI R 50.0 
!freq ReS11 ImS11 ReS12 ImS12 ReS13 ImS13
! ReS14 ImS14
! ReS21 ImS21 ReS22 ImS22 ReS23 ImS23
! ReS24 ImS24
! ReS31 ImS31 ReS32 ImS32 ReS33 ImS33
! ReS34 ImS34
! ReS41 ImS41 ReS42 ImS42 ReS43 ImS43
! ReS44 ImS44
!
0.0 0.001366433366166 0.0 0.9986335665976 0.0 5.208437535076e-05 0.0 -5.208437522784e-05 6.378496340836395e-21
 0.9986335665976 0.0 0.001366433366195 0.0 -5.208437522898e-05 6.378496340976005e-21 5.208437535023e-05 0.0
 5.208437535076e-05 0.0 -5.208437522898e-05 6.378496340976005e-21 0.001366433384307 0.0 0.9986335666157 0.0
 -5.208437522784e-05 6.378496340836395e-21 5.208437535023e-05 0.0 0.9986335666157 0.0 0.001366433384282 0.0
0.005 0.0014696425284487253 0.0011242951853292372 0.9985030983134626 -0.0028624915977920867 7.175849431917264e-05 0.0005374577794516585 -6.998244512058485e-05 -0.00034378518621799663
 0.9985030983134626 -0.0028624915977920867 0.0014696422578888565 0.0011242952963563732 -6.998341658984458e-05 -0.00034378586296013466 7.174925637986588e-05 0.000537461135541371
 7.175849431917264e-05 0.0005374577794516585 -6.998341658984458e-05 -0.00034378586296013466 0.001469642060437512 0.0011242281572125927 0.9985030979710248 -0.002862558653782386
 -6.998244512058485e-05 -0.00034378518621799663 7.174925637986588e-05 0.000537461135541371 0.9985030979710248 -0.002862558653782386 0.001469642046189253 0.0011242282169491215
0.006252605252188 0.0014965747099688512 0.0014097824913513633 0.9984688649848397 -0.0035788332732392147 7.729304428194392e-05 0.0006721085479770194 -7.49670651926194e-05 -0.0004301751852694164
 0.9984688649848397 -0.0035788332732392147 0.0014965742878287626 0.001409782668883518 -7.496857744491546e-05 -0.0004301760184150336 7.727860883913445e-05 0.0006721129296985021
 7.729304428194392e-05 0.0006721085479770194 -7.496857744491546e-05 -0.0004301760184150336 0.001496574051922428 0.0014096986973474992 0.99846886452258 -0.0035789170981060927
 -7.49670651926194e-05 -0.0004301751852694164 7.727860883913445e-05 0.0006721129296985021 0.99846886452258 -0.0035789170981060927 0.0014965740296227414 0.0014096988231283916
0.01250521050438 0.001637556933898694 0.0028490742176012457 0.9982886109389791 -0.007158568311574586 0.00010857769586885927 0.0013447366738646729 -0.00010288046779120995 -0.0008624842787236836
 0.9982886109389791 -0.007158568311574586 0.0016375552580121082 0.0028490749723411053 -0.00010288643455270741 -0.0008624858052562925 0.00010852006911119874 0.001344747417245349
 0.00010857769586885927 0.0013447366738646729 -0.00010288643455270741 -0.0008624858052562925 0.0016375548808187017 0.0028489068464248855 0.9982886096581106 -0.007158735719066753
 -0.00010288046779120995 -0.0008624842787236836 0.00010852006911119874 0.001344747417245349 0.9982886096581106 -0.007158735719066753 0.001637554786145382 0.002848907621912205
0.01875781575657 0.001789659242815309 0.004308916684913754 0.9980926007309837 -0.01074793996453464 0.00014600764327441296 0.002018311037629913 -0.00013590376151794014 -0.0012963721793186334
 0.9980926007309837 -0.01074793996453464 0.0017896554932745525 0.004308918453790704 -0.00013591707777309853 -0.0012963742329254362 0.0001458780456328337 0.00201833044405652
 0.00014600764327441296 0.002018311037629913 -0.00013591707777309853 -0.0012963742329254362 0.0017896550672417161 0.0043086658228755894 0.9980925982702008 -0.010748190878811337
 -0.00013590376151794014 -0.0012963721793186334 0.0001458780456328337 0.00201833044405652 0.9980925982702008 -0.010748190878811337 0.0017896548405325079 0.0043086678112887735
0.02501042100875 0.0019531540990379375 0.005787310305804472 0.9978806233458057 -0.014348716783627386 0.000189652947833058 0.0026928680743197255 -0.00017411420420549437 -0.0017316701838994114
 0.9978806233458057 -0.014348716783627386 0.0019531474677596 0.005787313565083873 -0.00017413773399214329 -0.001731672568962762 0.00018942249997097704 0.002692898762774363
 0.000189652947833058 0.0026928680743197255 -0.00017413773399214329 -0.001731672568962762 0.0019531470880842666 0.005786976036229155 0.9978806193445655 -0.0143490511673473
 -0.00017411420420549437 -0.0017316701838994114 0.00018942249997097704 0.002692898762774363 0.9978806193445655 -0.0143490511673473 0.001953146662338951 0.0057869798432509684
0.03126302626094 0.0021283025857010787 0.007283241281624816 0.9976524560071423 -0.017961674107024563 0.00023958415999697228 0.0033683872306143775 -0.00021758727878170027 -0.002168262747969189
 0.9976524560071423 -0.017961674107024563 0.002128292276833866 0.007283246547881608 -0.00021762386056886984 -0.002168265239148613 0.0002392238581616437 0.003368432142007832
 0.00023958415999697228 0.0033683872306143775 -0.00021762386056886984 -0.002168265239148613 0.002128292041126472 0.007282823688001861 0.9976524501058499 -0.017962091958224347
 -0.00021758727878170027 -0.002168262747969189 0.0002392238581616437 0.003368432142007832 0.9976524501058499 -0.017962091958224347 0.00212829134399896 0.007282829963157631
0.037515631513130004 0.0023153603359300826 0.008796060123099343 0.9974078702464486 -0.021587215483505128 0.0002958717297637523 0.004044825560416026 -0.00026639718635336723 -0.002606052882619582
 0.9974078702464486 -0.021587215483505128 0.0023153455669420184 0.008796067953987456 -0.0002664496357739881 -0.0026060552246771323 0.0002953524334228813 0.004044887962589752
 0.0002958717297637523 0.004044825560416026 -0.0002664496357739881 -0.0026060552246771323 0.002315345571158006 0.008795559303783375 0.9974078620824453 -0.021587716820982362
 -0.00026639718635336723 -0.002606052882619582 0.0002953524334228813 0.004044887962589752 0.9974078620824453 -0.021587716820982362 0.0023153445266871787 0.008795568741381791
0.043768236765320004 0.0025145798308431415 0.01032529252780671 0.9971466343403662 -0.025225561732210227 0.0003585857198382761 0.0047221282571359765 -0.0003206170381383686 -0.003044951613257957
 0.9971466343403662 -0.025225561732210227 0.0025145598334401524 0.010325303522639204 -0.0003206881495988564 -0.0030449535209530667 0.0003578781449158079 0.00472221175023462
 0.0003585857198382761 0.0047221282571359765 -0.0003206881495988564 -0.0030449535209530667 0.0025145601710399998 0.010324708600505272 0.9971466235479611 -0.02522614659120011
 -0.0003206170381383686 -0.003044951613257957 0.0003578781449158079 0.00472221175023462 0.9971466235479611 -0.02522614659120011 0.002514558701148973 0.010324721940476466
0.050020842017509996 0.002726211471433558 0.01187056120386179 0.9968685145241813 -0.028876829054040577 0.0004277956440137303 0.005400232988801902 -0.0003803189220485942 -0.003484873636095232
 0.9968685145241813 -0.028876829054040577 0.002726185492607184 0.011870576004219527 -0.00038041146968916374 -0.003484874794101527 0.00042687035891761675 0.005400341510700641
 0.0004277956440137303 0.005400232988801902 -0.00038041146968916374 -0.003484874794101527 0.0027261862549065345 0.011869894312062545 0.9968685007354409 -0.028877497479911262
 -0.0003803189220485942 -0.003484873636095232 0.00042687035891761675 0.005400341510700641 0.9968685007354409 -0.028877497479911262 0.0027261842811350653 0.011869912340666318
0.055454545454549996 0.0029203992868353165 0.013226221410022544 0.9966129256106289 -0.03206042445326813 0.0004932701455156419 0.005990125412236469 -0.00043670898405953005 -0.0038679451653134606
 0.9966129256106289 -0.03206042445326813 0.0029203675111262642 0.013226240071741616 -0.0004368223980936946 -0.0038679453923217873 0.000492131645234798 0.005990259149449973
 0.0004932701455156419 0.005990125412236469 -0.0004368223980936946 -0.0038679453923217873 0.0029203687143505006 0.013225482545370374 0.9966129089169029 -0.032061165556836704
 -0.00043670898405953005 -0.0038679451653134606 0.000492131645234798 0.005990259149449973 0.9966129089169029 -0.032061165556836704 0.0029203662397915744 0.013225505323563739
0.056273447269699996 0.002950504139502757 0.013431547521148151 0.9965732756972062 -0.03254106731545104 0.0005035703483249323 0.006079072030312347 -0.0004455739256066322 -0.0039257351786752435
 0.9965732756972062 -0.03254106731545104 0.002950471442647608 0.013431566811372612 -0.0004456906639698679 -0.0039257352415202834 0.0005023977714762643 0.006079209862197308
 0.0005035703483249323 0.006079072030312347 -0.0004456906639698679 -0.0039257352415202834 0.0029504727177458254 0.013430797821896798 0.9965732585410612 -0.03254181937601602
 -0.0004455739256066322 -0.0039257351786752435 0.0005023977714762643 0.006079209862197308 0.9965732585410612 -0.03254181937601602 0.0029504701627145772 0.013430821372389724
0.06252605252188 0.0031877055067384657 0.015007970406868012 0.9962606818787354 -0.0362182810887962 0.0005859779202480242 0.0067585734291810045 -0.0005164521295074302 -0.004367452828705624
 0.9962606818787354 -0.0362182810887962 0.003187665372797608 0.015007994914583657 -0.0005165957939374658 -0.004367451420707463 0.0005845283189776294 0.00675874520115008
 0.0005859779202480242 0.0067585734291810045 -0.0005165957939374658 -0.004367451420707463 0.0031876672442844364 0.015007138080450243 0.9962606609805598 -0.03621911686484355
 -0.0005164521295074302 -0.004367452828705624 0.0005845283189776294 0.00675874520115008 0.9962606609805598 -0.03621911686484355 0.0031876640333214673 0.015007168033763042
0.06877865777407 0.0034380622073069975 0.016599573767983978 0.9959304965301891 -0.03990844216769613 0.0006750856108554228 0.0074386617007136955 -0.0005930225872696208 -0.004809942835399316
 0.9959304965301891 -0.03990844216769613 0.003438013936182379 0.016599604264519993 -0.0005931958941738699 -0.004809939550619917 0.0006733291008078011 0.007438872397428144
 0.0006750856108554228 0.0074386617007136955 -0.0005931958941738699 -0.004809939550619917 0.003438016481876738 0.01659865901823218 0.9959304715110913 -0.039909361752625806
 -0.0005930225872696208 -0.004809942835399316 0.0006733291008078011 0.007438872397428144 0.9959304715110913 -0.039909361752625806 0.0034380125448273606 0.01659869630347994
0.07503126302626001 0.003701819931013626 0.018206118525124014 0.9955824828006394 -0.04361149747259847 0.0007709597640578281 0.008119258271413628 -0.0006753532962570196 -0.0052531206647533765
 0.9955824828006394 -0.04361149747259847 0.0037017628426020887 0.01820615582598654 -0.0006755589432134603 -0.005253115066950637 0.0007688663095861069 0.008119513237811082
 0.0007709597640578281 0.008119258271413628 -0.0006755589432134603 -0.005253115066950637 0.003701766133744842 0.018205121576377315 0.9955824532770009 -0.043612500975749355
 -0.0006753532962570196 -0.0052531206647533765 0.0007688663095861069 0.008119513237811082 0.9955824532770009 -0.043612500975749355 0.0037017614066933513 0.01820516717145404
0.08128386827845 0.003979223464205583 0.019827377291948237 0.9952164037224529 -0.04732737431349251 0.0008736657526522738 0.008800281768729141 -0.0007635111610787897 -0.005696900710840631
 0.9952164037224529 -0.04732737431349251 0.0039791568999989445 0.01982742225714849 -0.0007637518269454198 -0.005696892333423005 0.000871205167200481 0.008800586715735035
 0.0008736657526522738 0.008800281768729141 -0.0007637518269454198 -0.005696892333423005 0.003979161000339963 0.019826298391622855 0.9952163693059881 -0.0473284618575148
 -0.0007635111610787897 -0.005696900710840631 0.000871205167200481 0.008800586715735035 0.9952163693059881 -0.0473284618575148 0.003979155427198428 0.01982635332369089
0.08753647353064001 0.004270516699235385 0.02146313071310419 0.994832022378631 -0.05105598399642434 0.000983267915877849 0.009481648226640377 -0.0008575619540543735 -0.006141196093628576
 0.994832022378631 -0.05105598399642434 0.004270440023376591 0.02146318424762425 -0.0008578402989302656 -0.0061411844396261975 0.000980409862935482 0.00948200923695155
 0.000983267915877849 0.009481648226640377 -0.0008578402989302656 -0.0061411844396261975 0.00427044498820698 0.021461970131516957 0.994831982675346 -0.05105715571757504
 -0.0008575619540543735 -0.006141196093628576 0.000980409862935482 0.00948200923695155 0.994831982675346 -0.05105715571757504 0.0042704385223784735 0.02146203547751685
0.09378907878283 0.004575942619931351 0.023113164832397025 0.9944291020481325 -0.05479722440262547 0.0010998294997220251 0.010163271232259297 -0.0009575702719111126 -0.006585918518391541
 0.9944291020481325 -0.05479722440262547 0.004575855220672218 0.023113227886460953 -0.0009578889370481632 -0.006585903060420873 0.0010965434940200666 0.010163694766109095
 0.0010998294997220251 0.010163271232259297 -0.0009578889370481632 -0.006585903060420873 0.004575861095277232 0.023111922863440184 0.9944290566582296 -0.05479848045012238
 -0.0009575702719111126 -0.006585918518391541 0.0010965434940200666 0.010163694766109095 0.9944290566582296 -0.05479848045012238 0.0045758537018251375 0.02311199975047309
0.100041684035 0.0048957432704297595 0.024777269171064795 0.9940074063381715 -0.05855098186035565 0.001223412598132904 0.010845062037231982 -0.0010635994903175619 -0.0070309781728971005
 0.9940074063381715 -0.05855098186035565 0.004895644561895988 0.02477734274046864 -0.001063961098103309 -0.007030958353133286 0.0012196680072866382 0.010845554938171744
 0.001223412598132904 0.010845062037231982 -0.001063961098103309 -0.007030958353133286 0.004895651381070992 0.02477594612973359 0.9940073548555796 -0.058552322398859595
 -0.0010635994903175619 -0.0070309781728971005 0.0012196680072866382 0.010845554938171744 0.9940073548555796 -0.058552322398859595 0.004895643038070291 0.02477603573551638
0.1059090909091 0.005209130670293702 0.02635146559096124 0.9935944034594705 -0.062084759052789866 0.0013458224695865161 0.011484921973129992 -0.001168627950304104 -0.007448844763408724
 0.9935944034594705 -0.062084759052789866 0.00520902084019062 0.026351549974421774 -0.0011690322232290112 -0.007448820316103052 0.0013416195557543007 0.011485486538477335
 0.0013458224695865161 0.011484921973129992 -0.0011690322232290112 -0.007448820316103052 0.005209028566456065 0.02635006678078178 0.9935943458838592 -0.06208617903705147
 -0.001168627950304104 -0.007448844763408724 0.0013416195557543007 0.011485486538477335 0.9935943458838592 -0.06208617903705147 0.005209019326075359 0.02635016943825135
0.1062942892872 0.005230159713063032 0.02645523527318611 0.9935666993067794 -0.06231713255271288 0.0013540780954550099 0.011526929640265386 -0.0011757117165607108 -0.007476283656159705
 0.9935666993067794 -0.06231713255271288 0.005230049136129258 0.026455320399603965 -0.0011761188702743722 -0.007476258886326884 0.0013498441415647363 0.01152749914104348
 0.0013540780954550099 0.011526929640265386 -0.0011761188702743722 -0.007476258886326884 0.0052300569224611616 0.026453831500422104 0.9935666413182896 -0.062318557757569774
 -0.0011757117165607108 -0.007476283656159705 0.0013498441415647363 0.01152749914104348 0.9935666413182896 -0.062318557757569774 0.00523004762333157 0.02645393505359769
0.11254689453939999 0.00557943197516046 0.028146855604079847 0.9931067455776649 -0.06609554357566948 0.0014918856091469506 0.012208780854465388 -0.0012939677406315895 -0.007921741925265532
 0.9931067455776649 -0.06609554357566948 0.005579308999504387 0.02814695337525055 -0.001294423024364396 -0.007921711586610702 0.0014871313706850495 0.012209434582772499
 0.0014918856091469506 0.012208780854465388 -0.001294423024364396 -0.007921711586610702 0.005579317762468251 0.028145371458814964 0.9931066806630161 -0.06609705364078673
 -0.0012939677406315895 -0.007921741925265532 0.0014871313706850495 0.012209434582772499 0.9931066806630161 -0.06609705364078673 0.005579307517508495 0.028145490239327088
0.11879949979160001 0.005943798989871421 0.029851922670835487 0.9926273104514309 -0.06988607377721477 0.001636893432889088 0.012890520363848048 -0.0014184269852208953 -0.00836725825572277
 0.9926273104514309 -0.06988607377721477 0.0059436631151104655 0.029852034220839478 -0.0014189329636377403 -0.008367221699016035 0.0016315878468018393 0.012891266348252819
 0.001636893432889088 0.012890520363848048 -0.0014189329636377403 -0.008367221699016035 0.0059436728499390025 0.029850358540826235 0.9926272381822571 -0.06988766890419751
 -0.0014184269852208953 -0.00836725825572277 0.0016315878468018393 0.012891266348252819 0.9926272381822571 -0.06988766890419751 0.005943661688464149 0.02985049388016147
0.1250521050438 0.006323498530736459 0.03157022835089765 0.992128160012562 -0.07368857439188531 0.0017891584798878112 0.013572050769501028 -0.001549147454647919 -0.008812736215268565
 0.992128160012562 -0.07368857439188531 0.0063233492882597145 0.0315703548603257 -0.0015497066728145067 -0.00881269276079836 0.0017832703437936001 0.013572897445226292
 0.0017891584798878112 0.013572050769501028 -0.0015497066728145067 -0.00881269276079836 0.006323359974936967 0.03156858464345754 0.9921280799526577 -0.07369025479928894
 -0.001549147454647919 -0.008812736215268565 0.0017832703437936001 0.013572897445226292 0.9921280799526577 -0.07369025479928894 0.006323347947051687 0.031568737924924345
0.131304710296 0.006718767141693692 0.03330156333249757 0.9916090612343534 -0.07750288956709518 0.0019487362261806022 0.01425327262982104 -0.0016861856830651901 -0.009258077646439983
 0.9916090612343534 -0.07750288956709518 0.006718604096113358 0.0333017060285601 -0.0016868006661708583 -0.009258026584019623 0.0019422342008070927 0.014254228844681072
 0.0019487362261806022 0.01425327262982104 -0.0016868006661708583 -0.009258026584019623 0.006718615697475375 0.033299840478337624 0.9916089729382828 -0.07750465548649739
 -0.0016861856830651901 -0.009258077646439983 0.0019422342008070927 0.014254228844681072 0.9916089729382828 -0.07750465548649739 0.006718602876399904 0.033300013137229446
0.1375573155481 0.007034745280847015 0.0348212479547425 0.9911649070767461 -0.08110430488136468 0.002094235231747954 0.014911645256369396 -0.001808163579779621 -0.009680746963384626
 0.9911649070767461 -0.08110430488136468 0.007034567552961088 0.03482140383433319 -0.0018088378408908595 -0.009680688279898923 0.0020871093968821146 0.014912708938178941
 0.002094235231747954 0.014911645256369396 -0.0018088378408908595 -0.009680688279898923 0.0070345795287065395 0.034819446777937905 0.9911648101684308 -0.08110615644127664
 -0.001808163579779621 -0.009680746963384626 0.0020871093968821146 0.014912708938178941 0.9911648101684308 -0.08110615644127664 0.007034567316825656 0.03481963507378136
0.1438099208003 0.007361708043084801 0.03633372688766229 0.990705401754847 -0.08469736903699326 0.002245603221664539 0.015567732364309762 -0.0019350200011372114 -0.010101307917385186
 0.990705401754847 -0.08469736903699326 0.007361515162765511 0.036333896811896166 -0.0019357562150915 -0.010101240924271887 0.0022378259159746916 0.015568911474011413
 0.002245603221664539 0.015567732364309762 -0.0019357562150915 -0.010101240924271887 0.007361527362571349 0.03633184789128625 0.9907052957904742 -0.08469930646256905
 -0.0019350200011372114 -0.010101307917385186 0.0022378259159746916 0.015568911474011413 0.9907052957904742 -0.08469930646256905 0.007361516104825797 0.03633205279410604
0.1500625260525 0.007699550630195477 0.037838896704694376 0.990230653413132 -0.08828201583019578 0.0024027932838073 0.01622148016555269 -0.002066709220354007 -0.01051970899287623
 0.990230653413132 -0.08828201583019578 0.007699342152709704 0.0378390815674689 -0.0020675100549461777 -0.010519632974267784 0.002394336963877713 0.016222782955227753
 0.0024027932838073 0.01622148016555269 -0.0020675100549461777 -0.010519632974267784 0.007699354405299363 0.03783694041190257 0.9902305379415279 -0.08828403935711455
 -0.002066709220354007 -0.01051970899287623 0.002394336963877713 0.016222782955227753 0.9902305379415279 -0.08828403935711455 0.007699344483379358 0.03783716292545463
0.15631513130469998 0.008048167625172752 0.039336657206960945 0.9897407706065285 -0.09185817884797215 0.0025657580206709676 0.016872835695231313 -0.002203185012025043 -0.010935899683399706
