! Created with skrf 1.8.0 (http://scikit-rf.org).
# GHz S RI R 50.0 
!freq ReS11 ImS11 ReS12 ImS12 ReS13 ImS13
! ReS14 ImS14
! ReS21 ImS21 ReS22 ImS22 ReS23 ImS23
! ReS24 ImS24
! ReS31 ImS31 ReS32 ImS32 ReS33 ImS33
! ReS34 ImS34
! ReS41 ImS41 ReS42 ImS42 ReS43 ImS43
! ReS44 ImS44
!
0.0 0.001688014180858 0.0 0.9983119858078 0.0 6.568037048697e-05 0.0 -6.568037075362e-05 8.043525581023217e-21
 0.9983119858078 0.0 0.001688014180826 0.0 -6.56803707531e-05 8.043525580959534e-21 6.56803704869e-05 0.0
 6.568037048697e-05 0.0 -6.56803707531e-05 8.043525580959534e-21 0.001688014186529 0.0 0.9983119858135 0.0
 -6.568037075362e-05 8.043525581023217e-21 6.56803704869e-05 0.0 0.9983119858135 0.0 0.001688014186521 0.0
0.005 0.0018167182417655103 0.0013743435320315775 0.9981490889100642 -0.0035358252012363933 9.310233707197918e-05 0.0007606558414383465 -9.028530782311981e-05 -0.00047087669495334244
 0.9981490889100642 -0.0035358252012363933 0.0018166759748780225 0.0013743682468035545 -9.029074092211896e-05 -0.00047088085207508894 9.335333536657404e-05 0.0007605603045405771
 9.310233707197918e-05 0.0007606558414383465 -9.029074092211896e-05 -0.00047088085207508894 0.0018167158973197628 0.0013744121996343058 0.9981490892806127 -0.0035357581418195955
 -9.028530782311981e-05 -0.00047087669495334244 9.335333536657404e-05 0.0007605603045405771 0.9981490892806127 -0.0035357581418195955 0.001816679052314553 0.001374433691509258
0.006252605252188 0.0018506190006097067 0.0017233447942757447 0.9981058953910988 -0.004420626708514707 0.00010098065717663 0.0009511642554079439 -9.730357968742432e-05 -0.0005892044124966282
 0.9981058953910988 -0.004420626708514707 0.001850552928891342 0.0017233761264459735 -9.731203413486145e-05 -0.000589209536843918 0.00010137281724103711 0.0009510401352636039
 0.00010098065717663 0.0009511642554079439 -9.731203413486145e-05 -0.000589209536843918 0.0018506152590784183 0.001723430625785743 0.9981058958941419 -0.004420542887326775
 -9.730357968742432e-05 -0.0005892044124966282 0.00010137281724103711 0.0009510401352636039 0.9981058958941419 -0.004420542887326775 0.0018505576634401878 0.0017234579226089977
0.01250521050438 0.0020299264501778855 0.003482806535661586 0.9978758627313514 -0.00884192994038335 0.00014639548059308915 0.0019025366211889631 -0.00013750745313032025 -0.0011812045546964727
 0.9978758627313514 -0.00884192994038335 0.0020296626120300636 0.003482873628889644 -0.00013754077218607616 -0.0011812140076272381 0.00014795931286634906 0.00190223739596173
 0.00014639548059308915 0.0019025366211889631 -0.00013754077218607616 -0.0011812140076272381 0.00202991095625448 0.0034829779717786315 0.9978758641939323 -0.00884176252842077
 -0.00013750745313032025 -0.0011812045546964727 0.00014795931286634906 0.00190223739596173 0.9978758641939323 -0.00884176252842077 0.0020296809725855874 0.003483036878115626
0.01875781575657 0.00222635702035637 0.005267229150671487 0.9976215811853762 -0.013274642393384606 0.00020203664382440023 0.00285477767755719 -0.0001864231715680478 -0.0017750750605581354
 0.9976215811853762 -0.013274642393384606 0.0022257641366434577 0.005267336793252774 -0.00018649747454993476 -0.0017750878792233264 0.0002055495890060074 0.0028542417103757747
 0.00020203664382440023 0.00285477767755719 -0.00018649747454993476 -0.0017750878792233264 0.0022263217687540394 0.005267486134631985 0.997621584051974 -0.013274391469128849
 -0.0001864231715680478 -0.0017750750605581354 0.0002055495890060074 0.0028542417103757747 0.997621584051974 -0.013274391469128849 0.00222580497407648 0.00526758117639766
0.02501042100875 0.0024403170763295126 0.007074064440541146 0.997342731282571 -0.01772087495349791 0.0002680161659176774 0.003807917679084293 -0.00024417674000814854 -0.0023705128489505353
 0.997342731282571 -0.01772087495349791 0.0024392641059833202 0.0070742177319246605 -0.00024430795262906334 -0.0023705278873703615 0.00027425590288048684 0.003807073007095047
 0.0002680161659176774 0.003807917679084293 -0.00024430795262906334 -0.0023705278873703615 0.002440254072055356 0.007074407001232681 0.9973427360039985 -0.017720540523839156
 -0.00024417674000814854 -0.0023705128489505353 0.00027425590288048684 0.003807073007095047 0.9973427360039985 -0.017720540523839156 0.0024393362591432492 0.00707454287706383
0.03126302626094 0.0026721961255117043 0.008901981474069492 0.997038978396328 -0.022181507262828266 0.0003444458501263955 0.00476189415261649 -0.0003108900208414141 -0.0029672997569344496
 0.997038978396328 -0.022181507262828266 0.00267055218702345 0.008902185816039913 -0.00031109390756017043 -0.0029673156841076628 0.00035419099546074595 0.004760658422850227
 0.0003444458501263955 0.00476189415261649 -0.00031109390756017043 -0.0029673156841076628 0.0026720973750304616 0.008902409673541521 0.9970389854260111 -0.022181089315590933
 -0.0003108900208414141 -0.0029672997569344496 0.00035419099546074595 0.004760658422850227 0.9970389854260111 -0.022181089315590933 0.002670664481560214 0.008902591245433116
0.037515631513130004 0.002922374868914262 0.010750097614693649 0.9967099811345873 -0.026656956631898474 0.00043143633157011153 0.005716607762476846 -0.00038668165954231344 -0.0035652467198620283
 0.9967099811345873 -0.026656956631898474 0.002920009186766566 0.01075035870763159 -0.00038697383991570685 -0.0035652620192090333 0.0004454667416903312 0.005714888127188529
 0.00043143633157011153 0.005716607762476846 -0.00038697383991570685 -0.0035652620192090333 0.002922232376860149 0.01075061156060489 0.9967099909283779 -0.026656455123712272
 -0.00038668165954231344 -0.0035652467198620283 0.0004454667416903312 0.005714888127188529 0.9967099909283779 -0.026656455123712272 0.00292017043553798 0.0107508438488391
0.043768236765320004 0.003191228287741777 0.0126177445384893 0.9963553947589964 -0.031147411951863536 0.0005290966079253479 0.006671939308863258 -0.00047166740776708165 -0.004164176803731299
 0.9963553947589964 -0.031147411951863536 0.0031880101479664757 0.012618068380119947 -0.0004720633659575708 -0.004164189772944213 0.0005481935102839255 0.006669632308371035
 0.0005290966079253479 0.006671939308863258 -0.0004720633659575708 -0.004164189772944213 0.0031910340559408537 0.01261834437350004 0.9963554077769761 -0.031146826819478775
 -0.00047166740776708165 -0.004164176803731299 0.0005481935102839255 0.006669632308371035 0.9963554077769761 -0.031146826819478775 0.0031882291522149103 0.012618632553431671
0.050020842017509996 0.003479127069373688 0.014504371512604957 0.9959748729453323 -0.03565293034609431 0.0006375337444262584 0.007627756756537761 -0.0005659602280208866 -0.004763918206992328
 0.9959748729453323 -0.03565293034609431 0.0034749257805341697 0.014504764398264014 -0.0005664753188257664 -0.004763926958024134 0.0006624797782120534 0.007624748197139539
 0.0006375337444262584 0.007627756756537761 -0.0005664753188257664 -0.004763926958024134 0.003478873097242155 0.014505057422381035 0.9959748896540002 -0.03565226149923681
 -0.0005659602280208866 -0.004763918206992328 0.0006624797782120534 0.007624748197139539 0.9959748896540002 -0.03565226149923681 0.0034752113310209895 0.014505406822642423
0.055454545454549996 0.0037450721981739693 0.0161589471696 0.9956228558259955 -0.03958057581623215 0.0007406025674619744 0.008458676062384513 -0.0006555476708206329 -0.0052856384402841326
 0.9956228558259955 -0.03958057581623215 0.0037399103754273775 0.01615940540142941 -0.000656178663818651 -0.0052856418480333135 0.0007712683586734139 0.008454956657828352
 0.0007406025674619744 0.008458676062384513 -0.000656178663818651 -0.0052856418480333135 0.0037447598076592154 0.016159708056785616 0.9956228761244558 -0.03957983413358943
 -0.0006555476708206329 -0.0052856384402841326 0.0007712683586734139 0.008454956657828352 0.9956228761244558 -0.03957983413358943 0.0037402608856567827 0.01616011510544714
0.056273447269699996 0.0037864383240054913 0.01640949796074912 0.9955680688378433 -0.040173484538192535 0.000756852653283403 0.008583918695199986 -0.0006696703032469409 -0.005364300834506216
 0.9955680688378433 -0.040173484538192535 0.0037811231804758334 0.01640996648487783 -0.0006703197558503173 -0.0053643032936097 0.0007884318551353736 0.008580083525053963
 0.000756852653283403 0.008583918695199986 -0.0006703197558503173 -0.0053643032936097 0.0037861166049026544 0.016410270164480913 0.9955680897084502 -0.04017273186982061
 -0.0006696703032469409 -0.005364300834506216 0.0007884318551353736 0.008580083525053963 0.9955680897084502 -0.04017273186982061 0.0037814840550401013 0.016410686266381626
0.06252605252188 0.004113525951918575 0.018332687344484906 0.9951346357585065 -0.04470898890934735 0.0008871559108365041 0.009540276242264946 -0.0007829049967783201 -0.0059651544345110455
 0.9951346357585065 -0.04470898890934735 0.0041069661993161435 0.018333238403397813 -0.0007837039173744657 -0.005965148342326685 0.0009261536639347401 0.009535478426801917
 0.0008871559108365041 0.009540276242264946 -0.0007837039173744657 -0.005965148342326685 0.004113128473609344 0.018333546101710105 0.9951346612691798 -0.04470815228969302
 -0.0007829049967783201 -0.0059651544345110455 0.0009261536639347401 0.009535478426801917 0.9951346612691798 -0.04470815228969302 0.00410741116264095 0.01833403453985883
0.06877865777407 0.004460750820510254 0.0202735316361636 0.9946742277308825 -0.04925931497071909 0.0010285435952405787 0.010496674194467169 -0.0009057687844955236 -0.006566307493190545
 0.9946742277308825 -0.04925931497071909 0.004452815621154564 0.02027417243204386 -0.0009067321577329534 -0.006566290404876464 0.0010757465523172447 0.010490766592099663
 0.0010285435952405787 0.010496674194467169 -0.0009067321577329534 -0.006566290404876464 0.004460269563845687 0.020274477246645353 0.9946742583667297 -0.04925839424848119
 -0.0009057687844955236 -0.006566307493190545 0.0010757465523172447 0.010490766592099663 0.9946742583667297 -0.04925839424848119 0.004453353424163738 0.02027504381056878
0.07503126302626001 0.004828470828391605 0.022231641455006997 0.9941864998947747 -0.0538243011801023 0.0011811131355136235 0.011452951763207637 -0.0010383631700946905 -0.007167586552455129
 0.9941864998947747 -0.0538243011801023 0.004819029228133082 0.022232379500951274 -0.0010395058600655848 -0.007167555837820961 0.0012373091225132962 0.011445776001924323
 0.0011811131355136235 0.011452951763207637 -0.0010395058600655848 -0.007167555837820961 0.004827897767896896 0.022232674254570907 0.9941865361498475 -0.05382329618760296
 -0.0010383631700946905 -0.007167586552455129 0.0012373091225132962 0.011445776001924323 0.9941865361498475 -0.05382329618760296 0.004819668607480686 0.022233324891658388
0.08128386827845 0.005217040899848537 0.02420663951766782 0.9936711088563863 -0.058403759451950234 0.0013449591689861323 0.012408943078931322 -0.0011807865887045034 -0.007768815765982657
 0.9936711088563863 -0.058403759451950234 0.005205961794342291 0.024207482644095436 -0.0011821233392631623 -0.007768768609662645 0.0014109370729809287 0.01240032943425006
 0.0013449591689861323 0.012408943078931322 -0.0011821233392631623 -0.007768768609662645 0.0052163680011730554 0.02420775988574904 0.9936711512328064 -0.058402669998663996
 -0.0011807865887045034 -0.007768815765982657 0.0014109370729809287 0.01240032943425006 0.9936711512328064 -0.058402669998663996 0.00520671147001159 0.024208500705257274
0.08753647353064001 0.005626812928323508 0.02619815611957023 0.9931277129911418 -0.06299747964514131 0.0015201734028740172 0.013364477548311313 -0.0013331343030813156 -0.00836981661021877
 0.9931277129911418 -0.06299747964514131 0.005613965029927456 0.02619911248174766 -0.001334679737915134 -0.008369750011865683 0.0015967230476278626 0.013354244822711733
 0.0015201734028740172 0.013364477548311313 -0.001334679737915134 -0.008369750011865683 0.005626032149564671 0.026199364475695076 0.9931277620015785 -0.0629963055223434
 -0.0013331343030813156 -0.00836981661021877 0.0015967230476278626 0.013354244822711733 0.9931277620015785 -0.0629963055223434 0.005614833705405388 0.02620020175405023
0.09378907878283 0.0060581356906678095 0.028205825900856244 0.9925559727220346 -0.06760523277510262 0.001706844479236677 0.014319380126470325 -0.0014954982945587665 -0.00897040768818887
 0.9925559727220346 -0.06760523277510262 0.006043387495051868 0.028206903987714846 -0.0014972669168699237 -0.008970318462696959 0.0017947564901857399 0.014307335530756835
 0.001706844479236677 0.014319380126470325 -0.0014972669168699237 -0.008970318462696959 0.006057238980761024 0.028207122705489838 0.9925560288894727 -0.06760397375614179
 -0.0014954982945587665 -0.00897040768818887 0.0017947564901857399 0.014307335530756835 0.9925560288894727 -0.06760397375614179 0.006044383855163904 0.028208062892821316
0.100041684035 0.006511354735630594 0.0302292854911957 0.9919555507752045 -0.07222677335600626 0.0019050578425596808 0.015273471526816454 -0.001667967149791278 -0.009570404603822916
 0.9919555507752045 -0.07222677335600626 0.006494574488362087 0.030230494135478823 -0.0016699733418135032 -0.009570289381574329 0.0020051235023988254 0.015259410563566878
 0.0019050578425596808 0.015273471526816454 -0.0016699733418135032 -0.009570289381574329 0.006510334034361369 0.030230671250034546 0.9919556146342481 -0.07222542919332321
 -0.001667967149791278 -0.009570404603822916 0.0020051235023988254 0.015259410563566878 0.9919556146342481 -0.07222542919332321 0.006495707198111362 0.03023172097799165
0.1059090909091 0.006956872035738342 0.03214212487594746 0.9913657345844887 -0.07657590693157228 0.0021016308360171775 0.016167884076987066 -0.0018390769726672235 -0.010132730726239342
 0.9913657345844887 -0.07657590693157228 0.006938064842472129 0.032143464384057734 -0.0018413190707184893 -0.010132587880048135 0.002213821521061551 0.016151734448448488
 0.0021016308360171775 0.016167884076987066 -0.0018413190707184893 -0.010132587880048135 0.006955727642166318 0.03214359460800522 0.9913658061579768 -0.076574482628909
 -0.0018390769726672235 -0.010132730726239342 0.002213821521061551 0.016151734448448488 0.9913658061579768 -0.076574482628909 0.006939333363504837 0.032144753329305796
0.1062942892872 0.006986812255435888 0.03226817174518427 0.9913261124230078 -0.07686184116211772 0.002114895608457337 0.016226568394588754 -0.0018506259450365395 -0.01016961988094609
 0.9913261124230078 -0.07686184116211772 0.00696786791888235 0.03226952013483833 -0.001852883967275361 -0.010169475108095558 0.00222790670505155 0.016210274743799456
 0.002114895608457337 0.016226568394588754 -0.001852883967275361 -0.010169475108095558 0.006985659492747623 0.032269647007693046 0.991326184520117 -0.07686041158993515
 -0.0018506259450365395 -0.01016961988094609 0.00222790670505155 0.016210274743799456 0.991326184520117 -0.07686041158993515 0.006969145621753127 0.03227081309856296
0.11254689453939999 0.007484846944463196 0.03432212039658397 0.99066732571651 -0.08151016257998366 0.002336436434234967 0.017178483452707755 -0.0020435561281974797 -0.010767862918372268
 0.99066732571651 -0.08151016257998366 0.007463606163590461 0.03432361808766973 -0.0020460801185631502 -0.010767684857183196 0.002463185100829447 0.017159728859955727
 0.002336436434234967 0.017178483452707755 -0.0020460801185631502 -0.010767684857183196 0.0074835540403091275 0.03432368575931698 0.9906674066116651 -0.08150864731234869
 -0.0020435561281974797 -0.010767862918372268 0.002463185100829447 0.017159728859955727 0.9906674066116651 -0.08150864731234869 0.007465037480732293 0.03432497523654091
0.11879949979160001 0.008005793847115958 0.03639076502176263 0.9899788617116878 -0.0861714516615454 0.002569755390217207 0.018129025632617007 -0.002246835399452226 -0.011364939968802196
 0.9899788617116878 -0.0861714516615454 0.007982123916369903 0.036392421952565035 -0.0022496393722271574 -0.011364724697951701 0.0027110339394461913 0.018107569799802593
 0.002569755390217207 0.018129025632617007 -0.0022496393722271574 -0.011364724697951701 0.008004352710994632 0.03639242112738457 0.9899789519786318 -0.08616985039463726
 -0.002246835399452226 -0.011364939968802196 0.0027110339394461913 0.018107569799802593 0.9899789519786318 -0.08616985039463726 0.00798371744412775 0.036393841227521644
0.1250521050438 0.008549984197566252 0.03847373622682841 0.9892603946887938 -0.09084541096373183 0.002814923832351354 0.01907800019109367 -0.0024605375909349672 -0.01196065414033454
 0.9892603946887938 -0.09084541096373183 0.008523752026829005 0.03847556273358098 -0.0024636354356426513 -0.011960397555313333 0.002971524583746989 0.019053590669987436
 0.002814923832351354 0.01907800019109367 -0.0024636354356426513 -0.011960397555313333 0.008548386728442464 0.03847548376628158 0.9892604949164008 -0.0908437233751966
 -0.0024605375909349672 -0.01196065414033454 0.002971524583746989 0.019053590669987436 0.9892604949164008 -0.0908437233751966 0.008525516335768073 0.03847704195234477
0.131304710296 0.0091177452537624 0.04057066100773349 0.988511602369545 -0.0955317322257821 0.003072009275469163 0.020025208820993526 -0.0026847325458959196 -0.012554805413087507
 0.988511602369545 -0.0955317322257821 0.009088817334392959 0.040572667841754596 -0.002688138026034642 -0.012554503226642793 0.0032447243776539394 0.01999758090965479
 0.003072009275469163 0.020025208820993526 -0.002688138026034642 -0.012554503226642793 0.00911598333938165 0.0405725007201903 0.9885117131620972 -0.09552995797625638
 -0.0026847325458959196 -0.012554805413087507 0.0032447243776539394 0.01999758090965479 0.9885117131620972 -0.09552995797625638 0.009090760967384814 0.040574204696435225
0.1375573155481 0.009584615924020901 0.04240672423458222 0.9878570132558087 -0.09995548354660304 0.0033094016672800724 0.02094308861842613 -0.0028876157963468136 -0.01312000284981254
 0.9878570132558087 -0.09995548354660304 0.009552849916287546 0.04240888245606914 -0.002891349359750885 -0.013119654427228143 0.0034986246807468206 0.020912267443723077
 0.0033094016672800724 0.02094308861842613 -0.002891349359750885 -0.013119654427228143 0.00958268207811761 0.04240865711776611 0.9878571351072113 -0.09995362244712136
 -0.0028876157963468136 -0.01312000284981254 0.0034986246807468206 0.020912267443723077 0.9878571351072113 -0.09995362244712136 0.009554980982272525 0.04241047462829986
0.1438099208003 0.01006806564314324 0.044232115970809116 0.9871791126593831 -0.10436703816140884 0.003556337631002026 0.02185683747653586 -0.0030985880211661914 -0.013681299590795996
 0.9871791126593831 -0.10436703816140884 0.010033326179320772 0.04423443423476624 -0.0031026644533110764 -0.013680900687909687 0.0037627885619832637 0.02182257953163652
 0.003556337631002026 0.02185683747653586 -0.0031026644533110764 -0.013680900687909687 0.010065951848514018 0.04423414279316035 0.9871792461735803 -0.10436508988237837
 -0.0030985880211661914 -0.013681299590795996 0.0037627885619832637 0.02182257953163652 0.9871792461735803 -0.10436508988237837 0.010035653107248917 0.04423607932827501
0.1500625260525 0.010567910054659648 0.04604665444035449 0.9864780899579667 -0.10876625720692974 0.0038127223688981062 0.022766348720056284 -0.003317554542002145 -0.014238590881512794
 0.9864780899579667 -0.10876625720692974 0.010530061333249652 0.046049141967401855 -0.003321988587760596 -0.014238137083672225 0.004037116476653483 0.02272840158454827
 0.0038127223688981062 0.022766348720056284 -0.003321988587760596 -0.014238137083672225 0.010565608289884195 0.04604877600566545 0.9864782357519427 -0.10876422140576678
 -0.003317554542002145 -0.014238590881512794 0.004037116476653483 0.02272840158454827 0.9864782357519427 -0.10876422140576678 0.010532592521618726 0.04605083748983749
0.15631513130469998 0.011083963312640483 0.047850163283924836 0.9857541356990228 -0.11315300295770568 0.004078459867413832 0.023671517713792774 -0.0035444194141216333 -0.014791774362414141
 0.9857541356990228 -0.11315300295770568 0.011042869086399043 0.047852829878991886 -0.003549225776954526 -0.014791261085296032 0.004321507586613063 0.023629620152754945
