! Created with skrf 1.8.0 (http://scikit-rf.org).
# GHz S RI R 50.0 
!freq ReS11 ImS11 ReS12 ImS12 ReS13 ImS13
! ReS14 ImS14
! ReS21 ImS21 ReS22 ImS22 ReS23 ImS23
! ReS24 ImS24
! ReS31 ImS31 ReS32 ImS32 ReS33 ImS33
! ReS34 ImS34
! ReS41 ImS41 ReS42 ImS42 ReS43 ImS43
! ReS44 ImS44
!
0.0 0.001564309939199 0.0 0.9984356900352 0.0 6.062308567621e-05 0.0 -6.062308452051e-05 7.424186641248202e-21
 0.9984356900352 0.0 0.001564309939147 0.0 -6.062308451991e-05 7.424186641174723e-21 6.06230856735e-05 0.0
 6.062308567621e-05 0.0 -6.062308451991e-05 7.424186641174723e-21 0.001564309951972 0.0 0.998435690048 0.0
 -6.062308452051e-05 7.424186641248202e-21 6.06230856735e-05 0.0 0.998435690048 0.0 0.001564309951956 0.0
0.005 0.0016831788514761767 0.0012749944880539054 0.9982852720969609 -0.0032770458213098527 8.571911208095426e-05 0.0006959513271766327 -8.304132864211249e-05 -0.0004319424320529777
 0.9982852720969609 -0.0032770458213098527 0.0016831967893592304 0.0012749839633103561 -8.303977111708325e-05 -0.000431941192635051 8.561503664577315e-05 0.0006959909582738252
 8.571911208095426e-05 0.0006959513271766327 -8.303977111708325e-05 -0.000431941192635051 0.0016831802208840548 0.001275060914244337 0.9982852724584983 -0.003276978760493608
 -8.304132864211249e-05 -0.0004319424320529777 8.561503664577315e-05 0.0006959909582738252 0.9982852724584983 -0.003276978760493608 0.0016831961386311318 0.001275051655657913
0.006252605252188 0.001714372141868306 0.0015987776703245253 0.9982455432755281 -0.0040971076113063215 9.291141874927113e-05 0.0008702612620123879 -8.938423900240631e-05 -0.0005404916202874202
 0.9982455432755281 -0.0040971076113063215 0.0017144001826188105 0.001598764309314091 -8.938181571632968e-05 -0.0005404900912327704 9.274881057353672e-05 0.0008703127252502101
 9.291141874927113e-05 0.0008702612620123879 -8.938181571632968e-05 -0.0005404900912327704 0.0017143742157901289 0.0015988606886875828 0.9982455437734431 -0.004097023792740822
 -8.938423900240631e-05 -0.0005404916202874202 9.274881057353672e-05 0.0008703127252502101 0.9982455437734431 -0.004097023792740822 0.0017143990977063236 0.0015988489209718371
0.01250521050438 0.0018786830814134534 0.0032311894742962895 0.9980348501229298 -0.008195021001358395 0.00013427549165116888 0.0017407800674456438 -0.00012544504156233427 -0.001083615911869114
 0.9980348501229298 -0.008195021001358395 0.0018787950569215109 0.003231160679764562 -0.0001254354956628748 -0.0010836130750324692 0.0001336270469328493 0.0017409037728977692
 0.00013427549165116888 0.0017407800674456438 -0.0001254354956628748 -0.0010836130750324692 0.0018786907695860968 0.0032313551842595933 0.998034851513366 -0.008194853601117316
 -0.00012544504156233427 -0.001083615911869114 0.0001336270469328493 0.0017409037728977692 0.998034851513366 -0.008194853601117316 0.0018787901187145275 0.0032313297019316008
0.01875781575657 0.0020576066314269724 0.004886923942311562 0.9978033452213483 -0.012303713090714524 0.0001848108170584394 0.0026121652141568303 -0.00016891822151673003 -0.0016285489145526362
 0.9978033452213483 -0.012303713090714524 0.002057858262692106 0.0048868774766953555 -0.00016889693944856295 -0.0016285450329816848 0.000183354156057953 0.002612386048755555
 0.0001848108170584394 0.0026121652141568303 -0.00016889693944856295 -0.0016285450329816848 0.0020576234951321746 0.00488717210559383 0.9978033479248599 -0.012303462200838262
 -0.00016891822151673003 -0.0016285489145526362 0.000183354156057953 0.002612386048755555 0.9978033479248599 -0.012303462200838262 0.002057846728390427 0.004887130854762837
0.02501042100875 0.0022514956018632715 0.006563647060173281 0.9975507526419016 -0.016425168164392302 0.00024461466037550264 0.00348445458844827 -0.00021991262789004324 -0.002175031377665086
 0.9975507526419016 -0.016425168164392302 0.0022519425093186886 0.006563580540162933 -0.00021987505305193846 -0.0021750267608975533 0.0002420272865427132 0.0034848014069595503
 0.00024461466037550264 0.00348445458844827 -0.00021987505305193846 -0.0021750267608975533 0.002251525192236963 0.006563977434880283 0.9975507570713625 -0.01642483382507904
 -0.00021991262789004324 -0.002175031377665086 0.0002420272865427132 0.0034848014069595503 0.9975507570713625 -0.01642483382507904 0.0022519216230168474 0.006563918271786921
0.03126302626094 0.002460688178020205 0.008260153698625103 0.997276782566922 -0.020560230421045475 0.00031378486368395807 0.004357602361614709 -0.00027853388659202617 -0.0027228815070347197
 0.997276782566922 -0.020560230421045475 0.002461385912159116 0.008260064598776946 -0.00027847550959955963 -0.0027228765116566076 0.00030974386803775964 0.0043581080094599505
 0.00031378486368395807 0.004357602361614709 -0.00027847550959955963 -0.0027228765116566076 0.0024607340438895365 0.008260566010053446 0.9972767891346332 -0.020559812649541327
 -0.00027853388659202617 -0.0027228815070347197 0.00030974386803775964 0.0043581080094599505 0.9972767891346332 -0.020559812649541327 0.0024613529107514894 0.00826048670486984
0.037515631513130004 0.0026855151354195452 0.00997565505443493 0.9969811387432226 -0.024709316472059237 0.00039241878102160596 0.005231529633131148 -0.00034488520804541137 -0.0032719443217345046
 0.9969811387432226 -0.024709316472059237 0.0026865191971168463 0.009975540708567935 -0.0003448015618051289 -0.0032719393515171632 0.000386600711710557 0.005232230985941614
 0.00039241878102160596 0.005231529633131148 -0.0003448015618051289 -0.0032719393515171632 0.002685580825498695 0.009976148985781039 0.9969811478633083 -0.024708815271415212
 -0.00034488520804541137 -0.0032719443217345046 0.000386600711710557 0.005232230985941614 0.9969811478633083 -0.024708815271415212 0.0026864713112463266 0.009976047224704885
0.043768236765320004 0.0029263026334479104 0.011709561798407674 0.9966635215175188 -0.028872632123862874 0.0004806127881619925 0.006106139823266477 -0.0004190676673663391 -0.0038220762653794014
 0.9966635215175188 -0.028872632123862874 0.002927668490206571 0.011709419400213368 -0.0004189543240582563 -0.003822071771309423 0.00047269359097604473 0.006107077831606074
 0.0004806127881619925 0.006106139823266477 -0.0004189543240582563 -0.003822071771309423 0.0029263916951987206 0.011710136994335056 0.996663533605466 -0.028872047478764512
 -0.0004190676673663391 -0.0038220762653794014 0.00047269359097604473 0.006107077831606074 0.996663533605466 -0.028872047478764512 0.0029276029431481512 0.011710010380929534
0.050020842017509996 0.003183373502997231 0.013461394474874855 0.9963236293700427 -0.03305026190711279 0.0005784619860917254 0.006981325038993252 -0.0005011803059532808 -0.004373138847495608
 0.9963236293700427 -0.03305026190711279 0.0031851566030981064 0.01346122107798646 -0.000501032875169952 -0.004373135327751118 0.0005681169825507507 0.006982544775159971
 0.0005784619860917254 0.006981325038993252 -0.000501032875169952 -0.004373135327751118 0.0031834894834959263 0.013462050526254765 0.9963236448440829 -0.03304959379854582
 -0.0005011803059532808 -0.004373138847495608 0.0005681169825507507 0.006982544775159971 0.9963236448440829 -0.03304959379854582 0.0031850706111650616 0.013461896582434478
0.055454545454549996 0.003420248683627323 0.014998025823634353 0.9960099279299961 -0.03669238063885758 0.0006714098464317588 0.007742264516963284 -0.0005790543607999267 -0.004852678665157734
 0.9960099279299961 -0.03669238063885758 0.003422439406093299 0.01499782298602462 -0.0005788737694341399 -0.004852676433346066 0.0006586925804510359 0.007743768924336303
 0.0006714098464317588 0.007742264516963284 -0.0005788737694341399 -0.004852676433346066 0.0034203909361955175 0.01499875178472931 0.9960099466879349 -0.036691639961332456
 -0.0005790543607999267 -0.004852678665157734 0.0006586925804510359 0.007743768924336303 0.9960099466879349 -0.036691639961332456 0.0034223333798930927 0.014998572014276436
0.056273447269699996 0.0034570479074931097 0.015230739497127454 0.9959611598260721 -0.03724221301137382 0.0006860599908085322 0.007856969197025577 -0.0005913201525488475 -0.004924995531678637
 0.9959611598260721 -0.03724221301137382 0.003459303692619378 0.015230532014682462 -0.0005911342799396887 -0.004924993531599417 0.0006729638788181304 0.007858519902678118
 0.0006860599908085322 0.007856969197025577 -0.0005911342799396887 -0.004924993531599417 0.0034571943517305486 0.015231475962270409 0.9959611791067039 -0.037241461394777395
 -0.0005913201525488475 -0.004924995531678637 0.0006729638788181304 0.007858519902678118 0.9959611791067039 -0.037241461394777395 0.0034591944640249847 0.015231292128655708
0.06252605252188 0.00374764369301041 0.017017224991154507 0.9955758100610168 -0.041448439374803435 0.0008034987677460037 0.00873294974712804 -0.0006895822013945272 -0.00547751002780547
 0.9955758100610168 -0.041448439374803435 0.003750427610471487 0.01701698019506829 -0.0006893535677868344 -0.005477510139844997 0.0007873256375264704 0.008734884881224377
 0.0008034987677460037 0.00873294974712804 -0.0006893535677868344 -0.005477510139844997 0.003747824144302867 0.017018041370585737 0.995575833571749 -0.041447604204708964
 -0.0006895822013945272 -0.00547751002780547 0.0007873256375264704 0.008734884881224377 0.995575833571749 -0.041447604204708964 0.00375029234593962 0.017017825006680476
0.06877865777407 0.004055476567567655 0.018820506360395672 0.9951672773378587 -0.04566885605694902 0.00093086849108266 0.009609138694127795 -0.000796059366061787 -0.006030545290294144
 0.9951672773378587 -0.04566885605694902 0.004058844082065514 0.01882022088018518 -0.0007957836868448122 -0.006030548153968488 0.0009112918516621402 0.009611515980770244
 0.00093086849108266 0.009609138694127795 -0.0007957836868448122 -0.006030548153968488 0.004055694566688794 0.018821402109610565 0.9951673055057675 -0.045667937273656506
 -0.000796059366061787 -0.006030545290294144 0.0009112918516621402 0.009611515980770244 0.9951673055057675 -0.045667937273656506 0.004058679974254289 0.01882115049346782
0.07503126302626001 0.004380860182495641 0.020640257160830282 0.9947352593519898 -0.049903348306099424 0.0010682574145607427 0.010485403266475455 -0.0009108424213340907 -0.00658396287476434
 0.9947352593519898 -0.049903348306099424 0.004384866787696507 0.020639927481972572 -0.0009105154460100352 -0.006583969176599133 0.0010449502283421132 0.010488284742487072
 0.0010682574145607427 0.010485403266475455 -0.0009105154460100352 -0.006583969176599133 0.004381119266732077 0.02064123168616144 0.9947352926076122 -0.04990234583921684
 -0.0009108424213340907 -0.00658396287476434 0.0010449502283421132 0.010488284742487072 0.9947352926076122 -0.04990234583921684 0.004384671020826663 0.020640942013705327
0.08128386827845 0.0047241061487558285 0.02247616301317874 0.9942794545138376 -0.054151777594704124 0.00121575175418374 0.011361606351980786 -0.001034019932527046 -0.00713762253275609
 0.9942794545138376 -0.054151777594704124 0.0047288073784990045 0.022475785475274138 -0.0010336374444029081 -0.007137633006228927 0.0011883864776923599 0.011365058414042744
 0.00121575175418374 0.011361606351980786 -0.0010336374444029081 -0.007137633006228927 0.004724409851628854 0.022477215670746356 0.9942794932921514 -0.05415069136366118
 -0.001034019932527046 -0.00713762253275609 0.0011883864776923599 0.011365058414042744 0.9942794932921514 -0.05415069136366118 0.004728577128793993 0.022476885054659758
0.08753647353064001 0.00508552401171639 0.024327917407238418 0.993799562194227 -0.05841398576846696 0.0013734355747659997 0.012237606815166526 -0.0011656781800234845 -0.0076913819302107285
 0.993799562194227 -0.05841398576846696 0.005090975451359254 0.024327488201557963 -0.0011652359960551198 -0.007691397355682402 0.0013416842045014374 0.012241700266386754
 0.0013734355747659997 0.012237606815166526 -0.0011652359960551198 -0.007691397355682402 0.0050858758621161616 0.02432904750405847 0.9937996069346461 -0.058412815680884564
 -0.0011656781800234845 -0.0076913819302107285 0.0013416842045014374 0.012241700266386754 0.9937996069346461 -0.058412815680884564 0.005090707886572108 0.024328672972369073
0.09378907878283 0.00546542119774676 0.02619521870526506 0.993295282945309 -0.06268979800233059 0.0015413906807015374 0.013113259728015898 -0.001305901078599664 -0.00824509645810607
 0.993295282945309 -0.06268979800233059 0.0054716784955699815 0.026194733872029016 -0.0013053950493115635 -0.008245117662754807 0.0015049248034643505 0.013118069823894588
 0.0015413906807015374 0.013113259728015898 -0.0013053950493115635 -0.008245117662754807 0.005465824719289357 0.026196425494557248 0.9932953340924445 -0.06268854395825081
 -0.001305901078599664 -0.00824509645810607 0.0015049248034643505 0.013118069823894588 0.9932953340924445 -0.06268854395825081 0.005471370774918941 0.026196003988673427
0.100041684035 0.005864102939257107 0.02807776793684283 0.9927663187029334 -0.06697902497123621 0.0017196965097009244 0.013988416548982434 -0.0014547700932619004 -0.008798619100578126
 0.9927663187029334 -0.06697902497123621 0.005871221817432247 0.028077223362023156 -0.0014541961026629305 -0.008798646958331168 0.0016781873561968446 0.01399402304260372
 0.0017196965097009244 0.013988416548982434 -0.0014541961026629305 -0.008798646958331168 0.005864561649135326 0.02807905062023039 0.9927663767063348 -0.06697768686035431
 -0.0014547700932619004 -0.008798619100578126 0.0016781873561968446 0.01399402304260372 0.9927663767063348 -0.06697768686035431 0.005870871091600168 0.028078578992664117
0.1059090909091 0.006255577709667903 0.0298579431325353 0.9922472270041878 -0.07101603014462983 0.0018965000806660673 0.014809071845070488 -0.0016024017641671647 -0.009317733726190488
 0.9922472270041878 -0.07101603014462983 0.006263555844262717 0.029857338614348885 -0.0016017602855507912 -0.009317768663578132 0.001849959068305269 0.014815502253461958
 0.0018965000806660673 0.014809071845070488 -0.0016017602855507912 -0.009317768663578132 0.006256091400718416 0.029859296263054527 0.9922472918559494 -0.07101461303547149
 -0.0016024017641671647 -0.009317733726190488 0.001849959068305269 0.014815502253461958 0.9922472918559494 -0.07101461303547149 0.0062631621634317985 0.029858774657374892
0.1062942892872 0.006281872184140151 0.02997526715422664 0.9922123729771972 -0.07128146446688062 0.0019084300279463616 0.014862925262821666 -0.0016123641524057918 -0.00935180034806221
 0.9922123729771972 -0.07128146446688062 0.006289908450342294 0.02997465856592903 -0.0016117181180979004 -0.009351835779513895 0.0018615485299874484 0.014869412449243
 0.0019084300279463616 0.014862925262821666 -0.0016117181180979004 -0.009351835779513895 0.006282389592888439 0.029976624883063168 0.9922124382927792 -0.07128004216686579
 -0.0016123641524057918 -0.00935180034806221 0.0018615485299874484 0.014869412449243 0.9922124382927792 -0.07128004216686579 0.006289511861324766 0.02997609989464777
0.11254689453939999 0.006719029494035119 0.031887418178833477 0.9916331510347635 -0.07559690263012543 0.0021076656270192524 0.015736630500236694 -0.0017787595589369364 -0.009904488136607999
 0.9916331510347635 -0.07559690263012543 0.00672803905243405 0.03188674114327592 -0.0017780374320922128 -0.009904532108952984 0.002055082477505191 0.015744087260003627
 0.0021076656270192524 0.015736630500236694 -0.0017780374320922128 -0.009904532108952984 0.006719609103970081 0.03188885005040137 0.9916332241243854 -0.07559539600994854
 -0.0017787595589369364 -0.009904488136607999 0.002055082477505191 0.015744087260003627 0.9916332241243854 -0.07559539600994854 0.006727593733614706 0.031888268367082306
0.11879949979160001 0.007175872933018136 0.03381392161554129 0.991028360075082 -0.07992511492248833 0.0023174750213950782 0.016609373638739818 -0.001954029900158278 -0.010456527812024462
 0.991028360075082 -0.07992511492248833 0.007185911795890292 0.033813171532476836 -0.001953227665748757 -0.01045658133893567 0.0022588607367864054 0.016617893480522054
 0.0023174750213950782 0.016609373638739818 -0.001953227665748757 -0.01045658133893567 0.007176518237996226 0.03381542667233639 0.9910284414072004 -0.07992352384276283
 -0.001954029900158278 -0.010456527812024462 0.0022588607367864054 0.016617893480522054 0.9910284414072004 -0.07992352384276283 0.00718541487176044 0.033814784861513396
0.1250521050438 0.0076526979487676556 0.035754476091007 0.990397709400913 -0.08426586688077102 0.002537927147256713 0.017480992890671843 -0.0021382459560126323 -0.011007762113174183
 0.990397709400913 -0.08426586688077102 0.007663822247814925 0.03575364818877156 -0.0021373596328368555 -0.011007826254749548 0.0024729521326942575 0.017490673992816258
 0.002537927147256713 0.017480992890671843 -0.0021373596328368555 -0.011007826254749548 0.007653412433031219 0.03575605332499261 0.9903977994513521 -0.0842641911891035
 -0.0021382459560126323 -0.011007762113174183 0.0024729521326942575 0.017490673992816258 0.9903977994513521 -0.0842641911891035 0.007663270834171843 0.03575534785131779
0.131304710296 0.008149797248654661 0.0377087776414955 0.9897409105876109 -0.08861891472936569 0.0027690880615717514 0.018351323387317833 -0.00233147560690389 -0.011558031165439147
 0.9897409105876109 -0.08861891472936569 0.008162063246320796 0.03770786697156347 -0.0023305012479183595 -0.011558107028087204 0.0026974226779702356 0.01836226863843499
 0.0027690880615717514 0.018351323387317833 -0.0023305012479183595 -0.011558107028087204 0.00815058438592224 0.03771042598930747 0.9897410098394163 -0.08861715426486685
 -0.00233147560690389 -0.011558031165439147 0.0026974226779702356 0.01836226863843499 0.9897410098394163 -0.08861715426486685 0.008161454450030838 0.037709653210090587
0.1375573155481 0.008554423065851195 0.039420682299617454 0.9891707600273189 -0.09272805489364752 0.0029825340323553708 0.019194472711675258 -0.002505385118523569 -0.012081406552389103
 0.9891707600273189 -0.09272805489364752 0.008567890108067782 0.03941970268560696 -0.0025043167496223307 -0.01208149423268932 0.0029040135932919273 0.01920666750536977
 0.0029825340323553708 0.019194472711675258 -0.0025043167496223307 -0.01208149423268932 0.008555285602107051 0.039422401007224724 0.9891708689015456 -0.09272620958801527
 -0.002505385118523569 -0.012081406552389103 0.0029040135932919273 0.01920666750536977 0.9891708689015456 -0.09272620958801527 0.00856722187569597 0.03942157557958465
0.1438099208003 0.008973302397334836 0.04112333575866741 0.9885804995219578 -0.09682656235613875 0.003204615590194638 0.02003409015973299 -0.002686254926744973 -0.012601581066126065
 0.9885804995219578 -0.09682656235613875 0.008988027362235338 0.04112228336339454 -0.002685088285008839 -0.01260168165657095 0.003118940188521227 0.020047628697813714
 0.003204615590194638 0.02003409015973299 -0.002685088285008839 -0.01260168165657095 0.008974243661023562 0.0411251237577671 0.9885806184993104 -0.0968246320572993
 -0.002686254926744973 -0.012601581066126065 0.003118940188521227 0.020047628697813714 0.9885806184993104 -0.0968246320572993 0.00898729693989931 0.04112424313503901
0.1500625260525 0.009406284421185055 0.04281658926593394 0.9879702841053163 -0.10091432890531846 0.003435255129591695 0.02087008565153692 -0.0028740102846912083 -0.013118470686671359
 0.9879702841053163 -0.10091432890531846 0.00942232432201626 0.042815460023244885 -0.0028727411154695756 -0.013118585323889998 0.0033421267229256555 0.02088506556542017
 0.003435255129591695 0.02087008565153692 -0.0028727411154695756 -0.013118585323889998 0.009407307722272811 0.042818445446920865 0.9879704136728086 -0.10091231345539027
 -0.0028740102846912083 -0.013118470686671359 0.0033421267229256555 0.02088506556542017 0.9879704136728086 -0.10091231345539027 0.009421528957215156 0.04281750690392833
0.15631513130469998 0.009853217202564046 0.04450029854953309 0.9873402696461187 -0.1049912468465426 0.003674374104465359 0.021702370659059875 -0.003068575503514567 -0.013631993201739866
 0.9873402696461187 -0.1049912468465426 0.00987062919164166 0.04449908815821633 -0.0030671995605819407 -0.01363212306630794 0.0035734965450497157 0.021718892972246093
