! Created with skrf 1.8.0 (http://scikit-rf.org).
# GHz S RI R 50.0 
!freq ReS11 ImS11 ReS12 ImS12 ReS13 ImS13
! ReS14 ImS14
! ReS21 ImS21 ReS22 ImS22 ReS23 ImS23
! ReS24 ImS24
! ReS31 ImS31 ReS32 ImS32 ReS33 ImS33
! ReS34 ImS34
! ReS41 ImS41 ReS42 ImS42 ReS43 ImS43
! ReS44 ImS44
!
0.0 0.001600701235403 0.0 0.9983992987375 0.0 6.216884607185e-05 0.0 -6.216884613846e-05 7.613487843014933e-21
 0.9983992987375 0.0 0.001600701235369 0.0 -6.216884613759e-05 7.613487842908389e-21 6.216884607096e-05 0.0
 6.216884607185e-05 0.0 -6.216884613759e-05 7.613487842908389e-21 0.0016007012372 0.0 0.9983992987394 0.0
 -6.216884613846e-05 7.613487843014933e-21 6.216884607096e-05 0.0 0.9983992987394 0.0 0.001600701237213 0.0
0.005 0.0017224704494418269 0.0013032149520320886 0.9982451971190128 -0.003353171496025353 8.814464425267248e-05 0.0007221259007743177 -8.536959973117286e-05 -0.00044674444185341026
 0.9982451971190128 -0.003353171496025353 0.0017224725450507776 0.0013032137484564321 -8.537111005651087e-05 -0.0004467456480089058 8.813056994770676e-05 0.0007221313421849554
 8.814464425267248e-05 0.0007221259007743177 -8.537111005651087e-05 -0.0004467456480089058 0.0017224690884051115 0.001303148518242175 0.9982451967562528 -0.0033532385554671785
 -8.536959973117286e-05 -0.00044674444185341026 8.813056994770676e-05 0.0007221313421849554 0.9982451967562528 -0.0033532385554671785 0.001722473179474354 0.0013031460598001065
0.006252605252188 0.001754460533313264 0.0016341662805607821 0.9982044469374978 -0.0041922786493542065 9.559738115675427e-05 0.0009029863367829265 -9.195107223831605e-05 -0.0005590132577746156
 0.9982044469374978 -0.0041922786493542065 0.0017544638087636092 0.001634164723945884 -9.195342206728648e-05 -0.0005590147458272985 9.557539238815794e-05 0.0009029933910533238
 9.559738115675427e-05 0.0009029863367829265 -9.195342206728648e-05 -0.0005590147458272985 0.0017544584791317956 0.0016340832540017362 0.9982044464441947 -0.004192362462082018
 -9.195107223831605e-05 -0.0005590132577746156 9.557539238815794e-05 0.0009029933910533238 0.9982044464441947 -0.004192362462082018 0.0017544648746833193 0.0016340801177901604
0.01250521050438 0.00192317589510907 0.003302711012496732 0.997988060160119 -0.008385333925000361 0.00013850361008876304 0.0018061945812264737 -0.00012946008234713 -0.001120734460105392
 0.997988060160119 -0.008385333925000361 0.0019231889674578046 0.003302707377550851 -0.00012946933834686848 -0.0011207372208528283 0.00013841595323582165 0.0018062114292733775
 0.00013850361008876304 0.0018061945812264737 -0.00012946933834686848 -0.0011207372208528283 0.00192316825291952 0.0033025452505373734 0.997988058758471 -0.008385501301137828
 -0.00012946008234713 -0.001120734460105392 0.00013841595323582165 0.0018062114292733775 0.997988058758471 -0.008385501301137828 0.0019231937978021996 0.0033025383264914175
0.01875781575657 0.0021072276997500363 0.004995073011403545 0.9977498610676444 -0.012589363846009938 0.00019098824889071333 0.0027102613992442187 -0.00017481490890052903 -0.0016842948517856486
 0.9977498610676444 -0.012589363846009938 0.0021072570616907983 0.004995066757262943 -0.00017483554391662583 -0.001684298628617675 0.0001907914068956951 0.002710291346808417
 0.00019098824889071333 0.0027102613992442187 -0.00017483554391662583 -0.001684298628617675 0.0021072109343532675 0.004994824686539435 0.9977498583405178 -0.012589614661616476
 -0.00017481490890052903 -0.0016842948517856486 0.0001907914068956951 0.002710291346808417 0.9977498583405178 -0.012589614661616476 0.002107268349184553 0.004994813245146854
0.02501042100875 0.0023069843531242497 0.006708855217307705 0.9974895610813536 -0.01680639033747811 0.0002531534302546073 0.0036152238506564805 -0.0002281302381123547 -0.002249418510549814
 0.9974895610813536 -0.01680639033747811 0.002307036476198444 0.006708845784826756 -0.00022816666954074923 -0.0022494230010074215 0.00025280391340022607 0.00361527074627852
 0.0002531534302546073 0.0036152238506564805 -0.00022816666954074923 -0.0022494230010074215 0.0023069549316213954 0.006708524472191076 0.9974895566172924 -0.016806724504186667
 -0.0002281302381123547 -0.002249418510549814 0.00025280391340022607 0.00361527074627852 0.9974895566172924 -0.016806724504186667 0.0023070569186869824 0.006708507709213104
0.03126302626094 0.002522798987702883 0.008442815608259682 0.997206857364596 -0.02103726829054625 0.0003251016640489541 0.004521031020760633 -0.0002895172182075236 -0.002815910728482629
 0.997206857364596 -0.02103726829054625 0.0025228803254745825 0.008442802420184593 -0.0002895738174356691 -0.0028159155837116753 0.00032455596960521944 0.004521099257529762
 0.0003251016640489541 0.004521031020760633 -0.0002895738174356691 -0.0028159155837116753 0.0025227533725849863 0.008442402587234093 0.9972068507528346 -0.02103768572427008
 -0.0002895172182075236 -0.002815910728482629 0.00032455596960521944 0.004521099257529762 0.9972068507528346 -0.02103768572427008 0.002522912621022753 0.008442379623675054
0.037515631513130004 0.002755016922845862 0.010196137974113336 0.9969014405500394 -0.025282414728333244 0.00040693478017944976 0.005427597188803705 -0.0003590843160683863 -0.0033836048547382608
 0.9969014405500394 -0.025282414728333244 0.002755133913580208 0.010196120435354252 -0.0003591654132906601 -0.003383609679381432 0.0004061493755578552 0.005427691708621064
 0.00040693478017944976 0.005427597188803705 -0.0003591654132906601 -0.003383609679381432 0.00275495157322436 0.01019564282806811 0.9969014313822114 -0.025282915344940246
 -0.0003590843160683863 -0.0033836048547382608 0.0004061493755578552 0.005427691708621064 0.9969014313822114 -0.025282915344940246 0.0027551807625773154 0.010195612709613854
0.043768236765320004 0.0030039785402269834 0.011968209985923349 0.9965729978819896 -0.029542030666962576 0.0004987534318452211 0.006334818001908412 -0.00043693761730269185 -0.0039523461326624555
 0.9965729978819896 -0.029542030666962576 0.0030041376084771207 0.01196818748365468 -0.00043704750447406526 -0.003952350484816387 0.0004976847475907394 0.006334944300526021
 0.0004987534318452211 0.006334818001908412 -0.00043704750447406526 -0.003952350484816387 0.003003889912024763 0.011967632871229655 0.9965729857530131 -0.029542614383722545
 -0.00043693761730269185 -0.0039523461326624555 0.0004976847475907394 0.006334944300526021 0.9965729857530131 -0.029542614383722545 0.0030042017135156317 0.01196759456777656
0.050020842017509996 0.0032700206146741625 0.013758531478936558 0.9962212148191925 -0.03381619276159881 0.0006006567923745147 0.007242577155323827 -0.0005231809323477273 -0.004521985033256234
 0.9962212148191925 -0.03381619276159881 0.003270228173463933 0.013758503382719245 -0.0005233238650387277 -0.004521988424507579 0.0005992612208423929 0.007242741287672278
 0.0006006567923745147 0.007242577155323827 -0.0005233238650387277 -0.004521988424507579 0.0032699051589765 0.013757872570630074 0.9962211993262222 -0.033816859484683076
 -0.0005231809323477273 -0.004521985033256234 0.0005992612208423929 0.007242741287672278 0.9962211993262222 -0.033816859484683076 0.0032703122377511283 0.013757824975473662
0.055454545454549996 0.0035153500071960623 0.015328858437745424 0.9958963044962333 -0.03754238173148818 0.0006974796683322082 0.008031787687346456 -0.0006050216324611647 -0.005017632853930604
 0.9958963044962333 -0.03754238173148818 0.003515604905861479 0.015328824954654388 -0.0006051967114645722 -0.0050176349773680545 0.0006957645785667001 0.00803199005409325
 0.0006974796683322082 0.008031787687346456 -0.0006051967114645722 -0.0050176349773680545 0.0035152083515714652 0.0153281285946161 0.9958962857543268 -0.03754312051544852
 -0.0006050216324611647 -0.005017632853930604 0.0006957645785667001 0.00803199005409325 0.9958962857543268 -0.03754312051544852 0.0035157085106326505 0.015328071965925982
0.056273447269699996 0.0035534769910427456 0.015566669450851221 0.9958457759866274 -0.038104898239391574 0.0007127423387148423 0.00815074967972862 -0.0006179158149557416 -0.0050923739856711695
 0.9958457759866274 -0.038104898239391574 0.0035537394430900132 0.015566635112791324 -0.0006180960136299313 -0.005092375881117833 0.0007109762355831191 0.00815095826537423
 0.0007127423387148423 0.00815074967972862 -0.0006180960136299313 -0.005092375881117833 0.0035533311543006303 0.015565928929156918 0.9958457567292833 -0.038105647877802615
 -0.0006179158149557416 -0.0050923739856711695 0.0007109762355831191 0.00815095826537423 0.9958457567292833 -0.038105647877802615 0.0035538461701216514 0.015565870858330742
0.06252605252188 0.0038546789392246363 0.017392233304535543 0.9954463658101429 -0.04240808959176419 0.000835105678030927 0.009059203746090082 -0.0007212415355634355 -0.0056633655949736295
 0.9954463658101429 -0.04240808959176419 0.003855002678841043 0.01739219205926492 -0.0007214631864876179 -0.0056633654132740895 0.0008329253663687152 0.009059463974628033
 0.000835105678030927 0.009059203746090082 -0.0007214631864876179 -0.0056633654132740895 0.0038544991629902046 0.01739141136719787 0.9954463423906428 -0.04240892204558881
 -0.0007212415355634355 -0.0056633655949736295 0.0008329253663687152 0.009059463974628033 0.9954463423906428 -0.04240892204558881 0.0038551347715365188 0.01739134155865848
0.06877865777407 0.0041739553345896555 0.01923486010228243 0.9950226689807413 -0.046725669259959385 0.0009678403971574597 0.009967801755716738 -0.0008332550306873487 -0.0062348115799407315
 0.9950226689807413 -0.046725669259959385 0.004174346748847154 0.019234811266975443 -0.0008335222865430197 -0.006234808693355337 0.000965202172357039 0.009968121392167099
 0.0009678403971574597 0.009967801755716738 -0.0008335222865430197 -0.006234808693355337 0.004173738055775396 0.019233956962066943 0.9950226410043994 -0.04672658442349179
 -0.0008332550306873487 -0.0062348115799407315 0.000965202172357039 0.009968121392167099 0.9950226410043994 -0.04672658442349179 0.004174506909188192 0.019233874074840118
0.07503126302626001 0.0045116327326307736 0.02109420521796386 0.9945743708168986 -0.051057508928363034 0.0011110379269267188 0.010876401029098854 -0.0009540508348722425 -0.006806562117750252
 0.9945743708168986 -0.051057508928363034 0.0045120982033093 0.021094148092300383 -0.0009543678152232403 -0.006806555852196645 0.0011078980639167484 0.010876788419170178
 0.0011110379269267188 0.010876401029098854 -0.0009543678152232403 -0.006806555852196645 0.00451137438374324 0.021093221105117285 0.9945743378927226 -0.051058506688195476
 -0.0009540508348722425 -0.006806562117750252 0.0011078980639167484 0.010876788419170178 0.9945743378927226 -0.051058506688195476 0.0045122891316717526 0.021093123718388094
0.08128386827845 0.004868035381085923 0.022969936118761643 0.9941011575688509 -0.05540345569422037 0.0012647874148695002 0.01178485428021311 -0.0010837210040430204 -0.007378465409007776
 0.9941011575688509 -0.05540345569422037 0.004868581285528632 0.02296986998482708 -0.0010840917955539922 -0.007378455044106753 0.0012611021748834413 0.01178531835549057
 0.0012647874148695002 0.01178485428021311 -0.0010840917955539922 -0.007378455044106753 0.004867732389424651 0.022968871276777696 0.9941011193088084 -0.055404535934095604
 -0.0010837210040430204 -0.007378465409007776 0.0012611021748834413 0.01178531835549057 0.9941011193088084 -0.055404535934095604 0.004868805679640068 0.022968757889053792
0.08753647353064001 0.005243485184990905 0.02486172806170917 0.9936027166798355 -0.05976333632910512 0.001429175603522791 0.012693009945722101 -0.0012223550304952609 -0.007950367394073619
 0.9936027166798355 -0.05976333632910512 0.005244117898140424 0.024861652183778626 -0.0012227836872122028 -0.007950352163209745 0.0014249012427218289 0.012693560228722107
 0.001429175603522791 0.012693009945722101 -0.0012227836872122028 -0.007950352163209745 0.005243133973399989 0.02486058275413415 0.9936026726994864 -0.05976449892367846
 -0.0012223550304952609 -0.007950367394073619 0.0014249012427218289 0.012693560228722107 0.9936026726994864 -0.05976449892367846 0.005244378452322981 0.024860451782131886
0.09378907878283 0.00563830164400331 0.02676926103654959 0.9930787370224999 -0.0641369603007022 0.0016042867125541508 0.013600712435566535 -0.0013700397538596433 -0.008522111554215554
 0.9930787370224999 -0.0641369603007022 0.005639027539797996 0.026769174660901052 -0.0013705302972762013 -0.008522090644588556 0.0015993794906259426 0.013601359044633441
 0.0016042867125541508 0.013600712435566535 -0.0013705302972762013 -0.008522090644588556 0.0056378986310466825 0.026768035542428216 0.9930786869415318 -0.06413820512078079
 -0.0013700397538596433 -0.008522111554215554 0.0015993794906259426 0.013601359044633441 0.9930786869415318 -0.06413820512078079 0.005639326944492975 0.026767885320121455
0.100041684035 0.0060528017677464 0.028692217513274894 0.9925289091176713 -0.06852412199722509 0.001790202323305662 0.014507802322029098 -0.0015268592681277888 -0.009093538780800214
 0.9925289091176713 -0.06852412199722509 0.0060536272204205705 0.028692119867880943 -0.001527415687205218 -0.00909351133349487 0.0017846185127186318 0.014508555976049742
 0.001790202323305662 0.014507802322029098 -0.001527415687205218 -0.00909351133349487 0.006052343367217136 0.028690912133566462 0.9925288525596812 -0.06852544890398468
 -0.0015268592681277888 -0.009093538780800214 0.0017846185127186318 0.014508555976049742 0.9925288525596812 -0.06852544890398468 0.006053968160900126 0.028690740911055303
0.1059090909091 0.006459948363631076 0.03051045357278335 0.9919891711941039 -0.07265312540313006 0.0019745612379905146 0.01535830756539723 -0.001682398158190297 -0.009629330294953255
 0.9919891711941039 -0.07265312540313006 0.006460873038690002 0.030510344633231434 -0.001683019993544956 -0.009629295890526225 0.0019683027710103744 0.015359171957494524
 0.0019745612379905146 0.01535830756539723 -0.001683019993544956 -0.009629295890526225 0.0064594347225486555 0.030509073518507547 0.9919891082198351 -0.07265452920884317
 -0.001682398158190297 -0.009629330294953255 0.0019683027710103744 0.015359171957494524 0.9919891082198351 -0.07265452920884317 0.006461255393267466 0.030508880922372812
0.1062942892872 0.0064872999741800745 0.0306302807628297 0.9919529253394054 -0.07292460238584245 0.001987001265656707 0.015414116493196895 -0.0016928948254667886 -0.009664487286659883
 0.9919529253394054 -0.07292460238584245 0.006488231359696805 0.030630171057081105 -0.0016935210766525963 -0.009664452396702597 0.001980697161552977 0.015414988516220002
 0.001987001265656707 0.015414116493196895 -0.0016935210766525963 -0.009664452396702597 0.006486782595783921 0.0306288958167092 0.9919528619323782 -0.07292601123508081
 -0.0016928948254667886 -0.009664487286659883 0.001980697161552977 0.015414988516220002 0.9919528619323782 -0.07292601123508081 0.0064886165154949 0.030628701759161988
0.11254689453939999 0.006942107976271903 0.0325831335730452 0.9913504801116643 -0.07733817028358217 0.002194759505660911 0.016319488282037102 -0.0018682247387404093 -0.01023479254864966
 0.9913504801116643 -0.07733817028358217 0.006943151674266271 0.03258301099720479 -0.0018689247459280794 -0.010234749265072557 0.002187691436069904 0.016320490607602565
 0.002194759505660911 0.016319488282037102 -0.0018689247459280794 -0.010234749265072557 0.006941528025683837 0.032581669398546 0.9913504094881855 -0.07733966092582033
 -0.0018682247387404093 -0.01023479254864966 0.002187691436069904 0.016320490607602565 0.9913504094881855 -0.07733966092582033 0.006943583718171955 0.032581450584956255
0.11879949979160001 0.007417534660023898 0.03455045725189597 0.9907212700988536 -0.08176458334868104 0.0024135500348171877 0.017223747576906277 -0.00205292428197295 -0.010804287275586378
 0.9907212700988536 -0.08176458334868104 0.007418697054912466 0.034550320976773 -0.002053701936308612 -0.010804234601523612 0.002405674371238833 0.017224892752294083
 0.0024135500348171877 0.017223747576906277 -0.002053701936308612 -0.010804234601523612 0.007416888538811813 0.034548914209828634 0.9907211918959025 -0.08176615562583993
 -0.00205292428197295 -0.010804287275586378 0.002405674371238833 0.017224892752294083 0.9907211918959025 -0.08176615562583993 0.007419178652021302 0.034548668631803454
0.1250521050438 0.007913885953258593 0.03653193084851663 0.9900649943905452 -0.08620358886221396 0.0026434427598967824 0.018126720921272578 -0.0022470655898764505 -0.011372801394045387
 0.9900649943905452 -0.08620358886221396 0.007915173435613638 0.03653178002479496 -0.002247924749718284 -0.01137273828678583 0.002634715928184529 0.018128022111452403
 0.0026434427598967824 0.018126720921272578 -0.002247924749718284 -0.01137273828678583 0.00791317005922974 0.036530309319841976 0.990064908250295 -0.08620524261090204
 -0.0022470655898764505 -0.011372801394045387 0.002634715928184529 0.018128022111452403 0.990064908250295 -0.08620524261090204 0.007915707242735173 0.036530034880340366
0.131304710296 0.008431464689443988 0.038527230531720705 0.9893813546834035 -0.09065492436037637 0.0028845043937374077 0.01902823160456651 -0.00245071755649828 -0.011940162050062727
 0.9893813546834035 -0.09065492436037637 0.008432883657956686 0.03852706428942086 -0.0024516620471775664 -0.011940087421138487 0.0028748828853878755 0.019029702596039175
 0.0028845043937374077 0.01902823160456651 -0.0024516620471775664 -0.011940087421138487 0.00843067541707979 0.0385255309194235 0.9893812602533512 -0.09065665941079956
 -0.00245071755649828 -0.011940162050062727 0.0028748828853878755 0.019029702596039175 0.9893812602533512 -0.09065665941079956 0.008433472322540237 0.03852522543137169
0.1375573155481 0.008854120559524893 0.04027456841766093 0.9887865541466271 -0.09485672773411911 0.0031071490594401104 0.019901806486946397 -0.0026343092471990443 -0.012479911308427192
 0.9887865541466271 -0.09485672773411911 0.008855678711662695 0.04027439123715803 -0.0026353448744807577 -0.012479825045332725 0.0030966084561847096 0.019903445504686073
 0.0031071490594401104 0.019901806486946397 -0.0026353448744807577 -0.012479825045332725 0.008853255118382525 0.04027279085084107 0.988786451060638 -0.09485854391767537
 -0.0026343092471990443 -0.012479911308427192 0.0030966084561847096 0.019903445504686073 0.988786451060638 -0.09485854391767537 0.008856324081417965 0.04027245799072207
0.1438099208003 0.009291700477884154 0.04201224130784346 0.9881707116814914 -0.09904743865953479 0.0033387856175932564 0.02077163149119583 -0.002825241577214365 -0.013016233025192302
 0.9881707116814914 -0.09904743865953479 0.00929340443711944 0.04201205270502326 -0.002826372475591236 -0.013016134050656677 0.003327285952250841 0.020773451205749915
 0.0033387856175932564 0.02077163149119583 -0.002826372475591236 -0.013016134050656677 0.009290755402681369 0.0420103861514247 0.9881705995929457 -0.0990493357954174
 -0.002825241577214365 -0.013016233025192302 0.003327285952250841 0.020773451205749915 0.9881705995929457 -0.0990493357954174 0.00929410899981601 0.04201002413975101
0.1500625260525 0.009744043889500155 0.04374009094314198 0.9875339923281042 -0.1032269399600474 0.003579330586760179 0.021637610308322664 -0.0030234334225256623 -0.013549036429077432
 0.9875339923281042 -0.1032269399600474 0.009745900298065 0.043739890401694924 -0.0030246637185914267 -0.013548923622124964 0.003566832175825851 0.02163962384692337
 0.003579330586760179 0.021637610308322664 -0.0030246637185914267 -0.013548923622124964 0.009743015720643613 0.04373815857523963 0.987533870895607 -0.10322891786042276
 -0.0030234334225256623 -0.013549036429077432 0.003566832175825851 0.02163962384692337 0.987533870895607 -0.10322891786042276 0.009746666522607429 0.04373776555067935
0.15631513130469998 0.010210989016168114 0.045457963816627346 0.9868765620612803 -0.10739511515478906 0.0038286994492131303 0.022499648339565855 -0.003228802613215123 -0.014078232741993936
 0.9868765620612803 -0.10739511515478906 0.010213004535701498 0.045457750787056314 -0.0032301364256385736 -0.014078104938045923 0.003815162898004829 0.02250186928018242
