! Created with skrf 1.8.0 (http://scikit-rf.org).
# GHz S RI R 50.0 
!freq ReS11 ImS11 ReS12 ImS12 ReS13 ImS13
! ReS14 ImS14
! ReS21 ImS21 ReS22 ImS22 ReS23 ImS23
! ReS24 ImS24
! ReS31 ImS31 ReS32 ImS32 ReS33 ImS33
! ReS34 ImS34
! ReS41 ImS41 ReS42 ImS42 ReS43 ImS43
! ReS44 ImS44
!
0.0 0.001790217826342 0.0 0.9982097821736 0.0 6.943713593669e-05 0.0 -6.943713629147e-05 8.503596670130725e-21
 0.9982097821736 0.0 0.001790217826372 0.0 -6.943713629243e-05 8.503596670248291e-21 6.943713593671e-05 0.0
 6.943713593669e-05 0.0 -6.943713629243e-05 8.503596670248291e-21 0.001790217823513 0.0 0.9982097821708 0.0
 -6.943713629147e-05 8.503596670130725e-21 6.943713593671e-05 0.0 0.9982097821708 0.0 0.001790217823499 0.0
0.005 0.0019269298144600185 0.001464265232620838 0.9980366732381085 -0.003749153659019529 9.7760167431375e-05 0.0007620667440146871 -9.482194263481979e-05 -0.00047872162750130313
 0.9980366732381085 -0.003749153659019529 0.001926961494731741 0.00146424666050617 -9.482094990042468e-05 -0.0004787208061467819 9.756009460526029e-05 0.0007621428714797766
 9.7760167431375e-05 0.0007620667440146871 -9.482094990042468e-05 -0.0004787208061467819 0.0019269310022705217 0.0014643317696048856 0.9980366736161506 -0.003749086590879775
 -9.482194263481979e-05 -0.00047872162750130313 9.756009460526029e-05 0.0007621428714797766 0.9980366736161506 -0.003749086590879775 0.0019269610564001645 0.0014643142546529747
0.006252605252188 0.0019630270047510117 0.0018360550711372645 0.9979906356746242 -0.004687319085620038 0.0001060043241610552 0.0009529367392555306 -0.00010209981621012026 -0.000599005324004769
 0.9979906356746242 -0.004687319085620038 0.0019630765279972182 0.0018360315267657466 -0.00010209827191929188 -0.0005990043103357448 0.00010569173099195235 0.0009530356830552419
 0.0001060043241610552 0.0009529367392555306 -0.00010209827191929188 -0.0005990043103357448 0.001963028785123019 0.0018361382278115357 0.9979906361886515 -0.004687235255546066
 -0.00010209981621012026 -0.000599005324004769 0.00010569173099195235 0.0009530356830552419 0.9979906361886515 -0.004687235255546066 0.0019630757653402975 0.0018361160185643298
0.01250521050438 0.0021544577718936135 0.003710184405085908 0.9977446802304688 -0.009375145636911369 0.0001540859382115105 0.0019061097963351244 -0.00014398763908129598 -0.0012007473951972864
 0.9977446802304688 -0.009375145636911369 0.0021546555347934614 0.0037101339843272274 -0.000143981559109832 -0.0012007455115735349 0.00015283940917243627 0.0019063489071188741
 0.0001540859382115105 0.0019061097963351244 -0.000143981559109832 -0.0012007455115735349 0.002154464343546514 0.0037103503341880447 0.9977446817404804 -0.009374978238884713
 -0.00014398763908129598 -0.0012007473951972864 0.00015283940917243627 0.0019063489071188741 0.9977446817404804 -0.009374978238884713 0.002154651936297123 0.0037103027405355556
0.01875781575657 0.002364979169940476 0.0056105451937473886 0.9974715742179378 -0.01407482720987134 0.0002137994565056985 0.002860108832960256 -0.00019523954420197303 -0.0018043254249671679
 0.9974715742179378 -0.01407482720987134 0.002365423585223057 0.005610464274160085 -0.00019522599414714976 -0.0018043228447407113 0.00021099932583805404 0.002860538318763172
 0.0002137994565056985 0.002860108832960256 -0.00019522599414714976 -0.0018043228447407113 0.002364993528534868 0.0056107936402291685 0.9974715771944632 -0.014074576303669905
 -0.00019523954420197303 -0.0018043254249671679 0.00021099932583805404 0.002860538318763172 0.9974715771944632 -0.014074576303669905 0.002365415060351336 0.0056107172548822285
0.02501042100875 0.002595043138825137 0.007534413874342063 0.9971709612144789 -0.018788575692694338 0.0002852642898870205 0.0038149260756707255 -0.0002559888514106332 -0.002409427279808198
 0.9971709612144789 -0.018788575692694338 0.0025958324495599823 0.007534298579865668 -0.00025596493496550234 -0.0024094242089956973 0.00028029074937545735 0.003815604876111875
 0.0002852642898870205 0.0038149260756707255 -0.00025596493496550234 -0.0024094242089956973 0.002595068278303044 0.0075347445429101295 0.9971709661286551 -0.018788241305777276
 -0.0002559888514106332 -0.002409427279808198 0.00028029074937545735 0.003815604876111875 0.9971709661286551 -0.018788241305777276 0.0025958168986934785 0.007534635761707151
0.03126302626094 0.002845082762645676 0.009480355741475727 0.9968424686373846 -0.023517297699247045 0.0003685998047366747 0.004770465178565551 -0.00032636430978708893 -0.003015820526007352
 0.9968424686373846 -0.023517297699247045 0.002846315102327857 0.00948020194937482 -0.0003263271623881095 -0.0030158172035878853 0.0003608323639726361 0.004771461020198008
 0.0003685998047366747 0.004770465178565551 -0.0003263271623881095 -0.0030158172035878853 0.002845121677572666 0.009480768285187416 0.9968424759640964 -0.02351687983762387
 -0.00032636430978708893 -0.003015820526007352 0.0003608323639726361 0.004771461020198008 0.9968424759640964 -0.02351687983762387 0.0028462904179004113 0.009480623314531976
0.037515631513130004 0.0031155210215754402 0.011447410239289808 0.9964857168889527 -0.02826140922433857 0.0004639239885932191 0.0057265941019995666 -0.00040649099361467976 -0.0036232995772397044
 0.9964857168889527 -0.02826140922433857 0.0031172944567625267 0.01144721358308892 -0.0004064377791495344 -0.0036232962751959375 0.0004527412516986745 0.005727983585745533
 0.0004639239885932191 0.0057265941019995666 -0.0004064377791495344 -0.0036232962751959375 0.0031155767061957357 0.011447904271476217 0.9964857271068472 -0.028260907860148038
 -0.00040649099361467976 -0.0036232995772397044 0.0004527412516986745 0.005727983585745533 0.9964857271068472 -0.028260907860148038 0.0031172585222243284 0.01144771913187136
0.043768236765320004 0.003406774154540888 0.013434843075187764 0.9961003231178452 -0.03302108346502996 0.0005713528071542936 0.0066831612105303735 -0.0004964905963350326 -0.004231669634029165
 0.9961003231178452 -0.03302108346502996 0.0034091867192423604 0.013434598945699455 -0.0004964185051738857 -0.0042316666573054785 0.0005561323853980452 0.0066850299089049785
 0.0005713528071542936 0.0066831612105303735 -0.0004964185051738857 -0.0042316666573054785 0.0034068495992980188 0.013435418149225777 0.9961003367078287 -0.03302049855614836
 -0.0004964905963350326 -0.004231669634029165 0.0005561323853980452 0.0066850299089049785 0.9961003367078287 -0.03302049855614836 0.0034091374061587694 0.013435188677184845
0.050020842017509996 0.003719253197785022 0.015442043738963964 0.995685903163536 -0.03779635323645521 0.0006909998042987502 0.007640001932226299 -0.000596481511169802 -0.004840740069786222
 0.995685903163536 -0.03779635323645521 0.003722402925069218 0.015441747284003729 -0.0005963877589434979 -0.004840737756232603 0.0006711183011319218 0.007642444490194928
 0.0006909998042987502 0.007640001932226299 -0.0005963877589434979 -0.004840737756232603 0.0037193513907640492 0.015442699351858727 0.9956859206110813 -0.037795684722268616
 -0.000596481511169802 -0.004840740069786222 0.0006711183011319218 0.007642444490194928 0.9956859206110813 -0.037795684722268616 0.003722338094666769 0.015442421200347375
0.055454545454549996 0.004008360877611103 0.017201997487594912 0.9953018883797701 -0.04195882999467531 0.000804985472683365 0.008471612610043193 -0.000691580274168766 -0.005370462224323275
 0.9953018883797701 -0.04195882999467531 0.004012230857688036 0.017201651429836495 -0.0006914654554912645 -0.005370460786975206 0.0007805463130547612 0.00847463785569552
 0.000804985472683365 0.008471612610043193 -0.0006914654554912645 -0.005370460786975206 0.004008481262955257 0.017202722636872066 0.9953019095776964 -0.04195808876299401
 -0.000691580274168766 -0.005370462224323275 0.0007805463130547612 0.00847463785569552 0.9953019095776964 -0.04195808876299401 0.004012150796795716 0.017202398508101693
0.056273447269699996 0.0040533647466291945 0.017468475238575126 0.9952420727296762 -0.04258716117530965 0.0008229758085539998 0.00859694203765957 -0.0007065788173473022 -0.005450321205254294
 0.9952420727296762 -0.04258716117530965 0.00405734969802274 0.017468121361478798 -0.0007064606440349885 -0.005450319925569691 0.0007978088487883798 0.0086000622748321
 0.0008229758085539998 0.00859694203765957 -0.0007064606440349885 -0.005450319925569691 0.004053488671803121 0.01746921082890355 0.9952420945251733 -0.042586408978233826
 -0.0007065788173473022 -0.005450321205254294 0.0007978088487883798 0.0086000622748321 0.9952420945251733 -0.042586408978233826 0.00405726720049388 0.01746887946671988
0.06252605252188 0.004409511340179683 0.0195136464611193 0.9947684481862442 -0.04739338732576835 0.000967388693371442 0.009553799464509924 -0.0008268942177207812 -0.006060222546037969
 0.9947684481862442 -0.04739338732576835 0.004414429633794529 0.019513229818291622 -0.0008267488870825536 -0.0060602227036890294 0.0009363109817740603 0.009557710477356287
 0.000967388693371442 0.009553799464509924 -0.0008267488870825536 -0.0060602227036890294 0.004409663975836253 0.019514461407348447 0.9947684748253226 -0.04739255135238951
 -0.0008268942177207812 -0.006060222546037969 0.0009363109817740603 0.009557710477356287 0.9947684748253226 -0.04739255135238951 0.0044143273073528125 0.01951407211747001
0.06877865777407 0.004788091633004972 0.021577095705194706 0.9942646471653221 -0.05221486556240777 0.0011243431687861024 0.010510385412591836 -0.0009575359473857655 -0.006670251758715263
 0.9942646471653221 -0.05221486556240777 0.0047940414714222005 0.021576610702494458 -0.0009573607465263735 -0.006670253789876378 0.0010867285697433538 0.010515209676024952
 0.0011243431687861024 0.010510385412591836 -0.0009573607465263735 -0.006670253789876378 0.004788275951806973 0.021577989326435263 0.9942646791502706 -0.05221394570223216
 -0.0009575359473857655 -0.006670251758715263 0.0010867285697433538 0.010515209676024952 0.9942646791502706 -0.05221394570223216 0.004793917143296386 0.021577537203214935
0.07503126302626001 0.005189500446315391 0.02365838024986447 0.9937302890402241 -0.05705139398642266 0.001293940589434932 0.011466505061073495 -0.0010986086668841638 -0.007280214034199097
 0.9937302890402241 -0.05705139398642266 0.00519658014366835 0.023657821038058705 -0.0010984009059697 -0.00728021840767278 0.001249162222521631 0.011472374528942892
 0.001293940589434932 0.011466505061073495 -0.0010984009059697 -0.00728021840767278 0.005189719412666832 0.02365935180743526 0.9937303268796829 -0.05705039010982836
 -0.0010986086668841638 -0.007280214034199097 0.001249162222521631 0.011472374528942892 0.9937303268796829 -0.05705039010982836 0.005196431628307551 0.023658831752886873
0.08128386827845 0.005614128736363001 0.025757069425084628 0.9931649953287921 -0.06190274183078487 0.0014762787751685367 0.01242195805859449 -0.0012502133431448546 -0.007889911687951109
 0.9931649953287921 -0.06190274183078487 0.005622436745754663 0.02575642989415857 -0.0012499703551968181 -0.007889918905097184 0.0014237091233769664 0.012429014262671373
 0.0014762787751685367 0.01242195805859449 -0.0012499703551968181 -0.007889918905097184 0.005614385306352371 0.025758118115188498 0.9931650395394374 -0.061901653795979485
 -0.0012502133431448546 -0.007889911687951109 0.0014237091233769664 0.012429014262671373 0.9931650395394374 -0.061901653795979485 0.005622261845901982 0.025757524834023795
0.08753647353064001 0.006062363515093339 0.02787273982979952 0.9925683900521289 -0.06676865422883459 0.001671451838867178 0.013376538883877033 -0.0014124471234302231 -0.008499143899607757
 0.9925683900521289 -0.06676865422883459 0.00607199845532787 0.027872013602163934 -0.0014121662641672155 -0.008499154494278745 0.001610462867134464 0.013384933031146504
 0.001671451838867178 0.013376538883877033 -0.0014121662641672155 -0.008499154494278745 0.006062660634079089 0.02787386478581015 0.9925684411583354 -0.06676748187914548
 -0.0014124471234302231 -0.008499143899607757 0.001610462867134464 0.013384933031146504 0.9925684411583354 -0.06676748187914548 0.00607179496087898 0.02787319277945916
0.09378907878283 0.006534587730669033 0.03000497191890281 0.9919401000592478 -0.07164885562547146 0.0018795500195404576 0.014330037120198308 -0.0015854032039895596 -0.009107706549102491
 0.9919401000592478 -0.07164885562547146 0.006545648413901127 0.03000415234147831 -0.0015850818517906201 -0.009107721087565473 0.0018095133021306196 0.01433993018815531
 0.0018795500195404576 0.014330037120198308 -0.0015850818517906201 -0.009107721087565473 0.0065349283329888775 0.03000617221276089 0.9919401585948447 -0.07164759878771647
 -0.0015854032039895596 -0.009107706549102491 0.0018095133021306196 0.01433993018815531 0.9919401585948447 -0.07164759878771647 0.006545414102351678 0.03000541577221063
0.100041684035 0.007031180125093209 0.03215334752387738 0.9912797553314378 -0.07654305226664647 0.0021006595192381173 0.015282237677972743 -0.0017691706953533574 -0.00971539211493779
 0.9912797553314378 -0.07654305226664647 0.007043765583627808 0.032152427659071156 -0.001768806251212279 -0.009715411195793324 0.0020209463746238697 0.015293800507823226
 0.0021006595192381173 0.015282237677972743 -0.001768806251212279 -0.009715411195793324 0.0070315671321361664 0.032154622166237073 0.9912798218398177 -0.07654171075065411
 -0.0017691706953533574 -0.00971539211493779 0.0020209463746238697 0.015293800507823226 0.9912798218398177 -0.07654171075065411 0.007043498219638138 0.03215377536370257
0.1059090909091 0.00751967555568549 0.03418367959655671 0.9906306118064866 -0.08114818924093291 0.0023200540900410994 0.016174401144854807 -0.0019515255280000044 -0.010284654976310087
 0.9906306118064866 -0.08114818924093291 0.0075337821430263565 0.03418265905057808 -0.0019511183030085407 -0.010284678892889733 0.002230688762472658 0.016187695113626516
 0.0023200540900410994 0.016174401144854807 -0.0019511183030085407 -0.010284678892889733 0.007520108752956925 0.034185023048295564 0.9906306863000306 -0.08114676807960543
 -0.0019515255280000044 -0.010284654976310087 0.002230688762472658 0.016187695113626516 0.9906306863000306 -0.08114676807960543 0.007533481718115484 0.03418408585614057
0.1062942892872 0.007552515070964492 0.03431744799284609 0.9905869892708484 -0.08145093408184043 0.002334862343146933 0.01623292098039741 -0.001963834484792359 -0.010321989620177965
 0.9905869892708484 -0.08145093408184043 0.007566724584688993 0.03431642060827482 -0.0019634243722993715 -0.010322013874307867 0.0022448439757294944 0.01624633436783244
 0.002334862343146933 0.01623292098039741 -0.0019634243722993715 -0.010322013874307867 0.0075529513898345895 0.03431879592764609 0.9905870643059196 -0.08144950768574882
 -0.001963834484792359 -0.010321989620177965 0.0022448439757294944 0.01624633436783244 0.9905870643059196 -0.08144950768574882 0.0075664219197440164 0.03431785260704055
0.11254689453939999 0.00809896239409017 0.03649685278116926 0.9898614389774996 -0.08637217612850004 0.0025822361419227525 0.01718186312689577 -0.002169475097374064 -0.010927284611238828
 0.9898614389774996 -0.08637217612850004 0.008114895517687749 0.03649571033824458 -0.0021690167628110315 -0.010927314701698292 0.0024812837897129243 0.017197317910484414
 0.0025822361419227525 0.01718186312689577 -0.0021690167628110315 -0.010927314701698292 0.0080994509163141 0.03649827289086211 0.9898615231041423 -0.08637066463331415
 -0.002169475097374064 -0.010927284611238828 0.0024812837897129243 0.017197317910484414 0.9898615231041423 -0.08637066463331415 0.008114555289904247 0.0364972266570501
0.11879949979160001 0.008670887185364731 0.03869113836997282 0.9891027455193772 -0.09130643972173422 0.002842854056237985 0.018128836042713332 -0.0023861685557473654 -0.011531059161667674
 0.9891027455193772 -0.09130643972173422 0.008688643776052107 0.03868987301110575 -0.0023856594681263264 -0.011531095783611034 0.002730339144317003 0.018146533189508995
 0.002842854056237985 0.018128836042713332 -0.0023856594681263264 -0.011531095783611034 0.008671430785071085 0.038692629471920266 0.989102839314211 -0.09130484289493669
 -0.0023861685557473654 -0.011531059161667674 0.002730339144317003 0.018146533189508995 0.989102839314211 -0.09130484289493669 0.008688263709981832 0.038691473678627
0.1250521050438 0.009268649603812422 0.040899877421807125 0.9883105541949118 -0.09625337333994172 0.0031167845634109707 0.019073607616163984 -0.0026139862396198765 -0.012133091899023875
 0.9883105541949118 -0.09625337333994172 0.009288329847929065 0.040898480956543484 -0.0026134238907069025 -0.012133135779678386 0.0029920788622210463 0.019093758304682747
 0.0031167845634109707 0.019073607616163984 -0.0026134238907069025 -0.012133135779678386 0.009269251136566733 0.04090143826871464 0.9883106582473794 -0.09625169093494108
 -0.0026139862396198765 -0.012133091899023875 0.0029920788622210463 0.019093758304682747 0.9883106582473794 -0.09625169093494108 0.009287907654594222 0.04090016600527211
0.131304710296 0.00989260467136005 0.043122638117328686 0.9874845147915234 -0.10121261336302324 0.0034040913256458034 0.020015941832538214 -0.002852994744919212 -0.012733158046608397
 0.9874845147915234 -0.10121261336302324 0.009914309112864672 0.043121102006929694 -0.002852376649483627 -0.012733209945114341 0.003266567114352199 0.020038767532651238
 0.0034040913256458034 0.020015941832538214 -0.002852376649483627 -0.012733209945114341 0.00989326697292035 0.04312426740022981 0.9874846297045318 -0.10121084511628307
 -0.002852994744919212 -0.012733158046608397 0.003266567114352199 0.020038767532651238 0.9874846297045318 -0.10121084511628307 0.009913842489235696 0.04312287147684397
0.1375573155481 0.01040829943944997 0.04507019792330224 0.9867591517400355 -0.10589483050891392 0.003671598349800444 0.020928013412193594 -0.003070185605463283 -0.013303344919611654
 0.9867591517400355 -0.10589483050891392 0.010432134815112752 0.04506854281914161 -0.0030695078859792266 -0.013303404979777183 0.0035209460201579565 0.02095350071254554
 0.003671598349800444 0.020928013412193594 -0.0030695078859792266 -0.013303404979777183 0.010409024486300718 0.04507189482668873 0.9867592780182975 -0.10589297629051381
 -0.003070185605463283 -0.013303344919611654 0.0035209460201579565 0.02095350071254554 0.9867592780182975 -0.10589297629051381 0.010431622491772275 0.04507039646023594
0.1438099208003 0.010942370560876016 0.047005909420661775 0.9860077803195264 -0.11056355103550759 0.003949866086935585 0.021835271908114712 -0.0032959876933701857 -0.013869200812077601
 0.9860077803195264 -0.11056355103550759 0.010968438764086192 0.04700412816697647 -0.0032952476473382796 -0.01386926979523282 0.0037855159564709174 0.021863625219976073
 0.003949866086935585 0.021835271908114712 -0.0032952476473382796 -0.01386926979523282 0.010943161005911237 0.04700767263536501 0.9860079185642255 -0.1105616105963734
 -0.0032959876933701857 -0.013869200812077601 0.0037855159564709174 0.021863625219976073 0.9860079185642255 -0.1105616105963734 0.01096787860527569 0.04700606596941609
0.1500625260525 0.01149460416181875 0.04892956359547866 0.9852306193438862 -0.11521861022274531 0.004238781787861086 0.022737588465919847 -0.003530293165810883 -0.014430608560629317
 0.9852306193438862 -0.11521861022274531 0.011523007438620595 0.048927648559673055 -0.0035294880961010025 -0.014430687259382681 0.004060168304730202 0.0227690196696382
 0.004238781787861086 0.022737588465919847 -0.0035294880961010025 -0.014430687259382681 0.011495462628569809 0.04893139176526831 0.9852307701671399 -0.11521658330292454
 -0.003530293165810883 -0.014430608560629317 0.004060168304730202 0.0227690196696382 0.9852307701671399 -0.11521658330292454 0.011522397307700064 0.04892967051531228
0.15631513130469998 0.012064784543044361 0.050840957693168064 0.9844278890765947 -0.1198598450462563 0.0045382311768877685 0.023634836794950372 -0.0037729926886656707 -0.01498745380606283
 0.9844278890765947 -0.1198598450462563 0.01209562550151401 0.05083890074931125 -0.0037721199036966245 -0.014987543044217653 0.004344792992134942 0.023669565150702974
