! Created with skrf 1.8.0 (http://scikit-rf.org).
# GHz S RI R 50.0 
!freq ReS11 ImS11 ReS12 ImS12 ReS13 ImS13
! ReS14 ImS14
! ReS21 ImS21 ReS22 ImS22 ReS23 ImS23
! ReS24 ImS24
! ReS31 ImS31 ReS32 ImS32 ReS33 ImS33
! ReS34 ImS34
! ReS41 ImS41 ReS42 ImS42 ReS43 ImS43
! ReS44 ImS44
!
0.0 0.001288571672432 0.0 0.9987114283119 0.0 4.920616376769e-05 0.0 -4.920616397812e-05 6.026017121412445e-21
 0.9987114283119 0.0 0.001288571672467 0.0 -4.920616397908e-05 6.026017121530011e-21 4.920616376766e-05 0.0
 4.920616376769e-05 0.0 -4.920616397908e-05 6.026017121530011e-21 0.001288571662782 0.0 0.9987114283023 0.0
 -4.920616397812e-05 6.026017121412445e-21 4.920616376766e-05 0.0 0.9987114283023 0.0 0.001288571662765 0.0
0.005 0.0013857492768346539 0.00105584846792787 0.998588585218965 -0.0026999518185656843 6.84073727406365e-05 0.000534587349371222 -6.652306766577874e-05 -0.00033698934065529146
 0.998588585218965 -0.0026999518185656843 0.0013857638666837156 0.0010558399099773943 -6.652004467542243e-05 -0.00033698701208990245 6.832101250234132e-05 0.0005346200697259962
 6.84073727406365e-05 0.000534587349371222 -6.652004467542243e-05 -0.00033698701208990245 0.0013857511975290965 0.001055914580519336 0.9985885855569901 -0.0026998847540701874
 -6.652306766577874e-05 -0.00033698934065529146 6.832101250234132e-05 0.0005346200697259962 0.9985885855569901 -0.0026998847540701874 0.0013857626189195758 0.001055907924176821
0.006252605252188 0.0014110502967381654 0.0013239841712027526 0.9985564287533932 -0.0033756281984857286 7.379589002337926e-05 0.000668507831717604 -7.132672241601237e-05 -0.000421681138544692
 0.9985564287533932 -0.0033756281984857286 0.0014110731040124255 0.0013239733467517263 -7.132201838293982e-05 -0.00042167826633904005 7.366095684684687e-05 0.0006685503075885512
 7.379589002337926e-05 0.000668507831717604 -7.132201838293982e-05 -0.00042167826633904005 0.0014110532166749339 0.0013240668083383431 0.9985564291990825 -0.0033755443673846967
 -7.132672241601237e-05 -0.000421681138544692 7.366095684684687e-05 0.0006685503075885512 0.9985564291990825 -0.0033755443673846967 0.0014110710703188745 0.0013240583667453935
0.01250521050438 0.0015431591910774346 0.002675930500853861 0.9983875487329557 -0.00675222140198008 0.00010418419368774914 0.0013374538689067345 -9.812266746786843e-05 -0.0008455138405770009
 0.9983875487329557 -0.00675222140198008 0.0015432502673834345 0.0026759075685767004 -9.81041284536893e-05 -0.0008455085131300053 0.0001036460256386585 0.0013375556196990543
 0.00010418419368774914 0.0013374538689067345 -9.81041284536893e-05 -0.0008455085131300053 0.0015431703137554367 0.0026760954544622767 0.9983875499726993 -0.006752054000809957
 -9.812266746786843e-05 -0.0008455138405770009 0.0001036460256386585 0.0013375556196990543 0.9983875499726993 -0.006752054000809957 0.0015432416013680403 0.002676077368323044
0.01875781575657 0.0016851485530489862 0.0040473928791252625 0.99820460583413 -0.01013803480635134 0.00014043504098381116 0.0020072992912101933 -0.0001296679421400452 -0.0012709213056188756
 0.99820460583413 -0.01013803480635134 0.0016853532148269523 0.004047356435964475 -0.00012962659716349612 -0.0012709140080319373 0.000139225899472373 0.0020074799582304624
 0.00014043504098381116 0.0020072992912101933 -0.00012962659716349612 -0.0012709140080319373 0.0016851731317536007 0.004047639953340343 0.9982046082000022 -0.010137783915682286
 -0.0001296679421400452 -0.0012709213056188756 0.000139225899472373 0.0020074799582304624 0.9982046082000022 -0.010137783915682286 0.0016853333107855392 0.0040476109720724695
0.02501042100875 0.0018372631356192721 0.00543649429546395 0.9980074115401332 -0.013534748228409351 0.0001826135924800042 0.002678092738802553 -0.0001660347456176559 -0.001697735936046138
 0.9980074115401332 -0.013534748228409351 0.0018376266130073085 0.005436442837237636 -0.00016596172896023387 -0.0016977272307814727 0.00018046549589451663 0.002678374691930263
 0.0001826135924800042 0.002678092738802553 -0.00016596172896023387 -0.0016977272307814727 0.0018373064223995985 0.0054368232700573935 0.998007415369701 -0.013534413899776375
 -0.0001660347456176559 -0.001697735936046138 0.00018046549589451663 0.002678374691930263 0.998007415369701 -0.013534413899776375 0.0018375908728451727 0.005436782109167172
0.03126302626094 0.0019997373344664044 0.006842288607136966 0.9977957664254521 -0.016943104313217 0.00023078573985703865 0.003349822856857569 -0.00020729362576177505 -0.002125846730051307
 0.9977957664254521 -0.016943104313217 0.0020003047944923305 0.006842220532218713 -0.00020718015849167763 -0.0021258372581484286 0.00022743020665824833 0.0033502312104508217
 0.00023078573985703865 0.003349822856857569 -0.00020718015849167763 -0.0021258372581484286 0.0019998045768971654 0.006842699236846195 0.9977957720571626 -0.016942686569644143
 -0.00020729362576177505 -0.002125846730051307 0.00022743020665824833 0.0033502312104508217 0.9977957720571626 -0.016942686569644143 0.002000248620318588 0.006842644581556789
0.037515631513130004 0.0021728006593711175 0.008264173917331814 0.9975694657368124 -0.020363495106650028 0.00028501744866137236 0.004022454913357263 -0.0002535139868984763 -0.0025551626483052265
 0.9975694657368124 -0.020363495106650028 0.0021736172209886008 0.00826408752840673 -0.00025335136734239833 -0.0025551531297892133 0.00028018537605269047 0.004023017555250813
 0.00028501744866137236 0.004022454913357263 -0.00025335136734239833 -0.0025551531297892133 0.002172897099866396 0.00826466591524274 0.9975694735080602 -0.020362993958814732
 -0.0002535139868984763 -0.0025551626483052265 0.00028018537605269047 0.004023017555250813 0.9975694735080602 -0.020362993958814732 0.00217353601229524 0.008264596422799664
0.043768236765320004 0.0023566798537855904 0.00970171405207494 0.9973283016236755 -0.02379614052236195 0.000345374460470307 0.004695941927014107 -0.0003047642788295102 -0.0029856014734103084
 0.9973283016236755 -0.02379614052236195 0.0023577905990109145 0.009701607557229855 -0.00030454387687086986 -0.0029855927074734583 0.0003387960606257854 0.004696689551595452
 0.000345374460470307 0.004695941927014107 -0.00030454387687086986 -0.0029855927074734583 0.002356810732469964 0.009702287089717158 0.9973283118739542 -0.023795555967958845
 -0.0003047642788295102 -0.0029856014734103084 0.0003387960606257854 0.004696689551595452 0.9973283118739542 -0.023795555967958845 0.0023576797542190367 0.00970220139127985
0.050020842017509996 0.0025515998912214546 0.011154564778797808 0.9970720642487598 -0.027241162065020665 0.00041192211895369006 0.005370229264822149 -0.0003611120752075867 -0.003417085201143831
 0.9970720642487598 -0.027241162065020665 0.0025530498745289765 0.011154436292212513 -0.0003608253285132379 -0.0034170780662328227 0.0004033268858693526 0.0053711954078498655
 0.00041192211895369006 0.005370229264822149 -0.0003608253285132379 -0.0034170780662328227 0.002551770445059132 0.011155218480486109 0.9970720773187519 -0.02724049409374312
 -0.0003611120752075867 -0.003417085201143831 0.0004033268858693526 0.0053711954078498655 0.9970720773187519 -0.02724049409374312 0.0025529047897213937 0.011155115182698532
0.055454545454549996 0.002730131606611578 0.012429345093659335 0.9968369808819897 -0.030245088278704178 0.0004748319758989884 0.0059568088394069095 -0.0004142716577580096 -0.0037928471346027055
 0.9968369808819897 -0.030245088278704178 0.0027319129727307848 0.01242919589148159 -0.00041392035254339977 -0.00379284219210391 0.00046426380046477505 0.005957994350286074
 0.0004748319758989884 0.0059568088394069095 -0.00041392035254339977 -0.00379284219210391 0.0027303408901244914 0.012430068551834374 0.9968369966802972 -0.030244347801880647
 -0.0004142716577580096 -0.0037928471346027055 0.00046426380046477505 0.005957994350286074 0.9968369966802972 -0.030244347801880647 0.0027317343912982035 0.01242994881004528
0.056273447269699996 0.0027577844957666804 0.012622437595560712 0.9968005424254323 -0.030698618982517932 0.00048472525230768617 0.006045256892076495 -0.00042262410087866054 -0.0038495377806708956
 0.9968005424254323 -0.030698618982517932 0.002759618752413153 0.012622285137968092 -0.00042226251235485035 -0.003849533234541977 0.00047384194687817495 0.00604647796632987
 0.00048472525230768617 0.006045256892076495 -0.00042226251235485035 -0.003849533234541977 0.002757999958535366 0.012623171537635456 0.9968005586573475 -0.03069786757629131
 -0.00042262410087866054 -0.0038495377806708956 0.00047384194687817495 0.00604647796632987 0.9968005586573475 -0.03069786757629131 0.0027594348208182223 0.012623049223937885
0.06252605252188 0.0029754564330612262 0.014105079816741787 0.9965135240276058 -0.034168528122449894 0.0005638480840859677 0.006720960608360419 -0.0004893662329923465 -0.004282883870339103
 0.9965135240276058 -0.034168528122449894 0.0029777199868910413 0.014104901315586211 -0.0004889213689721572 -0.004282882950080262 0.0005504047311792025 0.006722475939750356
 0.0005638480840859677 0.006720960608360419 -0.0004889213689721572 -0.004282882950080262 0.002975722035384686 0.014105893534080195 0.9965135437653657 -0.03416769324816827
 -0.0004893662329923465 -0.004282883870339103 0.0005504047311792025 0.006722475939750356 0.9965135437653657 -0.03416769324816827 0.002977492598788937 0.014105750765921648
0.06877865777407 0.003204837676417951 0.015602262713484255 0.9962107962767652 -0.03765087573476466 0.0006493541590357604 0.007397272782998154 -0.0005614034878460842 -0.004717048095714985
 0.9962107962767652 -0.03765087573476466 0.0032075755468478724 0.015602056003004855 -0.0005608669767617424 -0.004717051917772014 0.000633078052958868 0.007399124646859762
 0.0006493541590357604 0.007397272782998154 -0.0005608669767617424 -0.004717051917772014 0.0032051586451752154 0.01560315568687383 0.9962108198662765 -0.037649957356467
 -0.0005614034878460842 -0.004717048095714985 0.000633078052958868 0.007399124646859762 0.9962108198662765 -0.037649957356467 0.0032073000893732234 0.015602991004636137
0.07503126302626001 0.0034461494985982065 0.017113773971280805 0.995892145958017 -0.04114562495910946 0.0007413062781829568 0.008074122815450852 -0.0006387999983265796 -0.005151954584482809
 0.995892145958017 -0.04114562495910946 0.003449406708240345 0.017113536792243304 -0.0006381635298414526 -0.005151964344649982 0.0007219239945626928 0.008076356472893774
 0.0007413062781829568 0.008074122815450852 -0.0006381635298414526 -0.005151964344649982 0.0034465310570129565 0.017114745636933264 0.9958921737473597 -0.0411446230275882
 -0.0006387999983265796 -0.005151954584482809 0.0007219239945626928 0.008076356472893774 0.9958921737473597 -0.0411446230275882 0.0034490785649786016 0.017114557560805932
0.08128386827845 0.003699612517972351 0.018639412692740668 0.9955573595917578 -0.04465272076826254 0.0008397664393918944 0.00875143744954266 -0.000721618985894575 -0.005587526649391642
 0.9955573595917578 -0.04465272076826254 0.0037034340989863033 0.01863914269215665 -0.0007208743101837706 -0.005587543622816909 0.0008170038514995511 0.008754101183777912
 0.0008397664393918944 0.00875143744954266 -0.0007208743101837706 -0.005587543622816909 0.00370005988511229 0.01864046243254063 0.9955573919317706 -0.044651635230421004
 -0.000721618985894575 -0.005587526649391642 0.0008170038514995511 0.008754101183777912 0.9955573919317706 -0.044651635230421004 0.0037030486504259193 0.018640249463084978
0.08753647353064001 0.003965446714095995 0.02017898592420867 0.9952062235774349 -0.04817209339006664 0.0009447957816577087 0.009429140983656218 -0.0008099227278176912 -0.006023686577226553
 0.9952062235774349 -0.04817209339006664 0.003969877715313468 0.020178680654744374 -0.0008090616551597928 -0.006023712118398334 0.0009183780808595064 0.009432286136204452
 0.0009447957816577087 0.009429140983656218 -0.0008090616551597928 -0.006023712118398334 0.003965965104307648 0.020180113072368604 0.9952062608215471 -0.04817092418146466
 -0.0008099227278176912 -0.006023686577226553 0.0009183780808595064 0.009432286136204452 0.9952062608215471 -0.04817092418146466 0.003969430338208594 0.020179873690978185
0.09378907878283 0.004243871422382979 0.021732306181311018 0.9948385243190259 -0.05170366073214541 0.0010564545315357849 0.010107155426080015 -0.0009037725218708929 -0.006460355474687674
 0.9948385243190259 -0.05170366073214541 0.004248956916167846 0.021731963100546283 -0.0009027869223586258 -0.00646039101740852 0.0010261062507876855 0.010110836432817585
 0.0010564545315357849 0.010107155426080015 -0.0009027869223586258 -0.00646039101740852 0.004244466045171201 0.021733510018345874 0.9948385668237474 -0.05170240778251211
 -0.0009037725218708929 -0.006460355474687674 0.0010261062507876855 0.010110836432817585 0.9948385668237474 -0.05170240778251211 0.0042484429838897525 0.021733242687527632
0.100041684035 0.004535105313956512 0.023299189630307957 0.9944540483370863 -0.05524733015326708 0.0011748019514118844 0.010785400606073406 -0.0010032286483140495 -0.006897453160663954
 0.9944540483370863 -0.05524733015326708 0.004540890402931926 0.023298806099806744 -0.0010021104517292272 -0.006897500218024499 0.0011402469914800703 0.010789675033079269
 0.0011748019514118844 0.010785400606073406 -0.0010021104517292272 -0.006897500218024499 0.004535781373514257 0.023300469383778305 0.9944540964623838 -0.05524599338510325
 -0.0010032286483140495 -0.006897453160663954 0.0011402469914800703 0.010789675033079269 0.9944540964623838 -0.05524599338510325 0.004540305285247293 0.02330017254721568
0.1059090909091 0.00482024142381648 0.024781717378586168 0.9940778101897494 -0.058583604138916806 0.0012919936235535083 0.011421998373831847 -0.0011017093416596448 -0.007307940330825418
 0.9940778101897494 -0.058583604138916806 0.004826724061686261 0.02478129340420616 -0.0011004594300719434 -0.007307999640192876 0.0012532394940870367 0.011426884838126324
 0.0012919936235535083 0.011421998373831847 -0.0011004594300719434 -0.007307999640192876 0.004820998630542453 0.02478306762357018 0.9940778639196547 -0.05858218863689209
 -0.0011017093416596448 -0.007307940330825418 0.0012532394940870367 0.011426884838126324 0.9940778639196547 -0.05858218863689209 0.004826067929720673 0.024782741666630064
0.1062942892872 0.0048393663646140745 0.024879454714950854 0.9940525823724548 -0.058802999791323855 0.0012998962884341987 0.011463794261969518 -0.0011083503305729216 -0.0073348980836841285
 0.9940525823724548 -0.058802999791323855 0.004845896188193375 0.024879027999192796 -0.001107091526256617 -0.007334958248027593 0.0012608579463915237 0.011468722841093551
 0.0012998962884341987 0.011463794261969518 -0.001107091526256617 -0.007334958248027593 0.0048401290586725714 0.02488080956176012 0.9940526364816354 -0.05880157911708883
 -0.0011083503305729216 -0.0073348980836841285 0.0012608579463915237 0.011468722841093551 0.9940526364816354 -0.05880157911708883 0.0048452352513337635 0.024880481644148366
0.11254689453939999 0.005156871814498439 0.026472921115175706 0.9936339134834175 -0.06237055956210262 0.001431794724412571 0.012142252108804381 -0.0012191956939648352 -0.007772607262067591
 0.9936339134834175 -0.06237055956210262 0.005164191556195026 0.026472448380111906 -0.001217788330982472 -0.007772682204935921 0.0013879957242266593 0.012147898772944535
 0.001431794724412571 0.012142252108804381 -0.001217788330982472 -0.007772682204935921 0.005157726334579815 0.02647435017662007 0.9936339739434226 -0.0623690548884578
 -0.0012191956939648352 -0.007772607262067591 0.0013879957242266593 0.012147898772944535 0.9936339739434226 -0.0623690548884578 0.00516345016260944 0.026473989583391287
0.11879949979160001 0.005487838122459207 0.028079408922475967 0.9931978291379655 -0.0659498919436623 0.0015705533259150486 0.012820687891773309 -0.001335821723699977 -0.008210496240582506
 0.9931978291379655 -0.0659498919436623 0.005495993016432841 0.028078887234094258 -0.0013342579108885338 -0.008210587712663423 0.0015217158509251152 0.012827119809859826
 0.0015705533259150486 0.012820687891773309 -0.0013342579108885338 -0.008210587712663423 0.005488789653086062 0.028080911265648094 0.9931978963201946 -0.06594830316957431
 -0.001335821723699977 -0.008210496240582506 0.0015217158509251152 0.012827119809859826 0.9931978963201946 -0.06594830316957431 0.005495166525186 0.028080516382426066
0.1250521050438 0.005832480914469958 0.029698737992229194 0.9927441173038909 -0.06954087258655896 0.0017162269948472648 0.013499013433273185 -0.0014582842216040403 -0.008648479055881987
 0.9927441173038909 -0.06954087258655896 0.005841516252431029 0.02969816431476639 -0.0014565561277384835 -0.00864858888694621 0.0016620727218342897 0.013506301044903137
 0.0017162269948472648 0.013499013433273185 -0.0014565561277384835 -0.00864858888694621 0.0058335346321149424 0.0297003126305861 0.9927441915839041 -0.06953919960222643
 -0.0014582842216040403 -0.008648479055881987 0.0016620727218342897 0.013506301044903137 0.9927441915839041 -0.06953919960222643 0.0058406000189162805 0.029699881822345345
0.131304710296 0.006191014927563958 0.0313307274253661 0.9922725665356436 -0.07314337079745342 0.001868869418944443 0.014177138670731887 -0.0015866377621604427 -0.00908646821359161
 0.9922725665356436 -0.07314337079745342 0.00620097606583325 0.031330098619333946 -0.0015847376162479243 -0.00908659831240527 0.001809119553854581 0.014185355720373483
 0.001868869418944443 0.014177138670731887 -0.0015847376162479243 -0.00908659831240527 0.006192176000710605 0.03133237331748213 0.9922726482934598 -0.07314161348490845
 -0.0015866377621604427 -0.00908646821359161 0.001809119553854581 0.014185355720373483 0.9922726482934598 -0.07314161348490845 0.006199965441993712 0.0313319049276821
0.1375573155481 0.00647539884486147 0.032762238452563715 0.9918712446338701 -0.0765442304973562 0.0020078386046461258 0.014833196889962662 -0.0017003165446652288 -0.00950255974285822
 0.9918712446338701 -0.0765442304973562 0.006486333744155792 0.032761562571567045 -0.001698232909500939 -0.009502710005604438 0.001942358898343413 0.01484232344500444
 0.0020078386046461258 0.014833196889962662 -0.001698232909500939 -0.009502710005604438 0.006476671975314632 0.032763954544103344 0.9918713342080179 -0.07654238880744715
 -0.0017003165446652288 -0.00950255974285822 0.001942358898343413 0.01484232344500444 0.9918713342080179 -0.07654238880744715 0.006485224622108162 0.03276345824391986
0.1438099208003 0.006769576138194571 0.03418719501170183 0.9914561926463042 -0.07993746070726063 0.0021524270618620005 0.015487129930992329 -0.0018185524821439513 -0.009916733990695387
 0.9914561926463042 -0.07993746070726063 0.006781530636401755 0.03418646954258176 -0.0018162770123626522 -0.009916906268154063 0.0020809642264857982 0.015497232575069679
 0.0021524270618620005 0.015487129930992329 -0.0018162770123626522 -0.009916906268154063 0.006770966398497948 0.0341889802225539 0.9914562904149915 -0.07993553452791739
 -0.0018185524821439513 -0.009916733990695387 0.0020809642264857982 0.015497232575069679 0.9914562904149915 -0.07993553452791739 0.00678031846121854 0.03418845504102666
0.1500625260525 0.007073455493690335 0.035605507363215605 0.9910275049822573 -0.08332300682903593 0.002302592279654278 0.016138888553697668 -0.0019413048170496866 -0.010328944857484925
 0.9910275049822573 -0.08332300682903593 0.007086475505275018 0.03560472965269639 -0.0019388291807156584 -0.010329141074298586 0.0022248942638367314 0.01615003627754032
 0.002302592279654278 0.016138888553697668 -0.0019388291807156584 -0.010329141074298586 0.00707496794317397 0.03560736056901309 0.9910276113272325 -0.08332099604452653
 -0.0019413048170496866 -0.010328944857484925 0.0022248942638367314 0.01615003627754032 0.9910276113272325 -0.08332099604452653 0.0070851557250101865 0.035606805457457175
0.15631513130469998 0.007386945094892289 0.037017088643867345 0.9905852763701214 -0.08670081390073023 0.0024582913266154127 0.016788424216682005 -0.002068532366782207 -0.010739147130186378
