! Created with skrf 1.8.0 (http://scikit-rf.org).
# GHz S RI R 50.0 
!freq ReS11 ImS11 ReS12 ImS12 ReS13 ImS13
! ReS14 ImS14
! ReS21 ImS21 ReS22 ImS22 ReS23 ImS23
! ReS24 ImS24
! ReS31 ImS31 ReS32 ImS32 ReS33 ImS33
! ReS34 ImS34
! ReS41 ImS41 ReS42 ImS42 ReS43 ImS43
! ReS44 ImS44
!
0.0 0.001490282649985 0.0 0.998509717347 0.0 5.704614236517e-05 0.0 -5.70461418109e-05 6.986137497242468e-21
 0.998509717347 0.0 0.001490282649937 0.0 -5.70461418096e-05 6.986137497083264e-21 5.704614236561e-05 0.0
 5.704614236517e-05 0.0 -5.70461418096e-05 6.986137497083264e-21 0.001490282648876 0.0 0.998509717346 0.0
 -5.70461418109e-05 6.986137497242468e-21 5.704614236561e-05 0.0 0.998509717346 0.0 0.001490282648895 0.0
0.005 0.0016031897420388948 0.001225767166313076 0.9983669238169771 -0.0031215860850669743 7.884824173051523e-05 0.0005894158428576359 -7.681971542316118e-05 -0.00037682767509590744
 0.9983669238169771 -0.0031215860850669743 0.0016032065337066685 0.0012257573256597135 -7.682127341050604e-05 -0.0003768287872995956 7.875107371992695e-05 0.0005894529536454705
 7.884824173051523e-05 0.0005894158428576359 -7.682127341050604e-05 -0.0003768287872995956 0.0016031897310076631 0.0012258343802805122 0.9983669241626641 -0.003121519020997167
 -7.681971542316118e-05 -0.00037682767509590744 7.875107371992695e-05 0.0005894529536454705 0.9983669241626641 -0.003121519020997167 0.0016032072327178421 0.0012258242373873655
0.006252605252188 0.0016327532126831571 0.0015370072302036161 0.9983293089919659 -0.003902750403126388 8.504800798133607e-05 0.0007370764596093431 -8.237206451098063e-05 -0.00047151537857641494
 0.9983293089919659 -0.003902750403126388 0.0016327794609158452 0.001536994681061827 -8.237448953821508e-05 -0.0004715167481828581 8.489619292841281e-05 0.0007371246184546737
 8.504800798133607e-05 0.0007370764596093431 -8.237448953821508e-05 -0.0004715167481828581 0.0016327531354985766 0.0015370912228022577 0.9983293094721144 -0.0039026665895389345
 -8.237206451098063e-05 -0.00047151537857641494 8.489619292841281e-05 0.0007371246184546737 0.9983293094721144 -0.0039026665895389345 0.0016327804928249474 0.0015370783099959283
0.01250521050438 0.0017880986619633315 0.003106041208667552 0.9981304001540872 -0.0078063151154960115 0.00012044926247158393 0.0014746443001295453 -0.00011371170874003259 -0.0009453080130068428
 0.9981304001540872 -0.0078063151154960115 0.0017882034733133839 0.003106013590001768 -0.00011372127402995069 -0.0009453105252675909 0.00011984389219203099 0.001474759693489551
 0.00012044926247158393 0.0014746443001295453 -0.00011372127402995069 -0.0009453105252675909 0.0017880977900557149 0.003106208869683471 0.998130401500054 -0.007806147721264186
 -0.00011371170874003259 -0.0009453080130068428 0.00011984389219203099 0.001474759693489551 0.998130401500054 -0.007806147721264186 0.001788207012647623 0.0031061806629430295
0.01875781575657 0.0019566488061317716 0.004697311557620022 0.9979127501791513 -0.011720197316718656 0.00016333093772308828 0.0022131572597299874 -0.00015115861035289047 -0.0014207555639145439
 0.9979127501791513 -0.011720197316718656 0.001956884327630981 0.00469726614502032 -0.00015117995324404965 -0.0014207589461789872 0.00016197111535963172 0.0022133626336864804
 0.00016333093772308828 0.0022131572597299874 -0.00015117995324404965 -0.0014207589461789872 0.0019566464374779287 0.004697562690387919 0.9979127527804962 -0.011719946429304838
 -0.00015115861035289047 -0.0014207555639145439 0.00016197111535963172 0.0022133626336864804 0.9979127527804962 -0.011719946429304838 0.0019568918367570123 0.00469751659678517
0.02501042100875 0.002138724207362208 0.006308615806512147 0.9976761091228912 -0.01564630274150856 0.00021377532167324165 0.0029526399686389034 -0.00019480365050493324 -0.0018976599220613933
 0.9976761091228912 -0.01564630274150856 0.0021391424819839962 0.006308549686381558 -0.0001948413569302232 -0.0018976638515029668 0.00021136007554116922 0.002952961600720323
 0.00021377532167324165 0.0029526399686389034 -0.0001948413569302232 -0.0018976638515029668 0.002138719650868855 0.0063089502285649185 0.9976761133710711 -0.015645968415007143
 -0.00019480365050493324 -0.0018976599220613933 0.00021136007554116922 0.002952961600720323 0.9976761133710711 -0.015645968415007143 0.002139155410796346 0.0063088834603082875
0.03126302626094 0.002334632180016303 0.007938825702541522 0.9974202139390707 -0.019585453341807592 0.0002718651822194908 0.0036930540603399837 -0.00024473539382757086 -0.0023758810275225292
 0.9974202139390707 -0.019585453341807592 0.002335285172628245 0.007938735774454392 -0.00024479400717259916 -0.002375885130520221 0.0002680931796242561 0.0036935217776150678
 0.0002718651822194908 0.0036930540603399837 -0.00024479400717259916 -0.002375885130520221 0.0023346247484108225 0.007939243240806044 0.9974202202220098 -0.019585035601398005
 -0.00024473539382757086 -0.0023758810275225292 0.0002680931796242561 0.0036935217776150678 0.9974202202220098 -0.019585035601398005 0.002335304952882154 0.00793915281796362
0.037515631513130004 0.0025446734909532684 0.00958720953494897 0.9971447953702397 -0.023538064901429963 0.00033768298746736776 0.004434336198857362 -0.00030104066342225136 -0.002855298833145154
 0.9971447953702397 -0.023538064901429963 0.0025456131046514563 0.009587092512642644 -0.00030112468888419464 -0.0028553026850432696 0.0003322524045386013 0.004434983412325271
 0.00033768298746736776 0.004434336198857362 -0.00030112468888419464 -0.0028553026850432696 0.0025446625057352324 0.00958771001455241 0.9971448040785551 -0.023537563754282884
 -0.00030104066342225136 -0.002855298833145154 0.0003322524045386013 0.004434983412325271 0.9971448040785551 -0.023537563754282884 0.0025456411568316596 0.009587592766182452
0.043768236765320004 0.0027691449575803335 0.011253225869143658 0.9968495807391248 -0.027504353231845798 0.00041131053500727597 0.005176409637155637 -0.00036380474892921494 -0.003335801741064151
 0.9968495807391248 -0.027504353231845798 0.002770423046284959 0.011253078280836137 -0.0003639186561307811 -0.003335804866018561 0.00040391899306264494 0.005177273381175567
 0.00041131053500727597 0.005176409637155637 -0.0003639186561307811 -0.003335804866018561 0.002769129747119378 0.011253809105984414 0.9968495922648917 -0.027503768674297043
 -0.00036380474892921494 -0.003335801741064151 0.00040391899306264494 0.005177273381175567 0.9968495922648917 -0.027503768674297043 0.0027704607780879454 0.011253661670699607
0.050020842017509996 0.0030083406560952953 0.012936438325489175 0.9965342953534218 -0.031484419321078504 0.0004928287290042385 0.005919188993014906 -0.00043311148031385143 -0.0038172818243110513
 0.9965342953534218 -0.031484419321078504 0.003010009034901908 0.012936256513990699 -0.0004332597048302451 -0.003817283695209082 0.0004831732664137052 0.005920309966826594
 0.0004928287290042385 0.005919188993014906 -0.0004332597048302451 -0.003817283695209082 0.003008320553861807 0.012937104123120961 0.9965343100899078 -0.03148375134163723
 -0.00043311148031385143 -0.0038172818243110513 0.0004831732664137052 0.005920309966826594 0.9965343100899078 -0.03148375134163723 0.0030100578408979693 0.01293692294912142
0.055454545454549996 0.0032283936386765053 0.014412875353125323 0.9962437886464585 -0.034954429655109656 0.0005701407255086928 0.006565188982854524 -0.0004987185790528004 -0.004236413396410081
 0.9962437886464585 -0.034954429655109656 0.003230443248554162 0.014412660686369578 -0.0004989002029288595 -0.004236413709537016 0.0005582713471036416 0.006566569428188018
 0.0005701407255086928 0.006565188982854524 -0.0004989002029288595 -0.004236413709537016 0.003228368747946906 0.014413612732082049 0.9962438064939106 -0.03495368916130247
 -0.0004987185790528004 -0.004236413396410081 0.0005582713471036416 0.006566569428188018 0.9962438064939106 -0.03495368916130247 0.0032305028009563886 0.01441339920560998
0.056273447269699996 0.0032625525430027336 0.01463647372250074 0.9961986633284792 -0.03547829111892211 0.00058231742215982 0.0066625825892570574 -0.0005090432419956616 -0.004299632486892842
 0.9961986633284792 -0.03547829111892211 0.0032646629976576256 0.014636253844937675 -0.0005092301863997826 -0.004299632525271812 0.0005700944872798513 0.006664005199454639
 0.00058231742215982 0.0066625825892570574 -0.0005092301863997826 -0.004299632525271812 0.0032625268876191474 0.01463722187586333 0.9961986816707525 -0.03547753969426214
 -0.0005090432419956616 -0.004299632486892842 0.0005700944872798513 0.006664005199454639 0.9961986816707525 -0.03547753969426214 0.003264724259674333 0.014637003220775597
0.06252605252188 0.003532070791692354 0.016352999089230044 0.9958424081286034 -0.03948594645481573 0.0006798552906791709 0.0074064937431826796 -0.0005916809556606785 -0.00478274717770745
 0.9958424081286034 -0.03948594645481573 0.0035346750875840513 0.016352737116554297 -0.0005919109901603798 -0.004782744753702484 0.000664760749050229 0.007408266146595992
 0.0006798552906791709 0.0074064937431826796 -0.0005919109901603798 -0.004782744753702484 0.0035320389264416555 0.016353829385423353 0.9958424304740914 -0.03948511154891036
 -0.0005916809556606785 -0.00478274717770745 0.000664760749050229 0.007408266146595992 0.9958424304740914 -0.03948511154891036 0.0035347501747615357 0.01635356931576565
0.06877865777407 0.0038171839737245958 0.01808570794951375 0.9954652529557503 -0.04350732668690946 0.0007855197274859062 0.008150821533310504 -0.0006811040453408946 -0.005266518630509079
 0.9954652529557503 -0.04350732668690946 0.003820333864062563 0.018085399665686706 -0.0006813815081402835 -0.005266513062793041 0.000767248878874236 0.008152995679977976
 0.0007855197274859062 0.008150821533310504 -0.0006813815081402835 -0.005266513062793041 0.003817145245875285 0.018086620160308462 0.9954652797043532 -0.04350640825833828
 -0.0006811040453408946 -0.005266518630509079 0.000767248878874236 0.008152995679977976 0.9954652797043532 -0.04350640825833828 0.003820424133058869 0.018086314550746344
0.07503126302626001 0.004118179147027455 0.0198343116223956 0.9950669210499318 -0.04754234533809597 0.000899386744807088 0.008895461294007931 -0.000777390392837155 -0.00575083837945603
 0.9950669210499318 -0.04754234533809597 0.004121926380821298 0.01983395262343421 -0.0007777195903422797 -0.005750828935209685 0.000877634347441295 0.00889809297004968
 0.000899386744807088 0.008895461294007931 -0.0007777195903422797 -0.005750828935209685 0.004118132907626116 0.0198353055084305 0.995066952604737 -0.04754134333580449
 -0.000777390392837155 -0.00575083837945603 0.000877634347441295 0.00889809297004968 0.995066952604737 -0.04754134333580449 0.004122033175947907 0.019834950040772282
0.08128386827845 0.004435341885612852 0.021598533435666055 0.9946471359337435 -0.05159089382298959 0.0010215308850860096 0.009640304936578237 -0.0008806162838991598 -0.006235596451928845
 0.9946471359337435 -0.05159089382298959 0.00443973821580964 0.021598119128323847 -0.0008810014907585131 -0.006235582346800941 0.0009959911860096913 0.009643453806829629
 0.0010215308850860096 0.009640304936578237 -0.0008810014907585131 -0.006235582346800941 0.004435287488076305 0.02159960874580439 0.9946471727006811 -0.051589808186742754
 -0.0008806162838991598 -0.006235596451928845 0.0009959911860096913 0.009643453806829629 0.9946471727006811 -0.051589808186742754 0.004439862868366978 0.021599198907648692
0.08753647353064001 0.004768956271824404 0.023378104729121954 0.9942056216235475 -0.05565284538910304 0.001152025134496463 0.010385241188724177 -0.0009908563512827236 -0.006720681146747155
 0.9942056216235475 -0.05565284538910304 0.004774053462973052 0.023377630329409087 -0.000991301810361523 -0.0067206615448365935 0.0011223919042080755 0.010388970839024844
 0.001152025134496463 0.010385241188724177 -0.000991301810361523 -0.0067206615448365935 0.004768893072156028 0.023379261199227005 0.9942056640121918 -0.055651676050708525
 -0.0009908563512827236 -0.006720681146747155 0.0011223919042080755 0.010388970839024844 0.9942056640121918 -0.055651676050708525 0.004774197291736234 0.023378792282426203
0.09378907878283 0.005119304860875387 0.0251727619903675 0.993742102815627 -0.05972805792988686 0.001290940840340743 0.011130155757057253 -0.0011081835127331986 -0.0072059788933166585
 0.993742102815627 -0.05972805792988686 0.005125154697355886 0.025172222521647473 -0.0011086934349732048 -0.007205952907153534 0.0012569074115940453 0.011134533736134771
 0.001290940840340743 0.011130155757057253 -0.0011086934349732048 -0.007205952907153534 0.005119232216555302 0.0251739993446075 0.9937421512392303 -0.05972680481181147
 -0.0011081835127331986 -0.0072059788933166585 0.0012569074115940453 0.011134533736134771 0.9937421512392303 -0.05972680481181147 0.005125319008070437 0.025173466443377302
0.100041684035 0.005486668627457914 0.026982244759960156 0.9932563050575945 -0.0638163760330815 0.0014383476297331816 0.011874931458926312 -0.0012326689070619157 -0.007691374145552352
 0.9932563050575945 -0.0638163760330815 0.005493322920612552 0.026981635050986965 -0.0012332474712432441 -0.007691340836101222 0.0013996069394024786 0.011880029319748775
 0.0014383476297331816 0.011874931458926312 -0.0012332474712432441 -0.007691340836101222 0.005486585897261208 0.02698356270830654 0.9932563599339009 -0.06381503905094697
 -0.0012326689070619157 -0.007691374145552352 0.0013996069394024786 0.011880029319748775 0.9932563599339009 -0.06381503905094697 0.005493509006607535 0.026982960717115225
0.1059090909091 0.005847124519037436 0.02869350534200267 0.9927799293360546 -0.0676645995429071 0.0015844562574277262 0.012573591332451464 -0.0013560573311226243 -0.008146850064046834
 0.9927799293360546 -0.0676645995429071 0.005854580862776613 0.028692824841276166 -0.0013567040802228943 -0.008146808982486787 0.0015410187176944743 0.012579433405421822
 0.0015844562574277262 0.012573591332451464 -0.0013567040802228943 -0.008146808982486787 0.0058470317414526345 0.02869489864516345 0.9927799906510714 -0.06766318377811122
 -0.0013560573311226243 -0.008146850064046834 0.0015410187176944743 0.012579433405421822 0.9927799906510714 -0.06766318377811122 0.005854788546863188 0.02869422699685172
0.1062942892872 0.005871326897338162 0.028806294054360866 0.9927479549092247 -0.06791763251600616 0.00159431332955498 0.012619448324067058 -0.001364381827804946 -0.008176749310068317
 0.9927479549092247 -0.06791763251600616 0.005878837493902286 0.02880560873680135 -0.0013650331803411041 -0.008176707686726991 0.0015505579635546986 0.012625341664700553
 0.00159431332955498 0.012619448324067058 -0.0013650331803411041 -0.008176707686726991 0.005871233440312578 0.028807692294107165 0.9927480166600106 -0.06791621157699312
 -0.001364381827804946 -0.008176749310068317 0.0015505579635546986 0.012625341664700553 0.9927480166600106 -0.06791621157699312 0.00587904663512055 0.02880701590520316
0.11254689453939999 0.006273557267992527 0.030644651164188567 0.992216780093245 -0.07203164959042324 0.0017589038875221999 0.013363583677081072 -0.001503389655186948 -0.008661984697920165
 0.992216780093245 -0.07203164959042324 0.006281976057561535 0.030643884669996492 -0.001504117909801737 -0.008661933718542346 0.001709826128234199 0.013370352180901157
 0.0017589038875221999 0.013363583677081072 -0.001504117909801737 -0.008661933718542346 0.0062734524433115 0.03064612938087484 0.9922168491454384 -0.07203014459245811
 -0.001503389655186948 -0.008661984697920165 0.001709826128234199 0.013370352180901157 0.9922168491454384 -0.07203014459245811 0.006282209521018501 0.030645373081536056
0.11879949979160001 0.006693635521501376 0.032497056711380576 0.9916625096430668 -0.0761582397739346 0.0019321832936810232 0.014107212209082102 -0.0016497577868611556 -0.00914695849152484
 0.9916625096430668 -0.0761582397739346 0.006703014444441517 0.03249620326982303 -0.0016505670242186515 -0.009146897062442365 0.0018774751697216647 0.01411493968427547
 0.0019321832936810232 0.014107212209082102 -0.0016505670242186515 -0.009146897062442365 0.006693518687571543 0.03249861457752515 0.9916625864286285 -0.07615665060691029
 -0.0016497577868611556 -0.00914695849152484 0.0018774751697216647 0.01411493968427547 0.9916625864286285 -0.07615665060691029 0.006703273484088683 0.0324977726469542
0.1250521050438 0.007131835530143198 0.034363249913365215 0.9910848740452669 -0.08029720659933096 0.002114213502397768 0.01485020603837263 -0.0018035495675167957 -0.009631546726948662
 0.9910848740452669 -0.08029720659933096 0.007142226585442447 0.03436230354772259 -0.0018044438348586238 -0.00963147370301683 0.002053566840567346 0.014858980456863798
 0.002114213502397768 0.01485020603837263 -0.0018044438348586238 -0.00963147370301683 0.007131706044034065 0.0343648870871117 0.9910849590017288 -0.08029553314655226
 -0.0018035495675167957 -0.009631546726948662 0.002053566840567346 0.014858980456863798 0.9910849590017288 -0.08029553314655226 0.007142512441857391 0.03436395359311018
0.131304710296 0.007588429156531848 0.03624296798662847 0.9904836053793784 -0.08444834519029057 0.0023050543546350635 0.015592434768820884 -0.0019648262177514894 -0.010115623283163691
 0.9904836053793784 -0.08444834519029057 0.007599884410021037 0.036241922510575376 -0.0019658095285270006 -0.01011553746780183 0.0022381608338189014 0.015602348304297207
 0.0023050543546350635 0.015592434768820884 -0.0019658095285270006 -0.01011553746780183 0.007588286373358943 0.0362446841144075 0.9904836989498939 -0.08444658732590171
 -0.0019648262177514894 -0.010115623283163691 0.0022381608338189014 0.015602348304297207 0.9904836989498939 -0.08444658732590171 0.007600198310042718 0.036243652909596594
0.1375573155481 0.007957443068163123 0.03789254677070962 0.98996471834 -0.0883679506417947 0.0024804461803593974 0.016309831137436177 -0.0021094058505550933 -0.010575080947662002
 0.98996471834 -0.0883679506417947 0.007970017648935568 0.037891419479380295 -0.002110483894276414 -0.010574982247781034 0.0024071469274329596 0.01632086834823143
 0.0024804461803593974 0.016309831137436177 -0.002110483894276414 -0.010574982247781034 0.00795728538618531 0.03789434214205717 0.9899648209167516 -0.08836610831568545
 -0.0021094058505550933 -0.010575080947662002 0.0024071469274329596 0.01632086834823143 0.9899648209167516 -0.08836610831568545 0.007970361869839421 0.037893229399735176
0.1438099208003 0.0083394133005351 0.039533745306004134 0.9894276507750565 -0.0922778940873144 0.002662920010509212 0.01702436456360313 -0.0022597584966759067 -0.011031933629909863
 0.9894276507750565 -0.0922778940873144 0.008353159804863678 0.03953253155927514 -0.002260935540276833 -0.011031820876063737 0.002582933515746367 0.0170366097195572
 0.002662920010509212 0.01702436456360313 -0.002260935540276833 -0.011031820876063737 0.008339239898915631 0.03953561962231971 0.9894277627987508 -0.09227596718192385
 -0.0022597584966759067 -0.011031933629909863 0.002582933515746367 0.0170366097195572 0.9894277627987508 -0.09227596718192385 0.008353535745377902 0.03953442061085696
0.1500625260525 0.008734209250900335 0.041166434665991895 0.9888725370974736 -0.09617808623871059 0.002852414694714157 0.017735964057624076 -0.0024158252729211 -0.011486115250378093
 0.9888725370974736 -0.09617808623871059 0.008749180351851068 0.04116512957846847 -0.002417105571243756 -0.011485987226593447 0.0027654610392106693 0.01774950451006173
 0.002852414694714157 0.017735964057624076 -0.002417105571243756 -0.011485987226593447 0.00873401929583068 0.041168387620858934 0.9888726590136241 -0.09617607463083022
 -0.0024158252729211 -0.011486115250378093 0.0027654610392106693 0.01774950451006173 0.9888726590136241 -0.09617607463083022 0.008749589410554134 0.04116709735488262
0.15631513130469998 0.00914169944218544 0.04279048984439205 0.9882995123436973 -0.10006843796347094 0.0030488683821738873 0.01844455980246285 -0.0025775465957145667 -0.011937561093694569
