! Created with skrf 1.8.0 (http://scikit-rf.org).
# GHz S RI R 50.0 
!freq ReS11 ImS11 ReS12 ImS12 ReS13 ImS13
! ReS14 ImS14
! ReS21 ImS21 ReS22 ImS22 ReS23 ImS23
! ReS24 ImS24
! ReS31 ImS31 ReS32 ImS32 ReS33 ImS33
! ReS34 ImS34
! ReS41 ImS41 ReS42 ImS42 ReS43 ImS43
! ReS44 ImS44
!
0.0 0.001927482392185 0.0 0.9980725175822 0.0 7.484338681899e-05 0.0 -7.484338699544e-05 9.165671432131224e-21
 0.9980725175822 0.0 0.001927482392136 0.0 -7.484338699553e-05 9.165671432142245e-21 7.484338681673e-05 0.0
 7.484338681899e-05 0.0 -7.484338699553e-05 9.165671432142245e-21 0.001927482404986 0.0 0.998072517595 0.0
 -7.484338699544e-05 9.165671432131224e-21 7.484338681673e-05 0.0 0.998072517595 0.0 0.001927482404933 0.0
0.005 0.0020751340452299736 0.0015781659839644786 0.997885475455473 -0.004036012079045002 0.00010533887651775108 0.0008087201145028893 -0.00010219686279969192 -0.0005101637911249138
 0.997885475455473 -0.004036012079045002 0.0020751731145438566 0.0015781430883765291 -0.00010219769055995713 -0.0005101643317784058 0.0001050945899027575 0.0008088132831639254
 0.00010533887651775108 0.0008087201145028893 -0.00010219769055995713 -0.0005101643317784058 0.0020751344841204913 0.0015782329439252595 0.9978854758431164 -0.004035945015024648
 -0.00010219686279969192 -0.0005101637911249138 0.0001050945899027575 0.0008088132831639254 0.9978854758431164 -0.004035945015024648 0.0020751734414234603 0.001578210247947844
0.006252605252188 0.002114264730347329 0.0019788460394857144 0.9978355257048186 -0.005045934252967394 0.0001142948516222581 0.0010112711672818273 -0.0001101017251050285 -0.0006383358364303272
 0.9978355257048186 -0.005045934252967394 0.002114325803541916 0.001978816960776231 -0.0001101030138979664 -0.000638336500548818 0.00011391318355746444 0.001011392280802048
 0.0001142948516222581 0.0010112711672818273 -0.0001101030138979664 -0.000638336500548818 0.002114265352959712 0.0019789297159102256 0.9978355262468803 -0.005045850433748725
 -0.0001101017251050285 -0.0006383358364303272 0.00011391318355746444 0.001011392280802048 0.9978355262468803 -0.005045850433748725 0.002114326249884599 0.0019789009037934385
0.01250521050438 0.00232262075726053 0.0039984279507266065 0.9975674954067076 -0.010092148048889216 0.00016693943935954878 0.002022729488739057 -0.00015592841061018114 -0.0012794774291667278
 0.9975674954067076 -0.010092148048889216 0.002322864637323674 0.003998365128107217 -0.00015593349832788086 -0.001279478625357109 0.00016541757450750925 0.0020230226921857243
 0.00016693943935954878 0.002022729488739057 -0.00015593349832788086 -0.001279478625357109 0.002322622672883553 0.00399859491370482 0.9975674969949058 -0.010091980641718524
 -0.00015592841061018114 -0.0012794774291667278 0.00016541757450750925 0.0020230226921857243 0.9975674969949058 -0.010091980641718524 0.0023228658293786555 0.0039985328022328565
0.01875781575657 0.0025530892394653912 0.006045960303082572 0.9972680346860625 -0.015150815111551814 0.00023290926152203642 0.003034958859370608 -0.00021248019917951156 -0.0019224578010404545
 0.9972680346860625 -0.015150815111551814 0.0025536372820612737 0.006045858645882514 -0.00021249155651735714 -0.0019224593623328136 0.00022949090949622814 0.003035486902455396
 0.00023290926152203642 0.003034958859370608 -0.00021249155651735714 -0.0019224593623328136 0.002553093133045085 0.006046210266266913 0.9972680378354266 -0.015150564164219357
 -0.00021248019917951156 -0.0019224578010404545 0.00022949090949622814 0.003035486902455396 0.9972680378354266 -0.015150564164219357 0.002553639510876886 0.00604610996290793
0.02501042100875 0.0028061875162660116 0.008118471689948826 0.9969367340472441 -0.020224274861457364 0.00031233827182894076 0.004047919288132096 -0.0002799068346602042 -0.0025669231608259186
 0.9969367340472441 -0.020224274861457364 0.002807160864736462 0.008118325723615375 -0.0002799269058908446 -0.0025669248831300217 0.0003062671676149429 0.004048756380802466
 0.00031233827182894076 0.004047919288132096 -0.0002799269058908446 -0.0025669248831300217 0.002806194071459338 0.008118804315672485 0.9969367392708439 -0.02022394039249196
 -0.0002799068346602042 -0.0025669231608259186 0.0003062671676149429 0.004048756380802466 0.9969367392708439 -0.02022394039249196 0.0028071643991119627 0.008118660565070957
0.03126302626094 0.003082411037045938 0.010214376641581285 0.9965731665704405 -0.025313460536689453 0.0004053597940296476 0.005061477628889019 -0.00035835237084531815 -0.0032126020771128822
 0.9965731665704405 -0.025313460536689453 0.003083930697641951 0.010214180514922434 -0.000358383577906966 -0.003212603718883911 0.0003958790555073919 0.005062709512460554
 0.0004053597940296476 0.005061477628889019 -0.000358383577906966 -0.003212603718883911 0.003082420941512319 0.010214791561126587 0.9965731743871225 -0.025313042514552984
 -0.00035835237084531815 -0.0032126020771128822 0.0003958790555073919 0.005062709512460554 0.9965731743871225 -0.025313042514552984 0.003083935790938888 0.010214598752918547
0.037515631513130004 0.003382243117915047 0.012332598737143074 0.9961768981869253 -0.030418776045512862 0.0005121049860509675 0.006075462765942896 -0.0004479561488796393 -0.0038592503502023288
 0.9961768981869253 -0.030418776045512862 0.003384430014284766 0.01233234622470492 -0.00044800089332803345 -0.0038592516323154554 0.0004984568604919115 0.00607718682434074
 0.0005121049860509675 0.006075462765942896 -0.00044800089332803345 -0.0038592516323154554 0.0033822570575478177 0.012333095535145418 0.9961769091189431 -0.030418274403845612
 -0.0004479561488796393 -0.0038592503502023288 0.0004984568604919115 0.00607718682434074 0.9961769091189431 -0.030418274403845612 0.0033844368994898227 0.012332847706596546
0.043768236765320004 0.0037061586681464797 0.014472303781653194 0.9957474919325237 -0.035540362740575704 0.0006327020937684964 0.00708968240206535 -0.0005488530936792353 -0.0045066342974340095
 0.9957474919325237 -0.035540362740575704 0.0037091336862379214 0.014471988283640866 -0.0005489137576635972 -0.004506634903080693 0.0006141278714920477 0.007092007785157731
 0.0006327020937684964 0.00708968240206535 -0.0005489137576635972 -0.004506634903080693 0.003706177327924592 0.014472881988611868 0.9957475065084204 -0.03553977738519617
 -0.0005488530936792353 -0.0045066342974340095 0.0006141278714920477 0.007092007785157731 0.9957475065084204 -0.03553977738519617 0.0037091425781164934 0.014472572825100108
0.050020842017509996 0.004054625875574324 0.016632789543080447 0.9952845101668086 -0.04067820963462497 0.0007672759720405772 0.00810393003386632 -0.0006611737794483118 -0.005154523862804117
 0.9952845101668086 -0.04067820963462497 0.004058509904660196 0.016632404083517162 -0.0006612527262566636 -0.005154523437430123 0.0007430159894567454 0.00810697778513103
 0.0007672759720405772 0.00810393003386632 -0.0006612527262566636 -0.005154523437430123 0.004054649937805956 0.01663344862828165 0.9952845289227052 -0.040677540450281886
 -0.0006611737794483118 -0.005154523862804117 0.0007430159894567454 0.00810697778513103 0.9952845289227052 -0.040677540450281886 0.004058520998536421 0.016633071461789745
0.055454545454549996 0.004377752565287163 0.01852670733460187 0.9948545581681587 -0.045156276553279695 0.0008956697552248191 0.008985196180113906 -0.0007681594439658123 -0.0057177917295857476
 0.9948545581681587 -0.045156276553279695 0.004382524760658913 0.018526255116382437 -0.0007682561838434815 -0.005717790090925448 0.0008658510369431303 0.008988979327511904
 0.0008956697552248191 0.008985196180113906 -0.0007682561838434815 -0.005717790090925448 0.004377781872540994 0.018527436233756845 0.994854580997732 -0.04515553440204604
 -0.0007681594439658123 -0.0057177917295857476 0.0008658510369431303 0.008988979327511904 0.994854580997732 -0.04515553440204604 0.004382537910934539 0.018526994278677492
0.056273447269699996 0.004428107029143038 0.018813431636320772 0.994787515937252 -0.04583220747710719 0.0009159477292924685 0.009117988389297614 -0.0007850443867765145 -0.005802689276246431
 0.994787515937252 -0.04583220747710719 0.004433021000061929 0.01881296885977486 -0.0007851439609878093 -0.00580268742749864 0.0008852414266843167 0.009121891574741326
 0.0009159477292924685 0.009117988389297614 -0.0007851439609878093 -0.00580268742749864 0.004428137171097542 0.018814171016103658 0.9947875394169478 -0.04583145431901361
 -0.0007850443867765145 -0.005802689276246431 0.0008852414266843167 0.009121891574741326 0.9947875394169478 -0.04583145431901361 0.004433034470947208 0.018813718822253092
0.06252605252188 0.004827058910923857 0.021013653812615437 0.9942560739191543 -0.05100217843649978 0.0010788344311273743 0.01013163134886618 -0.0009205866078333262 -0.00645089924158735
 0.9942560739191543 -0.05100217843649978 0.0048331238334891604 0.021013105979218523 -0.0009207091353399766 -0.006450895539281081 0.0010409204469475149 0.010136535185553497
 0.0010788344311273743 0.01013163134886618 -0.0009207091353399766 -0.006450895539281081 0.00482709580379234 0.02101447284158936 0.9942561026762717 -0.051001341138900855
 -0.0009205866078333262 -0.00645089924158735 0.0010409204469475149 0.010136535185553497 0.9942561026762717 -0.051001341138900855 0.0048331398359551326 0.02101393823491155
0.06877865777407 0.005251932953787947 0.02323291023180793 0.9936897511279864 -0.05618789381250227 0.0012560488406277701 0.01114462511362306 -0.0010679175185593242 -0.007098919890567853
 0.9936897511279864 -0.05618789381250227 0.005259269952942346 0.023232269210927897 -0.0010680653064693878 -0.007098913866647804 0.001210165131955883 0.011150687096973417
 0.0012560488406277701 0.01114462511362306 -0.0010680653064693878 -0.007098913866647804 0.005251977260608955 0.023233808209321662 0.9936897857267468 -0.056186972182079076
 -0.0010679175185593242 -0.007098919890567853 0.001210165131955883 0.011150687096973417 0.9936897857267468 -0.056186972182079076 0.005259288619853509 0.023233183437365978
0.07503126302626001 0.005703175258431769 0.025470674272745176 0.9930881174977892 -0.061389085224386665 0.0014476991778325057 0.01215672897919923 -0.0012271494335619366 -0.007746514144142477
 0.9930881174977892 -0.061389085224386665 0.005711905610553365 0.02546993153501755 -0.0012273247699819442 -0.007746505292679689 0.0013930831611729502 0.012164119008329463
 0.0014476991778325057 0.01215672897919923 -0.0012273247699819442 -0.007746505292679689 0.005703227632416266 0.025471650439018258 0.9930881585136205 -0.06138807904407076
 -0.0012271494335619366 -0.007746514144142477 0.0013930831611729502 0.012164119008329463 0.9930881585136205 -0.06138807904407076 0.005711927052417059 0.02547092737454658
0.08128386827845 0.0061812265233376065 0.027726431082106942 0.9924507463768184 -0.06660545207588087 0.001653888893290703 0.013167695872691808 -0.0013983897486963947 -0.008393441324595274
 0.9924507463768184 -0.06660545207588087 0.006191471692150953 0.027725577689932158 -0.0013985949024425716 -0.008393429101767767 0.0015897776009882252 0.013176596373366668
 0.001653888893290703 0.013167695872691808 -0.0013985949024425716 -0.008393429101767767 0.0061812876060464905 0.027727484616356175 0.9924507943978926 -0.06660436110679441
 -0.0013983897486963947 -0.008393441324595274 0.0015897776009882252 0.013176596373366668 0.9924507943978926 -0.06660436110679441 0.006191495996291415 0.02772665474818139
0.08753647353064001 0.006686521914535152 0.029999672451011913 0.9917772149687044 -0.07183666670824355 0.0018747164504532422 0.014177272758561048 -0.0015817407759051924 -0.009039456912605166
 0.9917772149687044 -0.07183666670824355 0.0066984035865638 0.029998699047533467 -0.0015819779961487753 -0.009039440736721242 0.0018003467003675766 0.014187878803403333
 0.0018747164504532422 0.014177272758561048 -0.0015819779961487753 -0.009039440736721242 0.006686592334239737 0.030000802476223706 0.9917772705973035 -0.07183549068508716
 -0.0015817407759051924 -0.009039456912605166 0.0018003467003675766 0.014187878803403333 0.9917772705973035 -0.07183549068508716 0.006698430816560555 0.02999985689832216
0.09378907878283 0.007219490896091787 0.03228989317506787 0.9910671047394056 -0.07708237808624256 0.002110275114804152 0.01518520095602741 -0.0017772995728220532 -0.009684312407065729
 0.9910671047394056 -0.07708237808624256 0.007233131016775782 0.032288789971416265 -0.001777571088691239 -0.009684291658575999 0.0020248836911132863 0.015197720381633906
 0.002110275114804152 0.01518520095602741 -0.001777571088691239 -0.009684291658575999 0.007219571265761085 0.0322910987523914 0.9910671685927079 -0.07708111672307573
 -0.0017772995728220532 -0.009684312407065729 0.0020248836911132863 0.015197720381633906 0.9910671685927079 -0.07708111672307573 0.007233161211506293 0.03229002815141303
0.100041684035 0.007780557030402707 0.034596588401755494 0.9903200017968503 -0.08234221451373641 0.002360652748075799 0.01619121640352205 -0.001985157768889303 -0.010327755252323441
 0.9903200017968503 -0.08234221451373641 0.00779607783965173 0.034595345162685705 -0.0019854657891094575 -0.010327729273849024 0.002263476591851723 0.01620586992424788
 0.002360652748075799 0.01619121640352205 -0.0019854657891094575 -0.010327729273849024 0.007780647945943159 0.034597868532927255 0.9903200745082223 -0.08234086750191877
 -0.001985157768889303 -0.010327755252323441 0.002263476591851723 0.01620586992424788 0.9903200745082223 -0.08234086750191877 0.007796111012287014 0.03459666317397592
0.1059090909091 0.008332984077124909 0.036775709463290694 0.9895849161603465 -0.08729051225805286 0.0026091566384815142 0.017133275828040605 -0.002191473514539428 -0.010930044774638359
 0.9895849161603465 -0.08729051225805286 0.00835038118266496 0.036774325095244906 -0.002191817780326805 -0.010930013256873363 0.0025002280815293264 0.017150144276252884
 0.0026091566384815142 0.017133275828040605 -0.002191817780326805 -0.010930013256873363 0.008333085413829776 0.036777058597295346 0.9895849977754818 -0.08728908457067565
 -0.002191473514539428 -0.010930044774638359 0.0025002280815293264 0.017150144276252884 0.9895849977754818 -0.08728908457067565 0.008350417138153723 0.03677571753902252
0.1062942892872 0.008370137758208803 0.03691925166106335 0.989535497254506 -0.08761578568347747 0.0026259316066839706 0.017195049887794266 -0.0022054013896161497 -0.010969528815366513
 0.989535497254506 -0.08761578568347747 0.008387661826208353 0.03691785768884308 -0.0022057481019255266 -0.010969496911779338 0.0025162080149024107 0.01721207120596915
 0.0026259316066839706 0.017195049887794266 -0.0022057481019255266 -0.010969496911779338 0.008370239796350706 0.036920605291590844 0.9895355794746201 -0.08761435268887677
 -0.0022054013896161497 -0.010969528815366513 0.0025162080149024107 0.01721207120596915 0.9895355794746201 -0.08761435268887677 0.008387697963402087 0.03691925500229063
0.11254689453939999 0.008988644161346525 0.03925737338246118 0.9887131875808074 -0.09290268425843434 0.0029061881432958245 0.018196427249812998 -0.002438110679726483 -0.011609372401241066
 0.9887131875808074 -0.09290268425843434 0.009008294424419819 0.03925581749894175 -0.0024384982505469724 -0.0116093338396822 0.002783154975936426 0.018216063162037704
 0.0029061881432958245 0.018196427249812998 -0.0024384982505469724 -0.0116093338396822 0.008988757878216664 0.03925879939649727 0.9887132799786599 -0.09290116492700622
 -0.002438110679726483 -0.011609372401241066 0.002783154975936426 0.018216063162037704 0.9887132799786599 -0.09290116492700622 0.009008333485572024 0.03925729354922754
0.11879949979160001 0.009636480715355196 0.04161043975954269 0.9878526749395601 -0.09820248712337652 0.003201492812488673 0.019195069580771582 -0.002683359925814971 -0.012247021293074478
 0.9878526749395601 -0.09820248712337652 0.00965838051141617 0.041608710286606405 -0.0026837904995451506 -0.012246975303069176 0.0030643887065404498 0.019217580080315426
 0.003201492812488673 0.019195069580771582 -0.0026837904995451506 -0.012246975303069176 0.009636606643940315 0.04161193698319632 0.9878527782038551 -0.09820088107860897
 -0.002683359925814971 -0.012247021293074478 0.0030643887065404498 0.019217580080315426 0.9878527782038551 -0.09820088107860897 0.009658422427880977 0.04161026447548681
0.1250521050438 0.01031404503076695 0.04397793187582078 0.9869535675220367 -0.10351475639422895 0.003511909878817983 0.020190693403211245 -0.00294121727956135 -0.012882206822314715
 0.9869535675220367 -0.10351475639422895 0.010338318135452836 0.04397601661371169 -0.002941692978285714 -0.01288215259586389 0.0033599744690501754 0.020216351778015965
 0.003511909878817983 0.020190693403211245 -0.002941692978285714 -0.01288215259586389 0.01031418367958583 0.04397949907618072 0.9869536823622194 -0.1035130632386924
 -0.00294121727956135 -0.012882206822314715 0.0033599744690501754 0.020216351778015965 0.9869536823622194 -0.1035130632386924 0.01033836280933103 0.043977648309332075
0.131304710296 0.011021727588702424 0.04635932503271767 0.9860154798730806 -0.10883904024357681 0.0038374972287220713 0.021183010854708938 -0.003211744581879866 -0.013514656451414806
 0.9860154798730806 -0.10883904024357681 0.011048498250494724 0.04635721123675018 -0.0032122675046696476 -0.013514593143073282 0.003669971374436334 0.02121210378111975
 0.0038374972287220713 0.021183010854708938 -0.0032122675046696476 -0.013514593143073282 0.011021879439604119 0.04636096092078078 0.9860156070210363 -0.10883725955688271
 -0.003211744581879866 -0.013514656451414806 0.003669971374436334 0.02121210378111975 0.9860156070210363 -0.10883725955688271 0.011048545554200408 0.046358919776475646
0.1375573155481 0.011611296671891183 0.048445658819606656 0.9851867327161019 -0.1138662373763411 0.004141858395442471 0.02214311740389002 -0.0034587430326001255 -0.014115355128005599
 0.9851867327161019 -0.1138662373763411 0.011640697270419446 0.048443375100975045 -0.003459316073193989 -0.014115282530586078 0.003958361031814063 0.022175639721894277
 0.004141858395442471 0.02214311740389002 -0.003459316073193989 -0.014115282530586078 0.011611461166909632 0.04844736287589263 0.9851868727562354 -0.11386436892218742
 -0.0034587430326001255 -0.014115355128005599 0.003958361031814063 0.022175639721894277 0.9851868727562354 -0.11386436892218742 0.011640748374861506 0.04844515932331974
0.1438099208003 0.012221964796503865 0.05051832902642991 0.984328052239794 -0.118877947359149 0.0044584037853592435 0.023097476393730287 -0.0037154685785319003 -0.014710892159623202
 0.984328052239794 -0.118877947359149 0.012254121345645257 0.05051586463958374 -0.003716093946569904 -0.014710809437594544 0.00425824552203834 0.02313369393958847
 0.0044584037853592435 0.023097476393730287 -0.003716093946569904 -0.014710809437594544 0.012222142191958408 0.05052009998716718 0.984328205904607 -0.11887599072990122
 -0.0037154685785319003 -0.014710892159623202 0.00425824552203834 0.02313369393958847 0.984328205904607 -0.11887599072990122 0.012254176315633795 0.05051772377879313
0.1500625260525 0.012853471297889801 0.05257708326411687 0.9834397044483945 -0.12387396391084649 0.004786993562246152 0.02404593108392919 -0.003981787687237404 -0.015301126309219114
 0.9834397044483945 -0.12387396391084649 0.012888510274061715 0.05257442675999473 -0.003982467580053108 -0.015301032594275803 0.004569490483527471 0.024086119415390198
 0.004786993562246152 0.02404593108392919 -0.003982467580053108 -0.015301032594275803 0.01285366181198115 0.05257891981652486 0.9834398724887568 -0.12387191868978208
 -0.003981787687237404 -0.015301126309219114 0.004569490483527471 0.024086119415390198 0.9834398724887568 -0.12387191868978208 0.012888569160658512 0.05257636001483981
0.15631513130469998 0.013505553124453534 0.054621676772719584 0.9825219572893652 -0.12885408345430802 0.005127485906876873 0.024988328127348698 -0.00425756490665218 -0.015885919965380177
 0.9825219572893652 -0.12885408345430802 0.013543601477243579 0.054618815975458736 -0.004258301508798123 -0.015885814356829942 0.004891959672591508 0.025032772400552114
