! Created with skrf 1.8.0 (http://scikit-rf.org).
# GHz S RI R 50.0 
!freq ReS11 ImS11 ReS12 ImS12 ReS13 ImS13
! ReS14 ImS14
! ReS21 ImS21 ReS22 ImS22 ReS23 ImS23
! ReS24 ImS24
! ReS31 ImS31 ReS32 ImS32 ReS33 ImS33
! ReS34 ImS34
! ReS41 ImS41 ReS42 ImS42 ReS43 ImS43
! ReS44 ImS44
!
0.0 0.001435676236664 0.0 0.9985643237398 0.0 5.517206623332e-05 0.0 -5.517206593944e-05 6.75662939550819e-21
 0.9985643237398 0.0 0.001435676236707 0.0 -5.517206594043e-05 6.756629395629431e-21 5.517206623496e-05 0.0
 5.517206623332e-05 0.0 -5.517206594043e-05 6.756629395629431e-21 0.00143567624842 0.0 0.9985643237516 0.0
 -5.517206593944e-05 6.75662939550819e-21 5.517206623496e-05 0.0 0.9985643237516 0.0 0.001435676248413 0.0
0.005 0.0015443758405172918 0.001175215659207216 0.9984268648731462 -0.0030076482741687362 7.701663188338184e-05 0.0006051971920891732 -7.488104975950796e-05 -0.00038039005953455495
 0.9984268648731462 -0.0030076482741687362 0.0015443711036243596 0.0011752183914532151 -7.488058656471095e-05 -0.00038038965096169575 7.704378732234217e-05 0.000605186780264948
 7.701663188338184e-05 0.0006051971920891732 -7.488058656471095e-05 -0.00038038965096169575 0.0015443760091982102 0.0011751482677808311 0.9984268645295505 -0.003007715328237625
 -7.488104975950796e-05 -0.00038039005953455495 7.704378732234217e-05 0.000605186780264948 0.9984268645295505 -0.003007715328237625 0.0015443702553544234 0.0011751516823129274
0.006252605252188 0.0015727988386578509 0.001473652415236902 0.998390711846153 -0.003760309352339624 8.319671243684556e-05 0.0007567972226684557 -8.040381024030982e-05 -0.0004759837857741345
 0.998390711846153 -0.003760309352339624 0.0015727914345170875 0.001473655908684933 -8.040308988581606e-05 -0.0004759832808197861 8.323913963366343e-05 0.0007567837197664289
 8.319671243684556e-05 0.0007567972226684557 -8.040308988581606e-05 -0.0004759832808197861 0.0015727991680792542 0.0014735681671205173 0.9983907113742342 -0.0037603931768646387
 -8.040381024030982e-05 -0.0004759837857741345 8.323913963366343e-05 0.0007567837197664289 0.9983907113742342 -0.0037603931768646387 0.0015727901734690203 0.0014735725244648865
0.01250521050438 0.001721924997268084 0.002978284762376776 0.9981998574682952 -0.007521506499571555 0.00011831765318295373 0.0015140018352030823 -0.00011151474371276615 -0.000954327681862448
 0.9981998574682952 -0.007521506499571555 0.001721895440120276 0.002978292538300219 -0.00011151190987692124 -0.0009543267343267664 0.00011848682139220094 0.001513969578176628
 0.00011831765318295373 0.0015140018352030823 -0.00011151190987692124 -0.0009543267343267664 0.0017219268818354436 0.002978116509423697 0.998199856142963 -0.0075216739056273695
 -0.00011151474371276615 -0.000954327681862448 0.00011848682139220094 0.001513969578176628 0.998199856142963 -0.0075216739056273695 0.0017218909600218804 0.00297812613312271
0.01875781575657 0.0018833626250987082 0.004504463596857689 0.9979915358973233 -0.011292763548315715 0.00016061431170370807 0.0022721301342734793 -0.00014859680450010656 -0.001434358260657554
 0.9979915358973233 -0.011292763548315715 0.0018832962231191113 0.0045044764943970705 -0.00014859049184439506 -0.0014343569424879906 0.0001609942795637485 0.0022720728827439213
 0.00016061431170370807 0.0022721301342734793 -0.00014859049184439506 -0.0014343569424879906 0.0018833673008130276 0.004504211426335267 0.997991533338443 -0.011293014493391328
 -0.00014859680450010656 -0.001434358260657554 0.0001609942795637485 0.0022720728827439213 0.997991533338443 -0.011293014493391328 0.001883286569888882 0.0045042273073572624
0.02501042100875 0.002057411539182348 0.006050072982737687 0.9977655140240157 -0.015075926473077064 0.00021016697065097094 0.0030312257198432504 -0.000191739291259368 -0.0019158700911195033
 0.9977655140240157 -0.015075926473077064 0.002057293639457012 0.006050091887349288 -0.00019172815296595753 -0.0019158684853586697 0.00021084180153711822 0.0030311362857094524
 0.00021016697065097094 0.0030312257198432504 -0.00019172815296595753 -0.0019158684853586697 0.002057420249023553 0.006049737012196279 0.9977655098464275 -0.01507626092947183
 -0.000191739291259368 -0.0019158700911195033 0.00021084180153711822 0.0030311362857094524 0.9977655098464275 -0.01507626092947183 0.0020572768561227554 0.006049760218803664
0.03126302626094 0.002244359096123301 0.007614033237725526 0.9975215462129603 -0.018871796336378283 0.00026705640055110747 0.0037912631326625155 -0.00024102920137969864 -0.0023987221329839666
 0.9975215462129603 -0.018871796336378283 0.0022441750773876026 0.007614059080554605 -0.00024101190595088168 -0.0023987203339262604 0.0002681102440498154 0.0037911333759903334
 0.00026705640055110747 0.0037912631326625155 -0.00024101190595088168 -0.0023987203339262604 0.002244373097995303 0.007613613569336881 0.9975215400327588 -0.018872214337031682
 -0.00024102920137969864 -0.0023987221329839666 0.0002681102440498154 0.0037911333759903334 0.9975215400327588 -0.018872214337031682 0.002244149211368552 0.007613645246633082
0.037515631513130004 0.0024444865747636465 0.009195647315407542 0.9972593808583774 -0.022680782847818656 0.00033136313366356756 0.004552189786452666 -0.00029655186080304846 -0.0028827958036335196
 0.9972593808583774 -0.022680782847818656 0.002444221842454588 0.009195681072912154 -0.0002965270903783617 -0.002882793916838596 0.00033288026254647444 0.004552010606701241
 0.00033136313366356756 0.004552189786452666 -0.0002965270903783617 -0.002882793916838596 0.002444507135633053 0.009195144073872485 0.997259372285424 -0.022681284448461195
 -0.00029655186080304846 -0.0028827958036335196 0.00033288026254647444 0.004552010606701241 0.997259372285424 -0.022681284448461195 0.0024441849395887747 0.009195185443881388
0.043768236765320004 0.0026580716336337493 0.01079440196422391 0.9969787630146906 -0.026503103138593095 0.0004031671276123278 0.005313938716270496 -0.0003583911501569992 -0.003367982225282849
 0.9969787630146906 -0.026503103138593095 0.0026577116167595814 0.010794444657935541 -0.0003583575995971117 -0.0033679803675556296 0.0004052319564879244 0.005313700042093239
 0.0004031671276123278 0.005313938716270496 -0.0003583575995971117 -0.0033679803675556296 0.002658100033771467 0.01079381529896521 0.99697875165554 -0.026503688415549807
 -0.0003583911501569992 -0.003367982225282849 0.0004052319564879244 0.005313700042093239 0.99697875165554 -0.026503688415549807 0.0026576617246755765 0.01079386766092879
0.050020842017509996 0.0028853894629066925 0.012409885522450629 0.996679435723587 -0.03033886389795042 0.00048254756090105726 0.006076433848237733 -0.0004266295938899133 -0.003854176951180434
 0.996679435723587 -0.03033886389795042 0.0028849196106441495 0.01240993821886801 -0.0004265859699685976 -0.0038541752505318536 0.0004852446543257829 0.006076124626645684
 0.00048254756090105726 0.006076433848237733 -0.0004265859699685976 -0.0038541752505318536 0.002885426995546724 0.012409215604176783 0.996679421179605 -0.030339532951561513
 -0.0004266295938899133 -0.003854176951180434 0.0004852446543257829 0.006076124626645684 0.996679421179605 -0.030339532951561513 0.0028848547795178956 0.012409280334882401
0.055454545454549996 0.003094300547102459 0.013827102360577574 0.9964039163708517 -0.03368320121405678 0.0005577453618313163 0.006739607206699154 -0.0004911908552062623 -0.0042774340709687995
 0.9964039163708517 -0.03368320121405678 0.0030937234411443143 0.013827164650621544 -0.0004911374358817533 -0.004277432619462033 0.0005610607074481998 0.006739226930153965
 0.0005577453618313163 0.006739607206699154 -0.0004911374358817533 -0.004277432619462033 0.0030943470771025204 0.013826360246080017 0.9964038987313322 -0.03368394317429158
 -0.0004911908552062623 -0.0042774340709687995 0.0005610607074481998 0.006739226930153965 0.9964038987313322 -0.03368394317429158 0.003093644046516256 0.013826436904260551
0.056273447269699996 0.0031267133800946096 0.014041747570057437 0.9963611407876295 -0.03418810165322374 0.0005695826913443138 0.006839592572857515 -0.0005013483823143453 -0.0043412773898598885
 0.9963611407876295 -0.03418810165322374 0.003126119159088955 0.014041811380533729 -0.0005012934032709892 -0.004341275985469609 0.0005729967662575707 0.006839200758134848
 0.0005695826913443138 0.006839592572857515 -0.0005012934032709892 -0.004341275985469609 0.003126761352043402 0.014040994586063041 0.9963611226546109 -0.034188854612566245
 -0.0005013483823143453 -0.0043412773898598885 0.0005729967662575707 0.006839200758134848 0.9963611226546109 -0.034188854612566245 0.0031260374420686438 0.01404107314027214
0.06252605252188 0.0033823151528305753 0.015689676747847943 0.9960236192746124 -0.03805080488429105 0.0006643497418516835 0.007603327171320144 -0.0005826273638920874 -0.00482918137874897
 0.9960236192746124 -0.03805080488429105 0.003381582045150257 0.015689752828602643 -0.0005825597591356149 -0.00482918042091592 0.0006685656661464253 0.007602839713812119
 0.0006643497418516835 0.007603327171320144 -0.0005825597591356149 -0.00482918042091592 0.003382374886070417 0.015688840912627414 0.9960235971424986 -0.038051641896508163
 -0.0005826273638920874 -0.00482918137874897 0.0006685656661464253 0.007602839713812119 0.9960235971424986 -0.038051641896508163 0.003381481499716377 0.015688934823624837
0.06877865777407 0.0036524651777464076 0.017353387536892244 0.9956666118796671 -0.041926927180019474 0.0007669248045455842 0.00836754565600094 -0.0006705450174059617 -0.005317786346278814
 0.9956666118796671 -0.041926927180019474 0.003651578677984613 0.017353477089079437 -0.0006704635271406583 -0.0053177859963843945 0.0007720275924400906 0.008366948490893297
 0.0007669248045455842 0.00836754565600094 -0.0006704635271406583 -0.0053177859963843945 0.0036525380087160113 0.017352469087378433 0.9956665853310286 -0.0419278484149519
 -0.0006705450174059617 -0.005317786346278814 0.0007720275924400906 0.008366948490893297 0.9956665853310286 -0.0419278484149519 0.0036514573663032762 0.017352579967500326
0.07503126302626001 0.00393743256838123 0.019032611869756955 0.9952898592014676 -0.04581639556582487 0.0008773827527820074 0.009132152311352946 -0.0007651784138415765 -0.005806988776561124
 0.9952898592014676 -0.04581639556582487 0.003936378181424541 0.019032716139577015 -0.0007650817889059794 -0.0058069892070194765 0.0008834575584753734 0.009131430347471412
 0.0008773827527820074 0.009132152311352946 -0.0007650817889059794 -0.0058069892070194765 0.0039375198490941045 0.01903161106549893 0.9952898278106224 -0.04581740121573352
 -0.0007651784138415765 -0.005806988776561124 0.0008834575584753734 0.009131430347471412 0.9952898278106224 -0.04581740121573352 0.003936234171309831 0.019031740606834692
0.08128386827845 0.0042374851903846135 0.020727093551023323 0.9948931019673025 -0.04971911602511994 0.0009957971602073661 0.009897048050685826 -0.0008666031699002484 -0.006296683861356821
 0.9948931019673025 -0.04971911602511994 0.004236248429607609 0.02072721382989664 -0.000866490171636004 -0.006296685255563217 0.0010029292698084087 0.00989618515934606
 0.0009957971602073661 0.009897048050685826 -0.000866490171636004 -0.006296685255563217 0.004237588290004709 0.020726010673640022 0.9948930653008028 -0.04972020630512311
 -0.0008666031699002484 -0.006296683861356821 0.0010029292698084087 0.00989618515934606 0.9948930653008028 -0.04972020630512311 0.004236079796181495 0.020726160648692673
0.08753647353064001 0.004552889660981317 0.022436584395560157 0.9944760812257368 -0.053634977306520705 0.0011222402231280688 0.01066213066888466 -0.0009748933966603044 -0.006786765259349143
 0.9944760812257368 -0.053634977306520705 0.004551456045409134 0.022436722020451244 -0.0009747627966708806 -0.00678676781165093 0.0011305150453573345 0.010661109672867961
 0.0011222402231280688 0.01066213066888466 -0.0009747627966708806 -0.00678676781165093 0.004553009965240349 0.02243541974963664 0.9944760388405257 -0.05363615245352429
 -0.0009748933966603044 -0.006786765259349143 0.0011305150453573345 0.010661109672867961 0.9944760388405257 -0.05363615245352429 0.0045512608717221455 0.022435592012094885
0.09378907878283 0.004883911321287505 0.024160841472565142 0.9940385385156233 -0.05756385362902995 0.001256782685374192 0.011427295023073792 -0.0010901216443418712 -0.007277124930980475
 0.9940385385156233 -0.05756385362902995 0.004882266373768981 0.024160997826231472 -0.001089972224472817 -0.007277128846615513 0.0012662857409933897 0.011426097685686754
 0.001256782685374192 0.011427295023073792 -0.001089972224472817 -0.007277128846615513 0.0048840502335384915 0.024159595388447783 0.9940384899585261 -0.05756511389862893
 -0.0010901216443418712 -0.007277124930980475 0.0012662857409933897 0.011426097685686754 0.9940384899585261 -0.05756511389862893 0.004882042751483277 0.024159791874082348
0.100041684035 0.005230814192721998 0.02589962508308285 0.9935802160218146 -0.06150560665750155 0.0013994937644941415 0.012192433171610435 -0.0012123588444074042 -0.007767653018443454
 0.9935802160218146 -0.06150560665750155 0.005228943437375126 0.025899801594574823 -0.0012121893966069942 -0.00776765851350009 0.0014103106750425311 0.012191040185906716
 0.0013994937644941415 0.012192433171610435 -0.0012121893966069942 -0.00776765851350009 0.005230973135111357 0.02589829791189555 0.9935801608292026 -0.061506952328768925
 -0.0012123588444074042 -0.007767653018443454 0.0014103106750425311 0.012191040185906716 0.9935801608292026 -0.061506952328768925 0.005228689468831728 0.02589852063948186
0.1059090909091 0.0055710235102972685 0.027544288787521378 0.9931310010221868 -0.0652161020695881 0.0015409024983572084 0.012910311820297941 -0.0013335017685568227 -0.008228015245799183
 0.9931310010221868 -0.0652161020695881 0.005568927692113817 0.027544485556300607 -0.0013333124369394789 -0.008228022429132642 0.0015530302732833417 0.01290871671723329
 0.0015409024983572084 0.012910311820297941 -0.0013333124369394789 -0.008228022429132642 0.005571202559116422 0.027542885864691693 0.993130939170592 -0.06521752815364933
 -0.0013335017685568227 -0.008228015245799183 0.0015530302732833417 0.01290871671723329 0.993130939170592 -0.06521752815364933 0.005568643530454371 0.027543135128361936
0.1062942892872 0.0055938609187228296 0.027652697238684888 0.9931008567189897 -0.06546008698118834 0.001550441079472999 0.01295743447938255 -0.00134167424908287 -0.00825823776308683
 0.9931008567189897 -0.06546008698118834 0.005591749879089463 0.02765289538376047 -0.0013414835753758506 -0.008258245064461019 0.0015626575550720576 0.012955825457534572
 0.001550441079472999 0.01295743447938255 -0.0013414835753758506 -0.008258245064461019 0.0055940413323691315 0.027651289354219063 0.9931007944152984 -0.06546151835452484
 -0.00134167424908287 -0.00825823776308683 0.0015626575550720576 0.012955825457534572 0.9931007944152984 -0.06546151835452484 0.005591463677458256 0.027651540426450894
0.11254689453939999 0.005973312697345097 0.029419820495421363 0.9926002045088276 -0.06942713524125539 0.0017096905786149936 0.013722185704812645 -0.0014781353696581008 -0.008748765444839457
 0.9926002045088276 -0.06942713524125539 0.005970946893954207 0.029420041797120423 -0.001477922282058372 -0.008748774790181687 0.0017233924050923603 0.013720339167618827
 0.0017096905786149936 0.013722185704812645 -0.001477922282058372 -0.008748774790181687 0.005973516043125719 0.029418332294165336 0.9926001346063968 -0.06942865263795699
 -0.0014781353696581008 -0.008748765444839457 0.0017233924050923603 0.013720339167618827 0.9926001346063968 -0.06942865263795699 0.005970626584742122 0.02941861389880021
0.11879949979160001 0.006369429204735419 0.031200757049453194 0.9920780043514487 -0.0734065830008251 0.0018773064683933575 0.014486571071560412 -0.001621807912860176 -0.009239120340771234
 0.9920780043514487 -0.0734065830008251 0.006366794152719272 0.03120100307880883 -0.0016215712332861693 -0.009239131978450804 0.001892579493788318 0.014484464438174057
 0.0018773064683933575 0.014486571071560412 -0.0016215712332861693 -0.009239131978450804 0.006369656964062409 0.03119918894967188 0.9920779263493845 -0.07340818676372508
 -0.001621807912860176 -0.009239120340771234 0.001892579493788318 0.014484464438174057 0.9920779263493845 -0.07340818676372508 0.0063664378753610605 0.031199503360628267
0.1250521050438 0.006782468513549023 0.032995268020109964 0.9915340023938238 -0.07739825343246756 0.002053351142209993 0.015250472329800159 -0.0017727557164758292 -0.009729184698053566
 0.9915340023938238 -0.07739825343246756 0.006779549720699817 0.03299554039679262 -0.0017724942767870992 -0.009729198887102341 0.0020702812626724023 0.015248081907651822
 0.002053351142209993 0.015250472329800159 -0.0017724942767870992 -0.009729198887102341 0.006782722189000932 0.03299362046116405 0.9915339157773794 -0.0773999439261274
 -0.0017727557164758292 -0.009729184698053566 0.0020702812626724023 0.015248081907651822 0.9915339157773794 -0.0773999439261274 0.006779155628972377 0.03299397003978806
0.131304710296 0.007212687004926374 0.03480311287430912 0.990967946094239 -0.0814019618686672 0.0022378851096734203 0.01601376881113119 -0.001931040683921314 -0.01021883871730179
 0.990967946094239 -0.0814019618686672 0.007209469969214676 0.03480341326751276 -0.0019307533258167908 -0.010218855727371393 0.002256558254761531 0.016011069786006193
 0.0022378851096734203 0.01601376881113119 -0.0019307533258167908 -0.010218855727371393 0.007212968121082164 0.03480138632016613 0.9909678503339245 -0.08140373947542463
 -0.001931040683921314 -0.01021883871730179 0.002256558254761531 0.016011069786006193 0.9909678503339245 -0.08140373947542463 0.007209036233081608 0.034801773516486174
0.1375573155481 0.007559096313574685 0.03638831191374767 0.9904808633563885 -0.08518168042745745 0.0024067886268794554 0.016752487973783373 -0.0020725277289136393 -0.010684139913722749
 0.9904808633563885 -0.08518168042745745 0.007555564742422497 0.03638863424801843 -0.002072212587131555 -0.010684159743102698 0.002427250439562376 0.016749485157336853
 0.0024067886268794554 0.016752487973783373 -0.002072212587131555 -0.010684159743102698 0.007559405498066248 0.03638650703170086 0.9904807580295826 -0.0851835453847816
 -0.0020725277289136393 -0.010684139913722749 0.002427250439562376 0.016749485157336853 0.9904807580295826 -0.0851835453847816 0.0075550902423605895 0.036386925919591286
0.1438099208003 0.00791761328260104 0.03796561410283675 0.9899768123369301 -0.08895227562800333 0.002582513251703716 0.017488509239186562 -0.002219683688870072 -0.011146946298733985
 0.9899768123369301 -0.08895227562800333 0.007913752370637378 0.0379659595099242 -0.0022193394921528435 -0.011146969214308656 0.002604842420247403 0.017485179994246026
 0.002582513251703716 0.017488509239186562 -0.0022193394921528435 -0.011146969214308656 0.0079179519295299 0.0379637314169683 0.989976696914494 -0.0889542283164035
 -0.002219683688870072 -0.011146946298733985 0.002604842420247403 0.017485179994246026 0.989976696914494 -0.0889542283164035 0.007913235427750616 0.0379641838629927
0.1500625260525 0.008288118071748625 0.039534900954681054 0.9894559165776095 -0.09271366747069103 0.00276500209908011 0.018221767256940063 -0.0023724528668370164 -0.011607194869630468
 0.9894559165776095 -0.09271366747069103 0.008283912989550765 0.03953527062906353 -0.002372078344903778 -0.011607221149169053 0.0027892768758703943 0.018218088121539234
 0.00276500209908011 0.018221767256940063 -0.002372078344903778 -0.011607221149169053 0.008288487585865945 0.03953294101278746 0.9894557905179857 -0.09271570828328578
 -0.0023724528668370164 -0.011607194869630468 0.0027892768758703943 0.018218088121539234 0.9894557905179857 -0.09271570828328578 0.008283351949038804 0.039533428973936614
0.15631513130469998 0.008670490065870817 0.04109605761714749 0.9889183001649036 -0.0964657759645028 0.002954197658078929 0.018952197720530913 -0.002530778920478522 -0.01206482390106071
