! Created with skrf 1.8.0 (http://scikit-rf.org).
# GHz S RI R 50.0 
!freq ReS11 ImS11 ReS12 ImS12 ReS13 ImS13
! ReS14 ImS14
! ReS21 ImS21 ReS22 ImS22 ReS23 ImS23
! ReS24 ImS24
! ReS31 ImS31 ReS32 ImS32 ReS33 ImS33
! ReS34 ImS34
! ReS41 ImS41 ReS42 ImS42 ReS43 ImS43
! ReS44 ImS44
!
0.0 0.0009738807115305 0.0 0.9990261192815 0.0 3.679564450551e-05 0.0 -3.679564411717e-05 4.5061667790657375e-21
 0.9990261192815 0.0 0.0009738807115389 0.0 -3.679564411682e-05 4.506166779022876e-21 3.679564450568e-05 0.0
 3.679564450551e-05 0.0 -3.679564411682e-05 4.506166779022876e-21 0.0009738807149803 0.0 0.999026119285 0.0
 -3.679564411717e-05 4.5061667790657375e-21 3.679564450568e-05 0.0 0.999026119285 0.0 0.0009738807150081 0.0
0.005 0.001046765171644071 0.0007935990618212163 0.9989340484372299 -0.0020417896821987576 5.148942777628561e-05 0.00042765744014952497 -4.997192732075316e-05 -0.0002647478315994273
 0.9989340484372299 -0.0020417896821987576 0.0010467685503831694 0.0007935970512402377 -4.997157573941958e-05 -0.0002647475246478115 5.146748837804748e-05 0.0004276656984099495
 5.148942777628561e-05 0.00042765744014952497 -4.997157573941958e-05 -0.0002647475246478115 0.0010467658428930996 0.0007936658857579576 0.9989340487487111 -0.002041722615074024
 -4.997192732075316e-05 -0.0002647478315994273 5.146748837804748e-05 0.0004276656984099495 0.9989340487487111 -0.002041722615074024 0.001046768497732631 0.0007936643569140929
0.006252605252188 0.001065571406597674 0.0009951821954363915 0.9989101899546486 -0.002552785151129159 5.55138519948877e-05 0.000534788274702562 -5.355038456043081e-05 -0.0003313004114071161
 0.9989101899546486 -0.002552785151129159 0.0010655766887297615 0.0009951796607934559 -5.354983775425241e-05 -0.0003313000319329111 5.547957177312059e-05 0.0005347989921800016
 5.55138519948877e-05 0.000534788274702562 -5.354983775425241e-05 -0.0003313000319329111 0.001065572378529661 0.0009952657097892545 0.998910190364064 -0.0025527013271054735
 -5.355038456043081e-05 -0.0003313004114071161 5.547957177312059e-05 0.0005347989921800016 0.998910190364064 -0.0025527013271054735 0.0010655765284614768 0.0009952637842994873
0.01250521050438 0.0011627711409023529 0.0020118090857075372 0.9987862918132665 -0.005106594285047353 7.767601913179491e-05 0.0010699411769145252 -7.30932298298804e-05 -0.0006644249164543374
 0.9987862918132665 -0.005106594285047353 0.001162792239465563 0.00201180380320851 -7.309107820404817e-05 -0.0006644242020461073 7.753926839583476e-05 0.0010699667560728002
 7.767601913179491e-05 0.0010699411769145252 -7.309107820404817e-05 -0.0006644242020461073 0.0011627744686287821 0.0020119757984873796 0.9987862928916676 -0.00510642687925717
 -7.30932298298804e-05 -0.0006644249164543374 7.753926839583476e-05 0.0010699667560728002 0.9987862928916676 -0.00510642687925717 0.001162791036705754 0.002011971808620678
0.01875781575657 0.0012656260605383052 0.003043512741234837 0.9986543187018692 -0.0076677083830660065 0.00010332156744475446 0.0016058794301668515 -9.546967204134598e-05 -0.0009989000257754725
 0.9986543187018692 -0.0076677083830660065 0.001265673482593332 0.0030435044812537567 -9.546487820818602e-05 -0.000998899025425063 0.0001030142552062278 0.0016059245699456988
 0.00010332156744475446 0.0016058794301668515 -9.546487820818602e-05 -0.000998899025425063 0.001265633123067694 0.0030437624689588516 0.9986543207048298 -0.007667457460981441
 -9.546967204134598e-05 -0.0009989000257754725 0.0001030142552062278 0.0016059245699456988 0.9986543207048298 -0.007667457460981441 0.001265670345486158 0.003043756274971887
0.02501042100875 0.0013742810981868699 0.004088901043351438 0.998514162355592 -0.010237429837396114 0.00013249052785863313 0.002142670144621616 -0.00012072449408059458 -0.0013346043131263587
 0.998514162355592 -0.010237429837396114 0.0013743653374246976 0.004088889564979239 -0.00012071603423147112 -0.0013346030814743142 0.00013194445896129854 0.0021427400706352704
 0.00013249052785863313 0.002142670144621616 -0.00012071603423147112 -0.0013346030814743142 0.0013742932790230824 0.00408923358804572 0.9985141655431391 -0.01023709543494414
 -0.00012072449408059458 -0.0013346043131263587 0.00013194445896129854 0.0021427400706352704 0.9985141655431391 -0.01023709543494414 0.0013743593716179065 0.004089225053565659
0.03126302626094 0.0014888744854042596 0.005147287800813871 0.9983657069616787 -0.012816352317048673 0.00016522363650426283 0.002680329562340988 -0.00014890157523167916 -0.0016714656498179041
 0.9983657069616787 -0.012816352317048673 0.0014890060274968177 0.005147272852855803 -0.00014888843676951594 -0.001671464247298184 0.00016437044529481212 0.002680430029662928
 0.00016522363650426283 0.002680329562340988 -0.00014888843676951594 -0.001671464247298184 0.001488893169055942 0.005147702951847585 0.9983657115948767 -0.012815934438499429
 -0.00014890157523167916 -0.0016714656498179041 0.00016437044529481212 0.002680430029662928 0.9983657115948767 -0.012815934438499429 0.0014889963315742156 0.005147691945051045
0.037515631513130004 0.0016095414745910634 0.006218248538808507 0.9982088329197079 -0.015404804950880055 0.0002015619167790403 0.0032188545192402304 -0.0001800442644677229 -0.0020094297319425405
 0.9982088329197079 -0.015404804950880055 0.0016097308001566297 0.0062182298603513046 -0.00018002544468756997 -0.002009428224823352 0.00020033303462838476 0.003218991818194292
 0.0002015619167790403 0.0032188545192402304 -0.00018002544468756997 -0.002009428224823352 0.0016095680444864907 0.006218746069186452 0.998208839259414 -0.015404303572298429
 -0.0001800442644677229 -0.0020094297319425405 0.00020033303462838476 0.003218991818194292 0.998208839259414 -0.015404303572298429 0.0016097164636156296 0.006218732463472992
0.043768236765320004 0.0017364157905717852 0.00730148531455695 0.9980434183323782 -0.018002987480851055 0.0002415464974111024 0.003758232000238856 -0.00021419552731738296 -0.0023484505144038717
 0.9980434183323782 -0.018002987480851055 0.0017366733777777197 0.0073014626353440455 -0.00021417003266761952 -0.002348448974789578 0.0002398731346460212 0.003758412963107456
 0.0002415464974111024 0.003758232000238856 -0.00021417003266761952 -0.002348448974789578 0.0017364516323698869 0.007302064962679827 0.9980434266424653 -0.018002402567960644
 -0.00021419552731738296 -0.0023484505144038717 0.0002398731346460212 0.003758412963107456 0.9980434266424653 -0.018002402567960644 0.0017366534838132248 0.007302048637326087
0.050020842017509996 0.0018696303131617833 0.008396770825263506 0.9978693397266778 -0.02061102612157323 0.0002852185127362235 0.004298443098043813 -0.0002513980137278189 -0.0026884862413254964
 0.9978693397266778 -0.02061102612157323 0.0018699666394554155 0.00839674386597221 -0.00025136485925265293 -0.002688484747156686 0.0002830316480127988 0.004298675106172736
 0.0002852185127362235 0.004298443098043813 -0.00025136485925265293 -0.002688484747156686 0.0018696768122939058 0.008397432305945795 0.9978693502728131 -0.020610357618477317
 -0.0002513980137278189 -0.0026884862413254964 0.0002830316480127988 0.004298675106172736 0.9978693502728131 -0.020610357618477317 0.0018699402626696758 0.008397413146600976
0.055454545454549996 0.001990649626962896 0.009358248440727182 0.9977109271195127 -0.02288555811737369 0.0003261973702110044 0.004768562222083828 -0.00028623897858534597 -0.0029847812122645065
 0.9977109271195127 -0.02288555811737369 0.001991062889509987 0.009358217528208135 -0.0002861983739907612 -0.002984779825407688 0.00032350801835215163 0.004768845016548341
 0.0003261973702110044 0.004768562222083828 -0.0002861983739907612 -0.002984779825407688 0.0019907065136972536 0.009358980775069638 0.997710939826825 -0.022884816920729502
 -0.00028623897858534597 -0.0029847812122645065 0.00032350801835215163 0.004768845016548341 0.997710939826825 -0.022884816920729502 0.0019910301216530058 0.009358959065346773
0.056273447269699996 0.0020093174387021476 0.009503921015860296 0.9976864724567854 -0.023229000919674274 0.0003326190403259515 0.004839464936942521 -0.0002916940895330142 -0.0030294975116558183
 0.9976864724567854 -0.023229000919674274 0.002009742982402753 0.0095038894883394 -0.00029165229851234477 -0.0030294961466931724 0.00032984941449096624 0.004839755928022464
 0.0003326190403259515 0.004839464936942521 -0.00029165229851234477 -0.0030294961466931724 0.0020093759816207893 0.009504664006118045 0.9976864855073648 -0.023228248762636364
 -0.0002916940895330142 -0.0030294975116558183 0.00032984941449096624 0.004839755928022464 0.9976864855073648 -0.023228248762636364 0.0020097091898155102 0.00950464190529529
0.06252605252188 0.002155609290785088 0.010622779984835587 0.9974946909552141 -0.025856960814675103 0.00038378905536392064 0.005381271735986995 -0.0003351258513618551 -0.00337144620562528
 0.9974946909552141 -0.025856960814675103 0.0021561345325828703 0.010622743592321628 -0.00033507445499581954 -0.003371445059439543 0.00038036716854442706 0.0053816302114678685
 0.00038378905536392064 0.005381271735986995 -0.00033507445499581954 -0.003371445059439543 0.0021556812637245053 0.01062360413908744 0.9974947067816697 -0.02585612491665733
 -0.0003351258513618551 -0.00337144620562528 0.00038036716854442706 0.0053816302114678685 0.9974947067816697 -0.02585612491665733 0.0021560923826278245 0.010623578996627341
0.06877865777407 0.002308637846419935 0.01175321101641391 0.9972938689016815 -0.028494932573796403 0.0004387693960032664 0.0059238354385755055 -0.0003817351308347162 -0.003714294845203469
 0.9972938689016815 -0.028494932573796403 0.0023092732706607943 0.011753169453646201 -0.0003816731680346942 -0.0037142940131543747 0.0004346255062968486 0.00592427047110824
 0.0004387693960032664 0.0059238354385755055 -0.0003816731680346942 -0.0037142940131543747 0.0023087246349175043 0.011754115951170895 0.9972938877781212 -0.02849401283939938
 -0.0003817351308347162 -0.003714294845203469 0.0004346255062968486 0.00592427047110824 0.9972938877781212 -0.02849401283939938 0.0023092218126969854 0.011754087674624223
0.07503126302626001 0.0024685350132442867 0.012895090871910295 0.9970838793432825 -0.031142926467640983 0.0004976007340316293 0.006467126109207019 -0.00043156349288713886 -0.00405800618774436
 0.9970838793432825 -0.031142926467640983 0.0024692911093499195 0.012895043825295478 -0.00043149001012727107 -0.004058005770961978 0.0004926648579171164 0.0064676473501592245
 0.0004976007340316293 0.006467126109207019 -0.00043149001012727107 -0.004058005770961978 0.0024686380023616395 0.012896076173916289 0.9970839015472621 -0.031141922784675067
 -0.00043156349288713886 -0.00405800618774436 0.0004926648579171164 0.0064676473501592245 0.9970839015472621 -0.031141922784675067 0.0024692293836690387 0.012896044679008633
0.08128386827845 0.0026354326784637796 0.014048306005851802 0.9968645947871512 -0.03380094002148708 0.0005603235493010742 0.0070111121940566856 -0.0004846522301078439 -0.004402542956306307
 0.9968645947871512 -0.03380094002148708 0.0026363199419442537 0.014048253153557247 -0.0004845662812265082 -0.0044025430616778626 0.0005545254633079492 0.007011729881008886
 0.0005603235493010742 0.0070111121940566856 -0.0004845662812265082 -0.0044025430616778626 0.002635553252059679 0.014049371229502191 0.996864620600095 -0.03379985226320392
 -0.0004846522301078439 -0.004402542956306307 0.0005545254633079492 0.007011729881008886 0.996864620600095 -0.03379985226320392 0.0026362469795998753 0.01404933644041195
0.08753647353064001 0.00280946273735748 0.015212749943177888 0.9966358872739207 -0.03646896060571922 0.0006269781067208473 0.007555760702686036 -0.0005410423542487953 -0.004747867649278025
 0.9966358872739207 -0.03646896060571922 0.002810491671225181 0.015212690955214294 -0.0005409430003610574 -0.004747868389427614 0.0006202473496871524 0.007556485666958187
 0.0006269781067208473 0.007555760702686036 -0.0005409430003610574 -0.004747868389427614 0.002809602277594399 0.015213894608701043 0.9966359169811384 -0.0364677886323538
 -0.0005410423542487953 -0.004747867649278025 0.0006202473496871524 0.007556485666958187 0.9966359169811384 -0.0364677886323538 0.002810406493362488 0.015213856458443514
0.09378907878283 0.00299075710818595 0.016388321403909837 0.9963976284387558 -0.039146967279385755 0.0006976044344382052 0.008101037333646503 -0.0006007745859365723 -0.005093942406657717
 0.9963976284387558 -0.039146967279385755 0.0029919382240924386 0.01638825594217039 -0.0006006608953525042 -0.005093943899921514 0.0006898703106797314 0.0081018810078066
 0.0006976044344382052 0.008101037333646503 -0.0006006608953525042 -0.005093943899921514 0.002990916995519699 0.016389544996670297 0.9963976623300868 -0.039145710938503255
 -0.0006007745859365723 -0.005093942406657717 0.0006898703106797314 0.0081018810078066 0.9963976623300868 -0.039145710938503255 0.00299183984198803 0.016389503427440492
0.100041684035 0.0031794477386130077 0.017574922929697926 0.9961496895638091 -0.04183493213209423 0.0007722423031435735 0.008646906567851503 -0.0006638893429385469 -0.005440728909073643
 0.9961496895638091 -0.04183493213209423 0.0031807915578827583 0.017574850648003654 -0.0006637603910513131 -0.005440731279487762 0.0007634338862141282 0.00864788099320698
 0.0007722423031435735 0.008646906567851503 -0.0006637603910513131 -0.005440731279487762 0.0031796293509996623 0.017576224904702297 0.9961497279335733 -0.04183359125390006
 -0.0006638893429385469 -0.005440728909073643 0.0007634338862141282 0.00864788099320698 0.9961497279335733 -0.04183359125390006 0.0031806789724323583 0.01757617986812616
0.1059090909091 0.00336335826145961 0.018698369962450355 0.9959081064081948 -0.044366328807078 0.000845965662565808 0.009159653264773335 -0.0007262279442067633 -0.00576676398203906
 0.9959081064081948 -0.044366328807078 0.0033648643393797586 0.018698290958929602 -0.0007260838365309069 -0.005766767293430555 0.0008360844268238434 0.00916076188652985
 0.000845965662565808 0.009159653264773335 -0.0007260838365309069 -0.005766767293430555 0.003363561511211688 0.01869974496402456 0.9959081492527185 -0.04436490843347052
 -0.0007262279442067633 -0.00576676398203906 0.0008360844268238434 0.00916076188652985 0.9959081492527185 -0.04436490843347052 0.003364737507570772 0.018699696638359548
0.1062942892872 0.0033756666044683125 0.018772459847859448 0.9958919416248446 -0.04453282128915998 0.0008509312061180502 0.009193331736383979 -0.000730426727185718 -0.005788188302943083
 0.9958919416248446 -0.04453282128915998 0.0033771836594237085 0.018772380391968938 -0.0007302815964015888 -0.005788191680219552 0.0008409773430783637 0.009194449570466664
 0.0008509312061180502 0.009193331736383979 -0.0007302815964015888 -0.005788191680219552 0.003375871317086466 0.01877383962456641 0.9958919847725348 -0.0445313956912822
 -0.000730426727185718 -0.005788188302943083 0.0008409773430783637 0.009194449570466664 0.9958919847725348 -0.0445313956912822 0.003377055861051724 0.01877379108197824
0.11254689453939999 0.0035795457037637772 0.01998083947857065 0.9956242553339897 -0.04724059567394313 0.0009337103399187409 0.009740275071765838 -0.0008004265107129165 -0.006136281142752809
 0.9956242553339897 -0.04724059567394313 0.003581246538907477 0.019980752486148067 -0.0008002642904215653 -0.006136285662256886 0.0009225396560490197 0.009741549595782691
 0.0009337103399187409 0.009740275071765838 -0.0008002642904215653 -0.006136285662256886 0.0035797748884249516 0.019982296440895123 0.9956243035643355 -0.04723908516126463
 -0.0008004265107129165 -0.006136281142752809 0.0009225396560490197 0.009741549595782691 0.9956243035643355 -0.04723908516126463 0.0035811025068816374 0.01998224436360545
0.11879949979160001 0.0037912170466581157 0.021199970515454407 0.9953465011783282 -0.04995821159740424 0.0010206185847216065 0.010287697749393934 -0.0008739281215427255 -0.006484967343767783
 0.9953465011783282 -0.04995821159740424 0.003793112219845257 0.021199875615984548 -0.0008737479080505533 -0.006484973146501932 0.0010081594885861574 0.010289142875640938
 0.0010206185847216065 0.010287697749393934 -0.0008737479080505533 -0.006484973146501932 0.0037914720716381678 0.021201504012470826 0.9953465548019051 -0.049956615961052234
 -0.0008739281215427255 -0.006484967343767783 0.0010081594885861574 0.010289142875640938 0.9953465548019051 -0.049956615961052234 0.0037929509223547284 0.021201448381960895
0.1250521050438 0.004010812642663376 0.02242976252998341 0.9950585494580582 -0.05268562122447099 0.001111694485619006 0.01083555991680577 -0.0009509706280832595 -0.00683420614754732
 0.9950585494580582 -0.05268562122447099 0.00401291272616227 0.02242965934477602 -0.0009507715245577947 -0.006834213380128037 0.0010978751745457005 0.010837190196070256
 0.001111694485619006 0.01083555991680577 -0.0009507715245577947 -0.006834213380128037 0.004011094871808589 0.022431371877413807 0.9950586087911458 -0.052683940240165254
 -0.0009509706280832595 -0.00683420614754732 0.0010978751745457005 0.010837190196070256 0.9950586087911458 -0.052683940240165254 0.004012733119665764 0.02243131268550924
0.131304710296 0.004238464484181114 0.02367012558032718 0.994760270320476 -0.05542277293661307 0.0012069762334042254 0.011383820718944771 -0.0010315927236068836 -0.00718395609209121
 0.994760270320476 -0.05542277293661307 0.0042407800659676085 0.023670013722337124 -0.001031373840046188 -0.007183964906725449 0.0011917246993060687 0.011385651347836704
 0.0012069762334042254 0.011383820718944771 -0.001031373840046188 -0.007183964906725449 0.004238775276825517 0.02367181005953416 0.9947603356861131 -0.05542100636532514
 -0.0010315927236068836 -0.00718395609209121 0.0011917246993060687 0.011385651347836704 0.9947603356861131 -0.05542100636532514 0.004240581095237574 0.02367174730859777
0.1375573155481 0.004411997333061792 0.024757274129528578 0.9945138514688717 -0.058005886728980445 0.0012916334900063343 0.011914808576921296 -0.001100985245760807 -0.007516537939125663
 0.9945138514688717 -0.058005886728980445 0.004414538892821474 0.02475715480252343 -0.0011007451748758176 -0.0075165482745386675 0.0012749169930008357 0.011916832157129017
 0.0012916334900063343 0.011914808576921296 -0.0011007451748758176 -0.0075165482745386675 0.004412337540903567 0.024759033260554623 0.994513923133621 -0.05800403442430461
 -0.001100985245760807 -0.007516537939125663 0.0012749169930008357 0.011916832157129017 0.994513923133621 -0.05800403442430461 0.004414320107779341 0.024758968189783983
0.1438099208003 0.004591218765295002 0.0258401729734409 0.9942594789413218 -0.060583979620310285 0.0013796894076596523 0.012444621065292719 -0.0011731549769087501 -0.00784805607720366
 0.9942594789413218 -0.060583979620310285 0.004593996879557003 0.025840045874882926 -0.001172892745196621 -0.007848068077316651 0.001361442773648641 0.012446850980576053
 0.0013796894076596523 0.012444621065292719 -0.001172892745196621 -0.007848068077316651 0.0045915896483516554 0.025842006024541016 0.9942595572261634 -0.06058204134454948
 -0.0011731549769087501 -0.00784805607720366 0.001361442773648641 0.012446850980576053 0.9942595572261634 -0.06058204134454948 0.004593757317421221 0.02584193869422634
0.1500625260525 0.0047760817558753586 0.026918776263142177 0.9939972017097879 -0.06315703341275858 0.0014711231546342357 0.012973236156198683 -0.0012480817982320992 -0.008178488597017596
 0.9939972017097879 -0.06315703341275858 0.004779107012285914 0.02691864107412015 -0.0012477964325002485 -0.008178502411383409 0.0014512814754804003 0.01297568625734052
 0.0014711231546342357 0.012973236156198683 -0.0012477964325002485 -0.008178502411383409 0.004776484563577012 0.026920682472401054 0.9939972869411619 -0.0631550089189944
 -0.0012480817982320992 -0.008178488597017596 0.0014512814754804003 0.01297568625734052 0.9939972869411619 -0.0631550089189944 0.004778845705838196 0.026920612939868246
0.15631513130469998 0.004966539116756929 0.02799303987287828 0.9937270688048419 -0.06572502918751588 0.0015659137629237675 0.013500632049946894 -0.0013257454429700783 -0.008507813987287591
