! Created with skrf 1.8.0 (http://scikit-rf.org).
# GHz S RI R 50.0 
!freq ReS11 ImS11 ReS12 ImS12 ReS13 ImS13
! ReS14 ImS14
! ReS21 ImS21 ReS22 ImS22 ReS23 ImS23
! ReS24 ImS24
! ReS31 ImS31 ReS32 ImS32 ReS33 ImS33
! ReS34 ImS34
! ReS41 ImS41 ReS42 ImS42 ReS43 ImS43
! ReS44 ImS44
!
0.0 0.00172302991698 0.0 0.9982769700688 0.0 6.676302055834e-05 0.0 -6.676302082461e-05 8.176111975426673e-21
 0.9982769700688 0.0 0.001723029917033 0.0 -6.676302082547e-05 8.176111975531991e-21 6.676302055877e-05 0.0
 6.676302055834e-05 0.0 -6.676302082547e-05 8.176111975531991e-21 0.001723029917008 0.0 0.9982769700688 0.0
 -6.676302082461e-05 8.176111975426673e-21 6.676302055877e-05 0.0 0.9982769700688 0.0 0.00172302991702 0.0
0.005 0.0018544323586284707 0.0014090426246843783 0.9981106567084068 -0.003608631264913524 9.376877299702629e-05 0.0007359185073498077 -9.112508367415244e-05 -0.0004617430116709416
 0.9981106567084068 -0.003608631264913524 0.0018544056998077607 0.0014090581432876011 -9.112519669111441e-05 -0.00046174302350335456 9.393855610962748e-05 0.0007358538536623238
 9.376877299702629e-05 0.0007359185073498077 -9.112519669111441e-05 -0.00046174302350335456 0.001854432317602089 0.001408975320293366 0.9981106563404303 -0.003608698330622135
 -9.112508367415244e-05 -0.0004617430116709416 9.393855610962748e-05 0.0007358538536623238 0.9981106563404303 -0.003608698330622135 0.0018544050163554254 0.0014089913278083435
0.006252605252188 0.0018890722039994771 0.0017668218526538243 0.9980665175437134 -0.004511643936838795 0.00010154604145206556 0.0009202454932568374 -9.808105424172506e-05 -0.0005777653196233771
 0.9980665175437134 -0.004511643936838795 0.0018890305316922548 0.0017668415480865645 -9.808123070059423e-05 -0.0005777653325646712 0.00010181131007634617 0.0009201614906706783
 0.00010154604145206556 0.0009202454932568374 -9.808123070059423e-05 -0.0005777653325646712 0.0018890722017944487 0.001766737739208093 0.9980665170297398 -0.004511727750217648
 -9.808105424172506e-05 -0.0005777653196233771 0.00010181131007634617 0.0009201614906706783 0.9980665170297398 -0.004511727750217648 0.001889029524254158 0.001766758060215243
0.01250521050438 0.0020724530790481484 0.003570393935484063 0.9978312220971827 -0.009023890391870886 0.00014647550046976892 0.001840792056616357 -0.0001379647510729341 -0.0011582169378974844
 0.9978312220971827 -0.009023890391870886 0.0020722866863682617 0.0035704363242677942 -0.000137965453669269 -0.0011582169423902985 0.00014753330464578753 0.0018405894362805795
 0.00014647550046976892 0.001840792056616357 -0.000137965453669269 -0.0011582169423902985 0.0020724536522415187 0.0035702259253255807 0.9978312206133655 -0.009024057816400456
 -0.0001379647510729341 -0.0011582169378974844 0.00014753330464578753 0.0018405894362805795 0.9978312206133655 -0.009024057816400456 0.002072283228768272 0.003570269719391418
0.01875781575657 0.0022736086033194676 0.005399332775252542 0.9975707657467318 -0.013547678963255184 0.0002016630391191151 0.002762232180935362 -0.00018654418188602794 -0.0017404922577221812
 0.9975707657467318 -0.013547678963255184 0.0022732347203766805 0.005399401084163795 -0.0001865457586496601 -0.0017404922250247332 0.000204039211115903 0.0027618689776099966
 0.0002016630391191151 0.002762232180935362 -0.0001865457586496601 -0.0017404922250247332 0.002273610338520818 0.00539908101590011 0.9975707628297812 -0.013547929942374104
 -0.00018654418188602794 -0.0017404922577221812 0.000204039211115903 0.0027618689776099966 0.9975707628297812 -0.013547929942374104 0.0022732273648289002 0.005399151694332358
0.02501042100875 0.0024929598154011705 0.007251033281245081 0.9972848170163503 -0.01808515618806952 0.0002672206302166519 0.0036845789051338255 -0.00024394442533483051 -0.0023243000258775888
 0.9972848170163503 -0.01808515618806952 0.002492295838464367 0.007251130936071722 -0.00024394722321066658 -0.002324299919744164 0.00027144112325997377 0.0036840060248062518
 0.0002672206302166519 0.0036845789051338255 -0.00024394722321066658 -0.002324299919744164 0.0024929633173836705 0.007250697924180365 0.997284812202238 -0.018085490738097235
 -0.00024394442533483051 -0.0023243000258775888 0.00027144112325997377 0.0036840060248062518 0.997284812202238 -0.018085490738097235 0.0024922831409718792 0.0072507991273316474
0.03126302626094 0.0027309103091001426 0.00912413154435445 0.9969730289154751 -0.022637212713224147 0.00034325995104892565 0.004607759710992514 -0.0003102864961445221 -0.002909426617102207
 0.9969730289154751 -0.022637212713224147 0.0027298737510848613 0.00912426216373523 -0.00031029086115206915 -0.0029094263936879036 0.0003498513051097809 0.004606920887616223
 0.00034325995104892565 0.004607759710992514 -0.00031029086115206915 -0.0029094263936879036 0.0027309161967766266 0.00912371276923947 0.9969730217330794 -0.022637630899075476
 -0.0003102864961445221 -0.002909426617102207 0.0003498513051097809 0.004606920887616223 0.9969730217330794 -0.022637630899075476 0.002729854267192704 0.009123848360998835
0.037515631513130004 0.002987854502576529 0.011017720614666745 0.9966350475631189 -0.0272042674569054 0.00042989142736494243 0.005531667837531406 -0.00038568819523847754 -0.0034956847624296778
 0.9966350475631189 -0.0272042674569054 0.0029863629580037946 0.011017888007269957 -0.0003856944723713321 -0.003495684370231054 0.0004393809654201346 0.005530499562319465
 0.00042989142736494243 0.005531667837531406 -0.0003856944723713321 -0.003495684370231054 0.0029878634147184556 0.011017218641085444 0.9966350375376936 -0.02720476938056925
 -0.00038568819523847754 -0.0034956847624296778 0.0004393809654201346 0.005530499562319465 0.9966350375376936 -0.02720476938056925 0.0029863352496369453 0.011017392706314116
0.043768236765320004 0.0032641808192220164 0.012931111871436918 0.9962705157203261 -0.031786506168041115 0.0005272237603473629 0.006456177898710519 -0.0004702643980504808 -0.004082897963894741
 0.9962705157203261 -0.031786506168041115 0.003262151935544138 0.012931320034514195 -0.0004702729312375627 -0.00408289734367293 0.0005401396690371003 0.006454609341040541
 0.0005272237603473629 0.006456177898710519 -0.0004702729312375627 -0.00408289734367293 0.0032641934114163583 0.01293052696347406 0.9962705023681618 -0.03178709196386154
 -0.0004702643980504808 -0.004082897963894741 0.0005401396690371003 0.006454609341040541 0.9962705023681618 -0.03178709196386154 0.0032621145682227896 0.012930743807156479
0.050020842017509996 0.0035602731481030408 0.014863736396872673 0.9958790746045625 -0.03638397998108658 0.0006353636262536518 0.00738115234226267 -0.0005641271409073321 -0.004670894069159079
 0.9958790746045625 -0.03638397998108658 0.003557624600489893 0.014863989515883337 -0.0005641382728438723 -0.0046708931538897965 0.0006522349751591652 0.007379105267398938
 0.0006353636262536518 0.00738115234226267 -0.0005641382728438723 -0.0046708931538897965 0.003560290095283276 0.014863068860101192 0.9958790574334915 -0.03638464981889563
 -0.0005641271409073321 -0.004670894069159079 0.0006522349751591652 0.007379105267398938 0.9958790574334915 -0.03638464981889563 0.0035575761469699117 0.014863333007277697
0.055454545454549996 0.003833934058149428 0.01655847771340149 0.9955167677914287 -0.040391671127061976 0.0007381986465097762 0.008185246675574515 -0.000653323393441803 -0.005182383553973701
 0.9955167677914287 -0.040391671127061976 0.0038306801493698593 0.016558773445979558 -0.0006533370610337301 -0.005182382321765631 0.0007589377344483027 0.008182714405371565
 0.0007381986465097762 0.008185246675574515 -0.0006533370610337301 -0.005182382321765631 0.003833955353278575 0.016557738649588247 0.9955167468940218 -0.040392414165767034
 -0.000653323393441803 -0.005182383553973701 0.0007589377344483027 0.008182714405371565 0.9955167468940218 -0.040392414165767034 0.0038306209087467565 0.016558047751442498
0.056273447269699996 0.0038765115774423444 0.016815096580842365 0.9954603649814247 -0.040996653743965494 0.0007544154504029409 0.008306444627244048 -0.0006673856187756113 -0.005259502131991283
 0.9954603649814247 -0.040996653743965494 0.0038731610446904913 0.016815399029767697 -0.0006673996908113559 -0.0052595008467928245 0.0007757721737692806 0.008303833312848435
 0.0007544154504029409 0.008306444627244048 -0.0006673996908113559 -0.0052595008467928245 0.0038765335740073856 0.016814346761783366 0.9954603434888734 -0.04099740782948516
 -0.0006673856187756113 -0.005259502131991283 0.0007757721737692806 0.008303833312848435 0.9954603434888734 -0.04099740782948516 0.003873100085611901 0.01681466295851029
0.06252605252188 0.004213272766813551 0.018784739500640423 0.9950140279005255 -0.04562443257628085 0.0008844812197160657 0.00923190097907628 -0.0007801461360117728 -0.005848550701243397
 0.9950140279005255 -0.04562443257628085 0.004209137908571872 0.018785095843363783 -0.0007801634879875738 -0.005848548963334158 0.0009108540733465541 0.009228632131584855
 0.0008844812197160657 0.00923190097907628 -0.0007801634879875738 -0.005848548963334158 0.004213300529412426 0.01878390779429352 0.995014001573429 -0.04562527114349493
 -0.0007801461360117728 -0.005848550701243397 0.0009108540733465541 0.009228632131584855 0.995014001573429 -0.04562527114349493 0.0042090630361595075 0.018784281009319507
0.06877865777407 0.004570930126552521 0.02077224108122086 0.9945397052419447 -0.050267177654522585 0.0010256603147555958 0.010157361449794507 -0.0009025120321400607 -0.006437866811516895
 0.9945397052419447 -0.050267177654522585 0.004565928560614515 0.020772656073545743 -0.000902533002183537 -0.006437864530164896 0.0010575808150339718 0.010153334121188077
 0.0010256603147555958 0.010157361449794507 -0.000902533002183537 -0.006437864530164896 0.004570964393324158 0.02077132792428537 0.9945396735544173 -0.05026810097229611
 -0.0009025120321400607 -0.006437866811516895 0.0010575808150339718 0.010153334121188077 0.9945396735544173 -0.05026810097229611 0.0045658383790144474 0.020771763351497812
0.07503126302626001 0.004949853877108163 0.022777196034047306 0.9940370401490644 -0.05492471622633117 0.0011780493550371896 0.011082660598302162 -0.0010345835902690658 -0.007027275361172483
 0.9940370401490644 -0.05492471622633117 0.004943903157745409 0.022777674626512857 -0.001034608514679624 -0.007027272437646824 0.0012160497046506669 0.011077766103705262
 0.0011780493550371896 0.011082660598302162 -0.001034608514679624 -0.007027272437646824 0.004949895409573935 0.022776201909628674 0.9940370025615498 -0.05492572459347009
 -0.0010345835902690658 -0.007027275361172483 0.0012160497046506669 0.011077766103705262 0.9940370025615498 -0.05492572459347009 0.004943796285350616 0.022776704971349877
0.08128386827845 0.005350411037864516 0.024799211184238376 0.9935056773946548 -0.05959684824518415 0.001341742051092303 0.012007627958498523 -0.0011764579359923504 -0.007616598710326058
 0.9935056773946548 -0.05959684824518415 0.005343428633508772 0.024799758525850993 -0.0011764871489976549 -0.007616595037867189 0.0013863550541671455 0.01200174979488236
 0.001341742051092303 0.012007627958498523 -0.0011764871489976549 -0.007616595037867189 0.0053504606214449055 0.024798136618883127 0.9935056333521347 -0.059597941993044856
 -0.0011764579359923504 -0.007616598710326058 0.0013863550541671455 0.01200174979488236 0.9935056333521347 -0.059597941993044856 0.005343303704862889 0.02479871296994681
0.08753647353064001 0.005772965363632134 0.026837900852874234 0.9929452636992155 -0.06428335095896784 0.001516829061931562 0.012932088373686024 -0.0013282289286007947 -0.008205656420543949
 0.9929452636992155 -0.06428335095896784 0.005764868635032368 0.026838522295634604 -0.0013282627622090632 -0.008205651884324055 0.0015685880303687584 0.012925102139844947
 0.001516829061931562 0.012932088373686024 -0.0013282627622090632 -0.008205651884324055 0.005773023809366202 0.026836746417793336 0.9929452126305175 -0.06428453044993984
 -0.0013282289286007947 -0.008205656420543949 0.0015685880303687584 0.012925102139844947 0.9929452126305175 -0.06428453044993984 0.005764724303104687 0.02683740195046301
0.09378907878283 0.006217877250493412 0.0288928835739295 0.992355448022918 -0.06898398217348939 0.0017033978557145625 0.013855862252373346 -0.001489987047395041 -0.008794265081586138
 0.992355448022918 -0.06898398217348939 0.006208583428614404 0.02889358467819373 -0.0014900258311546653 -0.008794259558686419 0.001762836508327822 0.01384763557043217
 0.0017033978557145625 0.013855862252373346 -0.0014900258311546653 -0.008794259558686419 0.0062179453960161555 0.028891649883880408 0.9923553893395027 -0.06898524780162152
 -0.001489987047395041 -0.008794265081586138 0.001762836508327822 0.01384763557043217 0.9923553893395027 -0.06898524780162152 0.006208418367124511 0.028892390733564994
0.100041684035 0.006685503615131722 0.03096377968624058 0.9917358818356798 -0.07369848265078549 0.0019015325727438316 0.014778765767418933 -0.0016618192743639423 -0.00938223820325617
 0.9917358818356798 -0.07369848265078549 0.006674929779412809 0.030964566227058402 -0.0016618633352240906 -0.009382231562644143 0.0019691849281508445 0.014769158206002227
 0.0019015325727438316 0.014778765767418933 -0.0016618633352240906 -0.009382231562644143 0.006685582325323263 0.03096246740228443 0.9917358149296898 -0.07369983483855475
 -0.0016618192743639423 -0.00938223820325617 0.0019691849281508445 0.014769158206002227 0.9917358149296898 -0.07369983483855475 0.006674742683914416 0.030963299954180443
0.1059090909091 0.0071452946943533985 0.03292123091012936 0.9911271188797046 -0.07813491094173133 0.0020980519826317764 0.01564385392270643 -0.0018323021942948583 -0.009933241712354855
 0.9911271188797046 -0.07813491094173133 0.007133444131411889 0.03292210307394774 -0.0018323515019440903 -0.009933233896468757 0.0021738978788563503 0.01563281559160236
 0.0020980519826317764 0.01564385392270643 -0.0018323515019440903 -0.009933233896468757 0.007145384130209356 0.032919845511717415 0.9911270436863883 -0.07813634477044895
 -0.0018323021942948583 -0.009933241712354855 0.0021738978788563503 0.01563281559160236 0.9911270436863883 -0.07813634477044895 0.007133235194972126 0.032920770152741384
0.1062942892872 0.007176197757412869 0.03305020953665506 0.9910862193734169 -0.07842657790657583 0.0021113138903971385 0.015700611024660506 -0.0018438089744170047 -0.009969386146638918
 0.9910862193734169 -0.07842657790657583 0.007164260813338139 0.03305108751092868 -0.0018438586364652413 -0.009969378249151105 0.0021877141541037488 0.01568947402380491
 0.0021113138903971385 0.015700611024660506 -0.0018438586364652413 -0.009969378249151105 0.007176287925657327 0.0330488193603891 0.9910861436163307 -0.07842801711004918
 -0.0018438089744170047 -0.009969386146638918 0.0021877141541037488 0.01568947402380491 0.9910861436163307 -0.07842801711004918 0.007164050404163763 0.033049750256968394
0.11254689453939999 0.007690309207577444 0.03515179211004752 0.990406117882876 -0.08316797959129285 0.002332818889376688 0.01662120620282383 -0.0020360357735822866 -0.010555516092786307
 0.990406117882876 -0.08316797959129285 0.007676925864685666 0.03515276774464035 -0.0020360913578396883 -0.010555506791134024 0.0024185013359025254 0.01660838300090476
 0.002332818889376688 0.01662120620282383 -0.0020360913578396883 -0.010555506791134024 0.007690411757072371 0.035150324789696125 0.9904060326246326 -0.0831695062933244
 -0.0020360357735822866 -0.010555516092786307 0.0024185013359025254 0.01660838300090476 0.9904060326246326 -0.0831695062933244 0.007676690888787635 0.03515136093917083
0.11879949979160001 0.008228183564669662 0.037268143979588504 0.9896952378609215 -0.08792238656171295 0.0025661209212429503 0.017540355683175874 -0.0022385754360442077 -0.011140432030955121
 0.9896952378609215 -0.08792238656171295 0.008213270314241718 0.037269223740476184 -0.002238637260282287 -0.011140421169691817 0.002661619771646624 0.0175256812457713
 0.0025661209212429503 0.017540355683175874 -0.002238637260282287 -0.011140421169691817 0.008228299449726265 0.037266600302537284 0.9896951424283907 -0.08792400127876257
 -0.0022385754360442077 -0.011140432030955121 0.002661619771646624 0.0175256812457713 0.9896951424283907 -0.08792400127876257 0.008213009547565766 0.03726774888819448
0.1250521050438 0.008790162325657016 0.03939887847284654 0.9889532432869229 -0.09268948574782851 0.0028112894769874225 0.01845786016637522 -0.0024514997403344506 -0.011723934768591104
 0.9889532432869229 -0.09268948574782851 0.00877363541864264 0.03940006907512755 -0.0024515681188815325 -0.01172392218414782 0.0029171387722919688 0.018441161117352906
 0.0028112894769874225 0.01845786016637522 -0.0024515681188815325 -0.01172392218414782 0.008790292532370736 0.039397259270462115 0.9889531369822734 -0.09269118902420366
 -0.0024514997403344506 -0.011723934768591104 0.0029171387722919688 0.018441161117352906 0.9889531369822734 -0.09269118902420366 0.008773347667856497 0.039398527761016454
0.131304710296 0.009376582707578417 0.04154360502644316 0.9881798018513747 -0.09746895284245062 0.0030683900568913565 0.019373516782471064 -0.0026748763551179377 -0.012305821957639396
 0.9881798018513747 -0.09746895284245062 0.009358358132037493 0.04154491344546579 -0.002674951598566024 -0.01230580747832393 0.0031851235273420695 0.019354611337396476
 0.0030683900568913565 0.019373516782471064 -0.002674951598566024 -0.01230580747832393 0.00937672825545824 0.04154191117318788 0.988179683951204 -0.09747074525032885
 -0.0026748763551179377 -0.012305821957639396 0.0031851235273420695 0.019354611337396476 0.988179683951204 -0.09747074525032885 0.009358042237300879 0.04154330733409142
0.1375573155481 0.009859578516534497 0.043422975530560536 0.9875028501172216 -0.10198132230730023 0.0033061733811754522 0.020259913384785975 -0.0028773296603737454 -0.012858807307243038
 0.9875028501172216 -0.10198132230730023 0.00983956490429709 0.04342438150674781 -0.002877412022148947 -0.01285879089811746 0.003434056672029023 0.020238816534760604
 0.0033061733811754522 0.020259913384785975 -0.002877412022148947 -0.01285879089811746 0.009859739272654034 0.04342120822765678 0.9875027200675494 -0.1019832042072514
 -0.0028773296603737454 -0.012858807307243038 0.003434056672029023 0.020238816534760604 0.9875027200675494 -0.1019832042072514 0.009839220562333051 0.04342271161925689
0.1438099208003 0.01035976205598627 0.04529132044764498 0.9868017281524523 -0.1064811092506188 0.0035535053172346715 0.021142112987439544 -0.003087833542052564 -0.013407851991456507
 0.9868017281524523 -0.1064811092506188 0.010337873919817796 0.04529282953689489 -0.0030879233175250967 -0.013407833488889484 0.0036930233768445258 0.021118657288059
 0.0035535053172346715 0.021142112987439544 -0.0030879233175250967 -0.013407833488889484 0.01035993887921523 0.04528948067352786 0.9868015852271691 -0.10648308120618877
 -0.003087833542052564 -0.013407851991456507 0.0036930233768445258 0.021118657288059 0.9868015852271691 -0.10648308120618877 0.010337500173786497 0.04529109755408517
0.1500625260525 0.010876940464122192 0.04714844986095365 0.9860766337946048 -0.11096816754196773 0.003810288925437647 0.02202000639192157 -0.003306291819222328 -0.013952850293763766
 0.9860766337946048 -0.11096816754196773 0.010853092027799036 0.04715006799432945 -0.003306389299648757 -0.01395282952815385 0.003961923324688603 0.02199401828714548
 0.003810288925437647 0.02202000639192157 -0.003306389299648757 -0.01395282952815385 0.010877134231711154 0.047146538632626724 0.9860764772453221 -0.11097023013800263
 -0.003306291819222328 -0.013952850293763766 0.003961923324688603 0.02199401828714548 0.9860764772453221 -0.11097023013800263 0.010852687963368393 0.047148275659028065
0.15631513130469998 0.01141091930407833 0.048994179499357624 0.9853277661177067 -0.11544235233440371 0.004076426007307088 0.022893486529100532 -0.003532607014654996 -0.014493698941676665
 0.9853277661177067 -0.11544235233440371 0.01138502449516868 0.04899591299613361 -0.0035327124870325704 -0.014493675737596788 0.004240654881565159 0.022864786422808772
