! Created with skrf 1.8.0 (http://scikit-rf.org).
# GHz S RI R 50.0 
!freq ReS11 ImS11 ReS12 ImS12 ReS13 ImS13
! ReS14 ImS14
! ReS21 ImS21 ReS22 ImS22 ReS23 ImS23
! ReS24 ImS24
! ReS31 ImS31 ReS32 ImS32 ReS33 ImS33
! ReS34 ImS34
! ReS41 ImS41 ReS42 ImS42 ReS43 ImS43
! ReS44 ImS44
!
0.0 0.001796625133325 0.0 0.9982033748389 0.0 6.976563258493e-05 0.0 -6.976563240169e-05 8.543825841122052e-21
 0.9982033748389 0.0 0.001796625133363 0.0 -6.976563240233e-05 8.543825841200431e-21 6.976563258554e-05 0.0
 6.976563258493e-05 0.0 -6.976563240233e-05 8.543825841200431e-21 0.001796625141698 0.0 0.9982033748473 0.0
 -6.976563240169e-05 8.543825841122052e-21 6.976563258554e-05 0.0 0.9982033748473 0.0 0.001796625141698 0.0
0.005 0.001933867420785622 0.0014681595775091602 0.9980295891959919 -0.0037626257514862854 9.842053657594558e-05 0.0007736451233437715 -9.543366394227398e-05 -0.00048458898874550885
 0.9980295891959919 -0.0037626257514862854 0.0019338918003297774 0.001468145270154486 -9.543171908669182e-05 -0.0004845874513484394 9.827138140415025e-05 0.0007737018921975469
 9.842053657594558e-05 0.0007736451233437715 -9.543171908669182e-05 -0.0004845874513484394 0.0019338690212015181 0.0014682258725331728 0.9980295895736205 -0.003762558688799452
 -9.543366394227398e-05 -0.00048458898874550885 9.827138140415025e-05 0.0007737018921975469 0.9980295895736205 -0.003762558688799452 0.0019338909489863677 0.0014682130958430053
0.006252605252188 0.0019701127059449436 0.001840943334855093 0.9979833607434976 -0.004704161785672576 0.00010676005681114823 0.0009674113148166778 -0.00010279793621046036 -0.0006063483000059872
 0.9979833607434976 -0.004704161785672576 0.0019701508166930547 0.0018409251993363519 -0.0001027949102320813 -0.0006063464041194831 0.00010652701740476351 0.0009674850973584064
 0.00010676005681114823 0.0009674113148166778 -0.0001027949102320813 -0.0006063464041194831 0.0019701151348674437 0.0018410261912870098 0.9979833612604171 -0.004704077960998321
 -0.00010279793621046036 -0.0006063483000059872 0.00010652701740476351 0.0009674850973584064 0.9979833612604171 -0.004704077960998321 0.001970149412038073 0.0018410099816410469
0.01250521050438 0.002162375468762807 0.003720099794479308 0.997736323519127 -0.00940882805958263 0.00015539176820665815 0.00193503339089827 -0.00014521045277620723 -0.0012154693876521943
 0.997736323519127 -0.00940882805958263 0.0021625276600382784 0.003720060975100837 -0.00014519853240317718 -0.0012154658822910447 0.00015446248064071217 0.0019352116986944144
 0.00015539176820665815 0.00193503339089827 -0.00014519853240317718 -0.0012154658822910447 0.002162384620899069 0.003720265145340873 0.997736325032058 -0.009408660655685363
 -0.00014521045277620723 -0.0012154693876521943 0.00015446248064071217 0.0019352116986944144 0.997736325032058 -0.009408660655685363 0.0021625214902074703 0.0037202303309368276
0.01875781575657 0.002373885870421983 0.0056255799611235405 0.9974619190941502 -0.014125386468093177 0.00021578000084973394 0.002903473330820288 -0.00019714429686910624 -0.0018264389731607507
 0.9974619190941502 -0.014125386468093177 0.0023742278807754686 0.00562551767488653 -0.0001971177211903498 -0.0018264342066549658 0.00021369251194272294 0.0029037936276219713
 0.00021578000084973394 0.002903473330820288 -0.0001971177211903498 -0.0018264342066549658 0.0023739060264958874 0.005625827530533099 0.9974619220771994 -0.014125135563824383
 -0.00019714429686910624 -0.0018264389731607507 0.00021369251194272294 0.0029037936276219713 0.9974619220771994 -0.014125135563824383 0.0023742135799555866 0.005625771562059843
0.02501042100875 0.002605099046440864 0.00755464777890287 0.9971597884794623 -0.018856054679976517 0.00028804573716883976 0.0038727247639933396 -0.00025873477406603235 -0.002438937241198604
 0.9971597884794623 -0.018856054679976517 0.002605706486469315 0.007554559036331033 -0.0002586878538888692 -0.002438931629581158 0.00028433799003918975 0.003873231045661534
 0.00028804573716883976 0.0038727247639933396 -0.0002586878538888692 -0.002438931629581158 0.0026051344806554966 0.007554977258253237 0.9971597934059564 -0.018855720307728786
 -0.00025873477406603235 -0.002438937241198604 0.00028433799003918975 0.003873231045661534 0.9971597934059564 -0.018855720307728786 0.0026056806824923057 0.007554897457380995
0.03126302626094 0.0028564511209243078 0.009505860813207588 0.9968295564761515 -0.023601740130796574 0.0003723098223435639 0.004842690403842298 -0.0003301124880338555 -0.0030527262430958295
 0.9968295564761515 -0.023601740130796574 0.002857399519346674 0.009505742423566731 -0.0003300395939864758 -0.0030527202707480586 0.0003665192514356179 0.004843433240223164
 0.0003723098223435639 0.004842690403842298 -0.0003300395939864758 -0.0030527202707480586 0.0028565061039765517 0.009506271843025096 0.9968295638214858 -0.02360132229421825
 -0.0003301124880338555 -0.0030527262430958295 0.0003665192514356179 0.004843433240223164 0.9968295638214858 -0.02360132229421825 0.0028573588341941243 0.009506165408004495
0.037515631513130004 0.0031283680009977478 0.01147825250985241 0.9964708408722636 -0.02836285771241569 0.00046869164263652394 0.005813236352480833 -0.00041140425518070174 -0.0036675956249398014
 0.9964708408722636 -0.02836285771241569 0.0031297328371080995 0.011478101083004554 -0.0004112998116911029 -0.0036675898447246706 0.0004603550049596598 0.005814272953255886
 0.00046869164263652394 0.005813236352480833 -0.0004112998116911029 -0.0036675898447246706 0.0031284468007714123 0.011478744671635762 0.9964708511153924 -0.028362356393867375
 -0.00041140425518070174 -0.0036675956249398014 0.0004603550049596598 0.005814272953255886 0.9964708511153924 -0.028362356393867375 0.0031296738867378437 0.011478608680074434
0.043768236765320004 0.0034212687643823867 0.013471083337341969 0.9960832562373441 -0.033139578567187744 0.0005773084816213716 0.006784208632589176 -0.0005027334087978828 -0.004283346136988652
 0.9960832562373441 -0.033139578567187744 0.0034231254943809628 0.01347089528424908 -0.0005025918904833122 -0.0042833411702478535 0.0005659617892421343 0.006785602920504689
 0.0005773084816213716 0.006784208632589176 -0.0005025918904833122 -0.0042833411702478535 0.0034213756433080374 0.013471656151728666 0.9960832698593494 -0.033138993728916426
 -0.0005027334087978828 -0.004283346136988652 0.0005659617892421343 0.006785602920504689 0.9960832698593494 -0.033138993728916426 0.00342304488674957 0.01347148756198015
0.050020842017509996 0.00373556719974768 0.015483737954691174 0.9956664158753841 -0.03793193285654285 0.0006982751190451637 0.007755440023055626 -0.0006042198823294466 -0.004899782846777963
 0.9956664158753841 -0.03793193285654285 0.0037379912803658676 0.015483509486874322 -0.0006040358117570422 -0.004899779383284655 0.000683453625658668 0.0077572627099824504
 0.0006982751190451637 0.007755440023055626 -0.0006040358117570422 -0.004899779383284655 0.0037357064152205026 0.015484390870543558 0.9956664333618475 -0.03793126445086687
 -0.0006042198823294466 -0.004899782846777963 0.000683453625658668 0.0077572627099824504 0.9956664333618475 -0.03793126445086687 0.003737885616251217 0.015484186522322679
0.055454545454549996 0.004026397554429314 0.01724847320731795 0.9952801093397022 -0.04210928500129556 0.0008135153838688175 0.008599542632026997 -0.0007007542703090191 -0.005435891696201149
 0.9952801093397022 -0.04210928500129556 0.004029375977419451 0.017248206385201182 -0.0007005288083004631 -0.0054358901523633915 0.0007952961775474908 0.008601800368138299
 0.0008135153838688175 0.008599542632026997 -0.0007005288083004631 -0.0054358901523633915 0.004026568323953372 0.01724919524097956 0.9952801305821721 -0.04210854391547567
 -0.0007007542703090191 -0.005435891696201149 0.0007952961775474908 0.008601800368138299 0.9952801305821721 -0.04210854391547567 0.00402924577188708 0.01724895715855607
0.056273447269699996 0.00407167257311987 0.017515674748199303 0.9952199330110165 -0.04273986016570875 0.0008317035364214924 0.008726753432467236 -0.0007159801945012213 -0.005516711822526476
 0.9952199330110165 -0.04273986016570875 0.0040747394842153865 0.01751540187629751 -0.0007157481407075771 -0.00551671062043009 0.000812941756771107 0.008729082096483485
 0.0008317035364214924 0.008726753432467236 -0.0007157481407075771 -0.00551671062043009 0.004071848376554026 0.017516407154108952 0.9952199548521939 -0.04273910812278012
 -0.0007159801945012213 -0.005516711822526476 0.000812941756771107 0.008729082096483485 0.9952199548521939 -0.04273910812278012 0.004074605356980561 0.017516163768052512
0.06252605252188 0.004429990012371941 0.019566398089761242 0.9947434215986902 -0.04756323719411398 0.000977702675246098 0.009697963767898925 -0.0008381273853399099 -0.006133938330037108
 0.9947434215986902 -0.04756323719411398 0.0044337752779523825 0.01956607662141233 -0.000837841962823673 -0.0061339402157877965 0.0009545344264174216 0.009700882930495354
 0.000977702675246098 0.009697963767898925 -0.000837841962823673 -0.0061339402157877965 0.004430206646889263 0.01956720930714327 0.9947434482891871 -0.047562401428246116
 -0.0008381273853399099 -0.006133938330037108 0.0009545344264174216 0.009700882930495354 0.9947434482891871 -0.047562401428246116 0.004433609272468583 0.019566923483677084
0.06877865777407 0.004810920678578951 0.02163544181521617 0.9942364969245493 -0.052401894234989484 0.0011363782253246695 0.010668879066911652 -0.0009707709232836416 -0.00675126577568214
 0.9942364969245493 -0.052401894234989484 0.004815499887739358 0.02163506735197198 -0.0009704267914012452 -0.006751271643944622 0.001108336683801943 0.01067248026976033
 0.0011363782253246695 0.010668879066911652 -0.0009704267914012452 -0.006751271643944622 0.0048111823788632505 0.021636331090585856 0.9942365289649058 -0.0524009746516475
 -0.0009707709232836416 -0.00675126577568214 0.001108336683801943 0.01067248026976033 0.9942365289649058 -0.0524009746516475 0.004815298580999851 0.021635999308038525
0.07503126302626001 0.005214861812688698 0.023722358747123716 0.9936987760893157 -0.057255625620319626 0.0013078324309929027 0.011639301226523777 -0.001114016594915947 -0.007368495062054482
 0.9936987760893157 -0.057255625620319626 0.005220310640403914 0.023721926680734015 -0.0011136084574260455 -0.007368505875637422 0.0012744502015184294 0.011643683107524857
 0.0013078324309929027 0.011639301226523777 -0.0011136084574260455 -0.007368505875637422 0.005215172803447992 0.023723325263759858 0.9936988139866222 -0.05725462210393233
 -0.001114016594915947 -0.007368495062054482 0.0012744502015184294 0.011643683107524857 0.9936988139866222 -0.05725462210393233 0.005220070601660167 0.023722943875560835
0.08128386827845 0.00564220670554382 0.025826713743959076 0.993129878419643 -0.06212419665029141 0.0014921639084690109 0.012609026516103503 -0.0012679663834275043 -0.007985424169732917
 0.993129878419643 -0.06212419665029141 0.0056486009329321085 0.02582621925173878 -0.001267488988327107 -0.007985440959487817 0.0014529731022912499 0.012614294884379014
 0.0014921639084690109 0.012609026516103503 -0.001267488988327107 -0.007985440959487817 0.0056425711999606104 0.025827756610896466 0.9931299226876407 -0.06212310907466564
 -0.0012679663834275043 -0.007985424169732917 0.0014529731022912499 0.012614294884379014 0.9931299226876407 -0.06212310907466564 0.005648318723012008 0.025827321842038963
0.08753647353064001 0.006093344612032495 0.027948078903355978 0.9925294258279811 -0.06700734837987457 0.0016894674710076687 0.01357784594186371 -0.001432718339252802 -0.008601847897716034
 0.9925294258279811 -0.06700734837987457 0.006100760147069365 0.027947516942765573 -0.0014321664786560758 -0.008601871762454033 0.0016439997919212646 0.013584113851541998
 0.0016894674710076687 0.01357784594186371 -0.0014321664786560758 -0.008601871762454033 0.006093766810450752 0.02794919716121692 0.9925294769880348 -0.06700617660192867
 -0.001432718339252802 -0.008601847897716034 0.0016439997919212646 0.013584113851541998 0.9925294769880348 -0.06700617660192867 0.0061004323187541735 0.02794870510377128
0.09378907878283 0.006568660631675082 0.03008603013752308 0.9918970431437694 -0.0719048010451785 0.0018998339590875935 0.01454554553382388 -0.001608366445753989 -0.009217557691875565
 0.9918970431437694 -0.0719048010451785 0.006577173529392808 0.03008539543988951 -0.001607734955944323 -0.009217589798257009 0.0018476207957886343 0.014552933356435377
 0.0018998339590875935 0.01454554553382388 -0.001607734955944323 -0.009217589798257009 0.006569144720537916 0.03008722275214815 0.9918971017257192 -0.07190354491080056
 -0.001608366445753989 -0.009217557691875565 0.0018476207957886343 0.014552933356435377 0.9918971017257192 -0.07190354491080056 0.006576796627602919 0.030086669360044154
0.100041684035 0.007068535561927798 0.03224014468679451 0.9912323584207869 -0.07681625656382846 0.0021233500745831664 0.015511906571439187 -0.0017950004810667413 -0.009832341545465768
 0.9912323584207869 -0.07681625656382846 0.007078222044769974 0.032239431750209845 -0.0017942842425799038 -0.009832383127910996 0.0020639225987463166 0.01552054206679637
 0.0021233500745831664 0.015511906571439187 -0.0017942842425799038 -0.009832383127910996 0.007069085711506488 0.0322414105528186 0.9912324249632133 -0.07681491590392875
 -0.0017950004810667413 -0.009832341545465768 0.0020639225987463166 0.01552054206679637 0.9912324249632133 -0.07681491590392875 0.007077792606186818 0.03224079163562249
0.1059090909091 0.007560286516758017 0.03427587601505697 0.9905789157179696 -0.08143759213698863 0.002345129142133679 0.01641731767615356 -0.001980204470748992 -0.010408216918454121
 0.9905789157179696 -0.08143759213698863 0.007571143775698792 0.03427508444073073 -0.0019794040881404764 -0.010408268576128782 0.002278505302322242 0.016427246818419915
 0.002345129142133679 0.01641731767615356 -0.0019794040881404764 -0.010408268576128782 0.007560902435168031 0.03427720955065106 0.9905789902290645 -0.08143617199180794
 -0.001980204470748992 -0.010408216918454121 0.002278505302322242 0.016427246818419915 0.9905789902290645 -0.08143617199180794 0.007570661880081257 0.034276525199114796
0.1062942892872 0.0075933457316855035 0.034409999248030336 0.990535003229889 -0.08174140043314046 0.0023600982175301026 0.016476705778558347 -0.001992705877681032 -0.010445983941255803
 0.990535003229889 -0.08174140043314046 0.00760428221049498 0.034409202329247976 -0.0019918998155411117 -0.010446036301810468 0.0022929874870773813 0.016486724163946708
 0.0023600982175301026 0.016476705778558347 -0.0019918998155411117 -0.010446036301810468 0.007593966095381782 0.0344113371887896 0.990535078281174 -0.08173997506344571
 -0.001992705877681032 -0.010445983941255803 0.0022929874870773813 0.016486724163946708 0.990535078281174 -0.08173997506344571 0.00760379676385435 0.034410648404573516
0.11254689453939999 0.00814346282198062 0.03659516857536987 0.9898046129403592 -0.08667990316895322 0.0026101563261959103 0.017439715490484384 -0.0022015635798493024 -0.011058265832597435
 0.9898046129403592 -0.08667990316895322 0.008155725916228014 0.036594281680904 -0.0022006626638023186 -0.011058330340848556 0.002534893392811539 0.017451259508052073
 0.0026101563261959103 0.017439715490484384 -0.0022006626638023186 -0.011058330340848556 0.00814415753426024 0.03659657733916089 0.9898046970588456 -0.08667839289333262
 -0.0022015635798493024 -0.011058265832597435 0.002534893392811539 0.017451259508052073 0.9898046970588456 -0.08667839289333262 0.008155180982252326 0.036595814186524044
0.11879949979160001 0.00871925367360855 0.03879522438343266 0.9890408269921864 -0.09163142145508127 0.002873597718498835 0.018400703806935984 -0.0024216499005150854 -0.011668964649820547
 0.9890408269921864 -0.09163142145508127 0.008732920231927215 0.03879424125968696 -0.002420649145274447 -0.011669042742718747 0.002789713739432501 0.01841392378926363
 0.002873597718498835 0.018400703806935984 -0.002420649145274447 -0.011669042742718747 0.008720026848471561 0.038796702647262905 0.9890409207476175 -0.09162982606177003
 -0.0024216499005150854 -0.011668964649820547 0.002789713739432501 0.01841392378926363 0.9890409207476175 -0.09162982606177003 0.008732312323676383 0.03879586045620179
0.1250521050438 0.009321080087302822 0.04100973451094003 0.9882432891639438 -0.09659559904624969 0.0031504909358511545 0.01935943473641068 -0.0026530363774813076 -0.012277854326568879
 0.9882432891639438 -0.09659559904624969 0.009336227208271214 0.041008648633324915 -0.002651930843163618 -0.012277947508359094 0.003057517289395111 0.019374488669993924
 0.0031504909358511545 0.01935943473641068 -0.002651930843163618 -0.012277947508359094 0.009321935816800218 0.04101128087615671 0.9882433931372392 -0.09659391831184784
 -0.0026530363774813076 -0.012277854326568879 0.003057517289395111 0.019374488669993924 0.9882433931372392 -0.09659391831184784 0.009335552830817944 0.04101035479818434
0.131304710296 0.00994929861626598 0.04323826225552078 0.9874116478337474 -0.10157206751325781 0.003440899588768019 0.02031566833334114 -0.0028957896295856733 -0.012884705344880358
 0.9874116478337474 -0.10157206751325781 0.00996600366913512 0.043237066816596496 -0.002894574422046103 -0.01288481518687197 0.003338367993499057 0.02033272192001067
 0.003440899588768019 0.02031566833334114 -0.002894574422046103 -0.01288481518687197 0.009950240968799165 0.04323987524880696 0.987411762618595 -0.10157030120180884
 -0.0028957896295856733 -0.012884705344880358 0.003338367993499057 0.02033272192001067 0.987411762618595 -0.10157030120180884 0.009965259319791985 0.04323886024588163
0.1375573155481 0.010468827377939428 0.04519050444805616 0.9866810579619545 -0.10627041133815858 0.0037112277501184063 0.021241395790778658 -0.003116440782916578 -0.013461451722191504
 0.9866810579619545 -0.10627041133815858 0.010487172059485324 0.04518921487026373 -0.003115108468100219 -0.013461578529800365 0.0035989066082676964 0.021260439418697572
 0.0037112277501184063 0.021241395790778658 -0.003115108468100219 -0.013461578529800365 0.010469859635169778 0.045192182990690374 0.9866811840594564 -0.10626855933522703
 -0.003116440782916578 -0.013461451722191504 0.0035989066082676964 0.021260439418697572 0.9866811840594564 -0.10626855933522703 0.010486355187886447 0.04519109566959877
0.1438099208003 0.01100687201444102 0.047130801007415915 0.9859242647358063 -0.11095514897915723 0.003992422890448002 0.022162236466630587 -0.003345839092900354 -0.014033784419343037
 0.9859242647358063 -0.11095514897915723 0.01102693465150336 0.04712941154479123 -0.0033443843855390887 -0.014033929761416403 0.0038698870463321974 0.022183423134129052
 0.003992422890448002 0.022162236466630587 -0.0033443843855390887 -0.014033929761416403 0.011007998070086825 0.047132543614103975 0.9859244027374792 -0.11095321106119599
 -0.003345839092900354 -0.014033784419343037 0.0038698870463321974 0.022183423134129052 0.9859244027374792 -0.11095321106119599 0.011026041916528314 0.04713137998163928
0.1500625260525 0.011563216120784143 0.04905894059323473 0.9851414896344507 -0.11562611335461537 0.004284370203460295 0.02307805945992018 -0.0035838742822433705 -0.014601583786160334
 0.9851414896344507 -0.11562611335461537 0.011585075303516877 0.049057445126802796 -0.0035822919105470497 -0.01460174929547876 0.004151197536436853 0.02310154777018787
 0.004284370203460295 0.02307805945992018 -0.0035822919105470497 -0.01460174929547876 0.011564439836745828 0.04906074572550461 0.9851416401421055 -0.11562408928692501
 -0.0035838742822433705 -0.014601583786160334 0.004151197536436853 0.02310154777018787 0.9851416401421055 -0.11562408928692501 0.011584103368178722 0.049059501482534074
0.15631513130469998 0.012137641433557887 0.050974718203431926 0.9843329556196245 -0.12028313913725884 0.0045869533219562554 0.02398873649062884 -0.0038304345415821513 -0.015164733053366427
 0.9843329556196245 -0.12028313913725884 0.01216137602237896 0.05097311022896267 -0.003828719247592759 -0.015164920426366265 0.004442724798714261 0.024014690586320175
