! Created with skrf 1.8.0 (http://scikit-rf.org).
# GHz S RI R 50.0 
!freq ReS11 ImS11 ReS12 ImS12 ReS13 ImS13
! ReS14 ImS14
! ReS21 ImS21 ReS22 ImS22 ReS23 ImS23
! ReS24 ImS24
! ReS31 ImS31 ReS32 ImS32 ReS33 ImS33
! ReS34 ImS34
! ReS41 ImS41 ReS42 ImS42 ReS43 ImS43
! ReS44 ImS44
!
0.0 0.001628491609541 0.0 0.9983715083734 0.0 6.320170228956e-05 0.0 -6.320170193446e-05 7.739976197470152e-21
 0.9983715083734 0.0 0.001628491609538 0.0 -6.320170193411e-05 7.73997619742729e-21 6.320170228959e-05 0.0
 6.320170228956e-05 0.0 -6.320170193411e-05 7.73997619742729e-21 0.00162849161806 0.0 0.9983715083819 0.0
 -6.320170193446e-05 7.739976197470152e-21 6.320170228959e-05 0.0 0.9983715083819 0.0 0.001628491618071 0.0
0.005 0.0017524224476603834 0.0013274787137272162 0.998214643112052 -0.003411197689562875 8.949749545738566e-05 0.000723863593212167 -8.66385377492861e-05 -0.0004495203312047781
 0.998214643112052 -0.003411197689562875 0.0017524576429079944 0.0013274582231708424 -8.663920467308044e-05 -0.00044952090372314896 8.927848883597812e-05 0.0007239470541371921
 8.949749545738566e-05 0.000723863593212167 -8.663920467308044e-05 -0.00044952090372314896 0.0017524214391902097 0.0013274120659126257 0.9982146427390368 -0.0034112647636408925
 -8.66385377492861e-05 -0.0004495203312047781 8.927848883597812e-05 0.0007239470541371921 0.9982146427390368 -0.0034112647636408925 0.0017524579122067897 0.0013273907292777648
0.006252605252188 0.0017849999410133792 0.001664580560680457 0.9981731281182791 -0.004264820789902243 9.708201500610441e-05 0.0009051603255771336 -9.329672681072324e-05 -0.0005624829484323945
 0.9981731281182791 -0.004264820789902243 0.0017850549570070729 0.0016645545208612436 -9.329776411947125e-05 -0.0005624836555511762 9.673983923035316e-05 0.000905268716941764
 9.708201500610441e-05 0.0009051603255771336 -9.329776411947125e-05 -0.0005624836555511762 0.00178499845078815 0.0016644972816533433 0.9981731276215375 -0.00426490461113567
 -9.329672681072324e-05 -0.0005624829484323945 9.673983923035316e-05 0.000905268716941764 0.9981731276215375 -0.00426490461113567 0.0017850554650825142 0.0016644701717854588
0.01250521050438 0.0019569273868920312 0.0033640809675253426 0.9979524858448319 -0.008530380277540838 0.00014095537947807552 0.0018105401309267955 -0.00013129492588854935 -0.00112766453818206
 0.9979524858448319 -0.008530380277540838 0.0019571470589932302 0.0033640245971695844 -0.00013129900795679376 -0.0011276658592863289 0.00013959089745422935 0.0018108009319429956
 0.00014095537947807552 0.0018105401309267955 -0.00013129900795679376 -0.0011276658592863289 0.001956921983569782 0.0033639147688176697 0.997952484413357 -0.008530547682843
 -0.00013129492588854935 -0.00112766453818206 0.00013959089745422935 0.0018108009319429956 0.997952484413357 -0.008530547682843 0.0019571496501283527 0.003363856119022225
0.01875781575657 0.0021446668261376357 0.005087754248752443 0.997709295201374 -0.012807045225993241 0.00019492382843594778 0.0027167586918911933 -0.00017731762132158185 -0.0016946804657047103
 0.997709295201374 -0.012807045225993241 0.002145160427431349 0.005087662974260119 -0.00017732671627807448 -0.0016946822909166847 0.00019185875560104467 0.0027172249039917624
 0.00019492382843594778 0.0027167586918911933 -0.00017732671627807448 -0.0016946822909166847 0.0021446551038148826 0.005087505387335167 0.9977092924111423 -0.012807296154834709
 -0.00017731762132158185 -0.0016946804657047103 0.00019185875560104467 0.0027172249039917624 0.9977092924111423 -0.012807296154834709 0.0021451666989972147 0.005087410441548376
0.02501042100875 0.0023485984464502925 0.006833156846904287 0.9974432581142202 -0.01709686641279763 0.00025909170551745785 0.0036238425403403466 -0.00023148166835212057 -0.002263252278994619
 0.9974432581142202 -0.01709686641279763 0.002349475027425036 0.006833025848849386 -0.00023149771814937295 -0.002263254479597441 0.0002536475711171783 0.0036245758538911645
 0.00025909170551745785 0.0036238425403403466 -0.00023149771814937295 -0.002263254479597441 0.002348577988000902 0.006832825623108654 0.9974432535279004 -0.01709720083526
 -0.00023148166835212057 -0.002263252278994619 0.0002536475711171783 0.0036245758538911645 0.9974432535279004 -0.01709720083526 0.0023494865745312477 0.006832689337286822
0.03126302626094 0.0025690866471399895 0.008599019792850958 0.9971540619528636 -0.02140070744544385 0.0003335639323169188 0.004531731065918764 -0.0002939002833238377 -0.0028331816336639943
 0.9971540619528636 -0.02140070744544385 0.002570455098459019 0.008598844013426319 -0.0002939252081058447 -0.0028331840618822015 0.00032506145850875464 0.004532801911286614
 0.0003335639323169188 0.004531731065918764 -0.0002939252081058447 -0.0028331840618822015 0.002569055038683759 0.008598606534976717 0.997154055133692 -0.021401125377989536
 -0.0002939002833238377 -0.0028331816336639943 0.00032506145850875464 0.004532801911286614 0.997154055133692 -0.021401125377989536 0.002570473530176072 0.008598423584239033
0.037515631513130004 0.0028064877006458663 0.010384507010000894 0.9968413874656588 -0.025718986398487003 0.00041844478092023816 0.00544032905120008 -0.0003646838963713129 -0.003404297755629645
 0.9968413874656588 -0.025718986398487003 0.002808456796883214 0.010384281156784364 -0.00036471959683493483 -0.0034043002446253155 0.0004062036108694875 0.005441816685596102
 0.00041844478092023816 0.00544032905120008 -0.00036471959683493483 -0.0034043002446253155 0.0028064425316120414 0.010384012096207339 0.9968413779760483 -0.025719487882623293
 -0.0003646838963713129 -0.003404297755629645 0.0004062036108694875 0.005441816685596102 0.9968413779760483 -0.025719487882623293 0.002808483736141719 0.010383776877982222
0.043768236765320004 0.003061152700230684 0.012188989584007054 0.9965049120078323 -0.030051901474512182 0.0005138373013427684 0.00634952265593873 -0.0004439404470207004 -0.003976441466026843
 0.9965049120078323 -0.030051901474512182 0.0030638311350978512 0.012188708131950898 -0.000443988805782738 -0.003976443829908569 0.0004971758763604318 0.006351515261297113
 0.0005138373013427684 0.00634952265593873 -0.000443988805782738 -0.003976443829908569 0.0030610915604768873 0.012188413449020542 0.9965048994050314 -0.030052486570598138
 -0.0004439404470207004 -0.003976441466026843 0.0004971758763604318 0.006351515261297113 0.9965048994050314 -0.030052486570598138 0.0030638682159219313 0.012188120084502903
0.050020842017509996 0.0033334289219958085 0.014011952498347198 0.9961443111899818 -0.03439952419762027 0.0006198429750339424 0.007259186024042845 -0.000531775486030552 -0.004549458589321942
 0.9961443111899818 -0.03439952419762027 0.003336925339892171 0.014011609690744546 -0.000531838368586984 -0.004549460623220206 0.0005980784913020277 0.007261780809366146
 0.0006198429750339424 0.007259186024042845 -0.000531838368586984 -0.004549460623220206 0.0033333494025155302 0.014011295631379112 0.9961442950253838 -0.034400192987528
 -0.000531775486030552 -0.004549458589321942 0.0005980784913020277 0.007261780809366146 0.9961442950253838 -0.034400192987528 0.0033369742077148327 0.014010937965696638
0.055454545454549996 0.0035846150304876673 0.015610822515600616 0.9958110928861612 -0.038189678683340444 0.000720661752241906 0.008049988184023693 -0.0006151537694310832 -0.005048018784582662
 0.9958110928861612 -0.038189678683340444 0.0035889105166396983 0.015610421533008673 -0.0006152307758261832 -0.00504802035062478 0.0006939070715192492 0.008053192316844758
 0.000720661752241906 0.008049988184023693 -0.0006152307758261832 -0.00504802035062478 0.003584517586478147 0.01561009592893656 0.9958110732596035 -0.03819042029000187
 -0.0006151537694310832 -0.005048018784582662 0.0006939070715192492 0.008053192316844758 0.9958110732596035 -0.03819042029000187 0.0035889709759582985 0.015609677170214473
0.056273447269699996 0.0036236605141267363 0.015852948850613915 0.9957592598585934 -0.038761845128643425 0.0007365614705626488 0.00816918452597524 -0.0006282921887174353 -0.0051231967316267175
 0.9957592598585934 -0.038761845128643425 0.0036280835393666592 0.015852538698967904 -0.0006283714441098811 -0.005123198211731814 0.0007090098836756498 0.008172487831536217
 0.0007365614705626488 0.00816918452597524 -0.0006283714441098811 -0.005123198211731814 0.003623560211278111 0.015852211793826756 0.9957592396802315 -0.038762597717711775
 -0.0006282921887174353 -0.0051231967316267175 0.0007090098836756498 0.008172487831536217 0.9957592396802315 -0.038762597717711775 0.0036281458547043773 0.015851783395398052
0.06252605252188 0.003932188860690357 0.01771157468191114 0.9953494327560723 -0.043138798971200744 0.0008640904490975148 0.009079376552741159 -0.0007335913242768198 -0.005697503513146358
 0.9953494327560723 -0.043138798971200744 0.003937647125342448 0.017711090965002618 -0.0007336887854988037 -0.005697504196778528 0.0008300665106531524 0.009083503954816557
 0.0008640904490975148 0.009079376552741159 -0.0007336887854988037 -0.005697504196778528 0.003932065373673739 0.01771075803961839 0.995349408104428 -0.04313963547967034
 -0.0007335913242768198 -0.005697503513146358 0.0008300665106531524 0.009083503954816557 0.995349408104428 -0.04313963547967034 0.003937724561351185 0.017710252198388534
0.06877865777407 0.004259352759083865 0.01958745397565052 0.994914504999016 -0.04753027951388689 0.0010025253988535838 0.009989614587933276 -0.0008477711988646471 -0.006272225528545908
 0.994914504999016 -0.04753027951388689 0.004265954930144479 0.019586890237699855 -0.0008478886832500891 -0.006272225154208768 0.0009613427154677988 0.009994691003453626
 0.0010025253988535838 0.009989614587933276 -0.0008478886832500891 -0.006272225154208768 0.004259203692614006 0.019586558409591708 0.9949144754081712 -0.04753120008193856
 -0.0008477711988646471 -0.006272225528545908 0.0009613427154677988 0.009994691003453626 0.9949144754081712 -0.04753120008193856 0.004266049174435493 0.019585968134589057
0.07503126302626001 0.004605488494702119 0.021480229157126194 0.9944541524586676 -0.051936149077593495 0.0011519594852481673 0.01089974589891143 -0.0009709275838556408 -0.006847207694447456
 0.9944541524586676 -0.051936149077593495 0.0046133433012802635 0.02147957870498875 -0.0009710668933673231 -0.006847205981891799 0.0011029305947533883 0.010905905689437724
 0.0011519594852481673 0.01089974589891143 -0.0009710668933673231 -0.006847205981891799 0.004605311460452727 0.02147925538355531 0.9944541174555335 -0.051937153868746505
 -0.0009709275838556408 -0.006847207694447456 0.0011029305947533883 0.010905905689437724 0.9944541174555335 -0.051937153868746505 0.004613456056692689 0.021478573399432835
0.08128386827845 0.004970929847048898 0.023389554753071657 0.9939680520764521 -0.05635624480940497 0.0013124834125280054 0.011809613002646494 -0.001103153633096258 -0.007422292828693337
 0.9939680520764521 -0.05635624480940497 0.004980146106533211 0.023388810652628097 -0.001103316554421337 -0.007422289478984015 0.001254919873246459 0.011817000077420002
 0.0013124834125280054 0.011809613002646494 -0.001103316554421337 -0.007422289478984015 0.004970722463341552 0.023388503552143638 0.9939680111790196 -0.05635733400150575
 -0.001103153633096258 -0.007422292828693337 0.001254919873246459 0.011817000077420002 0.9939680111790196 -0.05635733400150575 0.004980279090990923 0.023387722294808008
0.08753647353064001 0.0053560080491944885 0.02531509304656266 0.993455882137583 -0.060790382988240285 0.0014841852914351894 0.012719053999269148 -0.001244539793444048 -0.007997321368587957
 0.993455882137583 -0.060790382988240285 0.0053666946947347315 0.025314248118007178 -0.0012447280982982125 -0.00799731606414731 0.0014173977825868822 0.012727821916981187
 0.0014841852914351894 0.012719053999269148 -0.0012447280982982125 -0.00799731606414731 0.005355767943668648 0.025313965256555465 0.993455834855256 -0.06079155677950905
 -0.001244539793444048 -0.007997321368587957 0.0014173977825868822 0.012727821916981187 0.993455834855256 -0.06079155677950905 0.005366849642017885 0.025313076867955787
0.09378907878283 0.005761051719738613 0.02725651094176606 0.9929173225204808 -0.06523836212794241 0.0016671505118819106 0.013627902820865184 -0.0013951737104967166 -0.008572131180626868
 0.9929173225204808 -0.06523836212794241 0.005773317826183989 0.02725555775413305 -0.0013953891556303815 -0.008572123585313653 0.0015904489428112296 0.01363821489010171
 0.0016671505118819106 0.013627902820865184 -0.0013953891556303815 -0.008572123585313653 0.005760776529605093 0.02725530746109775 0.9929172683527745 -0.0652396207353162
 -0.0013951737104967166 -0.008572131180626868 0.0015904489428112296 0.01363821489010171 0.9929172683527745 -0.0652396207353162 0.005773496486471441 0.0272543037829524
0.100041684035 0.006186386768830781 0.029213477691886456 0.9923520549245977 -0.06969996522487508 0.001861461619037906 0.014535989423385447 -0.0015551401300568511 -0.009146557434217346
 0.9923520549245977 -0.06969996522487508 0.00620034157982537 0.0292124085564138 -0.001555384457334695 -0.009146547193386898 0.001774155246451748 0.014548018801356939
 0.001861461619037906 0.014535989423385447 -0.001555384457334695 -0.009146547193386898 0.00618607414221768 0.029212199481416953 0.9923519933605022 -0.06970130888190003
 -0.0015551401300568511 -0.009146557434217346 0.001774155246451748 0.014548018801356939 0.9923519933605022 -0.06970130888190003 0.006200545720288982 0.029211072047969106
0.1059090909091 0.006604261233587866 0.031063730874805216 0.9917970388769608 -0.07389889191815702 0.002054191869808104 0.015387284330479208 -0.001713812315157013 -0.009685097434383158
 0.9917970388769608 -0.07389889191815702 0.006619900244542257 0.031062545705444384 -0.0017140853163303334 -0.00968508437202855 0.001956305318098178 0.015401091563445752
 0.002054191869808104 0.015387284330479208 -0.0017140853163303334 -0.00968508437202855 0.006603911348987195 0.03106238346403914 0.9917969698972069 -0.07390031561640076
 -0.001713812315157013 -0.009685097434383158 0.001956305318098178 0.015401091563445752 0.9917969698972069 -0.07390031561640076 0.006620129918179329 0.031061131918806318
0.1062942892872 0.006632336290317971 0.031185663185765086 0.9917597630877251 -0.07417496145488511 0.0020671981911837686 0.015443139944538201 -0.0017245207976759552 -0.009720432516482816
 0.9917597630877251 -0.07417496145488511 0.006648089245242061 0.031184470148317458 -0.001724795734213485 -0.009720419257033444 0.0019685957431711952 0.01545706973409142
 0.0020671981911837686 0.015443139944538201 -0.001724795734213485 -0.009720419257033444 0.006631983887858448 0.031184311264903737 0.991759693604853 -0.07417639041577599
 -0.0017245207976759552 -0.009720432516482816 0.0019685957431711952 0.01545706973409142 0.991759693604853 -0.07417639041577599 0.006648320650484607 0.031183051294751653
0.11254689453939999 0.0070992204400984645 0.03317273664976211 0.9911401329923637 -0.07866310746304928 0.002284436719869456 0.016349176834149153 -0.0019033943555816447 -0.01029358598185349
 0.9911401329923637 -0.07866310746304928 0.0071168812010448754 0.03317141148216276 -0.001903701613690041 -0.010293569312316876 0.0021738465263216973 0.01636520017880018
 0.002284436719869456 0.016349176834149153 -0.001903701613690041 -0.010293569312316876 0.007098825935886698 0.0331713121004918 0.9911400550562302 -0.07866462199880503
 -0.0019033943555816447 -0.01029358598185349 0.0021738465263216973 0.01636520017880018 0.9911400550562302 -0.07866462199880503 0.007117141673502059 0.03316991048727037
0.11879949979160001 0.007587356304904208 0.03517436563118864 0.990492853066161 -0.08316414838035373 0.002513250491380282 0.017253918970130306 -0.0020918362383323154 -0.010865844523528402
 0.990492853066161 -0.08316414838035373 0.007607034783808944 0.03517289982156429 -0.002092177515608508 -0.01086582403408986 0.002389980619749392 0.01727223914712113
 0.002513250491380282 0.017253918970130306 -0.002092177515608508 -0.01086582403408986 0.007586917387762226 0.03517286959930921 0.9904927661295123 -0.08316574877766394
 -0.0020918362383323154 -0.010865844523528402 0.002389980619749392 0.01727223914712113 0.9904927661295123 -0.08316574877766394 0.007607326144564148 0.035171316901359724
0.1250521050438 0.008097057763408421 0.03719021521839056 0.989817614377345 -0.08767781861257529 0.00275370946913003 0.01815718176210661 -0.002289918567503233 -0.01143703196469737
 0.989817614377345 -0.08767781861257529 0.008118864149382772 0.03718859996022929 -0.002290295546822275 -0.011437007227300972 0.0026170678655600436 0.01817801227318891
 0.00275370946913003 0.01815718176210661 -0.002290295546822275 -0.011437007227300972 0.008096572138501387 0.037188648906512585 0.9898175178794012 -0.08767950518074792
 -0.002289918567503233 -0.01143703196469737 0.0026170678655600436 0.01817801227318891 0.9898175178794012 -0.08767950518074792 0.008119188238490328 0.037186935335454245
0.131304710296 0.008628635341192925 0.039219947402169705 0.9891141108265454 -0.0922038424963654 0.0030058801774453096 0.019058777247903905 -0.0024977100453725046 -0.012006969264624207
 0.9891141108265454 -0.0922038424963654 0.008652680127964447 0.03921817358244164 -0.0024981243948956847 -0.012006939833016555 0.002855174812746125 0.01908234190787012
 0.0030058801774453096 0.019058777247903905 -0.0024981243948956847 -0.012006939833016555 0.008628100731093475 0.03921831207979488 0.9891140041918532 -0.09220561555726324
 -0.0024977100453725046 -0.012006969264624207 0.002855174812746125 0.01908234190787012 0.9891140041918532 -0.09220561555726324 0.008653038804819406 0.03921642748794353
0.1375573155481 0.009063302360990823 0.04099776272341248 0.9885011806871634 -0.0964763579606981 0.0032396513955072685 0.019932170745587726 -0.002685277566519367 -0.012549021019589412
 0.9885011806871634 -0.0964763579606981 0.009089705635684436 0.04099586118707001 -0.0026857319357369226 -0.012548986847078647 0.003074534046861967 0.019958443653564337
 0.0032396513955072685 0.019932170745587726 -0.0026857319357369226 -0.012548986847078647 0.009062717288627696 0.040996059186209716 0.9885010634442786 -0.0964782177004667
 -0.002685277566519367 -0.012549021019589412 0.003074534046861967 0.019958443653564337 0.9885010634442786 -0.0964782177004667 0.0090900997756713 0.040994034111806674
0.1438099208003 0.009513331526662524 0.0427656205573855 0.9878665181897166 -0.10073745668531972 0.003482879156504209 0.02080160660146883 -0.0028803355267655395 -0.013087537484113232
 0.9878665181897166 -0.10073745668531972 0.009542205664166067 0.04276358453660113 -0.002880831739021773 -0.013087498125344587 0.003302719891360004 0.020830793285194004
 0.003482879156504209 0.02080160660146883 -0.002880831739021773 -0.013087498125344587 0.009512693883695163 0.042763850078636055 0.9878663897641509 -0.10073940341960955
 -0.0028803355267655395 -0.013087537484113232 0.003302719891360004 0.020830793285194004 0.9878663897641509 -0.10073940341960955 0.009542636977014737 0.042761676770458765
0.1500625260525 0.009978555174378734 0.04452335607194265 0.98721029538296 -0.10498701533712793 0.003735474977228492 0.021666981602519664 -0.003082799684462765 -0.013622424740722196
 0.98721029538296 -0.10498701533712793 0.01001001289464872 0.044521178351762475 -0.0030833395606214096 -0.013622379732163391 0.0035396478498492573 0.02169929510805112
 0.003735474977228492 0.021666981602519664 -0.0030833395606214096 -0.013622379732163391 0.009977862878518854 0.04452151997498069 0.9872101551878485 -0.10498904939189686
 -0.003082799684462765 -0.013622424740722196 0.0035396478498492573 0.02169929510805112 0.9872101551878485 -0.10498904939189686 0.010010483097374283 0.044519190197541414
0.15631513130469998 0.010458804338438078 0.046270809388321316 0.9865326853124461 -0.10922491139446863 0.0039973492563108864 0.02252819437723656 -0.0032925847002865044 -0.014153590957231683
 0.9865326853124461 -0.10922491139446863 0.010492958716013426 0.04626848229187673 -0.0032931700588498666 -0.014153539817115928 0.0037852323716957596 0.022563855187355115
