! Created with skrf 1.8.0 (http://scikit-rf.org).
# GHz S RI R 50.0 
!freq ReS11 ImS11 ReS12 ImS12 ReS13 ImS13
! ReS14 ImS14
! ReS21 ImS21 ReS22 ImS22 ReS23 ImS23
! ReS24 ImS24
! ReS31 ImS31 ReS32 ImS32 ReS33 ImS33
! ReS34 ImS34
! ReS41 ImS41 ReS42 ImS42 ReS43 ImS43
! ReS44 ImS44
!
0.0 0.001594487026146 0.0 0.9984055129595 0.0 6.139019675705e-05 0.0 -6.139019783444e-05 7.518130927696972e-21
 0.9984055129595 0.0 0.001594487026132 0.0 -6.139019783409e-05 7.518130927654111e-21 6.139019675762e-05 0.0
 6.139019675705e-05 0.0 -6.139019783409e-05 7.518130927654111e-21 0.001594487033258 0.0 0.9984055129667 0.0
 -6.139019783444e-05 7.518130927696972e-21 6.139019675762e-05 0.0 0.9984055129667 0.0 0.001594487033258 0.0
0.005 0.0017156346366733115 0.0013079617210794675 0.9982522276054429 -0.003339681050833407 8.556412976803023e-05 0.0006541323189607791 -8.318534017328486e-05 -0.00041445946237345094
 0.9982522276054429 -0.003339681050833407 0.0017156611656377893 0.001307946196818341 -8.318467015749433e-05 -0.00041445889326846287 8.541412208538742e-05 0.0006541896059449162
 8.556412976803023e-05 0.0006541323189607791 -8.318467015749433e-05 -0.00041445889326846287 0.0017156356337270219 0.0013080283648133858 0.9982522279719942 -0.0033396139903355167
 -8.318534017328486e-05 -0.00041445946237345094 8.541412208538742e-05 0.0006541896059449162 0.9982522279719942 -0.0033396139903355167 0.0017156609003219647 0.0013080136746964081
0.006252605252188 0.0017474482279322822 0.0016400742030068989 0.998211713122524 -0.004175409371838137 9.249981261639216e-05 0.0008179893516157169 -8.935209080776466e-05 -0.0005186024450618889
 0.998211713122524 -0.004175409371838137 0.00174748969728717 0.0016400544392360156 -8.93510486443882e-05 -0.0005186017422436853 9.226544186792606e-05 0.0008180637217131883
 9.249981261639216e-05 0.0008179893516157169 -8.93510486443882e-05 -0.0005186017422436853 0.0017474497068021443 0.0016401574985400833 0.9982117136152422 -0.004175325549300526
 -8.935209080776466e-05 -0.0005186024450618889 9.226544186792606e-05 0.0008180637217131883 0.9982117136152422 -0.004175325549300526 0.0017474892018900258 0.0016401387896804575
0.01250521050438 0.0019151563662573303 0.003314303413303253 0.9979966911708841 -0.008351551857950938 0.0001324285276184382 0.0016363780129624267 -0.00012441191119501763 -0.001039669504141495
 0.9979966911708841 -0.008351551857950938 0.0019153219533134273 0.003314260241235298 -0.00012440780935150359 -0.0010396681920660897 0.0001314939752326235 0.0016365566313581953
 0.0001324285276184382 0.0016363780129624267 -0.00012440780935150359 -0.0010396681920660897 0.0019151617108090976 0.003314469673933016 0.9979966925707736 -0.008351384476176291
 -0.00012441191119501763 -0.001039669504141495 0.0001314939752326235 0.0016365566313581953 0.9979966925707736 -0.008351384476176291 0.0019153193999900371 0.003314428747849161
0.01875781575657 0.0020979873153301036 0.005012187158257631 0.9977601729631994 -0.012538576486509887 0.00018126987887532225 0.002455678962692522 -0.00016667882304475653 -0.0015624751668782719
 0.9977601729631994 -0.012538576486509887 0.002098359397591446 0.005012116611885905 -0.00016666968311732522 -0.0015624733560209868 0.00017917065870143783 0.002455997745329244
 0.00018126987887532225 0.002455678962692522 -0.00016666968311732522 -0.0015624733560209868 0.0020979989117063274 0.0050124362050916445 0.9977601756818955 -0.012538325636583135
 -0.00016667882304475653 -0.0015624751668782719 0.00017917065870143783 0.002455997745329244 0.9977601756818955 -0.012538325636583135 0.0020983532179911593 0.005012369274430326
0.02501042100875 0.002296305252803468 0.0067313457832858855 0.9975018732385672 -0.016738499791589433 0.00023911905775685224 0.003275910284892815 -0.00021625842606313414 -0.0020867822278720777
 0.9975018732385672 -0.016738499791589433 0.0022969660407343925 0.006731243600160988 -0.00021624229569779728 -0.002086780047722926 0.00023539060138867758 0.003276410975704506
 0.00023911905775685224 0.003275910284892815 -0.00021624229569779728 -0.002086780047722926 0.0022963254943487725 0.006731677434018187 0.9975018776909003 -0.01673816554775497
 -0.00021625842606313414 -0.0020867822278720777 0.00023539060138867758 0.003276410975704506 0.9975018776909003 -0.01673816554775497 0.002296954664702077 0.00673158045629272
0.03126302626094 0.0025104593209187612 0.00847054865727095 0.9972214925238863 -0.020952177588455263 0.00030607168319312923 0.004097017211368607 -0.0002732533161974161 -0.002612420147925478
 0.9972214925238863 -0.020952177588455263 0.0025114909007899963 0.00847041028259516 -0.00027322826464670557 -0.0026124177472043723 0.0003002489068009033 0.004097747414254786
 0.00030607168319312923 0.004097017211368607 -0.00027322826464670557 -0.0026124177472043723 0.0025104906036122654 0.008470962728781745 0.9972214991227755 -0.02095176000518503
 -0.0002732533161974161 -0.002612420147925478 0.0003002489068009033 0.004097747414254786 0.9972214991227755 -0.02095176000518503 0.0025114727509573187 0.00847083141083218
0.037515631513130004 0.002740791021561743 0.010228988827737746 0.9969187247754764 -0.025180030256300837 0.0003822228238348327 0.004918915922962492 -0.00033776376956531646 -0.003139241249296116
 0.9969187247754764 -0.025180030256300837 0.0027422753839509897 0.01022880941576589 -0.0003377278854562863 -0.003139238795982123 0.0003738399355338138 0.004919929158820856
 0.0003822228238348327 0.004918915922962492 -0.0003377278854562863 -0.003139238795982123 0.0027408357441856606 0.0102294851249004 0.9969187339319225 -0.025179529379034584
 -0.00033776376956531646 -0.003139241249296116 0.0003738399355338138 0.004919929158820856 0.9969187339319225 -0.025179529379034584 0.002742248875068183 0.010229314924836443
0.043768236765320004 0.002987637075380882 0.012006062258206598 0.9965932604914737 -0.029422263428115106 0.0004676665216809238 0.005741506914795873 -0.00040988799301574244 -0.0036671073540975826
 0.9965932604914737 -0.029422263428115106 0.00298965613665783 0.012005836672744992 -0.0004098393828791303 -0.0036671050354159917 0.0004562569316881828 0.005742862686373416
 0.0004676665216809238 0.005741506914795873 -0.0004098393828791303 -0.0036671050354159917 0.0029876976401789182 0.01200664056419668 0.9965932726154161 -0.029421679302610332
 -0.00040988799301574244 -0.0036671073540975826 0.0004562569316881828 0.005742862686373416 0.9965932726154161 -0.029421679302610332 0.0029896196770398077 0.012006426692349036
0.050020842017509996 0.0032513307418463996 0.013801276600289963 0.9962447882893909 -0.03367895914417757 0.0005624955122267554 0.006564680496333056 -0.0004897222004470819 -0.004195884292131105
 0.9962447882893909 -0.03367895914417757 0.0032539663633139944 0.013800999414310025 -0.0004896589878467943 -0.004195882314483711 0.000547591797527293 0.006566444356307996
 0.0005624955122267554 0.006564680496333056 -0.0004896589878467943 -0.004195882314483711 0.0032514095565064544 0.013801936686433041 0.9962448037917087 -0.033678291806060655
 -0.0004897222004470819 -0.004195884292131105 0.000547591797527293 0.006566444356307996 0.9962448037917087 -0.033678291806060655 0.0032539183565946325 0.01380167410581261
0.055454545454549996 0.0034944275767509986 0.015375773308167988 0.9959230275880177 -0.037389905981737276 0.000652597674464452 0.0072804255712611 -0.000565435229717873 -0.004656043997529749
 0.9959230275880177 -0.037389905981737276 0.003497665459045101 0.01537544664588567 -0.0005653578159622847 -0.004656042498754857 0.0006342772059718649 0.007282602060102201
 0.000652597674464452 0.0072804255712611 -0.0005653578159622847 -0.004656042498754857 0.0034945242088771722 0.015376504258523774 0.9959230463590885 -0.03738916636042551
 -0.000565435229717873 -0.004656043997529749 0.0006342772059718649 0.007282602060102201 0.9959230463590885 -0.03738916636042551 0.003497606116139568 0.015376195065528632
0.056273447269699996 0.003532202494928362 0.015614206425248616 0.9958729958440422 -0.037950120547514114 0.0006668010207700846 0.0073883194948092526 -0.0005773606217073149 -0.004725439209664564
 0.9958729958440422 -0.037950120547514114 0.0035355364997525086 0.015613871920078046 -0.000577280946578698 -0.004725437798610241 0.000647934923183918 0.007390563115199269
 0.0006668010207700846 0.0073883194948092526 -0.000577280946578698 -0.004725437798610241 0.0035323019702248374 0.015614948040537199 0.9958730151343795 -0.03794937003238997
 -0.0005773606217073149 -0.004725439209664564 0.000647934923183918 0.007390563115199269 0.9958730151343795 -0.03794937003238997 0.0035354753430438747 0.01561463146650471
0.06252605252188 0.003830580378663408 0.017444468604038515 0.9954775705099802 -0.042235696434312915 0.0007806725998283435 0.008212300749371522 -0.0006728954744023503 -0.005255639092094001
 0.9954775705099802 -0.042235696434312915 0.0038346945681492456 0.01744407076793173 -0.0006727974926174673 -0.005255638492275825 0.0007573750455400777 0.008215101991496726
 0.0007806725998283435 0.008212300749371522 -0.0006727974926174673 -0.005255638492275825 0.003830702929855829 0.01744529147288024 0.9954775939984017 -0.04223486277949189
 -0.0006728954744023503 -0.005255639092094001 0.0007573750455400777 0.008215101991496726 0.9954775939984017 -0.04223486277949189 0.003834618653683172 0.017444915372486564
0.06877865777407 0.004146790190952023 0.01929170762387109 0.9950581997766481 -0.04653559587208797 0.0009041979899359876 0.009036496003767755 -0.000776416913448096 -0.005786349892932232
 0.9950581997766481 -0.04653559587208797 0.004151766359524435 0.019291240150252752 -0.0007762987964236624 -0.005786350368040613 0.0008759991247163731 0.009039938988197722
 0.0009041979899359876 0.009036496003767755 -0.0007762987964236624 -0.005786350368040613 0.004146938235777384 0.01929261145530209 0.9950582278719788 -0.04653467910693169
 -0.000776416913448096 -0.005786349892932232 0.0008759991247163731 0.009039938988197722 0.9950582278719788 -0.04653467910693169 0.004151674073414512 0.01929217004599824
0.07503126302626001 0.004481155560169476 0.021155586299820218 0.9946145716205548 -0.050849697428063244 0.0010374629934286326 0.009860772478506469 -0.0008880129678935822 -0.006317435988457453
 0.9946145716205548 -0.050849697428063244 0.004487075511019211 0.02115504258468544 -0.0008878729024046133 -0.006317437821160773 0.0010038922294222353 0.009864947654704989
 0.0010374629934286326 0.009860772478506469 -0.0008878729024046133 -0.006317437821160773 0.004481331521123664 0.021156570774698895 0.9946146047327049 -0.05084869758632425
 -0.0008880129678935822 -0.006317435988457453 0.0010038922294222353 0.009864947654704989 0.9946146047327049 -0.05084869758632425 0.004486965235679175 0.02115605802259516
0.08128386827845 0.004833997963016684 0.023035779571514797 0.9941463748029141 -0.055177855317900024 0.0011805513563782747 0.010684993259807233 -0.0010077694694189772 -0.006848759820873813
 0.9941463748029141 -0.055177855317900024 0.0048409435223024655 0.023035152710701088 -0.0010076056573336174 -0.0068487633127763846 0.001141137427893836 0.010689997475243986
 0.0011805513563782747 0.010684993259807233 -0.0010076056573336174 -0.0068487633127763846 0.004834204264862752 0.02303684435298153 0.9941464133412168 -0.05517677242679317
 -0.0010077694694189772 -0.006848759820873813 0.001141137427893836 0.010689997475243986 0.9941464133412168 -0.05517677242679317 0.0048408136349983805 0.023036253970579918
0.08753647353064001 0.005205636693540811 0.024931970238562966 0.9936532991225205 -0.0595199036217874 0.0013335446564967008 0.011509017570427946 -0.0011357699740793547 -0.007380181665146085
 0.9936532991225205 -0.0595199036217874 0.005213689725564709 0.024931253024215533 -0.0011355806322482802 -0.007380187136733733 0.0012878156832797892 0.011514954138974163
 0.0013335446564967008 0.011509017570427946 -0.0011355806322482802 -0.007380187136733733 0.005205875763878621 0.02493311496170098 0.9936533434963616 -0.05951873771190827
 -0.0011357699740793547 -0.007380181665146085 0.0012878156832797892 0.011514954138974163 0.9936533434963616 -0.05951873771190827 0.005213538599404 0.024932440405032053
0.09378907878283 0.005596388805350357 0.02684384589840358 0.9931350356456183 -0.06387565930429333 0.0014965221941474242 0.012332700978516725 -0.00127209568042056 -0.007911559463415999
 0.9931350356456183 -0.06387565930429333 0.00560563122699889 0.026843030815014435 -0.001271879040580308 -0.007911567253994185 0.0014440057506821678 0.012339679747997807
 0.0014965221941474242 0.012332700978516725 -0.001271879040580308 -0.007911567253994185 0.005596663074667376 0.026845070175615913 0.9931350862646621 -0.06387441040370316
 -0.00127209568042056 -0.007911559463415999 0.0014440057506821678 0.012339679747997807 0.9931350862646621 -0.06387441040370316 0.005605457231502156 0.026844304640923185
0.100041684035 0.006006569032444618 0.028771096712794444 0.9925912769179716 -0.06824492441231461 0.0016695608858722196 0.013155895553435293 -0.001416825344378119 -0.008442748718353224
 0.9925912769179716 -0.06824492441231461 0.006017082827785022 0.02877017593263986 -0.0014165796530702397 -0.008442759185994665 0.001609784075953539 0.013164032972202522
 0.0016695608858722196 0.013155895553435293 -0.0014165796530702397 -0.008442759185994665 0.006006880933067093 0.028772400132392555 0.9925913341918342 -0.06824359254760583
 -0.001416825344378119 -0.008442748718353224 0.001609784075953539 0.013164032972202522 0.9925913341918342 -0.06824359254760583 0.006016884328559265 0.028771536552204824
0.1059090909091 0.006409427570383368 0.030593325507785103 0.9920575569694353 -0.07235711498676717 0.001841156187034182 0.013927797028053399 -0.001560350025250544 -0.008940911096017488
 0.9920575569694353 -0.07235711498676717 0.006421209051416403 0.030592298140637478 -0.0015600754906050529 -0.008940924418134913 0.0017741358498510474 0.013937133562046157
 0.001841156187034182 0.013927797028053399 -0.0015600754906050529 -0.008940924418134913 0.006409776998073696 0.03059470279573037 0.9920576208612368 -0.07235570529397994
 -0.001560350025250544 -0.008940911096017488 0.0017741358498510474 0.013937133562046157 0.9920576208612368 -0.07235570529397994 0.006420986069071773 0.03059374054356814
0.1062942892872 0.006436489692028451 0.030713413729855036 0.9920217171625333 -0.07262748772418978 0.0018527351601254072 0.013978449992229643 -0.0015700351911727014 -0.008973602421726484
 0.9920217171625333 -0.07262748772418978 0.0064483569270615045 0.030712379107922405 -0.0015697587096846104 -0.008973615943217291 0.0017852246963023875 0.013987869174683101
 0.0018527351601254072 0.013978449992229643 -0.0015697587096846104 -0.008973615943217291 0.006436841658427859 0.03071479585275433 0.9920217815013069 -0.07262607292327708
 -0.0015700351911727014 -0.008973602421726484 0.0017852246963023875 0.013987869174683101 0.9920217815013069 -0.07262607292327708 0.006448132286888804 0.030713826891370165
0.11254689453939999 0.006886460577382724 0.032670487600092474 0.9914260524708998 -0.07702312601211937 0.0020461168533850334 0.014800209730333061 -0.001731798826579945 -0.009503971004899548
 0.9914260524708998 -0.07702312601211937 0.006899763414676264 0.032669330668328944 -0.0017314898309177531 -0.009503987975688152 0.001970399140291083 0.014811040521215048
 0.0020461168533850334 0.014800209730333061 -0.0017314898309177531 -0.009503987975688152 0.006886855045184177 0.03267194796354774 0.9914261242848484 -0.07702162830010241
 -0.001731798826579945 -0.009503971004899548 0.001970399140291083 0.014811040521215048 0.9914261242848484 -0.07702162830010241 0.0068995109931476025 0.03267086601189027
0.11879949979160001 0.007356788840207174 0.03464200758739142 0.990803980986987 -0.08143160501666653 0.0022497751084495617 0.01562101703014943 -0.0019021871453741462 -0.010033702317600927
 0.990803980986987 -0.08143160501666653 0.007371609553538716 0.03464071954843709 -0.0019018439262228372 -0.010033723151739442 0.0021653763301590257 0.015633396067641518
 0.0022497751084495617 0.01562101703014943 -0.0019018439262228372 -0.010033723151739442 0.007357228246230158 0.034643545700637456 0.990804060686671 -0.08143002441978003
 -0.0019021871453741462 -0.010033702317600927 0.0021653763301590257 0.015633396067641518 0.990804060686671 -0.08143002441978003 0.007371327708132864 0.03464234287056937
0.1250521050438 0.007847778865122165 0.036627660781198744 0.9901552030858843 -0.08585268022783672 0.0024637762726635046 0.01644071106917568 -0.00208126823977577 -0.010562641613495329
 0.9901552030858843 -0.08585268022783672 0.007864199854503711 0.03662623250139543 -0.002080889102585311 -0.010562666743570004 0.002370222483299699 0.016454781846585862
 0.0024637762726635046 0.01644071106917568 -0.002080889102585311 -0.010562666743570004 0.007848265646949418 0.0366292761272055 0.9901552910824292 -0.08585101677123583
 -0.00208126823977577 -0.010562641613495329 0.002370222483299699 0.016454781846585862 0.9901552910824292 -0.08585101677123583 0.007863886940265187 0.03662794424516482
0.131304710296 0.008359732139198049 0.03862713147927536 0.989479421550713 -0.09028609750319609 0.00268818379710437 0.01725912801442287 -0.0022691073068616782 -0.011090631555849618
 0.989479421550713 -0.09028609750319609 0.008377835945152767 0.03862555348116912 -0.002268690571696508 -0.011090661432928039 0.002585001014808516 0.017275040940544474
 0.00268818379710437 0.01725912801442287 -0.002268690571696508 -0.011090661432928039 0.00836026873438126 0.0386288235157668 0.9894795182554504 -0.09028435120954258
 -0.0022691073068616782 -0.011090631555849618 0.002585001014808516 0.017275040940544474 0.9894795182554504 -0.09028435120954258 0.008377490315598347 0.03862735411574172
0.1375573155481 0.00877703924433775 0.04038064804149798 0.9888922956445583 -0.09447202874020104 0.002895569515278865 0.01805073871031984 -0.002438397487942788 -0.011592078435760132
 0.9888922956445583 -0.09447202874020104 0.008796914055500742 0.04037894449038671 -0.00243794050349565 -0.011592113105326452 0.0027825143116862803 0.018068474896601103
 0.002895569515278865 0.01805073871031984 -0.00243794050349565 -0.011592113105326452 0.008777627241967954 0.04038241661629797 0.9888924014486764 -0.09447019967283253
 -0.002438397487942788 -0.011592078435760132 0.0027825143116862803 0.018068474896601103 0.9888924014486764 -0.09447019967283253 0.008796534954848854 0.040380834176027586
0.1438099208003 0.009209089611884946 0.0421246676029168 0.9882844038003961 -0.09864705873116089 0.003111330632980437 0.01883886156255828 -0.00261444006513618 -0.012090370746569304
 0.9882844038003961 -0.09864705873116089 0.009230818997626431 0.04212283111059972 -0.0026139409980289025 -0.012090410658078457 0.0029879706155332216 0.018858559093940457
 0.003111330632980437 0.01883886156255828 -0.0026139409980289025 -0.012090410658078457 0.009209731298285827 0.042126512205673705 0.9882845191109563 -0.0986451469241097
 -0.00261444006513618 -0.012090370746569304 0.0029879706155332216 0.018858559093940457 0.9882845191109563 -0.0986451469241097 0.009230404938832346 0.0421248103011646
0.1500625260525 0.009655726886466836 0.04385903602838101 0.9876559065708986 -0.10281107477509775 0.003335390155924043 0.019623407147620883 -0.0027971611919103386 -0.012585426100949228
 0.9876559065708986 -0.10281107477509775 0.009679394578501584 0.043857058800524325 -0.0027966182111958207 -0.012585471722261748 0.0032012955593239707 0.019645209172210916
 0.003335390155924043 0.019623407147620883 -0.0027966182111958207 -0.012585471722261748 0.009656424538579147 0.04386095613069359 0.9876560317948817 -0.10280908026302604
 -0.0027971611919103386 -0.012585426100949228 0.0032012955593239707 0.019645209172210916 0.9876560317948817 -0.10280908026302604 0.009678944083776243 0.043859127968281286
0.15631513130469998 0.010116793557734441 0.045583603806922536 0.9870069653729441 -0.10696396475789727 0.0035676701462959244 0.020404287612925592 -0.002986486086755103 -0.01307716389837156
 0.9870069653729441 -0.10696396475789727 0.010142483454806436 0.04558147763543426 -0.00298589736407317 -0.013077215715728494 0.003422413873545101 0.020428342289176452
