! Created with skrf 1.8.0 (http://scikit-rf.org).
# GHz S RI R 50.0 
!freq ReS11 ImS11 ReS12 ImS12 ReS13 ImS13
! ReS14 ImS14
! ReS21 ImS21 ReS22 ImS22 ReS23 ImS23
! ReS24 ImS24
! ReS31 ImS31 ReS32 ImS32 ReS33 ImS33
! ReS34 ImS34
! ReS41 ImS41 ReS42 ImS42 ReS43 ImS43
! ReS44 ImS44
!
0.0 0.001423195018179 0.0 0.9985768049745 0.0 5.506742123659e-05 0.0 -5.506742107003e-05 6.743814095071176e-21
 0.9985768049745 0.0 0.001423195018216 0.0 -5.506742107099e-05 6.743814095188742e-21 5.50674212374e-05 0.0
 5.506742123659e-05 0.0 -5.506742107099e-05 6.743814095188742e-21 0.001423195015635 0.0 0.998576804972 0.0
 -5.506742107003e-05 6.743814095071176e-21 5.50674212374e-05 0.0 0.998576804972 0.0 0.001423195015624 0.0
0.005 0.0015309946298337838 0.0011575378784387262 0.9984404474418664 -0.0029820308404181805 7.80413270394179e-05 0.0006487197563582965 -7.555027701382456e-05 -0.00039992720135248303
 0.9984404474418664 -0.0029820308404181805 0.0015310073813061846 0.0011575303803947332 -7.554814684730647e-05 -0.0003999255354661286 7.79759561152517e-05 0.0006487447266771389
 7.80413270394179e-05 0.0006487197563582965 -7.554814684730647e-05 -0.0003999255354661286 0.0015309962101133937 0.0011576041831414708 0.998440447794544 -0.0029819637832002796
 -7.555027701382456e-05 -0.00039992720135248303 7.79759561152517e-05 0.0006487447266771389 0.998440447794544 -0.0029819637832002796 0.0015310065052216244 0.001157598190246444
0.006252605252188 0.0015591725056933584 0.0014515215513703863 0.9984045899879346 -0.003728285698193798 8.455957266291359e-05 0.0008112001826679657 -8.129501415785052e-05 -0.0005004414423475369
 0.9984045899879346 -0.003728285698193798 0.0015591924388227909 0.0014515120136356016 -8.129169966121367e-05 -0.0005004393873611335 8.445743705640126e-05 0.0008112325801843895
 8.455957266291359e-05 0.0008112001826679657 -8.129169966121367e-05 -0.0005004393873611335 0.0015591748899771946 0.0014516044291179853 0.9984045904529465 -0.003728201875490449
 -8.129501415785052e-05 -0.0005004414423475369 8.445743705640126e-05 0.0008112325801843895 0.9984045904529465 -0.003728201875490449 0.0015591909825284588 0.0014515967812177757
0.01250521050438 0.0017069559020413483 0.002933847501970592 0.9982153299839629 -0.007457506328737047 0.00012170028190484595 0.001622666795510839 -0.00011368421468353162 -0.0010034114926437336
 0.9982153299839629 -0.007457506328737047 0.0017070355005329256 0.002933826754536743 -0.00011367115480785661 -0.0010034076806534201 0.00012129300583125431 0.001622744317002569
 0.00012170028190484595 0.001622666795510839 -0.00011367115480785661 -0.0010034076806534201 0.00170696488269681 0.0029340129517585393 0.9982153312957176 -0.007457338935630284
 -0.00011368421468353162 -0.0010034114926437336 0.00012129300583125431 0.001622744317002569 0.9982153312957176 -0.007457338935630284 0.0017070291345988124 0.002933996086782356
0.01875781575657 0.0018668493893651322 0.004437614848056627 0.9980088031094732 -0.011196765598787264 0.00016657139443096937 0.0024350025835337087 -0.00015233155411937518 -0.0015081411239312092
 0.9980088031094732 -0.011196765598787264 0.0018670282607859798 0.004437581085738439 -0.00015230243286039588 -0.0015081359051365142 0.00016565652835717526 0.002435140316793586
 0.00016657139443096937 0.0024350025835337087 -0.00015230243286039588 -0.0015081359051365142 0.0018668691580430814 0.004437862680059333 0.9980088056357469 -0.011196514738903842
 -0.00015233155411937518 -0.0015081411239312092 0.00016565652835717526 0.002435140316793586 0.9980088056357469 -0.011196514738903842 0.001867013522929211 0.004437834956612
0.02501042100875 0.0020391491583503815 0.005960723726646922 0.9977847793288233 -0.014947895554006874 0.00021925632020300357 0.0032482650443103928 -0.00019733058102906894 -0.00201440172424167
 0.9977847793288233 -0.014947895554006874 0.002039466834580291 0.005960675023343414 -0.00019727915822374963 -0.0020143955075502397 0.00021763134659589752 0.003248480344378952
 0.00021925632020300357 0.0032482650443103928 -0.00019727915822374963 -0.0020143955075502397 0.002039183908518163 0.00596105376035375 0.9977847834407969 -0.014947561290425687
 -0.00019733058102906894 -0.00201440172424167 0.00021763134659589752 0.003248480344378952 0.9977847834407969 -0.014947561290425687 0.0020394402665962815 0.005961013473709466
0.03126302626094 0.0022241390399276844 0.007502102798437841 0.9975430162245686 -0.018711691168664373 0.00027983924700758153 0.004062432203801815 -0.00024877229807599593 -0.002522039279012509
 0.9975430162245686 -0.018711691168664373 0.002224634997256445 0.007502037108900168 -0.0002486923963217881 -0.002522032532859136 0.00027730138244372863 0.004062744704802565
 0.00027983924700758153 0.004062432203801815 -0.0002486923963217881 -0.002522032532859136 0.002224192964811643 0.0075025148322865245 0.9975430222933934 -0.018711273554045255
 -0.00024877229807599593 -0.002522039279012509 0.00027730138244372863 0.004062744704802565 0.9975430222933934 -0.018711273554045255 0.0022245931394444395 0.00750246021638631
0.037515631513130004 0.0024220968191926676 0.009061060562716043 0.9972832654783842 -0.02248855897446105 0.0003484042363169725 0.004877451007928636 -0.0003067458880636217 -0.0030309259710630523
 0.9972832654783842 -0.02248855897446105 0.0024228104908042684 0.0090609757231954 -0.00030663138591451516 -0.003030919223655755 0.0003447503386850029 0.004877882645822185
 0.0003484042363169725 0.004877451007928636 -0.00030663138591451516 -0.003030919223655755 0.0024221741095643433 0.009061554380923495 0.9972832738726174 -0.022488058043808656
 -0.0003067458880636217 -0.0030309259710630523 0.0003447503386850029 0.004877882645822185 0.9972832738726174 -0.022488058043808656 0.0024227498787309223 0.009061483609582371
0.043768236765320004 0.002633296674245444 0.010637087965070373 0.9970052754798892 -0.026278714388848587 0.00042503480970882426 0.005693252049684617 -0.0003713389800620385 -0.0035409454468120845
 0.9970052754798892 -0.026278714388848587 0.0026342674598147553 0.01063698169339873 -0.0003711838079691987 -0.0035409392862286253 0.0004200613302215668 0.005693827088473971
 0.00042503480970882426 0.005693252049684617 -0.0003711838079691987 -0.0035409392862286253 0.0026334015230302134 0.01063766331571615 0.9970052865693699 -0.026278130180886615
 -0.0003713389800620385 -0.0035409454468120845 0.0004200613302215668 0.005693827088473971 0.9970052865693699 -0.026278130180886615 0.0026341846283063244 0.01063757450346392
0.050020842017509996 0.002858010319063615 0.012229776799861057 0.9967087926420775 -0.030082263246418366 0.0005098137081056004 0.006509755641833173 -0.00044263775240692405 -0.004051986738738622
 0.9967087926420775 -0.030082263246418366 0.0028592775931783735 0.012229646695253917 -0.0004424358901125817 -0.0040519818129426885 0.0005033166668129747 0.00651050070127569
 0.0005098137081056004 0.006509755641833173 -0.0004424358901125817 -0.0040519818129426885 0.002858146919813427 0.012230433407076361 0.9967088067967026 -0.03008159579084986
 -0.00044263775240692405 -0.004051986738738622 0.0005033166668129747 0.00651050070127569 0.9967088067967026 -0.03008159579084986 0.0028591690743209304 0.012230324609885435
0.055454545454549996 0.003064477748852471 0.013627131898895197 0.9964359237585856 -0.03339856899854277 0.0005901701266043725 0.007219825153288654 -0.0005101102430193867 -0.00449684260225461
 0.9964359237585856 -0.03339856899854277 0.003066034643297598 0.013626979040600179 -0.0005098629532556229 -0.004496839322277988 0.0005821830647956685 0.007220741435277522
 0.0005901701266043725 0.007219825153288654 -0.0005098629532556229 -0.004496839322277988 0.003064645348502795 0.013627858871447029 0.996435940876674 -0.033397829221403164
 -0.0005101102430193867 -0.00449684260225461 0.0005821830647956685 0.007220741435277522 0.996435940876674 -0.033397829221403164 0.0030659009821810933 0.013627731082786775
0.056273447269699996 0.0030965075942856347 0.013838779682701535 0.9963935621686439 -0.03389924176089212 0.0006028227246952511 0.007326874797816443 -0.0005207269651840448 -0.004563941281957981
 0.9963935621686439 -0.03389924176089212 0.003098110713404775 0.013838623225368737 -0.0005204724398921393 -0.004563938298816347 0.0005945977005095838 0.007327818881816212
 0.0006028227246952511 0.007326874797816443 -0.0005204724398921393 -0.004563938298816347 0.0030966801403508374 0.013839517238801237 0.9963935797575907 -0.03389849108567829
 -0.0005207269651840448 -0.004563941281957981 0.0005945977005095838 0.007327818881816212 0.9963935797575907 -0.03389849108567829 0.003097973035891581 0.013839386454506894
0.06252605252188 0.0033490567863238957 0.015463788023981807 0.996059328552235 -0.0377296384876242 0.0007041425751409265 0.0081445168701997 -0.0006056899565462317 -0.005076701275951407
 0.996059328552235 -0.0377296384876242 0.003351035095725086 0.015463602574661943 -0.0006053768416569261 -0.005076701003224148 0.0006939847050248073 0.00814569139559362
 0.0007041425751409265 0.0081445168701997 -0.0006053768416569261 -0.005076701003224148 0.0033492694716234553 0.015464606193394851 0.9960593499447787 -0.037728804614623336
 -0.0006056899565462317 -0.005076701275951407 0.0006939847050248073 0.00814569139559362 0.9960593499447787 -0.037728804614623336 0.0033508647858202707 0.015464451362050474
0.06877865777407 0.003615924804579581 0.017104518912247478 0.9957058359342326 -0.041573407378943925 0.0008138527894307664 0.008962584528425478 -0.0006976086172118796 -0.005590158709975114
 0.9957058359342326 -0.041573407378943925 0.0036183176446099885 0.01710430171132013 -0.0006972310314163595 -0.005590161975280285 0.0008015567741419588 0.00896402335392639
 0.0008138527894307664 0.008962584528425478 -0.0006972310314163595 -0.005590161975280285 0.0036161818234487875 0.017105417325089432 0.9957058615000229 -0.041572490329554
 -0.0006976086172118796 -0.005590158709975114 0.0008015567741419588 0.00896402335392639 0.9957058615000229 -0.041572490329554 0.0036181112263077827 0.01710523632911523
0.07503126302626001 0.00389737726927556 0.018760706786784005 0.9953328283780529 -0.04543047605279207 0.000932031615749523 0.009780976376936836 -0.0007965633522192177 -0.00610420475125129
 0.9953328283780529 -0.04543047605279207 0.0039002239816785843 0.018760454953457118 -0.0007961154588586945 -0.006104212442061819 0.0009173917305680608 0.009782715832110964
 0.000932031615749523 0.009780976376936836 -0.0007961154588586945 -0.006104212442061819 0.0038976828160341035 0.018761685038633232 0.9953328584867439 -0.04542947584777033
 -0.0007965633522192177 -0.00610420475125129 0.0009173917305680608 0.009782715832110964 0.9953328584867439 -0.04542947584777033 0.003899977976741611 0.018761475702775386
0.08128386827845 0.004193678545874887 0.020432097901041748 0.9949400500925307 -0.04930075127415366 0.0010587559312455399 0.010599587371729087 -0.0009026330349702021 -0.006618729338106714
 0.9949400500925307 -0.04930075127415366 0.004197018480131006 0.02043180843213393 -0.0009021090416458067 -0.006618742401700173 0.0010415660404259307 0.010601666285925827
 0.0010587559312455399 0.010599587371729087 -0.0009021090416458067 -0.006618742401700173 0.004194036815055724 0.02043315555572923 0.9949400851145731 -0.04929966793016149
 -0.0009026330349702021 -0.006618729338106714 0.0010415660404259307 0.010601666285925827 0.9949400851145731 -0.04929966793016149 0.004196729408364014 0.02043291564688527
0.08753647353064001 0.0045050917446365826 0.022118446494791087 0.9945272456226204 -0.053184122730882646 0.0011941011583708214 0.011418309109308623 -0.0010158949547733817 -0.007133620904153742
 0.9945272456226204 -0.053184122730882646 0.004508964263529103 0.022118116263585275 -0.001015289112954975 -0.007133640347591214 0.0011741547326209792 0.011420768840492061
 0.0011941011583708214 0.011418309109308623 -0.001015289112954975 -0.007133640347591214 0.0045055069297372215 0.022119583082662046 0.994527285928366 -0.05318295626172518
 -0.0010158949547733817 -0.007133620904153742 0.0011741547326209792 0.011420768840492061 0.994527285928366 -0.05318295626172518 0.004508628642829445 0.02211931030947519
0.09378907878283 0.004831878693380017 0.023819512057899093 0.9940941600173232 -0.05708046572202143 0.0013381411841804029 0.012237030036928246 -0.0011364247603082949 -0.007648766184806125
 0.9940941600173232 -0.05708046572202143 0.0048363231795269706 0.023819137812571133 -0.0011357313652636135 -0.007648793074880289 0.001315231320530718 0.01223991450037745
 0.0013381411841804029 0.012237030036928246 -0.0011357313652636135 -0.007648793074880289 0.004832354987481764 0.023820727071824786 0.9940942059777861 -0.057079216141966
 -0.0011364247603082949 -0.007648766184806125 0.001315231320530718 0.01223991450037745 0.9940942059777861 -0.057079216141966 0.004835937526275982 0.02382041908413836
0.100041684035 0.005174299894079283 0.02553505731998579 0.9936405389830796 -0.060989643123791584 0.0014909482814809537 0.013055635609886271 -0.0012642964002518807 -0.008164050080513047
 0.9936405389830796 -0.060989643123791584 0.005179355755544695 0.025534635681982578 -0.0012635097909121857 -0.00816408554370028 0.0014648677254164356 0.013058991306588597
 0.0014909482814809537 0.013055635609886271 -0.0012635097909121857 -0.00816408554370028 0.005174841489249778 0.025536350218742464 0.9936405909700686 -0.06098831044374238
 -0.0012642964002518807 -0.008164050080513047 0.0014648677254164356 0.013058991306588597 0.9936405909700686 -0.06098831044374238 0.005178916585035814 0.025536004606847316
0.1059090909091 0.005510075892658489 0.027157873889793002 0.9931959611890973 -0.0646695324789547 0.001642377985672887 0.01382360064906244 -0.0013910320160647938 -0.008647611207122203
 0.9931959611890973 -0.0646695324789547 0.005515741334236621 0.02715740459156149 -0.001390152825195975 -0.00864765579291363 0.0016131332832673114 0.013827443168520678
 0.001642377985672887 0.01382360064906244 -0.001390152825195975 -0.00864765579291363 0.005510682576861627 0.027159239348821664 0.9931960191695894 -0.06466812182847805
 -0.0013910320160647938 -0.008647611207122203 0.0016131332832673114 0.013827443168520678 0.9931960191695894 -0.06466812182847805 0.00551524877306543 0.027158856185106838
0.1062942892872 0.005532614465520807 0.027264846746875977 0.9931661290270516 -0.06491150685314695 0.001652593031859368 0.013874008414177477 -0.0013995820610849783 -0.008679355558373365
 0.9931661290270516 -0.06491150685314695 0.005538321141926122 0.027264374209108978 -0.0013986966200228016 -0.008679400780790724 0.001623134201267634 0.01387788445913909
 0.001652593031859368 0.013874008414177477 -0.0013986966200228016 -0.008679400780790724 0.005533225551926286 0.027266216951258384 0.9931661874125137 -0.06491009108387281
 -0.0013995820610849783 -0.008679355558373365 0.001623134201267634 0.01387788445913909 0.9931661874125137 -0.06491009108387281 0.005537824968290082 0.02726583124492048
0.11254689453939999 0.005907080076013751 0.029008645382545165 0.9926706775922001 -0.06884589898997348 0.0018231442492764613 0.014692028265819532 -0.0015423521034252329 -0.009194563581061547
 0.9926706775922001 -0.06884589898997348 0.0059134770446367 0.029008118307300892 -0.0015413622569504283 -0.009194619808395836 0.0017900992599310212 0.014696476415981747
 0.0018231442492764613 0.014692028265819532 -0.0015413622569504283 -0.009194619808395836 0.005907764842283898 0.029010092277318985 0.9926707427492936 -0.0688444001396977
 -0.0015423521034252329 -0.009194563581061547 0.0017900992599310212 0.014696476415981747 0.9926707427492936 -0.0688444001396977 0.0059129203816141625 0.029009663944633366
0.11879949979160001 0.006297952868594691 0.030766217954133864 0.9921539331881865 -0.07279265264068502 0.002002668904781716 0.015509572291514893 -0.0016926749963656765 -0.00970955305840384
 0.9921539331881865 -0.07279265264068502 0.006305079650366291 0.03076563257077298 -0.0016915752146050502 -0.009709621595849583 0.0019658295974716005 0.015514646973451411
 0.002002668904781716 0.015509572291514893 -0.0016915752146050502 -0.009709621595849583 0.0062987155007829245 0.030767740886727502 0.9921540054906729 -0.07279107071574081
 -0.0016926749963656765 -0.00970955305840384 0.0019658295974716005 0.015514646973451411 0.9921540054906729 -0.07279107071574081 0.006304459011238676 0.03076726733269092
0.1250521050438 0.006705487379516828 0.03253732815831614 0.9916156455173936 -0.07675159262490393 0.00219123205135679 0.016326514998981377 -0.001850617251041948 -0.010224200813446776
 0.9916156455173936 -0.07675159262490393 0.006713383544975968 0.03253668056093063 -0.001849402048105035 -0.010224283025638187 0.002150390020240012 0.01633227333619276
 0.00219123205135679 0.016326514998981377 -0.001849402048105035 -0.010224283025638187 0.006706332060933732 0.032538926437189246 0.9916157253398755 -0.07674992763093089
 -0.001850617251041948 -0.010224200813446776 0.002150390020240012 0.01633227333619276 0.9916157253398755 -0.07674992763093089 0.006712695443120653 0.03253840500214928
0.131304710296 0.007129936451607522 0.03432173809821719 0.991055565598956 -0.080722536016427 0.002388896749376487 0.01714272833830072 -0.002016243352915653 -0.010738381561558577
 0.991055565598956 -0.080722536016427 0.007138641627244333 0.03432102424280447 -0.002014907287081883 -0.010738478872469568 0.002343843371549693 0.01714923017827469
 0.002388896749376487 0.01714272833830072 -0.002014907287081883 -0.010738478872469568 0.007130867362435289 0.03432341099377321 0.9910556533171112 -0.08072078795685542
 -0.002016243352915653 -0.010738381561558577 0.002343843371549693 0.01714923017827469 0.9910556533171112 -0.08072078795685542 0.007137882576529642 0.034322838951544615
0.1375573155481 0.007471474176580563 0.035884537012487935 0.9905735560560883 -0.08447053616588333 0.002570242922161372 0.01793379480615789 -0.002164189803653312 -0.011227659196980785
 0.9905735560560883 -0.08447053616588333 0.007481030114834979 0.035883768483122094 -0.0021627247626284513 -0.011227771626686431 0.002520870440838462 0.017941028146064335
 0.002570242922161372 0.01793379480615789 -0.0021627247626284513 -0.011227771626686431 0.007472494856172626 0.03588628394095322 0.990573652025724 -0.08446870508081061
 -0.002164189803653312 -0.011227659196980785 0.002520870440838462 0.017941028146064335 0.990573652025724 -0.08446870508081061 0.007480197309611323 0.035885673976285136
0.1438099208003 0.007824916361584406 0.037439498996038094 0.9900747785024447 -0.08820947213310326 0.002758937884708563 0.018721999736735363 -0.00231808042061381 -0.011714343123377711
 0.9900747785024447 -0.08820947213310326 0.007835363073412377 0.0374386727962237 -0.002316480544976978 -0.011714472064577016 0.0027050556179566737 0.018730019102470002
 0.002758937884708563 0.018721999736735363 -0.002316480544976978 -0.011714472064577016 0.007826030870578213 0.03744131922800865 0.9900748830958445 -0.08820755803348461
 -0.00231808042061381 -0.011714343123377711 0.0027050556179566737 0.018730019102470002 0.9900748830958445 -0.08820755803348461 0.007834453151978447 0.03744066967344028
0.1500625260525 0.008190144222039503 0.038986506780606674 0.989559355438409 -0.09193926438117835 0.0029549214552456182 0.019507273108812655 -0.002477857079690526 -0.012198367240493141
 0.989559355438409 -0.09193926438117835 0.008201521781927205 0.038985619754718634 -0.0024761165201865653 -0.01219851414182692 0.002896339684035905 0.019516135026167388
 0.0029549214552456182 0.019507273108812655 -0.0024761165201865653 -0.01219851414182692 0.0081913566107395 0.03898839955717169 0.9895594690283275 -0.09193726727949274
 -0.002477857079690526 -0.012198367240493141 0.002896339684035905 0.019516135026167388 0.9895594690283275 -0.09193726727949274 0.008200531390998597 0.03898770863859575
0.15631513130469998 0.008567038193749195 0.04052544670644317 0.9890274099182719 -0.09565983339038951 0.00315813278587617 0.02028954599072621 -0.002643460979377873 -0.012679666794473445
 0.9890274099182719 -0.09565983339038951 0.008579386741967059 0.04052449553707047 -0.0026415738969339277 -0.012679833160331973 0.0030946627663794705 0.020299308967265683
