! Created with skrf 1.8.0 (http://scikit-rf.org).
# GHz S RI R 50.0 
!freq ReS11 ImS11 ReS12 ImS12 ReS13 ImS13
! ReS14 ImS14
! ReS21 ImS21 ReS22 ImS22 ReS23 ImS23
! ReS24 ImS24
! ReS31 ImS31 ReS32 ImS32 ReS33 ImS33
! ReS34 ImS34
! ReS41 ImS41 ReS42 ImS42 ReS43 ImS43
! ReS44 ImS44
!
0.0 0.001500946183469 0.0 0.9984990538165 0.0 5.80147106894e-05 0.0 -5.801471057992e-05 7.104752961515911e-21
 0.9984990538165 0.0 0.001500946183461 0.0 -5.801471057981e-05 7.10475296150244e-21 5.801471069238e-05 0.0
 5.80147106894e-05 0.0 -5.801471057981e-05 7.10475296150244e-21 0.001500946170893 0.0 0.998499053804 0.0
 -5.801471057992e-05 7.104752961515911e-21 5.801471069238e-05 0.0 0.998499053804 0.0 0.001500946170898 0.0
0.005 0.001614814822367722 0.001224391389880924 0.9983550030227634 -0.003144462035865614 8.175298440912972e-05 0.0006606965812608141 -7.928137336777312e-05 -0.00041098067218626024
 0.9983550030227634 -0.003144462035865614 0.0016148222831931988 0.0012243869804036526 -7.927856162212085e-05 -0.0004109784926424539 8.17159319653001e-05 0.0006607106688462384
 8.175298440912972e-05 0.0006606965812608141 -7.927856162212085e-05 -0.0004109784926424539 0.0016148167176991777 0.0012244575126637335 0.9983550033812671 -0.003144394978953441
 -7.928137336777312e-05 -0.00041098067218626024 8.17159319653001e-05 0.0006607106688462384 0.9983550033812671 -0.003144394978953441 0.0016148211013727544 0.0012244549692277244
0.006252605252188 0.0016446439066961243 0.0015353272480273853 0.9983170331241784 -0.003931353590064541 8.851590130199714e-05 0.0008261829783867084 -8.527233845703553e-05 -0.000514264109670258
 0.9983170331241784 -0.003931353590064541 0.0016446555698825176 0.0015353216669120686 -8.526796328388442e-05 -0.0005142614217429802 8.845800982254976e-05 0.0008262012720308288
 8.851590130199714e-05 0.0008261829783867084 -8.526796328388442e-05 -0.0005142614217429802 0.0016446467853843986 0.0015354098950602461 0.9983170336001578 -0.003931269770046073
 -8.527233845703553e-05 -0.000514264109670258 8.845800982254976e-05 0.0008262012720308288 0.9983170336001578 -0.003931269770046073 0.0016446536376578341 0.001535406654732418
0.01250521050438 0.0018014657358583182 0.003103000081215929 0.9981161096604715 -0.007863564872380433 0.0001271991740994021 0.0016526726108540121 -0.00011919224282136789 -0.0010310634737685524
 0.9981161096604715 -0.007863564872380433 0.0018015123156588553 0.003102988210394307 -0.00011917500212989505 -0.0010310584971427704 0.00012696830379449957 0.0016527165635045265
 0.0001271991740994021 0.0016526726108540121 -0.00011917500212989505 -0.0010310584971427704 0.001801476689751897 0.00310316505845926 0.998116111016084 -0.00786339747489617
 -0.00011919224282136789 -0.0010310634737685524 0.00012696830379449957 0.0016527165635045265 0.998116111016084 -0.00786339747489617 0.0018015040483327486 0.0031031579774530222
0.01875781575657 0.001971747723239212 0.004693137719670872 0.9978960383071037 -0.011806214719105625 0.00017415265966484308 0.002480049341174663 -0.00015987781899685227 -0.0015496285302213685
 0.9978960383071037 -0.011806214719105625 0.0019718524061007664 0.004693118765616626 -0.000159839373380195 -0.001549621738671361 0.00017363400538337244 0.0024801277244085517
 0.00017415265966484308 0.002480049341174663 -0.000159839373380195 -0.001549621738671361 0.0019717719212528463 0.004693384803523398 0.9978960409300044 -0.01180596383333516
 -0.00015987781899685227 -0.0015496285302213685 0.00017363400538337244 0.0024801277244085517 0.9978960409300044 -0.01180596383333516 0.0019718333921612706 0.004693373276004603
0.02501042100875 0.0021558163263521914 0.006303513562121848 0.9976565644576058 -0.015761219934279928 0.0002294658387408435 0.003308356246366103 -0.00020742912583776279 -0.0020697215689909417
 0.9976565644576058 -0.015761219934279928 0.002156002262377774 0.006303486655538948 -0.00020736123578546186 -0.0020697135193181167 0.00022854453410024386 0.0033084791889628007
 0.0002294658387408435 0.003308356246366103 -0.00020736123578546186 -0.0020697135193181167 0.002155858940959397 0.0063038425069322735 0.9976565687453095 -0.01576088561330755
 -0.00020742912583776279 -0.0020697215689909417 0.00022854453410024386 0.0033084791889628007 0.9976565687453095 -0.01576088561330755 0.002155968100405459 0.006303825926424791
0.03126302626094 0.0023539844661680056 0.007932984500718637 0.9973974203004704 -0.019729403911287746 0.0002932287382845594 0.004137557782613792 -0.00026194340615181123 -0.0025911779746356964
 0.9973974203004704 -0.019729403911287746 0.0023542747811453163 0.007932948697789426 -0.0002618379149169658 -0.002591169307712353 0.000291789749426951 0.004137736778529719
 0.0002932287382845594 0.004137557782613792 -0.0002618379149169658 -0.002591169307712353 0.0023540506599700377 0.007933395031597798 0.997397426644923 -0.0197289861789512
 -0.00026194340615181123 -0.0025911779746356964 0.000291789749426951 0.004137736778529719 0.997397426644923 -0.0197289861789512 0.0023542210625342383 0.007933372792480532
0.037515631513130004 0.0025665583174433156 0.009580807284340636 0.9971183318143119 -0.023711180210035356 0.0003655310182057706 0.004967587456285776 -0.0003235158199187931 -0.0031138585541486317
 0.9971183318143119 -0.023711180210035356 0.00256697612063357 0.009580761567078985 -0.00032336464474608413 -0.0031138499952481566 0.0003634590962381506 0.004967835378496265
 0.0003655310182057706 0.004967587456285776 -0.00032336464474608413 -0.0031138499952481566 0.002566653252388395 0.009581299078070642 0.9971183406111399 -0.02371067907952725
 -0.0003235158199187931 -0.0031138585541486317 0.0003634590962381506 0.004967835378496265 0.9971183406111399 -0.02371067907952725 0.0025668984370088104 0.009581270576609806
0.043768236765320004 0.002793839939865521 0.011246430470517437 0.9968190216057644 -0.027706760537039285 0.0004464615473949419 0.005798362315152487 -0.00039223970602224995 -0.003637635045164885
 0.9968190216057644 -0.027706760537039285 0.0027944083299353386 0.011246373746640252 -0.00039203483290918285 -0.003637627404070831 0.0004436412058244307 0.005798693431293628
 0.0004464615473949419 0.005798362315152487 -0.00039203483290918285 -0.003637627404070831 0.0027939687742790384 0.011247003156558438 0.9968190332514711 -0.027706176009196996
 -0.00039223970602224995 -0.003637635045164885 0.0004436412058244307 0.005798693431293628 0.9968190332514711 -0.027706176009196996 0.0027943022695711365 0.011246967791780946
0.050020842017509996 0.003036128497119034 0.01292940844544093 0.9964992103388197 -0.0317162406554138 0.0005361081488235419 0.006629788934862609 -0.0004682066797453057 -0.004162384130931089
 0.9964992103388197 -0.0317162406554138 0.003036870567054293 0.012929339548117811 -0.0004679401601215933 -0.004162378301969848 0.0005324236542989316 0.006630218923629019
 0.0005361081488235419 0.006629788934862609 -0.0004679401601215933 -0.004162378301969848 0.003036296385432571 0.012930061605780876 0.9964992252303563 -0.03171557271811251
 -0.0004682066797453057 -0.004162384130931089 0.0005324236542989316 0.006630218923629019 0.9964992252303563 -0.03171557271811251 0.0030367317139291384 0.012930018780300647
0.055454545454549996 0.0032591026975926775 0.014405763711717421 0.9962044175070027 -0.0352119071358561 0.0006211595678713014 0.007352774921567393 -0.0005401764297947866 -0.004619102619060765
 0.9962044175070027 -0.0352119071358561 0.0032600144535009806 0.014405683229480085 -0.0005398499313228744 -0.004619099156869732 0.0006166299158169644 0.007353304675117617
 0.0006211595678713014 0.007352774921567393 -0.0005398499313228744 -0.004619099156869732 0.0032593087091584067 0.014406486424342953 0.9962044355441856 -0.03521116669886926
 -0.0005401764297947866 -0.004619102619060765 0.0006166299158169644 0.007353304675117617 0.9962044355441856 -0.03521116669886926 0.0032598435145025874 0.014406436633357552
0.056273447269699996 0.003293720886167827 0.014629359219823172 0.9961586175773055 -0.03573964252003761 0.0006345574206325315 0.007461766362385353 -0.0005515066555964529 -0.0046879845012418354
 0.9961586175773055 -0.03573964252003761 0.0032946597272120503 0.01462927690727084 -0.0005511706039863386 -0.004687981463292811 0.0006298927916009826 0.007462312330235062
 0.0006345574206325315 0.007461766362385353 -0.0005511706039863386 -0.004687981463292811 0.0032939329802954857 0.014630092382870713 0.9961586361147236 -0.03573889115375033
 -0.0005515066555964529 -0.0046879845012418354 0.0006298927916009826 0.007462312330235062 0.9961586361147236 -0.03573889115375033 0.003294483663041721 0.014630041503470944
0.06252605252188 0.003566912075512498 0.016345941237846946 0.9957969623410267 -0.03977693740228956 0.0007418945943619449 0.008294187724920004 -0.0006422278324577699 -0.005214315251378762
 0.9957969623410267 -0.03977693740228956 0.003568070781549309 0.016345844192632176 -0.0006418144249539702 -0.005214316067857948 0.0007361336052586461 0.00829486822285749
 0.0007418945943619449 0.008294187724920004 -0.0006418144249539702 -0.005214316067857948 0.0035671735227470617 0.016346753880311576 0.9957969849256394 -0.03977610257733658
 -0.0006422278324577699 -0.005214315251378762 0.0007361336052586461 0.00829486822285749 0.9957969849256394 -0.03977610257733658 0.003567853083599714 0.016346694358421603
0.06877865777407 0.0038559952840524223 0.01807883953539729 0.9954139635050611 -0.04382805966832417 0.0008582034136802871 0.009126941201696596 -0.0007404566576635335 -0.005741254921877331
 0.9954139635050611 -0.04382805966832417 0.0038573969552401373 0.01807872636380945 -0.0007399581308468174 -0.0057412607407089505 0.0008512296026692739 0.009127776242144378
 0.0008582034136802871 0.009126941201696596 -0.0007399581308468174 -0.0057412607407089505 0.003856311227723312 0.01807973107865252 0.9954139905411034 -0.04382714134787866
 -0.0007404566576635335 -0.005741254921877331 0.0008512296026692739 0.009127776242144378 0.9954139905411034 -0.04382714134787866 0.0038571331974967685 0.01807966233080964
0.07503126302626001 0.004161262066249088 0.0198277569750832 0.9950093401096005 -0.04789291548484944 0.0009835660256316513 0.009959910637654204 -0.0008462777773715199 -0.0062686809005231565
 0.9950093401096005 -0.04789291548484944 0.004162929812568406 0.01982762620621802 -0.000845686427575372 -0.006268692954107384 0.0009752627051101109 0.009960921711195883
 0.0009835660256316513 0.009959910637654204 -0.000845686427575372 -0.006268692954107384 0.00416163764455011 0.01982872678679877 0.995009372003582 -0.04789191362258988
 -0.0008462777773715199 -0.0062686809005231565 0.0009752627051101109 0.009960921711195883 0.995009372003582 -0.04789191362258988 0.004162615565096015 0.01982864823486427
0.08128386827845 0.004483002338088429 0.021592408410605283 0.9945828116137897 -0.05197138859946536 0.0011180628791470223 0.010792975954326378 -0.0009597739783095423 -0.00679646903134486
 0.9945828116137897 -0.05197138859946536 0.004484959283075238 0.021592258495420076 -0.0009590821611491904 -0.00679648863650938 0.0011083131486938154 0.010794186046355658
 0.0011180628791470223 0.010792975954326378 -0.0009590821611491904 -0.00679648863650938 0.004483442683799475 0.021593455803603653 0.9945828487754447 -0.05197030314008265
 -0.0009597739783095423 -0.00679646903134486 0.0011083131486938154 0.010794186046355658 0.9945828487754447 -0.05197030314008265 0.004484590112354636 0.021593366874927186
0.08753647353064001 0.004821504364932329 0.023372516656442063 0.9941340981150759 -0.056063344320455635 0.0012617726286686035 0.011626013445169605 -0.0010810261234345455 -0.007324493343587561
 0.9941340981150759 -0.056063344320455635 0.004823773649139447 0.023372345966609646 -0.0010802262535486303 -0.007324521901531139 0.0012504593895790973 0.011627447052356544
 0.0012617726286686035 0.011626013445169605 -0.0010802262535486303 -0.007324521901531139 0.004822014604743235 0.02337364088487597 0.9941341409573606 -0.05606217520268332
 -0.0010810261234345455 -0.007324493343587561 0.0012504593895790973 0.011627447052356544 0.9941341409573606 -0.05606217520268332 0.004823345117956326 0.02337354101236666
0.09378907878283 0.005177054721588075 0.025167809598818168 0.9936629205435985 -0.0601686323599782 0.0014147720407900691 0.012458895984346444 -0.0012101130834109121 -0.007852625871748216
 0.9936629205435985 -0.0601686323599782 0.005179659505881275 0.02516761642558384 -0.0012091976342916066 -0.007852664867989625 0.0014017780120269357 0.012460579130949766
 0.0014147720407900691 0.012458895984346444 -0.0012091976342916066 -0.007852664867989625 0.005177639975169951 0.025169009862023698 0.9936629694832704 -0.06016737951224223
 -0.0012101130834109121 -0.007852625871748216 0.0014017780120269357 0.012460579130949766 0.9936629694832704 -0.06016737951224223 0.005179167173548528 0.025168898483933434
0.100041684035 0.005549938232621175 0.0269780180929479 0.9931690008408973 -0.06428708889616729 0.0015771359030832544 0.013291493190359594 -0.0013471116646103466 -0.00838073652549496
 0.9931690008408973 -0.06428708889616729 0.0055529017018575225 0.026977800645655255 -0.0013460731686578936 -0.008380787529795024 0.0015623436386844392 0.01329345344429199
 0.0015771359030832544 0.013291493190359594 -0.0013460731686578936 -0.008380787529795024 0.005550603612200767 0.02697929352875583 0.9931690562983212 -0.06428575224251862
 -0.0013471116646103466 -0.00838073652549496 0.0015623436386844392 0.01329345344429199 0.9931690562983212 -0.06428575224251862 0.005552341124264564 0.026979170088515286
0.1059090909091 0.005915866291654607 0.02869003375808557 0.9926845792109376 -0.06816364369585982 0.0017380788357066357 0.014072418965906138 -0.0014829323773317908 -0.00887617463961333
 0.9926845792109376 -0.06816364369585982 0.005919187459265367 0.028689791829380158 -0.0014817716758138118 -0.00887623841485593 0.0017214921713461276 0.014074665717399503
 0.0017380788357066357 0.014072418965906138 -0.0014817716758138118 -0.00887623841485593 0.005916611502941581 0.02869137890262406 0.9926846411709419 -0.06816222831967307
 -0.0014829323773317908 -0.00887617463961333 0.0017214921713461276 0.014074665717399503 0.9926846411709419 -0.06816222831967307 0.005918558795851216 0.028691243641352983
0.1062942892872 0.005940437898955211 0.028802874368260727 0.9926520621266849 -0.06841853813242085 0.001748936934158575 0.014123671554628224 -0.0014920965351558821 -0.008908692999404333
 0.9926520621266849 -0.06841853813242085 0.005943783265186708 0.02880263077293655 -0.0014909275837318844 -0.008908757665687357 0.0017322288416489087 0.014125938043310814
 0.001748936934158575 0.014123671554628224 -0.0014909275837318844 -0.008908757665687357 0.005941188508348597 0.028804224059571757 0.9926521245269128 -0.06841711758542682
 -0.0014920965351558821 -0.008908692999404333 0.0017322288416489087 0.014125938043310814 0.9926521245269128 -0.06841711758542682 0.005943149995043345 0.028804088005339918
0.11254689453939999 0.006348834813430001 0.030642110823961993 0.992111828858841 -0.07256279347187194 0.001930245695498259 0.014955294544160802 -0.00164514014820411 -0.009436360713552375
 0.992111828858841 -0.07256279347187194 0.006352585319453719 0.030641839121640146 -0.0016438333918546435 -0.009436440779815912 0.0019115040552776697 0.014957897970082588
 0.001930245695498259 0.014955294544160802 -0.0016438333918546435 -0.009436440779815912 0.006349675747089144 0.03064353379286149 0.9921118986311411 -0.07256128893782672
 -0.00164514014820411 -0.009436360713552375 0.0019115040552776697 0.014957897970082588 0.9921118986311411 -0.07256128893782672 0.00635187490607057 0.03064338457701781
0.11879949979160001 0.006775408067174781 0.0324954590816966 0.991548026986666 -0.07671965844041426 0.00212113050310341 0.015786222691958462 -0.0018063126646772868 -0.009963602771359414
 0.991548026986666 -0.07671965844041426 0.006779586989991835 0.0324951572266497 -0.0018048608133830865 -0.009963700059571928 0.0021002374888502 0.015789195347987218
 0.00212113050310341 0.015786222691958462 -0.0018048608133830865 -0.009963700059571928 0.006776344409869975 0.0324969542894524 0.9915481045652904 -0.07671806981878607
 -0.0018063126646772868 -0.009963602771359414 0.0021002374888502 0.015789195347987218 0.9915481045652904 -0.07671806981878607 0.006778794979908912 0.032496791367932196
0.1250521050438 0.007220434650070251 0.034362649243060095 0.9909603840999992 -0.08088892741056448 0.002321657340478721 0.016616313673429528 -0.0019756818741704595 -0.010490279936609307
 0.9909603840999992 -0.08088892741056448 0.007225065304116281 0.034362315100911305 -0.0019740776976449235 -0.01049039635259745 0.002298495040271621 0.01661968945778667
 0.002321657340478721 0.016616313673429528 -0.0019740776976449235 -0.01049039635259745 0.007221471475379308 0.03436421559210879 0.9909604699245171 -0.08088725459154267
 -0.0019756818741704595 -0.010490279936609307 0.002298495040271621 0.01661968945778667 0.9909604699245171 -0.08088725459154267 0.007224187241042069 0.03436403842345841
0.131304710296 0.007684189344595014 0.03624340929856196 0.9903486295757099 -0.08507038618008965 0.0025318897716869906 0.017445422377050813 -0.002153313115227272 -0.011016250621396082
 0.9903486295757099 -0.08507038618008965 0.007689295085279809 0.036243040644158 -0.0021515494433491642 -0.011016388154726926 0.002506340209840779 0.01744923680800101
 0.0025318897716869906 0.017445422377050813 -0.0021515494433491642 -0.011016388154726926 0.007685331714512108 0.03624504562873338 0.9903487240911154 -0.08506862904772454
 -0.002153313115227272 -0.011016250621396082 0.002506340209840779 0.01744923680800101 0.9903487240911154 -0.08506862904772454 0.007688326510188519 0.03624485367325286
0.1375573155481 0.00805977852830959 0.03789132875217688 0.9898197007016711 -0.08901757082415876 0.0027252569205979773 0.01824846321148782 -0.002312671424206836 -0.011516426362063124
 0.9898197007016711 -0.08901757082415876 0.008065383115704403 0.03789092932719922 -0.0023107375945621653 -0.01151658513594746 0.00269726204619428 0.01825271029905531
 0.0027252569205979773 0.01824846321148782 -0.0023107375945621653 -0.01151658513594746 0.00806103090658524 0.03789303402768594 0.9898198043034897 -0.08901572933699917
 -0.002312671424206836 -0.011516426362063124 0.00269726204619428 0.01825271029905531 0.9898198043034897 -0.08901572933699917 0.00806432025759553 0.03789283259280973
0.1438099208003 0.008448547415022023 0.03953067172570483 0.9892722246712514 -0.09295486815112294 0.002926440837315357 0.019048339736981876 -0.002478412908742502 -0.012013722512876933
 0.9892722246712514 -0.09295486815112294 0.008454674293526969 0.039530239634348416 -0.0024763012085557414 -0.012013904481725382 0.0028958934150985546 0.01905305190144728
 0.002926440837315357 0.019048339736981876 -0.0024763012085557414 -0.012013904481725382 0.008449914739718052 0.0395324447628526 0.9892723378019862 -0.09295294220011573
 -0.002478412908742502 -0.012013722512876933 0.0028958934150985546 0.01905305190144728 0.9892723378019862 -0.09295294220011573 0.0084535128143198 0.039532233671950585
0.1500625260525 0.008850360690976973 0.04116130472963627 0.9887063408522696 -0.09688218397379936 0.0031353733299847 0.019844972686844972 -0.0026504715591431603 -0.012508064573099354
 0.9887063408522696 -0.09688218397379936 0.00885703334007635 0.04116083797649159 -0.0026481742910904023 -0.012508271769967372 0.0031021667582549805 0.01985018352722257
 0.0031353733299847 0.019844972686844972 -0.0026481742910904023 -0.012508271769967372 0.008851847881897863 0.04116314429759256 0.9887064639586267 -0.09688017344617444
 -0.0026504715591431603 -0.012508064573099354 0.0031021667582549805 0.01985018352722257 0.9887064639586267 -0.09688017344617444 0.008855768907598666 0.04116292334289232
0.15631513130469998 0.009265082098565778 0.04278309832655422 0.9881221893051475 -0.10079942437100853 0.003351985405740387 0.020638284107514095 -0.0028287805585827447 -0.012999379606824226
 0.9881221893051475 -0.10079942437100853 0.00927232403431146 0.04278259481482277 -0.0028262900411886007 -0.01299961414308428 0.003316013726104924 0.02064402838910457
