! Created with skrf 1.8.0 (http://scikit-rf.org).
# GHz S RI R 50.0 
!freq ReS11 ImS11 ReS12 ImS12 ReS13 ImS13
! ReS14 ImS14
! ReS21 ImS21 ReS22 ImS22 ReS23 ImS23
! ReS24 ImS24
! ReS31 ImS31 ReS32 ImS32 ReS33 ImS33
! ReS34 ImS34
! ReS41 ImS41 ReS42 ImS42 ReS43 ImS43
! ReS44 ImS44
!
0.0 0.001560582448245 0.0 0.9984394175516 0.0 6.045013422927e-05 0.0 -6.04501352946e-05 7.403006469655632e-21
 0.9984394175516 0.0 0.001560582448228 0.0 -6.045013529421e-05 7.403006469607872e-21 6.045013422793e-05 0.0
 6.045013422927e-05 0.0 -6.045013529421e-05 7.403006469607872e-21 0.001560582445392 0.0 0.9984394175487 0.0
 -6.04501352946e-05 7.403006469655632e-21 6.045013422793e-05 0.0 0.9984394175487 0.0 0.001560582445395 0.0
0.005 0.0016791647383930905 0.0012724427927230386 0.9982893822321378 -0.0032691587365340446 8.533069399540253e-05 0.0006914964893816623 -8.275108298331596e-05 -0.0004295801871008022
 0.9982893822321378 -0.0032691587365340446 0.0016791581380702623 0.0012724466088568235 -8.275173184739243e-05 -0.00042958060682143147 8.537154926602906e-05 0.0006914809375387356
 8.533069399540253e-05 0.0006914964893816623 -8.275173184739243e-05 -0.00042958060682143147 0.0016791644324612926 0.0012723756464003708 0.9982893818665175 -0.0032692258001893407
 -8.275108298331596e-05 -0.0004295801871008022 8.537154926602906e-05 0.0006914809375387356 0.9982893818665175 -0.0032692258001893407 0.0016791577209559776 0.001272379636036999
0.006252605252188 0.0017102831127244987 0.0015955761278942987 0.9982497596853243 -0.0040872471941893205 9.243877405979617e-05 0.0008646932676249321 -8.905837261505258e-05 -0.0005375353741152738
 0.9982497596853243 -0.0040872471941893205 0.0017102727954709455 0.001595580968243496 -8.905938293067715e-05 -0.0005375358899412665 9.250260673179954e-05 0.0008646730715392262
 9.243877405979617e-05 0.0008646932676249321 -8.905938293067715e-05 -0.0005375358899412665 0.0017102827211249476 0.0015954921928038445 0.9982497591997898 -0.004087331023048713
 -8.905837261505258e-05 -0.0005375353741152738 9.250260673179954e-05 0.0008646730715392262 0.9982497591997898 -0.004087331023048713 0.0017102722290981492 0.0015954972636544635
0.01250521050438 0.0018742006287637315 0.0032247054793692 0.9980396599340245 -0.00817530166322739 0.00013320147921064597 0.0017296668380124558 -0.00012490359626965368 -0.0010776887403593201
 0.9980396599340245 -0.00817530166322739 0.0018741594373774349 0.0032247158644965693 -0.00012490758551327637 -0.0010776896741425952 0.00013345603412935055 0.0017296182819989496
 0.00013320147921064597 0.0017296668380124558 -0.00012490758551327637 -0.0010776896741425952 0.0018741996198736548 0.003224537850204495 0.9980396585380849 -0.008175469074375035
 -0.00012490359626965368 -0.0010776887403593201 0.00013345603412935055 0.0017296182819989496 0.9980396585380849 -0.008175469074375035 0.0018741577142471725 0.003224548837792717
0.01875781575657 0.002052696996984969 0.004877102685389061 0.9978088542211139 -0.012274112559708585 0.00018283351125254096 0.0025955250145926864 -0.00016809763068676223 -0.0016196440437091098
 0.9978088542211139 -0.012274112559708585 0.002052604448869775 0.004877119367816658 -0.00016810653753073927 -0.001619645275709208 0.00018340535298384743 0.002595438325728944
 0.00018283351125254096 0.0025955250145926864 -0.00016810653753073927 -0.001619645275709208 0.002052695178449713 0.004876851461088042 0.9978088515071915 -0.012274363506994629
 -0.00016809763068676223 -0.0016196440437091098 0.00018340535298384743 0.002595438325728944 0.9978088515071915 -0.012274363506994629 0.0020526009925379137 0.004876869273279763
0.02501042100875 0.002246123302831851 0.006550440285354646 0.9975570679699326 -0.016385660047617837 0.00024143118141494346 0.0034623068327063146 -0.00021874842627052547 -0.0021631442450751543
 0.9975570679699326 -0.016385660047617837 0.0022459589615357123 0.006550464057625721 -0.00021876416964738748 -0.0021631456318688333 0.00024244692917647077 0.0034621706832358183
 0.00024143118141494346 0.0034623068327063146 -0.00021876416964738748 -0.0021631456318688333 0.0022461204856606795 0.006550105592152833 0.9975570635169174 -0.016385994515566424
 -0.00021874842627052547 -0.0021631442450751543 0.00024244692917647077 0.0034621706832358183 0.9975570635169174 -0.016385994515566424 0.002245953181088231 0.006550131191859803
0.03126302626094 0.002454816088314121 0.00824351696570451 0.9972840127587316 -0.020510787030958703 0.0003090911410112634 0.0043299684625146455 -0.0002769607306968793 -0.0027080089696549423
 0.9972840127587316 -0.020510787030958703 0.0024545595514740056 0.008243548658808515 -0.00027698521316363897 -0.002708010343881216 0.00031067758588383465 0.004329769960537309
 0.0003090911410112634 0.0043299684625146455 -0.00027698521316363897 -0.002708010343881216 0.00245481210181942 0.008243098936829835 0.9972840061456062 -0.02051120505523501
 -0.0002769607306968793 -0.0027080089696549423 0.00031067758588383465 0.004329769960537309 0.9972840061456062 -0.02051120505523501 0.0024545508569785144 0.008243133340652789
0.037515631513130004 0.0026791045446717975 0.009955546727865128 0.9969893937561006 -0.02464990992473773 0.00038590944540451425 0.005198433352556877 -0.0003428368869268693 -0.003254084373848455
 0.9969893937561006 -0.02464990992473773 0.0026787354360428665 0.009955587210415522 -0.00034287199629148114 -0.003254085544062614 0.00038819360289688904 0.005198158026161019
 0.00038590944540451425 0.005198433352556877 -0.00034287199629148114 -0.003254085544062614 0.00267909923471047 0.00995504553243514 0.9969893845587687 -0.02465041156329675
 -0.0003428368869268693 -0.003254084373848455 0.00038819360289688904 0.005198158026161019 0.9969893845587687 -0.02465041156329675 0.0026787232373750337 0.00995508981017885
0.043768236765320004 0.002919313284379362 0.011685942605776413 0.9966729127355604 -0.028803234867534656 0.00047198111824476257 0.00606760747009683 -0.00041647711052344554 -0.0038012279120957873
 0.9966729127355604 -0.028803234867534656 0.0029188112466423852 0.011685992783541013 -0.00041652472071163754 -0.003801228662692181 0.00047509025289801943 0.006067239249460434
 0.00047198111824476257 0.00606760747009683 -0.00041652472071163754 -0.003801228662692181 0.0029193065117663346 0.011685358441743433 0.9966729005240759 -0.02880382020786702
 -0.00041647711052344554 -0.0038012279120957873 0.00047509025289801943 0.006067239249460434 0.9966729005240759 -0.02880382020786702 0.002918794952775474 0.011685413716177012
0.050020842017509996 0.00317576362677663 0.013434227251024352 0.9963342696065539 -0.03297084706519545 0.0005673998837033725 0.006937385603361053 -0.0004979795900149605 -0.004349302043433039
 0.9963342696065539 -0.03297084706519545 0.0031751083164035434 0.01343428806652296 -0.0004980415616419347 -0.004349302134553009 0.0005714615192156329 0.006936906801969521
 0.0005673998837033725 0.006937385603361053 -0.0004980415616419347 -0.004349302134553009 0.003175755269116431 0.013433560351099438 0.9963342539455555 -0.03297151621838418
 -0.0004979795900149605 -0.004349302043433039 0.0005714615192156329 0.006936906801969521 0.9963342539455555 -0.03297151621838418 0.0031750873373898513 0.013433627797979214
0.055454545454549996 0.0034120644777271467 0.01496774662401862 0.996021746326141 -0.036604239057461734 0.000657984336997242 0.00769365186472748 -0.000575267577646048 -0.004826245486811568
 0.996021746326141 -0.036604239057461734 0.003411259453518788 0.01496781747799765 -0.0005753435307173932 -0.004826244791148328 0.000662977491587233 0.007693061331713173
 0.000657984336997242 0.00769365186472748 -0.0005753435307173932 -0.004826244791148328 0.0034120546565223593 0.014967008036556722 0.996021727308685 -0.036604981158709686
 -0.000575267577646048 -0.004826245486811568 0.000662977491587233 0.007693061331713173 0.996021727308685 -0.036604981158709686 0.003411233925524622 0.014967087057809463
0.056273447269699996 0.0034487742541802 0.01519998907255711 0.9959731633192989 -0.03715275458130314 0.0006722579743996042 0.007807654452643914 -0.0005874405068342242 -0.004898171152326576
 0.9959731633192989 -0.03715275458130314 0.0034479453354988405 0.015200061505029701 -0.0005875186874849034 -0.004898170319796194 0.0006773998947444365 0.007807045748171629
 0.0006722579743996042 0.007807654452643914 -0.0005875186874849034 -0.004898170319796194 0.0034487642060520574 0.015199239701089837 0.9959731437666379 -0.03715350768525182
 -0.0005874405068342242 -0.004898171152326576 0.0006773998947444365 0.007807045748171629 0.9959731437666379 -0.03715350768525182 0.003447919083325965 0.015199320549345391
0.06252605252188 0.0037386615614439923 0.016982858102386363 0.9955892924674183 -0.041348912405109364 0.0007866459763680615 0.008678294336137688 -0.0006849540145468086 -0.005447699858859428
 0.9955892924674183 -0.041348912405109364 0.0037376387018303475 0.016982943167758082 -0.0006850502389266915 -0.00544769781412879 0.0007929962211447528 0.008677534751187516
 0.0007866459763680615 0.008678294336137688 -0.0006850502389266915 -0.00544769781412879 0.003738649735844103 0.01698202655986144 0.9955892685740435 -0.04134974962003236
 -0.0006849540145468086 -0.005447699858859428 0.0007929962211447528 0.008677534751187516 0.9955892685740435 -0.04134974962003236 0.0037376065923608003 0.01698212209186855
0.06877865777407 0.004045739836105211 0.018782491618583603 0.9951823557244602 -0.04555923676617827 0.0009106526968796817 0.009549180206364813 -0.0007906121926493998 -0.005997752022831826
 0.9951823557244602 -0.04555923676617827 0.0040445027010995935 0.018782590369637184 -0.0007907282826499838 -0.005997748452921997 0.0009183395523309057 0.009548247089186609
 0.0009106526968796817 0.009549180206364813 -0.0007907282826499838 -0.005997748452921997 0.004045726164431405 0.018781578239480977 0.9951823270330946 -0.045560158276755566
 -0.0007906121926493998 -0.005997752022831826 0.0009183395523309057 0.009548247089186609 0.9951823270330946 -0.045560158276755566 0.0040444641544209025 0.018781689791508568
0.07503126302626001 0.004370321338071067 0.020598565036837203 0.9947520521841879 -0.04978361418533918 0.0010443650423683786 0.01042018230651217 -0.0009045049878016765 -0.006548190112816798
 0.9947520521841879 -0.04978361418533918 0.004368849586068306 0.02059867856360382 -0.0009046427524337811 -0.006548184680272809 0.0010535170295471084 0.010419051311791246
 0.0010443650423683786 0.01042018230651217 -0.0009046427524337811 -0.006548184680272809 0.004370305770634443 0.02059757019331692 0.9947520182282554 -0.049784620196940105
 -0.0009045049878016765 -0.006548190112816798 0.0010535170295471084 0.010419051311791246 0.9947520182282554 -0.049784620196940105 0.004368804027873857 0.02059769915616308
0.08128386827845 0.004712716317241708 0.02243076583776171 0.9942980816425193 -0.05402190749505323 0.0011878679055366346 0.011291166604482277 -0.001026720144131479 -0.0070988748026194586
 0.9942980816425193 -0.05402190749505323 0.004710989594995742 0.022430895267996954 -0.0010268813794842926 -0.007098867145461686 0.0011986137657737578 0.011289811674263982
 0.0011878679055366346 0.011291166604482277 -0.0010268813794842926 -0.007098867145461686 0.004712698824782585 0.022429689933469346 0.9942980419459096 -0.054022998239923625
 -0.001026720144131479 -0.0070988748026194586 0.0011986137657737578 0.011289811674263982 0.9942980419459096 -0.054022998239923625 0.0047109364582571915 0.022429837753160733
0.08753647353064001 0.005073232989879417 0.024278789382730273 0.9938201448418591 -0.05827395997698048 0.0013412440559040098 0.012161995107228103 -0.0011573431282701694 -0.0076496646927398815
 0.9938201448418591 -0.05827395997698048 0.005071230927441945 0.02427893588253399 -0.0011575296173707797 -0.007649654424430324 0.0013537127344375847 0.012160388451996363
 0.0013412440559040098 0.012161995107228103 -0.0011575296173707797 -0.007649654424430324 0.005073213563572757 0.02427763285835213 0.9938200989173575 -0.05827513570846081
 -0.0011573431282701694 -0.0076496646927398815 0.0013537127344375847 0.012160388451996363 0.9938200989173575 -0.05827513570846081 0.0050711696531280425 0.024277801037118005
0.09378907878283 0.005452177484701824 0.026142335914709807 0.9933179436887535 -0.06253959832043161 0.0015045740347645422 0.013032526087165867 -0.001296457048512281 -0.008200416125257386
 0.9933179436887535 -0.06253959832043161 0.0054498796908650044 0.02614250068935845 -0.0012966705611883456 -0.008200402834662831 0.001518894662749395 0.013030638167200216
 0.0015045740347645422 0.013032526087165867 -0.0012966705611883456 -0.008200402834662831 0.0054521561374193065 0.0261410992462927 0.9933178910379299 -0.0625408593145109
 -0.001296457048512281 -0.008200416125257386 0.001518894662749395 0.013030638167200216 0.9933178910379299 -0.0625408593145109 0.0054498097294740575 0.026141289343514375
0.100041684035 0.00584985376992685 0.028021108375010036 0.9927911814557149 -0.06681863477100534 0.00167793605142378 0.013902614260845185 -0.0014441425716080296 -0.008750983052118412
 0.9927911814557149 -0.06681863477100534 0.0058472398268035065 0.028021292669942934 -0.0014443848642528502 -0.008750966303491228 0.0016942379262912654 0.013900413767747248
 0.00167793605142378 0.013902614260845185 -0.0014443848642528502 -0.008750966303491228 0.0058498305366502055 0.0280197920736574 0.9927911215675742 -0.06681998132639862
 -0.0014441425716080296 -0.008750983052118412 0.0016942379262912654 0.013900413767747248 0.9927911215675742 -0.06681998132639862 0.005847160639766695 0.028020005707184475
0.1059090909091 0.006240335940720053 0.02979772117900093 0.9922742699810881 -0.07084606355835665 0.001849809477246788 0.014718564583721843 -0.0015905951883625083 -0.009267331641435289
 0.9922742699810881 -0.07084606355835665 0.00623740672780293 0.02979792496117518 -0.0015908660732808606 -0.009267311229558031 0.0018680882668965532 0.014716040707731045
 0.001849809477246788 0.014718564583721843 -0.0015908660732808606 -0.009267311229558031 0.006240310990162462 0.029796330646741757 0.9922742028247014 -0.07084749069561731
 -0.0015905951883625083 -0.009267331641435289 0.0018680882668965532 0.014716040707731045 0.9922742028247014 -0.07084749069561731 0.006237318404402661 0.029796567891206025
0.1062942892872 0.006266563563345063 0.029914810749045416 0.9922395629703531 -0.07111086875677905 0.0018614058816497558 0.014772110927389948 -0.0016004778358620338 -0.009301216949445553
 0.9922395629703531 -0.07111086875677905 0.006263613022284914 0.029915015851009356 -0.0016007506513027617 -0.009301196282398892 0.001879818446661884 0.014769564765876866
 0.0018614058816497558 0.014772110927389948 -0.0016007506513027617 -0.009301196282398892 0.006266538502392772 0.029913415360505978 0.9922394953203717 -0.07111230119509224
 -0.0016004778358620338 -0.009301216949445553 0.001879818446661884 0.014769564765876866 0.9922394953203717 -0.07111230119509224 0.0062635240830826635 0.029913654207926816
0.11254689453939999 0.006702606232475371 0.03182314681780191 0.991662794795464 -0.07541608811533558 0.002055056766577808 0.015640864085292683 -0.0017655383634891206 -0.009850966759370276
 0.991662794795464 -0.07541608811533558 0.006699298608330744 0.03182337405622607 -0.0017658434306621676 -0.009850941688868093 0.0020757095887895976 0.015637937355376868
 0.002055056766577808 0.015640864085292683 -0.0017658434306621676 -0.009850941688868093 0.006702579425540902 0.03182167292379717 0.9916627188448559 -0.07541760677941821
 -0.0017655383634891206 -0.009850966759370276 0.0020757095887895976 0.015637937355376868 0.9916627188448559 -0.07541760677941821 0.006699199403811409 0.03182193872406281
0.11879949979160001 0.007158278683707195 0.03374581918143393 0.9910605854040092 -0.07973407005565082 0.002258959313112012 0.01650871853409992 -0.0019393969702967933 -0.010400078853019148
 0.9910605854040092 -0.07973407005565082 0.007154593450377975 0.03374606992986746 -0.0019397360040912131 -0.010400048869375803 0.0022819820606009692 0.01650537451347459
 0.002258959313112012 0.01650871853409992 -0.0019397360040912131 -0.010400048869375803 0.007158250237502303 0.03374426739698821 0.9910605005990093 -0.07973567531185197
 -0.0019393969702967933 -0.010400078853019148 0.0022819820606009692 0.01650537451347459 0.9910605005990093 -0.07973567531185197 0.007154483482222731 0.0337445619520823
0.1250521050438 0.007633875245432119 0.03568252849149608 0.9904326453487762 -0.08406458191814453 0.002473181394567845 0.017375515959586706 -0.0021221236748629594 -0.01094839701622951
 0.9904326453487762 -0.08406458191814453 0.007629791830783761 0.03568280416937064 -0.0021224983757983135 -0.010948361585089151 0.0024987038127108566 0.017371716086451605
 0.002473181394567845 0.017375515959586706 -0.0021224983757983135 -0.010948361585089151 0.0076338452920584055 0.035680899466236586 0.9904325511191002 -0.08406627415460331
 -0.0021221236748629594 -0.01094839701622951 0.0024987038127108566 0.017371716086451605 0.9904325511191002 -0.08406627415460331 0.007629670616897848 0.03568122464311783
0.131304710296 0.008129687544906073 0.03763297284022423 0.9897786874286915 -0.08840738178518907 0.002697788052031373 0.01824109501858063 -0.0023137856067570466 -0.011495762441740213
 0.9897786874286915 -0.08840738178518907 0.008125185325771275 0.03763327491474078 -0.0023141976606899832 -0.011495721004128089 0.0027259399389262967 0.018236798874732042
 0.002697788052031373 0.01824109501858063 -0.0023141976606899832 -0.011495721004128089 0.00812965624271852 0.037631267259052865 0.9897785831874742 -0.08840916141078078
 -0.0023137856067570466 -0.011495762441740213 0.0027259399389262967 0.018236798874732042 0.9897785831874742 -0.08840916141078078 0.008125052401730089 0.037631624991622266
0.1375573155481 0.008533316365912572 0.039341631958917204 0.9892111612391223 -0.09250687809721098 0.0029046613486260454 0.01907956931384689 -0.0024862367661499835 -0.01201633116998178
 0.9892111612391223 -0.09250687809721098 0.008528372566971738 0.03934195535433254 -0.002486688447406265 -0.012016283660896247 0.0029355072574347163 0.01907478265007202
 0.0029046613486260454 0.01907956931384689 -0.002486688447406265 -0.012016283660896247 0.008533282802368636 0.039339850876835995 0.9892110465191799 -0.0925087453622294
 -0.0024862367661499835 -0.01201633116998178 0.0029355072574347163 0.01907478265007202 0.9892110465191799 -0.0925087453622294 0.008528228328822093 0.039340235575475245
0.1438099208003 0.008951170197284936 0.04104108216258895 0.9886236257766328 -0.09659578717627074 0.0031198829387596573 0.0199145824276518 -0.002665585869519605 -0.01253371848173985
 0.9886236257766328 -0.09659578717627074 0.008945763783548406 0.04104142797800883 -0.0026660789492313846 -0.012533664356234066 0.003153540956375041 0.019909268237072345
 0.0031198829387596573 0.0199145824276518 -0.0026660789492313846 -0.012533664356234066 0.008951134374640223 0.0410392263541508 0.988623499991085 -0.09659774248300843
 -0.002665585869519605 -0.01253371848173985 0.003153540956375041 0.019909268237072345 0.988623499991085 -0.09659774248300843 0.00894560794794657 0.0410396394896523
0.1500625260525 0.009383099245040785 0.04273117563904941 0.9880162351962901 -0.10067400167074847 0.0033433767118563034 0.020746046561281286 -0.0028517585692871142 -0.013047840939223367
 0.9880162351962901 -0.10067400167074847 0.00937720911784982 0.042731545048107646 -0.0028522948118063214 -0.013047779630819096 0.003379964221310622 0.020740166483923857
 0.0033433767118563034 0.020746046561281286 -0.0028522948118063214 -0.013047779630819096 0.009383061178486439 0.042729245909904325 0.9880160977432967 -0.10067604543730063
 -0.0028517585692871142 -0.013047840939223367 0.003379964221310622 0.020740166483923857 0.9880160977432967 -0.10067604543730063 0.00937704142836307 0.04272968903894291
0.15631513130469998 0.009828952615584065 0.04441176902696216 0.9873891444815897 -0.1047414147353936 0.0035750656317895674 0.021573875439783615 -0.0030446795778122284 -0.013558616905576965
