! Created with skrf 1.8.0 (http://scikit-rf.org).
# GHz S RI R 50.0 
!freq ReS11 ImS11 ReS12 ImS12 ReS13 ImS13
! ReS14 ImS14
! ReS21 ImS21 ReS22 ImS22 ReS23 ImS23
! ReS24 ImS24
! ReS31 ImS31 ReS32 ImS32 ReS33 ImS33
! ReS34 ImS34
! ReS41 ImS41 ReS42 ImS42 ReS43 ImS43
! ReS44 ImS44
!
0.0 0.001712980948601 0.0 0.9982870190514 0.0 6.644146423729e-05 0.0 -6.644146439252e-05 8.136732669896246e-21
 0.9982870190514 0.0 0.001712980948599 0.0 -6.644146439256e-05 8.136732669901143e-21 6.644146423692e-05 0.0
 6.644146423729e-05 0.0 -6.644146439256e-05 8.136732669901143e-21 0.001712980924894 0.0 0.9982870190277 0.0
 -6.644146439252e-05 8.136732669896246e-21 6.644146423692e-05 0.0 0.9982870190277 0.0 0.001712980924889 0.0
0.005 0.0018435721932115194 0.0013992597648775388 0.9981216906461226 -0.003587773611946638 9.374321531838518e-05 0.0007415969320337889 -9.084773894306337e-05 -0.000463737309239169
 0.9981216906461226 -0.003587773611946638 0.0018436080999020047 0.001399238744944148 -9.08467376477002e-05 -0.00046373648351862213 9.351108424895074e-05 0.0007416851337133988
 9.374321531838518e-05 0.0007415969320337889 -9.08467376477002e-05 -0.00046373648351862213 0.0018435733738041702 0.0013993263038387222 0.9981216910318834 -0.0035877065482056675
 -9.084773894306337e-05 -0.000463737309239169 9.351108424895074e-05 0.0007416851337133988 0.9981216910318834 -0.0035877065482056675 0.0018436076789032764 0.0013993063213528837
0.006252605252188 0.001877979910166711 0.0017545639172860546 0.9980778245179831 -0.00448556903174639 0.00010165840448892813 0.0009273386419818663 -9.781445017275913e-05 -0.0005802634044045715
 0.9980778245179831 -0.00448556903174639 0.0018780360402085694 0.0017545372929400125 -9.781289252625309e-05 -0.0005802623852991339 0.00010129572107572806 0.000927453267503604
 0.00010165840448892813 0.0009273386419818663 -9.781289252625309e-05 -0.0005802623852991339 0.001877981666031731 0.001754647075734974 0.9980778250312152 -0.004485485205110187
 -9.781445017275913e-05 -0.0005802634044045715 0.00010129572107572806 0.000927453267503604 0.9980778250312152 -0.004485485205110187 0.0018780352916305365 0.0017546217611163033
0.01250521050438 0.0020600272006960872 0.0035456982006931525 0.9978440507855064 -0.00897176096012983 0.00014765673606409647 0.0018549122462077972 -0.00013774976793315364 -0.0011632394978054502
 0.9978440507855064 -0.00897176096012983 0.0020602513472427883 0.0035456414331628385 -0.00013774363500612064 -0.001163237603187093 0.00014621039897877273 0.0018551889771191985
 0.00014765673606409647 0.0018549122462077972 -0.00013774363500612064 -0.001163237603187093 0.002060033648921015 0.0035458641160605268 0.9978440522691993 -0.008971593539004548
 -0.00013774976793315364 -0.0011632394978054502 0.00014621039897877273 0.0018551889771191985 0.9978440522691993 -0.008971593539004548 0.0020602477799942223 0.003545810115270586
0.01875781575657 0.002259554671528662 0.005362085298034875 0.9975853831753413 -0.013469455984730963 0.00020454630934683057 0.0027833213310361716 -0.00018637755349358915 -0.0017480505221485199
 0.9975853831753413 -0.013469455984730963 0.002260058377614914 0.005361994593225033 -0.00018636388484081774 -0.001748047924093013 0.0002012971898209381 0.002783817640848056
 0.00020454630934683057 0.0027833213310361716 -0.00018636388484081774 -0.001748047924093013 0.002259568735086709 0.00536233364884244 0.9975853860820014 -0.01346920499814191
 -0.00018637755349358915 -0.0017480505221485199 0.0002012971898209381 0.002783817640848056 0.9975853860820014 -0.01346920499814191 0.0022600499061960185 0.005362247369603107
0.02501042100875 0.002476979280051829 0.0072011369144628105 0.9973014936855895 -0.01798079054961947 0.0002724392054270332 0.0037125747466330407 -0.00024382294326639258 -0.002334402579103527
 0.9973014936855895 -0.01798079054961947 0.0024778738980573067 0.007201008246650818 -0.00024379881661736687 -0.002334399481240835 0.00026666790171967137 0.0037133578106910204
 0.0002724392054270332 0.0037125747466330407 -0.00024379881661736687 -0.002334399481240835 0.002477003890157817 0.007201467295520863 0.9973014984847962 -0.01798045598780632
 -0.00024382294326639258 -0.002334402579103527 0.00026666790171967137 0.0037133578106910204 0.9973014984847962 -0.01798045598780632 0.0024778584380297283 0.007201344966913708
0.03126302626094 0.002712700663798338 0.00906149902527059 0.9969920389128977 -0.022506652329319032 0.00035144781825333966 0.004642593972027108 -0.0003102070046046709 -0.002922081203020216
 0.9969920389128977 -0.022506652329319032 0.0027140974236093923 0.009061328145968125 -0.0003101695294211137 -0.002922077840863422 0.0003424340209145472 0.00464374072972491
 0.00035144781825333966 0.004642593972027108 -0.0003101695294211137 -0.002922077840863422 0.0027127387399866745 0.009061910975544178 0.9969920460727197 -0.02250623411551358
 -0.0003102070046046709 -0.002922081203020216 0.0003424340209145472 0.00464374072972491 0.9969920460727197 -0.02250623411551358 0.00271407287048538 0.00906174865707064
0.037515631513130004 0.0029671093474347592 0.01094227208131615 0.9966566685899834 -0.027047459966731646 0.00044168356333881684 0.0055732655219450245 -0.00038564760432268497 -0.0035108989638691656
 0.9966566685899834 -0.027047459966731646 0.0029691194044272682 0.010942054523439817 -0.00038559391852280756 -0.0035108956048498408 0.000428705786503357 0.005574862775613799
 0.00044168356333881684 0.0055732655219450245 -0.00038559391852280756 -0.0035108956048498408 0.0029671638022296357 0.010942765046482582 0.996656678584558 -0.027046957993858426
 -0.00038564760432268497 -0.0035108989638691656 0.000428705786503357 0.005574862775613799 0.996656678584558 -0.027046957993858426 0.002969083638104431 0.010942558633002027
0.043768236765320004 0.0032405899092001126 0.012842773708420739 0.9962950290902143 -0.03160340030490529 0.0005432562657202369 0.006504456888663784 -0.00047025970182260605 -0.0041006795468793746
 0.9962950290902143 -0.03160340030490529 0.00324332438356525 0.012842504788330386 -0.00047018696981679224 -0.004100676490320928 0.0005255917351707121 0.0065066014136503664
 0.0005432562657202369 0.006504456888663784 -0.00047018696981679224 -0.004100676490320928 0.0032406636480406393 0.012843347045273757 0.9962950424019666 -0.03160281443059321
 -0.00047025970182260605 -0.0041006795468793746 0.0005255917351707121 0.0065066014136503664 0.9962950424019666 -0.03160281443059321 0.003243275268236668 0.012843092269779147
0.050020842017509996 0.0035335224361633623 0.01476244062728855 0.9959067652267448 -0.03617452639747039 0.0006562737837512255 0.0074360231404104575 -0.000564155441043357 -0.004691251182580932
 0.9959067652267448 -0.03617452639747039 0.0035370924481231904 0.014762115445372287 -0.0005640608524548522 -0.004691248759649971 0.0006331984085427189 0.007438821799524619
 0.0006562737837512255 0.0074360231404104575 -0.0005640608524548522 -0.004691248759649971 0.003533618355897207 0.01476309360603185 0.9959067823481269 -0.03617385644114535
 -0.000564155441043357 -0.004691251182580932 0.0006331984085427189 0.007438821799524619 0.9959067823481269 -0.03617385644114535 0.0035370278312487195 0.01476278604104897
0.055454545454549996 0.003804179414431393 0.01644587031463982 0.9955474536945231 -0.04015928240400549 0.0007638661129096369 0.008245767395642447 -0.0006533781169069801 -0.005204985895873896
 0.9955474536945231 -0.04015928240400549 0.0038085658020547706 0.01644549209221972 -0.0006532622708389662 -0.005204984317220712 0.0007354994931443984 0.00824922922454706
 0.0007638661129096369 0.008245767395642447 -0.0006532622708389662 -0.005204984317220712 0.0038042969533763006 0.016446591839815828 0.995547474533705 -0.04015853920594814
 -0.0006533781169069801 -0.005204985895873896 0.0007354994931443984 0.00824922922454706 0.995547474533705 -0.04015853920594814 0.003808485950494687 0.016446234678953425
0.056273447269699996 0.0038462832535837497 0.016700780536288012 0.9954915213324461 -0.04076080555934199 0.0007808417398579954 0.00836781016443526 -0.0006674441496197198 -0.005282443438973925
 0.9954915213324461 -0.04076080555934199 0.003850799956661496 0.016700393976324328 -0.0006673249184239164 -0.005282442012621695 0.0007516301349035111 0.008371380023999403
 0.0007808417398579954 0.00836781016443526 -0.0006673249184239164 -0.005282442012621695 0.003846404239328406 0.01670151233486549 0.9954915427654061 -0.04076005130728587
 -0.0006674441496197198 -0.005282443438973925 0.0007516301349035111 0.008371380023999403 0.9954915427654061 -0.04076005130728587 0.003850717666179297 0.01670114739252855
0.06252605252188 0.0041792452980283 0.018657345646792573 0.9950489419874665 -0.04536214577044267 0.0009170633026533008 0.009299656458605685 -0.0007802322933587084 -0.005874085472257228
 0.9950489419874665 -0.04536214577044267 0.00418481991037756 0.018656892374231106 -0.0007800856572147485 -0.005874085437147813 0.0008809888448083563 0.009304124904810217
 0.0009170633026533008 0.009299656458605685 -0.0007800856572147485 -0.005874085437147813 0.004179394222354058 0.018658155351999568 0.9950489682462995 -0.045361306974304905
 -0.0007802322933587084 -0.005874085472257228 0.0008809888448083563 0.009304124904810217 0.9950489682462995 -0.045361306974304905 0.004184717755107789 0.018657728283150536
0.06877865777407 0.00453277829699181 0.020631716916051965 0.9945786725609294 -0.0499784113889071 0.0010650389998428174 0.010231394213184433 -0.000902623402509227 -0.006466004994806501
 0.9945786725609294 -0.0499784113889071 0.004539522132945646 0.020631191375112098 -0.0009024466224172328 -0.006466006777257244 0.001021373908241346 0.010236899067891879
 0.0010650389998428174 0.010231394213184433 -0.0009024466224172328 -0.006466006777257244 0.004532958017635726 0.020632603522531063 0.9945787041723667 -0.049977487766123645
 -0.000902623402509227 -0.006466004994806501 0.001021373908241346 0.010236899067891879 0.9945787041723667 -0.049977487766123645 0.004539397900274024 0.0206321094146169
0.07503126302626001 0.004907248829269674 0.022623494059422232 0.9940803596359149 -0.054609433092609856 0.0012248665477457084 0.011162850007323843 -0.0010347179828122807 -0.007058027636119518
 0.9940803596359149 -0.054609433092609856 0.004915273329879631 0.022622890469078154 -0.0010345083427824428 -0.007058031694018163 0.0011728819823776523 0.01116953964290381
 0.0012248665477457084 0.011162850007323843 -0.0010345083427824428 -0.007058031694018163 0.004907462187460235 0.022624456465734518 0.9940803971415318 -0.05460842433007958
 -0.0010347179828122807 -0.007058027636119518 0.0011728819823776523 0.01116953964290381 0.9940803971415318 -0.05460842433007958 0.004915124785202557 0.022623890239631763
0.08128386827845 0.005303020315851558 0.02463228890687847 0.9935536513717674 -0.05925501448474219 0.0013966406920300593 0.012093845285840552 -0.0011766134157170213 -0.007649976531554265
 0.9935536513717674 -0.05925501448474219 0.005312437079400313 0.024631601255818304 -0.0011763682225214298 -0.007649983354304877 0.0013356068666279682 0.012101878738504771
 0.0013966406920300593 0.012093845285840552 -0.0011763682225214298 -0.007649983354304877 0.00530327013395502 0.02463332591953118 0.9935536953282865 -0.05925392023445997
 -0.0011766134157170213 -0.007649976531554265 0.0013356068666279682 0.012101878738504771 0.9935536953282865 -0.05925392023445997 0.0053122619647726875 0.024632682325117946
0.08753647353064001 0.005720452959320992 0.026657720815799243 0.992998197818261 -0.06391493665218362 0.0015804530561840677 0.013024196700623224 -0.0013284038508517924 -0.008241672054501017
 0.992998197818261 -0.06391493665218362 0.005731373771980286 0.02665694285607364 -0.001328120433924274 -0.008241682162936175 0.0015096393628144574 0.013033743782204562
 0.0015804530561840677 0.013024196700623224 -0.001328120433924274 -0.008241682162936175 0.00572074203920527 0.026658831147755347 0.9929982487998001 -0.06391375653258831
 -0.0013284038508517924 -0.008241672054501017 0.0015096393628144574 0.013033743782204562 0.9929982487998001 -0.06391375653258831 0.005731169805212288 0.026658104758461535
0.09378907878283 0.006159903651869879 0.028699413402255913 0.9924136512029648 -0.0685889614145988 0.0017763919945109877 0.013953716372192664 -0.0014901800938544418 -0.008832931637008433
 0.9924136512029648 -0.0685889614145988 0.006172440518221158 0.02869853864186456 -0.0014898558052315785 -0.008832945583322073 0.0016950671381095565 0.013964957779833542
 0.0017763919945109877 0.013953716372192664 -0.0014898558052315785 -0.008832945583322073 0.00616023477262351 0.028700595669814397 0.9924137098020464 -0.06858769501357322
 -0.0014901800938544418 -0.008832931637008433 0.0016950671381095565 0.013964957779833542 0.9924137098020464 -0.06858769501357322 0.006172205391333325 0.02869978087592775
0.100041684035 0.006621725857043437 0.030756992152497217 0.9917996661969243 -0.073276833703067 0.0019845424486504147 0.014882212093590504 -0.0016620294906155755 -0.009423569656493625
 0.9917996661969243 -0.073276833703067 0.0066359910306260424 0.030756013846699327 -0.0016616617048454308 -0.00942358802416978 0.0018919745902206823 0.014895339517369953
 0.0019845424486504147 0.014882212093590504 -0.0016616617048454308 -0.00942358802416978 0.006622101772714911 0.030758244877902303 0.9917997330257392 -0.07327548057528684
 -0.0016620294906155755 -0.009423569656493625 0.0018919745902206823 0.014895339517369953 0.9917997330257392 -0.07327548057528684 0.006635722409081396 0.030757335878545265
0.1059090909091 0.007075755395906482 0.03270192632906321 0.991196427247176 -0.07768825833841764 0.0021910483593748213 0.01575240071170673 -0.0018325280124919193 -0.009977087394824459
 0.991196427247176 -0.07768825833841764 0.00709174474501456 0.03270084448872912 -0.0018321170415467362 -0.009977110469950973 0.002087264184333141 0.01576748218654585
 0.0021910483593748213 0.01575240071170673 -0.0018321170415467362 -0.009977110469950973 0.007076175827634894 0.03270324374076575 0.9911965023742162 -0.07768682339538029
 -0.0018325280124919193 -0.009977087394824459 0.002087264184333141 0.01576748218654585 0.9911965023742162 -0.07768682339538029 0.0070914425440188255 0.03270224088541921
0.1062942892872 0.007106269474856032 0.032830082631565664 0.9911559001666398 -0.07797828335173121 0.0022049858071129086 0.015809487500122912 -0.00184403580850178 -0.010013397365523147
 0.9911559001666398 -0.07797828335173121 0.007122375489344961 0.032828993772910556 -0.0018436219226906753 -0.010013420769254796 0.002100442714412672 0.015824703728333687
 0.0022049858071129086 0.015809487500122912 -0.0018436219226906753 -0.010013420769254796 0.007106692912565733 0.03283140424021375 0.9911559758585503 -0.0779768430215419
 -0.00184403580850178 -0.010013397365523147 0.002100442714412672 0.015824703728333687 0.9911559758585503 -0.0779768430215419 0.007122071010594442 0.03283039503417694
0.11254689453939999 0.0076138806933820176 0.03491830912524683 0.9904820134163008 -0.08269302646616211 0.0024377997666759545 0.016735342215451234 -0.002036279115942481 -0.010602222854122908
 0.9904820134163008 -0.08269302646616211 0.00763194039305307 0.034917102432427814 -0.0020358165497778007 -0.010602251939720066 0.0023205489718117166 0.016752861237331343
 0.0024377997666759545 0.016735342215451234 -0.0020358165497778007 -0.010602251939720066 0.007614354350814827 0.03491969794865451 0.990482098627252 -0.08269149842484219
 -0.002036279115942481 -0.010602222854122908 0.0023205489718117166 0.016752861237331343 0.990482098627252 -0.08269149842484219 0.007631597665421262 0.03491858232389662
0.11879949979160001 0.008144901828736957 0.037021293590493394 0.9897776694220924 -0.08742076649419743 0.0026830581954356944 0.0176595719813284 -0.0022388356607471673 -0.01118985103744557
 0.9897776694220924 -0.08742076649419743 0.008165028399839073 0.037019961495743166 -0.002238321856561409 -0.011189886481775489 0.002552367158746355 0.017679619087110836
 0.0026830581954356944 0.0176595719813284 -0.002238321856561409 -0.011189886481775489 0.008145428372169205 0.03702274786405108 0.9897777648321393 -0.08741915020246759
 -0.0022388356607471673 -0.01118985103744557 0.002552367158746355 0.017679619087110836 0.9897777648321393 -0.08741915020246759 0.00816464500153961 0.037021519385811136
0.1250521050438 0.00869967115794954 0.039138654835138106 0.9890425350609241 -0.09216119507811858 0.002940830997792524 0.018581968777345012 -0.0024517777473038343 -0.011776083662740421
 0.9890425350609241 -0.09216119507811858 0.00872197815958517 0.03913718947039875 -0.0024512101701351435 -0.011776126173624755 0.0027959672772925664 0.018604780655532366
 0.002940830997792524 0.018581968777345012 -0.0024512101701351435 -0.011776126173624755 0.00870025321996695 0.039140172699846605 0.989042641375871 -0.09215948996476167
 -0.0024517777473038343 -0.011776083662740421 0.0027959672772925664 0.018604780655532366 0.989042641375871 -0.09215948996476167 0.008721551637433354 0.0391388246974621
0.131304710296 0.009278522744484303 0.0412700078678015 0.9882762808362192 -0.09691399274783466 0.0032111839801804193 0.01950232093403961 -0.002675173613690345 -0.012360719332211929
 0.9882762808362192 -0.09691399274783466 0.00930312413995643 0.04126840104943351 -0.0026745497513178565 -0.012360769648359913 0.003051415406792255 0.01952814576560992
 0.0032111839801804193 0.01950232093403961 -0.0026745497513178565 -0.012360769648359913 0.00927916292123851 0.041271587369041234 0.9882763987882933 -0.09691219821146187
 -0.002675173613690345 -0.012360719332211929 0.003051415406792255 0.01952814576560992 0.9882763987882933 -0.09691219821146187 0.009302652008079188 0.04127011292128642
0.1375573155481 0.00975456217660207 0.043137294452492043 0.9876058633288562 -0.10140101479918628 0.003462467229722944 0.02039343520775046 -0.0028775693338365283 -0.012916458273934815
 0.9876058633288562 -0.10140101479918628 0.009781578907359088 0.0431355686982211 -0.002876885283062918 -0.012916516509523104 0.0032874363785452302 0.0204222514532693
 0.003462467229722944 0.02039343520775046 -0.002876885283062918 -0.012916516509523104 0.009755262310770634 0.043138934154067034 0.9876059934748251 -0.10139913046086206
 -0.0028775693338365283 -0.012916458273934815 0.0032874363785452302 0.0204222514532693 0.9876059934748251 -0.10139913046086206 0.009781059739460215 0.04313735632221481
0.1438099208003 0.010247504979597352 0.04499366800969143 0.9869115258528303 -0.1058755696445841 0.0037238914760943796 0.021280170489587684 -0.0030880198222041537 -0.013468272716312329
 0.9869115258528303 -0.1058755696445841 0.010277052542118732 0.04499181657805239 -0.0030872728536143535 -0.013468339608952625 0.0035329341410208445 0.02131220654729031
 0.0037238914760943796 0.021280170489587684 -0.0030872728536143535 -0.013468339608952625 0.010248267479497208 0.044995365916030435 0.9869116689278344 -0.10587359491073077
 -0.0030880198222041537 -0.013468272716312329 0.0035329341410208445 0.02131220654729031 0.9869116689278344 -0.10587359491073077 0.010276483996518213 0.04499367917662891
0.1500625260525 0.010757160496827853 0.046838941535592 0.9861934636811645 -0.11033751337213901 0.003995356418697966 0.022162410914901093 -0.003306429488974623 -0.014016057348843484
 0.9861934636811645 -0.11033751337213901 0.010789354790505518 0.04683695721466228 -0.003305616878460274 -0.014016133666246936 0.0037878129614999792 0.02219790352001901
 0.003995356418697966 0.022162410914901093 -0.003305616878460274 -0.014016133666246936 0.010757987727108396 0.04684069557232652 0.9861936204437752 -0.11033544762982621
 -0.003306429488974623 -0.014016057348843484 0.0037878129614999792 0.02219790352001901 0.9861936204437752 -0.11033544762982621 0.010788734505907328 0.04683889397767485
0.15631513130469998 0.011283336514447287 0.04867293361716865 0.9854518733014354 -0.11478670330852497 0.00427676044334553 0.023040042805632384 -0.003532701459354672 -0.014559709286233463
 0.9854518733014354 -0.11478670330852497 0.011318293851685618 0.04867080870681834 -0.003531820488128537 -0.014559795826145163 0.0040519758708177376 0.02307923693417427
