! Created with skrf 1.8.0 (http://scikit-rf.org).
# GHz S RI R 50.0 
!freq ReS11 ImS11 ReS12 ImS12 ReS13 ImS13
! ReS14 ImS14
! ReS21 ImS21 ReS22 ImS22 ReS23 ImS23
! ReS24 ImS24
! ReS31 ImS31 ReS32 ImS32 ReS33 ImS33
! ReS34 ImS34
! ReS41 ImS41 ReS42 ImS42 ReS43 ImS43
! ReS44 ImS44
!
0.0 0.001488841322057 0.0 0.998511158678 0.0 5.74853119843e-05 0.0 -5.74853119838e-05 7.039920331894766e-21
 0.998511158678 0.0 0.00148884132203 0.0 -5.748531198324e-05 7.039920331826185e-21 5.748531198271e-05 0.0
 5.74853119843e-05 0.0 -5.748531198324e-05 7.039920331826185e-21 0.001488841309254 0.0 0.9985111586652 0.0
 -5.74853119838e-05 7.039920331894766e-21 5.748531198271e-05 0.0 0.9985111586652 0.0 0.001488841309254 0.0
0.005 0.0016017496279401697 0.0012153693887792185 0.9983683333413984 -0.003119032508671594 8.087341657418953e-05 0.0006501248850103966 -7.845350857906043e-05 -0.0004051765158813196
 0.9983683333413984 -0.003119032508671594 0.0016017553728261797 0.0012153660537009938 -7.845735958523007e-05 -0.0004051794761451085 8.082884464043194e-05 0.000650141893251568
 8.087341657418953e-05 0.0006501248850103966 -7.845735958523007e-05 -0.0004051794761451085 0.0016017472969126192 0.0012153035186127815 0.9983683329944961 -0.003119099567148053
 -7.845350857906043e-05 -0.0004051765158813196 8.082884464043194e-05 0.000650141893251568 0.9983683329944961 -0.003119099567148053 0.001601757012117212 0.0012152978075051831
0.006252605252188 0.0016313170362634581 0.0015240117468666773 0.9983307018183242 -0.0038995617302144715 8.753080094302448e-05 0.0008129661068237821 -8.435374332385487e-05 -0.0005070009816637535
 0.9983307018183242 -0.0038995617302144715 0.001631326016175703 0.0015240074781456704 -8.435973581884846e-05 -0.0005070046319521521 8.746116168572729e-05 0.0008129881814970145
 8.753080094302448e-05 0.0008129661068237821 -8.435973581884846e-05 -0.0005070046319521521 0.001631313452935089 0.0015239294131054626 0.9983307013369 -0.0038996455531708904
 -8.435374332385487e-05 -0.0005070009816637535 8.746116168572729e-05 0.0008129881814970145 0.9983307013369 -0.0038996455531708904 0.001631328639942951 0.0015239221676462585
0.01250521050438 0.00178670422254725 0.003080116085377934 0.9981316569862939 -0.0077999875105077944 0.00012557986272625349 0.0016262574255689378 -0.0001177243668871309 -0.0010165047847683724
 0.9981316569862939 -0.0077999875105077944 0.0017867400748838647 0.0030801065546294548 -0.00011774798324028701 -0.001016511538015295 0.000125302166934536 0.001626310345236255
 0.00012557986272625349 0.0016262574255689378 -0.00011774798324028701 -0.001016511538015295 0.0017866904857459897 0.0030799517277112142 0.9981316556394698 -0.00780015490371785
 -0.0001177243668871309 -0.0010165047847683724 0.000125302166934536 0.001626310345236255 0.9981316556394698 -0.00780015490371785 0.0017867511327617819 0.003079936144693787
0.01875781575657 0.0019553336332803276 0.0046585154888695345 0.9979137828805346 -0.011710782457132314 0.00017171892489896683 0.0024404422605394036 -0.0001576985825998554 -0.0015277606383419448
 0.9979137828805346 -0.011710782457132314 0.0019554141874255295 0.00465849967648124 -0.0001577512490033651 -0.0015277698448487058 0.00017109513512561663 0.002440536473684191
 0.00017171892489896683 0.0024404422605394036 -0.0001577512490033651 -0.0015277698448487058 0.0019553031810741373 0.004658269317553097 0.9979137802765239 -0.011711033325148666
 -0.0001576985825998554 -0.0015277606383419448 0.00017109513512561663 0.002440536473684191 0.9979137802765239 -0.011711033325148666 0.001955439467967559 0.004658244179405723
0.02501042100875 0.0021375267231309196 0.006257004054481487 0.9976768289366211 -0.015633850417167947 0.00022603577827028874 0.0032555639888575405 -0.00020437453999815178 -0.0020405373762563037
 0.9976768289366211 -0.015633850417167947 0.0021376697671602438 0.00625698091938061 -0.00020446754688622568 -0.0020405482723939356 0.00022492782031222376 0.0032557115590025223
 0.00022603577827028874 0.0032555639888575405 -0.00020446754688622568 -0.0020405482723939356 0.002137473005301652 0.006256676302150009 0.997676824687335 -0.01563418469707054
 -0.00020437453999815178 -0.0020405373762563037 0.00022492782031222376 0.0032557115590025223 0.997676824687335 -0.01563418469707054 0.0021377150576243824 0.006256640276449214
0.03126302626094 0.0023335916123287674 0.007874450574532102 0.9974205315016057 -0.019570010866745913 0.00028861878714869977 0.00407158921629617 -0.0002578476644664361 -0.0025546752537395677
 0.9974205315016057 -0.019570010866745913 0.0023338149027387926 0.007874419055546018 -0.0002579921897812813 -0.0025546869605001725 0.0002868884225069617 0.00407180383004454
 0.00028861878714869977 0.00407158921629617 -0.0002579921897812813 -0.0025546869605001725 0.0023335080832660735 0.007874041509448811 0.9974205252184644 -0.01957042851517845
 -0.0002578476644664361 -0.0025546752537395677 0.0002868884225069617 0.00407180383004454 0.9974205252184644 -0.01957042851517845 0.0023338859875278455 0.00787399315008948
0.037515631513130004 0.0025438298062065686 0.009510120505649578 0.9971446207520137 -0.023519676882267165 0.00035955599887376144 0.004888454332624647 -0.00031821137741296453 -0.003070039388423722
 0.9971446207520137 -0.023519676882267165 0.0025441510746026757 0.00951007952250161 -0.00031841849847868194 -0.0030700509109555327 0.0003570647685541735 0.0048887513149986584
 0.00035955599887376144 0.004888454332624647 -0.00031841849847868194 -0.0030700509109555327 0.0025437099254411004 0.00950963043883369 0.9971446120474696 -0.023520177868837765
 -0.00031821137741296453 -0.003070039388423722 0.0003570647685541735 0.0048887513149986584 0.9971446120474696 -0.023520177868837765 0.0025442537387286948 0.009509568186194658
0.043768236765320004 0.0027685387925445886 0.011163469630164099 0.9968488234916247 -0.027483061410687334 0.00043893472935583016 0.005706079673606577 -0.00038555735619783487 -0.0035865055960411355
 0.9968488234916247 -0.027483061410687334 0.0027689757513810077 0.011163418084410263 -0.00038583805682050344 -0.0035865158234885813 0.00043554392810514844 0.005706476005623103
 0.00043893472935583016 0.005706079673606577 -0.00038583805682050344 -0.0035865158234885813 0.0027683760228881023 0.01116289892107582 0.9968488119775158 -0.027483645713137658
 -0.00038555735619783487 -0.0035865055960411355 0.00043554392810514844 0.005706476005623103 0.9968488119775158 -0.027483645713137658 0.002769115779644302 0.011162821101724079
0.050020842017509996 0.003008013249486857 0.012834058764433219 0.996532864562093 -0.031460262491401034 0.0005268413157107913 0.006524375364746842 -0.00045997563116047897 -0.004103954546457905
 0.996532864562093 -0.031460262491401034 0.0030085835969884045 0.012833995540116798 -0.0004603408061378718 -0.004103962251885365 0.0005224119826348015 0.006524889701843289
 0.0005268413157107913 0.006524375364746842 -0.0004603408061378718 -0.004103962251885365 0.0030078010566458075 0.012833407826549244 0.996532849850015 -0.031460930090735736
 -0.00045997563116047897 -0.004103954546457905 0.0005224119826348015 0.006524889701843289 0.996532849850015 -0.031460930090735736 0.0030087667745808534 0.012833312652608888
0.055454545454549996 0.0032283423888456023 0.014299559207852093 0.996241698373662 -0.034927812182990244 0.0006102266535102063 0.007235968177546352 -0.0005304596402876651 -0.00455434031303948
 0.996241698373662 -0.034927812182990244 0.0032290430204998904 0.014299484915134364 -0.0005309070071015756 -0.004554344740174617 0.0006047817530684415 0.007236601529699426
 0.0006102266535102063 0.007235968177546352 -0.0005309070071015756 -0.004554344740174617 0.0032280819415568085 0.014298838923898098 0.9962416805664964 -0.03492855216017203
 -0.0005304596402876651 -0.00455434031303948 0.0006047817530684415 0.007236601529699426 0.9962416805664964 -0.03492855216017203 0.00322926839533557 0.014298727126874146
0.056273447269699996 0.003262545667520714 0.01452151192213738 0.9961964676716895 -0.03545130502360461 0.0006233609411267558 0.007343244197412296 -0.0005415546114527827 -0.00462226889006611
 0.9961964676716895 -0.03545130502360461 0.0032632670920587407 0.014521435886482218 -0.0005420150695869618 -0.004622272730454117 0.0006177538598921508 0.007343896888227755
 0.0006233609411267558 0.007343244197412296 -0.0005420150695869618 -0.004622272730454117 0.003262277520294082 0.014520781219670553 0.9961964493726575 -0.03545205590826381
 -0.0005415546114527827 -0.00462226889006611 0.0006177538598921508 0.007343896888227755 0.9961964493726575 -0.03545205590826381 0.0032634992053361647 0.014520666788061751
0.06252605252188 0.0035324266858490676 0.016225493288434294 0.9958393559420055 -0.039456163725389556 0.0007285774987479584 0.008162583200396215 -0.0006303810712559772 -0.005141331691986487
 0.9958393559420055 -0.039456163725389556 0.0035333168706595643 0.016225403292230167 -0.0006309475374262538 -0.005141330208234185 0.0007216532044714538 0.008163396305668074
 0.0007285774987479584 0.008162583200396215 -0.0006309475374262538 -0.005141330208234185 0.0035320960558322635 0.01622468334094073 0.9958393336662545 -0.039456997887533804
 -0.0006303810712559772 -0.005141331691986487 0.0007216532044714538 0.008163396305668074 0.9958393336662545 -0.039456997887533804 0.0035336037068308037 0.016224547632436574
0.06877865777407 0.003817945269892901 0.017945693504722256 0.9954612522987001 -0.043474776785178096 0.0008425734733459167 0.008982284587368126 -0.0007265401175060901 -0.0056610254939641015
 0.9954612522987001 -0.043474776785178096 0.0038190218973059784 0.017945588382739255 -0.0007272232340782318 -0.005661017110913857 0.0008341922638731951 0.008983281898761488
 0.0008425734733459167 0.008982284587368126 -0.0007272232340782318 -0.005661017110913857 0.0038175456317360175 0.017944804885943216 0.9954612256557189 -0.043475694222604035
 -0.0007265401175060901 -0.0056610254939641015 0.0008341922638731951 0.008983281898761488 0.9954612256557189 -0.043475694222604035 0.003819369244698862 0.017944645764116567
0.07503126302626001 0.004119388798754886 0.019681820976626734 0.9950618797762264 -0.047507054493445645 0.0009654298371439327 0.009802236353333429 -0.0008301151421577021 -0.006181231731030709
 0.9950618797762264 -0.047507054493445645 0.0041206695544951525 0.019681699547830316 -0.0008309254699147646 -0.006181214757526864 0.0009554517879083598 0.009803443412147166
 0.0009654298371439327 0.009802236353333429 -0.0008309254699147646 -0.006181214757526864 0.004118913630257988 0.01968085431694548 0.9950618483746204 -0.047508055208100246
 -0.0008301151421577021 -0.006181231731030709 0.0009554517879083598 0.009803443412147166 0.9950618483746204 -0.047508055208100246 0.004121083202434117 0.019680669526846575
0.08128386827845 0.004437043092425699 0.021433596074253332 0.9946409617660739 -0.051552884986480696 0.0010972259516548715 0.01062232267953802 -0.0009411877672876376 -0.006701830343751336
 0.9946409617660739 -0.051552884986480696 0.00443854566994986 0.021433457141846253 -0.0009421357860199491 -0.006701802972682284 0.0010855109331977335 0.010623766795225129
 0.0010972259516548715 0.01062232267953802 -0.0009421357860199491 -0.006701802972682284 0.004436485875076083 0.02143255206354339 0.9946409252128884 -0.05155396898240626
 -0.0009411877672876376 -0.006701830343751336 0.0010855109331977335 0.010623766795225129 0.9946409252128884 -0.05155396898240626 0.004439031408874763 0.02143233923039054
0.08753647353064001 0.004771192401606922 0.023200747143152383 0.9941982222294815 -0.05561213818344592 0.0012380394746742158 0.011442424216645741 -0.0010598377838430732 -0.007222699516345551
 0.9941982222294815 -0.05561213818344592 0.0047729345064250125 0.023200589494564914 -0.0010609338926621452 -0.007222659824723509 0.0012244471722900692 0.011444134485073885
 0.0012380394746742158 0.011442424216645741 -0.0010609338926621452 -0.007222659824723509 0.00477054662050125 0.023199626527426253 0.9941981801308191 -0.055613305471033075
 -0.0010598377838430732 -0.007222699516345551 0.0012244471722900692 0.011444134485073885 0.9941981801308191 -0.055613305471033075 0.004773498127406311 0.023199383155039045
0.09378907878283 0.005122119370801771 0.024983007636240503 0.993733385888757 -0.059684668607419944 0.0013879462704588302 0.012262418289219238 -0.0011861430859742682 -0.007743715497840596
 0.993733385888757 -0.059684668607419944 0.005124118724769218 0.024982830042890106 -0.0011873976034194626 -0.007743661446881934 0.001372336205733547 0.012264425610616548
 0.0013879462704588302 0.012262418289219238 -0.0011873976034194626 -0.007743661446881934 0.005121378515262484 0.02498181122284991 0.993733337848725 -0.05968591919902715
 -0.0011861430859742682 -0.007743715497840596 0.001372336205733547 0.012264425610616548 0.993733337848725 -0.05968591919902715 0.005124766019672702 0.024981534691954462
0.100041684035 0.005490104981355082 0.026780114023955016 0.9932461783998734 -0.06377031743268616 0.0015470203217678319 0.013082179055260894 -0.0013201796025204282 -0.008264752472544379
 0.9932461783998734 -0.06377031743268616 0.00549237932711246 0.026779915240897605 -0.0013216027664812258 -0.008264681907779277 0.0015292518755199022 0.013084516151915835
 0.0015470203217678319 0.013082179055260894 -0.0013216027664812258 -0.008264681907779277 0.005489262545406101 0.026778842680007818 0.9932461240212861 -0.06377165134508687
 -0.0013201796025204282 -0.008264752472544379 0.0015292518755199022 0.013084516151915835 0.9932461240212861 -0.06377165134508687 0.00549311608838736 0.026778530246378864
0.1059090909091 0.005851183869566197 0.028479776458835603 0.9927683961132955 -0.06761604471092862 0.0017046961412919286 0.013851110626315617 -0.0014530559609731123 -0.008753595540804683
 0.9927683961132955 -0.06761604471092862 0.005853732424842458 0.028479556644207097 -0.001454646621030951 -0.008753507417159176 0.0016847742875650568 0.01385378858085638
 0.0017046961412919286 0.013851110626315617 -0.001454646621030951 -0.008753507417159176 0.005850240198276096 0.02847843564381453 0.9927683354235215 -0.06761745682958738
 -0.0014530559609731123 -0.008753595540804683 0.0016847742875650568 0.01385378858085638 0.9927683354235215 -0.06761745682958738 0.005854558409060255 0.028478086910391495
0.1062942892872 0.005875428481391423 0.028591804216944468 0.9927363265157655 -0.0678689140247242 0.0017153336436822875 0.013901577627184802 -0.0014620212254593974 -0.008785682473714354
 0.9927363265157655 -0.0678689140247242 0.005877995586564257 0.028591582982368458 -0.0014636231929899958 -0.008785593125094054 0.001695266080587366 0.01390427906067452
 0.0017153336436822875 0.013901577627184802 -0.0014636231929899958 -0.008785593125094054 0.005874477964003528 0.028590458870438935 0.9927362653994815 -0.06787033127884769
 -0.0014620212254593974 -0.008785682473714354 0.001695266080587366 0.01390427906067452 0.9927362653994815 -0.06787033127884769 0.0058788276068623985 0.028590107662923823
0.11254689453939999 0.006278367304309788 0.03041781636306239 0.9922035582418177 -0.07198027711110846 0.0018929561980770067 0.01472048217489634 -0.001611739737143836 -0.009306375319710925
 0.9922035582418177 -0.07198027711110846 0.006281244966169385 0.030417571397582346 -0.0016135305841342847 -0.009306264801741628 0.0018704486922362998 0.014723584363088649
 0.0018929561980770067 0.01472048217489634 -0.0016135305841342847 -0.009306264801741628 0.006277302210020194 0.03041639800586247 0.9922034899865175 -0.07198177772990154
 -0.001611739737143836 -0.009306375319710925 0.0018704486922362998 0.014723584363088649 0.9922034899865175 -0.07198177772990154 0.006282178038258312 0.03041600502418903
0.11879949979160001 0.006699196978876157 0.0322578879144109 0.9916476029840353 -0.07610421568763419 0.0020799558090166086 0.015538758008755442 -0.0017694047355874068 -0.009826698575118102
 0.9916476029840353 -0.07610421568763419 0.006702403028580206 0.032257617920264894 -0.0017713944563456728 -0.009826564387015112 0.002054867470773415 0.015542299242243802
 0.0020799558090166086 0.015538758008755442 -0.0017713944563456728 -0.009826564387015112 0.006698010818338252 0.03225639759841955 0.9916475271866275 -0.07610579970070418
 -0.0017694047355874068 -0.009826698575118102 0.002054867470773415 0.015542299242243802 0.9916475271866275 -0.07610579970070418 0.006703442945157807 0.03225595971086642
0.1250521050438 0.007138191032532039 0.03411175488248049 0.9910681916952542 -0.08024052974204533 0.0022763980786314315 0.016356267655626984 -0.0019350835587731564 -0.010346517523570952
 0.9910681916952542 -0.08024052974204533 0.00714174333986266 0.034111458542454634 -0.0019372820655490608 -0.010346357049422003 0.0022485879823486835 0.016360288113839837
 0.0022763980786314315 0.016356267655626984 -0.0019372820655490608 -0.010346357049422003 0.007136877323207992 0.034110193726495174 0.9910681079499466 -0.08024219717958474
 -0.0019350835587731564 -0.010346517523570952 0.0022485879823486835 0.016360288113839837 0.9910681079499466 -0.08024219717958474 0.00714289589318777 0.034109707667396294
0.131304710296 0.007595620889671689 0.03597915125420399 0.9904650570166788 -0.08438901082235928 0.002482346303516729 0.01717287092396901 -0.0021088412077521624 -0.010865695156521261
 0.9904650570166788 -0.08438901082235928 0.007599537367389219 0.035978827230457165 -0.0021112583301698346 -0.010865505665460209 0.0024516735163525667 0.017177412690797794
 0.002482346303516729 0.01717287092396901 -0.0021112583301698346 -0.010865505665460209 0.0075941731563649 0.03597752044104225 0.9904649649155493 -0.08439076171885813
 -0.0021088412077521624 -0.010865695156521261 0.0024516735163525667 0.017177412690797794 0.9904649649155493 -0.08439076171885813 0.007600808348879038 0.035976982808157296
0.1375573155481 0.007965695275580956 0.03761559604180228 0.9899440321945503 -0.08830512874300946 0.002671680733604374 0.017963694645073223 -0.0022645950610119597 -0.011359349782616344
 0.9899440321945503 -0.08830512874300946 0.007969995942299055 0.03761525278769911 -0.002267245341928386 -0.011359131117626512 0.0026380736130357206 0.01796875038512934
 0.002671680733604374 0.017963694645073223 -0.002267245341928386 -0.011359131117626512 0.007964107563584321 0.03761389677475615 0.9899439313599068 -0.08830696308220638
 -0.0022645950610119597 -0.011359349782616344 0.0026380736130357206 0.01796875038512934 0.9899439313599068 -0.08830696308220638 0.00797139056527283 0.03761331381836415
0.1438099208003 0.00834874703245462 0.03924359296234922 0.9894047579861964 -0.09221150612408223 0.0028686719600821992 0.01875144693300489 -0.00242658860973709 -0.011850205755563878
 0.9894047579861964 -0.09221150612408223 0.008353450187903984 0.03924322980546107 -0.0024294826089222097 -0.011849955237673866 0.002832002088519468 0.01875705505909808
 0.0028686719600821992 0.01875144693300489 -0.0024294826089222097 -0.011849955237673866 0.00834701296876469 0.039241826460174795 0.9894046480132316 -0.09221342393199779
 -0.00242658860973709 -0.011850205755563878 0.002832002088519468 0.01875705505909808 0.9894046480132316 -0.09221342393199779 0.008354974138553356 0.03924119536776521
0.1500625260525 0.008744643852544327 0.040863011362836064 0.9888473706428321 -0.09610805156109327 0.0030732540475650032 0.01953605133959673 -0.002594758033022401 -0.012338191026823592
 0.9888473706428321 -0.09610805156109327 0.00874976785124205 0.0408626275752006 -0.0025979062878803273 -0.012337905869646058 0.0030333938045176384 0.019542251652640136
 0.0030732540475650032 0.01953605133959673 -0.0025979062878803273 -0.012337905869646058 0.00874275707676067 0.040861178892920014 0.9888472511249625 -0.09611005286537916
 -0.002594758033022401 -0.012338191026823592 0.0030333938045176384 0.019542251652640136 0.9888472511249625 -0.09611005286537916 0.008751426808444103 0.04086049670880739
0.15631513130469998 0.009153252518260909 0.042473724561008154 0.9882720070771829 -0.09999467386093541 0.0032853602976818993 0.020317432674394526 -0.002769038739188765 -0.012823235048625814
