! Created with skrf 1.8.0 (http://scikit-rf.org).
# GHz S RI R 50.0 
!freq ReS11 ImS11 ReS12 ImS12 ReS13 ImS13
! ReS14 ImS14
! ReS21 ImS21 ReS22 ImS22 ReS23 ImS23
! ReS24 ImS24
! ReS31 ImS31 ReS32 ImS32 ReS33 ImS33
! ReS34 ImS34
! ReS41 ImS41 ReS42 ImS42 ReS43 ImS43
! ReS44 ImS44
!
0.0 0.001456840364579 0.0 0.9985431596354 0.0 5.588696770183e-05 0.0 -5.588696756867e-05 6.844179594702365e-21
 0.9985431596354 0.0 0.001456840364568 0.0 -5.588696756837e-05 6.844179594665626e-21 5.588696770171e-05 0.0
 5.588696770183e-05 0.0 -5.588696756837e-05 6.844179594665626e-21 0.001456840361907 0.0 0.9985431596328 0.0
 -5.588696756867e-05 6.844179594702365e-21 5.588696770171e-05 0.0 0.9985431596328 0.0 0.001456840361914 0.0
0.005 0.0015671634577464958 0.0011950521062251303 0.9984036391584791 -0.0030517704806268917 7.770449988588388e-05 0.0005976555569713806 -7.559235827794643e-05 -0.0003783452362744669
 0.9984036391584791 -0.0030517704806268917 0.0015671742178461608 0.0011950458459716086 -7.559437857579282e-05 -0.0003783468155577478 7.763014918123734e-05 0.0005976838335861314
 7.770449988588388e-05 0.0005976555569713806 -7.559437857579282e-05 -0.0003783468155577478 0.001567161917646422 0.00119498578331871 0.9984036388019157 -0.0030518375345227606
 -7.559235827794643e-05 -0.0003783452362744669 7.763014918123734e-05 0.0005976838335861314 0.9984036388019157 -0.0030518375345227606 0.001567175049209739 0.0011949780644602741
0.006252605252188 0.0015960250196946403 0.001498512035052743 0.9983669219433844 -0.003815469374904597 8.389642566843533e-05 0.0007473718730871856 -8.111810499670663e-05 -0.0004734206132254109
 0.9983669219433844 -0.003815469374904597 0.0015960418393661145 0.001498504077076319 -8.112124854850769e-05 -0.00047342256125233983 8.378025874867976e-05 0.0007474085844406796
 8.389642566843533e-05 0.0007473718730871856 -8.112124854850769e-05 -0.00047342256125233983 0.0015960227009567485 0.001498429131491392 0.9983669214750305 -0.003815553198449856
 -8.111810499670663e-05 -0.0004734206132254109 8.378025874867976e-05 0.0007474085844406796 0.9983669214750305 -0.003815553198449856 0.0015960432284899918 0.0014984193412250386
0.01250521050438 0.0017475346053613624 0.0030284084516879538 0.9981729630142206 -0.007631797649683273 0.00011918793700854474 0.0014951817632637557 -0.00011226740900273099 -0.0009491638183101465
 0.9981729630142206 -0.007631797649683273 0.0017476017613368056 0.003028391206474039 -0.00011227979526327043 -0.0009491674297542575 0.00011872466815375492 0.0014952698631363003
 0.00011918793700854474 0.0014951817632637557 -0.00011227979526327043 -0.0009491674297542575 0.0017475258812490542 0.0030282429804240514 0.9981729616828375 -0.007631965045269423
 -0.00011226740900273099 -0.0009491638183101465 0.00011872466815375492 0.0014952698631363003 0.9981729616828375 -0.007631965045269423 0.0017476078544611715 0.0030282219597251316
0.01875781575657 0.001911685440954432 0.0045801180490602595 0.9979610520293297 -0.011458284960872258 0.00016184116314311834 0.0022439175935136846 -0.00014942727965409908 -0.0014265787800288453
 0.9979610520293297 -0.011458284960872258 0.0019118363320858609 0.004580090111812625 -0.0001494548986995062 -0.0014265837186441344 0.00016080042779175604 0.002244074505767522
 0.00016184116314311834 0.0022439175935136846 -0.0001494548986995062 -0.0014265837186441344 0.001911666252911858 0.004579870228365175 0.9979610494599223 -0.011458535855558005
 -0.00014942727965409908 -0.0014265787800288453 0.00016080042779175604 0.002244074505767522 0.9979610494599223 -0.011458535855558005 0.0019118504615437892 0.004579836397855393
0.02501042100875 0.0020887852988247945 0.006151491627794517 0.9977309494561907 -0.015296800472490801 0.0002119370150649686 0.0029936137333842843 -0.00019268745532179018 -0.0019054634867522295
 0.9977309494561907 -0.015296800472490801 0.0020890532490414468 0.0061514515298621555 -0.0001927362250454826 -0.0019054693585084876 0.00021008832635899895 0.0029938595282794343
 0.0002119370150649686 0.0029936137333842843 -0.0001927362250454826 -0.0019054693585084876 0.002088751584169766 0.006151161703675498 0.9977309452653876 -0.015297134825110841
 -0.00019268745532179018 -0.0019054634867522295 0.00021008832635899895 0.0029938595282794343 0.9977309452653876 -0.015297134825110841 0.002089078741876505 0.006151113359750469
0.03126302626094 0.002279129182665709 0.007741430908879907 0.9974824030149645 -0.019148153428146332 0.00026955695018867227 0.0037442381560168956 -0.00024213536554831938 -0.0023856775413782097
 0.9974824030149645 -0.019148153428146332 0.002279547459052929 0.0077413771204906156 -0.0002422111440881057 -0.0023856838937009466 0.00026666948358454364 0.003744595565159884
 0.00026955695018867227 0.0037442381560168956 -0.0002422111440881057 -0.0023856838937009466 0.002279076882017626 0.007741019161553916 0.9974823968193194 -0.01914857122310938
 -0.00024213536554831938 -0.0023856775413782097 0.00026666948358454364 0.003744595565159884 0.9974823968193194 -0.01914857122310938 0.0022795876471984364 0.007740954478992628
0.037515631513130004 0.0024830058346916846 0.009349225637454397 0.9972151543634878 -0.023012755987978358 0.00033478218947594003 0.004495732647188425 -0.0002978567357251774 -0.0028671019434512238
 0.9972151543634878 -0.023012755987978358 0.0024836076595127934 0.009349156569407827 -0.00029796532779759237 -0.0028671082650034577 0.0003306246851261115 0.004496227090270073
 0.00033478218947594003 0.004495732647188425 -0.00029796532779759237 -0.0028671082650034577 0.0024829308901737897 0.009348732391037277 0.9972151457775719 -0.02301325722611712
 -0.0002978567357251774 -0.0028671019434512238 0.0003306246851261115 0.004496227090270073 0.9972151457775719 -0.02301325722611712 0.0024836658795941015 0.00934864942397312
0.043768236765320004 0.0027007002477134586 0.010974351862378816 0.996928941788821 -0.026890824881363976 0.000407693349286043 0.00524802503746702 -0.0003599358076649831 -0.003349626850939431
 0.996928941788821 -0.026890824881363976 0.0027015188085376903 0.010974265867262746 -0.0003600829684167662 -0.0033496325715500737 0.0004020340648192735 0.005248684652655379
 0.000407693349286043 0.00524802503746702 -0.0003600829684167662 -0.0033496325715500737 0.002700598604860843 0.0109737774845182 0.9969289304265647 -0.02689140958089916
 -0.0003599358076649831 -0.003349626850939431 0.0004020340648192735 0.005248684652655379 0.9969289304265647 -0.02689140958089916 0.002701598403888045 0.010973674166980564
0.050020842017509996 0.002932494841604519 0.012616388554239475 0.996623501566825 -0.030782464719261868 0.0004883702210734203 0.006001034249685419 -0.00042845542210058886 -0.0038331465288436823
 0.996623501566825 -0.030782464719261868 0.0029335632993305796 0.012616283927385808 -0.00042864685953788176 -0.0038331510194876874 0.00048097691095775843 0.006001889925520439
 0.0004883702210734203 0.006001034249685419 -0.00042864685953788176 -0.0038331510194876874 0.0029323624471358045 0.012615733460540273 0.9966234870388105 -0.030783132911949004
 -0.00042845542210058886 -0.0038331465288436823 0.00048097691095775843 0.006001889925520439 0.9966234870388105 -0.030783132911949004 0.002933667618353977 0.012615607606571976
0.055454545454549996 0.0031456002927056346 0.014056821632790727 0.9963422438072064 -0.03417546614497779 0.0005648488118523122 0.006655936388466796 -0.0004932948509778669 -0.0042540667894227615
 0.9963422438072064 -0.03417546614497779 0.0031469128345614156 0.014056699386063878 -0.0004935293664711475 -0.0042540696546387235 0.0005557595747843014 0.006656989692792315
 0.0005648488118523122 0.006655936388466796 -0.0004935293664711475 -0.0042540696546387235 0.0031454378851850004 0.014056096771043513 0.9963422262103802 -0.034176206930792735
 -0.0004932948509778669 -0.0042540667894227615 0.0005557595747843014 0.006656989692792315 0.9963422262103802 -0.034176206930792735 0.003147041363970105 0.01405594946366207
0.056273447269699996 0.003178670064815119 0.014274976700015672 0.9962985687501847 -0.03468770883012801 0.0005768916180811884 0.006754672773573454 -0.0005034970374327517 -0.004317556873124257
 0.9962985687501847 -0.03468770883012801 0.0031800215618205644 0.014274851680216222 -0.0005037384141207245 -0.0043175594459313625 0.0005675315290900869 0.00675575818153275
 0.0005768916180811884 0.006754672773573454 -0.0005037384141207245 -0.0043175594459313625 0.0031785028690720285 0.014274241355727028 0.9962985506652289 -0.034688460560190565
 -0.0005034970374327517 -0.004317556873124257 0.0005675315290900869 0.00675575818153275 0.9962985506652289 -0.034688460560190565 0.0031801539600103007 0.014274090659214889
0.06252605252188 0.003439504727085922 0.015949796790498953 0.9959538776903696 -0.038606541705017 0.0006733352527848103 0.007508848030301032 -0.0005851407186718117 -0.0048027540475536565
 0.9959538776903696 -0.038606541705017 0.0034411723944711165 0.01594964956046609 -0.0005854376528734778 -0.004802753955829088 0.0006617751302448864 0.007510199657607335
 0.0006733352527848103 0.007508848030301032 -0.0005854376528734778 -0.004802753955829088 0.0034392986828558976 0.01594898171086247 0.9959538556536814 -0.03860737702942467
 -0.0005851407186718117 -0.0048027540475536565 0.0006617751302448864 0.007510199657607335 0.9959538556536814 -0.03860737702942467 0.003441336233254467 0.01594880374517635
0.06877865777407 0.0037152761766217155 0.01764055541106803 0.9955891624080883 -0.042538912341916334 0.0007777776345680157 0.008263463180117288 -0.0006734651062627362 -0.005288633680490669
 0.9955891624080883 -0.042538912341916334 0.003717293141199448 0.017640384097738236 -0.000673823172733262 -0.0052886301187472845 0.0007637837357615401 0.008265120362634146
 0.0007777776345680157 0.008263463180117288 -0.000673823172733262 -0.0052886301187472845 0.0037150272405214613 0.017639661168307574 0.9955891360217115 -0.04253983132400642
 -0.0006734651062627362 -0.005288633680490669 0.0007637837357615401 0.008265120362634146 0.9955891360217115 -0.04253983132400642 0.0037174917891537214 0.017639453385674925
0.07503126302626001 0.004006260388163765 0.01934697674533394 0.9952041568779837 -0.04648474268018703 0.0008902939757365845 0.009018417644386777 -0.0007685473755612873 -0.005775090350558528
 0.9952041568779837 -0.04648474268018703 0.004008659779882451 0.019346779419946166 -0.0007689721061459376 -0.005775082454550755 0.0008736320893256387 0.00902042259937388
 0.0008902939757365845 0.009018417644386777 -0.0007689721061459376 -0.005775082454550755 0.004005964521347729 0.01934600395392597 0.9952041257403573 -0.046485745404893385
 -0.0007685473755612873 -0.005775090350558528 0.0008736320893256387 0.00902042259937388 0.9952041257403573 -0.046485745404893385 0.004008896612700491 0.01934576368467399
0.08128386827845 0.004312731998584993 0.021068796896952884 0.994798595263681 -0.050443933220248656 0.0010109581058924504 0.009773607445712583 -0.0008704631875496453 -0.0062620172576080746
 0.994798595263681 -0.050443933220248656 0.0043155469572910945 0.021068571574938078 -0.0008709600715222167 -0.006262004104380282 0.000991393575330446 0.009776005304419433
 0.0010109581058924504 0.009773607445712583 -0.0008709600715222167 -0.006262004104380282 0.0043123851668798955 0.021067746233802025 0.9947985589687572 -0.05044501977462336
 -0.0008704631875496453 -0.0062620172576080746 0.000991393575330446 0.009776005304419433 0.9947985589687572 -0.05044501977462336 0.004315825357746153 0.02106747068525218
0.08753647353064001 0.004634964300791709 0.022805759993136297 0.9943722121141542 -0.054416366865406865 0.0011398423895138973 0.010528925456092424 -0.0009792866350235862 -0.006749305989218199
 0.9943722121141542 -0.054416366865406865 0.004638227983342391 0.022805504633734444 -0.0009798611193643514 -0.00674928659714283 0.0011171401401781202 0.010531764296068087
 0.0011398423895138973 0.010528925456092424 -0.0009798611193643514 -0.00674928659714283 0.004634562475673852 0.02280463218467906 0.9943721702514109 -0.0544175373519713
 -0.0009792866350235862 -0.006749305989218199 0.0011171401401781202 0.010531764296068087 0.9943721702514109 -0.0544175373519713 0.004638551341325994 0.02280431844001406
0.09378907878283 0.004973229215340534 0.024557615378722527 0.99392474254176 -0.058401911677000436 0.0012770176467048551 0.011284261568348093 -0.001095090184847267 -0.0072368463676204765
 0.99392474254176 -0.058401911677000436 0.004976974802399235 0.02455732788442344 -0.0010957476743125821 -0.007236819696467074 0.0012509422158905267 0.01128759244539564
 0.0012770176467048551 0.011284261568348093 -0.0010957476743125821 -0.007236819696467074 0.00497276837453835 0.024556411206901912 0.993924694695647 -0.05840316620831593
 -0.001095090184847267 -0.0072368463676204765 0.0012509422158905267 0.01128759244539564 0.993924694695647 -0.05840316620831593 0.004977346515428888 0.0245560562236327
0.100041684035 0.005327797241921611 0.026324115564824564 0.9934559223824968 -0.06240042287908351 0.0014225530758176297 0.012039502832699002 -0.0012179446172415418 -0.007724526335193602
 0.9934559223824968 -0.06240042287908351 0.005332057945193474 0.026323793780595465 -0.0012186904744287581 -0.007724491286180859 0.00139286864522253 0.01204337981247745
 0.0014225530758176297 0.012039502832699002 -0.0012186904744287581 -0.007724491286180859 0.005327273370439459 0.026322835866691298 0.9934558681323894 -0.06240176157873238
 -0.0012179446172415418 -0.007724526335193602 0.00139286864522253 0.01204337981247745 0.9934558681323894 -0.06240176157873238 0.005332481418527218 0.026322436474976684
0.1059090909091 0.005675588888224312 0.02799488888400496 0.9929963317166093 -0.06616425541645116 0.0015667862750081804 0.01274802737551994 -0.0013397046876782908 -0.008182187676476061
 0.9929963317166093 -0.06616425541645116 0.005680363212804942 0.027994532910173828 -0.001340538308229973 -0.008182143714302896 0.0015335004205462883 0.012752468695436538
 0.0015667862750081804 0.01274802737551994 -0.001340538308229973 -0.008182143714302896 0.005675002224207973 0.027993539124163597 0.9929962710689553 -0.06616567322035133
 -0.0013397046876782908 -0.008182187676476061 0.0015335004205462883 0.012752468695436538 0.9929962710689553 -0.06616567322035133 0.005680838361213808 0.0279930950618248
0.1062942892872 0.005698937398110077 0.028105014687191256 0.9929654883466068 -0.06641174435794281 0.0015765161767115348 0.012794533561660843 -0.001347918963510756 -0.008212231875637483
 0.9929654883466068 -0.06641174435794281 0.005703746467274065 0.02810465639941461 -0.0013487585088268203 -0.008212187291499145 0.001542986607211459 0.01279901375084366
 0.0015765161767115348 0.012794533561660843 -0.0013487585088268203 -0.008212187291499145 0.005698346488435227 0.028103660356287717 0.9929654272655692 -0.06641316735951489
 -0.001347918963510756 -0.008212231875637483 0.001542986607211459 0.01279901375084366 0.9929654272655692 -0.06641316735951489 0.005704225113340137 0.0281032132570778
0.11254689453939999 0.006086917146716023 0.029900067330595612 0.9924531781608072 -0.07043570979980525 0.0017389726757848023 0.013549235413092798 -0.0014850804412216679 -0.00869984696084455
 0.9924531781608072 -0.07043570979980525 0.006092307876586177 0.02989967026581919 -0.0014860189527464843 -0.008699791625911805 0.0017013615440948512 0.01355437899003504
 0.0017389726757848023 0.013549235413092798 -0.0014860189527464843 -0.008699791625911805 0.006086255200171374 0.029898639315394264 0.9924531098160557 -0.07043721724902716
 -0.0014850804412216679 -0.00869984696084455 0.0017013615440948512 0.01355437899003504 0.9924531098160557 -0.07043721724902716 0.006092845115991375 0.029898141078229412
0.11879949979160001 0.006492002316045478 0.031709027604299084 0.991918730705944 -0.07447214358252982 0.0019099864508482255 0.01430348746418261 -0.0016294943886837956 -0.00918725351105755
 0.991918730705944 -0.07447214358252982 0.006498008053771392 0.03170858942769244 -0.0016305371020746392 -0.009187186151332159 0.0018680570879663955 0.01430935770911319
 0.0019099864508482255 0.01430348746418261 -0.0016305371020746392 -0.009187186151332159 0.006491265343544738 0.03170752691127901 0.991918654657925 -0.0744737356345481
 -0.0016294943886837956 -0.00918725351105755 0.0018680570879663955 0.01430935770911319 0.991918654657925 -0.0744737356345481 0.006498607314763619 0.03170697397195361
0.1250521050438 0.006914457013035684 0.03353164842034463 0.9913618861503023 -0.07852086146900505 0.002089619456753819 0.015057166270941542 -0.0017812241980319622 -0.009674331373574496
 0.9913618861503023 -0.07852086146900505 0.006921111165244796 0.03353116673390787 -0.0017823763063041982 -0.009674250656821617 0.002043134988034176 0.015063829595585951
 0.002089619456753819 0.015057166270941542 -0.0017823763063041982 -0.009674250656821617 0.006913641035633555 0.03353007611228966 0.9913618019522398 -0.07852253829054517
 -0.0017812241980319622 -0.009674331373574496 0.002043134988034176 0.015063829595585951 0.9913618019522398 -0.07852253829054517 0.006921775884003039 0.03352946477012794
0.131304710296 0.007354543530952968 0.035367680911738295 0.9907823860801347 -0.08258167116576062 0.0022779316512819255 0.01581014592612272 -0.0019403312475005942 -0.010160958307343461
 0.9907823860801347 -0.08258167116576062 0.007361879571138793 0.03536715325227453 -0.0019415979007845617 -0.010160862843186047 0.0022266550380639866 0.01581767190273165
 0.0022779316512819255 0.01581014592612272 -0.0019415979007845617 -0.010160862843186047 0.007353644581205175 0.03536603810992522 0.9907822932780661 -0.0825834329332793
 -0.0019403312475005942 -0.010160958307343461 0.0022266550380639866 0.01581767190273165 0.9907822932780661 -0.0825834329332793 0.007362613191821206 0.03536536452497514
0.1375573155481 0.007709347037702662 0.03697818121120408 0.9902831836946486 -0.08641558776310754 0.0024507521772812154 0.016538469833721023 -0.002082706801661943 -0.01062314957099593
 0.9902831836946486 -0.08641558776310754 0.007717401909150811 0.03697761766614455 -0.0020840956903746205 -0.01062303929866498 0.0023945659942683373 0.016546845489480086
 0.0024507521772812154 0.016538469833721023 -0.0020840956903746205 -0.01062303929866498 0.007708361774652321 0.03697646882917039 0.9902830818956119 -0.086417434562997
 -0.002082706801661943 -0.01062314957099593 0.0023945659942683373 0.016546845489480086 0.9902830818956119 -0.086417434562997 0.0077182071411237485 0.03697574197677404
0.1438099208003 0.008076570943290852 0.03858060232137766 0.989766551726357 -0.09024017561437019 0.0026305555432729576 0.017264003547670295 -0.0022307772626170286 -0.011082803989499545
 0.989766551726357 -0.09024017561437019 0.008085378758835943 0.03858000119229441 -0.0022322939328367213 -0.011082677544634243 0.0025692441483248386 0.01727329229007132
 0.0026305555432729576 0.017264003547670295 -0.0022322939328367213 -0.011082677544634243 0.00807549552805212 0.03857882150119456 0.9897664404781663 -0.09024210761621916
 -0.0022307772626170286 -0.011082803989499545 0.0025692441483248386 0.01727329229007132 0.9897664404781663 -0.09024210761621916 0.008086258924411796 0.03857803829332516
0.1500625260525 0.00845609128278343 0.0401748218982194 0.9892326178706078 -0.09405535121272716 0.002817282663120632 0.017986678422779838 -0.0023844856682147518 -0.011539857380632118
 0.9892326178706078 -0.09405535121272716 0.008465686243107739 0.04017418137376298 -0.002386135655472041 -0.011539713344028348 0.002750631646019866 0.01799694596359309
 0.002817282663120632 0.017986678422779838 -0.002386135655472041 -0.011539713344028348 0.008454921894496351 0.04017297382574588 0.9892324967149743 -0.09405736859389292
 -0.0023844856682147518 -0.011539857380632118 0.002750631646019866 0.01799694596359309 0.9892324967149743 -0.09405736859389292 0.008466644663775062 0.04017213100622298
0.15631513130469998 0.008847783278019095 0.04176072133857883 0.988681510398299 -0.09786103111993641 0.003010873784202324 0.018706426920394623 -0.0025437743872218097 -0.011994246875170872
