! Created with skrf 1.8.0 (http://scikit-rf.org).
# GHz S RI R 50.0 
!freq ReS11 ImS11 ReS12 ImS12 ReS13 ImS13
! ReS14 ImS14
! ReS21 ImS21 ReS22 ImS22 ReS23 ImS23
! ReS24 ImS24
! ReS31 ImS31 ReS32 ImS32 ReS33 ImS33
! ReS34 ImS34
! ReS41 ImS41 ReS42 ImS42 ReS43 ImS43
! ReS44 ImS44
!
0.0 0.001622596106758 0.0 0.9983774038709 0.0 6.261908063657e-05 0.0 -6.261908037538e-05 7.668625634725994e-21
 0.9983774038709 0.0 0.001622596106733 0.0 -6.26190803747e-05 7.668625634642719e-21 6.26190806353e-05 0.0
 6.261908063657e-05 0.0 -6.26190803747e-05 7.668625634642719e-21 0.001622596116144 0.0 0.9983774038803 0.0
 -6.261908037538e-05 7.668625634725994e-21 6.26190806353e-05 0.0 0.9983774038803 0.0 0.001622596116148 0.0
0.005 0.0017460017464187535 0.001329046381725478 0.9982212576842692 -0.0033985687619158093 8.753050783391259e-05 0.0006786858480160024 -8.510452564580351e-05 -0.00042791502494614277
 0.9982212576842692 -0.0033985687619158093 0.0017459991266503857 0.001329047844233829 -8.510619542868869e-05 -0.00042791621228834 8.756420678847778e-05 0.0006786733352473882
 8.753050783391259e-05 0.0006786858480160024 -8.510619542868869e-05 -0.00042791621228834 0.0017460017331348038 0.0013291135958982884 0.9982212580469791 -0.0033985017027380873
 -8.510452564580351e-05 -0.00042791502494614277 8.756420678847778e-05 0.0006786733352473882 0.9982212580469791 -0.0033985017027380873 0.001745999860425219 0.0013291147445688427
0.006252605252188 0.0017784388275611535 0.0016665175805803153 0.9981799485665329 -0.00424902994578854 9.466894328498736e-05 0.000848687913771579 -9.148065029067286e-05 -0.000535440197452965
 0.9981799485665329 -0.00424902994578854 0.0017784347319737084 0.001666519338827793 -9.148324935692915e-05 -0.0005354416591925043 9.472159845649754e-05 0.0008486716091533762
 9.466894328498736e-05 0.000848687913771579 -9.148324935692915e-05 -0.0005354416591925043 0.0017784387385560991 0.0016666015884798041 0.9981799490649502 -0.004248946121907529
 -9.148065029067286e-05 -0.000535440197452965 9.472159845649754e-05 0.0008486716091533762 0.9981799490649502 -0.004248946121907529 0.0017784358098032749 0.0016666029699237948
0.01250521050438 0.001949610687360384 0.0033677700187520836 0.9979604892035583 -0.008498772614283343 0.00013572000006253302 0.0016977480909682024 -0.0001278061553516256 -0.001073419446923359
 0.9979604892035583 -0.008498772614283343 0.0019495943345385004 0.0033677728085713897 -0.00012781640719273577 -0.00107342212216442 0.000135930092670865 0.0016977083387459003
 0.00013572000006253302 0.0016977480909682024 -0.00012781640719273577 -0.00107342212216442 0.0019496097698359814 0.003367937677445791 0.9979604906244455 -0.008498605214378284
 -0.0001278061553516256 -0.001073419446923359 0.000135930092670865 0.0016977083387459003 0.9979604906244455 -0.008498605214378284 0.0019495980576963044 0.003367939866090723
0.01875781575657 0.0021365004949498233 0.005093062381614957 0.9977187421646542 -0.012759551752786997 0.00018587075522650124 0.0025477264030737815 -0.0001717102445530706 -0.0016131684037677275
 0.9977187421646542 -0.012759551752786997 0.002136463754419446 0.005093065410143222 -0.00017173311910287245 -0.001613171990350646 0.00018634297668552712 0.0025476546797154687
 0.00018587075522650124 0.0025477264030737815 -0.00017173311910287245 -0.001613171990350646 0.0021364980230787903 0.005093313472781108 0.9977187449339375 -0.012759300855964809
 -0.0001717102445530706 -0.0016131684037677275 0.00018634297668552712 0.0025476546797154687 0.9977187449339375 -0.012759300855964809 0.0021364716733798675 0.005093315821534444
0.02501042100875 0.0023394846834363585 0.006839965581039579 0.9974544121866474 -0.017033412962155055 0.0002452206176673227 0.003398644836275981 -0.00022330362658551514 -0.00215443498913796
 0.9974544121866474 -0.017033412962155055 0.002339419438881727 0.00683996797972682 -0.00022334403824055514 -0.002154439126249934 0.00024605985597567714 0.0033985312642051163
 0.0002452206176673227 0.003398644836275981 -0.00022334403824055514 -0.002154439126249934 0.00233947994221101 0.00684029989752193 0.9974544167328964 -0.017033078605212044
 -0.00022330362658551514 -0.00215443498913796 0.00024605985597567714 0.0033985312642051163 0.9974544167328964 -0.017033078605212044 0.0023394330896664307 0.006840301678902698
0.03126302626094 0.002558924155119868 0.008607219909134274 0.99716718950248 -0.021321220130455332 0.00031386914687163035 0.004250448259559525 -0.00028269374325663683 -0.0026970376687139265
 0.99716718950248 -0.021321220130455332 0.0025588222951987215 0.008607220730666422 -0.00028275656020239397 -0.002697041936249894 0.00031518057442536006 0.004250281593872617
 0.00031386914687163035 0.004250448259559525 -0.00028275656020239397 -0.002697041936249894 0.0025589164355267796 0.008607637239466802 0.9971671962540666 -0.021320802322942593
 -0.00028269374325663683 -0.0026970376687139265 0.00031518057442536006 0.004250281593872617 0.9971671962540666 -0.021320802322942593 0.002558843196599309 0.008607637642925107
0.037515631513130004 0.002795171860950505 0.010393996678508918 0.9968567576956187 -0.025623393729230993 0.00039191514940465917 0.005103050833595201 -0.00034998551300927436 -0.003240819058659041
 0.9968567576956187 -0.025623393729230993 0.0027950252719192215 0.010393994894703872 -0.0003500755618509021 -0.0032408229769487185 0.00039380426129330767 0.0051028184447467545
 0.00039191514940465917 0.005103050833595201 -0.0003500755618509021 -0.0032408229769487185 0.002795160460183643 0.010394496793067282 0.9968567670820786 -0.025622892466912912
 -0.00034998551300927436 -0.003240819058659041 0.00039380426129330767 0.0051028184447467545 0.9968567670820786 -0.025622892466912912 0.0027950549270649126 0.010394494923215059
0.043768236765320004 0.003048575725856077 0.01219967352942718 0.996522796900584 -0.029940135432952323 0.00047945623886823065 0.005956350134435909 -0.0004252815938579236 -0.003785631813813988
 0.996522796900584 -0.029940135432952323 0.003048376285026706 0.012199668029713005 -0.00042540366220628886 -0.003785634843505955 0.00048202887017411946 0.00595603798968421
 0.00047945623886823065 0.005956350134435909 -0.00042540366220628886 -0.003785634843505955 0.0030485599460770107 0.012200256186514073 0.9965228093534312 -0.029939550691531217
 -0.0004252815938579236 -0.003785631813813988 0.00048202887017411946 0.00595603798968421 0.9965228093534312 -0.029939550691531217 0.0030484161816792667 0.01220025106153351
0.050020842017509996 0.0033194799989548353 0.014023741575851739 0.9961649854323182 -0.03427152089836993 0.0005765885687674979 0.006810232979632484 -0.0005086824660220982 -0.004331332815376922
 0.9961649854323182 -0.03427152089836993 0.003319219568712625 0.014023731165913947 -0.0005088413041682903 -0.004331334357329137 0.0005799509004763544 0.006809825623949371
 0.0005765885687674979 0.006810232979632484 -0.0005088413041682903 -0.004331334357329137 0.0033194591487346473 0.014024406515406132 0.9961650013873499 -0.03427085263952018
 -0.0005086824660220982 -0.004331332815376922 0.0005799509004763544 0.006809825623949371 0.9961650013873499 -0.03427085263952018 0.00331927118083714 0.014024397065970046
0.055454545454549996 0.0035693816033977154 0.015623504183818934 0.995834416274624 -0.038047516384229305 0.0006688621994075062 0.007552663098847497 -0.0005878188429855112 -0.004806174788829723
 0.995834416274624 -0.038047516384229305 0.0035690615463923664 0.015623488471016038 -0.0005880134647403001 -0.004806174504834439 0.0006729973047969883 0.007552159331462946
 0.0006688621994075062 0.007552663098847497 -0.0005880134647403001 -0.004806174504834439 0.003569355787193119 0.01562424040608953 0.995834435628571 -0.038046775501809765
 -0.0005878188429855112 -0.004806174788829723 0.0006729973047969883 0.007552159331462946 0.995834435628571 -0.038046775501809765 0.0035691245237880875 0.015624226261329411
0.056273447269699996 0.0036082259427487927 0.01586575982564478 0.9957830007576969 -0.03861754527163206 0.0006834066323877922 0.007664578307653019 -0.0006002864429909785 -0.004877780308829888
 0.9957830007576969 -0.03861754527163206 0.0036078963642272505 0.015865743226415662 -0.0006004867648355773 -0.004877779704053057 0.0006876651906879983 0.0076640588444101465
 0.0006834066323877922 0.007664578307653019 -0.0006004867648355773 -0.004877779704053057 0.0036081993332730943 0.01586650677100823 0.9957830206528628 -0.03861679344103307
 -0.0006002864429909785 -0.004877780308829888 0.0006876651906879983 0.0076640588444101465 0.9957830206528628 -0.03861679344103307 0.0036079611494554873 0.015866491839138082
0.06252605252188 0.0039151521923045385 0.01772533012723905 0.9953765201426555 -0.04297814817280689 0.0008000031047482917 0.008519258744324267 -0.0007001896373594473 -0.00542483235942634
 0.9953765201426555 -0.04297814817280689 0.003914745279405998 0.017725305974017197 -0.000700436121002957 -0.00542482888902291 0.0008052647555688362 0.00851860881590385
 0.0008000031047482917 0.008519258744324267 -0.000700436121002957 -0.00542482888902291 0.003915119138417888 0.01772615877903521 0.9953765444198218 -0.04297731270609344
 -0.0007001896373594473 -0.00542483235942634 0.0008052647555688362 0.00851860881590385 0.9953765444198218 -0.04297731270609344 0.003914824680607192 0.017726137117315455
0.06877865777407 0.004240594937136478 0.019602082226028505 0.994945221124722 -0.04735322857563219 0.0009264687002368722 0.009374141560146045 -0.0008084859082040282 -0.005972345921830423
 0.994945221124722 -0.04735322857563219 0.004240102470630183 0.019602049067772034 -0.0008087831962339898 -0.005972338806956012 0.0009328406407447059 0.009373341328553502
 0.0009264687002368722 0.009374141560146045 -0.0008087831962339898 -0.005972338806956012 0.004240554756037986 0.019602992264126984 0.9949452502304832 -0.04735230939632886
 -0.0008084859082040282 -0.005972345921830423 0.0009328406407447059 0.009373341328553502 0.9949452502304832 -0.04735230939632886 0.004240197915368974 0.01960296253494853
0.07503126302626001 0.004584887995981775 0.02149566430499912 0.9944887818847968 -0.051742654208692555 0.0010628920450728423 0.010229089275994214 -0.0009252667915476249 -0.006520176266842025
 0.9944887818847968 -0.051742654208692555 0.004584301717392669 0.02149562060380052 -0.0009256194911755145 -0.006520164668668938 0.001070481792585998 0.010228117403530553
 0.0010628920450728423 0.010229089275994214 -0.0009256194911755145 -0.006520164668668938 0.004584840006445828 0.021496655391565696 0.9944888162700872 -0.05174165122500608
 -0.0009252667915476249 -0.006520176266842025 0.001070481792585998 0.010228117403530553 0.9944888162700872 -0.05174165122500608 0.004584414617490897 0.02149661616666433
0.08128386827845 0.004948362827594056 0.023405736681599815 0.9940068815574084 -0.056146267806425294 0.0012093595559257424 0.011083960070968058 -0.0010506214227449027 -0.007068176611672502
 0.9940068815574084 -0.056146267806425294 0.004947674433130903 0.023405680812466873 -0.0010510341057402828 -0.007068159631379118 0.0012182749349124945 0.011082793701020041
 0.0012093595559257424 0.011083960070968058 -0.0010510341057402828 -0.007068159631379118 0.004948306349040217 0.02340680845825759 0.9940069216784433 -0.056145180914106294
 -0.0010506214227449027 -0.007068176611672502 0.0012182749349124945 0.011082793701020041 0.9940069216784433 -0.056145180914106294 0.004947806184448407 0.02340675821832225
0.08753647353064001 0.005331348493649087 0.02533196745983077 0.993499200497926 -0.06056389141175547 0.0013659553229870783 0.01193860808050556 -0.0011846364527476447 -0.007616197865968661
 0.993499200497926 -0.06056389141175547 0.005330549627782089 0.02533189771043522 -0.0011851136552599923 -0.007616174544723107 0.0013763044505183102 0.011937222818453917
 0.0013659553229870783 0.01193860808050556 -0.0011851136552599923 -0.007616174544723107 0.0053312828453214774 0.025333119545987357 0.9934992468167619 -0.060562720495615986
 -0.0011846364527476447 -0.007616197865968661 0.0013763044505183102 0.011937222818453917 0.9934992468167619 -0.060562720495615986 0.005330701610189181 0.02533305668049659
0.09378907878283 0.005734171593612204 0.02727402942083167 0.9929654205265251 -0.06499532944692116 0.0015327609970541656 0.012792883609857498 -0.001327395958907467 -0.008164088468541652
 0.9929654205265251 -0.06499532944692116 0.005733253842991955 0.02727394399165013 -0.001327942181221942 -0.00816405778751547 0.0015446522669778798 0.012791253504172626
 0.0015327609970541656 0.012792883609857498 -0.001327942181221942 -0.00816405778751547 0.005734096094065557 0.02727526141489039 0.9929654735113581 -0.0649940743797182
 -0.001327395958907467 -0.008164088468541652 0.0015446522669778798 0.012791253504172626 0.9929654735113581 -0.0649940743797182 0.005733427420298342 0.027275184222052454
0.100041684035 0.006157156176084864 0.029231597748421583 0.992405225150475 -0.06944037095676092 0.0017098556781178598 0.013646633307103332 -0.001478981353233162 -0.008711694270966307
 0.992405225150475 -0.06944037095676092 0.006156111063193374 0.029231494752881285 -0.0014796010594706277 -0.008711655151339221 0.0017233977438984613 0.013644730830623748
 0.0017098556781178598 0.013646633307103332 -0.0014796010594706277 -0.008711655151339221 0.0061570701421845364 0.029232909228119674 0.9924052852765156 -0.06943903159880457
 -0.001478981353233162 -0.008711694270966307 0.0017233977438984613 0.013644730830623748 0.9924052852765156 -0.06943903159880457 0.006156307582475252 0.02923281591512596
0.1059090909091 0.00657270532105465 0.031082382145440575 0.9918552364243597 -0.07362374322303916 0.0018854661186733022 0.01444716891172516 -0.0016293253159066655 -0.009225165566099496
 0.9918552364243597 -0.07362374322303916 0.006571532919350315 0.031082260872833528 -0.0016300180065118353 -0.009225117493161053 0.0019006563159221892 0.014444984388699024
 0.0018854661186733022 0.01444716891172516 -0.0016300180065118353 -0.009225117493161053 0.0065726087780464725 0.031083767809879724 0.9918553036901069 -0.07362232463082688
 -0.0016293253159066655 -0.009225165566099496 0.0019006563159221892 0.014444984388699024 0.9918553036901069 -0.07362232463082688 0.006571752177093053 0.031083657658417474
0.1062942892872 0.006600623634343376 0.03120434832791481 0.9918182997762508 -0.07389879128616611 0.0018973158057451016 0.01449970029790155 -0.001639471287689069 -0.009258858465896386
 0.9918182997762508 -0.07389879128616611 0.006599442611272098 0.031204225792917664 -0.0016401689054102917 -0.009258809768897572 0.0019126175625363828 0.014497496329348663
 0.0018973158057451016 0.01449970029790155 -0.0016401689054102917 -0.009258809768897572 0.006600526380247486 0.03120573884789828 0.9918183675256854 -0.07389736748792393
 -0.001639471287689069 -0.009258858465896386 0.0019126175625363828 0.014497496329348663 0.9918183675256854 -0.07389736748792393 0.006599663402438198 0.031205627531165334
0.11254689453939999 0.007064892589244453 0.033191956436913944 0.9912043319109871 -0.0783703533734789 0.002095215050599449 0.015351924301907094 -0.0018089415578700786 -0.009805421540343468
 0.9912043319109871 -0.0783703533734789 0.007063567030684526 0.03319181230342099 -0.0018097214776204935 -0.009805362067291603 0.0021123856161126007 0.015349388107577454
 0.002095215050599449 0.015351924301907094 -0.0018097214776204935 -0.009805362067291603 0.007064783425830491 0.0331934255346855 0.9912044077740609 -0.07836884496961619
 -0.0018089415578700786 -0.009805421540343468 0.0021123856161126007 0.015349388107577454 0.9912044077740609 -0.07836884496961619 0.007063813406776264 0.033193294240466735
0.11879949979160001 0.007550278762311497 0.03519409574643167 0.9905630113583229 -0.08285480874141177 0.0023036242066914524 0.01620314173316468 -0.0019874650052462113 -0.01035122125171087
 0.9905630113583229 -0.08285480874141177 0.007548799959418996 0.035193927870371775 -0.0019883315800769013 -0.010351149744072304 0.0023227729013281877 0.01620024094893005
 0.0023036242066914524 0.01620314173316468 -0.0019883315800769013 -0.010351149744072304 0.0075501569961463335 0.0351956429343663 0.9905630958332795 -0.08285321555894602
 -0.0019874650052462113 -0.01035122125171087 0.0023227729013281877 0.01620024094893005 0.9905630958332795 -0.08285321555894602 0.007549073215868055 0.03519548959944684
0.1250521050438 0.008057094840907834 0.037210437521382145 0.9898940304084681 -0.08735189829693225 0.0025226110845808195 0.017053185791531127 -0.0021751114181121378 -0.010896092619696898
 0.9898940304084681 -0.08735189829693225 0.008055453994512836 0.037210243674617116 -0.00217606896309736 -0.010896007759159259 0.0025438474108607717 0.017049886405122578
 0.0025226110845808195 0.017053185791531127 -0.00217606896309736 -0.010896007759159259 0.00805695977356864 0.03721206229308626 0.989894124002569 -0.08735022014908495
 -0.0021751114181121378 -0.010896092619696898 0.0025438474108607717 0.017049886405122578 0.989894124002569 -0.08735022014908495 0.008055755408767554 0.03721188476574024
0.131304710296 0.00858565033756663 0.039240649993343674 0.9891970840260994 -0.09186135296726743 0.002752240405248938 0.01790188654644286 -0.0023719474320976477 -0.011439867932848511
 0.9891970840260994 -0.09186135296726743 0.008583838551416399 0.03924042786505837 -0.0023730002237226403 -0.011439768341431232 0.0027756740263514103 0.017898152879975468
 0.002752240405248938 0.01790188654644286 -0.0023730002237226403 -0.011439768341431232 0.008585501264636114 0.03924235182132927 0.9891971872560782 -0.09185958965602425
 -0.0023719474320976477 -0.011439867932848511 0.0027756740263514103 0.017898152879975468 0.9891971872560782 -0.09185958965602425 0.008584169382874532 0.03924214786241748
0.1375573155481 0.009017697342573032 0.04102054742909099 0.9885904767771906 -0.09611891109087657 0.0029641376748800767 0.01872313805288505 -0.0025495711456717685 -0.011956483635955528
 0.9885904767771906 -0.09611891109087657 0.009015703944253897 0.041020302383046214 -0.002550725266648445 -0.011956369127456226 0.0029898116635880784 0.018718974615040424
 0.0029641376748800767 0.01872313805288505 -0.002550725266648445 -0.011956369127456226 0.00901753254218691 0.04102232649841583 0.9885905900859672 -0.09611706252239731
 -0.0025495711456717685 -0.011956483635955528 0.0029898116635880784 0.018718974615040424 0.9885905900859672 -0.09611706252239731 0.009016066601371739 0.041022100286047296
0.1438099208003 0.009465040959560156 0.04279061555797683 0.9879623661546699 -0.10036520449894207 0.0031845734280151173 0.019540791927262748 -0.0027342793413150162 -0.012469763046082933
 0.9879623661546699 -0.10036520449894207 0.009462856621083753 0.042790346056413374 -0.002735539338303276 -0.012469632266156098 0.0032125856632497177 0.01953616615830753
 0.0031845734280151173 0.019540791927262748 -0.002735539338303276 -0.012469632266156098 0.00946485953494778 0.042792471394226775 0.9879624900567726 -0.10036327048485204
 -0.0027342793413150162 -0.012469763046082933 0.0032125856632497177 0.01953616615830753 0.9879624900567726 -0.10036327048485204 0.009463252546048665 0.042792221322315124
0.1500625260525 0.009927517196473586 0.04455069243938672 0.9873129205949314 -0.1046001133438571 0.003413467230528284 0.020354756287385367 -0.002925993181445513 -0.012979618360141006
 0.9873129205949314 -0.1046001133438571 0.009925132483405305 0.044550396908729854 -0.0029273635859924665 -0.012979469900551871 0.0034439149767953067 0.020349634441863516
 0.003413467230528284 0.020354756287385367 -0.0029273635859924665 -0.012979469900551871 0.009927318233252987 0.0445526245526606 0.9873130556124807 -0.10459809368885259
 -0.002925993181445513 -0.012979618360141006 0.0034439149767953067 0.020349634441863516 0.9873130556124807 -0.10459809368885259 0.009925563114774506 0.0445523489712358
0.15631513130469998 0.010404960819814523 0.046300620966153554 0.98664230947558 -0.10882351850730018 0.003650737654952927 0.021164940918302424 -0.003124632816167405 -0.013485963702806936
 0.98664230947558 -0.10882351850730018 0.010402366188719552 0.04630029780036583 -0.0031261181443923334 -0.013485796101759798 0.0036837175539556274 0.021159288077404626
