! Created with skrf 1.8.0 (http://scikit-rf.org).
# GHz S RI R 50.0 
!freq ReS11 ImS11 ReS12 ImS12 ReS13 ImS13
! ReS14 ImS14
! ReS21 ImS21 ReS22 ImS22 ReS23 ImS23
! ReS24 ImS24
! ReS31 ImS31 ReS32 ImS32 ReS33 ImS33
! ReS34 ImS34
! ReS41 ImS41 ReS42 ImS42 ReS43 ImS43
! ReS44 ImS44
!
0.0 0.001742934273958 0.0 0.9982570657204 0.0 6.774436348723e-05 0.0 -6.774436344258e-05 8.296291785023055e-21
 0.9982570657204 0.0 0.00174293427393 0.0 -6.774436344186e-05 8.296291784934882e-21 6.774436348605e-05 0.0
 6.774436348723e-05 0.0 -6.774436344186e-05 8.296291784934882e-21 0.001742934268263 0.0 0.9982570657147 0.0
 -6.774436344258e-05 8.296291785023055e-21 6.774436348605e-05 0.0 0.9982570657147 0.0 0.001742934268273 0.0
0.005 0.0018759322434805305 0.0014218347873893539 0.9980886708836988 -0.0036505103034572906 9.588643625976004e-05 0.0007669549393425104 -9.288456324807904e-05 -0.00047770593822125213
 0.9980886708836988 -0.0036505103034572906 0.001875959668504934 0.001421818726779243 -9.287947750255722e-05 -0.0004777020420171665 9.572720487974995e-05 0.0007670155362228851
 9.588643625976004e-05 0.0007669549393425104 -9.287947750255722e-05 -0.0004777020420171665 0.0018759351885492043 0.001421900312589355 0.9980886712600742 -0.003650443242179991
 -9.288456324807904e-05 -0.00047770593822125213 9.572720487974995e-05 0.0007670155362228851 0.9980886712600742 -0.003650443242179991 0.0018759574701403539 0.0014218873198282734
0.006252605252188 0.0019110052991900834 0.0017828753707574347 0.9980439471815525 -0.004564000741637741 0.00010405396964517962 0.0009590415408636081 -0.00010007770282953196 -0.0005977425745252898
 0.9980439471815525 -0.004564000741637741 0.001911048170421498 0.0017828550249457302 -0.00010006978896880567 -0.0005977377720768576 0.0001038051867399164 0.0009591202846079673
 0.00010405396964517962 0.0009590415408636081 -0.00010006978896880567 -0.0005977377720768576 0.0019110098268645336 0.0017829572634359668 0.9980439476936503 -0.004563916922586525
 -0.00010007770282953196 -0.0005977425745252898 0.0001038051867399164 0.0009591202846079673 0.9980439476936503 -0.004563916922586525 0.0019110446571694306 0.001782940760477594
0.01250521050438 0.0020967535891887267 0.0036029317708193382 0.9978053529286447 -0.009128593860197187 0.00015156462996498518 0.001918273095292033 -0.00014140073774075338 -0.001198268723810031
 0.9978053529286447 -0.009128593860197187 0.002096924786447894 0.003602888338065425 -0.0001413695500359796 -0.0011982598697896905 0.00015057255426984855 0.0019184631755617657
 0.00015156462996498518 0.001918273095292033 -0.0001413695500359796 -0.0011982598697896905 0.0020967711144570396 0.0036030952089635307 0.9978053544171546 -0.009128426466969767
 -0.00014140073774075338 -0.001198268723810031 0.00015057255426984855 0.0019184631755617657 0.9978053544171546 -0.009128426466969767 0.002096910194179178 0.0036030595912596585
0.01875781575657 0.0023006257413314022 0.005448643082298708 0.9975409576124581 -0.013704843791281448 0.0002103910538804659 0.0028783239981048803 -0.00019184947122934085 -0.0018006543880338742
 0.9975409576124581 -0.013704843791281448 0.002301010454006686 0.005448573555353052 -0.0001917799229333961 -0.0018006423956814638 0.00020816250495519795 0.0028786649738475746
 0.0002103910538804659 0.0028783239981048803 -0.0001917799229333961 -0.0018006423956814638 0.0023006647025375026 0.00544888778430901 0.9975409605350866 -0.013704592892172962
 -0.00019184947122934085 -0.0018006543880338742 0.00020816250495519795 0.0028786649738475746 0.9975409605350866 -0.013704592892172962 0.002300977227508334 0.005448830319855
0.02501042100875 0.002523052584602819 0.007317366843664581 0.9972504220152735 -0.018294916038708652 0.00028064991051490496 0.0038392022860946006 -0.00025155449106111053 -0.002404588424709295
 0.9972504220152735 -0.018294916038708652 0.0025237358529469926 0.007317267981329038 -0.0002514316776137134 -0.002404574384554201 0.0002766915855072016 0.003839740477949615
 0.00028064991051490496 0.0038392022860946006 -0.0002514316776137134 -0.002404574384554201 0.002523121406292227 0.0073176924493678994 0.9972504268314557 -0.018294581672918236
 -0.00025155449106111053 -0.002404588424709295 0.0002766915855072016 0.003839740477949615 0.9972504268314557 -0.018294581672918236 0.0025236764433575623 0.00731761031107261
0.03126302626094 0.0027644469934441345 0.009207716473232984 0.9969333912219397 -0.022899704950035234 0.00036245800495848275 0.004800824213890635 -0.00032064199150215304 -0.0030098430289892514
 0.9969333912219397 -0.022899704950035234 0.0027655137592359795 0.009207584805972507 -0.00032045116030849947 -0.0030098282106079685 0.00035627604605373005 0.004801612745928833
 0.00036245800495848275 0.004800824213890635 -0.00032045116030849947 -0.0030098282106079685 0.0027645540925275553 0.009208122549959584 0.9969333983960035 -0.02289928712113181
 -0.00032064199150215304 -0.0030098430289892514 0.00035627604605373005 0.004801612745928833 0.9969333983960035 -0.02289928712113181 0.002765420623008071 0.009208012821602688
0.037515631513130004 0.0030252123257522153 0.01111876764127402 0.9965895034168372 -0.02751962729000562 0.0004559309654602822 0.005763069288757851 -0.00039923469370182194 -0.003616218721238332
 0.9965895034168372 -0.02751962729000562 0.0030267474678624382 0.011118599473075976 -0.00039896122894510515 -0.003616204573716051 0.000447030780021804 0.005764168155818353
 0.0004559309654602822 0.005763069288757851 -0.00039896122894510515 -0.003616204573716051 0.0030253661068151503 0.01111925365958196 0.9965895134127676 -0.027519125989198815
 -0.00039923469370182194 -0.003616218721238332 0.000447030780021804 0.005764168155818353 0.9965895134127676 -0.027519125989198815 0.003026613058477697 0.011119113339254623
0.043768236765320004 0.0033057456588209493 0.013049816773638742 0.9962183934837547 -0.032154863670590776 0.00056118262108587 0.006725797013341583 -0.00048745215077416933 -0.004223527634644546
 0.9962183934837547 -0.032154863670590776 0.0033078340209429288 0.013049608182345481 -0.00048708156448924814 -0.0042235157866927575 0.0005490688093913926 0.006727273156027306
 0.00056118262108587 0.006725797013341583 -0.00048708156448924814 -0.0042235157866927575 0.003305954517803257 0.013050382119774974 0.9962184067694582 -0.03215427886313761
 -0.00048745215077416933 -0.004223527634644546 0.0005490688093913926 0.006727273156027306 0.9962184067694582 -0.03215427886313761 0.0033076507915472 0.013050208121932754
0.050020842017509996 0.003606439279100097 0.015000281248313912 0.9958196948664836 -0.036805458287472954 0.0006783246152359224 0.0076888538158898 -0.0005854108407019417 -0.00483158662174223
 0.9958196948664836 -0.036805458287472954 0.003609165695704209 0.015000028084771173 -0.0005849287673672726 -0.00483157888167247 0.0006625009565561216 0.007690781198557959
 0.0006783246152359224 0.0076888538158898 -0.0005849287673672726 -0.00483157888167247 0.0036067116015449778 0.01500092521284031 0.9958197119120678 -0.03680478992279666
 -0.0005854108407019417 -0.00483158662174223 0.0006625009565561216 0.007690781198557959 0.9958197119120678 -0.03680478992279666 0.003608926095747773 0.01500071436962772
0.055454545454549996 0.003884425385477534 0.016710663751239318 0.9954505233583589 -0.04085940671325578 0.0007898658253531846 0.008525920033037981 -0.0006785391331892943 -0.005360476274580747
 0.9954505233583589 -0.04085940671325578 0.0038877751967835647 0.016710368305980043 -0.0006779486000437147 -0.00536047371240471 0.0007704145826806982 0.008528305139475459
 0.0007898658253531846 0.008525920033037981 -0.0006779486000437147 -0.00536047371240471 0.003884759662628712 0.016711375381207004 0.995450544057103 -0.040858665686410986
 -0.0006785391331892943 -0.005360476274580747 0.0007704145826806982 0.008528305139475459 0.995450544057103 -0.040858665686410986 0.003887480475499996 0.01671112988190234
0.056273447269699996 0.00392768142398318 0.016969650416662155 0.995393040685793 -0.04147136783587727 0.0008074661258620403 0.008652076454322522 -0.0006932241630986108 -0.00544021389417751
 0.995393040685793 -0.04147136783587727 0.0039311307433018096 0.016969348303108804 -0.0006926163560656835 -0.0054402122498414624 0.0007874355988526515 0.008654536144079118
 0.0008074661258620403 0.008652076454322522 -0.0006926163560656835 -0.0054402122498414624 0.003928025586559717 0.0169703721866045 0.9953930619665434 -0.04147061585419676
 -0.0006932241630986108 -0.00544021389417751 0.0007874355988526515 0.008654536144079118 0.9953930619665434 -0.04147061585419676 0.003930827220150604 0.016970121248196458
0.06252605252188 0.004269856658912884 0.018957458675350515 0.994938064498581 -0.04615248838192058 0.0009487136378750518 0.009615293910054482 -0.000811002386931833 -0.006049227180395254
 0.994938064498581 -0.04615248838192058 0.004274113765650128 0.018957103002875186 -0.0008102547162147536 -0.006049233799058517 0.0009239784650429923 0.009618374155787333
 0.0009487136378750518 0.009615293910054482 -0.0008102547162147536 -0.006049233799058517 0.004270281027322918 0.018958257342800218 0.9949380904937335 -0.04615165270444464
 -0.000811002386931833 -0.006049227180395254 0.0009239784650429923 0.009618374155787333 0.9949380904937335 -0.04615165270444464 0.004273738762240302 0.018957962977061194
0.06877865777407 0.004633346053798964 0.020963269424870944 0.9944544008612514 -0.05084867135529403 0.0011021707461091313 0.010578328521058783 -0.00093885256992958 -0.006658442652129017
 0.9944544008612514 -0.05084867135529403 0.00463849589062429 0.02096285535001215 -0.0009379510208011236 -0.006658459880333058 0.0010722324545470493 0.01058212483202521
 0.0011021707461091313 0.010578328521058783 -0.0009379510208011236 -0.006658459880333058 0.004633858983275523 0.02096414398196059 0.9944544320559042 -0.05084775188791176
 -0.00093885256992958 -0.006658442652129017 0.0010722324545470493 0.01058212483202521 0.9944544320559042 -0.05084775188791176 0.00463804184663158 0.020963802773252268
0.07503126302626001 0.005018527238880391 0.022986664908301705 0.9939416857773723 -0.05555973366994256 0.0012679379754073725 0.011540996718533968 -0.001076878460952356 -0.007267674255793501
 0.9939416857773723 -0.05555973366994256 0.005024654828101003 0.022986187348920765 -0.0010758091332588782 -0.007267704619189609 0.0012322974702124875 0.011545611942060748
 0.0012679379754073725 0.011540996718533968 -0.0010758091332588782 -0.007267704619189609 0.005019137072000638 0.022987614242301637 0.9939417226617017 -0.05555873030703125
 -0.001076878460952356 -0.007267674255793501 0.0012322974702124875 0.011545611942060748 0.9939417226617017 -0.05555873030703125 0.005024114177707387 0.022987222689518614
0.08128386827845 0.0054257743860608365 0.025027239449172678 0.9933995570762317 -0.060285464455323894 0.0014461126114839616 0.01250310953041771 -0.0012251803915460536 -0.007876733285789379
 0.9933995570762317 -0.060285464455323894 0.00543296485080164 0.0250266930794236 -0.0012239294993835865 -0.007876779488950018 0.0014042702593998146 0.012508653928518186
 0.0014461126114839616 0.01250310953041771 -0.0012239294993835865 -0.007876779488950018 0.0054264894530037175 0.025028262344773344 0.9933996001474599 -0.06028437707625533
 -0.0012251803915460536 -0.007876733285789379 0.0014042702593998146 0.012508653928518186 0.9933996001474599 -0.06028437707625533 0.005432330024212397 0.02502781685853307
0.08753647353064001 0.0058554581407031054 0.027084594794986056 0.992827654746171 -0.06502562969158021 0.0016367885398091942 0.013464472947174596 -0.0013838551594007095 -0.0084854281045707
 0.992827654746171 -0.06502562969158021 0.005863796725994951 0.027083974039475604 -0.0013824090312054974 -0.00848549303077064 0.0015882442607853347 0.013471064271796068
 0.0016367885398091942 0.013464472947174596 -0.0013824090312054974 -0.00848549303077064 0.005856286757507317 0.02708568993158928 0.9928277045083912 -0.06502445816223046
 -0.0013838551594007095 -0.0084854281045707 0.0015882442607853347 0.013471064271796068 0.9928277045083912 -0.06502445816223046 0.005863060148306433 0.027085186830628938
0.09378907878283 0.006307945518476903 0.02915833678683134 0.992225621237106 -0.06977997552895196 0.0018400560891575822 0.014424888195671094 -0.001552995906797389 -0.009093563963877166
 0.992225621237106 -0.06977997552895196 0.006317517612424237 0.029157635813898186 -0.00155134098574756 -0.009093650674853505 0.0017843094548610288 0.014432651762458603
 0.0018400560891575822 0.014424888195671094 -0.00155134098574756 -0.009093650674853505 0.006308895986189388 0.02915950273717219 0.9922256782019575 -0.06977871970199469
 -0.001552995906797389 -0.009093563963877166 0.0017843094548610288 0.014432651762458603 0.9922256782019575 -0.06977871970199469 0.006316671703553256 0.02915893824386191
0.100041684035 0.0067835997763579575 0.03124807293955362 0.9915931017415341 -0.0745482307073624 0.002056001878831373 0.015384151961384289 -0.0017326919953754396 -0.009700942887096413
 0.9915931017415341 -0.0745482307073624 0.006794490931053837 0.031247285653651813 -0.0017308148399243972 -0.009701054622773975 0.0019925522171235287 0.015393220721762711
 0.002056001878831373 0.015384151961384289 -0.0017308148399243972 -0.009701054622773975 0.006784680379570002 0.031249308170889747 0.9915931664290634 -0.07454689042003235
 -0.0017326919953754396 -0.009700942887096413 0.0019925522171235287 0.015393220721762711 0.9915931664290634 -0.07454689042003235 0.0067935281057822814 0.031248678405826676
0.1059090909091 0.00725134103262786 0.03322326544248881 0.9909715091957045 -0.07903512753360219 0.0022702485916090086 0.01628308706548412 -0.0019109938554023411 -0.01027003591149126
 0.9909715091957045 -0.07903512753360219 0.007263547959364861 0.033222391374652674 -0.0019088960350303334 -0.010270174235338296 0.002199114979374431 0.016293508393152405
 0.0022702485916090086 0.01628308706548412 -0.0019088960350303334 -0.010270174235338296 0.0072525512734085635 0.03322456419409754 0.9909715816107585 -0.07903370783101529
 -0.0019109938554023411 -0.01027003591149126 0.002199114979374431 0.016293508393152405 0.9909715816107585 -0.07903370783101529 0.007262468517050849 0.033223869553989385
0.1062942892872 0.0072827802669636725 0.03335341062060003 0.9909297444627981 -0.07933010838830291 0.0022847086685712 0.016342056571487233 -0.0019230288780889913 -0.010307363600361651
 0.9909297444627981 -0.07933010838830291 0.007295076219786909 0.033352530653787384 -0.0019209161627799596 -0.010307503778560143 0.0022130551735629047 0.016352571182975055
 0.0022847086685712 0.016342056571487233 -0.0019209161627799596 -0.010307503778560143 0.007283999272824759 0.033354713490298935 0.9909298174018322 -0.07932868346570848
 -0.0019230288780889913 -0.010307363600361651 0.0022130551735629047 0.016352571182975055 0.9909298174018322 -0.07932868346570848 0.007293988887752761 0.033354014466002814
0.11254689453939999 0.007805842277442771 0.035473955676095126 0.9902352008705658 -0.08412530755081409 0.002526255211057052 0.017298390149870047 -0.002124087969234605 -0.01091262150157049
 0.9902352008705658 -0.08412530755081409 0.007819628972083745 0.03547297637854295 -0.002121726485679686 -0.010912793717643811 0.002445897057579378 0.01731049904445533
 0.002526255211057052 0.017298390149870047 -0.002121726485679686 -0.010912793717643811 0.007807207934065212 0.03547532443090658 0.9902352825994142 -0.08412379780566606
 -0.002124087969234605 -0.01091262150157049 0.002445897057579378 0.01731049904445533 0.9902352825994142 -0.08412379780566606 0.007818409537340781 0.03547455204463553
0.11879949979160001 0.00835313685824852 0.037609311365859106 0.9895091259498823 -0.08893351409006348 0.0027807161057470586 0.01825293676262316 -0.002335946513689674 -0.01151650864879561
 0.9895091259498823 -0.08893351409006348 0.008368500465958488 0.03760822579542033 -0.0023333231714926742 -0.011516716675300546 0.0026911525683993966 0.018266796213106628
 0.0027807161057470586 0.01825293676262316 -0.0023333231714926742 -0.011516716675300546 0.008354657393623413 0.03761074414252983 0.989509217017261 -0.08893191932115084
 -0.002335946513689674 -0.01151650864879561 0.0026911525683993966 0.018266796213106628 0.989509217017261 -0.08893191932115084 0.008367141327560255 0.037609894168007016
0.1250521050438 0.008925010643850786 0.03975907753647877 0.9887511784448827 -0.09375440168987535 0.0030481616548592976 0.019205476545861994 -0.00255867745467603 -0.012118813776524453
 0.9887511784448827 -0.09375440168987535 0.008942037584474366 0.03975787844735128 -0.0025557792827668622 -0.012119061562812908 0.0029488922310782354 0.019221250730045093
 0.0030481616548592976 0.019205476545861994 -0.0025557792827668622 -0.012119061562812908 0.008926694264019706 0.039760572358715364 0.9887512794098396 -0.09375272168410614
 -0.00255867745467603 -0.012118813776524453 0.0029488922310782354 0.019221250730045093 0.9887512794098396 -0.09375272168410614 0.008940531135859343 0.03975964043700926
0.131304710296 0.009521805665876218 0.041922849968785474 0.987961021096473 -0.0985876325327979 0.0033286577209378837 0.020155785830857895 -0.0027923493017790175 -0.012719322324738573
 0.987961021096473 -0.0985876325327979 0.009540582628901896 0.04192152979907169 -0.002789163449629695 -0.012719613996480916 0.0032191822575919613 0.020173646893477205
 0.0033286577209378837 0.020155785830857895 -0.002789163449629695 -0.012719613996480916 0.009523660553775954 0.041924404748213746 0.9879611325299484 -0.09858586706346573
 -0.0027923493017790175 -0.012719322324738573 0.0032191822575919613 0.020173646893477205 0.9879611325299484 -0.09858586706346573 0.009538921258511883 0.041923386377487964
0.1375573155481 0.010013721095559026 0.043817942241063265 0.9872685213533945 -0.10315042227895618 0.0035894344852396265 0.02107618957862978 -0.003004330162526432 -0.013290298276290156
 0.9872685213533945 -0.10315042227895618 0.010034339789304061 0.043816517346152224 -0.003000837485741444 -0.013290634544614299 0.0034695058111897654 0.02109612425675327
 0.0035894344852396265 0.02107618957862978 -0.003000837485741444 -0.013290634544614299 0.010015754926876713 0.04381955492311048 0.9872686437396985 -0.10314857124010723
 -0.003004330162526432 -0.013290298276290156 0.0034695058111897654 0.02109612425675327 0.9872686437396985 -0.10314857124010723 0.010032516545793483 0.043818469653320855
0.1438099208003 0.01052312446019556 0.045701735033283654 0.9865512673101087 -0.10770031688705592 0.0038607206805521344 0.021991993547727514 -0.003224740980650461 -0.013857120073954142
 0.9865512673101087 -0.10770031688705592 0.010545672651239521 0.04570019901099276 -0.0032209276693580618 -0.013857505034347016 0.0037298847429415084 0.02201416044698126
 0.0038607206805521344 0.021991993547727514 -0.0032209276693580618 -0.013857505034347016 0.010525345297459495 0.045703403458075026 0.9865514012181005 -0.10769838006450252
 -0.003224740980650461 -0.013857120073954142 0.0037298847429415084 0.02201416044698126 0.9865514012181005 -0.10769838006450252 0.010543680032555187 0.04570224805359753
0.1500625260525 0.011049815501010628 0.04757403220324257 0.9858094640814241 -0.11223716363362286 0.004142409808466197 0.02290307559799181 -0.0034534795308086503 -0.014419675553860657
 0.9858094640814241 -0.11223716363362286 0.0110743812263519 0.04757237824618457 -0.003449331815322826 -0.014420113466549683 0.004000215792946726 0.022927639104080633
 0.004142409808466197 0.02290307559799181 -0.003449331815322826 -0.014420113466549683 0.011052231379641245 0.047575754124789905 0.9858096100891302 -0.11223514080434227
 -0.0034534795308086503 -0.014419675553860657 0.004000215792946726 0.022927639104080633 0.9858096100891302 -0.11223514080434227 0.011072211732554812 0.047574525075830994
0.15631513130469998 0.011593592285458268 0.04943464348113246 0.985043318103092 -0.11676081122893148 0.0044343939559333976 0.023809315951121287 -0.0036904421936375157 -0.014977855177318845
 0.985043318103092 -0.11676081122893148 0.01162026385986661 0.04943286436400158 -0.0036859463452633594 -0.014978350466423119 0.004280394343137989 0.02383644616057055
