! Created with skrf 1.8.0 (http://scikit-rf.org).
# GHz S RI R 50.0 
!freq ReS11 ImS11 ReS12 ImS12 ReS13 ImS13
! ReS14 ImS14
! ReS21 ImS21 ReS22 ImS22 ReS23 ImS23
! ReS24 ImS24
! ReS31 ImS31 ReS32 ImS32 ReS33 ImS33
! ReS34 ImS34
! ReS41 ImS41 ReS42 ImS42 ReS43 ImS43
! ReS44 ImS44
!
0.0 0.001712836486193 0.0 0.9982871635061 0.0 6.632711478403e-05 0.0 -6.632711497768e-05 8.122728905409427e-21
 0.9982871635061 0.0 0.001712836486252 0.0 -6.632711497929e-05 8.122728905606595e-21 6.632711478441e-05 0.0
 6.632711478403e-05 0.0 -6.632711497929e-05 8.122728905606595e-21 0.001712836490065 0.0 0.9982871635099 0.0
 -6.632711497768e-05 8.122728905409427e-21 6.632711478441e-05 0.0 0.9982871635099 0.0 0.001712836490037 0.0
0.005 0.0018433987619721668 0.001401233098322254 0.9981218902035123 -0.0035872890334019835 9.321518829794743e-05 0.0007281589994277708 -9.045923067288137e-05 -0.00045742252265973615
 0.9981218902035123 -0.0035872890334019835 0.0018434215562306787 0.0014012198448358638 -9.045957751371034e-05 -0.00045742285561721827 9.307539815241464e-05 0.0007282123371029299
 9.321518829794743e-05 0.0007281589994277708 -9.045957751371034e-05 -0.00045742285561721827 0.0018433978712348639 0.0014011663922356156 0.9981218898293832 -0.0035873560960866606
 -9.045923067288137e-05 -0.00045742252265973615 9.307539815241464e-05 0.0007282123371029299 0.9981218898293832 -0.0035873560960866606 0.0018434217006316638 0.001401152425764751
0.006252605252188 0.0018777998376614327 0.0017570287627310132 0.9980780415444573 -0.004484962474335415 0.00010099458729665554 0.0009105415801489266 -9.734431682421574e-05 -0.0005723591449470724
 0.9980780415444573 -0.004484962474335415 0.0018778354684116795 0.0017570119083117415 -9.734485599768119e-05 -0.0005723595568373077 0.00010077618074443254 0.00091061085976135
 0.00010099458729665554 0.0009105415801489266 -9.734485599768119e-05 -0.0005723595568373077 0.0018777985285963294 0.0017569453971265656 0.9980780410434055 -0.004485046292890063
 -9.734431682421574e-05 -0.0005723591449470724 0.00010077618074443254 0.00091061085976135 0.9980780410434055 -0.004485046292890063 0.0018778357785081878 0.0017569276377281345
0.01250521050438 0.002059817585072187 0.0035506039646164425 0.9978443772279222 -0.008970538166130719 0.00014612218176642629 0.001821366860212728 -0.00013679386300129064 -0.0011473831588225765
 0.9978443772279222 -0.008970538166130719 0.002059959849430244 0.0035505673473196645 -0.00013679598139801493 -0.0011473839358474896 0.00014525128562455046 0.0018215337572823483
 0.00014612218176642629 0.001821366860212728 -0.00013679598139801493 -0.0011473839358474896 0.0020598128869004795 0.0035504375607508082 0.9978443757632801 -0.008970705556942817
 -0.00013679386300129064 -0.0011473831588225765 0.00014525128562455046 0.0018215337572823483 0.9978443757632801 -0.008970705556942817 0.0020599616324673705 0.003550398982657994
0.01875781575657 0.002259321053838422 0.005369413040695849 0.9975858561803721 -0.013467603953711946 0.0002018186525180407 0.0027330532619268284 -0.00018480389737605577 -0.0017242228589361575
 0.9975858561803721 -0.013467603953711946 0.0022596407114620952 0.005369353525552751 -0.00018480861248948153 -0.0017242239467918506 0.0001998624233486646 0.0027333521316835747
 0.0002018186525180407 0.0027330532619268284 -0.00018480861248948153 -0.0017242239467918506 0.002259310908736697 0.0053691638080416125 0.9975858533152206 -0.013467854814348616
 -0.00018480389737605577 -0.0017242228589361575 0.0001998624233486646 0.0027333521316835747 0.9975858533152206 -0.013467854814348616 0.0022596451613968627 0.005369101085480948
0.02501042100875 0.0024767267618147223 0.007210869402491148 0.9973021507381202 -0.01797829629508596 0.0002681944692288083 0.0036456075664687577 -0.000241497704077241 -0.00230259195576447
 0.9973021507381202 -0.01797829629508596 0.002477294422975525 0.007210783651424731 -0.0002415060183383412 -0.0023025932914658882 0.00026472001207583114 0.0036460785928073875
 0.0002681944692288083 0.0036456075664687577 -0.0002415060183383412 -0.0023025932914658882 0.002476709095560442 0.007210537544856059 0.9973021460233016 -0.017978630554751615
 -0.000241497704077241 -0.00230259195576447 0.00026472001207583114 0.0036460785928073875 0.9973021460233016 -0.017978630554751615 0.0024773027285476044 0.0072104471093950165
0.03126302626094 0.002712433930677338 0.009073620318747604 0.9969929178136177 -0.0225035033373159 0.0003453602465029394 0.004558952242660412 -0.00030699459089850704 -0.0028822806564464823
 0.9969929178136177 -0.0225035033373159 0.002713320097589302 0.009073504794878822 -0.0003070074942900465 -0.0028822821682156245 0.00033993422687080655 0.004559641471872273
 0.0003453602465029394 0.004558952242660412 -0.0003070074942900465 -0.0028822821682156245 0.0027124066703117103 0.009073206037305338 0.9969929108053613 -0.022503920954033262
 -0.00030699459089850704 -0.0028822806564464823 0.00033993422687080655 0.004559641471872273 0.9969929108053613 -0.022503920954033262 0.0027133334601684273 0.009073084082081493
0.037515631513130004 0.0029668327164312507 0.010956767359697675 0.9966578074585192 -0.02704364441361358 0.0004334255586671343 0.005472975980496341 -0.00038141072852559456 -0.0034631051465939954
 0.9966578074585192 -0.02704364441361358 0.002968107811359365 0.010956618329332582 -0.0003814291999794931 -0.003463106753885591 0.0004256140375004207 0.005473935377989558
 0.0004334255586671343 0.005472975980496341 -0.0003814291999794931 -0.003463106753885591 0.0029667937843877138 0.010956270878914575 0.9966577977123663 -0.027044145348802603
 -0.00038141072852559456 -0.0034631051465939954 0.0004256140375004207 0.005473935377989558 0.9966577977123663 -0.027044145348802603 0.002968127438674934 0.01095611335997608
0.043768236765320004 0.003240307360484194 0.012859629208788007 0.9962964663529498 -0.03159890716181975 0.0005324983752146202 0.006387549062740898 -0.00046485943039798177 -0.004044892241459454
 0.9962964663529498 -0.03159890716181975 0.0032420417488389064 0.012859442742266143 -0.00046488443862408577 -0.0040448938550055455 0.000521866740187099 0.006388836576883464
 0.0005324983752146202 0.006387549062740898 -0.00046488443862408577 -0.0040448938550055455 0.0032402546753815356 0.012859050771310663 0.9962964534238282 -0.03159949138583646
 -0.00046485943039798177 -0.004044892241459454 0.000521866740187099 0.006388836576883464 0.9962964534238282 -0.03159949138583646 0.003242068855604227 0.012858853407931768
0.050020842017509996 0.0035332376428008714 0.014781643628099734 0.9959085396011507 -0.03616934548807154 0.0006426847084134119 0.007302529728982764 -0.000557451241039631 -0.0046274730504789535
 0.9959085396011507 -0.03616934548807154 0.003535501653702843 0.014781415599887448 -0.000557483745218907 -0.004627474572335601 0.0006287976553594593 0.00730420935771113
 0.0006426847084134119 0.007302529728982764 -0.000557483745218907 -0.004627474572335601 0.0035331691204280573 0.014780983500299197 0.9959085230440354 -0.036170012975143405
 -0.000557451241039631 -0.0046274730504789535 0.0006287976553594593 0.00730420935771113 0.9959085230440354 -0.036170012975143405 0.0035355374611912307 0.014780741774555723
0.055454545454549996 0.0038038954380510107 0.01646710382895991 0.995549552686382 -0.04015349624592535 0.0007475461817322682 0.008097889824135302 -0.0006454254244595862 -0.005134267790212896
 0.995549552686382 -0.04015349624592535 0.0038066768086464048 0.01646683617941422 -0.0006454652147069833 -0.005134269146155912 0.000730476023762924 0.008099966935726193
 0.0007475461817322682 0.008097889824135302 -0.0006454652147069833 -0.005134269146155912 0.0038038114583102667 0.01646637294610503 0.9955495326149426 -0.04015423607194414
 -0.0006454254244595862 -0.005134267790212896 0.000730476023762924 0.008099966935726193 0.9955495326149426 -0.04015423607194414 0.0038067211747115576 0.016466088813885067
0.056273447269699996 0.0038459996126040683 0.01672231934090783 0.9954936718108696 -0.04075492761685367 0.0007640883596758861 0.008217767299181257 -0.0006592939326720933 -0.005210679888668064
 0.9954936718108696 -0.04075492761685367 0.0038488635575907766 0.01672204542904226 -0.0006593348828546405 -0.005210681212277256 0.000746509905691565 0.008219909157587864
 0.0007640883596758861 0.008217767299181257 -0.0006593348828546405 -0.005210681212277256 0.003845913166268008 0.016721577813084816 0.9954936511803598 -0.040755678345314926
 -0.0006592939326720933 -0.005210679888668064 0.000746509905691565 0.008219909157587864 0.9954936511803598 -0.040755678345314926 0.0038489092937399457 0.016721286968634504
0.06252605252188 0.004178965960500275 0.018681209591269274 0.9950515078192389 -0.045355562469486424 0.0008968107127185526 0.009133103905454857 -0.0007704924585982031 -0.005794344586533533
 0.9950515078192389 -0.045355562469486424 0.004182500151763628 0.018680885276048043 -0.0007705427960646758 -0.005794345596759739 0.0008751042293292573 0.00913578429360657
 0.0008968107127185526 0.009133103905454857 -0.0007705427960646758 -0.005794345596759739 0.0041788595016133126 0.018680386975282525 0.9950514826694269 -0.04535639642450689
 -0.0007704924585982031 -0.005794344586533533 0.0008751042293292573 0.00913578429360657 0.9950514826694269 -0.04535639642450689 0.004182557050813918 0.018680042015628007
0.06877865777407 0.004532506199421966 0.020657896368168366 0.9945816932324583 -0.049971115384741395 0.001040950554060911 0.010048375534685267 -0.0008911488798649486 -0.0063782974964028466
 0.9945816932324583 -0.049971115384741395 0.004536780967544854 0.020657516930361774 -0.0008912095374593387 -0.00637829806958723 0.0010146788152622952 0.010051677005134627
 0.001040950554060911 0.010048375534685267 -0.0008912095374593387 -0.00637829806958723 0.004532377637505651 0.02065699300406765 0.9945816631164853 -0.04997203255217926
 -0.0008911488798649486 -0.0063782974964028466 0.0010146788152622952 0.010051677005134627 0.9945816631164853 -0.04997203255217926 0.004536850268718467 0.020656588690204248
0.07503126302626001 0.004906986724971785 0.022651980432642067 0.9940838748507358 -0.05460141804442653 0.0011966039086683934 0.010963412697114955 -0.0010213622768051665 -0.0069623668803499884
 0.9940838748507358 -0.05460141804442653 0.0049120724364530455 0.02265154095096308 -0.0010214341791286781 -0.0069623668843556245 0.001165329150426811 0.010967424121755102
 0.0011966039086683934 0.010963412697114955 -0.0010214341791286781 -0.0069623668843556245 0.0049068339688377455 0.022650996684587275 0.9940838393208172 -0.054602418415279186
 -0.0010213622768051665 -0.0069623668803499884 0.001165329150426811 0.010967424121755102 0.9940838393208172 -0.054602418415279186 0.004912155384654006 0.022650527531896423
0.08128386827845 0.005302770806997813 0.02466307466815784 0.9935577010276541 -0.05924627508380144 0.001363863886433167 0.011878040891940325 -0.001161228649978633 -0.007546378508845331
 0.9935577010276541 -0.05924627508380144 0.005308737881191284 0.024662570016148862 -0.0011613127135908757 -0.00754637780309657 0.0013271478739531918 0.011882857528042898
 0.001363863886433167 0.011878040891940325 -0.0011613127135908757 -0.00754637780309657 0.00530259176494069 0.024662010927539838 0.9935576596352257 -0.059247358651547
 -0.001161228649978633 -0.007546378508845331 0.0013271478739531918 0.011882857528042898 0.9935576596352257 -0.059247358651547 0.005308835726199702 0.024661471202204303
0.08753647353064001 0.005720218530020171 0.026690799500390685 0.9930028219846047 -0.06390546864158052 0.0015428205345640216 0.01279208093195094 -0.0013108408137445613 -0.008130155408577396
 0.9930028219846047 -0.06390546864158052 0.005727137456859995 0.026690224342569496 -0.0013109379474148732 -0.008130153844093768 0.0015002246376803153 0.012797804487170278
 0.0015428205345640216 0.01279208093195094 -0.0013109379474148732 -0.008130153844093768 0.0057200111105999525 0.026689656184369717 0.9930027742795533 -0.06390663540390253
 -0.0013108408137445613 -0.008130155408577396 0.0015002246376803153 0.012797804487170278 0.9930027742795533 -0.06390663540390253 0.005727251452441476 0.026689039899096746
0.09378907878283 0.006159686702037346 0.028734779620589717 0.9924188900967171 -0.0685787616155867 0.0017335606948741466 0.013705349198899878 -0.001470288285371105 -0.00871351768767657
 0.9924188900967171 -0.0685787616155867 0.006167628058856952 0.028734128408022197 -0.0014703993901721685 -0.008713515107109911 0.0016846459688070802 0.013712087895064406
 0.0017335606948741466 0.013705349198899878 -0.0014703993901721685 -0.008713515107109911 0.0061594488146920374 0.028733557176335075 0.9924188356276534 -0.0685800115705673
 -0.001470288285371105 -0.00871351768767657 0.0016846459688070802 0.013712087895064406 0.9924188356276534 -0.0685800115705673 0.006167759462965959 0.028732858085363324
0.100041684035 0.006621528737005165 0.030794641605879962 0.9918055601573562 -0.07326590003103416 0.0019361678639377709 0.014617657839980378 -0.0016396571704372412 -0.00929628242840391
 0.9918055601573562 -0.07326590003103416 0.006630563206024855 0.03079390857094846 -0.0016397831398901543 -0.00929627866607022 0.0018804951354318734 0.01462552647557152
 0.0019361678639377709 0.014617657839980378 -0.0016397831398901543 -0.00929627866607022 0.006621258292502119 0.03079334050580261 0.9918054984710263 -0.07326723318220095
 -0.0016396571704372412 -0.00929628242840391 0.0018804951354318734 0.01462552647557152 0.9918054984710263 -0.07326723318220095 0.006630713280091534 0.030792552099268945
0.1059090909091 0.007075579008793259 0.03274171542742124 0.9912029726920709 -0.0776766351005044 0.0021371574389532086 0.015472719058555592 -0.0018076889276294262 -0.00984243621685299
 0.9912029726920709 -0.0776766351005044 0.007085703640938224 0.03274090016531139 -0.0018078296520457036 -0.009842431187470177 0.0020747434949665183 0.015481758342529385
 0.0021371574389532086 0.015472719058555592 -0.0018078296520457036 -0.009842431187470177 0.007075276114866479 0.03274034097322195 0.9912029038197793 -0.07767804632699113
 -0.0018076889276294262 -0.00984243621685299 0.0020747434949665183 0.015481758342529385 0.9912029038197793 -0.07767804632699113 0.0070858723847820925 0.032739462592093836
0.1062942892872 0.007106094521162486 0.03287001212297638 0.9911624896290371 -0.07796661483534406 0.0021507220558774362 0.015528814932992262 -0.0018190300454817736 -0.009878263619663565
 0.9911624896290371 -0.07796661483534406 0.0071162929066531195 0.03286919127350089 -0.0018191717657157723 -0.009878258501564032 0.00208785201402584 0.015537934944237393
 0.0021507220558774362 0.015528814932992262 -0.0018191717657157723 -0.009878258501564032 0.007105789432667834 0.03286863286887115 0.9911624202709072 -0.07796803118793788
 -0.0018190300454817736 -0.009878263619663565 0.00208785201402584 0.015537934944237393 0.9911624202709072 -0.07796803118793788 0.007116462915272894 0.032867748366519484
0.11254689453939999 0.007613730264931148 0.03496051656984513 0.990489338884959 -0.08268062326533998 0.0023772996669968543 0.016438624626028166 -0.0020084858390135925 -0.01045927212392558
 0.990489338884959 -0.08268062326533998 0.007625163510678377 0.03495960168238499 -0.00200864418889673 -0.010459265467770559 0.0023067929579723627 0.01644912414640405
 0.0023772996669968543 0.016438624626028166 -0.00200864418889673 -0.010459265467770559 0.007613388448575995 0.0349590596910421 0.9904892613985073 -0.082682122828337
 -0.0020084858390135925 -0.01045927212392558 0.0023067929579723627 0.01644912414640405 0.9904892613985073 -0.082682122828337 0.007625354721015132 0.034958072035186596
0.11879949979160001 0.008144778344269127 0.037065778025661036 0.9897857714419573 -0.08740762991661187 0.0026159733418908144 0.017346887265875313 -0.0022080997111957024 -0.011039115664253358
 0.9897857714419573 -0.08740762991661187 0.008157517550861403 0.037064762638169865 -0.002208275562373342 -0.011039107279504266 0.0025373906676982045 0.017358901183997542
 0.0026159733418908144 0.017346887265875313 -0.002208275562373342 -0.011039107279504266 0.008144397719654398 0.037064244082855115 0.9897856853684012 -0.08740921269926762
 -0.0022080997111957024 -0.011039115664253358 0.0025373906676982045 0.017358901183997542 0.9897856853684012 -0.08740921269926762 0.008157731232335864 0.0370631459304873
0.1250521050438 0.008699577134516497 0.03918541643194429 0.9890514541892792 -0.0921473275924261 0.002866811841127413 0.018253399512547893 -0.002417942932614668 -0.011617598834277085
 0.9890514541892792 -0.0921473275924261 0.008713693576591474 0.03918429383556546 -0.002418137149696003 -0.01161758852210968 0.0027797140615667838 0.01826706952836033
 0.002866811841127413 0.018253399512547893 -0.002418137149696003 -0.01161758852210968 0.008699155625543846 0.03918380601246468 0.9890513590678051 -0.09214899360925044
 -0.002417942932614668 -0.011617598834277085 0.0027797140615667838 0.01826706952836033 0.9890513590678051 -0.09214899360925044 0.00871393100045583 0.03918258972683058
0.131304710296 0.009278460835986898 0.04131904793834657 0.9882860576118621 -0.09689939799908176 0.0031298799100072665 0.019157954450171495 -0.0026380827627819105 -0.012194523120949548
 0.9882860576118621 -0.09689939799908176 0.00929402598019492 0.04131781116838879 -0.0026382962034176534 -0.012194510674317411 0.003033828148037838 0.019173429129299306
 0.0031298799100072665 0.019157954450171495 -0.0026382962034176534 -0.012194510674317411 0.009277996371768935 0.04131736165983361 0.9882859529791606 -0.09690114726634436
 -0.0026380827627819105 -0.012194523120949548 0.003033828148037838 0.019173429129299306 0.9882859529791606 -0.09690114726634436 0.009294288418755773 0.04131601930104498
0.1375573155481 0.00975454351324029 0.043188860805353856 0.9876165296726666 -0.10138594172888794 0.0033740586646832486 0.020033465549723975 -0.0028375149081984984 -0.012742747020585064
 0.9876165296726666 -0.10138594172888794 0.00977163531950595 0.04318752979585629 -0.00283774903603207 -0.012742732410584596 0.0032688303955210763 0.02005073233468568
 0.0033740586646832486 0.020033465549723975 -0.00283774903603207 -0.012742732410584596 0.009754034948821119 0.04318709880122771 0.9876164151001066 -0.1013877742069198
 -0.0028375149081984984 -0.012742747020585064 0.0032688303955210763 0.02005073233468568 0.9876164151001066 -0.1013877742069198 0.009771923051438407 0.0431856501888372
0.1438099208003 0.010247541398192124 0.045047783271059766 0.9869231132000149 -0.10586004346864226 0.0036280753285592164 0.020904693604373484 -0.0030448776127747633 -0.013287097196248357
 0.9869231132000149 -0.10586004346864226 0.010266232587894318 0.04504635259077805 -0.003045133384271307 -0.013287080211240027 0.003513271069183752 0.020923889381215737
 0.0036280753285592164 0.020904693604373484 -0.003045133384271307 -0.013287080211240027 0.010246986836094651 0.045045946118851425 0.9869229882287791 -0.10586195916221919
 -0.0030448776127747633 -0.013287097196248357 0.003513271069183752 0.020923889381215737 0.9869229882287791 -0.10586195916221919 0.010266546706078728 0.04504438491665722
0.1500625260525 0.010757264519607132 0.046895628876971074 0.9862060028808146 -0.11032155995159139 0.003891831721470568 0.02177152569314638 -0.0032600765579908217 -0.013827469925088497
 0.9862060028808146 -0.11032155995159139 0.010777628033615226 0.04689409275223553 -0.0032603549300898225 -0.01382745034426496 0.003767054727430516 0.021792792351444833
 0.003891831721470568 0.02177152569314638 -0.0032603549300898225 -0.01382745034426496 0.010756662077998459 0.04689371717291091 0.9862058670509034 -0.11032355886692564
 -0.0032600765579908217 -0.013827469925088497 0.003767054727430516 0.021792792351444833 0.9862058670509034 -0.11032355886692564 0.010777969620039176 0.04689203667045018
0.15631513130469998 0.01128352136306288 0.04873221673398902 0.9854653946070969 -0.11477034913269678 0.004165228377271648 0.022633851040977808 -0.0034830161574290566 -0.014363763873656468
 0.9854653946070969 -0.11477034913269678 0.011305630367129862 0.048730569038611886 -0.0034833180876619745 -0.01436374146690791 0.004030084689141419 0.022657335416156638
