! Created with skrf 1.8.0 (http://scikit-rf.org).
# GHz S RI R 50.0 
!freq ReS11 ImS11 ReS12 ImS12 ReS13 ImS13
! ReS14 ImS14
! ReS21 ImS21 ReS22 ImS22 ReS23 ImS23
! ReS24 ImS24
! ReS31 ImS31 ReS32 ImS32 ReS33 ImS33
! ReS34 ImS34
! ReS41 ImS41 ReS42 ImS42 ReS43 ImS43
! ReS44 ImS44
!
0.0 0.001801138219901 0.0 0.9981988617801 0.0 6.974922772719e-05 0.0 -6.974922758232e-05 8.541816830168847e-21
 0.9981988617801 0.0 0.001801138219898 0.0 -6.974922758248e-05 8.541816830188442e-21 6.974922772638e-05 0.0
 6.974922772719e-05 0.0 -6.974922758248e-05 8.541816830188442e-21 0.001801138209778 0.0 0.99819886177 0.0
 -6.974922758232e-05 8.541816830168847e-21 6.974922772638e-05 0.0 0.99819886177 0.0 0.001801138209765 0.0
0.005 0.0019386972767319003 0.0014756002629611235 0.998024692212159 -0.0037717841573949923 9.780571436359408e-05 0.0007512257794755485 -9.499331236862712e-05 -0.00047440026067478605
 0.998024692212159 -0.0037717841573949923 0.0019387188530122566 0.0014755877216014522 -9.499077953633842e-05 -0.0004743984334598243 9.767849566685169e-05 0.0007512743134658228
 9.780571436359408e-05 0.0007512257794755485 -9.499077953633842e-05 -0.0004743984334598243 0.0019386976061930704 0.0014755328617060343 0.9980246918311141 -0.0037718512187707785
 -9.499331236862712e-05 -0.00047440026067478605 9.767849566685169e-05 0.0007512743134658228 0.9980246918311141 -0.0037718512187707785 0.0019387177671159482 0.0014755210046481807
0.006252605252188 0.001975029609937444 0.0018502555056441865 0.997978360168821 -0.004715609855144489 0.00010596404855419799 0.0009393873430234488 -0.00010223211723835124 -0.000593594284866829
 0.997978360168821 -0.004715609855144489 0.0019750633370023644 0.0018502395828375805 -0.00010222817504953147 -0.0005935920353730083 0.00010576528403432201 0.0009394504043645653
 0.00010596404855419799 0.0009393873430234488 -0.00010222817504953147 -0.0005935920353730083 0.0019750301951200313 0.0018501712785888812 0.9979783596437837 -0.004715693668638977
 -0.00010223211723835124 -0.000593594284866829 0.00010576528403432201 0.0009394504043645653 0.9979783596437837 -0.004715693668638977 0.0019750617108663755 0.0018501561932231015
0.01250521050438 0.0021677735755097224 0.0037387753933142073 0.997730761011261 -0.009431700128529206 0.00015350336487573768 0.0018790605098877406 -0.00014390170021965222 -0.0011898806144898574
 0.997730761011261 -0.009431700128529206 0.0021679082377562063 0.003738741042819134 -0.00014388615382846423 -0.0011898765005524934 0.00015271079899946554 0.0018792127367145155
 0.00015350336487573768 0.0018790605098877406 -0.00014388615382846423 -0.0011898765005524934 0.0021677764832265765 0.0037386072954883457 0.9977307594939386 -0.009431867523623006
 -0.00014390170021965222 -0.0011898806144898574 0.00015271079899946554 0.0018792127367145155 0.9977307594939386 -0.009431867523623006 0.0021679023366529063 0.003738574448575293
0.01875781575657 0.002379844049969203 0.005653646559092729 0.9974557190249767 -0.014159682036543414 0.00021248472398522578 0.002819584993744968 -0.00019489610785764958 -0.001787984806772063
 0.9974557190249767 -0.014159682036543414 0.002380146623141897 0.005653591033679605 -0.00019486142508824304 -0.0017879793038023339 0.00021070446307714337 0.002819858236511442
 0.00021248472398522578 0.002819584993744968 -0.00019486142508824304 -0.0017879793038023339 0.0023798509948359187 0.0056533948183172976 0.9974557160413745 -0.014159932936730088
 -0.00019489610785764958 -0.001787984806772063 0.00021070446307714337 0.002819858236511442 0.9974557160413745 -0.014159932936730088 0.002380133816460824 0.005653341315517281
0.02501042100875 0.002611697645892513 0.007592127652769978 0.9971528739371731 -0.018901778383284752 0.0002830271799647236 0.00376094962068356 -0.00025534796445284463 -0.0023876005267657683
 0.9971528739371731 -0.018901778383284752 0.002612234964067561 0.007592047986123326 -0.0002552866998360452 -0.0023875942077008295 0.00027986530782088604 0.003761381307937747
 0.0002830271799647236 0.00376094962068356 -0.0002552866998360452 -0.0023875942077008295 0.002611710329410516 0.0075917924854701745 0.9971528690105577 -0.018902112752209516
 -0.00025534796445284463 -0.0023876005267657683 0.00027986530782088604 0.003761381307937747 0.9971528690105577 -0.018902112752209516 0.002612212639791338 0.007591715234288026
0.03126302626094 0.0028637719364460455 0.009552773542754562 0.9968218491867014 -0.02365889909618448 0.00036524959006386815 0.004703057607888654 -0.00032538538309733443 -0.0029884981929379135
 0.9968218491867014 -0.02365889909618448 0.0028646107319834396 0.009552666553647695 -0.0003252901637238308 -0.002988491729147614 0.0003603118224162529 0.004703690779619858
 0.00036524959006386815 0.004703057607888654 -0.0003252901637238308 -0.002988491729147614 0.002863792053491212 0.009552355166642658 0.9968218418412418 -0.02365931692537272
 -0.00032538538309733443 -0.0029884981929379135 0.0003603118224162529 0.004703690779619858 0.9968218418412418 -0.02365931692537272 0.002864576299937516 0.009552250880182599
0.037515631513130004 0.0031364942891462908 0.01153461592373392 0.9964622611594308 -0.02843146056457328 0.00045926936404172845 0.00564577760343314 -0.0004051328317660581 -0.0035904739704103275
 0.9964622611594308 -0.02843146056457328 0.0031377012201580447 0.011534478217503672 -0.0004049963503719252 -0.0035904681320102346 0.0004521609060006733 0.005646660965249456
 0.00045926936404172845 0.00564577760343314 -0.0004049963503719252 -0.0035904681320102346 0.0031365235260528215 0.011534114563171556 0.9964622509158566 -0.028431961868328564
 -0.0004051328317660581 -0.0035904739704103275 0.0004521609060006733 0.005646660965249456 0.9964622509158566 -0.028431961868328564 0.0031376521075536 0.011533979761578089
0.043768236765320004 0.00343028525056852 0.013536913965965654 0.9960737229802118 -0.03321963492433117 0.0005652018583637062 0.006588959211918022 -0.0004947114130161457 -0.004193334285130233
 0.9960737229802118 -0.03321963492433117 0.003431926923099743 0.013536741934882591 -0.0004945264240918428 -0.004193329941119844 0.000555527348669563 0.006590147195683527
 0.0005652018583637062 0.006588959211918022 -0.0004945264240918428 -0.004193329941119844 0.0034303252887506073 0.013536329856130583 0.9960737093577107 -0.0332202197356959
 -0.0004947114130161457 -0.004193334285130233 0.000555527348669563 0.006590147195683527 0.9960737093577107 -0.0332202197356959 0.003431860576526529 0.013536160867068301
0.050020842017509996 0.003745560096051299 0.015559051273429504 0.9956558464755916 -0.03802345303345181 0.0006831599938401867 0.007532439427341333 -0.0005942389385592147 -0.004796889437639903
 0.9956558464755916 -0.03802345303345181 0.003747703084361699 0.01555884109612592 -0.0005939982560619616 -0.004796887555978602 0.0006705234960819934 0.007533992254174349
 0.0006831599938401867 0.007532439427341333 -0.0005939982560619616 -0.004796887555978602 0.00374561261142924 0.01555838466182713 0.9956558289891307 -0.03802412140275793
 -0.0005942389385592147 -0.004796889437639903 0.0006705234960819934 0.007533992254174349 0.9956558289891307 -0.03802412140275793 0.0037476169678815523 0.015558177620051766
0.055454545454549996 0.004037310164752158 0.017332039120514172 0.9952685712491282 -0.04221077635928469 0.0007955211405955066 0.008352461096034982 -0.0006889001464935978 -0.005321814723726986
 0.9952685712491282 -0.04221077635928469 0.004039942867109906 0.017331792522780685 -0.0006886052738260826 -0.005321815844906664 0.0007799886040199774 0.008354384433741974
 0.0007955211405955066 0.008352461096034982 -0.0006886052738260826 -0.005321815844906664 0.004037374881543375 0.01733130102651383 0.995268550007758 -0.04221151739381481
 -0.0006889001464935978 -0.005321814723726986 0.0007799886040199774 0.008354384433741974 0.995268550007758 -0.04221151739381481 0.004039837524590817 0.017331057626259472
0.056273447269699996 0.004082729598137698 0.01760048530946773 0.9952082433611824 -0.04284285498485715 0.0008132539734798812 0.008476045799649548 -0.0007038299112201614 -0.005400950490804413
 0.9952082433611824 -0.04284285498485715 0.004085440462841378 0.017600232949762137 -0.0007035264072326879 -0.005400952138446072 0.0007972589951359616 0.008478029543788611
 0.0008132539734798812 0.008476045799649548 -0.0007035264072326879 -0.005400952138446072 0.004082796263013493 0.01759973645876304 0.9952082215215331 -0.04284360697699275
 -0.0007038299112201614 -0.005400950490804413 0.0007972589951359616 0.008478029543788611 0.9952082215215331 -0.04284360697699275 0.004085332058594901 0.01759948730524609
0.06252605252188 0.004442200409422885 0.019660719608932984 0.9947305260492485 -0.04767771784023818 0.0009555910500286505 0.00941959819111293 -0.0008235954595543349 -0.006005327576193868
 0.9947305260492485 -0.04767771784023818 0.0044455457155100405 0.01966042081393457 -0.0008232220636008967 -0.006005333919098234 0.0009358405806506944 0.009422084843780397
 0.0009555910500286505 0.00941959819111293 -0.0008232220636008967 -0.006005333919098234 0.004442282893283349 0.019659888799080833 0.9947304993622617 -0.04767855353242177
 -0.0008235954595543349 -0.006005327576193868 0.0009358405806506944 0.009422084843780397 0.9947304993622617 -0.04767855353242177 0.00444541252322432 0.01965959327938552
0.06877865777407 0.004824375237633687 0.021739287209966034 0.9942223082546855 -0.052527872153031854 0.0011102753217021141 0.010362909837349284 -0.0009536432454303768 -0.006609828904756329
 0.9942223082546855 -0.052527872153031854 0.004828421571437772 0.02173893750748516 -0.0009531929441254598 -0.006609841207880892 0.0010863718844630664 0.010365977370196981
 0.0011102753217021141 0.010362909837349284 -0.0009531929441254598 -0.006609841207880892 0.00482447520849845 0.0217383747342522 0.9942222762205014 -0.05252879163871074
 -0.0009536432454303768 -0.006609828904756329 0.0010863718844630664 0.010365977370196981 0.9942222762205014 -0.05252879163871074 0.00482826110912615 0.02173802839623796
0.07503126302626001 0.005229652891878732 0.023835740168637622 0.9936832054769642 -0.057393112418330006 0.0012774075446010272 0.011305788041806106 -0.0010940773549423081 -0.007214260153362725
 0.9936832054769642 -0.057393112418330006 0.005234466877863491 0.023835334864077726 -0.0010935431920137773 -0.00721427978063978 0.0012489532579109085 0.01130952046966322
 0.0012774075446010272 0.011305788041806106 -0.0010935431920137773 -0.00721427978063978 0.005229772017917123 0.02383474633201174 0.9936831675904662 -0.057394115808731855
 -0.0010940773549423081 -0.007214260153362725 0.0012489532579109085 0.01130952046966322 0.9936831675904662 -0.057394115808731855 0.005234276682540848 0.02383434452307605
0.08128386827845 0.00565842825227576 0.02594964257495103 0.9931128354120532 -0.06227320403227956 0.0014570849553839625 0.01224803464785262 -0.001244998178607443 -0.007818424083575398
 0.9931128354120532 -0.06227320403227956 0.00566407657012479 0.025949176747358322 -0.00124437325515099 -0.007818452497854608 0.0014236816030120411 0.01225252209043435
 0.0014570849553839625 0.01224803464785262 -0.00124437325515099 -0.007818452497854608 0.00565856820170134 0.025948567703906897 0.9931127911603019 -0.06227429144640825
 -0.001244998178607443 -0.007818424083575398 0.0014236816030120411 0.01225252209043435 0.9931127911603019 -0.06227429144640825 0.005663854196403215 0.025948105567428867
0.08753647353064001 0.006111092185304771 0.02808056575960186 0.9925108183131283 -0.0671678880719425 0.0016494011012021818 0.013189446390047335 -0.001406502284505069 -0.008422120291095313
 0.9925108183131283 -0.0671678880719425 0.00611764158646478 0.028080034257100105 -0.001405779759380913 -0.008422159054074715 0.001610650208594803 0.013194785132593968
 0.0016494011012021818 0.013189446390047335 -0.001405779759380913 -0.008422159054074715 0.006111254628577358 0.02807941019265444 0.99251076717625 -0.06716905964576543
 -0.001406502284505069 -0.008422120291095313 0.001610650208594803 0.013194785132593968 0.99251076717625 -0.06716905964576543 0.006117384608226501 0.028078882663836954
0.09378907878283 0.006588031423620459 0.030228084853320875 0.991876777321821 -0.07207688473412423 0.00185444567429949 0.014129815160468413 -0.0015786822862443874 -0.009025145050468605
 0.991876777321821 -0.07207688473412423 0.006595548748102815 0.03022748228783799 -0.0015778553766352082 -0.009025195822602444 0.0018099485907863869 0.01413610771305222
 0.00185444567429949 0.014129815160468413 -0.0015778553766352082 -0.009025195822602444 0.006588218034107093 0.030226848943226414 0.9918767187720018 -0.07207814061823112
 -0.0015786822862443874 -0.009025145050468605 0.0018099485907863869 0.01413610771305222 0.9918767187720018 -0.07207814061823112 0.006595254758233163 0.030226250744226718
0.100041684035 0.007089628419628203 0.03239177629395968 0.9912103387768232 -0.07699989583891528 0.0020723043506927536 0.015068928225588455 -0.0017616267072135148 -0.009627291219621045
 0.9912103387768232 -0.07699989583891528 0.007098180612589916 0.03239109703524952 -0.001760688689291215 -0.00962735576000032 0.002021662336331041 0.015076283381092178
 0.0020723043506927536 0.015068928225588455 -0.001760688689291215 -0.00962735576000032 0.007089840875069771 0.03239046041145861 0.9912102722776032 -0.07700123619428001
 -0.0017616267072135148 -0.009627291219621045 0.002021662336331041 0.015076283381092178 0.9912102722776032 -0.07700123619428001 0.0070978472235646885 0.0323897860458981
0.1059090909091 0.007583086743796234 0.034436502000679006 0.9905551618760968 -0.08163208550267917 0.002288468553358 0.01594885077982448 -0.0019431659100917612 -0.010191354902947867
 0.9905551618760968 -0.08163208550267917 0.007592671045348006 0.034435745431176557 -0.0019421175667885405 -0.010191434050972887 0.002231697524312073 0.01595730766758221
 0.002288468553358 0.01594885077982448 -0.0019421175667885405 -0.010191434050972887 0.007583324982500896 0.034435111420687205 0.9905550874210822 -0.08163350528586623
 -0.0019431659100917612 -0.010191354902947867 0.002231697524312073 0.01595730766758221 0.9905550874210822 -0.08163350528586623 0.007592298530399304 0.034434360381814855
0.1062942892872 0.007616261178669838 0.034571215956066235 0.9905111325062796 -0.0819366067230686 0.0023030586310238744 0.016006568408082046 -0.001955419842768424 -0.010228348190220116
 0.9905111325062796 -0.0819366067230686 0.00762591530720267 0.03457045412492345 -0.0019543640524601006 -0.010228428356419596 0.0022458729479928395 0.016015101298537775
 0.0023030586310238744 0.016006568408082046 -0.0019543640524601006 -0.010228428356419596 0.00761650116184373 0.03456982048434327 0.9905110575117658 -0.08193803172634219
 -0.001955419842768424 -0.010228348190220116 0.0022458729479928395 0.016015101298537775 0.9905110575117658 -0.08193803172634219 0.007625540151077522 0.03456906423100492
0.11254689453939999 0.008168303079229574 0.036765977733563285 0.989778792109724 -0.08688668769333355 0.002546785683986104 0.016942514247583515 -0.0021601416207616482 -0.010828101869742042
 0.989778792109724 -0.08688668769333355 0.008179126348710057 0.03676512719435319 -0.0021589614545669757 -0.010828199617678549 0.0024826576916965833 0.01695234639894782
 0.002546785683986104 0.016942514247583515 -0.0021589614545669757 -0.010828199617678549 0.008168572279333318 0.036764503071473616 0.9897787080641607 -0.08688819753306627
 -0.0021601416207616482 -0.010828101869742042 0.0024826576916965833 0.01695234639894782 0.9897787080641607 -0.08688819753306627 0.008178707077854471 0.036763658977314886
0.11879949979160001 0.008746122680357701 0.03897563245478982 0.9890129552322408 -0.09184979516050756 0.002803558192015285 0.01787654014615104 -0.0023758674606969257 -0.011426334689915574
 0.9890129552322408 -0.09184979516050756 0.008758182451568739 0.038974686807147246 -0.002374556376581539 -0.011426452073617718 0.0027320894457964883 0.017887799531350532
 0.002803558192015285 0.01787654014615104 -0.002374556376581539 -0.011426452073617718 0.008746422794042728 0.03897407901461086 0.9890128615691486 -0.09185139003901249
 -0.0023758674606969257 -0.011426334689915574 0.0027320894457964883 0.017887799531350532 0.9890128615691486 -0.09185139003901249 0.008757716738611008 0.03897314088700603
0.1250521050438 0.009350083520909424 0.04119974702668058 0.9882132638311371 -0.09682557255800046 0.0030734441983599568 0.01880841650528162 -0.0026026681328128573 -0.012022825634636422
 0.9882132638311371 -0.09682557255800046 0.009363447326565832 0.04119869959639964 -0.00260121965123774 -0.012022964806033818 0.0029942365515197465 0.018821237595395106
 0.0030734441983599568 0.01880841650528162 -0.00260121965123774 -0.012022964806033818 0.00935041625349915 0.041198115236010094 0.9882131599729328 -0.09682725268878754
 -0.0026026681328128573 -0.012022825634636422 0.0029942365515197465 0.018821237595395106 0.9882131599729328 -0.09682725268878754 0.009362932865371385 0.04119707663422329
0.131304710296 0.009980543912062339 0.04343788377935075 0.9873793644393865 -0.1018136510736381 0.003356506956272155 0.019737909857757068 -0.0028406096171452954 -0.012617350284167357
 0.9873793644393865 -0.1018136510736381 0.009995279473195406 0.043436727608547485 -0.0028390173219652983 -0.01261751349285217 0.0032691626650757657 0.019752433671363284
 0.003356506956272155 0.019737909857757068 -0.0028390173219652983 -0.01261751349285217 0.009980910978591587 0.04343617407688169 0.9873792497964232 -0.10181541668508257
 -0.0028406096171452954 -0.012617350284167357 0.0032691626650757657 0.019752433671363284 0.9873792497964232 -0.10181541668508257 0.009994713978893661 0.04343502830278148
0.1375573155481 0.010501965950019971 0.045399481315713794 0.9866468679013941 -0.10652335698869551 0.0036198694016218616 0.0206372129545266 -0.0030569229637263905 -0.013182057937243903
 0.9866468679013941 -0.10652335698869551 0.010518147164646666 0.04539823206962873 -0.003055177588121152 -0.013182245637913889 0.003524187657825798 0.020653431685151127
 0.0036198694016218616 0.0206372129545266 -0.003055177588121152 -0.013182245637913889 0.01050237023242874 0.04539769327299555 0.9866467419744889 -0.1065252081887774
 -0.0030569229637263905 -0.013182057937243903 0.003524187657825798 0.020653431685151127 0.9866467419744889 -0.1065252081887774 0.010517527022436093 0.045396457796650413
0.1438099208003 0.011041987587421864 0.04734911541917829 0.9858880870132625 -0.11121944557390274 0.003893812889300268 0.021531760582189412 -0.00328180631344219 -0.013742440918819161
 0.9858880870132625 -0.11121944557390274 0.011059683380504507 0.04734776729843862 -0.0032799010190130923 -0.01374265534022433 0.00378943200388587 0.021549804533506
 0.003893812889300268 0.021531760582189412 -0.0032799010190130923 -0.01374265534022433 0.011042431026149506 0.04734724940192455 0.9858879492149778 -0.11122138257762494
 -0.00328180631344219 -0.013742440918819161 0.00378943200388587 0.021549804533506 0.9858879492149778 -0.11122138257762494 0.011059006093582038 0.04734591887150639
0.1500625260525 0.011600392336086743 0.04928657427324966 0.9851032432279514 -0.11590174979075668 0.004178225643861679 0.022421425857976643 -0.003515151910307517 -0.014298382357192944
 0.9851032432279514 -0.11590174979075668 0.011619671846712348 0.04928512111891968 -0.0035130798853043547 -0.014298625816782377 0.004064786568471455 0.022441430098667746
 0.004178225643861679 0.022421425857976643 -0.0035130798853043547 -0.014298625816782377 0.011600876895038486 0.04928463065384905 0.9851030929607758 -0.11590377282249398
 -0.003515151910307517 -0.014298382357192944 0.004064786568471455 0.022441430098667746 0.9851030929607758 -0.11590377282249398 0.0116189349223255 0.04928319938474324
0.15631513130469998 0.012176961858606034 0.051211652384095224 0.9842925594667452 -0.12057010434523976 0.004472994380297542 0.023306084454190894 -0.003756850508487774 -0.01484976818189374
 0.9842925594667452 -0.12057010434523976 0.012197894444721179 0.05121008766747319 -0.0037546049682674575 -0.014850043085250791 0.00435014075396515 0.023328188760782704
