! Created with skrf 1.8.0 (http://scikit-rf.org).
# GHz S RI R 50.0 
!freq ReS11 ImS11 ReS12 ImS12 ReS13 ImS13
! ReS14 ImS14
! ReS21 ImS21 ReS22 ImS22 ReS23 ImS23
! ReS24 ImS24
! ReS31 ImS31 ReS32 ImS32 ReS33 ImS33
! ReS34 ImS34
! ReS41 ImS41 ReS42 ImS42 ReS43 ImS43
! ReS44 ImS44
!
0.0 0.001488308014478 0.0 0.998511691977 0.0 5.782592239956e-05 0.0 -5.782592195547e-05 7.0816330230511e-21
 0.998511691977 0.0 0.001488308014453 0.0 -5.782592195473e-05 7.081633022960476e-21 5.782592239884e-05 0.0
 5.782592239956e-05 0.0 -5.782592195473e-05 7.081633022960476e-21 0.001488308004509 0.0 0.9985116919671 0.0
 -5.782592195547e-05 7.0816330230511e-21 5.782592239884e-05 0.0 0.9985116919671 0.0 0.001488308004524 0.0
0.005 0.0016012462087635676 0.001208177384059117 0.9983687887342615 -0.0031183014505807723 8.245717982846406e-05 0.0006945351565004415 -7.967316155351309e-05 -0.0004259664969753782
 0.9983687887342615 -0.0031183014505807723 0.0016012710259365633 0.0012081629329227122 -7.967527138965e-05 -0.0004259681513399307 8.229200895818501e-05 0.0006945979438106355
 8.245717982846406e-05 0.0006945351565004415 -7.967527138965e-05 -0.0004259681513399307 0.0016012446168494738 0.001208111086876219 0.9983687883725071 -0.0031183685094264696
 -7.967316155351309e-05 -0.0004259664969753782 8.229200895818501e-05 0.0006945979438106355 0.9983687883725071 -0.0031183685094264696 0.00160127190143547 0.0012080951191425742
0.006252605252188 0.0016308210513046898 0.0015150247034879955 0.998331129103074 -0.003898650450140536 8.949509329581749e-05 0.0008684800371715716 -8.582973362070407e-05 -0.0005330246960709558
 0.998331129103074 -0.003898650450140536 0.0016308598449633394 0.0015150063603243417 -8.583301644315294e-05 -0.0005330267367603711 8.92370271794717e-05 0.0008685615658905922
 8.949509329581749e-05 0.0008684800371715716 -8.583301644315294e-05 -0.0005330267367603711 0.0016308186486138415 0.0015149418449396158 0.9983311286236445 -0.003898734268517761
 -8.582973362070407e-05 -0.0005330246960709558 8.92370271794717e-05 0.0008685615658905922 0.9983311286236445 -0.003898734268517761 0.0016308613001358746 0.0015149215970449803
0.01250521050438 0.001786245552846337 0.003062201435131559 0.9981318922973998 -0.007798200000827803 0.00012985872712244383 0.0017371488600811944 -0.00012069864251015592 -0.0010687170685356033
 0.9981318922973998 -0.007798200000827803 0.0017864004557366397 0.003062161971268369 -0.00012071157692070625 -0.001068720852287204 0.00012882956499560101 0.001737344677007318
 0.00012985872712244383 0.0017371488600811944 -0.00012071157692070625 -0.001068720852287204 0.0017862365140599134 0.003062036051368278 0.9981318909413223 -0.007798367413635324
 -0.00012069864251015592 -0.0010687170685356033 0.00012882956499560101 0.001737344677007318 0.9981318909413223 -0.007798367413635324 0.0017864068334144591 0.0030619926676411727
0.01875781575657 0.001954913347298184 0.004631723794394351 0.9979137396343374 -0.011708158353688339 0.00017900670517139133 0.00260665579814875 -0.0001625398101122486 -0.0016062326390343584
 0.9979137396343374 -0.011708158353688339 0.0019552614202661355 0.004631660314921198 -0.00016256865053076135 -0.001606237814079903 0.00017669467524845077 0.0026070048802665077
 0.00017900670517139133 0.00260665579814875 -0.00016256865053076135 -0.001606237814079903 0.0019548934506427866 0.004631476154763606 0.997913737005318 -0.011708409287029344
 -0.0001625398101122486 -0.0016062326390343584 0.00017669467524845077 0.0026070048802665077 0.997913737005318 -0.011708409287029344 0.00195527618847479 0.004631406566439353
0.02501042100875 0.002137146834843729 0.006221382390772359 0.9976764199179669 -0.015630428444646176 0.00023703110240276743 0.0034770554096657906 -0.0002114567451815752 -0.002145316156464955
 0.9976764199179669 -0.015630428444646176 0.0021377649858218576 0.006221291911477548 -0.00021150767033191716 -0.002145322310479411 0.00023292415494534027 0.0034776027322149464
 0.00023703110240276743 0.0034770554096657906 -0.00021150767033191716 -0.002145322310479411 0.002137111863138537 0.006221052794250332 0.9976764156169895 -0.01563076287962477
 -0.0002114567451815752 -0.002145316156464955 0.00023292415494534027 0.0034776027322149464 0.9976764156169895 -0.01563076287962477 0.002137791616056669 0.006220953783056236
0.03126302626094 0.002333254987677902 0.007830043261827036 0.9974196688718538 -0.01956582800587431 0.0003040248763587315 0.004348315398115728 -0.0002675499481365158 -0.0026857935658268204
 0.9974196688718538 -0.01956582800587431 0.002334220016342759 0.007829922715718543 -0.0002676290740542259 -0.0026858002251692733 0.00029761020601684255 0.004349111970177632
 0.0003040248763587315 0.004348315398115728 -0.0002676290740542259 -0.0026858002251692733 0.0023332007300833975 0.007829632052200827 0.9974196624995681 -0.01956624596384749
 -0.0002675499481365158 -0.0026857935658268204 0.00029761020601684255 0.004349111970177632 0.9974196624995681 -0.01956624596384749 0.002334261988282265 0.007829500256497791
0.037515631513130004 0.002543540090006989 0.009456969331705258 0.9971432160768814 -0.02351476805017919 0.0003800807700626677 0.005220369397698199 -0.0003309177323550492 -0.003227519211204874
 0.9971432160768814 -0.02351476805017919 0.002544928718408484 0.00945681557276613 -0.0003310311190454526 -0.0032275258406617596 0.00037084459943205694 0.005221472323982563
 0.0003800807700626677 0.005220369397698199 -0.0003310311190454526 -0.0032275258406617596 0.0025434623389455823 0.009456476918661557 0.9971432072298223 -0.02351526957220738
 -0.0003309177323550492 -0.003227519211204874 0.00037084459943205694 0.005221472323982563 0.9971432072298223 -0.02351526957220738 0.002544989518350899 0.0094563088366718
0.043768236765320004 0.0027683003387124483 0.011101613936088505 0.9968467877741153 -0.02747745928002059 0.00046529081135278496 0.006093133023550764 -0.0004016565205587205 -0.0037703597814576872
 0.9968467877741153 -0.02747745928002059 0.0027701892363770327 0.011101423741935026 -0.00040181017597723284 -0.0037703657841888904 0.00045271828622266857 0.006094605574343442
 0.00046529081135278496 0.006093133023550764 -0.00040181017597723284 -0.0037703657841888904 0.0027681948901303764 0.011101040790703393 0.9968467760441627 -0.02747804443208324
 -0.0004016565205587205 -0.0037703597814576872 0.00045271828622266857 0.006094605574343442 0.9968467760441627 -0.02747804443208324 0.002770272358194498 0.011100832782208813
0.050020842017509996 0.0030078310551642532 0.012763535484844728 0.9965301082831257 -0.03145399735685238 0.0005597460185517684 0.006966510502564295 -0.0004798609586370865 -0.0043141876791271535
 0.9965301082831257 -0.03145399735685238 0.0030102968612377855 0.012763305558642581 -0.00048006084126600904 -0.004314192396647695 0.0005433211623611436 0.006968422186987399
 0.0005597460185517684 0.006966510502564295 -0.00048006084126600904 -0.004314192396647695 0.0030076937115548564 0.012762882142585936 0.9965300932590206 -0.03145466622747662
 -0.0004798609586370865 -0.0043141876791271535 0.0005433211623611436 0.006968422186987399 0.9965300932590206 -0.03145466622747662 0.0030104058097341767 0.012762630429994107
0.055454545454549996 0.0032282135949414383 0.014221531649347 0.9962382428328853 -0.03492099357654933 0.0006494084417566819 0.007725919988998346 -0.0005539582012468089 -0.004787495219302069
 0.9962382428328853 -0.03492099357654933 0.003231242984257469 0.01422126446049549 -0.0005542030586859647 -0.0047874982373024 0.0006292158775810935 0.007728274645406203
 0.0006494084417566819 0.007725919988998346 -0.0005542030586859647 -0.0047874982373024 0.003228045128306417 0.01422080910189463 0.9962382246071881 -0.034921735287694974
 -0.0005539582012468089 -0.004787495219302069 0.0006292158775810935 0.007728274645406203 0.9962382246071881 -0.034921735287694974 0.0032313772298367006 0.014220516234749393
0.056273447269699996 0.003262425308345132 0.014442355572686515 0.9961929008353043 -0.03544440472344326 0.0006635361975455585 0.0078403979284261 -0.0005656239476809551 -0.00485887776864268
 0.9961929008353043 -0.03544440472344326 0.003265544652278713 0.014442082544409497 -0.0005658759683234984 -0.0048588804808410374 0.000642741901466109 0.007842824569220518
 0.0006635361975455585 0.0078403979284261 -0.0005658759683234984 -0.0048588804808410374 0.0032622518769768135 0.014441622636299153 0.9961928820997116 -0.035445157421608614
 -0.0005656239476809551 -0.00485887776864268 0.000642741901466109 0.007842824569220518 0.9961928820997116 -0.035445157421608614 0.0032656829409945347 0.01444132330489072
0.06252605252188 0.0035323742497997824 0.016137735963326804 0.9958348881232056 -0.039448653555314024 0.0007767497838466331 0.008714685049175597 -0.0006590366350524773 -0.0054043055957484825
 0.9958348881232056 -0.039448653555314024 0.0035362237711963796 0.016137416390438683 -0.0006593466579902023 -0.005404305520915066 0.0007510678205777811 0.008717708858091007
 0.0007767497838466331 0.008714685049175597 -0.0006593466579902023 -0.005404305520915066 0.0035321605446720496 0.016136924103587143 0.995834865253149 -0.03944949021027998
 -0.0006590366350524773 -0.0054043055957484825 0.0007510678205777811 0.008717708858091007 0.995834865253149 -0.03944949021027998 0.0035363949247919123 0.016136573101234213
0.06877865777407 0.0038179672918849444 0.017849364848109443 0.995455792696412 -0.04346667944056706 0.0008994737110606327 0.00958925633707735 -0.0007601883806994495 -0.0059503463285744485
 0.995455792696412 -0.04346667944056706 0.0038226236596678766 0.017848995215717218 -0.0007605622245287737 -0.005950342623427935 0.0008683847652350288 0.009592965990389016
 0.0008994737110606327 0.00958925633707735 -0.0007605622245287737 -0.005950342623427935 0.003817709134377559 0.017848474804902648 0.9954557652627237 -0.04346760020149447
 -0.0007601883806994495 -0.0059503463285744485 0.0008683847652350288 0.009592965990389016 0.9954557652627237 -0.04346760020149447 0.003822831214291299 0.017848067941280417
0.07503126302626001 0.004119492192001588 0.019576948153293194 0.9950553372674242 -0.047498390015231824 0.0010317932932200995 0.010463991670447044 -0.000869166710018028 -0.006496874090891312
 0.9950553372674242 -0.047498390015231824 0.0041250321236302534 0.019576524873712423 -0.0008696101483192657 -0.006496865850637989 0.000994777004003969 0.010468482384256659
 0.0010317932932200995 0.010463991670447044 -0.0008696101483192657 -0.006496865850637989 0.0041191854114849494 0.019575980737002143 0.9950553048334208 -0.04749939505039275
 -0.000869166710018028 -0.006496874090891312 0.000994777004003969 0.010468482384256659 0.9950553048334208 -0.04749939505039275 0.004125279626675099 0.019575513682107033
0.08128386827845 0.004437235079111374 0.02132020374997199 0.9946332449630746 -0.05154367069993909 0.0011737921171061916 0.011338766788792698 -0.0009860572562536193 -0.007043761526388724
 0.9946332449630746 -0.05154367069993909 0.004443735359756503 0.02131972316169932 -0.0009865760179366592 -0.007043747784756678 0.0011303271309749275 0.011344140393877033
 0.0011737921171061916 0.011338766788792698 -0.0009865760179366592 -0.007043747784756678 0.004436875514477118 0.02131915983912682 0.9946332070843575 -0.05154476019964989
 -0.0009860572562536193 -0.007043761526388724 0.0011303271309749275 0.011344140393877033 0.9946332070843575 -0.05154476019964989 0.004444026371198651 0.021318628121320946
0.08753647353064001 0.004771480442033955 0.0230788574445988 0.9941892395409105 -0.05560238866060619 0.001325551940154918 0.012213453613993779 -0.0011109436971782902 -0.007590879501395625
 0.9941892395409105 -0.05560238866060619 0.004779017943083783 0.023078315810793802 -0.0011115434666900952 -0.007590859230707131 0.0012751159709811274 0.012219818630073914
 0.001325551940154918 0.012213453613993779 -0.0011115434666900952 -0.007590859230707131 0.004771063942381232 0.023077737992050193 0.9941891957644768 -0.05560356283166028
 -0.0011109436971782902 -0.007590879501395625 0.0012751159709811274 0.012219818630073914 0.9941891957644768 -0.05560356283166028 0.0047793560360888405 0.023077136995474135
0.09378907878283 0.005122511089978756 0.024852640125736552 0.9937230455812545 -0.059674395617668956 0.001487152592814829 0.013087920485284288 -0.0012439076861004011 -0.008138096898363669
 0.9937230455812545 -0.059674395617668956 0.005131162788455494 0.024852033632008438 -0.0012445941036265313 -0.008138069009583738 0.0014292224888241823 0.013095392194553758
 0.001487152592814829 0.013087920485284288 -0.0012445941036265313 -0.008138069009583738 0.005122033515438375 0.024851446153973195 0.9937229954445812 -0.059675654688438835
 -0.0012439076861004011 -0.008138096898363669 0.0014292224888241823 0.013095392194553758 0.9937229954445812 -0.059675654688438835 0.005131551549091063 0.024850771115394393
0.100041684035 0.005490608093863371 0.02664128566583689 0.9932343886632492 -0.06375952990525723 0.0016586718830916849 0.013962032336266089 -0.0013850287802054878 -0.00868528047214962
 0.9932343886632492 -0.06375952990525723 0.0055004510917451965 0.026640610417390038 -0.0013858074416734558 -0.00868524381496343 0.0015927236994142172 0.01397073285605017
 0.0016586718830916849 0.013962032336266089 -0.0013858074416734558 -0.00868524381496343 0.005490065317418491 0.02664001827135358 0.9932343316940379 -0.06376087412192695
 -0.0013850287802054878 -0.00868528047214962 0.0015927236994142172 0.01397073285605017 0.9932343316940379 -0.06376087412192695 0.005500894120373556 0.026639264276311712
0.1059090909091 0.005851798541746972 0.028333021582913846 0.9927551627314863 -0.06760477990039407 0.0018287128908382791 0.014781847528030669 -0.0015249437207396008 -0.00919860280907747
 0.9927551627314863 -0.06760477990039407 0.0058628296989510584 0.028332278198637217 -0.0015258139933287593 -0.009198556822950704 0.001754763429100349 0.014791818372155765
 0.0018287128908382791 0.014781847528030669 -0.0015258139933287593 -0.009198556822950704 0.0058511908385760975 0.02833168635142461 0.9927550989116033 -0.06760620425825098
 -0.0015249437207396008 -0.00919860280907747 0.001754763429100349 0.014791818372155765 0.9927550989116033 -0.06760620425825098 0.005863326939570303 0.028330853655967846
0.1062942892872 0.005876050714885485 0.028444529348713783 0.9927229955305328 -0.06785761800996763 0.001840185503514667 0.014835650834458381 -0.0015343843657772693 -0.009232294748575042
 0.9927229955305328 -0.06785761800996763 0.005887162257863029 0.028443781367019583 -0.001535260822804635 -0.009232248111463585 0.0017656945793634016 0.014845709188889769
 0.001840185503514667 0.014835650834458381 -0.001535260822804635 -0.009232248111463585 0.00587543862277705 0.028443189702267294 0.9927229312457658 -0.06785904763659577
 -0.0015343843657772693 -0.009232294748575042 0.0017656945793634016 0.014845709188889769 0.9927229312457658 -0.06785904763659577 0.0058876631691690716 0.02844235168073351
0.11254689453939999 0.006279116319890654 0.03026210667071942 0.9921885942482049 -0.07196847574127502 0.0020317669390928837 0.0157086344954998 -0.0016920495813803863 -0.009779001953305715
 0.9921885942482049 -0.07196847574127502 0.0062915738173590155 0.030261281889309117 -0.0016930293412135919 -0.009778944063625358 0.0019482079796675185 0.01572018668615646
 0.0020317669390928837 0.0157086344954998 -0.0016930293412135919 -0.009778944063625358 0.006278430813328735 0.03026069601277196 0.9921885221533366 -0.07196999106484518
 -0.0016920495813803863 -0.009779001953305715 0.0019482079796675185 0.01572018668615646 0.9921885221533366 -0.07196999106484518 0.006292136240975086 0.030259768734015525
0.11879949979160001 0.006700080290495181 0.032093752398541495 0.9916309143540699 -0.07609190915091733 0.0022334873764289524 0.016580838778713816 -0.001858097239664025 -0.010325261964446003
 0.9916309143540699 -0.07609190915091733 0.006713961334803804 0.03209284665828613 -0.0018591857650071114 -0.010325191488525665 0.0021403345384978026 0.01659402785414111
 0.0022334873764289524 0.016580838778713816 -0.0018591857650071114 -0.010325191488525665 0.006699317286687686 0.03209227204649118 0.9916308339422248 -0.07609351047439744
 -0.001858097239664025 -0.010325261964446003 0.0021403345384978026 0.01659402785414111 0.9916308339422248 -0.07609351047439744 0.006714588915882743 0.03209125011332015
0.1250521050438 0.0071392159242272095 0.03393919983945845 0.991049687006068 -0.08022771524562122 0.002445415613621238 0.017452116169989422 -0.0020325977475530565 -0.010870932283078241
 0.991049687006068 -0.08022771524562122 0.007154598310553953 0.03393820888309632 -0.0020338004563223507 -0.010870847826300593 0.0023421425949757707 0.017467092293968225
 0.002445415613621238 0.017452116169989422 -0.0020338004563223507 -0.010870847826300593 0.007138371357493838 0.03393765118487013 0.9910495977576721 -0.08022940289105118
 -0.0020325977475530565 -0.010870932283078241 0.0023421425949757707 0.017467092293968225 0.9910495977576721 -0.08022940289105118 0.0071552947101468705 0.03393652902723593
0.131304710296 0.007596794330184274 0.0357981802502846 0.99044464512673 -0.08437568256692667 0.0026676179706678895 0.018322316256463616 -0.002215619025695751 -0.01141586801718163
 0.99044464512673 -0.08437568256692667 0.0076137560764668235 0.035797099716193694 -0.002216941290873128 -0.011415768124132973 0.0025536981027697173 0.01833923677491808
 0.0026676179706678895 0.018322316256463616 -0.002216941290873128 -0.011415768124132973 0.0075958641534618595 0.035796564759531545 0.9904445465082612 -0.08437745687506483
 -0.002215619025695751 -0.01141586801718163 0.0025536981027697173 0.01833923677491808 0.9904445465082612 -0.08437745687506483 0.007614524971966537 0.03579533662733542
0.1375573155481 0.007967104957996868 0.037425531495520144 0.989921539273176 -0.08829060657432031 0.0028724748002944365 0.019166057030684473 -0.0023796795475363886 -0.011934614693990035
 0.989921539273176 -0.08829060657432031 0.007985730816994692 0.03742438312800053 -0.0023811294085008144 -0.011934499297226293 0.0027476480941437003 0.019184894517627647
 0.0028724748002944365 0.019166057030684473 -0.0023811294085008144 -0.011934499297226293 0.007966085736917865 0.03742385038846887 0.9899214308512639 -0.08829246774865082
 -0.0023796795475363886 -0.011934614693990035 0.0027476480941437003 0.019184894517627647 0.9899214308512639 -0.08829246774865082 0.007986575097610403 0.03742253691957286
0.1438099208003 0.008350379865875838 0.039044378632116225 0.9893801126632146 -0.09219572409487793 0.003085644227709634 0.02000651250165558 -0.002550327531423458 -0.012450421988611265
 0.9893801126632146 -0.09219572409487793 0.008370749196033886 0.039043159644315664 -0.002551910776675842 -0.012450289659617138 0.002949431697789896 0.020027410498718676
 0.003085644227709634 0.02000651250165558 -0.002551910776675842 -0.012450289659617138 0.008349267690016567 0.03904263341295454 0.9893799939053421 -0.09219767246960586
 -0.002550327531423458 -0.012450421988611265 0.002949431697789896 0.020027410498718676 0.9893799939053421 -0.09219767246960586 0.008371672420779202 0.03904123042623657
0.1500625260525 0.008746485216550144 0.04065458960468985 0.9888205030433799 -0.09609094196123384 0.003307055688972554 0.0208436000268358 -0.0027274955987123244 -0.012963213525488031
 0.9888205030433799 -0.09609094196123384 0.00876867762932412 0.04065329698909382 -0.0027292180057543816 -0.012963062778353858 0.0031589810895546497 0.020866707304204552
 0.003307055688972554 0.0208436000268358 -0.0027292180057543816 -0.012963062778353858 0.008745276200243846 0.04065278183768493 0.9888203734051593 -0.09609297788266434
 -0.0027274955987123244 -0.012963213525488031 0.0031589810895546497 0.020866707304204552 0.9888203734051593 -0.09609297788266434 0.008769683364045999 0.04065128487601215
0.15631513130469998 0.009155286230159248 0.04225603637948605 0.9882428488506956 -0.09997616725525352 0.003536637799060509 0.021677238302749754 -0.0029111155507972166 -0.013472914528600841
