! Created with skrf 1.8.0 (http://scikit-rf.org).
# GHz S RI R 50.0 
!freq ReS11 ImS11 ReS12 ImS12 ReS13 ImS13
! ReS14 ImS14
! ReS21 ImS21 ReS22 ImS22 ReS23 ImS23
! ReS24 ImS24
! ReS31 ImS31 ReS32 ImS32 ReS33 ImS33
! ReS34 ImS34
! ReS41 ImS41 ReS42 ImS42 ReS43 ImS43
! ReS44 ImS44
!
0.0 0.001366762145933 0.0 0.9986332378313 0.0 5.250106618248e-05 0.0 -5.250106622727e-05 6.429526270704941e-21
 0.9986332378313 0.0 0.001366762145935 0.0 -5.250106622696e-05 6.4295262706669775e-21 5.250106618291e-05 0.0
 5.250106618248e-05 0.0 -5.250106622696e-05 6.4295262706669775e-21 0.001366762154462 0.0 0.9986332378399 0.0
 -5.250106622727e-05 6.429526270704941e-21 5.250106618291e-05 0.0 0.9986332378399 0.0 0.001366762154479 0.0
0.005 0.0014700787217495727 0.001117033240780165 0.9985025969851039 -0.0028636075130502913 7.35263774576062e-05 0.0005873641750989941 -7.138295049215974e-05 -0.0003672115141570869
 0.9985025969851039 -0.0028636075130502913 0.0014700890677443674 0.0011170272309872884 -7.138304030194526e-05 -0.00036721163986577125 7.345429458609471e-05 0.0005873914766371543
 7.35263774576062e-05 0.0005873641750989941 -7.138304030194526e-05 -0.00036721163986577125 0.0014700780425215161 0.0011169664125928007 0.9985025966358545 -0.0028636745817389926
 -7.138295049215974e-05 -0.0003672115141570869 7.345429458609471e-05 0.0005873914766371543 0.9985025966358545 -0.0028636745817389926 0.0014700890537456958 0.0011169599264557112
0.006252605252188 0.0014970398118772982 0.0014007113051081566 0.9984683106021377 -0.0035802315271631266 7.946167214365445e-05 0.0007344939658722623 -7.665182697823594e-05 -0.0004594991293404463
 0.9984683106021377 -0.0035802315271631266 0.0014970559844640333 0.001400703703043181 -7.665196627424568e-05 -0.00045949928554419483 7.93490467661614e-05 0.0007345294184820455
 7.946167214365445e-05 0.0007344939658722623 -7.665196627424568e-05 -0.00045949928554419483 0.0014970388418667528 0.001400627786897025 0.9984683101483542 -0.0035803153537009645
 -7.665182697823594e-05 -0.0004594991293404463 7.93490467661614e-05 0.0007345294184820455 0.9984683101483542 -0.0035803153537009645 0.0014970560552039697 0.0014006195785634338
0.01250521050438 0.0016381789458969661 0.002831018023090752 0.9982877325103254 -0.007161404861261094 0.00011312103138754323 0.001469366418014627 -0.0001062130013026217 -0.0009213208492478372
 0.9982877325103254 -0.007161404861261094 0.0016382435205020078 0.002831001925655177 -0.00010621354478204868 -0.0009213211522004965 0.00011267183784715284 0.0014694515042689709
 0.00011312103138754323 0.001469366418014627 -0.00010621354478204868 -0.0009213211522004965 0.0016381755935064427 0.0028308513348750974 0.9982877312240277 -0.007161572262121452
 -0.0001062130013026217 -0.0009213208492478372 0.00011267183784715284 0.0014694515042689709 0.9982877312240277 -0.007161572262121452 0.0016382443372918245 0.0028308339089258014
0.01875781575657 0.0017904601575591164 0.004281946115318763 0.9980912988629759 -0.01075226624813828 0.00015355224532665965 0.0022051362750248205 -0.0001412697984878645 -0.0013848057452440885
 0.9980912988629759 -0.01075226624813828 0.0017906052517411531 0.004281920580776875 -0.00014127100286808432 -0.001384806185659081 0.00015254301649901534 0.0022052876811193877
 0.00015355224532665965 0.0022051362750248205 -0.00014127100286808432 -0.001384806185659081 0.001790453037761251 0.004281696469000946 0.9980912963938623 -0.010752517156761471
 -0.0001412697984878645 -0.0013848057452440885 0.00015254301649901534 0.0022052876811193877 0.9980912963938623 -0.010752517156761471 0.0017906075270206594 0.0042816687453589835
0.02501042100875 0.0019541572285548575 0.005751491196295619 0.9978787976942526 -0.014354584781376509 0.00020082973339594274 0.0029418540656963596 -0.00018190509251204815 -0.0018497587089645203
 0.9978787976942526 -0.014354584781376509 0.001954414891189697 0.005751455248163537 -0.00018190720895363695 -0.0018497592773203115 0.0001990368115192152 0.002942090890127352
 0.00020082973339594274 0.0029418540656963596 -0.00018190720895363695 -0.0018497592773203115 0.001954144941733776 0.005751158816727303 0.9978787936786995 -0.014354919167630317
 -0.00018190509251204815 -0.0018497587089645203 0.0001990368115192152 0.002942090890127352 0.9978787936786995 -0.014354919167630317 0.001954419334420918 0.005751119658498656
0.03126302626094 0.002129532470041618 0.0072386361306270505 0.9976500052651339 -0.01796913477773997 0.00025502863964550125 0.00367950208141607 -0.0002281996868755358 -0.0023160487350634583
 0.9976500052651339 -0.01796913477773997 0.0021299346997410104 0.007238588760967151 -0.00022820296197581253 -0.002316049421600967 0.0002522279672997183 0.003679845849530871
 0.00025502863964550125 0.00367950208141607 -0.00022820296197581253 -0.002316049421600967 0.0021295136184144876 0.007238221264406081 0.9976499993419062 -0.017969552639448355
 -0.0002281996868755358 -0.0023160487350634583 0.0002522279672997183 0.003679845849530871 0.9976499993419062 -0.017969552639448355 0.0021299420336730866 0.0072381694809102205
0.037515631513130004 0.0023168426832660028 0.008742728607120326 0.9974046921638603 -0.021596318148896943 0.00031622407374041627 0.004418035937170109 -0.00028023291797940516 -0.0027835673481035827
 0.9974046921638603 -0.021596318148896943 0.002317421440335469 0.008742668778481974 -0.00028023759428407455 -0.0027835681428402897 0.0003121910976119905 0.004418510626583579
 0.00031622407374041627 0.004418035937170109 -0.00028023759428407455 -0.0027835681428402897 0.0023168158640720733 0.008742231534974209 0.9974046839663495 -0.021596819499832266
 -0.00028023291797940516 -0.0027835673481035827 0.0003121910976119905 0.004418510626583579 0.9974046839663495 -0.021596819499832266 0.0023174323942318203 0.00874216588342707
0.043768236765320004 0.002516341452607399 0.010263291722874287 0.9971426257420861 -0.02523635375577519 0.0003844907591583611 0.005157397221762212 -0.00033808288226766216 -0.003252215942352333
 0.9971426257420861 -0.02523635375577519 0.0025171286689885186 0.010263218369697995 -0.00033808919863889697 -0.003252216835124014 0.00037900038213477353 0.005158029291135955
 0.0003844907591583611 0.005157397221762212 -0.00033808919863889697 -0.003252216835124014 0.0025163052651988897 0.01026271275191133 0.9971426149042989 -0.02523693863379507
 -0.00033808288226766216 -0.003252215942352333 0.00037900038213477353 0.005158029291135955 0.9971426149042989 -0.02523693863379507 0.002517143985386181 0.01026263193846957
0.050020842017509996 0.002728280231386932 0.01179994569470203 0.9968635713450679 -0.028889355633440562 0.0004599028309222334 0.005897518709551436 -0.000401826523937774 -0.0037219005615868974
 0.9968635713450679 -0.028889355633440562 0.0027293078190540184 0.01179985772446448 -0.00040183471581930433 -0.003721901542087014 0.00045272938948690477 0.005898337128779734
 0.0004599028309222334 0.005897518709551436 -0.00040183471581930433 -0.003721901542087014 0.0027282332730708273 0.01179928516710213 0.996863557496461 -0.028890024092154302
 -0.000401826523937774 -0.0037219005615868974 0.00045272938948690477 0.005898337128779734 0.996863557496461 -0.028890024092154302 0.0027293282491874346 0.01179918784765488
0.055454545454549996 0.0029227583643537786 0.013148161886159295 0.9966070850742845 -0.03207449333538835 0.0005312981650039372 0.006541267147219908 -0.00046206698138021273 -0.004130840729656187
 0.9966070850742845 -0.03207449333538835 0.0029240207484534787 0.013148060305738498 -0.00046207699182865443 -0.004130841777948757 0.0005224783777256063 0.00654227301074313
 0.0005312981650039372 0.006541267147219908 -0.00046207699182865443 -0.004130841777948757 0.002922700907074712 0.013147430788826289 0.9966070683062774 -0.03207523448402883
 -0.00046206698138021273 -0.004130840729656187 0.0005224783777256063 0.00654227301074313 0.9966070683062774 -0.03207523448402883 0.0029240462413582264 0.013147317994922266
0.056273447269699996 0.002952908899049814 0.013352369440733352 0.9965672930173979 -0.03255537134583871 0.0005425336954498469 0.006638326920172691 -0.0004715396640352048 -0.0041925293327485895
 0.9965672930173979 -0.03255537134583871 0.0029542087574548014 0.013352265734853676 -0.00047154996363315703 -0.004192530390575101 0.0005334509524622237 0.0066393632011936534
 0.0005425336954498469 0.006638326920172691 -0.00047154996363315703 -0.004192530390575101 0.0029528497675670243 0.013351627735418163 0.9965672757846453 -0.03255612345338952
 -0.0004715396640352048 -0.0041925293327485895 0.0005334509524622237 0.0066393632011936534 0.9965672757846453 -0.03255612345338952 0.002954235063609002 0.013351512516083916
0.06252605252188 0.003190476071923908 0.014920279450108355 0.9962535539643051 -0.03623440305369295 0.0006324559218607663 0.007379743523382425 -0.0005472969991661515 -0.004664011056557118
 0.9962535539643051 -0.03623440305369295 0.0031920800956452334 0.014920158864568985 -0.0005473096356560818 -0.0046640121812396235 0.0006212370695950871 0.007381031751273215
 0.0006324559218607663 0.007379743523382425 -0.0005473096356560818 -0.0046640121812396235 0.0031904033659876977 0.014919456982545608 0.9962535329702321 -0.03623523889319527
 -0.0005472969991661515 -0.004664011056557118 0.0006212370695950871 0.007381031751273215 0.9962535329702321 -0.03623523889319527 0.003192113050973021 0.014919322420029598
0.06877865777407 0.003441229274525503 0.0165034171944225 0.9959221168768381 -0.03992642004221736 0.0007297411525328878 0.008121686173158588 -0.0006291720812681282 -0.005136254371146244
 0.9959221168768381 -0.03992642004221736 0.0034431693600207834 0.016503278560311085 -0.0006291872809189897 -0.005136255552196394 0.0007161588226259567 0.008123263037319618
 0.0007297411525328878 0.008121686173158588 -0.0006291872809189897 -0.005136255552196394 0.0034411415939793175 0.016502514416721188 0.9959220917396541 -0.03992733971211807
 -0.0006291720812681282 -0.005136254371146244 0.0007161588226259567 0.008123263037319618 0.9959220917396541 -0.03992733971211807 0.0034432097484971484 0.01650235901842111
0.07503126302626001 0.0037054150318169142 0.01810154113288172 0.9955727441799539 -0.043631366657520564 0.0008344600224050447 0.008864069042486631 -0.0007172372879747199 -0.00560916721749959
 0.9955727441799539 -0.043631366657520564 0.003707723084741095 0.018101383256601475 -0.0007172552743039352 -0.005609168444439982 0.0008182863012131403 0.0088659738677715
 0.0008344600224050447 0.008864069042486631 -0.0007172552743039352 -0.005609168444439982 0.003705310979342252 0.018100558536387982 0.9955727145137979 -0.04363237026928863
 -0.0007172372879747199 -0.00560916721749959 0.0008182863012131403 0.0088659738677715 0.9955727145137979 -0.04363237026928863 0.0037077717022465807 0.018100380760305037
0.08128386827845 0.003983278908865088 0.019714421407814934 0.995205198231695 -0.047349167554993056 0.0009466820859199314 0.009606803171491105 -0.0008115637846916494 -0.006082656494102408
 0.995205198231695 -0.047349167554993056 0.00398598685077668 0.019714243071192107 -0.0008115847785854835 -0.006082657756508231 0.0009276885340094124 0.009609077949214092
 0.0009466820859199314 0.009606803171491105 -0.0008115847785854835 -0.006082657756508231 0.003983157089807935 0.019713359519204235 0.9952051636451176 -0.04735025523723386
 -0.0008115637846916494 -0.006082656494102408 0.0009276885340094124 0.009609077949214092 0.9952051636451176 -0.04735025523723386 0.003986044504445065 0.019713157773765713
0.08753647353064001 0.004275065518745125 0.021341836154949022 0.994819241492441 -0.051079731335539016 0.0010664757473176291 0.010349796717673748 -0.0009122214825470007 -0.006556627812217393
 0.994819241492441 -0.051079731335539016 0.0042782052938875915 0.021341636115170783 -0.0009122457023614492 -0.006556629099744776 0.0010444334221070203 0.010352486136416003
 0.0010664757473176291 0.010349796717673748 -0.0009122457023614492 -0.006556629099744776 0.004274924542172126 0.021340695541355894 0.9948192015885621 -0.05108090322928854
 -0.0009122214825470007 -0.006556627812217393 0.0010444334221070203 0.010352486136416003 0.9948192015885621 -0.05108090322928854 0.004278272802806389 0.02134046818491561
0.09378907878283 0.0045810185060388324 0.022983568886019892 0.9944146366731863 -0.054822953112739034 0.001193908193887967 0.011092955130802419 -0.0010192789922583163 -0.0070309853292827885
 0.9944146366731863 -0.054822953112739034 0.004584622088466285 0.022983345875296077 -0.0010193066539503108 -0.0070309866317046 0.001168587675250899 0.01109610660695884
 0.001193908193887967 0.011092955130802419 -0.0010193066539503108 -0.0070309866317046 0.004580856985808084 0.02298235015345016 0.9944145910490878 -0.05482420937316132
 -0.0010192789922583163 -0.0070309853292827885 0.001168587675250899 0.01109610660695884 0.9944145910490878 -0.05482420937316132 0.004584700284061338 0.02298209549367
0.100041684035 0.004901380514587556 0.024639406557367988 0.9939911468698748 -0.05857871639659327 0.0013290453310241539 0.01183618128666035 -0.0011328035755058404 -0.007505631626405575
 0.9939911468698748 -0.05857871639659327 0.004905479914827968 0.024639159282430774 -0.0011328348927348419 -0.007505632933636482 0.001300216749037896 0.011839844994692136
 0.0013290453310241539 0.01183618128666035 -0.0011328348927348419 -0.007505632933636482 0.004901197069632347 0.024638110350242545 0.9939910951157104 -0.058580057193797705
 -0.0011328035755058404 -0.007505631626405575 0.001300216749037896 0.011839844994692136 0.9939910951157104 -0.058580057193797705 0.0049055696405777265 0.024637826643309716
0.1059090909091 0.0052153263549757035 0.026205874850522923 0.9935763603363778 -0.06211439553411812 0.0014629220589787873 0.012533593128050767 -0.0012452747761959137 -0.007951211237930298
 0.9935763603363778 -0.06211439553411812 0.005219920179646269 0.026205603606613594 -0.0012453097161078304 -0.007951212540660056 0.0014305920930987738 0.012537785627660015
 0.0014629220589787873 0.012533593128050767 -0.0012453097161078304 -0.007951212540660056 0.005215121085646421 0.026204506565378212 0.9935763024512174 -0.062115815824886705
 -0.0012452747761959137 -0.007951211237930298 0.0014305920930987738 0.012537785627660015 0.9935763024512174 -0.062115815824886705 0.0052200215039941615 0.026204193967958284
0.1062942892872 0.005236393142260657 0.026309138115051162 0.9935485356876023 -0.06234689450441209 0.001471951718247081 0.01257937558755832 -0.0012528610942392569 -0.0079804676219831
 0.9935485356876023 -0.06234689450441209 0.005241020414486281 0.026308865256395315 -0.001252896278455474 -0.00798046892411662 0.001439384783139843 0.01258360448994101
 0.001471951718247081 0.01257937558755832 -0.001252896278455474 -0.00798046892411662 0.005236186397951127 0.026307765120758136 0.9935484773869245 -0.06234832001896907
 -0.0012528610942392569 -0.0079804676219831 0.001439384783139843 0.01258360448994101 0.9935484773869245 -0.06234832001896907 0.00524112252691354 0.02630745057026612
0.11254689453939999 0.005586296887486738 0.027992553394161016 0.9930865673591626 -0.06612735162050905 0.001622690506394745 0.013322436044058096 -0.0013795159580641582 -0.008455392507279575
 0.9930865673591626 -0.06612735162050905 0.005591484136334707 0.027992253605171113 -0.0013795552186223797 -0.008455393794605996 0.0015861545401801302 0.013327285920810585
 0.001622690506394745 0.013322436044058096 -0.0013795552186223797 -0.008455393794605996 0.005586065475893992 0.0279911043349191 0.9930865020875761 -0.06612886205181355
 -0.0013795159580641582 -0.008455392507279575 0.0015861545401801302 0.013327285920810585 0.9930865020875761 -0.06612886205181355 0.005591599504594102 0.027990757090721675
0.11879949979160001 0.005951331087122417 0.029689442243066657 0.9926050068572886 -0.06991994363470846 0.0017813233748342505 0.014065258343119088 -0.0015128310706396643 -0.008930303698658682
 0.9926050068572886 -0.06991994363470846 0.005957110475002692 0.02968911414880144 -0.0015128746149070003 -0.008930304961688488 0.0017405873447783684 0.014070787820964636
 0.0017813233748342505 0.014065258343119088 -0.0015128746149070003 -0.008930304961688488 0.0059510736485144655 0.02968791788322229 0.9926049341826347 -0.06992153919382812
 -0.0015128310706396643 -0.008930303698658682 0.0017405873447783684 0.014070787820964636 0.9926049341826347 -0.06992153919382812 0.005957239981675613 0.029687536039935486
0.1250521050438 0.006331733849698218 0.031399593844736465 0.9921036200039954 -0.07372451878714524 0.0019479104694271083 0.014807735902090571 -0.0016528677747874294 -0.009405096807219406
 0.9921036200039954 -0.07372451878714524 0.006338137603555641 0.03139923604057183 -0.0016529158081908292 -0.009405098036714861 0.001902743022825239 0.014814006483145242
 0.0019479104694271083 0.014807735902090571 -0.0016529158081908292 -0.009405098036714861 0.006331449032826226 0.0313979949893271 0.9921035394855234 -0.07372619969838887
 -0.0016528677747874294 -0.009405096807219406 0.001902743022825239 0.014814006483145242 0.9921035394855234 -0.07372619969838887 0.006338282144760986 0.03139757658462155
0.131304710296 0.0067277419831040285 0.033122796163448064 0.9915821735778789 -0.07754091819164347 0.002122510340696138 0.015549759918157036 -0.0017996857964541436 -0.009879665616212528
 0.9915821735778789 -0.07754091819164347 0.006734802401985096 0.033122407213422606 -0.0017997385226474255 -0.009879666803194928 0.002072679841132849 0.015556836008224098
 0.002122510340696138 0.015549759918157036 -0.0017997385226474255 -0.009879666803194928 0.006727428446561731 0.033121123657249174 0.9915820847656321 -0.07754268469350449
 -0.0017996857964541436 -0.009879665616212528 0.002072679841132849 0.015556836008224098 0.9915820847656321 -0.07754268469350449 0.006734962887515005 0.03312066667000136
0.1375573155481 0.007044515901945234 0.03463345704485062 0.9911355389533322 -0.08114351978622168 0.002282150626116188 0.016268137769822152 -0.0019303766130152498 -0.01033079038837471
 0.9911355389533322 -0.08114351978622168 0.00705226838041587 0.034633043598684826 -0.0019304344980986502 -0.010330791544552206 0.002227546338329566 0.01627600447439914
 0.002282150626116188 0.016268137769822152 -0.0019304344980986502 -0.010330791544552206 0.007044173039385847 0.03463171131469032 0.9911354414687814 -0.08114537201418112
 -0.0019303766130152498 -0.01033079038837471 0.002227546338329566 0.01627600447439914 0.9911354414687814 -0.08114537201418112 0.007052444859717001 0.034631222483916375
0.1438099208003 0.007372284685504746 0.03613685309474692 0.9906734678828355 -0.08473769890443093 0.0024482523666349986 0.016984029335331042 -0.002066311310972471 -0.01077966141815401
 0.9906734678828355 -0.08473769890443093 0.0073807621138732 0.036136414141444036 -0.002066374603177505 -0.010779662531612801 0.0023886641277120497 0.016992745023032288
 0.0024482523666349986 0.016984029335331042 -0.002066374603177505 -0.010779662531612801 0.007371911302434672 0.03613503498092853 0.9906733612775235 -0.08473963709059439
 -0.002066311310972471 -0.01077966141815401 0.0023886641277120497 0.016992745023032288 0.9906733612775235 -0.08473963709059439 0.007380955360249089 0.03613451276815301
0.1500625260525 0.007710942081518995 0.03763287953024766 0.9901960700266409 -0.08832338760200432 0.0026207643372820263 0.01769737521461903 -0.0022074405571827415 -0.011226222742717602
 0.9901960700266409 -0.08832338760200432 0.007720177441377383 0.03763241397980611 -0.002207509506158116 -0.011226223800822862 0.002555983121075228 0.01770700036233652
 0.0026207643372820263 0.01769737521461903 -0.002207509506158116 -0.011226223800822862 0.0077105370017725655 0.03763098990234185 0.9901959538446504 -0.08832541199047722
 -0.0022074405571827415 -0.011226222742717602 0.002555983121075228 0.01770700036233652 0.9901959538446504 -0.08832541199047722 0.007720388231157122 0.03763043267166564
0.15631513130469998 0.00806038119241553 0.0391214348370306 0.9897034554828076 -0.09190051776481287 0.002799634772242132 0.018408116900727304 -0.0023537144705492096 -0.011670419508144408
