! Created with skrf 1.8.0 (http://scikit-rf.org).
# GHz S RI R 50.0 
!freq ReS11 ImS11 ReS12 ImS12 ReS13 ImS13
! ReS14 ImS14
! ReS21 ImS21 ReS22 ImS22 ReS23 ImS23
! ReS24 ImS24
! ReS31 ImS31 ReS32 ImS32 ReS33 ImS33
! ReS34 ImS34
! ReS41 ImS41 ReS42 ImS42 ReS43 ImS43
! ReS44 ImS44
!
0.0 0.00111830846832 0.0 0.9988816915317 0.0 4.246040936011e-05 0.0 -4.246040954926e-05 5.199900464498697e-21
 0.9988816915317 0.0 0.001118308468317 0.0 -4.246040954882e-05 5.199900464444812e-21 4.246040936049e-05 0.0
 4.246040936011e-05 0.0 -4.246040954882e-05 5.199900464444812e-21 0.001118308460312 0.0 0.9988816915237 0.0
 -4.246040954926e-05 5.199900464498697e-21 4.246040936049e-05 0.0 0.9988816915237 0.0 0.001118308460332 0.0
0.005 0.0012022996261000347 0.0009146107446837873 0.9987755710287669 -0.002343847700406401 5.90628642345918e-05 0.0004728068513422233 -5.744127890913536e-05 -0.0002960622333739174
 0.9987755710287669 -0.002343847700406401 0.001202295029038219 0.0009146134665333553 -5.744277104965069e-05 -0.00029606340412521555 5.9084144670653474e-05 0.000472798749934715
 5.90628642345918e-05 0.0004728068513422233 -5.744277104965069e-05 -0.00029606340412521555 0.0012022990573347188 0.0009146783538133461 0.998775571347748 -0.0023437806353609728
 -5.744127890913536e-05 -0.0002960622333739174 5.9084144670653474e-05 0.000472798749934715 0.998775571347748 -0.0023437806353609728 0.0012022962324791404 0.0009146799847709688
0.006252605252188 0.0012240636293909233 0.0011469028144522513 0.9987479433407511 -0.0029304241042464305 6.36515566296453e-05 0.0005912524021317162 -6.154926051408245e-05 -0.0003704770394164557
 0.9987479433407511 -0.0029304241042464305 0.0012240564429856723 0.0011469062688803063 -6.155158226203162e-05 -0.0003704784842550553 6.36848059141701e-05 0.000591241897657235
 6.36515566296453e-05 0.0005912524021317162 -6.155158226203162e-05 -0.0003704784842550553 0.0012240626725624904 0.0011469873172116113 0.998747943771987 -0.0029303402834203168
 -6.154926051408245e-05 -0.0003704770394164557 6.36848059141701e-05 0.000591241897657235 0.998747943771987 -0.0029303402834203168 0.0012240582571197995 0.0011469894016570158
0.01250521050438 0.0013370947432413127 0.002318255878880851 0.9986037217477499 -0.005861865595275164 8.915065106397961e-05 0.0011829285872371794 -8.420416636554991e-05 -0.0007429210527583722
 0.9986037217477499 -0.005861865595275164 0.0013370660423060237 0.0023182633175420036 -8.421331487985556e-05 -0.0007429237431286917 8.928325230264406e-05 0.0011829035767559322
 8.915065106397961e-05 0.0011829285872371794 -8.421331487985556e-05 -0.0007429237431286917 0.0013370903453369663 0.002318424658460033 0.998603722898291 -0.005861698194605888
 -8.420416636554991e-05 -0.0007429210527583722 8.928325230264406e-05 0.0011829035767559322 0.998603722898291 -0.005861698194605888 0.00133707271820641 0.002318429281867329
0.01875781575657 0.0014575923321919482 0.0035067418678517235 0.99844888797996 -0.008801513947938756 0.00011900774443086883 0.0017754634769026124 -0.00011048263546625644 -0.0011168211828728647
 0.99844888797996 -0.008801513947938756 0.001457527829205091 0.0035067538698679555 -0.00011050303604757237 -0.0011168248919132967 0.00011930564530717626 0.0017754193452361605
 0.00011900774443086883 0.0017754634769026124 -0.00011050303604757237 -0.0011168248919132967 0.001457582018030252 0.0035069948523874317 0.9984488901455378 -0.008801263050136444
 -0.00011048263546625644 -0.0011168211828728647 0.00011930564530717626 0.0017754193452361605 0.9984488901455378 -0.008801263050136444 0.0014575424169375889 0.0035070024815070616
0.02501042100875 0.001585744065262836 0.004710749770065141 0.9982832995027333 -0.011750848178160467 0.0001532734253450908 0.002368917539346228 -0.00014044105803644898 -0.0014920387391313796
 0.9982832995027333 -0.011750848178160467 0.00158562949562395 0.004710766958891129 -0.00014047708374806126 -0.0014920432077928593 0.00015380262191334103 0.002368849088778477
 0.0001532734253450908 0.002368917539346228 -0.00014047708374806126 -0.0014920432077928593 0.0015857253560978858 0.004711086919581711 0.998283302978394 -0.01175051382850345
 -0.00014044105803644898 -0.0014920387391313796 0.00015380262191334103 0.002368849088778477 0.998283302978394 -0.01175051382850345 0.0015856550417970559 0.004711098030830962
0.03126302626094 0.0017217293665936497 0.005929477755172601 0.9981068047134283 -0.014710533948210848 0.00019199891520897553 0.002963297138929191 -0.0001741346424329468 -0.001868486857659526
 0.9981068047134283 -0.014710533948210848 0.0017215504819290493 0.005929500797934288 -0.00017419062336032447 -0.0018684917940613042 0.00019282551753380266 0.002963198586875849
 0.00019199891520897553 0.002963297138929191 -0.00017419062336032447 -0.0018684917940613042 0.0017216997790485205 0.005929899047301762 0.9981068097936416 -0.014710116168636761
 -0.0001741346424329468 -0.001868486857659526 0.00019282551753380266 0.002963198586875849 0.9981068097936416 -0.014710116168636761 0.0017215900314410946 0.0059299141261839276
0.037515631513130004 0.0018657239084022084 0.007162423657422994 0.9979192475010507 -0.017680933044489616 0.00023523561410782352 0.003558587802720098 -0.00021161784334695086 -0.0022460972257354475
 0.9979192475010507 -0.017680933044489616 0.0018654664727720835 0.007162453264707477 -0.0002116980714946992 -0.00224610230495287 0.00023642587782280567 0.003558452775959084
 0.00023523561410782352 0.003558587802720098 -0.0002116980714946992 -0.00224610230495287 0.0018656809543915176 0.007162929079764087 0.9979192544807457 -0.017680431841212138
 -0.00021161784334695086 -0.0022460972257354475 0.00023642587782280567 0.003558452775959084 0.9979192544807457 -0.017680431841212138 0.0018655230694586064 0.007162948620359589
0.043768236765320004 0.0020179013552813155 0.008409229918407351 0.9977204690576174 -0.020662258391955686 0.00028303489547196485 0.004154764348428322 -0.0002529445295029255 -0.002624809942509689
 0.9977204690576174 -0.020662258391955686 0.0020175511427030462 0.008409266844302795 -0.00025305326173117904 -0.002624814806492623 0.00028465523915226335 0.004154585876331098
 0.00028303489547196485 0.004154764348428322 -0.00025305326173117904 -0.002624814806492623 0.002017842541764123 0.008409819469485913 0.9977204782327458 -0.02066167375455943
 -0.0002529445295029255 -0.002624809942509689 0.00028465523915226335 0.004154585876331098 0.9977204782327458 -0.02066167375455943 0.002017627829700908 0.00840984397401766
0.050020842017509996 0.0021784341860476546 0.009669619512911076 0.9975103087667513 -0.023654638083816324 0.0003354479918421543 0.004751795051029538 -0.00029816805579336214 -0.003004569340702619
 0.9975103087667513 -0.023654638083816324 0.0021779769781432763 0.009669664555058948 -0.0002983095157861054 -0.003004573598218836 0.00033756500661679843 0.004751565558337776
 0.0003354479918421543 0.004751795051029538 -0.0002983095157861054 -0.003004573598218836 0.0021783570152137392 0.009670293195454972 0.9975103204347667 -0.023653969992061926
 -0.00029816805579336214 -0.003004569340702619 0.00033756500661679843 0.004751565558337776 0.9975103204347667 -0.023653969992061926 0.002178076798406042 0.009670323173929163
0.055454545454549996 0.0023248610587031193 0.010775789673424904 0.9973183039222235 -0.026264143172126355 0.0003847831695671147 0.0052712984637670905 -0.00034067445717094597 -0.003335400219950035
 0.9973183039222235 -0.026264143172126355 0.0023242993262492587 0.010775842450570186 -0.0003408477639886633 -0.003335403606911532 0.0003873860245486839 0.005271018005429784
 0.0003847831695671147 0.0052712984637670905 -0.0003408477639886633 -0.003335403606911532 0.0023247659024960045 0.010776536474711341 0.9973183180000641 -0.02626340253151716
 -0.00034067445717094597 -0.003335400219950035 0.0003873860245486839 0.005271018005429784 0.9973183180000641 -0.02626340253151716 0.0023244217212514567 0.010776571630157768
0.056273447269699996 0.0023474941258281794 0.010943364496683986 0.9972886047043028 -0.02665814678886996 0.00039252591785595613 0.005349643692200316 -0.00034734129563663993 -0.0033853219257083764
 0.9972886047043028 -0.02665814678886996 0.002346915710231663 0.010943418496438283 -0.0003475196752594364 -0.003385325152319829 0.0003952063724435296 0.005349354991603018
 0.00039252591785595613 0.005349643692200316 -0.0003475196752594364 -0.003385325152319829 0.0023473960951162307 0.01094412231808898 0.99728861916512 -0.02665739521231485
 -0.00034734129563663993 -0.0033853219257083764 0.0003952063724435296 0.005349354991603018 0.99728861916512 -0.02665739521231485 0.002347041706777979 0.010944158287919305
0.06252605252188 0.002525252396498078 0.012230268713734218 0.9970551939591431 -0.029672822999363864 0.00045431941325810483 0.005948270680050021 -0.0004005166515298679 -0.0037670152449596653
 0.9970551939591431 -0.029672822999363864 0.002524538565411219 0.012230332556353822 -0.00040073611183538894 -0.003767016983015192 0.00045763025614368726 0.005947913964633245
 0.00045431941325810483 0.005948270680050021 -0.00040073611183538894 -0.003767016983015192 0.0025251309971169875 0.012231110685658408 0.9970552115134703 -0.02967198789783497
 -0.0004005166515298679 -0.0037670152449596653 0.00045763025614368726 0.005947913964633245 0.9970552115134703 -0.02967198789783497 0.002524693779863672 0.012231153171345321
0.06877865777407 0.0027118798604615453 0.013530157493708369 0.9968099128469636 -0.03269867928905151 0.0005208788972291346 0.006547633713554856 -0.00045774605310746074 -0.004149597213289533
 0.9968099128469636 -0.03269867928905151 0.002711016409139187 0.01353023210857016 -0.0004580107250829305 -0.0041495969719101446 0.0005248872566580696 0.006547199549196463
 0.0005208788972291346 0.006547633713554856 -0.0004580107250829305 -0.0041495969719101446 0.00271173257802005 0.013531083633417913 0.9968099337980837 -0.032697760611411116
 -0.00045774605310746074 -0.004149597213289533 0.0005248872566580696 0.006547199549196463 0.9968099337980837 -0.032697760611411116 0.0027112038822065037 0.013531133166248998
0.07503126302626001 0.002907547108330313 0.014842871108863093 0.9965525970713696 -0.0357357088123256 0.0005922544277923413 0.0071476882044919764 -0.0005190809488784725 -0.004533015681593037
 0.9965525970713696 -0.0357357088123256 0.0029065198341397766 0.014842957469692051 -0.0005193949340109931 -0.004533012936672874 0.0005970276104042016 0.007147166522234691
 0.0005922544277923413 0.0071476882044919764 -0.0005193949340109931 -0.004533012936672874 0.002907371422725825 0.014843881436984695 0.9965526217250021 -0.03573470649892205
 -0.0005190809488784725 -0.004533015681593037 0.0005970276104042016 0.007147166522234691 0.9965526217250021 -0.03573470649892205 0.0029067426053223855 0.014843938554746899
0.08128386827845 0.0031124245088290383 0.016168260432066147 0.9962830818470406 -0.038783889603064184 0.0006684956660892594 0.007748387553330589 -0.0005845722923291024 -0.0049172181524261525
 0.9962830818470406 -0.038783889603064184 0.003111219209703868 0.01616835955724749 -0.0005849396630033684 -0.0049172123466368406 0.0006741011541901547 0.007747767641738393
 0.0006684956660892594 0.007748387553330589 -0.0005849396630033684 -0.0049172123466368406 0.0031122178935695474 0.01616935497416654 0.9962831105110234 -0.03878280358416696
 -0.0005845722923291024 -0.0049172181524261525 0.0006741011541901547 0.007747767641738393 0.9962831105110234 -0.03878280358416696 0.0031114803167371034 0.01616942022092245
0.08753647353064001 0.003326682234480481 0.017506183917866062 0.9960012020009334 -0.041843187551173194 0.0007496518424546595 0.008349683341301378 -0.0006542705251067175 -0.005302151580366359
 0.9960012020009334 -0.041843187551173194 0.003325284707975069 0.01750629687073378 -0.0006546953249598704 -0.00530214212315733 0.0007561572904913039 0.008348953838838673
 0.0007496518424546595 0.008349683341301378 -0.0006546953249598704 -0.00530214212315733 0.003326442157093168 0.017507362702368804 0.9960012349863677 -0.04184201774922585
 -0.0006542705251067175 -0.005302151580366359 0.0007561572904913039 0.008348953838838673 0.9960012349863677 -0.04184201774922585 0.0033255871867226565 0.017507436628191972
0.09378907878283 0.0035504902708692354 0.018856505461156546 0.9957067920583271 -0.04491355850248612 0.0008357717244168419 0.00895152546478599 -0.0007282255575700744 -0.005687762231039161
 0.9957067920583271 -0.04491355850248612 0.0035488863130442136 0.01885663335037879 -0.0007287118016933462 -0.0056877484986502065 0.0008432449547123827 0.008950674352219884
 0.0008357717244168419 0.00895152546478599 -0.0007287118016933462 -0.0056877484986502065 0.0035502141924468205 0.018857768522354067 0.9957068296793146 -0.04491230482929725
 -0.0007282255575700744 -0.005687762231039161 0.0008432449547123827 0.008950674352219884 0.9957068296793146 -0.04491230482929725 0.0035492331971240083 0.018857851683179844
0.100041684035 0.0037840184141974763 0.020219092810369436 0.9953996863184096 -0.047994949805202865 0.000926903585345962 0.009553862235266558 -0.0008064867478582159 -0.0060739955756538185
 0.9953996863184096 -0.047994949805202865 0.003782193818579514 0.020219236790269657 -0.0008070384230147356 -0.006073976911123113 0.0009354125831084663 0.009552876828089599
 0.000926903585345962 0.009553862235266558 -0.0008070384230147356 -0.006073976911123113 0.003783703789342324 0.020220440185257125 0.9953997288920411 -0.047993612165205125
 -0.0008064867478582159 -0.0060739955756538185 0.0009354125831084663 0.009552876828089599 0.9953997288920411 -0.047993612165205125 0.00378258813867046 0.020220533142693967
0.1059090909091 0.004012151215482365 0.021508776668605095 0.9950998057234265 -0.05089647825296569 0.0010170220516681774 0.010119493914608046 -0.0008838864405866118 -0.006436951599391431
 0.9950998057234265 -0.05089647825296569 0.004010106650691008 0.021508936838779535 -0.0008845031165731249 -0.006436927679502999 0.0010265649794865396 0.010118370350541351
 0.0010170220516681774 0.010119493914608046 -0.0008845031165731249 -0.006436927679502999 0.004011798097874743 0.021510203200307623 0.9950998532363036 -0.05089506172440485
 -0.0008838864405866118 -0.006436951599391431 0.0010265649794865396 0.010118370350541351 0.9950998532363036 -0.05089506172440485 0.004010548238141961 0.021510305866533925
0.1062942892872 0.004027436260106227 0.02159381638051068 0.995079718922298 -0.05108730145751367 0.0010230951741382827 0.010156640452368354 -0.0008891028791522697 -0.0064607962134994815
 0.995079718922298 -0.05108730145751367 0.004025376816435182 0.021593977651477737 -0.0008897239438548632 -0.006460771926674393 0.0010327080820386639 0.010155507393281643
 0.0010230951741382827 0.010156640452368354 -0.0008897239438548632 -0.006460771926674393 0.004027080536788485 0.021595248110090396 0.9950797667695177 -0.05108587974664366
 -0.0008891028791522697 -0.0064607962134994815 0.0010327080820386639 0.010155507393281643 0.9950797667695177 -0.05108587974664366 0.004025821600308661 0.021595351431273453
0.11254689453939999 0.00428091318591226 0.022980548341779674 0.9947467239167583 -0.05419054698072787 0.0011243936851401768 0.010759805460060976 -0.0009761221359701367 -0.006848107812438717
 0.9947467239167583 -0.05419054698072787 0.004278604679396891 0.02298072815073595 -0.0009768165206061397 -0.006848077179996213 0.0011351787973208158 0.010758510711479497
 0.0011243936851401768 0.010759805460060976 -0.0009768165206061397 -0.006848077179996213 0.004280513805270543 0.022982064473984126 0.9947467773620322 -0.0541890410836871
 -0.0009761221359701367 -0.006848107812438717 0.0011351787973208158 0.010758510711479497 0.9947467773620322 -0.0541890410836871 0.0042791029509401945 0.02298217873151055
0.11879949979160001 0.004544618327671102 0.02437916190963668 0.994400535312678 -0.057304614092273026 0.0012308457282699677 0.011363301190904992 -0.001067592079585473 -0.0072358730624561855
 0.994400535312678 -0.057304614092273026 0.0045420465376796995 0.024379361550464836 -0.0010683636864334744 -0.007235835327923208 0.0012428714839528721 0.011361830027562607
 0.0012308457282699677 0.011363301190904992 -0.0010683636864334744 -0.007235835327923208 0.004544172724211144 0.024380762494596718 0.9944005946849679 -0.057303023887433184
 -0.001067592079585473 -0.0072358730624561855 0.0012428714839528721 0.011361830027562607 0.9944005946849679 -0.057303023887433184 0.004542601317114063 0.02438088826641319
0.1250521050438 0.0048187205538088584 0.02578953077462065 0.9940409871433501 -0.060429425240125734 0.0013424972992600152 0.011967070201608723 -0.001163559622567604 -0.007624033639174185
 0.9940409871433501 -0.060429425240125734 0.004815871252990027 0.0257897515886855 -0.0011644123258137352 -0.007623988012946943 0.0013558322760562258 0.011965407203187402
 0.0013424972992600152 0.011967070201608723 -0.0011644123258137352 -0.007623988012946943 0.004818226154797789 0.02579121586998541 0.9940410527755212 -0.06042775059435859
 -0.001163559622567604 -0.007624033639174185 0.0013558322760562258 0.011965407203187402 0.9940410527755212 -0.06042775059435859 0.004816485555771105 0.025791353739407077
0.131304710296 0.005103388434730848 0.027211528651507798 0.9936679135181541 -0.06356489801913301 0.0014593937501300202 0.01257105370031309 -0.0012640710025810641 -0.008012530176802637
 0.9936679135181541 -0.06356489801913301 0.00510024738801312 0.027211772028160046 -0.0012650086483266625 -0.008012475836176354 0.0014741066568171354 0.012569182744127282
 0.0014593937501300202 0.01257105370031309 -0.0012650086483266625 -0.008012475836176354 0.005102842660538097 0.02721329831858143 0.9936679857477719 -0.06356313879194844
 -0.0012640710025810641 -0.008012530176802637 0.0014741066568171354 0.012569182744127282 0.9936679857477719 -0.06356313879194844 0.005100924224743431 0.027213448874242947
0.1375573155481 0.005324892366747119 0.028458592665996436 0.9933550625177391 -0.0665244619172213 0.001564296888329606 0.013155599277728865 -0.0013518716806806463 -0.00838172647140227
 0.9933550625177391 -0.0665244619172213 0.005321445253305124 0.028458855265781843 -0.0013528999630413087 -0.00838166357261212 0.0015804222613473987 0.013153526435129325
 0.001564296888329606 0.013155599277728865 -0.0013528999630413087 -0.00838166357261212 0.005324293213573896 0.028460446951858058 0.9933551416412094 -0.06652261803488284
 -0.0013518716806806463 -0.00838172647140227 0.0015804222613473987 0.013153526435129325 0.9933551416412094 -0.06652261803488284 0.005322187131412846 0.0284606061864975
0.1438099208003 0.0055538586001844265 0.029700430784165607 0.9930317976181545 -0.06947789539917394 0.001673421751893183 0.01373861783954918 -0.001443191690566573 -0.008749519913750827
 0.9930317976181545 -0.06947789539917394 0.005550091178914018 0.029700713668748966 -0.001444314748547296 -0.008749447669454843 0.0016910222888297285 0.01373632870419952
 0.001673421751893183 0.01373861783954918 -0.001444314748547296 -0.008749447669454843 0.005553203582870254 0.029702369742236036 0.9930318839712087 -0.06947596672361339
 -0.001443191690566573 -0.008749519913750827 0.0016910222888297285 0.01373632870419952 0.9930318839712087 -0.06947596672361339 0.005550901010509403 0.029702537908084595
0.1500625260525 0.005790222294003223 0.030936979527419584 0.9926981861338207 -0.07242516627921022 0.0017867396282453504 0.014320077657351837 -0.0015380029672014696 -0.009115879189079853
 0.9926981861338207 -0.07242516627921022 0.005786120318895484 0.030937283808165846 -0.0015392249353054807 -0.009115796780742588 0.0018058777513555644 0.014317557308822353
 0.0017867396282453504 0.014320077657351837 -0.0015392249353054807 -0.009115796780742588 0.0057895089275189 0.030939003212455872 0.9926982800560264 -0.0724231526669336
 -0.0015380029672014696 -0.009115879189079853 0.0018058777513555644 0.014317557308822353 0.9926982800560264 -0.0724231526669336 0.005787001005350262 0.030939180579736752
0.15631513130469998 0.006033918323095653 0.032168177604987344 0.9923542955261032 -0.07536624175003431 0.0019042215723369803 0.014899947394621863 -0.0016362771981165269 -0.009480773559030433
