! Created with skrf 1.8.0 (http://scikit-rf.org).
# GHz S RI R 50.0 
!freq ReS11 ImS11 ReS12 ImS12 ReS13 ImS13
! ReS14 ImS14
! ReS21 ImS21 ReS22 ImS22 ReS23 ImS23
! ReS24 ImS24
! ReS31 ImS31 ReS32 ImS32 ReS33 ImS33
! ReS34 ImS34
! ReS41 ImS41 ReS42 ImS42 ReS43 ImS43
! ReS44 ImS44
!
0.0 0.001523877442646 0.0 0.998476122546 0.0 5.854009977236e-05 0.0 -5.85400994178e-05 7.16909453737766e-21
 0.998476122546 0.0 0.001523877442626 0.0 -5.854009941643e-05 7.169094537209885e-21 5.854009977242e-05 0.0
 5.854009977236e-05 0.0 -5.854009941643e-05 7.169094537209885e-21 0.001523877448292 0.0 0.9984761225517 0.0
 -5.85400994178e-05 7.16909453737766e-21 5.854009977242e-05 0.0 0.9984761225517 0.0 0.001523877448334 0.0
0.005 0.0016394592949817962 0.0012505940939995872 0.998329920259949 -0.003191933240960336 8.140409591965492e-05 0.0006218029947600849 -7.919326649440876e-05 -0.0003943614228819488
 0.998329920259949 -0.003191933240960336 0.0016394758990713116 0.0012505844509827875 -7.919174962068388e-05 -0.0003943603446086184 8.130510740642591e-05 0.0006218406946783983
 8.140409591965492e-05 0.0006218029947600849 -7.919174962068388e-05 -0.0003943603446086184 0.0016394592693744457 0.0012505268991136226 0.9983299199020297 -0.0031920003032600867
 -7.919326649440876e-05 -0.0003943614228819488 8.130510740642591e-05 0.0006218406946783983 0.9983299199020297 -0.0031920003032600867 0.001639475214769751 0.0012505175263971494
0.006252605252188 0.00166975264428637 0.001568146607530926 0.9982913638255511 -0.003990698294276974 8.792548550402455e-05 0.0007775667934127761 -8.500987124601773e-05 -0.0004934572834734536
 0.9982913638255511 -0.003990698294276974 0.0016697785988829437 0.0015681343626151884 -8.500751017218357e-05 -0.0004934559558112389 8.777082503472373e-05 0.0007776157410500365
 8.792548550402455e-05 0.0007775667934127761 -8.500751017218357e-05 -0.0004934559558112389 0.0016697526724335262 0.00156806263351303 0.9982913633346813 -0.00399078211229051
 -8.500987124601773e-05 -0.0004934572834734536 8.777082503472373e-05 0.0007776157410500365 0.9982913633346813 -0.00399078211229051 0.001669777598282584 0.0015680507120721364
0.01250521050438 0.0018291055169208684 0.0031690256423918452 0.9980872251723243 -0.007982196551432572 0.00012526731884598104 0.0015555655912530355 -0.00011793423345397497 -0.0009892957219813606
 0.9980872251723243 -0.007982196551432572 0.0018292091439834053 0.0031689992156270293 -0.00011792492008228493 -0.0009892932888793022 0.00012465056586587184 0.0015556831384466935
 0.00012526731884598104 0.0015555655912530355 -0.00011792492008228493 -0.0009892932888793022 0.00182910621593869 0.003168858041021545 0.9980872238052066 -0.007982363954201092
 -0.00011793423345397497 -0.0009892957219813606 0.00012465056586587184 0.0015556831384466935 0.9980872238052066 -0.007982363954201092 0.0018292057524825708 0.0031688321187048354
0.01875781575657 0.0020022807267981325 0.004792615177337162 0.9978634551447507 -0.011984208535570874 0.0001706517044310986 0.0023344912755662623 -0.0001574131244575782 -0.0014868355177087699
 0.9978634551447507 -0.011984208535570874 0.0020025135609383843 0.0047925724655917875 -0.00015739234325619608 -0.0014868322470956291 0.00016926622954497174 0.0023347008905851376
 0.0001706517044310986 0.0023344912755662623 -0.00015739234325619608 -0.0014868322470956291 0.002002282705289631 0.004792364173291089 0.9978634524916803 -0.011984459451299733
 -0.0001574131244575782 -0.0014868355177087699 0.00016926622954497174 0.0023347008905851376 0.9978634524916803 -0.011984459451299733 0.0020025063825171775 0.004792322010204739
0.02501042100875 0.002189612912142155 0.006436654960897202 0.9976197924203977 -0.015998676111053795 0.00022416612635795595 0.0031143703190987192 -0.00020354345910920428 -0.0019858599330290884
 0.9976197924203977 -0.015998676111053795 0.0021900263720989552 0.006436593712999201 -0.00020350674456748351 -0.0019858561428741832 0.00022170518007373743 0.003114699151870014
 0.00022416612635795595 0.0031143703190987192 -0.00020350674456748351 -0.0019858561428741832 0.0021896167792826897 0.006436320785244914 0.9976197880785939 -0.015999010502168395
 -0.00020354345910920428 -0.0019858599330290884 0.00022170518007373743 0.003114699151870014 0.9976197880785939 -0.015999010502168395 0.0021900140343874153 0.00643625999730239
0.03126302626094 0.0023914228820803266 0.008099983386624494 0.9973559622105487 -0.020026432248139516 0.000285898548958999 0.003895160429107612 -0.00025641955423608387 -0.0024862155857662644
 0.9973559622105487 -0.020026432248139516 0.0023920682985427914 0.008099901206780074 -0.00025636248233038407 -0.0024862116446901297 0.00028205497654814645 0.0038956393319537494
 0.000285898548958999 0.003895160429107612 -0.00025636248233038407 -0.0024862116446901297 0.0023914292422333064 0.008099566268453647 0.9973559557766857 -0.02002685012010829
 -0.00025641955423608387 -0.0024862155857662644 0.00028205497654814645 0.0038956393319537494 0.9973559557766857 -0.02002685012010829 0.0023920494456550244 0.008099484330327146
0.037515631513130004 0.002608024550035648 0.009781844229256662 0.9970716834030691 -0.024067894225310815 0.0003559365575392551 0.004676792043747715 -0.00031613376258879107 -0.00298777094714212
 0.9970716834030691 -0.024067894225310815 0.0026089531840025625 0.009781738578767676 -0.00031605194650895024 -0.00298776727465058 0.0003504026715129196 0.0046774556081299636
 0.0003559365575392551 0.004676792043747715 -0.00031605194650895024 -0.00298776727465058 0.0026080340019057026 0.009781344415843496 0.9970716744708302 -0.024068395606765162
 -0.00031613376258879107 -0.00298777094714212 0.0003504026715129196 0.0046774556081299636 0.9970716744708302 -0.024068395606765162 0.002608926474428179 0.009781238662538135
0.043768236765320004 0.0028397276111886637 0.01148167565802994 0.99676667145225 -0.028123274545137984 0.00043436694697199035 0.005459180965986992 -0.00038277670400402655 -0.0034904037059768312
 0.99676667145225 -0.028123274545137984 0.0028409906685482288 0.011481543856205362 -0.0003826657917577836 -0.0034904007725915396 0.00042683446669062523 0.005460067564204108
 0.00043436694697199035 0.005459180965986992 -0.0003826657917577836 -0.0034904007725915396 0.0028397407495100516 0.011481093430529929 0.9967666596122005 -0.028123859472469905
 -0.00038277670400402655 -0.0034904037059768312 0.00042683446669062523 0.005460067564204108 0.9967666596122005 -0.028123859472469905 0.0028409547752588265 0.01148096105822528
0.050020842017509996 0.0030868387866510387 0.013199023071722705 0.996440639839966 -0.032192668026243716 0.0005212754787365511 0.006242233568965996 -0.00045643734252131873 -0.0039939955642504165
 0.996440639839966 -0.032192668026243716 0.0030884874304250936 0.013198862296380015 -0.00045629301541181644 -0.003993993891601622 0.0005114355058320005 0.006243385397878008
 0.0005212754787365511 0.006242233568965996 -0.00045629301541181644 -0.003993993891601622 0.0030868562037554823 0.013198358727233475 0.996440624679779 -0.032193336561771105
 -0.00045643734252131873 -0.0039939955642504165 0.0005114355058320005 0.006243385397878008 0.996440624679779 -0.032193336561771105 0.0030884410417337006 0.013198196793686357
0.055454545454549996 0.003314335613697572 0.01470537095640298 0.9961400145829699 -0.0357404915098475 0.0006037526149111166 0.006923191098125334 -0.0005262177589734524 -0.004432320295163402
 0.9961400145829699 -0.0357404915098475 0.0033163608695854826 0.014705182600393468 -0.0005260409111521152 -0.0044323201815087135 0.0005916560155299719 0.006924610693454872
 0.0006037526149111166 0.006923191098125334 -0.0005260409111521152 -0.0044323201815087135 0.0033143572280430844 0.01470463551184859 0.9961399961987618 -0.035741232765859006
 -0.0005262177589734524 -0.004432320295163402 0.0005916560155299719 0.006924610693454872 0.9961399961987618 -0.035741232765859006 0.0033163043058954157 0.014704445391766643
0.056273447269699996 0.003349662462869868 0.014933496289930678 0.9960933009355248 -0.036276094540043 0.0006167467051836265 0.00702584936436921 -0.0005372030017199678 -0.004498429672818277
 0.9960933009355248 -0.036276094540043 0.0033517478245034113 0.014933303577450008 -0.0005370209733778345 -0.00449842983371721 0.0006042897205679012 0.007027312489993447
 0.0006167467051836265 0.00702584936436921 -0.0005370209733778345 -0.00449842983371721 0.003349684748392564 0.014932750151545786 0.9960932820379677 -0.036276846762130145
 -0.0005372030017199678 -0.004498429672818277 0.0006042897205679012 0.007027312489993447 0.9960932820379677 -0.036276846762130145 0.0033516896431261536 0.014932555576148657
0.06252605252188 0.0036285010356643943 0.016684746020756803 0.9957243665643023 -0.04037352247345991 0.0007208638320212602 0.0078099224009116315 -0.000625159343756698 -0.005003589240547968
 0.9957243665643023 -0.04037352247345991 0.003631074225721568 0.016684518265869523 -0.0006249353595701681 -0.005003591859040079 0.0007054797072221106 0.007811746803344892
 0.0007208638320212602 0.0078099224009116315 -0.0006249353595701681 -0.005003591859040079 0.0036285287786372252 0.01668391844093484 0.9957243435081619 -0.04037435847330171
 -0.000625159343756698 -0.005003589240547968 0.0007054797072221106 0.007811746803344892 0.9957243435081619 -0.04037435847330171 0.003631002970007487 0.016683688004479575
0.06877865777407 0.003923655091135342 0.018452449848000166 0.9953335484169716 -0.04448488267543429 0.000833708598598383 0.008594342112721698 -0.0007203903312377196 -0.005509356697346698
 0.9953335484169716 -0.04448488267543429 0.003926767209170296 0.01845218380325198 -0.0007201201680268524 -0.005509362448756383 0.0008150866168615195 0.008596581731103576
 0.000833708598598383 0.008594342112721698 -0.0007201201680268524 -0.005509362448756383 0.003923688880503679 0.018451541201132068 0.9953335207758629 -0.044485802564716036
 -0.0007203903312377196 -0.005509356697346698 0.0008150866168615195 0.008596581731103576 0.9953335207758629 -0.044485802564716036 0.003926681612898111 0.01845127154529017
0.07503126302626001 0.004235423490866341 0.02023630331938805 0.9949205583673814 -0.04861007730652775 0.0009553611715689414 0.009378993851420287 -0.0008229781749533084 -0.00601561317756225
 0.9949205583673814 -0.04861007730652775 0.004239125635955884 0.020235995594215312 -0.0008226576408121357 -0.006015622788526279 0.0009331900570483796 0.009381706628675567
 0.0009553611715689414 0.009378993851420287 -0.0008226576408121357 -0.006015622788526279 0.004235463916389926 0.02023531400993236 0.9949205257088712 -0.0486110812092887
 -0.0008229781749533084 -0.00601561317756225 0.0009331900570483796 0.009381706628675567 0.9949205257088712 -0.0486110812092887 0.004239024448538466 0.020235001636401087
0.08128386827845 0.004564103397718794 0.022036014041816494 0.994485108733441 -0.052748985685631605 0.0010859000446926483 0.010163759251246842 -0.0009330032753377443 -0.006522238174520462
 0.994485108733441 -0.052748985685631605 0.004568446677749578 0.02203566110141973 -0.0009326282096283455 -0.006522252423021689 0.0010598679969820765 0.010167007178552801
 0.0010859000446926483 0.010163759251246842 -0.0009326282096283455 -0.006522252423021689 0.004564151051104309 0.02203494449874421 0.9944850706192088 -0.05275007374391875
 -0.0009330032753377443 -0.006522238174520462 0.0010598679969820765 0.010167007178552801 0.9944850706192088 -0.05275007374391875 0.004568328664594259 0.02203458576809269
0.08753647353064001 0.004909990260425079 0.023851297587287577 0.994026912502003 -0.05690146833083863 0.0012254019436416656 0.010948516481602513 -0.0010505441576020944 -0.007029109312085301
 0.994026912502003 -0.05690146833083863 0.004915025802327743 0.0238508957510315 -0.0010501104310468676 -0.007029129027460135 0.0011951966774666465 0.01095236564236989
 0.0012254019436416656 0.010948516481602513 -0.0010501104310468676 -0.007029129027460135 0.004910045736111772 0.023850148268272617 0.9940268684866436 -0.056902640700557276
 -0.0010505441576020944 -0.007029109312085301 0.0011951966774666465 0.01095236564236989 0.9940268684866436 -0.056902640700557276 0.004914889744964318 0.02384973939852675
0.09378907878283 0.005273377771842047 0.025681874564959333 0.9935456835297424 -0.061067369839152515 0.0013739417339221972 0.011733140433810173 -0.0011756774031702491 -0.007536102186457546
 0.9935456835297424 -0.061067369839152515 0.005279156730955974 0.025681420004611946 -0.0011751809179763604 -0.007536128249408965 0.0013392505226236346 0.01173766104719365
 0.0013739417339221972 0.011733140433810173 -0.0011751809179763604 -0.007536128249408965 0.005273441667923972 0.025680645954746607 0.9935456331601987 -0.06106862669169344
 -0.0011756774031702491 -0.007536102186457546 0.0013392505226236346 0.01173766104719365 0.9935456331601987 -0.06106862669169344 0.005279001427596118 0.025680183019554773
0.100041684035 0.005654557806265802 0.027527468485296684 0.9930411367267202 -0.06524652097932085 0.0015315923306100064 0.012517502865653734 -0.0013084775782483795 -0.00804309025491541
 0.9930411367267202 -0.06524652097932085 0.005661131376125784 0.0275269572227673 -0.0013079142683888676 -0.008043123597505482 0.0014921020530558214 0.012522769329473032
 0.0015315923306100064 0.012517502865653734 -0.0013079142683888676 -0.008043123597505482 0.005654630725656342 0.02752616109471678 0.9930410795422309 -0.06524786250244473
 -0.0013084775782483795 -0.00804309025491541 0.0014921020530558214 0.012522769329473032 0.9930410795422309 -0.06524786250244473 0.005660955641813341 0.027525640021345665
0.1059090909091 0.00602869527966569 0.029272775215985317 0.9925462128763506 -0.06918009995615482 0.0016878800355791528 0.013253189077959434 -0.001440134035135798 -0.008518725748045868
 0.9925462128763506 -0.06918009995615482 0.00603606111023294 0.029272206990730847 -0.0014395043479422825 -0.008518766815245892 0.0016436012557688728 0.013259226866702417
 0.0016878800355791528 0.013253189077959434 -0.0014395043479422825 -0.008518766815245892 0.006028777219930341 0.029271394389544368 0.9925461488697731 -0.06918152111562674
 -0.001440134035135798 -0.008518725748045868 0.0016436012557688728 0.013259226866702417 0.9925461488697731 -0.06918152111562674 0.0060358651413884145 0.029270814922897574
0.1062942892872 0.0060538203420151 0.029387804146486556 0.9925129882290508 -0.06943874026787289 0.0016984246098885735 0.013301472514136953 -0.0014490171597184617 -0.008549944761090495
 0.9925129882290508 -0.06943874026787289 0.006061239764394319 0.02938723205129416 -0.0014483829912026944 -0.00854998636672698 0.001653821800588022 0.013307563447095463
 0.0016984246098885735 0.013301472514136953 -0.0014483829912026944 -0.00854998636672698 0.006053902893522696 0.029386418517454847 0.9925129237600858 -0.06944016666067554
 -0.0014490171597184617 -0.008549944761090495 0.001653821800588022 0.013307563447095463 0.9925129237600858 -0.06944016666067554 0.006061042431635713 0.02938583508423619
0.11254689453939999 0.006471453374142244 0.03126260640915066 0.9919609555638296 -0.07364383516243862 0.0018745073212360107 0.014084915189440444 -0.0015973664598369804 -0.0090565346839516
 0.9919609555638296 -0.07364383516243862 0.006479769948597868 0.031261969195527005 -0.0015966574310403334 -0.009056585587363547 0.0018244782228802323 0.014091913472640227
 0.0018745073212360107 0.014084915189440444 -0.0015966574310403334 -0.009056585587363547 0.006471546173056663 0.031261143105109725 0.9919608833315621 -0.0736453466447823
 -0.0015973664598369804 -0.0090565346839516 0.0018244782228802323 0.014091913472640227 0.9919608833315621 -0.0736453466447823 0.0064795498672909615 0.03126049293870785
0.11879949979160001 0.0069077428163859655 0.033151599232541885 0.9913847578071889 -0.07786160299949284 0.002059907000594355 0.014867693855279819 -0.0017535935491222441 -0.009562726705311385
 0.9913847578071889 -0.07786160299949284 0.006917007910026913 0.03315089245614931 -0.001752805691162538 -0.009562787992504231 0.002004137619108989 0.014875686673026666
 0.002059907000594355 0.014867693855279819 -0.001752805691162538 -0.009562787992504231 0.006907846485994197 0.033150058849246586 0.9913846773231615 -0.07786319980100646
 -0.0017535935491222441 -0.009562726705311385 0.002004137619108989 0.014875686673026666 0.9913846773231615 -0.07786319980100646 0.006916763948407615 0.03314933742154273
0.1250521050438 0.007362972397406198 0.03505450492781818 0.9907841157393835 -0.08209183172113246 0.0022546878838403538 0.015649668699952213 -0.0019177641784341001 -0.010068385191870482
 0.9907841157393835 -0.08209183172113246 0.007373237454948232 0.0350537239820465 -0.001916893555558765 -0.010068458000085668 0.0021928640458603373 0.01565874757963212
 0.0022546878838403538 0.015649668699952213 -0.001916893555558765 -0.010068458000085668 0.007363087569576854 0.03505288808608004 0.9907840265046096 -0.0820935140883152
 -0.0019177641784341001 -0.010068385191870482 0.0021928640458603373 0.01565874757963212 0.9907840265046096 -0.0820935140883152 0.007372968499663947 0.035052090710559806
0.131304710296 0.007837423550771282 0.036971043551997394 0.9901587519957414 -0.08633430046711241 0.0024589118210867848 0.01643069720024127 -0.00208994169991915 -0.010573372189447703
 0.9901587519957414 -0.08633430046711241 0.007848740104422654 0.03697018366394836 -0.0020889844099642434 -0.010573457707098907 0.0023907192332794478 0.016440958051448
 0.0024589118210867848 0.01643069720024127 -0.0020889844099642434 -0.010573457707098907 0.007837550867283535 0.03696935089947522 0.9901586535000524 -0.0863360686612314
 -0.00208994169991915 -0.010573372189447703 0.0023907192332794478 0.016440958051448 0.9901586535000524 -0.0863360686612314 0.007848445060739735 0.036968472727461274
0.1375573155481 0.008222055322671834 0.038652144140669614 0.9896177510660921 -0.09033988804866032 0.0026469531691975874 0.017186073134788978 -0.002244584275435358 -0.011052943278042288
 0.9896177510660921 -0.09033988804866032 0.008234479810424234 0.038651218411824784 -0.002243534791255703 -0.011053041614406846 0.0025722342697565305 0.01719750098159526
 0.0026469531691975874 0.017186073134788978 -0.002243534791255703 -0.011053041614406846 0.00822219636914653 0.03865037565191908 0.9896176428828446 -0.09034174221421915
 -0.002244584275435358 -0.011052943278042288 0.0025722342697565305 0.01719750098159526 0.9896176428828446 -0.09034174221421915 0.008234156492471362 0.038649430875338835
0.1438099208003 0.008620218424442478 0.04032449845641724 0.9890577346646532 -0.09433540734196434 0.002842590408390832 0.017938354271993955 -0.0024054047130272985 -0.011529699993609026
 0.9890577346646532 -0.09433540734196434 0.008633803273585917 0.040323503157141845 -0.0024042588878593458 -0.011529812311367162 0.0027610590579232423 0.017951036828977415
 0.002842590408390832 0.017938354271993955 -0.0024042588878593458 -0.011529812311367162 0.008620374028095247 0.0403226547397741 0.9890576162852588 -0.09433734773202478
 -0.0024054047130272985 -0.011529699993609026 0.0027610590579232423 0.017951036828977415 0.9890576162852588 -0.09433734773202478 0.0086334504152278 0.04032163968344744
0.1500625260525 0.009031773906167433 0.04198796933551273 0.9884788456895434 -0.09832076139258564 0.003045756629019002 0.018687462951927775 -0.0025723385669106174 -0.012003569992720467
 0.9884788456895434 -0.09832076139258564 0.009046571661700023 0.04198690051835443 -0.0025710922664704096 -0.012003697500710207 0.0029571283884605912 0.01870149113216776
 0.003045756629019002 0.018687462951927775 -0.0025710922664704096 -0.012003697500710207 0.009031944914894488 0.041986051019420996 0.988478716595891 -0.09832278827074589
 -0.0025723385669106174 -0.012003569992720467 0.0029571283884605912 0.01870149113216776 0.988478716595891 -0.09832278827074589 0.00904618800200689 0.04198496179786127
0.15631513130469998 0.00945658185052772 0.043642423761296276 0.9878812277420524 -0.10229585354154025 0.0032563841355978903 0.019433322823839663 -0.002745320605797039 -0.01247448245039619
