! Created with skrf 1.8.0 (http://scikit-rf.org).
# GHz S RI R 50.0 
!freq ReS11 ImS11 ReS12 ImS12 ReS13 ImS13
! ReS14 ImS14
! ReS21 ImS21 ReS22 ImS22 ReS23 ImS23
! ReS24 ImS24
! ReS31 ImS31 ReS32 ImS32 ReS33 ImS33
! ReS34 ImS34
! ReS41 ImS41 ReS42 ImS42 ReS43 ImS43
! ReS44 ImS44
!
0.0 0.001585443045241 0.0 0.9984145569477 0.0 6.111965987788e-05 0.0 -6.111965966724e-05 7.484999557646105e-21
 0.9984145569477 0.0 0.001585443045257 0.0 -6.1119659667e-05 7.484999557616713e-21 6.111965987837e-05 0.0
 6.111965987788e-05 0.0 -6.1119659667e-05 7.484999557616713e-21 0.00158544303155 0.0 0.998414556934 0.0
 -6.111965966724e-05 7.484999557646105e-21 6.111965987837e-05 0.0 0.998414556934 0.0 0.001585443031578 0.0
0.005 0.0017059138497370532 0.0012988319496193268 0.9982621463063064 -0.003320866523611725 8.53587866981423e-05 0.0006616806026900729 -8.299997477218065e-05 -0.0004173476871135682
 0.9982621463063064 -0.003320866523611725 0.0017059064724850013 0.0012988362946829768 -8.30023630460599e-05 -0.00041734954839745155 8.537611461298794e-05 0.0006616736799828324
 8.53587866981423e-05 0.0006616806026900729 -8.30023630460599e-05 -0.00041734954839745155 0.0017059128348094158 0.0012988998474965526 0.9982621466650823 -0.0033207994658903737
 -8.299997477218065e-05 -0.0004173476871135682 8.537611461298794e-05 0.0006616736799828324 0.9982621466650823 -0.0033207994658903737 0.0017059082020396648 0.0012989025106486943
0.006252605252188 0.0017375473974115992 0.0016286350327649301 0.9982218724480452 -0.004151888620182217 9.22886585286214e-05 0.0008274253259886137 -8.918936954615296e-05 -0.0005222193032087881
 0.9982218724480452 -0.004151888620182217 0.0017375358659624022 0.0016286406293555828 -8.919308567899305e-05 -0.0005222215985764281 9.231572784979915e-05 0.0008274163896309674
 9.22886585286214e-05 0.0008274253259886137 -8.919308567899305e-05 -0.0005222215985764281 0.0017375457477985465 0.001628719908171125 0.9982218729463792 -0.004151804798976626
 -8.918936954615296e-05 -0.0005222193032087881 9.231572784979915e-05 0.0008274163896309674 0.9982218729463792 -0.004151804798976626 0.0017375385073779672 0.0016287233924909194
0.01250521050438 0.0019042924322939143 0.003291258958533307 0.9980081815434225 -0.008304528499349968 0.0001320564668430455 0.0016552369759580065 -0.00012437025340291915 -0.0010469354938614109
 0.9980081815434225 -0.008304528499349968 0.001904246390417487 0.0032912718550851153 -0.00012438489585271724 -0.0010469397415068023 0.00013216429277501307 0.0016552160036973813
 0.0001320564668430455 0.0016552369759580065 -0.00012438489585271724 -0.0010469397415068023 0.001904285245088452 0.0032914285077226104 0.9980081829401136 -0.008304361105066419
 -0.00012437025340291915 -0.0010469354938614109 0.00013216429277501307 0.0016552160036973813 0.9980081829401136 -0.008304361105066419 0.0019042563495320936 0.0032914370553880855
0.01875781575657 0.0020860500963893755 0.0049774291583740225 0.9977732128106594 -0.012468015082768933 0.00018051753957042523 0.0024839706174046403 -0.00016677197843749866 -0.0015734039245992413
 0.9977732128106594 -0.012468015082768933 0.002085946641789852 0.0049774512424897955 -0.0001668046280622443 -0.0015734097140355401 0.00018075947706725154 0.002483933817281018
 0.00018051753957042523 0.0024839706174046403 -0.0001668046280622443 -0.0015734097140355401 0.0020860335109427475 0.00497768336217023 0.9977732155283323 -0.01246776420432742
 -0.00016677197843749866 -0.0015734039245992413 0.00018075947706725154 0.002483933817281018 0.9977732155283323 -0.01246776420432742 0.0020859686084514334 0.004977698657999937
0.02501042100875 0.002283180921847145 0.0066847799787291716 0.9975166838945414 -0.01664435535057561 0.00023776726158579957 0.0033136519981033785 -0.00021650057229329354 -0.0021013836738794475
 0.9975166838945414 -0.01664435535057561 0.0022829972043874815 0.006684813320044847 -0.00021655822408013937 -0.002101390520039837 0.00023819651948928176 0.0033135949274690026
 0.00023776726158579957 0.0033136519981033785 -0.00021655822408013937 -0.002101390520039837 0.002283151067563576 0.006685118865829806 0.9975166883466959 -0.01664402105014438
 -0.00021650057229329354 -0.0021013836738794475 0.00023819651948928176 0.0033135949274690026 0.9975166883466959 -0.01664402105014438 0.0022830358556842458 0.006685142702128875
0.03126302626094 0.0024960305571520526 0.00841208863272698 0.9972382983148078 -0.02083440188489571 0.00030390125741832415 0.004144231895387383 -0.00027365901873761047 -0.002630702636967235
 0.9972382983148078 -0.02083440188489571 0.0024957437708824234 0.008412135484268838 -0.0002737485963444978 -0.0026307099793509113 0.00030457095604834015 0.004144149462301292
 0.00030390125741832415 0.004144231895387383 -0.0002737485963444978 -0.0026307099793509113 0.002495983561255657 0.008412512284831248 0.9972383049158225 -0.020833984192750832
 -0.00027365901873761047 -0.002630702636967235 0.00030457095604834015 0.004144149462301292 0.9972383049158225 -0.020833984192750832 0.0024958037822721633 0.008412546562400898
0.037515631513130004 0.0027249371085175814 0.010158553757405491 0.9969377530604031 -0.025038574249617463 0.00037901452189639264 0.004975631301782974 -0.0003383479753511701 -0.0031612123507173194
 0.9969377530604031 -0.025038574249617463 0.002724524487688934 0.010158616557034069 -0.0003384763385126627 -0.003161219553158327 0.00037997771882194656 0.00497551776210063
 0.00037901452189639264 0.004975631301782974 -0.0003384763385126627 -0.003161219553158327 0.0027248690933068605 0.010159062290396864 0.9969377622241261 -0.025038073183140018
 -0.0003383479753511701 -0.0031612123507173194 0.00037997771882194656 0.00497551776210063 0.9969377622241261 -0.025038073183140018 0.0027246105318705725 0.010159109019222365
0.043768236765320004 0.0029702339675483007 0.011923575873414848 0.9966147416695548 -0.029257078458002354 0.0004632010003062719 0.005807755181737434 -0.0004106660290189775 -0.0036927742443404175
 0.9966147416695548 -0.029257078458002354 0.0029696727843340513 0.011923657245471456 -0.0004108399779406536 -0.0036927805949404802 0.0004645107025615384 0.0058076041349288746
 0.0004632010003062719 0.005807755181737434 -0.0004108399779406536 -0.0036927805949404802 0.002970141052452994 0.011924169433828277 0.9966147538118902 -0.029256494025557803
 -0.0004106660290189775 -0.0036927742443404175 0.0004645107025615384 0.0058076041349288746 0.9966147538118902 -0.029256494025557803 0.002969789533872743 0.011924230733746613
0.050020842017509996 0.0032322511269444096 0.01370666662974307 0.9962689558010516 -0.033489997653894814 0.0005565533353004116 0.006640498133458471 -0.0004907097789656833 -0.004225253986640455
 0.9962689558010516 -0.033489997653894814 0.003231518690301743 0.013706769386526972 -0.0004909360571306666 -0.0042252586977817586 0.000558262504175561 0.006640302517844598
 0.0005565533353004116 0.006640498133458471 -0.0004909360571306666 -0.0042252586977817586 0.0032321294260473964 0.01370734539352643 0.9962689713381189 -0.033489329856384496
 -0.0004907097789656833 -0.004225253986640455 0.000558262504175561 0.006640302517844598 0.9962689713381189 -0.033489329856384496 0.0032316708153477844 0.01370742349466713
0.055454545454549996 0.0034737851334170193 0.015270571750158538 0.9959497215378014 -0.03718024456866738 0.0006451939724398533 0.007364592177617399 -0.0005666179744085007 -0.0046886372143240115
 0.9959497215378014 -0.03718024456866738 0.003472885472345965 0.015270695522123071 -0.0005668951621382385 -0.004688639802294296 0.0006472932661051519 0.00736435157822986
 0.0006451939724398533 0.007364592177617399 -0.0005668951621382385 -0.004688639802294296 0.0034736352577373255 0.015271324722540894 0.9959497403645093 -0.03717950432107371
 -0.0005666179744085007 -0.0046886372143240115 0.0006472932661051519 0.00736435157822986 0.9959497403645093 -0.03717950432107371 0.0034730721316866783 0.015271419321686757
0.056273447269699996 0.003511315843760853 0.015507404284334997 0.9959000861560328 -0.037737336558256535 0.0006591626786328555 0.007473747191789473 -0.0005785738509264512 -0.004758518695347003
 0.9959000861560328 -0.037737336558256535 0.0035103894984729843 0.01550753142781075 -0.0005788591469277469 -0.004758520903718012 0.0006613242304713548 0.0074734992796190915
 0.0006591626786328555 0.007473747191789473 -0.0005788591469277469 -0.004758520903718012 0.0035111614669602617 0.01550816845712555 0.9959001055059303 -0.037736585389248366
 -0.0005785738509264512 -0.004758518695347003 0.0006613242304713548 0.0074734992796190915 0.9959001055059303 -0.037736585389248366 0.0035105816680886764 0.01550826570049331
0.06252605252188 0.0038077529976063393 0.01732540920778038 0.9955078231002766 -0.041999045896278384 0.000771118542604923 0.008307383355849343 -0.0006743508690059564 -0.005292435425757566
 0.9955078231002766 -0.041999045896278384 0.003806610124361675 0.01732556393115646 -0.0006747018178654594 -0.005292434192396532 0.0007737853464830293 0.008307074748248135
 0.000771118542604923 0.008307383355849343 -0.0006747018178654594 -0.005292434192396532 0.003807562050119141 0.017326259027604794 0.9955078466825389 -0.04199821133967443
 -0.0006743508690059564 -0.005292435425757566 0.0007737853464830293 0.008307074748248135 0.9955078466825389 -0.04199821133967443 0.0038068470053739113 0.017326377865622345
0.06877865777407 0.004121885270587506 0.01916032929901737 0.9950918571103181 -0.04627503691658905 0.0008925086682174361 0.00914128251172093 -0.0007781314084491679 -0.005826870268787103
 0.9950918571103181 -0.04627503691658905 0.004120503285283808 0.019160514988418056 -0.0007785545923680774 -0.005826864579150222 0.0008957335415938848 0.00914090413369038
 0.0008925086682174361 0.00914128251172093 -0.0007785545923680774 -0.005826864579150222 0.004121653852694397 0.019161265031490047 0.9950918853466636 -0.046274118951912094
 -0.0007781314084491679 -0.005826870268787103 0.0008957335415938848 0.00914090413369038 0.9950918853466636 -0.046274118951912094 0.00412078954241474 0.01916140802845896
0.07503126302626001 0.004454033226464092 0.021011830722224404 0.9946518791251688 -0.05056519059433874 0.0010234189055306367 0.009975316023824702 -0.0008900039338253573 -0.006361687785246835
 0.9946518791251688 -0.05056519059433874 0.004452389580956019 0.021012050958319376 -0.0008905058828406922 -0.006361676549261555 0.0010272546087117763 0.009974858119275964
 0.0010234189055306367 0.009975316023824702 -0.0008905058828406922 -0.006361676549261555 0.004453757434070426 0.021012852666276265 0.9946519124392725 -0.05056418919131406
 -0.0008900039338253573 -0.006361687785246835 0.0010272546087117763 0.009974858119275964 0.9946519124392725 -0.05056418919131406 0.0044527298760039255 0.0210130224990256
0.08128386827845 0.004804515326669113 0.02287959176168183 0.9941875808365627 -0.05486936372166477 0.0011639331021131944 0.010809351125760184 -0.0010100547278504182 -0.006896750645762396
 0.9941875808365627 -0.05486936372166477 0.004802587508751621 0.02287985032144387 -0.0010106419200867419 -0.006896732697914832 0.0011684323311529046 0.010808803252629132
 0.0011639331021131944 0.010809351125760184 -0.0010106419200867419 -0.006896732697914832 0.004804191250878087 0.022880700244964462 0.9941876196549619 -0.05486827884540629
 -0.0010100547278504182 -0.006896750645762396 0.0011684323311529046 0.010808803252629132 0.9941876196549619 -0.05486827884540629 0.004802986500355152 0.022880899703317453
0.08753647353064001 0.005173647903009288 0.024763298555707088 0.9936986549416948 -0.059187393125123756 0.0013141329940332977 0.011643251209736505 -0.0011383678155751722 -0.007431919377380472
 0.9936986549416948 -0.059187393125123756 0.005171413436876591 0.024763599414120003 -0.0011390466774462147 -0.0074318934767936325 0.0013193483730213431 0.011642602235288063
 0.0013141329940332977 0.011643251209736505 -0.0011390466774462147 -0.0074318934767936325 0.005173271630210675 0.024764493938847765 0.9936986996934201 -0.05918622473219486
 -0.0011383678155751722 -0.007431919377380472 0.0013193483730213431 0.011642602235288063 0.9936986996934201 -0.05918622473219486 0.0051718757795173355 0.024764725926332137
0.09378907878283 0.005561745100087689 0.026662642071019947 0.9931847953683794 -0.0635190986486844 0.0014740981017225207 0.012476876029864983 -0.001275024882607963 -0.00796705220195141
 0.9931847953683794 -0.0635190986486844 0.005559181546898833 0.02666298940277679 -0.0012758017888275352 -0.007967017032477566 0.001480082174155811 0.01247611412603922
 0.0014740981017225207 0.012476876029864983 -0.0012758017888275352 -0.007967017032477566 0.005561312712394672 0.026663924744225805 0.9931848464855693 -0.06351784669104485
 -0.001275024882607963 -0.00796705220195141 0.001480082174155811 0.01247611412603922 0.9931848464855693 -0.06351784669104485 0.0055597118909001516 0.026664192278582723
0.100041684035 0.005969118797971309 0.02857731586908724 0.9926456974842627 -0.06786428535128564 0.0016439056266959644 0.013310081865602482 -0.001420105191202214 -0.0085020049199213
 0.9926456974842627 -0.06786428535128564 0.005966203756257794 0.02857771405049056 -0.0014209864646981618 -0.008501959090252484 0.0016507108461303861 0.01330919450456778
 0.0016439056266959644 0.013310081865602482 -0.0014209864646981618 -0.008501959090252484 0.005968626372880581 0.028578686255056024 0.9926457554023271 -0.06786294977385016
 -0.001420105191202214 -0.0085020049199213 0.0016507108461303861 0.01330919450456778 0.9926457554023271 -0.06786294977385016 0.005966806746801302 0.028578992468953922
0.1059090909091 0.006369203322536468 0.03038770472160612 0.9921165874044274 -0.0719538579966559 0.0018122701952351485 0.014091445147085392 -0.001563976922258185 -0.009003706858890887
 0.9921165874044274 -0.0719538579966559 0.006365938106554666 0.030388154781233523 -0.0015649618377735419 -0.00900364969351104 0.0018198935913320159 0.014090428036742974
 0.0018122701952351485 0.014091445147085392 -0.0015649618377735419 -0.00900364969351104 0.006368650987549311 0.030389157829612688 0.9921166521036924 -0.07195244389543644
 -0.001563976922258185 -0.009003706858890887 0.0018198935913320159 0.014090428036742974 0.9921166521036924 -0.07195244389543644 0.006366613487627516 0.030389503292258344
0.1062942892872 0.00639607851761788 0.030507014437268186 0.9920810582925697 -0.07222274514637606 0.0018236303501794466 0.014142721650905018 -0.0015736854932296642 -0.009036630834297317
 0.9920810582925697 -0.07222274514637606 0.006392789624489208 0.030507468047853686 -0.001574677405041632 -0.009036572878059384 0.0018313090705364477 0.014141695600793478
 0.0018236303501794466 0.014142721650905018 -0.001574677405041632 -0.009036572878059384 0.0063955221284843575 0.030508472991011767 0.9920811234506813 -0.07222132588768017
 -0.0015736854932296642 -0.009036630834297317 0.0018313090705364477 0.014141695600793478 0.9920811234506813 -0.07222132588768017 0.00639346990072874 0.030508821132743672
0.11254689453939999 0.006842931315181159 0.03245143191929961 0.9914905766198692 -0.07659425804889272 0.002013344532734438 0.014974645080766662 -0.0017358399416278537 -0.009570780703149349
 0.9914905766198692 -0.07659425804889272 0.006839246246675908 0.03245194574380834 -0.001736948710602784 -0.009570709079041716 0.0020219489979604846 0.014973466401568354
 0.002013344532734438 0.014974645080766662 -0.001736948710602784 -0.009570709079041716 0.006842307031353656 0.03245297912872698 0.9914906494609017 -0.07659275504096015
 -0.0017358399416278537 -0.009570780703149349 0.0020219489979604846 0.014973466401568354 0.9914906494609017 -0.07659275504096015 0.006840008441614673 0.032453372562867136
0.11879949979160001 0.0073099816667626894 0.03441026111955709 0.9908739532970404 -0.08097859315575726 0.0022131178145511736 0.015805698706996888 -0.0019066400003440594 -0.010104302708981919
 0.9908739532970404 -0.08097859315575726 0.007305878138803135 0.034410840149717334 -0.0019078717928902287 -0.010104215800900491 0.002222700147727323 0.015804352746635875
 0.0022131178145511736 0.015805698706996888 -0.0019078717928902287 -0.010104215800900491 0.0073092855535014266 0.03441189750337756 0.9908740342680808 -0.08097700632678012
 -0.0019066400003440594 -0.010104302708981919 0.002222700147727323 0.015804352746635875 0.9908740342680808 -0.08097700632678012 0.0073067268779264515 0.0344123397116238
0.1250521050438 0.007797531345161085 0.03638319272980661 0.9902308913360405 -0.08537550941119945 0.002423017116327211 0.01663572602024067 -0.0020861543532485526 -0.010637042448018176
 0.9902308913360405 -0.08537550941119945 0.007792987114440205 0.03638384216624167 -0.0020875152829620265 -0.010636938565204793 0.0024336293086374213 0.01663419741091743
 0.002423017116327211 0.01663572602024067 -0.0020875152829620265 -0.010636938565204793 0.007796759464008636 0.036384918843281676 0.9902309808887266 -0.0853738386802759
 -0.0020861543532485526 -0.010637042448018176 0.0024336293086374213 0.01663419741091743 0.9902309808887266 -0.0853738386802759 0.007793927015540136 0.03638541342515676
0.131304710296 0.008305879291210523 0.038369914705826166 0.9895610961037182 -0.08978475622983786 0.002643106541054886 0.017464567526931825 -0.0022744488119780886 -0.011168842930855405
 0.9895610961037182 -0.08978475622983786 0.00830087215661269 0.03837063995993357 -0.002275944939320699 -0.01116872030804735 0.002654800440159646 0.017462840181588418
 0.002643106541054886 0.017464567526931825 -0.002275944939320699 -0.01116872030804735 0.008305027700213937 0.038371731136803394 0.9895611946942083 -0.08978300151148422
 -0.0022744488119780886 -0.011168842930855405 0.002654800440159646 0.017462840181588418 0.9895611946942083 -0.08978300151148422 0.008301907828487921 0.0383722818104977
0.1375573155481 0.008720275284326258 0.040111847854480485 0.9889793701163184 -0.09394767445530133 0.002845931385506694 0.018266561616282297 -0.0024440661594682307 -0.011674071286693774
 0.9889793701163184 -0.09394767445530133 0.008714782297805325 0.04011263800818269 -0.0024457065557806044 -0.011673929734907386 0.0028587449615618903 0.018264637316662287
 0.002845931385506694 0.018266561616282297 -0.0024457065557806044 -0.011673929734907386 0.008719340804221416 0.040113755105641684 0.9889794781551642 -0.09394583573382945
 -0.0024440661594682307 -0.011674071286693774 0.0028587449615618903 0.018264637316662287 0.9889794781551642 -0.09394583573382945 0.008715917671274359 0.040114349552938
0.1438099208003 0.009149312860729928 0.04184436030591222 0.988377085609037 -0.09809978156560806 0.003056934182196787 0.019065148482626908 -0.0026204544071994143 -0.012176151066801552
 0.988377085609037 -0.09809978156560806 0.009143311780980776 0.04184521954888014 -0.002622245598443162 -0.01217598884268745 0.0030709165636580694 0.019063012279541016
 0.003056934182196787 0.019065148482626908 -0.002622245598443162 -0.01217598884268745 0.009148291682231097 0.041846358971588955 0.9883772035494428 -0.09809785876450614
 -0.0026204544071994143 -0.012176151066801552 0.0030709165636580694 0.019063012279541016 0.9883772035494428 -0.09809785876450614 0.009144551331723764 0.04184699966948447
0.1500625260525 0.009592837608861012 0.04356729946549703 0.9877544012388396 -0.10224096646079626 0.003276039651137994 0.019860241760357777 -0.002803539953403244 -0.012675000017014286
 0.9877544012388396 -0.10224096646079626 0.00958630623157142 0.043568232171125175 -0.0028054884506873734 -0.01267481530702689 0.003291239669328651 0.01985787815076455
 0.003276039651137994 0.019860241760357777 -0.0028054884506873734 -0.01267481530702689 0.009591725928301691 0.04356939016550279 0.9877545295373414 -0.10223895949981272
 -0.002803539953403244 -0.012675000017014286 0.003291239669328651 0.01985787815076455 0.9877545295373414 -0.10223895949981272 0.009587654419256592 0.04357007970605203
0.15631513130469998 0.01005069398087901 0.04528051730749682 0.9871114765127906 -0.10637111860130234 0.0035031716002179797 0.02065175661135197 -0.0029932482673016916 -0.013170537660318593
