! Created with skrf 1.8.0 (http://scikit-rf.org).
# GHz S RI R 50.0 
!freq ReS11 ImS11 ReS12 ImS12 ReS13 ImS13
! ReS14 ImS14
! ReS21 ImS21 ReS22 ImS22 ReS23 ImS23
! ReS24 ImS24
! ReS31 ImS31 ReS32 ImS32 ReS33 ImS33
! ReS34 ImS34
! ReS41 ImS41 ReS42 ImS42 ReS43 ImS43
! ReS44 ImS44
!
0.0 0.001554838305899 0.0 0.9984451616827 0.0 6.014718624088e-05 0.0 -6.014718597469e-05 7.365905878162468e-21
 0.9984451616827 0.0 0.001554838305902 0.0 -6.014718597509e-05 7.365905878211454e-21 6.014718624173e-05 0.0
 6.014718624088e-05 0.0 -6.014718597509e-05 7.365905878211454e-21 0.001554838308758 0.0 0.9984451616856 0.0
 -6.014718597469e-05 7.365905878162468e-21 6.014718624173e-05 0.0 0.9984451616856 0.0 0.001554838308745 0.0
0.005 0.001672947184893411 0.0012690338509449796 0.9982957281283388 -0.0032571363533068667 8.470639570826214e-05 0.0006800874586582263 -8.217906424126873e-05 -0.0004238344970574739
 0.9982957281283388 -0.0032571363533068667 0.001672948360981416 0.0012690330850628126 -8.218082122131437e-05 -0.00042383575083728315 8.470859084099497e-05 0.0006800868235066032
 8.470639570826214e-05 0.0006800874586582263 -8.218082122131437e-05 -0.00042383575083728315 0.0016729471170039377 0.0012691011012333148 0.9982957284900554 -0.003257069286643376
 -8.217906424126873e-05 -0.0004238344970574739 8.470859084099497e-05 0.0006800868235066032 0.9982957284900554 -0.003257069286643376 0.0016729491428928796 0.0012690999584870613
0.006252605252188 0.0017039345837452334 0.0015912964135401091 0.9982562732427136 -0.004072216551494213 9.172300681675605e-05 0.0008504303813216 -8.840594779020169e-05 -0.0005303443534264729
 0.9982562732427136 -0.004072216551494213 0.0017039364222209616 0.001591295375740204 -8.840868256328257e-05 -0.0005303458972575323 9.172643886512948e-05 0.0008504295242366709
 9.172300681675605e-05 0.0008504303813216 -8.840868256328257e-05 -0.0005303458972575323 0.0017039344038743691 0.0015913804516939777 0.9982562737341437 -0.0040721327307515175
 -8.840594779020169e-05 -0.0005303443534264729 9.172643886512948e-05 0.0008504295242366709 0.9982562737341437 -0.0040721327307515175 0.0017039375697534853 0.001591378957894617
0.01250521050438 0.0018671229858824902 0.003216017921887483 0.998047112392847 -0.008145239005998953 0.00013196270204098986 0.0017011656951927661 -0.00012377119500409873 -0.0010632684471630534
 0.998047112392847 -0.008145239005998953 0.0018671303322978258 0.0032160150227566113 -0.00012378198192808688 -0.0010632712769227375 0.00013197646169359805 0.0017011633234585164
 0.00013196270204098986 0.0017011656951927661 -0.00012378198192808688 -0.0010632712769227375 0.001867121703138815 0.003216185627727955 0.9980471137856902 -0.00814507158452119
 -0.00012377119500409873 -0.0010632684471630534 0.00013197646169359805 0.0017011633234585164 0.9980471137856902 -0.00814507158452119 0.0018671343319098198 0.003216181965119006
0.01875781575657 0.0020447628166410927 0.004863920492465601 0.9978174170515364 -0.012228979959882334 0.00018096001849189137 0.0025527927102207072 -0.00016635288894320074 -0.0015979789805503943
 0.9978174170515364 -0.012228979959882334 0.0020447793361707124 0.004863914844370725 -0.000166376957281148 -0.0015979827846960273 0.00018099110006977468 0.0025527880788209292
 0.00018096001849189137 0.0025527927102207072 -0.000166376957281148 -0.0015979827846960273 0.002044759523864535 0.00486417158247892 0.9978174197635907 -0.012228728998620512
 -0.00016635288894320074 -0.0015979789805503943 0.00018099110006977468 0.0025527880788209292 0.9978174197635907 -0.012228728998620512 0.002044787877297946 0.004864165003574784
0.02501042100875 0.002237202573251259 0.006532687340685802 0.9975669147111066 -0.016325413818732353 0.00023880989563801504 0.00340534888303881 -0.00021625726409534973 -0.0021342258924065423
 0.9975669147111066 -0.016325413818732353 0.002237231927025548 0.006532677988813332 -0.00021629978485603431 -0.002134230300738269 0.00023886539805054923 0.0034053411512078614
 0.00023880989563801504 0.00340534888303881 -0.00021629978485603431 -0.002134230300738269 0.002237196366486595 0.006533021527142605 0.9975669191599352 -0.01632507930945407
 -0.00021625726409534973 -0.0021342258924065423 0.00023886539805054923 0.0034053411512078614 0.9975669191599352 -0.01632507930945407 0.002237246677023988 0.006533011211096674
0.03126302626094 0.0024447763367136392 0.008221123517777876 0.9972953190805394 -0.020435382178588056 0.0003056076768488907 0.004258791138547229 -0.0002735874609598454 -0.002671833596929732
 0.9972953190805394 -0.020435382178588056 0.0024448221806995557 0.008221109438882226 -0.00027365355674766517 -0.002671838179888123 0.0003056948056473373 0.004258779365926461
 0.0003056076768488907 0.004258791138547229 -0.00027365355674766517 -0.002671838179888123 0.002444766317281814 0.00822154047069493 0.997295325688787 -0.020434964081437593
 -0.0002735874609598454 -0.002671833596929732 0.0003056948056473373 0.004258779365926461 0.997295325688787 -0.020434964081437593 0.0024448447895212815 0.008221525522488456
0.037515631513130004 0.0026678109118505105 0.009928447846687784 0.997002337462225 -0.024559301828767012 0.0003814481759444951 0.005113044582584009 -0.0003384442963652046 -0.003210652277071916
 0.997002337462225 -0.024559301828767012 0.0026678768959075287 0.009928427948029863 -0.00033853904634569937 -0.0032106565454718284 0.00038157424465740623 0.0051130277259216796
 0.0003814481759444951 0.005113044582584009 -0.00033853904634569937 -0.0032106565454718284 0.0026677961822876915 0.009928947201341317 0.997002346655974 -0.024558800064329558
 -0.0003384442963652046 -0.003210652277071916 0.00038157424465740623 0.0051130277259216796 0.997002346655974 -0.024558800064329558 0.002667908993317045 0.009928926650852451
0.043768236765320004 0.00290662858712756 0.011654077458481673 0.996687673748256 -0.028697380144839166 0.00046642523700114784 0.005968017312390617 -0.0004109265375781145 -0.003750543078954459
 0.996687673748256 -0.028697380144839166 0.0029067183533896786 0.011654050577076634 -0.0004110549802978433 -0.003750546483836929 0.000466597667929661 0.0059679942224000445
 0.00046642523700114784 0.005968017312390617 -0.0004110549802978433 -0.003750546483836929 0.0029066082515295014 0.01165465880793955 0.9966876859598648 -0.02869679460140774
 -0.0004109265375781145 -0.003750543078954459 0.000466597667929661 0.0059679942224000445 0.9966876859598648 -0.02869679460140774 0.002906761550630356 0.011654631609218336
0.050020842017509996 0.0031615484148679574 0.013397538736196275 0.9963510299413613 -0.03284970407294537 0.0005606314683459815 0.0068236065396813286 -0.0004911309995042267 -0.00429137199560973
 0.9963510299413613 -0.03284970407294537 0.003161665596294009 0.013397503638059215 -0.0004912981346175896 -0.00429137392813941 0.0005608577933458596 0.006823575957899619
 0.0005606314683459815 0.0068236065396813286 -0.0004912981346175896 -0.00429137392813941 0.003161521577019594 0.013398201620827116 0.9963510456102381 -0.0328490346167179
 -0.0004911309995042267 -0.00429137199560973 0.0005608577933458596 0.006823575957899619 0.9963510456102381 -0.0328490346167179 0.0031617214853646514 0.013398166651369971
0.055454545454549996 0.0033964042324323013 0.014926822812528898 0.9960403935530465 -0.03646977789999174 0.00065006560789436 0.007567554387929223 -0.0005671762337759151 -0.004762027924568121
 0.9960403935530465 -0.03646977789999174 0.003396548180706115 0.014926779516017764 -0.000567381024726562 -0.004762028036569541 0.0006503449706825316 0.007567516186395609
 0.00065006560789436 0.007567554387929223 -0.000567381024726562 -0.004762028036569541 0.00339637101405643 0.014927556149256291 0.9960404125885097 -0.03646903538522312
 -0.0005671762337759151 -0.004762027924568121 0.0006503449706825316 0.007567516186395609 0.9960404125885097 -0.03646903538522312 0.0033966163758973045 0.014927513455200088
0.056273447269699996 0.0034328868655879915 0.015158423600566222 0.9959921070528921 -0.03701628377348691 0.0006641580522587879 0.007679701595090233 -0.0005791525641092899 -0.00483300687251915
 0.9959921070528921 -0.03701628377348691 0.0034330350845271427 0.015158378980047594 -0.0005793633535071989 -0.00483300666390741 0.0006644459131950341 0.007679662150767125
 0.0006641580522587879 0.007679701595090233 -0.0005793633535071989 -0.00483300666390741 0.0034328526266097985 0.01515916751899752 0.9959921266251391 -0.03701553023734357
 -0.0005791525641092899 -0.00483300687251915 0.0006644459131950341 0.007679662150767125 0.9959921266251391 -0.03701553023734357 0.0034331052362799623 0.01515912357905773
0.06252605252188 0.003720958175231314 0.016936365489536444 0.9956106056979147 -0.041197076573994795 0.0007770945927031806 0.008536185581662822 -0.0006750841596385689 -0.005375315768046353
 0.9956106056979147 -0.041197076573994795 0.003721141041944572 0.01693630996868938 -0.0006753435280836591 -0.0053753126894935084 0.0007774517419667287 0.008536135788620869
 0.0007770945927031806 0.008536185581662822 -0.0006753435280836591 -0.0053753126894935084 0.003720915633358526 0.01693718989018904 0.9956106296290947 -0.04119623876592775
 -0.0006750841596385689 -0.005375315768046353 0.0007774517419667287 0.008536135788620869 0.9956106296290947 -0.04119623876592775 0.003721227006964862 0.01693713570207026
0.06877865777407 0.004026074527137905 0.018731025030050304 0.9952062265290892 -0.04539200123403482 0.0008995289833361213 0.009392936366892594 -0.0007790167175962737 -0.005918165979689858
 0.9952062265290892 -0.04539200123403482 0.004026295638102996 0.01873095715810395 -0.0007793295531545035 -0.005918159242332748 0.0008999632843744924 0.009392874620381795
 0.0008995289833361213 0.009392936366892594 -0.0007793295531545035 -0.005918159242332748 0.00402602277548168 0.018731929313943286 0.9952062552838331 -0.045391078934138136
 -0.0007790167175962737 -0.005918165979689858 0.0008999632843744924 0.009392874620381795 0.9952062552838331 -0.045391078934138136 0.0040263989447313275 0.018731863521422972
0.07503126302626001 0.004348546131695815 0.020542080955835283 0.9947786705719556 -0.04960094696840424 0.0010315472895843145 0.010249827211304567 -0.0008910391142509263 -0.0064614234384745015
 0.9947786705719556 -0.04960094696840424 0.004348809067667302 0.020541999208609114 -0.000891410268401625 -0.006461412193347962 0.0010320667169240558 0.010249751784804513
 0.0010315472895843145 0.010249827211304567 -0.000891410268401625 -0.006461412193347962 0.004348484256867155 0.020543064477923034 0.9947787046251507 -0.049599939927568455
 -0.0008910391142509263 -0.0064614234384745015 0.0010320667169240558 0.010249751784804513 0.9947787046251507 -0.049599939927568455 0.004348931221867371 0.020542985645566468
0.08128386827845 0.0046886812463350375 0.02236922407195108 0.994327639504131 -0.05382377942887877 0.0011732336359563148 0.01110672719948375 -0.0010112381045730382 -0.007004952305791629
 0.994327639504131 -0.05382377942887877 0.004688989570922574 0.022369126851386926 -0.0010116723922694042 -0.007004935643806795 0.0011738462758888177 0.0111066362414875
 0.0011732336359563148 0.01110672719948375 -0.0010116723922694042 -0.007004935643806795 0.004688608327471121 0.02237028613552156 0.9943276793426692 -0.05382268737437852
 -0.0010112381045730382 -0.007004952305791629 0.0011738462758888177 0.0111066362414875 0.9943276793426692 -0.05382268737437852 0.004689132055518911 0.022370192748108718
0.08753647353064001 0.005046786152492866 0.024212153069606945 0.9938528358959763 -0.05806034484101172 0.0013246701006542746 0.011963501537363622 -0.0011396982481643495 -0.007548614709135353
 0.9938528358959763 -0.05806034484101172 0.005047143410297738 0.024212038703310495 -0.0011402004476966186 -0.00754859166105856 0.001325384151240325 0.01196339306813207
 0.0013246701006542746 0.011963501537363622 -0.0011402004476966186 -0.00754859166105856 0.005046701259219811 0.02421329293058524 0.9938528820190587 -0.05805916747226195
 -0.0011396982481643495 -0.007548614709135353 0.001325384151240325 0.01196339306813207 0.9938528820190587 -0.05805916747226195 0.0050473076838792414 0.02421318339251853
0.09378907878283 0.005423165104871821 0.02607057155239941 0.9933539634262326 -0.062310472935310654 0.0014859366116055706 0.012820011774950632 -0.0012765018318584406 -0.008092270557639008
 0.9933539634262326 -0.062310472935310654 0.005423574819643239 0.026070438293215533 -0.0012770766846768732 -0.00809224009409254 0.0014867603829802397 0.012819883683203519
 0.0014859366116055706 0.012820011774950632 -0.0012770766846768732 -0.00809224009409254 0.005423067295840598 0.026071788418646023 0.9933540163462504 -0.06230920992474564
 -0.0012765018318584406 -0.008092270557639008 0.0014867603829802397 0.012819883683203519 0.9933540163462504 -0.06230920992474564 0.005423762315533978 0.026071661053409835
0.100041684035 0.0058181202589934955 0.027944185847844468 0.9928307270799148 -0.06657397909916302 0.0016571108457404918 0.013676115977400484 -0.001421728788140014 -0.008635777414764184
 0.9928307270799148 -0.06657397909916302 0.005818585931787191 0.027944031873468764 -0.0014223809985809048 -0.008635738446230237 0.001658052760340417 0.013675966017035204
 0.0016571108457404918 0.013676115977400484 -0.0014223809985809048 -0.008635738446230237 0.005818008580978234 0.027945478878852462 0.9928307873241442 -0.06657263009269934
 -0.001421728788140014 -0.008635777414764184 0.001658052760340417 0.013675966017035204 0.9928307873241442 -0.06657263009269934 0.0058187980577219444 0.027945331928464996
0.1059090909091 0.006205905872477983 0.029715933925898965 0.9923173051011741 -0.07058681900494312 0.0018268178053362596 0.014478980311355307 -0.001565738912190997 -0.009145536433685353
 0.9923173051011741 -0.07058681900494312 0.006206427218248722 0.029715758787903435 -0.0015664679597100983 -0.009145488439669667 0.0018278783451166525 0.014478807663704246
 0.0018268178053362596 0.014478980311355307 -0.0015664679597100983 -0.009145488439669667 0.00620578030033495 0.02971729762036858 0.992317372711641 -0.07058538895662489
 -0.001565738912190997 -0.009145536433685353 0.0018278783451166525 0.014478807663704246 0.992317372711641 -0.07058538895662489 0.006206663713128381 0.02971713061948939
0.1062942892872 0.006231951584409898 0.029832703370396008 0.9922828333348838 -0.07085066598340932 0.0018382681293099088 0.01453166885976429 -0.0015754566115059676 -0.009178990412837956
 0.9922828333348838 -0.07085066598340932 0.006232476691697566 0.0298325267830388 -0.0015761908464259214 -0.009178941789686468 0.001839336721974537 0.014531494646452026
 0.0018382681293099088 0.01453166885976429 -0.0015761908464259214 -0.009178941789686468 0.0062318250701443945 0.0298340716759421 0.9922829014461929 -0.07084923060209143
 -0.0015754566115059676 -0.009178990412837956 0.001839336721974537 0.014531494646452026 0.9922829014461929 -0.07084923060209143 0.006232714828503269 0.02983390330042372
0.11254689453939999 0.006664956766336063 0.03173583136599944 0.9917099903403546 -0.07514032473404289 0.0020294813396244038 0.01538652189945607 -0.0017377602724776484 -0.009721762195623524
 0.9917099903403546 -0.07514032473404289 0.0066655447580770705 0.031735630192072845 -0.0017385811608990479 -0.009721702708136484 0.002030685257696708 0.01538632090727279
 0.0020294813396244038 0.01538652189945607 -0.0017385811608990479 -0.009721702708136484 0.006664814433072778 0.03173727400839456 0.9917100668778536 -0.07513880257209461
 -0.0017377602724776484 -0.009721762195623524 0.002030685257696708 0.01538632090727279 0.9917100668778536 -0.07513880257209461 0.006665810258494314 0.03173708228535076
0.11879949979160001 0.007117431096954077 0.033653275942752296 0.991111908087835 -0.07944273594422346 0.0022308208074178337 0.01624052343191123 -0.00190871213036775 -0.010263942883480452
 0.991111908087835 -0.07944273594422346 0.00711808539464852 0.03365304813261012 -0.001909624262999394 -0.010263871261910917 0.0022321688108323016 0.016240292989913713
 0.0022308208074178337 0.01624052343191123 -0.001909624262999394 -0.010263871261910917 0.00711727194514637 0.03365479193656711 0.9911119936284585 -0.0794411265697977
 -0.00190871213036775 -0.010263942883480452 0.0022321688108323016 0.016240292989913713 0.9911119936284585 -0.0794411265697977 0.007118379582794689 0.03365457486061595
0.1250521050438 0.007589667361150648 0.035584741306368475 0.9904882985792477 -0.08375767040859676 0.002442354219885919 0.017093518736913227 -0.0020883818448364858 -0.010805380053864763
 0.9904882985792477 -0.08375767040859676 0.007590391355773425 0.03558448473409156 -0.0020893897736291066 -0.010805294968493105 0.002443855181191383 0.017093256025677066
 0.002442354219885919 0.017093518736913227 -0.0020893897736291066 -0.010805294968493105 0.00758949037282055 0.03558632961691899 0.990488393718832 -0.08375597336569934
 -0.0020883818448364858 -0.010805380053864763 0.002443855181191383 0.017093256025677066 0.990488393718832 -0.08375597336569934 0.007590715526107864 0.03558608509938838
0.131304710296 0.0080819557148903 0.03752992914654285 0.9898388759907529 -0.08808488973361825 0.002664146524434558 0.017945350115384662 -0.002276836286410114 -0.011345918737290317
 0.9898388759907529 -0.08808488973361825 0.00808275276502014 0.037529641609695255 -0.002277944524081522 -0.011345818798487438 0.0026658094288454265 0.017945052163471125
 0.002664146524434558 0.017945350115384662 -0.002277944524081522 -0.011345818798487438 0.008081759852067334 0.03753158869435684 0.9898389813445929 -0.08808310453819286
 -0.002276836286410114 -0.011345918737290317 0.0026658094288454265 0.017945052163471125 0.9898389813445929 -0.08808310453819286 0.00808310818092763 0.03753131456277676
0.1375573155481 0.008482424432026951 0.039234328600514935 0.9892755614830228 -0.09216982047197397 0.002868475062811836 0.018770322902863405 -0.002446351733057327 -0.01185988590126299
 0.9892755614830228 -0.09216982047197397 0.008483297123617357 0.03923401606983199 -0.0024475666947099723 -0.01185977096766637 0.0028702971938069774 0.01876999025004925
 0.002868475062811836 0.018770322902863405 -0.0024475666947099723 -0.01185977096766637 0.008482207720544985 0.03923605905320915 0.9892756775301266 -0.09216794682291939
 -0.002446351733057327 -0.01185988590126299 0.0028702971938069774 0.01876999025004925 0.9892756775301266 -0.09216794682291939 0.0084836862224541 0.03923576007380554
0.1438099208003 0.008897002366546062 0.04092959488337884 0.9886923943024787 -0.09624425007613008 0.0030810554796806442 0.019591904428682208 -0.0026226484611307378 -0.012370738907964283
 0.9886923943024787 -0.09624425007613008 0.00889795386519837 0.04092925584193306 -0.002623974945971555 -0.012370607618391736 0.00308304387353598 0.019591534460521434
 0.0030810554796806442 0.019591904428682208 -0.002623974945971555 -0.012370607618391736 0.008896763569272307 0.04093139517741054 0.9886925216591377 -0.09624228749700035
 -0.0026226484611307378 -0.012370738907964283 0.00308304387353598 0.019591534460521434 0.9886925216591377 -0.09624228749700035 0.008898378079144792 0.04093106972615114
0.1500625260525 0.009325541574363898 0.0426155819318972 0.9880895266523894 -0.10030807296628849 0.0033018134138590675 0.02041000894384948 -0.00280565400978512 -0.012878396364556276
 0.9880895266523894 -0.10030807296628849 0.009326575004832359 0.04261521480415259 -0.002807096802270675 -0.01287824730376407 0.0033039750793181387 0.0204095989509765
 0.0033018134138590675 0.02041000894384948 -0.002807096802270675 -0.01287824730376407 0.009325279423233511 0.042617450965139025 0.9880896659517455 -0.10030602096230426
 -0.00280565400978512 -0.012878396364556276 0.0033039750793181387 0.0204095989509765 0.9880896659517455 -0.10030602096230426 0.00932703575037586 0.042617097349563864
0.15631513130469998 0.00976789303539537 0.04429214808182085 0.9874671115408853 -0.10436118402810304 0.0035306736099039214 0.021224552179555742 -0.002995295010250944 -0.013382778622288222
 0.9874671115408853 -0.10436118402810304 0.009769011480658212 0.04429175123447266 -0.002996858880008821 -0.013382610321254965 0.0035330155287477847 0.021224099358086855
