! Created with skrf 1.8.0 (http://scikit-rf.org).
# GHz S RI R 50.0 
!freq ReS11 ImS11 ReS12 ImS12 ReS13 ImS13
! ReS14 ImS14
! ReS21 ImS21 ReS22 ImS22 ReS23 ImS23
! ReS24 ImS24
! ReS31 ImS31 ReS32 ImS32 ReS33 ImS33
! ReS34 ImS34
! ReS41 ImS41 ReS42 ImS42 ReS43 ImS43
! ReS44 ImS44
!
0.0 0.001749213100809 0.0 0.9982507868964 0.0 6.778933332098e-05 0.0 -6.778933327705e-05 8.301799001407243e-21
 0.9982507868964 0.0 0.001749213100791 0.0 -6.778933327678e-05 8.301799001374179e-21 6.778933332167e-05 0.0
 6.778933332098e-05 0.0 -6.778933327678e-05 8.301799001374179e-21 0.001749213093699 0.0 0.9982507868893 0.0
 -6.778933327705e-05 8.301799001407243e-21 6.778933332167e-05 0.0 0.9982507868893 0.0 0.001749213093694 0.0
0.005 0.0018826636165863492 0.0014308966407510359 0.9980818340604012 -0.00366335119133422 9.535268525346925e-05 0.0007441176193633831 -9.25094544675262e-05 -0.00046744490605569214
 0.9980818340604012 -0.00366335119133422 0.0018826912715942238 0.0014308805361756796 -9.250902119964879e-05 -0.0004674446545506771 9.518088065785618e-05 0.0007441831158550133
 9.535268525346925e-05 0.0007441176193633831 -9.250902119964879e-05 -0.0004674446545506771 0.0018826630629018564 0.0014308297579323926 0.9980818336929854 -0.0036634182448422054
 -9.25094544675262e-05 -0.00046744490605569214 9.518088065785618e-05 0.0007441831158550133 0.9980818336929854 -0.0036634182448422054 0.0018826910947778574 0.0014308133147130572
0.006252605252188 0.0019178604062995554 0.0017942193459349266 0.99803695866423 -0.004580052458091555 0.00010335081851054902 0.0009304948391097711 -9.957858196399634e-05 -0.0005848976862139428
 0.99803695866423 -0.004580052458091555 0.0019179036356608687 0.0017941988914688845 -9.957790712440969e-05 -0.000584897377996148 0.00010308239261224301 0.0009305799327954615
 0.00010335081851054902 0.0009304948391097711 -9.957790712440969e-05 -0.000584897377996148 0.0019178595983770864 0.0017941357451829603 0.9980369581479556 -0.004580136281261426
 -9.957858196399634e-05 -0.0005848976862139428 0.00010308239261224301 0.0009305799327954615 0.9980369581479556 -0.004580136281261426 0.0019179034178337922 0.0017941148523027879
0.01250521050438 0.002104289322583506 0.00362570472394888 0.9977975351718898 -0.00916067020662116 0.00014986881132450142 0.0018612518524590473 -0.00014016898968069374 -0.0011724948944339644
 0.9977975351718898 -0.00916067020662116 0.002104461930347706 0.00362566054102973 -0.0001401663224618522 -0.001172494347243757 0.00014879844666624043 0.0018614571092961613
 0.00014986881132450142 0.0018612518524590473 -0.0001401663224618522 -0.001172494347243757 0.002104286664165198 0.003625537887590754 0.9977975336850294 -0.009160837592162456
 -0.00014016898968069374 -0.0011724948944339644 0.00014879844666624043 0.0018614571092961613 0.9977975336850294 -0.009160837592162456 0.0021044616459884504 0.0036254926693575994
0.01875781575657 0.002308948757457394 0.005482894711163181 0.9975321893398769 -0.013752951662312787 0.00020745617335162265 0.0027928548573339595 -0.00018969377701292365 -0.0017619185124607016
 0.9975321893398769 -0.013752951662312787 0.0023093366009886373 0.005482823262855411 -0.00018968781838261885 -0.0017619178136117325 0.00020505185372471398 0.002793222893882713
 0.00020745617335162265 0.0027928548573339595 -0.00018968781838261885 -0.0017619178136117325 0.0023089431934466527 0.005482644845567353 0.9975321864219736 -0.013753202545709888
 -0.00018969377701292365 -0.0017619185124607016 0.00020505185372471398 0.002793222893882713 0.9975321864219736 -0.013753202545709888 0.00230933640716404 0.005482571582426849
0.02501042100875 0.0025322717428701556 0.007363138637247801 0.9972405800908293 -0.018359069134540114 0.00027622762391390295 0.003725304415373706 -0.00024828096109863923 -0.0023528704719026736
 0.9972405800908293 -0.018359069134540114 0.0025329605029525025 0.007363036153385917 -0.000248270424261533 -0.002352869727876804 0.00027195724911235674 0.003725885168978404
 0.00027622762391390295 0.003725304415373706 -0.000248270424261533 -0.002352869727876804 0.002532262213222996 0.0073628059758058554 0.9972405752814734 -0.018359403462154724
 -0.00024828096109863923 -0.0023528704719026736 0.00027195724911235674 0.003725885168978404 0.9972405752814734 -0.018359403462154724 0.002532960569885193 0.00736270069047133
0.03126302626094 0.0027746733001178165 0.009265045548547148 0.996922350573505 -0.02297991985793439 0.0003562979622241793 0.004658514781535783 -0.00031605432061107964 -0.002945130715837997
 0.996922350573505 -0.02297991985793439 0.0027757485316763 0.009264908031529661 -0.0003160379289962543 -0.00294513005247308 0.0003496288735067914 0.004659365554778648
 0.0003562979622241793 0.004658514781535783 -0.0003160379289962543 -0.00294513005247308 0.0027746587406924264 0.009264630338547077 0.996922343412846 -0.022980337600522108
 -0.00031605432061107964 -0.002945130715837997 0.0003496288735067914 0.004659365554778648 0.996922343412846 -0.022980337600522108 0.002775749043579332 0.009264488801395212
0.037515631513130004 0.003036558908075556 0.011187688148542076 0.99657713699093 -0.027615921995657277 0.0004477808118872837 0.005592365536518119 -0.0003931342595296646 -0.0035385055860144535
 0.99657713699093 -0.027615921995657277 0.0030381060757590367 0.011187511376020169 -0.00039311074586808914 -0.0035385051486394744 0.0004381795910561249 0.00559355106977656
 0.0004477808118872837 0.005592365536518119 -0.00039311074586808914 -0.0035385051486394744 0.003036538250855365 0.011187190649747157 0.996577127019123 -0.02761642315034791
 -0.0003931342595296646 -0.0035385055860144535 0.0004381795910561249 0.00559355106977656 0.996577127019123 -0.02761642315034791 0.0030381072307125293 0.011187008380898276
0.043768236765320004 0.0033183277573257544 0.013130360554747606 0.9962045722206042 -0.03226725681432245 0.0005507880175642262 0.006526717301014062 -0.0004796380954981212 -0.00413281213738956
 0.9962045722206042 -0.03226725681432245 0.003320432264887101 0.013130140080680868 -0.00047960620140345624 -0.004132812090898738 0.0005377204032815077 0.006528309853727599
 0.0005507880175642262 0.006526717301014062 -0.00047960620140345624 -0.004132812090898738 0.0033182999290318708 0.013129781056001152 0.9962045589749497 -0.03226784138835304
 -0.0004796380954981212 -0.00413281213738956 0.0005377204032815077 0.006528309853727599 0.9962045589749497 -0.03226784138835304 0.0033204342726134276 0.013129553326053494
0.050020842017509996 0.0036203742413916363 0.015092478180087483 0.9958042876761942 -0.03693396873371773 0.000665429270400651 0.007461418239931594 -0.0005756801447276705 -0.00472787166943495
 0.9958042876761942 -0.03693396873371773 0.003623121457172729 0.015092209335071877 -0.0005756386203533828 -0.004727872198391206 0.0006483601369684097 0.007463497675209489
 0.000665429270400651 0.007461418239931594 -0.0005756386203533828 -0.004727872198391206 0.0036203381645622135 0.015091817001135429 0.9958042706916306 -0.03693463674315124
 -0.0005756801447276705 -0.00472787166943495 0.0006483601369684097 0.007463497675209489 0.9958042706916306 -0.03693463674315124 0.0036231245406257288 0.015091538830708469
0.055454545454549996 0.0038996329631201753 0.01681301051201001 0.9954336298988966 -0.041001938860599274 0.0007745876347989252 0.008273860333303375 -0.0006669763141701991 -0.005245470012240532
 0.9954336298988966 -0.041001938860599274 0.0039030080322925696 0.01681269566490683 -0.0006669254124060315 -0.005245471206472947 0.0007536058133712801 0.00827643371295677
 0.0007745876347989252 0.008273860333303375 -0.0006669254124060315 -0.005245471206472947 0.0038995888406002724 0.016812278626576888 0.9954336092857292 -0.04100267940564624
 -0.0006669763141701991 -0.005245470012240532 0.0007536058133712801 0.00827643371295677 0.9954336092857292 -0.04100267940564624 0.003903012241830827 0.016811952383054267
0.056273447269699996 0.003943088702966703 0.017073528608953715 0.995375914431201 -0.04161601438585776 0.0007918118364508671 0.00839630725954471 -0.0006813717137711355 -0.005323506571590955
 0.995375914431201 -0.04161601438585776 0.003946563984299933 0.017073206499358468 -0.0006813193178066975 -0.005323507880273025 0.0007702052104786532 0.00839896113011487
 0.0007918118364508671 0.00839630725954471 -0.0006813193178066975 -0.005323507880273025 0.003943043296941243 0.017072786090961363 0.9953758932404774 -0.04161676586542276
 -0.0006813717137711355 -0.005323506571590955 0.0007702052104786532 0.00839896113011487 0.9953758932404774 -0.04161676586542276 0.003946568379599538 0.017072452249616024
0.06252605252188 0.004286857811736764 0.01907304459123189 0.9949190839801044 -0.046313289562304565 0.0009300403343455257 0.009331215779761922 -0.0007968210462755171 -0.005919538601194236
 0.9949190839801044 -0.046313289562304565 0.004291146528669244 0.019072664097619988 -0.0007967565459482571 -0.005919540913678938 0.0009033594368770859 0.009334539414100434
 0.0009300403343455257 0.009331215779761922 -0.0007967565459482571 -0.005919540913678938 0.004286801993160894 0.019072221113911526 0.9949190581127666 -0.0463141245486278
 -0.0007968210462755171 -0.005919538601194236 0.0009033594368770859 0.009334539414100434 0.9949190581127666 -0.0463141245486278 0.004291152485180789 0.019071826118047315
0.06877865777407 0.0046520647423067395 0.02109058794872712 0.9944334288036223 -0.05102564525659789 0.0010802165425009105 0.010265968803099417 -0.0009221332420742715 -0.006515787872694595
 0.9944334288036223 -0.05102564525659789 0.00465725229960944 0.021090143723635112 -0.0009220554131677147 -0.006515791432920054 0.0010479238489304106 0.010270065391239015
 0.0010802165425009105 0.010265968803099417 -0.0009220554131677147 -0.006515791432920054 0.004651997425651587 0.02108968391604298 0.9944333977860866 -0.051026563802953874
 -0.0009221332420742715 -0.006515787872694595 0.0010479238489304106 0.010270065391239015 0.9944333977860866 -0.051026563802953874 0.004657260080478873 0.02108922202605218
0.07503126302626001 0.005039089229968079 0.023125739372591665 0.9939185828188399 -0.05575289782453089 0.0012424392227221592 0.011200385604232537 -0.0010574101600873199 -0.007112072234650669
 0.9939185828188399 -0.05575289782453089 0.005045261090040435 0.023125225837213617 -0.0010573177870656025 -0.007112077306471531 0.0012039965365446396 0.011205366282776748
 0.0012424392227221592 0.011200385604232537 -0.0010573177870656025 -0.007112077306471531 0.0050390093275631724 0.023124755224772663 0.9939185461730017 -0.05575389998911245
 -0.0010574101600873199 -0.007112072234650669 0.0012039965365446396 0.011205366282776748 0.9939185461730017 -0.05575389998911245 0.005045270971733075 0.02312422044135826
0.08128386827845 0.0054483075517447075 0.025178091652438648 0.9933741817581834 -0.060494835721856016 0.0014168039546951195 0.012134280206855471 -0.001202750310565777 -0.007708206868098381
 0.9933741817581834 -0.060494835721856016 0.005455549256786701 0.025177502992601915 -0.0012026421867582628 -0.007708213735339112 0.001371672491802253 0.012140264142969096
 0.0014168039546951195 0.012134280206855471 -0.0012026421867582628 -0.007708213735339112 0.0054482139752902985 0.025177027858516474 0.9933741390021171 -0.06049592157563145
 -0.001202750310565777 -0.007708206868098381 0.001371672491802253 0.012140264142969096 0.9933741390021171 -0.06049592157563145 0.005455561529984496 0.0251764139182122
0.08753647353064001 0.0058800924582405245 0.027247244996760796 0.9927998635047796 -0.06525122416047399 0.0016034029774728712 0.013067461724664744 -0.001358248740016889 -0.008304004029604675
 0.9927998635047796 -0.06525122416047399 0.00588848965258989 0.027246575158116466 -0.0013581236677969526 -0.008304012996109594 0.001551043459284997 0.013074576198809723
 0.0016034029774728712 0.013067461724664744 -0.0013581236677969526 -0.008304012996109594 0.0058799841190529355 0.027246102058422143 0.9927998141515049 -0.06525239378355444
 -0.001358248740016889 -0.008304004029604675 0.001551043459284997 0.013074576198809723 0.9927998141515049 -0.06525239378355444 0.005888504621894416 0.027245402428214247
0.09378907878283 0.006334813069822554 0.029332803693662167 0.9921952683957809 -0.07002180843478849 0.0018023250355213472 0.01399973462491933 -0.0015239969113606793 -0.008899272880998127
 0.9921952683957809 -0.07002180843478849 0.006344451522086052 0.029332046375761197 -0.001523853702292263 -0.00889928427066648 0.0017421977896770549 0.014008115112051609
 0.0018023250355213472 0.01399973462491933 -0.001523853702292263 -0.00889928427066648 0.006334688879040034 0.029331582148514133 0.9921952119529661 -0.07002306191347678
 -0.0015239969113606793 -0.008899272880998127 0.0017421977896770549 0.014008115112051609 0.9921952119529661 -0.07002306191347678 0.006344469506366897 0.029330790019578112
0.100041684035 0.006812834746597043 0.03143437368101018 0.9915600395047494 -0.07480631634895674 0.00201365522893201 0.014930898936580908 -0.001700082579929311 -0.009493819383691933
 0.9915600395047494 -0.07480631634895674 0.006823800372255275 0.031433522330737304 -0.0016999200551169327 -0.009493833540519019 0.001945220296037844 0.014940689185828238
 0.00201365522893201 0.014930898936580908 -0.0016999200551169327 -0.009493833540519019 0.00681269361721462 0.03143307409622543 0.9915599754747703 -0.07480765378235403
 -0.001700082579929311 -0.009493819383691933 0.001945220296037844 0.014940689185828238 0.9915599754747703 -0.07480765378235403 0.006823821705263543 0.03143218237681466
0.1059090909091 0.00728292148617585 0.033420685132216056 0.9909357681676733 -0.07930847674693017 0.0022233237424843072 0.015803507755092067 -0.0018747969520796093 -0.01005090553883481
 0.9909357681676733 -0.07930847674693017 0.007295210812644575 0.0334197393507339 -0.0018746152378535026 -0.010050922623143922 0.0021466016827791042 0.015814759093736214
 0.0022233237424843072 0.015803507755092067 -0.0018746152378535026 -0.010050922623143922 0.007282763474086696 0.033419312861580994 0.9909356965598732 -0.07930989306072456
 -0.0018747969520796093 -0.01005090553883481 0.0021466016827791042 0.015814759093736214 0.9909356965598732 -0.07930989306072456 0.007295235604668157 0.033418320978086155
0.1062942892872 0.007314518942612518 0.03355156072157628 0.9908938229105859 -0.0796044600505936 0.0022374748656089705 0.015860750423102848 -0.0018865896674352936 -0.010087446238006413
 0.9908938229105859 -0.0796044600505936 0.007326897826170279 0.03355060852544085 -0.0018864066576187637 -0.010087463526119764 0.002160192112149997 0.015872102535562965
 0.0022374748656089705 0.015860750423102848 -0.0018864066576187637 -0.010087463526119764 0.0073143597889268755 0.03355018369803287 0.9908937507896642 -0.07960588154665847
 -0.0018865896674352936 -0.010087446238006413 0.002160192112149997 0.015872102535562965 0.9908937507896642 -0.07960588154665847 0.007326922856334083 0.03354918500537512
0.11254689453939999 0.0078402230438837 0.03568396901894885 0.9901962679549756 -0.08441593743463664 0.0024738613160194822 0.016789080735039947 -0.002083598133934864 -0.010679952852186519
 0.9901962679549756 -0.08441593743463664 0.007854101461322273 0.03568290889454923 -0.002083393479840032 -0.010679973655848185 0.00238719055181422 0.016802155239802448
 0.0024738613160194822 0.016789080735039947 -0.002083393479840032 -0.010679973655848185 0.007840044782395257 0.03568251519326844 0.9901961872327344 -0.08441744310834769
 -0.002083598133934864 -0.010679952852186519 0.00238719055181422 0.016802155239802448 0.9901961872327344 -0.08441744310834769 0.007854130552092702 0.03568140184456569
0.11879949979160001 0.008390300195998388 0.03783120015421088 0.9894670274924743 -0.08924043323833097 0.002722887869600534 0.017715677543877466 -0.002291183848496157 -0.011271135340102276
 0.9894670274924743 -0.08924043323833097 0.008405764637520654 0.03783002474066955 -0.0022909564010566283 -0.011271160063750372 0.002626288970439596 0.017730643471904936
 0.002722887869600534 0.017715677543877466 -0.0022909564010566283 -0.011271160063750372 0.008390101746778606 0.0378296701961897 0.9894669376516277 -0.08924202321439445
 -0.002291183848496157 -0.011271135340102276 0.002626288970439596 0.017730643471904936 0.9894669376516277 -0.08924202321439445 0.008405798167687014 0.03782843419857675
0.1250521050438 0.008965099123534269 0.03999285225102389 0.9887057581344424 -0.09407761991960757 0.0029846235927419086 0.01864032467030215 -0.0025094184593521186 -0.011860786534379228
 0.9887057581344424 -0.09407761991960757 0.008982236316129854 0.03999155389833182 -0.0025091670800788776 -0.01186081560260039 0.002877556627047805 0.018657359626282677
 0.0029846235927419086 0.01864032467030215 -0.0025091670800788776 -0.01186081560260039 0.008964879410530296 0.03999124686370627 0.9887056586500739 -0.09407929433245689
 -0.0025094184593521186 -0.011860786534379228 0.002877556627047805 0.018657359626282677 0.9887056586500739 -0.09407929433245689 0.008982274679943617 0.03998987990330063
0.131304710296 0.009564963942804745 0.04216851932106427 0.9879121204892563 -0.0989271583671297 0.003259133188519873 0.019562802201745607 -0.0027383692636964987 -0.012448696020316036
 0.9879121204892563 -0.0989271583671297 0.009583860872890981 0.042167090078538964 -0.0027380928248861205 -0.012448729877882744 0.00314105854799247 0.019582092433600408
 0.003259133188519873 0.019562802201745607 -0.0027380928248861205 -0.012448729877882744 0.009564721894637097 0.04216683924360648 0.9879120108287583 -0.09892891735827523
 -0.0027383692636964987 -0.012448696020316036 0.00314105854799247 0.019582092433600408 0.9879120108287583 -0.09892891735827523 0.009583904480345202 0.04216533267338962
0.1375573155481 0.010059468540874777 0.04407500972757814 0.9872166063888369 -0.10350576150316161 0.003514330742861985 0.02045566804546261 -0.0029460923913586863 -0.013007350469804413
 0.9872166063888369 -0.10350576150316161 0.010080220031550182 0.04407347158196134 -0.002945789440080692 -0.01300738920419984 0.0033849770627174883 0.020477200083132644
 0.003514330742861985 0.02045566804546261 -0.002945789440080692 -0.01300738920419984 0.01005920407184724 0.04407325508544012 0.9872164860860815 -0.10350760512205204
 -0.0029460923913586863 -0.013007350469804413 0.0033849770627174883 0.020477200083132644 0.9872164860860815 -0.10350760512205204 0.010080268185608462 0.04407163125921134
0.1438099208003 0.010571568523886209 0.04597016586862618 0.9864962165136277 -0.10807143534894166 0.0037798058411638216 0.021344014264392412 -0.0031620661290025285 -0.01356192386479334
 0.9864962165136277 -0.10807143534894166 0.010594263107569848 0.04596851247431383 -0.0031617354939081966 -0.013561967911129106 0.0036386823312038077 0.02136795990498041
 0.0037798058411638216 0.021344014264392412 -0.0031617354939081966 -0.013561967911129106 0.010571280745730022 0.04596833736152195 0.9864960850390463 -0.10807336372556905
 -0.0031620661290025285 -0.01356192386479334 0.0036386823312038077 0.02136795990498041 0.9864960850390463 -0.10807336372556905 0.010594316040420115 0.04596658933467589
0.1500625260525 0.01110106296916414 0.047853790840444034 0.9857511565766658 -0.1126240267929809 0.0040554538638087004 0.022227720872642177 -0.003386190119554596 -0.014112306377162726
 0.9857511565766658 -0.1126240267929809 0.011125789467214469 0.04785201543943946 -0.0033858306356043793 -0.01411235618771851 0.0039020731206852685 0.022254258208669987
 0.0040554538638087004 0.022227720872642177 -0.0033858306356043793 -0.01411235618771851 0.01110075100907782 0.047851889191635896 0.9857510133944047 -0.11262604006384033
 -0.003386190119554596 -0.014112306377162726 0.0039020731206852685 0.022254258208669987 0.9857510133944047 -0.11262604006384033 0.011125847413214611 0.047850009586075305
0.15631513130469998 0.011647749282310728 0.04972569362320571 0.9849816336058345 -0.11716338415606779 0.004341168802508866 0.023106670212643114 -0.0036183626398379213 -0.014658390750238625
 0.9849816336058345 -0.11716338415606779 0.011674596812220543 0.049723789032015506 -0.003617973148386625 -0.014658446794330336 0.004175046867173805 0.02313598356008231
