! Created with skrf 1.8.0 (http://scikit-rf.org).
# GHz S RI R 50.0 
!freq ReS11 ImS11 ReS12 ImS12 ReS13 ImS13
! ReS14 ImS14
! ReS21 ImS21 ReS22 ImS22 ReS23 ImS23
! ReS24 ImS24
! ReS31 ImS31 ReS32 ImS32 ReS33 ImS33
! ReS34 ImS34
! ReS41 ImS41 ReS42 ImS42 ReS43 ImS43
! ReS44 ImS44
!
0.0 0.001273884834995 0.0 0.998726115165 0.0 4.900249597338e-05 0.0 -4.900249642829e-05 6.001075040113495e-21
 0.998726115165 0.0 0.001273884835005 0.0 -4.900249642857e-05 6.001075040147786e-21 4.900249597305e-05 0.0
 4.900249597338e-05 0.0 -4.900249642857e-05 6.001075040147786e-21 0.001273884821594 0.0 0.9987261151516 0.0
 -4.900249642829e-05 6.001075040113495e-21 4.900249597305e-05 0.0 0.9987261151516 0.0 0.001273884821593 0.0
0.005 0.0013700050441629785 0.0010366100773687226 0.9986045894623974 -0.0026696378810520194 6.918609744143232e-05 0.0005759106890005808 -6.702387560150885e-05 -0.00035533244529620543
 0.9986045894623974 -0.0026696378810520194 0.0013700142555773624 0.0010366046564605686 -6.702366872485202e-05 -0.00035533223319300357 6.913332559757332e-05 0.0005759307698058969
 6.918609744143232e-05 0.0005759106890005808 -6.702366872485202e-05 -0.00035533223319300357 0.0013700057384394108 0.001036676882486219 0.9986045897969803 -0.002669570817866169
 -6.702387560150885e-05 -0.00035533244529620543 6.913332559757332e-05 0.0005759307698058969 0.9986045897969803 -0.002669570817866169 0.001370014221298823 0.0010366719677404454
0.006252605252188 0.001395023419167274 0.0012998951679004218 0.9985727857517266 -0.0033377326376038473 7.484891638025747e-05 0.0007201628195103841 -7.202610151322544e-05 -0.00044464484595185783
 0.9985727857517266 -0.0033377326376038473 0.0013950378186646441 0.0012998882770810013 -7.20257800169524e-05 -0.00044464458325192013 7.476646424520366e-05 0.0007201888715319345
 7.484891638025747e-05 0.0007201628195103841 -7.20257800169524e-05 -0.00044464458325192013 0.001395024432267437 0.0012999786561371436 0.9985727862023942 -0.003337648817167708
 -7.202610151322544e-05 -0.00044464484595185783 7.476646424520366e-05 0.0007201888715319345 0.9985727862023942 -0.003337648817167708 0.0013950376921659825 0.0012999724078961638
0.01250521050438 0.0015256134329935482 0.0026275256444032863 0.9984058040718496 -0.006676475129243732 0.00010677645987731289 0.0014406431529458905 -9.994712563588352e-05 -0.000891605857480016
 0.9984058040718496 -0.006676475129243732 0.0015256709373026639 0.002627510709647628 -9.99458637503507e-05 -0.0008916053578278231 0.00010644763874091561 0.001440705400476635
 0.00010677645987731289 0.0014406431529458905 -9.99458637503507e-05 -0.0008916053578278231 0.0015256169258905355 0.002627692266941245 0.9984058053165813 -0.006676307711840516
 -9.994712563588352e-05 -0.000891605857480016 0.00010644763874091561 0.001440705400476635 0.9984058053165813 -0.006676307711840516 0.0015256698670381352 0.0026276787227149686
0.01875781575657 0.0016659006897165377 0.003974530622443473 0.9982249909020001 -0.01002440004744755 0.00014485151908103931 0.002161989106149247 -0.0001328434543162706 -0.0013402153985073676
 0.9982249909020001 -0.01002440004744755 0.0016660299183482766 0.0039745064162999034 -0.00013284064730881523 -0.0013402146901155688 0.00014411280601814866 0.0021620994094286796
 0.00014485151908103931 0.002161989106149247 -0.00013284064730881523 -0.0013402146901155688 0.001665908123905151 0.00397478011560694 0.9982249932816566 -0.01002414907766181
 -0.0001328434543162706 -0.0013402153985073676 0.00014411280601814866 0.0021620994094286796 0.9982249932816566 -0.01002414907766181 0.0016660270736369555 0.0039747581749729035
0.02501042100875 0.00181612578192288 0.005339052476549419 0.9980301611349123 -0.013383170630560387 0.00018914176596922347 0.0028842663829103427 -0.00017079092548413804 -0.0017902847544135638
 0.9980301611349123 -0.013383170630560387 0.001816355304369208 0.005339017706737824 -0.00017078597809195426 -0.0017902838687178975 0.00018782953251299367 0.0028844382445000465
 0.00018914176596922347 0.0028842663829103427 -0.00017078597809195426 -0.0017902838687178975 0.0018161386216549646 0.005339384538973793 0.998030164996488 -0.013382836102093891
 -0.00017079092548413804 -0.0017902847544135638 0.00018782953251299367 0.0028844382445000465 0.998030164996488 -0.013382836102093891 0.0018163498469260003 0.005339353057805139
0.03126302626094 0.001976519085903505 0.006720155120553891 0.997821118906623 -0.01675352239808605 0.00023971571708189708 0.003607470694440623 -0.00021386351227436869 -0.002241691680457644
 0.997821118906623 -0.01675352239808605 0.001976877435631682 0.006720108431786977 -0.00021385583705798902 -0.002241690652193147 0.00023766606997401281 0.003607719267428225
 0.00023971571708189708 0.003607470694440623 -0.00021385583705798902 -0.002241690652193147 0.001976538790538608 0.006720569397555825 0.997821124596779 -0.016753104269034872
 -0.00021386351227436869 -0.002241691680457644 0.00023766606997401281 0.003607719267428225 0.997821124596779 -0.016753104269034872 0.0019768685116261556 0.006720527189945016
0.037515631513130004 0.0021473061505585408 0.00811724327042415 0.9975976630941708 -0.020135843839589895 0.00029664200057958896 0.004331570637639834 -0.00026213393412516053 -0.0026943375099156277
 0.9975976630941708 -0.020135843839589895 0.0021478218342407735 0.008117183245083518 -0.00026212295062336604 -0.002694336377099069 0.0002936907065172929 0.004331912742284419
 0.00029664200057958896 0.004331570637639834 -0.00026212295062336604 -0.002694336377099069 0.002147334180940371 0.00811773936642127 0.9975976709670895 -0.020135342019479443
 -0.00026213393412516053 -0.0026943375099156277 0.0002936907065172929 0.004331912742284419 0.9975976709670895 -0.020135342019479443 0.0021478085802774578 0.008117685205778333
0.043768236765320004 0.002328709798824077 0.009529885747025487 0.9973595895277355 -0.023530353057206754 0.00035998903891920695 0.005056520704956501 -0.0003156738757101158 -0.003148134132020177
 0.9973595895277355 -0.023530353057206754 0.002329411303058396 0.009529810905673704 -0.0003156590098748151 -0.0031481329359316856 0.0003559714850412368 0.005056974847883808
 0.00035998903891920695 0.005056520704956501 -0.0003156590098748151 -0.0031481329359316856 0.002328747611348117 0.009530463197265832 0.9973595999406996 -0.023529767434804574
 -0.0003156738757101158 -0.003148134132020177 0.0003559714850412368 0.005056974847883808 0.9973595999406996 -0.023529767434804574 0.0023293928404422965 0.009530395817102435
0.050020842017509996 0.002520951103406039 0.010957742410256169 0.997106692078315 -0.026937170775095002 0.00042982485873303806 0.005782266673061265 -0.00037455408601394887 -0.003602998592057456
 0.997106692078315 -0.026937170775095002 0.0025218669003017145 0.01095765121191611 -0.000374534769826906 -0.003602997377199955 0.0004245760318658789 0.005782853067614164
 0.00042982485873303806 0.005782266673061265 -0.000374534769826906 -0.003602997377199955 0.002521000152411376 0.010958400690671097 0.9971067053959302 -0.026936501207967152
 -0.00037455408601394887 -0.003602998592057456 0.0004245760318658789 0.005782853067614164 0.9971067053959302 -0.026936501207967152 0.002521842337566766 0.010958318785278885
0.055454545454549996 0.002696986890019437 0.012210726612103939 0.9968747166322234 -0.029907841677896507 0.0004958364303097919 0.006413561564871284 -0.00043011399420547596 -0.003999094298358485
 0.9968747166322234 -0.029907841677896507 0.002698112029147076 0.012210619899870859 -0.00043009035369887845 -0.003999093105809669 0.0004893832610906032 0.006414280647000232
 0.0004958364303097919 0.006413561564871284 -0.00043009035369887845 -0.003999093105809669 0.0026970468809104954 0.01221145466658232 0.9968747327746675 -0.029907099018246536
 -0.00043011399420547596 -0.003999094298358485 0.0004893832610906032 0.006414280647000232 0.9968747327746675 -0.029907099018246536 0.0026980814289344957 0.012211359047791814
0.056273447269699996 0.0027242499050746135 0.012400528322852777 0.9968387632915784 -0.03035635611871218 0.0005062169671533795 0.006508748235195337 -0.0004388444133659288 -0.004058850449103026
 0.9968387632915784 -0.03035635611871218 0.002725408457408715 0.012400419165103291 -0.0004388200845559808 -0.004058849263167009 0.0004995714446378557 0.006509488822278219
 0.0005062169671533795 0.006508748235195337 -0.0004388200845559808 -0.004058849263167009 0.002724311639745392 0.012401266852434428 0.9968387798844303 -0.03035560243051755
 -0.0004388444133659288 -0.004058850449103026 0.0004995714446378557 0.006509488822278219 0.9968387798844303 -0.03035560243051755 0.002725376887320081 0.012401169077316318
0.06252605252188 0.002938825097951321 0.013857994045390502 0.9965555947900507 -0.03378792626389496 0.0005892322573690294 0.0072359004460783175 -0.0005086138122426289 -0.004515610322680962
 0.9965555947900507 -0.03378792626389496 0.002940254863630815 0.01385786526442764 -0.000508583914062209 -0.004515609216510286 0.0005810242050306481 0.0072368189152817635
 0.0005892322573690294 0.0072359004460783175 -0.000508583914062209 -0.004515609216510286 0.002938900962241866 0.01385881217821196 0.9965556150362656 -0.03378708825175395
 -0.0005086138122426289 -0.004515610322680962 0.0005810242050306481 0.0072368189152817635 0.9965556150362656 -0.03378708825175395 0.002940215363436122 0.013858697150532267
0.06877865777407 0.0031648947936440846 0.015329913876842044 0.996256977556682 -0.037231868141217046 0.000678936930000734 0.007963654585896872 -0.0005839303338808899 -0.004973199022026456
 0.996256977556682 -0.037231868141217046 0.0031666242304344908 0.01532976374731399 -0.0005838943149590265 -0.004973198049574616 0.0006690001055671197 0.007964776396745116
 0.000678936930000734 0.007963654585896872 -0.0005838943149590265 -0.004973198049574616 0.003164986225272811 0.015330810899893875 0.9962570018427663 -0.03723094557752136
 -0.0005839303338808899 -0.004973199022026456 0.0006690001055671197 0.007964776396745116 0.9962570018427663 -0.03723094557752136 0.003166575860761435 0.01533067719866431
0.07503126302626001 0.003402676412125494 0.016816078408029258 0.995942702147546 -0.040688145829197456 0.0007753964267299485 0.008691938698328499 -0.0006648611043929376 -0.005431537003128403
 0.995942702147546 -0.040688145829197456 0.0034047339815656504 0.01681590514284832 -0.0006648184185265735 -0.005431536221428093 0.000763564186936108 0.008693291101543007
 0.0007753964267299485 0.008691938698328499 -0.0006648184185265735 -0.005431536221428093 0.00340278484100441 0.016817053548079025 0.9959427308688684 -0.04068713845431152
 -0.0006648611043929376 -0.005431537003128403 0.000763564186936108 0.008693291101543007 0.9959427308688684 -0.04068713845431152 0.003404675785658276 0.016816899714340174
0.08128386827845 0.0036523867276932495 0.018316289563970203 0.9956125588613062 -0.044156705460142304 0.0008786753672794856 0.009420677959595003 -0.0007514722986290305 -0.005890543996639519
 0.9956125588613062 -0.044156705460142304 0.003654800899532645 0.018316091313983013 -0.0007514224046929326 -0.00589054346575889 0.000864780677979728 0.009422290018352054
 0.0008786753672794856 0.009420677959595003 -0.0007514224046929326 -0.00589054346575889 0.0036525135754488214 0.018317341981144666 0.995612592423516 -0.04415561298847388
 -0.0007514722986290305 -0.005890543996639519 0.000864780677979728 0.009422290018352054 0.995612592423516 -0.04415561298847388 0.003654731902731636 0.018317166517980318
0.08753647353064001 0.0039142418844147825 0.01983035717039877 0.9952663378806663 -0.047637478603738806 0.000988837492576104 0.01014979492355802 -0.0008438291071088236 -0.0063501387617813446
 0.9952663378806663 -0.047637478603738806 0.0039170411405932805 0.019830132023959533 -0.000843771468934595 -0.006350138544791987 0.0009727129412746518 0.01015169753463387
 0.000988837492576104 0.01014979492355802 -0.000843771468934595 -0.006350138544791987 0.003914388562701788 0.01983148596181268 0.995266376699888 -0.04763630071977952
 -0.0008438291071088236 -0.0063501387617813446 0.0009727129412746518 0.01015169753463387 0.995266376699888 -0.04763630071977952 0.003916960348989202 0.019831287334309607
0.09378907878283 0.004188457390982046 0.021358096503932625 0.9949038293960109 -0.051130384669262494 0.0011059456090471301 0.01087920970300443 -0.0009419957009615196 -0.0068102389061351016
 0.9949038293960109 -0.051130384669262494 0.004191670229875915 0.021357842486332115 -0.0009419297872573528 -0.006810239069071574 0.0010874234193435132 0.010881435617841452
 0.0011059456090471301 0.01087920970300443 -0.0009419297872573528 -0.006810239069071574 0.004188625300740798 0.021359300697890684 0.994903873900129 -0.05112912103307077
 -0.0009419957009615196 -0.0068102389061351016 0.0010874234193435132 0.010881435617841452 0.994903873900129 -0.05112912103307077 0.004191576629826641 0.021359077332914735
0.100041684035 0.00447524810170043 0.022899326488344165 0.9945248237157148 -0.05463533266352707 0.0012300615354179725 0.011608840099584825 -0.0010460351935567414 -0.007270760758900838
 0.9945248237157148 -0.05463533266352707 0.004478903041989216 0.02289904156113182 -0.001045960477774566 -0.007270761370728786 0.0012089735829879063 0.01161142394520748
 0.0012300615354179725 0.011608840099584825 -0.001045960477774566 -0.007270761370728786 0.004475438631603308 0.02290060505042285 0.9945248743449137 -0.054633982904369695
 -0.0010460351935567414 -0.007270760758900838 0.0012089735829879063 0.01161142394520748 0.9945248743449137 -0.054633982904369695 0.0044787955991490635 0.022900355336330117
0.1059090909091 0.004755998564241915 0.024357717680168235 0.9941539764672764 -0.057935217567920604 0.0013529588483499732 0.012293641783893196 -0.0011490618168627411 -0.007703219470853365
 0.9941539764672764 -0.057935217567920604 0.004760094329209636 0.024357401836164347 -0.0011489783665676071 -0.007703220569220457 0.0013293099981130049 0.012296594691464283
 0.0013529588483499732 0.012293641783893196 -0.0011489783665676071 -0.007703220569220457 0.004756211571873706 0.024359065029122915 0.9941540332563011 -0.05793378662978332
 -0.0011490618168627411 -0.007703219470853365 0.0013293099981130049 0.012296594691464283 0.9941540332563011 -0.05793378662978332 0.0047599729363190695 0.02435878908868399
0.1062942892872 0.004774828184843477 0.024453868345924803 0.9941291113677262 -0.05815222249623487 0.0013612460500289736 0.012338601708480454 -0.0011560096005178398 -0.0077316192717609795
 0.9941291113677262 -0.05815222249623487 0.004778953769891344 0.024453550406146524 -0.0011559255608088613 -0.0077316204043415375 0.0013374238802565963 0.012341580008237112
 0.0013612460500289736 0.012338601708480454 -0.0011559255608088613 -0.0077316204043415375 0.004775042710238571 0.024455220175399806 0.9941291685753775 -0.05815078621600688
 -0.0011560096005178398 -0.0077316192717609795 0.0013374238802565963 0.012341580008237112 0.9941291685753775 -0.05815078621600688 0.00477883142824597 0.02445494246155661
0.11254689453939999 0.0050874110849802884 0.026021544555225793 0.9937164831954819 -0.061680945981388784 0.001499558839447548 0.013068407993144442 -0.0012719797978533915 -0.008192727951859052
 0.9937164831954819 -0.061680945981388784 0.0050920358866922664 0.026021191434490578 -0.0012718859169782103 -0.008192729679913182 0.0014728336861314182 0.01307181918727643
 0.001499558839447548 0.013068407993144442 -0.0012718859169782103 -0.008192729679913182 0.005087650966905326 0.02602296848494229 0.9937165474495933 -0.061679422754531046
 -0.0012719797978533915 -0.008192727951859052 0.0014728336861314182 0.01307181918727643 0.9937165474495933 -0.061679422754531046 0.005091897568063748 0.026022661081208726
0.11879949979160001 0.005413209476911584 0.027602178045780093 0.9932867304489427 -0.06522138760401831 0.0016450584470365731 0.013798170350521385 -0.0013940054791182802 -0.008653998806742728
 0.9932867304489427 -0.06522138760401831 0.005418362100026196 0.027601787509221633 -0.0013939012443595154 -0.008654001207821387 0.001615261252360122 0.013802054816471846
 0.0016450584470365731 0.013798170350521385 -0.0013939012443595154 -0.008654001207821387 0.005413476060415778 0.027603672840724052 0.9932868022324174 -0.065219776978879
 -0.0013940054791182802 -0.008653998806742728 0.001615261252360122 0.013802054816471846 0.9932868022324174 -0.065219776978879 0.005418206702814437 0.027603334016702147
0.1250521050438 0.005752435215688722 0.029195591550960603 0.9928396448723735 -0.06877342513158859 0.0017978022222143975 0.014527798162950242 -0.001522145111203709 -0.009115342304953275
 0.9928396448723735 -0.06877342513158859 0.00575814430186551 0.02919516129607179 -0.001522030014343438 -0.009115345459399925 0.0017647636576377267 0.014532198235546504
 0.0017978022222143975 0.014527798162950242 -0.001522030014343438 -0.009115345459399925 0.0057527298289350845 0.029197155911634395 0.9928397246839916 -0.06877172662687622
 -0.001522145111203709 -0.009115342304953275 0.0017647636576377267 0.014532198235546504 0.9928397246839916 -0.06877172662687622 0.005757970700244468 0.029196783895911804
0.131304710296 0.006105299281787607 0.030801607097991623 0.9923750187899675 -0.07233693009075487 0.001957846269699547 0.015257198841687036 -0.001656455889378526 -0.009576667347616105
 0.9923750187899675 -0.07233693009075487 0.006111593513882934 0.030801134753299455 -0.0016563294265938904 -0.00957667133854055 0.001921396757922043 0.015262158832965403
 0.001957846269699547 0.015257198841687036 -0.0016563294265938904 -0.00957667133854055 0.0061056232345417655 0.03080323965685483 0.9923751071458142 -0.07233514319917915
 -0.001656455889378526 -0.009576667347616105 0.001921396757922043 0.015262158832965403 0.9923751071458142 -0.07233514319917915 0.0061114005569796685 0.030802832635948463
0.1375573155481 0.006385078440839104 0.03220855439516729 0.9919796019996211 -0.07570021534239135 0.0021034724976650623 0.01596400566282087 -0.0017752652362577023 -0.01001558940055616
 0.9919796019996211 -0.07570021534239135 0.0063919876129090005 0.032208048279478055 -0.0017751265109456366 -0.010015594207864426 0.0020635271923610593 0.015969513187875442
 0.0021034724976650623 0.01596400566282087 -0.0017751265109456366 -0.010015594207864426 0.006385432411502631 0.03221025420480439 0.9919796992902821 -0.07569833973139514
 -0.0017752652362577023 -0.01001558940055616 0.0020635271923610593 0.015969513187875442 0.9919796992902821 -0.07569833973139514 0.006391774996854983 0.03220982047185883
0.1438099208003 0.006674468301373629 0.033609018612201245 0.9915706833484025 -0.07905594981033975 0.0022549966685500348 0.016668617140466382 -0.0018988537776229214 -0.010452527322427638
 0.9915706833484025 -0.07905594981033975 0.006682021300783394 0.03360847708273793 -0.0018987022216018672 -0.01045253302871861 0.0022114009860570217 0.01667471219785777
 0.0022549966685500348 0.016668617140466382 -0.0018987022216018672 -0.01045253302871861 0.0066748534583230285 0.03361078427181565 0.9915707900895648 -0.0790539849751227
 -0.0018988537776229214 -0.010452527322427638 0.0022114009860570217 0.01667471219785777 0.9915707900895648 -0.0790539849751227 0.0066817879914895855 0.033610322694458454
0.1500625260525 0.006973378999392182 0.0350029112850902 0.9911483558169228 -0.08240407965336292 0.0024123748723618795 0.017370982670354647 -0.002027179188624921 -0.010887432961783527
 0.9911483558169228 -0.08240407965336292 0.00698160475544153 0.03500233260947258 -0.0020270142332432474 -0.010887439653072204 0.0023649749800982675 0.017377706703428884
 0.0024123748723618795 0.017370982670354647 -0.0020270142332432474 -0.010887439653072204 0.006973796485331057 0.03500474133942125 0.9911484725384644 -0.082402025067608
 -0.002027179188624921 -0.010887432961783527 0.0023649749800982675 0.017377706703428884 0.9911484725384644 -0.082402025067608 0.006981349704346871 0.03500425071423168
0.15631513130469998 0.0072817201704428606 0.036390146791789486 0.9907127127072065 -0.085744550663202 0.002575562769194323 0.01807105235028563 -0.0021601987029634976 -0.011320259098908433
