! Created with skrf 1.8.0 (http://scikit-rf.org).
# GHz S RI R 50.0 
!freq ReS11 ImS11 ReS12 ImS12 ReS13 ImS13
! ReS14 ImS14
! ReS21 ImS21 ReS22 ImS22 ReS23 ImS23
! ReS24 ImS24
! ReS31 ImS31 ReS32 ImS32 ReS33 ImS33
! ReS34 ImS34
! ReS41 ImS41 ReS42 ImS42 ReS43 ImS43
! ReS44 ImS44
!
0.0 0.001681338264603 0.0 0.998318661724 0.0 6.509157113189e-05 0.0 -6.509156997736e-05 7.971418282424989e-21
 0.998318661724 0.0 0.001681338264619 0.0 -6.50915699779e-05 7.97141828249112e-21 6.509157113267e-05 0.0
 6.509157113189e-05 0.0 -6.50915699779e-05 7.97141828249112e-21 0.001681338257516 0.0 0.9983186617169 0.0
 -6.509156997736e-05 7.971418282424989e-21 6.509157113267e-05 0.0 0.9983186617169 0.0 0.001681338257506 0.0
0.005 0.001809410749332793 0.0013749021850842022 0.9981565573342178 -0.0035215247294549576 9.149050578905102e-05 0.000718126538571383 -8.879380241968474e-05 -0.00045051621945548117
 0.9981565573342178 -0.0035215247294549576 0.0018094275284193536 0.0013748923216803854 -8.879306958019392e-05 -0.0004505155974884571 9.13977730340725e-05 0.0007181619852780512
 9.149050578905102e-05 0.000718126538571383 -8.879306958019392e-05 -0.0004505155974884571 0.0018094117959233974 0.0013749687891222067 0.9981565577089955 -0.0035214576724429997
 -8.879380241968474e-05 -0.00045051621945548117 9.13977730340725e-05 0.0007181619852780512 0.9981565577089955 -0.0035214576724429997 0.0018094272195683578 0.0013749598198580881
0.006252605252188 0.001843127408550304 0.0017240190679459059 0.9981135907260197 -0.00440274646440798 9.91070886752129e-05 0.0008979969700909305 -9.55437929522078e-05 -0.0005637200829219526
 0.9981135907260197 -0.00440274646440798 0.0018431536375721662 0.001724006511232128 -9.554265306508446e-05 -0.0005637193149104505 9.896220465244246e-05 0.0008980429964715265
 9.91070886752129e-05 0.0008979969700909305 -9.554265306508446e-05 -0.0005637193149104505 0.001843128963578375 0.0017241023099749812 0.9981135912305547 -0.004402662644088033
 -9.55437929522078e-05 -0.0005637200829219526 9.896220465244246e-05 0.0008980429964715265 0.9981135912305547 -0.004402662644088033 0.0018431530728146878 0.0017240908838297756
0.01250521050438 0.002021359277936851 0.003483965398581956 0.9978848619303351 -0.008806148145862195 0.0001431795959235784 0.001796286905837172 -0.00013415318628486666 -0.0011300877958411784
 0.9978848619303351 -0.008806148145862195 0.002021464016129398 0.0034839379711981778 -0.00013414869986803874 -0.0011300863633309196 0.00014260189134389804 0.0017963976139199196
 0.0001431795959235784 0.001796286905837172 -0.00013414869986803874 -0.0011300863633309196 0.002021364938076866 0.003484131498748741 0.9978848633933971 -0.008805980722885472
 -0.00013415318628486666 -0.0011300877958411784 0.00014260189134389804 0.0017963976139199196 0.9978848633933971 -0.008805980722885472 0.0020214611966079014 0.0034841064777543043
0.01875781575657 0.0022164503668279747 0.005268740262072605 0.9976321717103941 -0.013220890540163503 0.00019741487176679946 0.0026954495058409663 -0.00018104412396898853 -0.0016982665992510441
 0.9976321717103941 -0.013220890540163503 0.0022166857298363163 0.005268695442237286 -0.00018103412725192254 -0.0016982646252851914 0.00019611726382393234 0.0026956474722034207
 0.00019741487176679946 0.0026954495058409663 -0.00018103412725192254 -0.0016982646252851914 0.00221646266847692 0.0052689888902986365 0.9976321745789657 -0.013220639561012123
 -0.00018104412396898853 -0.0016982665992510441 0.00019611726382393234 0.0026956474722034207 0.9976321745789657 -0.013220639561012123 0.0022166789468838063 0.005268947945283189
0.02501042100875 0.0024288031993169243 0.007075811697130505 0.99735520372896 -0.017649078680496998 0.000261920250396152 0.003595498792984981 -0.00023633637580309984 -0.0022679782336747544
 0.99735520372896 -0.017649078680496998 0.002429221204056993 0.00707574677102099 -0.00023631873359589658 -0.002267975863120735 0.0002596156466879806 0.003595810385967761
 0.000261920250396152 0.003595498792984981 -0.00023631873359589658 -0.002267975863120735 0.002428824679324169 0.007076142476208283 0.9973552084579272 -0.01764874412184612
 -0.00023633637580309984 -0.0022679782336747544 0.0002596156466879806 0.003595810385967761 0.9973552084579272 -0.01764874412184612 0.002429208740528748 0.007076083132046671
0.03126302626094 0.002658803625712124 0.008903859272644813 0.9970536265527536 -0.02209159236003454 0.00033680325144235055 0.0044963653579669915 -0.0003001459490325035 -0.002839020440562102
 0.9970536265527536 -0.02209159236003454 0.0026594562180988304 0.008903771336885052 -0.00030011854994414896 -0.002839017840349311 0.00033320428915401 0.004496820758284285
 0.00033680325144235055 0.0044963653579669915 -0.00030011854994414896 -0.002839017840349311 0.0026588368164773345 0.008904271748753185 0.9970536336015765 -0.022091174157795015
 -0.0003001459490325035 -0.002839020440562102 0.00033320428915401 0.004496820758284285 0.9970536336015765 -0.022091174157795015 0.002659436342046698 0.008904191387138029
0.037515631513130004 0.002906828811796152 0.010752008815907627 0.9967271019535975 -0.026548851343889273 0.0004221704739125101 0.005397946452815245 -0.0003725858993380623 -0.0034112168830519366
 0.9967271019535975 -0.026548851343889273 0.002907767885128126 0.01075189477802943 -0.0003725466532372702 -0.0034112142421759447 0.0004169894081271358 0.005398579689778932
 0.0004221704739125101 0.005397946452815245 -0.0003725466532372702 -0.0034112142421759447 0.002906876240180053 0.010752502456993118 0.996727111787566 -0.02654834939411105
 -0.0003725858993380623 -0.0034112168830519366 0.0004169894081271358 0.005398579689778932 0.996727111787566 -0.02654834939411105 0.0029077388488306984 0.010752398317613788
0.043768236765320004 0.0031732503211678647 0.012619599546688455 0.9963752883056892 -0.031021048163816387 0.0005181270592023335 0.0063001212449448505 -0.00045376661435070706 -0.003984401910530545
 0.9963752883056892 -0.031021048163816387 0.0031745277306026065 0.012619456125039374 -0.0004537134508935628 -0.003984399440017799 0.0005110757149664942 0.0063009702374429415
 0.0005181270592023335 0.0063001212449448505 -0.0004537134508935628 -0.003984399440017799 0.003173314508092805 0.012620173740223221 0.9963753013982896 -0.031020462324411878
 -0.00045376661435070706 -0.003984401910530545 0.0005110757149664942 0.0063009702374429415 0.9963753013982896 -0.031020462324411878 0.003174487770005962 0.012620042921414294
0.050020842017509996 0.0034584355302612222 0.0145060878203367 0.9959978423216502 -0.03550824430315548 0.0006247763627035945 0.007202757114457321 -0.0005437959015288128 -0.004558414284501424
 0.9959978423216502 -0.03550824430315548 0.0034601031054907697 0.014505911543521231 -0.0005437267691671654 -0.00455841221736538 0.0006155661211294035 0.007203863713822712
 0.0006247763627035945 0.007202757114457321 -0.0005437267691671654 -0.00455841221736538 0.003458518988303565 0.014506741870914388 0.9959978591545734 -0.035507574395590775
 -0.0005437959015288128 -0.004558414284501424 0.0006155661211294035 0.007203863713822712 0.9959978591545734 -0.035507574395590775 0.0034600504379996267 0.014506581329675639
0.055454545454549996 0.0037217912456172014 0.016160481253934007 0.995648746638652 -0.03941991917172051 0.0007262203863421063 0.007987439925214609 -0.000629301995400624 -0.005057796151646225
 0.995648746638652 -0.03941991917172051 0.003723839967407727 0.01616027345769381 -0.0006292173335064709 -0.005057794641327584 0.0007148992637428803 0.00798880746806619
 0.0007262203863421063 0.007987439925214609 -0.0006292173335064709 -0.005057794641327584 0.0037218934836114235 0.01616120406546111 0.9956487671207551 -0.03941917604092586
 -0.000629301995400624 -0.005057796151646225 0.0007148992637428803 0.00798880746806619 0.9956487671207551 -0.03941917604092586 0.0037237747946552544 0.016161015113300665
0.056273447269699996 0.0037627483443525536 0.016410999905092934 0.9955944200929221 -0.04001041735007219 0.000742219715148836 0.008105712754914396 -0.0006427789909367763 -0.005133094106428128
 0.9955944200929221 -0.04001041735007219 0.0037648579008396407 0.016410787110999362 -0.0006426918561894248 -0.0051330926976133695 0.0007305615200774939 0.008107122788494356
 0.000742219715148836 0.008105712754914396 -0.0006426918561894248 -0.0051330926976133695 0.003762853576201976 0.01641173302567725 0.9955944411577577 -0.040009663167751515
 -0.0006427789909367763 -0.005133094106428128 0.0007305615200774939 0.008107122788494356 0.9955944411577577 -0.040009663167751515 0.0037647907246853678 0.016411539577435796
0.06252605252188 0.004086549565974345 0.018333906002771985 0.9951646777890216 -0.044527486912733436 0.000870556229252788 0.0090088398877921 -0.0007508184940561675 -0.005708281137944911
 0.9951646777890216 -0.044527486912733436 0.0040891529160159154 0.01833365283709228 -0.0007507113410629166 -0.005708280664244991 0.0008561606075607305 0.00901060320267775
 0.000870556229252788 0.0090088398877921 -0.0007507113410629166 -0.005708280664244991 0.004086679063896095 0.01833471732259138 0.9951647035893189 -0.044526648212410765
 -0.0007508184940561675 -0.005708281137944911 0.0008561606075607305 0.00901060320267775 0.9951647035893189 -0.044526648212410765 0.004089069409669161 0.018334487640545793
0.06877865777407 0.004430197076236226 0.02027440478391447 0.9947082721743719 -0.049059330025850355 0.0010098826325156479 0.009911984285174721 -0.0008680143364544749 -0.006283813819296523
 0.9947082721743719 -0.049059330025850355 0.004433346039182464 0.020274107198419173 -0.0008678851666004328 -0.00628381457931051 0.000992459724313104 0.009914154791780415
 0.0010098826325156479 0.009911984285174721 -0.0008678851666004328 -0.00628381457931051 0.004430353319173288 0.020275293343203667 0.9947083032256276 -0.04905840653259315
 -0.0008680143364544749 -0.006283813819296523 0.000992459724313104 0.009914154791780415 0.9947083032256276 -0.04905840653259315 0.0044332443593436 0.020275023957185
0.07503126302626001 0.0047940459008431364 0.02223211357410497 0.9942248610135255 -0.053605790913188935 0.0011602931124545402 0.010814986442018577 -0.000994463677605151 -0.006859528645095635
 0.9942248610135255 -0.053605790913188935 0.004797792313480877 0.022231767324435336 -0.0009943105092435234 -0.006859530959150092 0.0011395527084286422 0.010817622157248484
 0.0011602931124545402 0.010814986442018577 -0.0009943105092435234 -0.006859530959150092 0.004794231352849901 0.022233078325798645 0.9942248978453457 -0.05360478231826653
 -0.000994463677605151 -0.006859528645095635 0.0011395527084286422 0.010817622157248484 0.9942248978453457 -0.05360478231826653 0.00479767059402254 0.022232765620905
0.08128386827845 0.005178448207589825 0.024206661829496323 0.993714103414299 -0.058166687468390564 0.0013218791742090905 0.011717682016361659 -0.0011302608174145771 -0.007435259779217794
 0.993714103414299 -0.058166687468390564 0.005182843934025698 0.024206262472680574 -0.0011300816857034894 -0.007435263989312825 0.0012975307588007534 0.01172084510628864
 0.0013218791742090905 0.011717682016361659 -0.0011300816857034894 -0.007435263989312825 0.0051786653165284665 0.024207701637256145 0.9937141465713875 -0.05816559343102094
 -0.0011302608174145771 -0.007435259779217794 0.0012975307588007534 0.01172084510628864 0.9937141465713875 -0.05816559343102094 0.0051827002852896775 0.02420734185195576
0.08753647353064001 0.005583753256041567 0.026197686639584137 0.9931756601256785 -0.0627418157166564 0.0014947295014289942 0.012619902162952485 -0.0012754970986558522 -0.00801083878368501
 0.9931756601256785 -0.0627418157166564 0.00558885019784221 0.026197229530988415 -0.0012752900553747448 -0.008010845253417666 0.001466482300832287 0.012623658984772296
 0.0014947295014289942 0.012619902162952485 -0.0012752900553747448 -0.008010845253417666 0.005584004450785903 0.02619880027744699 0.9931757101688984 -0.06274063586405387
 -0.0012754970986558522 -0.00801083878368501 0.001466482300832287 0.012623658984772296 0.9931757101688984 -0.06274063586405387 0.005588682704779177 0.02619838950132674
0.09378907878283 0.006010307314018909 0.028204829509771653 0.9926091938077365 -0.06733095300498038 0.0016789298234516456 0.013521473770558876 -0.001430260802461832 -0.008586094451331544
 0.9926091938077365 -0.06733095300498038 0.006016157419850259 0.02820430979982693 -0.001430023915928179 -0.008586103565838396 0.0016464928574069842 0.013525894913893804
 0.0016789298234516456 0.013521473770558876 -0.001430023915928179 -0.008586103565838396 0.006010595003244298 0.028206015661032473 0.9926092513159095 -0.06732968693344939
 -0.001430260802461832 -0.008586094451331544 0.0016464928574069842 0.013525894913893804 0.9926092513159095 -0.06732968693344939 0.006015964141449973 0.02820554983215623
0.100041684035 0.0064584535517457345 0.030227734011168277 0.992014369283472 -0.07193386033401392 0.0018745627844167817 0.014422219655316055 -0.0015946370411881287 -0.009160852690334871
 0.992014369283472 -0.07193386033401392 0.006465108827596924 0.030227146641510022 -0.001594368396205927 -0.009160864856223727 0.001837644921431098 0.014427379982602654
 0.0018745627844167817 0.014422219655316055 -0.001594368396205927 -0.009160864856223727 0.006458780121541633 0.030228991271078174 0.9920144348542413 -0.0719325076061326
 -0.0015946370411881287 -0.009160852690334871 0.001837644921431098 0.014427379982602654 0.9920144348542413 -0.0719325076061326 0.0064648877951469655 0.030228466172837636
0.1059090909091 0.006898931981006004 0.03214003313246879 0.9914301016118382 -0.07626549864768013 0.002068612226092559 0.015266561876326946 -0.0017577021430953156 -0.009699592256828172
 0.9914301016118382 -0.07626549864768013 0.006906390181827662 0.03213937748117262 -0.0017574019689558659 -0.009699607674984331 0.002027224652297413 0.01527248777681128
 0.002068612226092559 0.015266561876326946 -0.0017574019689558659 -0.009699607674984331 0.00689929718468425 0.0321413557603838 0.9914301753104439 -0.07626406417810634
 -0.0017577021430953156 -0.009699592256828172 0.002027224652297413 0.01527248777681128 0.9914301753104439 -0.07626406417810634 0.006906141289448922 0.0321407710683274
0.1062942892872 0.00692853191711843 0.03226604402212615 0.9913908537740584 -0.07655028410725148 0.0020817078140459937 0.01532195871911158 -0.0017687076491084332 -0.009734936451456832
 0.9913908537740584 -0.07655028410725148 0.006936044435955022 0.03226538372141715 -0.0017684053469081416 -0.00973495209673419 0.0020400178298029484 0.015327937405110174
 0.0020817078140459937 0.01532195871911158 -0.0017684053469081416 -0.00973495209673419 0.0069288997293711725 0.03226737089415254 0.9913909280257166 -0.07654884425570824
 -0.0017687076491084332 -0.009734936451456832 0.0020400178298029484 0.015327937405110174 0.9913909280257166 -0.07654884425570824 0.006935793652407123 0.03226678215177508
0.11254689453939999 0.0074208789995945535 0.03431940238907353 0.990738317127508 -0.08117995747025084 0.002300441001439337 0.01622050608154431 -0.001952551070102839 -0.01030816568987381
 0.990738317127508 -0.08117995747025084 0.00742930091123394 0.03431866366837717 -0.0019522132282945807 -0.01030818526390076 0.0022536876396597 0.016227386651881885
 0.002300441001439337 0.01622050608154431 -0.0019522132282945807 -0.01030818526390076 0.0074212903894993205 0.034320797286733096 0.9907384007001928 -0.08117842999617002
 -0.001952551070102839 -0.01030816568987381 0.0022536876396597 0.016227386651881885 0.9907384007001928 -0.08117842999617002 0.007429018349582535 0.03432014036321394
0.11879949979160001 0.007935827882149998 0.03638744988790757 0.990056432038748 -0.08582260135914811 0.0025308349689473356 0.017117673200586665 -0.0021462422449022196 -0.010880357346511152
 0.990056432038748 -0.08582260135914811 0.007945211423488748 0.036386627035465045 -0.0021458669975405807 -0.01088038131988329 0.002478727004953829 0.017125543569262495
 0.0025308349689473356 0.017117673200586665 -0.0021458669975405807 -0.01088038131988329 0.007936285156433614 0.036388911134824016 0.9900565255954361 -0.08582098573216394
 -0.0021462422449022196 -0.010880357346511152 0.002478727004953829 0.017125543569262495 0.9900565255954361 -0.08582098573216394 0.007944895025486925 0.036388181326547794
0.1250521050438 0.00847370798595746 0.03846982441420553 0.9893448742636747 -0.09047792532986723 0.002772958748155965 0.01801326797917634 -0.002349852496957603 -0.01145132535166065
 0.9893448742636747 -0.09047792532986723 0.008484105490415153 0.038468911489974174 -0.002349437994497421 -0.011451354216199444 0.002715205054533192 0.018022220484955893
 0.002772958748155965 0.01801326797917634 -0.002349437994497421 -0.011451354216199444 0.00847421342062923 0.038471350241477596 0.9893449784921103 -0.09047622099124693
 -0.002349852496957603 -0.01145132535166065 0.002715205054533192 0.018022220484955893 0.9893449784921103 -0.09047622099124693 0.008483753165735216 0.03847054267319637
0.131304710296 0.00903484490858351 0.04056616034039529 0.9886033228313301 -0.09514562823078739 0.0030268776562720123 0.01890709486880534 -0.002563449418003278 -0.01202088064017072
 0.9886033228313301 -0.09514562823078739 0.00904630881626304 0.040565151169925734 -0.0025629938273523433 -0.012020914908829885 0.0029631872707503192 0.018917226310480803
 0.0030268776562720123 0.01890709486880534 -0.0025629938273523433 -0.012020914908829885 0.009035400746915606 0.04056774889178266 0.9886034384452567 -0.09514383458853985
 -0.002563449418003278 -0.01202088064017072 0.0029631872707503192 0.018917226310480803 0.9886034384452567 -0.09514383458853985 0.009045918441047462 0.04056685851120359
0.1375573155481 0.009495394698719446 0.042403262727294944 0.9879556820773839 -0.09955243206587894 0.003262188515382821 0.01977232290740998 -0.0027567078109961285 -0.01256216466423908
 0.9879556820773839 -0.09955243206587894 0.009507980483119476 0.04240217236192277 -0.0027562082356056635 -0.012562204406974817 0.0031924115131709103 0.01978362405191307
 0.003262188515382821 0.01977232290740998 -0.0027562082356056635 -0.012562204406974817 0.009496002419306612 0.04240491268089214 0.9879558096198671 -0.09955054874744787
 -0.0027567078109961285 -0.01256216466423908 0.0031924115131709103 0.01978362405191307 0.9879558096198671 -0.09955054874744787 0.009507550993425738 0.04240395490802265
0.1438099208003 0.009972285381647954 0.044229843319064766 0.9872849841138388 -0.10394720080621143 0.003506985445391924 0.020633474863129674 -0.0029576623936961996 -0.013099739334059632
 0.9872849841138388 -0.10394720080621143 0.009986046055458903 0.04422866688161815 -0.002957116833098764 -0.013099785063843666 0.0034308565464886654 0.020646034835390847
 0.003506985445391924 0.020633474863129674 -0.002957116833098764 -0.013099785063843666 0.009972947042619827 0.04423155277964767 0.9872851243011288 -0.1039452272300894
 -0.0029576623936961996 -0.013099739334059632 0.0034308565464886654 0.020646034835390847 0.9872851243011288 -0.1039452272300894 0.009985575470012545 0.044230523808429276
0.1500625260525 0.010465336053741187 0.046045724220999965 0.9865914144848748 -0.10832979928532664 0.003761175801640095 0.021490444219777274 -0.003166223714331756 -0.013633505742194307
 0.9865914144848748 -0.10832979928532664 0.010480324740981286 0.046044456561225224 -0.0031656301710725914 -0.013633557993006811 0.003678431507127807 0.021504355401964867
 0.003761175801640095 0.021490444219777274 -0.0031656301710725914 -0.013633557993006811 0.010466053672462833 0.04604749122052606 0.986591568055414 -0.10832773484858531
 -0.003166223714331756 -0.013633505742194307 0.003678431507127807 0.021504355401964867 0.986591568055414 -0.10832773484858531 0.01047981105822929 0.04604638701232911
0.15631513130469998 0.01097436437192073 0.04785073285002516 0.9858751598490727 -0.11270009338642137 0.004024665747471947 0.022343126447658877 -0.003382301134821373 -0.014163367224750782
 0.9858751598490727 -0.11270009338642137 0.01099063431086484 0.04784936853880337 -0.0033816576146603935 -0.014163426551535756 0.003935044369949967 0.022358484441936822
