! Created with skrf 1.8.0 (http://scikit-rf.org).
# GHz S RI R 50.0 
!freq ReS11 ImS11 ReS12 ImS12 ReS13 ImS13
! ReS14 ImS14
! ReS21 ImS21 ReS22 ImS22 ReS23 ImS23
! ReS24 ImS24
! ReS31 ImS31 ReS32 ImS32 ReS33 ImS33
! ReS34 ImS34
! ReS41 ImS41 ReS42 ImS42 ReS43 ImS43
! ReS44 ImS44
!
0.0 0.001510196310813 0.0 0.9984898036721 0.0 5.836175983658e-05 0.0 -5.83617597478e-05 7.14725422677501e-21
 0.9984898036721 0.0 0.001510196310843 0.0 -5.836175974839e-05 7.147254226847265e-21 5.836175983729e-05 0.0
 5.836175983658e-05 0.0 -5.836175974839e-05 7.147254226847265e-21 0.001510196319349 0.0 0.9984898036806 0.0
 -5.83617597478e-05 7.14725422677501e-21 5.836175983729e-05 0.0 0.9984898036806 0.0 0.001510196319351 0.0
0.005 0.001624794123238278 0.0012324731102870301 0.9983448372392433 -0.003163714895720738 8.214919529701507e-05 0.0006616934523247561 -7.971120286714257e-05 -0.00041208787495225957
 0.9983448372392433 -0.003163714895720738 0.0016247885752165754 0.0012324763140520636 -7.97125877776178e-05 -0.00041208885105780676 8.217645631273046e-05 0.0006616829889923423
 8.214919529701507e-05 0.0006616934523247561 -7.97125877776178e-05 -0.00041208885105780676 0.0016247934924202667 0.0012324061594329418 0.9983448368777329 -0.0031637819547105685
 -7.971120286714257e-05 -0.00041208787495225957 8.217645631273046e-05 0.0006616829889923423 0.9983448368777329 -0.0031637819547105685 0.001624788491853787 0.0012324091562410267
0.006252605252188 0.0016548238332406177 0.0015454576060678277 0.9983066154101812 -0.003955423033348093 8.892089573274568e-05 0.0008274310671042349 -8.57279552092106e-05 -0.0005156484925965466
 0.9983066154101812 -0.003955423033348093 0.0016548151612795123 0.001545461688557854 -8.573011095138876e-05 -0.0005156496943242244 8.896348769390382e-05 0.0008274174952179804
 8.892089573274568e-05 0.0008274310671042349 -8.573011095138876e-05 -0.0005156496943242244 0.0016548229267604137 0.0015453739189605392 0.9983066149238721 -0.003955506852936303
 -8.57279552092106e-05 -0.0005156484925965466 8.896348769390382e-05 0.0008274174952179804 0.9983066149238721 -0.003955506852936303 0.0016548151096016461 0.0015453777569720472
0.01250521050438 0.0018127562198760924 0.003123441765712081 0.9981042981813742 -0.00791169387068368 0.00012762743442516146 0.001655182012459478 -0.0001198072711524557 -0.0010338320323466964
 0.9981042981813742 -0.00791169387068368 0.0018127216011368215 0.003123450720543204 -0.00011981577545332582 -0.0010338342332231396 0.00012779725404999764 0.0016551495506115723
 0.00012762743442516146 0.001655182012459478 -0.00011981577545332582 -0.0010338342332231396 0.0018127531852573137 0.0031232746174118145 0.9981042968123008 -0.00791186128646792
 -0.0001198072711524557 -0.0010338320323466964 0.00012779725404999764 0.0016551495506115723 0.9981042968123008 -0.00791186128646792 0.0018127219627749813 0.003123283225255664
0.01875781575657 0.0019843333481527926 0.004724010086957529 0.9978826040149485 -0.011878450002311872 0.00017457065797859455 0.002483832284318638 -0.0001607040822320959 -0.0015537824477406656
 0.9978826040149485 -0.011878450002311872 0.0019842555753785966 0.004724024770916223 -0.00016072305934855625 -0.001553785403741984 0.00017495207625029726 0.0024837745734940645
 0.00017457065797859455 0.002483832284318638 -0.00016072305934855625 -0.001553785403741984 0.001984326974935376 0.004723759607965846 0.9978826013571176 -0.0118787009607673
 -0.0001607040822320959 -0.0015537824477406656 0.00017495207625029726 0.0024837745734940645 0.9978826013571176 -0.0118787009607673 0.0019842567997642065 0.004723773982646656
0.02501042100875 0.0021698853305632004 0.006344920707250365 0.9976412752849287 -0.01585761833405974 0.0002298409073953571 0.0033134255589393076 -0.00020851937193988677 -0.0020752617298404044
 0.9976412752849287 -0.01585761833405974 0.002169747241889636 0.006344942038796425 -0.0002085529008933832 -0.002075265151536649 0.00023051829145851843 0.003313335240579163
 0.0002298409073953571 0.0033134255589393076 -0.0002085529008933832 -0.002075265151536649 0.0021698744288689833 0.0063445870483042534 0.9976412709329626 -0.015857952835147467
 -0.00020851937193988677 -0.0020752617298404044 0.00023051829145851843 0.003313335240579163 0.9976412709329626 -0.015857952835147467 0.002169749776638918 0.006344608248587163
0.03126302626094 0.0023697286087190836 0.007985021767662576 0.9973800410486485 -0.019850025679196647 0.0002935289785431692 0.0041439271146617215 -0.0002633512842596755 -0.002598104695579086
 0.9973800410486485 -0.019850025679196647 0.0023695130789388864 0.007985050726312918 -0.0002634034065296619 -0.0025981082475805563 0.00029458677267173595 0.004143795826202516
 0.0002935289785431692 0.0041439271146617215 -0.0002634034065296619 -0.0025981082475805563 0.0023697120047074484 0.007984605114192949 0.9973800345928754 -0.019850443762016952
 -0.0002633512842596755 -0.002598104695579086 0.00029458677267173595 0.004143795826202516 0.9973800345928754 -0.019850443762016952 0.002369517367389199 0.007984634260338507
0.037515631513130004 0.0025841728052531437 0.009643563621033397 0.9970986241123195 -0.023856086489565248 0.0003657252592567185 0.004975271350278956 -0.0003252958623403144 -0.0031221714741551158
 0.9970986241123195 -0.023856086489565248 0.002583862740045606 0.009643601247160695 -0.00032537058575742527 -0.0031221747748889058 0.0003672480218587098 0.004975089715849726
 0.0003657252592567185 0.004975271350278956 -0.00032537058575742527 -0.0031221747748889058 0.0025841493430394874 0.009643064194408241 0.9970986151386364 -0.02385658823131879
 -0.0003252958623403144 -0.0031221714741551158 0.0003672480218587098 0.004975089715849726 0.9970986151386364 -0.02385658823131879 0.002583869224104711 0.009643102468097936
0.043768236765320004 0.0028135233722927813 0.011319989540798823 0.9967967438913639 -0.027876012077539588 0.00044651932575276324 0.005807376239324555 -0.0003944473132325455 -0.0036473330540983937
 0.9967967438913639 -0.027876012077539588 0.002813101703984428 0.011320036935593199 -0.0003945486141679949 -0.003647335675680464 0.00044859174679636935 0.005807133859012753
 0.00044651932575276324 0.005807376239324555 -0.0003945486141679949 -0.003647335675680464 0.0028134919139004544 0.011319407612415382 0.996796731980823 -0.02787659757963427
 -0.0003944473132325455 -0.0036473330540983937 0.00044859174679636935 0.005807133859012753 0.996796731980823 -0.02787659757963427 0.0028131108253196552 0.011319456256833458
0.050020842017509996 0.003058082823260929 0.013013849207754478 0.9964741178583172 -0.03190989705820329 0.0005359996975273669 0.006640149300059779 -0.00047089810682052023 -0.0041734653155883015
 0.9964741178583172 -0.03190989705820329 0.0030575325071194636 0.013013907533296969 -0.00047102993158214566 -0.0041734667837191085 0.0005387066065236553 0.00663983473856554
 0.0005359996975273669 0.006640149300059779 -0.00047102993158214566 -0.0041734667837191085 0.0030580422484938106 0.013013185092727763 0.9964741025849561 -0.031910566452815314
 -0.00047089810682052023 -0.0041734653155883015 0.0005387066065236553 0.00663983473856554 0.9964741025849561 -0.031910566452815314 0.0030575447076408905 0.013013245412784393
0.055454545454549996 0.003283197077267517 0.014499721717233157 0.9961766776655185 -0.035426819229433165 0.0006208830211520352 0.0073643194451946765 -0.000543334650595134 -0.004631383619589896
 0.9961766776655185 -0.035426819229433165 0.0032825211352504684 0.014499790533080682 -0.0005434961836279381 -0.004631383664048268 0.0006242103208925308 0.007363932056303413
 0.0006208830211520352 0.0073643194451946765 -0.0005434961836279381 -0.004631383664048268 0.0032831476852987285 0.014498986472248048 0.9961766591185887 -0.03542756165764126
 -0.000543334650595134 -0.004631383619589896 0.0006242103208925308 0.007363932056303413 0.9961766591185887 -0.03542756165764126 0.0032825363727788897 0.01449905804660725
0.056273447269699996 0.003318151363520602 0.014724756261384923 0.9961304623916033 -0.03595776172813088 0.0006342536648878109 0.007473490522897987 -0.0005547389986623164 -0.0047004461077868095
 0.9961304623916033 -0.03595776172813088 0.0033174553746075984 0.014724826740796277 -0.0005549052643160755 -0.004700445901683981 0.0006376800324006358 0.007473091297880664
 0.0006342536648878109 0.007473490522897987 -0.0005549052643160755 -0.004700445901683981 0.0033181005714821516 0.014724010321432788 0.9961304433227888 -0.035958515175431575
 -0.0005547389986623164 -0.0047004461077868095 0.0006376800324006358 0.007473091297880664 0.9961304433227888 -0.035958515175431575 0.0033174710990119018 0.014724083683946123
0.06252605252188 0.003594027231400544 0.016452364952006592 0.9957654933387216 -0.04001957534570812 0.0007413671508573958 0.008307293983661618 -0.0006460590151412234 -0.005228153643525115
 0.9957654933387216 -0.04001957534570812 0.0035931685613469514 0.016452448869862753 -0.0006462636100448112 -0.005228151195863399 0.00074559808620695 0.008306796554039153
 0.0007413671508573958 0.008307293983661618 -0.0006462636100448112 -0.005228151195863399 0.00359396514094601 0.016451537600648596 0.9957654700341406 -0.04002041302892373
 -0.0006460590151412234 -0.005228153643525115 0.00074559808620695 0.008306796554039153 0.9957654700341406 -0.04002041302892373 0.003593188258144116 0.016451625434739253
0.06877865777407 0.003886006876779126 0.0181963562308301 0.9953789264211214 -0.04409526997699335 0.0008574245924021501 0.009141448804893117 -0.000744945417036778 -0.005756465549669652
 0.9953789264211214 -0.04409526997699335 0.003884968531346702 0.01819645493339388 -0.0007451922011687676 -0.005756460246525688 0.0008625453384962094 0.009140838559069228
 0.0008574245924021501 0.009141448804893117 -0.0007451922011687676 -0.005756460246525688 0.0038859324264067492 0.018195447925412032 0.9953788984305961 -0.0440961921104859
 -0.000744945417036778 -0.005756465549669652 0.0008625453384962094 0.009140838559069228 0.9953788984305961 -0.0440961921104859 0.003884992653219133 0.01819555172284698
0.07503126302626001 0.004194385046159578 0.01995642892041546 0.9949704775475127 -0.048184749265116615 0.000982508833106453 0.009975839771421696 -0.0008514836497137227 -0.006285258267167912
 0.9949704775475127 -0.048184749265116615 0.0041931500418664 0.019956543816191656 -0.0008517764547606914 -0.0062852494479775315 0.0009886047589448637 0.009975101015580655
 0.000982508833106453 0.009975839771421696 -0.0008517764547606914 -0.0062852494479775315 0.0041942971955844675 0.019955440169773936 0.9949704444115106 -0.048185756086746495
 -0.0008514836497137227 -0.006285258267167912 0.0009886047589448637 0.009975101015580655 0.9949704444115106 -0.048185756086746495 0.004193179048214763 0.0199555614854633
0.08128386827845 0.004519454807433033 0.021732293850225248 0.9945398630727876 -0.052287894238791 0.0011167010229215586 0.010810347739722621 -0.0009657572838859375 -0.006814406661543401
 0.9945398630727876 -0.052287894238791 0.0045180061697107626 0.02173242641040779 -0.0009660999133313985 -0.006814393619067306 0.001123857615088185 0.01080946368619422
 0.0011167010229215586 0.010810347739722621 -0.0009660999133313985 -0.006814393619067306 0.0045193525380687275 0.021731225213031034 0.9945398243209851 -0.05228898601179925
 -0.0009657572838859375 -0.006814406661543401 0.001123857615088185 0.01080946368619422 0.9945398243209851 -0.05228898601179925 0.004518040527286799 0.02173136566552647
0.08753647353064001 0.004861507536240771 0.023523669796521242 0.9940868000196167 -0.05640456732136234 0.0012600805224333965 0.01164484993068052 -0.0010878479511220174 -0.007343783754355882
 0.9940868000196167 -0.05640456732136234 0.004859828295797243 0.02352382155568874 -0.001088244180056604 -0.007343765734656102 0.0012683833744422887 0.011643802686410893
 0.0012600805224333965 0.01164484993068052 -0.001088244180056604 -0.007343765734656102 0.00486138985211519 0.02352252187818624 0.9940867551698578 -0.05640574433736166
 -0.0010878479511220174 -0.007343783754355882 0.0012683833744422887 0.011643802686410893 0.9940867551698578 -0.05640574433736166 0.004859868480967913 0.023522683150300223
0.09378907878283 0.0052208328738339044 0.02533028058083082 0.9936110062764867 -0.06053461518602159 0.0014127248098192002 0.012479220139619796 -0.0012178352742622783 -0.007873260542014551
 0.9936110062764867 -0.06053461518602159 0.005218906064706538 0.025330453137704406 -0.0012182888493164259 -0.007873236744440609 0.0014222596110267949 0.012477990694785801
 0.0014127248098192002 0.012479220139619796 -0.0012182888493164259 -0.007873236744440609 0.005220698802086638 0.02532905403751864 0.9936109548339004 -0.06053587776099752
 -0.0012178352742622783 -0.007873260542014551 0.0014222596110267949 0.012477990694785801 0.9936109548339004 -0.06053587776099752 0.005218952563945346 0.025329237877030404
0.100041684035 0.005597718666443573 0.027151852948640375 0.9931122007796874 -0.06467787083612102 0.0015747093901493537 0.013313328898363282 -0.0013557967948639265 -0.008402705867199382
 0.9931122007796874 -0.06467787083612102 0.0055955273231294705 0.027152047966763036 -0.00135631143398697 -0.0084026754443699 0.001585561913303482 0.013311897115148644
 0.0015747093901493537 0.013313328898363282 -0.00135631143398697 -0.0084026754443699 0.005597567258484519 0.027150548486697065 0.9931121422357868 -0.064679219310976
 -0.0013557967948639265 -0.008402705867199382 0.001585561913303482 0.013311897115148644 0.9931121422357868 -0.064679219310976 0.005595580634753313 0.027150756707131768
0.1059090909091 0.005967611819248445 0.02887457056602929 0.9926229464891307 -0.06857772976208437 0.0017352750805688156 0.014095695632811673 -0.0014925786756440557 -0.008899386733921995
 0.9926229464891307 -0.06857772976208437 0.005965156806907687 0.028874788233306144 -0.001493153972512459 -0.008899349281700645 0.0017474422183139937 0.014094054646827916
 0.0017352750805688156 0.014095695632811673 -0.001493153972512459 -0.008899349281700645 0.005967443302521111 0.0288731936726111 0.9926228808058856 -0.0685791591772009
 -0.0014925786756440557 -0.008899386733921995 0.0017474422183139937 0.014094054646827916 0.9926228808058856 -0.0685791591772009 0.005965216976598071 0.028873426480559586
0.1062942892872 0.005992450888688071 0.0289881149711829 0.9925901036830823 -0.06883415516770135 0.0017461077055530576 0.014147043602556666 -0.00150180789827996 -0.00893198632991177
 0.9925901036830823 -0.06883415516770135 0.005989978043544419 0.02898833418000055 -0.0015023872904177896 -0.008931948387735582 0.0017583637938396184 0.014145388204083275
 0.0017461077055530576 0.014147043602556666 -0.0015023872904177896 -0.008931948387735582 0.005992281220825264 0.028986733346089404 0.9925900375147227 -0.06883558990917218
 -0.00150180789827996 -0.00893198632991177 0.0017583637938396184 0.014145388204083275 0.9925900375147227 -0.06883558990917218 0.0059900386794888094 0.028986967827497323
0.11254689453939999 0.006405313557797344 0.03083879483049778 0.9920444365211666 -0.07300327815447605 0.0019269910469003556 0.014980228616203514 -0.001655941736440892 -0.009460966226240647
 0.9920444365211666 -0.07300327815447605 0.006402542238518475 0.030839040026199402 -0.0016565895412963844 -0.009460919823915217 0.0019407365998967737 0.014978327175634519
 0.0019269910469003556 0.014980228616203514 -0.0016565895412963844 -0.009460919823915217 0.006405124732266753 0.030837336846973904 0.9920443621895663 -0.07300479955483473
 -0.001655941736440892 -0.009460966226240647 0.0019407365998967737 0.014978327175634519 0.9920443621895663 -0.07300479955483473 0.006402610725333847 0.03083759953694853
0.11879949979160001 0.0068365886370701555 0.032703619862563725 0.9914749223642768 -0.07718503978028833 0.00211742846556501 0.015812745359779008 -0.001818269149489496 -0.009989507508569676
 0.9914749223642768 -0.07718503978028833 0.006833501863950057 0.03270389290932716 -0.0018189889971486663 -0.009989451658615344 0.0021327494249192124 0.01581057428970477
 0.00211742846556501 0.015812745359779008 -0.0018189889971486663 -0.009989451658615344 0.006836379782849785 0.03270208637465165 0.991474839314134 -0.07718664825710093
 -0.001818269149489496 -0.009989507508569676 0.0021327494249192124 0.01581057428970477 0.991474839314134 -0.07718664825710093 0.006833578744516218 0.03270237928932847
0.1250521050438 0.007286555934093502 0.03458231581932062 0.9908812859719366 -0.08137923075884401 0.002317486686217336 0.016644452387404696 -0.0019888585860013625 -0.010517469762027755
 0.9908812859719366 -0.08137923075884401 0.007283136717373525 0.034582618650469917 -0.001989654076557832 -0.01051740343030804 0.0023344690203950286 0.01664198692934506
 0.002317486686217336 0.016644452387404696 -0.001989654076557832 -0.01051740343030804 0.007286326207875724 0.034580707730512514 0.9908811936303571 -0.08138092675457483
 -0.0019888585860013625 -0.010517469762027755 0.0023344690203950286 0.01664198692934506 0.9908811936303571 -0.08138092675457483 0.007283222552499329 0.03458103295569105
0.131304710296 0.0077554929925371064 0.03647460626551205 0.990263253941959 -0.08558563312470693 0.0025272300196954697 0.017475205457119336 -0.002167776022330814 -0.01104471019289425
 0.990263253941959 -0.08558563312470693 0.007751724329950294 0.03647494088483636 -0.002168650725505315 -0.011044632298687082 0.002545959708389713 0.017472419671312845
 0.0025272300196954697 0.017475205457119336 -0.002168650725505315 -0.011044632298687082 0.007755241579459726 0.03647292452845228 0.9902631517171521 -0.08558741710668144
 -0.002167776022330814 -0.01104471019289425 0.002545959708389713 0.017472419671312845 0.9902631517171521 -0.08558741710668144 0.007751819699381378 0.03647328422081327
0.1375573155481 0.008135655898777558 0.03813273292612852 0.9897286163032355 -0.08955642667781859 0.0027200034153510065 0.01827980239979987 -0.0023283514589293383 -0.011546060722063453
 0.9897286163032355 -0.08955642667781859 0.008131518700094246 0.038133093690669286 -0.0023293104058915433 -0.011545971176140863 0.0027405264218194384 0.018276700475531444
 0.0027200034153510065 0.01827980239979987 -0.0023293104058915433 -0.011545971176140863 0.008135380870656786 0.03813097892861756 0.9897285037340574 -0.08955829893980147
 -0.0023283514589293383 -0.011546060722063453 0.0027405264218194384 0.018276700475531444 0.9897285037340574 -0.08955829893980147 0.008131625070299544 0.03813136647612881
0.1438099208003 0.008529174838088552 0.039782189194986606 0.9891752132087817 -0.09351723600669884 0.0029205657452955293 0.019081255319232365 -0.0024953592956445075 -0.012044510350098158
 0.9891752132087817 -0.09351723600669884 0.008524651741350727 0.039782577602952514 -0.0024964062759535288 -0.012044408096952014 0.0029429608301449676 0.019077813509793127
 0.0029205657452955293 0.019081255319232365 -0.0024964062759535288 -0.012044408096952014 0.008528875219250278 0.03978036400115951 0.9891750897030614 -0.09351919700950621
 -0.0024953592956445075 -0.012044510350098158 0.0029429608301449676 0.019077813509793127 0.9891750897030614 -0.09351919700950621 0.008524769881148675 0.03978078093443288
0.1500625260525 0.008935912569559407 0.041422839358666495 0.9886031859441448 -0.09746796520452539 0.003128849001693234 0.019879485958297385 -0.002668732997663774 -0.012539983995101882
 0.9886031859441448 -0.09746796520452539 0.008930986182645642 0.04142325698942974 -0.0026698717894084747 -0.012539867937367537 0.003153194472717049 0.019875679648164248
 0.003128849001693234 0.019879485958297385 -0.0026698717894084747 -0.012539867937367537 0.008935587398912167 0.04142094407554898 0.9886030508939929 -0.09747001542810244
 -0.002668732997663774 -0.012539983995101882 0.003153194472717049 0.019875679648164248 0.9886030508939929 -0.09747001542810244 0.00893111689065182 0.04142139200283769
0.15631513130469998 0.009355730890668268 0.04305455180875915 0.9880126765006004 -0.10140851865242316 0.0033447843856160868 0.020674417371054975 -0.0028484052185530095 -0.01303240815163738
