! Created with skrf 1.8.0 (http://scikit-rf.org).
# GHz S RI R 50.0 
!freq ReS11 ImS11 ReS12 ImS12 ReS13 ImS13
! ReS14 ImS14
! ReS21 ImS21 ReS22 ImS22 ReS23 ImS23
! ReS24 ImS24
! ReS31 ImS31 ReS32 ImS32 ReS33 ImS33
! ReS34 ImS34
! ReS41 ImS41 ReS42 ImS42 ReS43 ImS43
! ReS44 ImS44
!
0.0 0.00164018777414 0.0 0.9983598122088 0.0 6.332738117915e-05 0.0 -6.332738153366e-05 7.755367509357992e-21
 0.9983598122088 0.0 0.001640187774154 0.0 -6.332738153396e-05 7.755367509394732e-21 6.332738117794e-05 0.0
 6.332738117915e-05 0.0 -6.332738153396e-05 7.755367509394732e-21 0.001640187782678 0.0 0.9983598122173 0.0
 -6.332738153366e-05 7.755367509357992e-21 6.332738117794e-05 0.0 0.9983598122173 0.0 0.00164018778268 0.0
0.005 0.001764979415495689 0.0013434507543947556 0.9982018957289321 -0.0034352902489344843 8.860488570251168e-05 0.000686517314490693 -8.609580081937163e-05 -0.0004328236416731828
 0.9982018957289321 -0.0034352902489344843 0.0017649896254493208 0.001343444829911126 -8.609796398409765e-05 -0.00043282533581514085 8.854220200135014e-05 0.0006865413249548179
 8.860488570251168e-05 0.000686517314490693 -8.609796398409765e-05 -0.00043282533581514085 0.0017649777646107682 0.0013433844883152099 0.9982018953633423 -0.0034353573093522075
 -8.609580081937163e-05 -0.0004328236416731828 8.854220200135014e-05 0.0006865413249548179 0.9982018953633423 -0.0034353573093522075 0.0017649905477159992 0.001343376975837245
0.006252605252188 0.0017977949861758857 0.0016845771479238186 0.9981600953198256 -0.004294938106293922 9.58703828706171e-05 0.0008584790337415673 -9.255942712281423e-05 -0.0005415813273918971
 0.9981600953198256 -0.004294938106293922 0.00179781094540827 0.0016845695748146758 -9.256279291748574e-05 -0.0005415834166636302 9.577244737556024e-05 0.000858510197595566
 9.58703828706171e-05 0.0008584790337415673 -9.256279291748574e-05 -0.0005415834166636302 0.0017977924745442972 0.001684494336795562 0.9981600948178988 -0.004295021916250108
 -9.255942712281423e-05 -0.0005415813273918971 9.577244737556024e-05 0.000858510197595566 0.9981600948178988 -0.004295021916250108 0.001797812456955763 0.0016844847679554332
0.01250521050438 0.0019710467344359094 0.003404240805028467 0.9979378948217676 -0.008590569721454855 0.00013776788479808924 0.0017173127896659528 -0.0001294222597611231 -0.0010857204827606508
 0.9979378948217676 -0.008590569721454855 0.0019711104497183263 0.0034042239673832513 -0.0001294355208146402 -0.001085724348596197 0.00013737739549737516 0.0017173876001018197
 0.00013776788479808924 0.0017173127896659528 -0.0001294355208146402 -0.001085724348596197 0.0019710372777247665 0.003404075489950564 0.9979378933952224 -0.008590737109678202
 -0.0001294222597611231 -0.0010857204827606508 0.00013737739549737516 0.0017173876001018197 0.9979378933952224 -0.008590737109678202 0.0019711170705377363 0.003404054528028181
0.01875781575657 0.002160339965142546 0.005148176507677417 0.9976929212413351 -0.012897326293358744 0.00018911999562357503 0.002577049047317542 -0.00017403288942413817 -0.0016316366560575131
 0.9976929212413351 -0.012897326293358744 0.0021604831183825337 0.005148148602096168 -0.00017406245727862328 -0.0016316419226891146 0.00018824293312827954 0.0025771825770609515
 0.00018911999562357503 0.002577049047317542 -0.00017406245727862328 -0.0016316419226891146 0.0021603191299217777 0.005147928912837126 0.9976929184608646 -0.012897577158987152
 -0.00017403288942413817 -0.0016316366560575131 0.00018824293312827954 0.0025771825770609515 0.9976929184608646 -0.012897577158987152 0.0021604984353876967 0.005147894544843655
0.02501042100875 0.0023660587709518626 0.006913924933906093 0.9974248731375185 -0.017217271424611474 0.0002500281618361411 0.0034377054773086922 -0.00022650423561502108 -0.00217907237242103
 0.9974248731375185 -0.017217271424611474 0.00236631296861318 0.006913884053261187 -0.00022655644341221283 -0.0021790785945453414 0.0002484705143051828 0.003437915298287813
 0.0002500281618361411 0.0034377054773086922 -0.00022655644341221283 -0.0021790785945453414 0.0023660221275105756 0.006913595292395552 0.9974248685751005 -0.0172176057042238
 -0.00022650423561502108 -0.00217907237242103 0.0002484705143051828 0.003437915298287813 0.9974248685751005 -0.0172176057042238 0.0023663405712432708 0.006913545328151052
0.03126302626094 0.002588571377607521 0.008700208653177466 0.9971334343824196 -0.021551274099658083 0.00032059407397410955 0.0042992216295608425 -0.00028694583094802164 -0.002727841480759668
 0.9971334343824196 -0.021551274099658083 0.00258896816776437 0.008700152788107101 -0.0002870269465669546 -0.0027278481427756842 0.0003181616562784387 0.004299527825756881
 0.00032059407397410955 0.0042992216295608425 -0.0002870269465669546 -0.0027278481427756842 0.002588514497656144 0.008699797229193076 0.9971334276109842 -0.02155169174545193
 -0.00028694583094802164 -0.002727841480759668 0.0003181616562784387 0.004299527825756881 0.9971334276109842 -0.02155169174545193 0.0025890116492801674 0.00869972930250446
0.037515631513130004 0.0028282378491042465 0.010506185791940388 0.9968182821493992 -0.02589975495679858 0.00040091866137762834 0.005161505895674061 -0.0003554645837933727 -0.003277782200963096
 0.9968182821493992 -0.02589975495679858 0.002828808732409433 0.010506112831683656 -0.0003555808165805343 -0.003277788716784398 0.0003974170353212366 0.005161931086805861
 0.00040091866137762834 0.005161505895674061 -0.0003555808165805343 -0.003277788716784398 0.002828156305709415 0.010505692873653681 0.9968182727425223 -0.025900255944270412
 -0.0003554645837933727 -0.003277782200963096 0.0003974170353212366 0.005161931086805861 0.9968182727425223 -0.025900255944270412 0.0028288716910226806 0.010505604442322054
0.043768236765320004 0.003085413059188674 0.012331222887385543 0.9964790901702979 -0.030262913361630655 0.0004911016115540497 0.006024449796916315 -0.00043216504157423053 -0.0038287428479204235
 0.9964790901702979 -0.030262913361630655 0.0030861894987863807 0.012331130620155773 -0.00043232254634874306 -0.003828748560936448 0.0004863360498391647 0.006025019165445508
 0.0004911016115540497 0.006024449796916315 -0.00043232254634874306 -0.003828748560936448 0.0030853024248873695 0.012330648813132759 0.996479077700586 -0.030263497664022976
 -0.00043216504157423053 -0.0038287428479204235 0.0004863360498391647 0.006025019165445508 0.996479077700586 -0.030263497664022976 0.0030862755359614574 0.012330537158439535
0.050020842017509996 0.003360448061867505 0.014174801059865976 0.9961155303951623 -0.03464082116024745 0.0005912410754620789 0.006887933890239276 -0.0005171494760377234 -0.004380575940894224
 0.9961155303951623 -0.03464082116024745 0.0033614614907182387 0.01417468717316733 -0.0005173543555684618 -0.004380580124002991 0.000585016548272608 0.00688867520979064
 0.0005912410754620789 0.006887933890239276 -0.0005173543555684618 -0.004380580124002991 0.0033603039096703766 0.014174146205512769 0.9961155144350663 -0.0346414887619888
 -0.0005171494760377234 -0.004380575940894224 0.000585016548272608 0.00688867520979064 0.9961155144350663 -0.0346414887619888 0.003361574212719673 0.01417400843135823
0.055454545454549996 0.0036142364404134256 0.015791632974009904 0.9957795409162039 -0.03845732804078414 0.000686426127023773 0.007638667570010422 -0.0005978088510987893 -0.004860730643999088
 0.9957795409162039 -0.03845732804078414 0.0036154813298771163 0.01579149834299854 -0.0005980598177433914 -0.00486073285235298 0.0006787750923217685 0.007639582909969067
 0.000686426127023773 0.007638667570010422 -0.0005980598177433914 -0.00486073285235298 0.0036140595647061284 0.01579090825807851 0.9957795215749069 -0.038458068024311155
 -0.0005978088510987893 -0.004860730643999088 0.0006787750923217685 0.007639582909969067 0.9957795215749069 -0.038458068024311155 0.003615620173722724 0.015790745294719213
0.056273447269699996 0.0036536907860348386 0.016036469923848187 0.9957272739820451 -0.039033468696401945 0.0007014334536417247 0.007751830661428287 -0.0006105178892487822 -0.004933135330281403
 0.9957272739820451 -0.039033468696401945 0.003654972614613558 0.016036332004372652 -0.0006107761958968455 -0.004933137185926739 0.0006935546297698697 0.007752774325700703
 0.0007014334536417247 0.007751830661428287 -0.0006107761958968455 -0.004933137185926739 0.0036535086889604522 0.01603573470543486 0.9957272541033009 -0.03903421959110503
 -0.0006105178892487822 -0.004933135330281403 0.0006935546297698697 0.007752774325700703 0.9957272541033009 -0.03903421959110503 0.0036551156321109517 0.01603556773720071
0.06252605252188 0.003965486401051981 0.017915822261494126 0.9953139919612691 -0.04344079006993551 0.0008217732223545883 0.008616006135621775 -0.0007123679803157538 -0.005486274611991459
 0.9953139919612691 -0.04344079006993551 0.003967068024347683 0.017915657794916495 -0.0007126857172503142 -0.0054862732722205 0.0008120444788867444 0.008617185187561967
 0.0008217732223545883 0.008616006135621775 -0.0007126857172503142 -0.0054862732722205 0.003965261932744898 0.017915007148693148 0.9953139677343604 -0.04344162424759555
 -0.0007123679803157538 -0.005486274611991459 0.0008120444788867444 0.008617185187561967 0.9953139677343604 -0.04344162424759555 0.003967244951938354 0.017914807732001596
0.06877865777407 0.004296177496038967 0.019812478935869886 0.9948753557181108 -0.04786267816088332 0.0009523527841122834 0.009480320831047832 -0.0008227950866232352 -0.006039846204186538
 0.9948753557181108 -0.04786267816088332 0.004298090300052456 0.019812285306386276 -0.0008231782084365879 -0.006039840730732814 0.0009405782232044108 0.009481770991948087
 0.0009523527841122834 0.009480320831047832 -0.0008231782084365879 -0.006039840730732814 0.004295906230982427 0.01981158443692948 0.9948753267127484 -0.047863595623712125
 -0.0008227950866232352 -0.006039846204186538 0.0009405782232044108 0.009481770991948087 0.9948753267127484 -0.047863595623712125 0.004298304757189252 0.019811349135949775
0.07503126302626001 0.004646104155142677 0.021726079310756725 0.9944110373769494 -0.05229899415300031 0.0010932623298766024 0.010344630377773419 -0.0009418921125264308 -0.006593700764876898
 0.9944110373769494 -0.05229899415300031 0.004648379524024298 0.021725853800428244 -0.0009423465258082582 -0.006593690149230047 0.0010792458002199434 0.010346390076197578
 0.0010932623298766024 0.010344630377773419 -0.0009423465258082582 -0.006593690149230047 0.004645781668621722 0.021725105983104852 0.9944110031609525 -0.05229999490551478
 -0.0009418921125264308 -0.006593700764876898 0.0010792458002199434 0.010346390076197578 0.9944110031609525 -0.05229999490551478 0.0046486351335445365 0.021724831178856905
0.08128386827845 0.005015603961832603 0.023656274895081323 0.9939207101177171 -0.056749573839317446 0.0012445897105965872 0.011208785938267594 -0.0010697494476741634 -0.007147686813751048
 0.9939207101177171 -0.056749573839317446 0.005018273284187729 0.023656014682862436 -0.0010702810112654284 -0.007147669977242905 0.0012281348327234916 0.011210896338772841
 0.0012445897105965872 0.011208785938267594 -0.0010702810112654284 -0.007147669977242905 0.005015225831206705 0.02365522334407868 0.9939206702576455 -0.05675065789027009
 -0.0010697494476741634 -0.007147686813751048 0.0012281348327234916 0.011210896338772841 0.9939206702576455 -0.05675065789027009 0.005018573673285513 0.023654905232358032
0.08753647353064001 0.005405011960265348 0.025602724942923642 0.9934040484538325 -0.061214231978881 0.0014064203138766669 0.01207263450145106 -0.0012064548790239622 -0.0077016504870093235
 0.9934040484538325 -0.061214231978881 0.005408106635807622 0.025602427103611828 -0.0012070694040823772 -0.007701626280916068 0.0013873305086531842 0.012075139532840281
 0.0014064203138766669 0.01207263450145106 -0.0012070694040823772 -0.007701626280916068 0.005404573764650564 0.02560159582099662 0.9934040025145989 -0.06121539934284667
 -0.0012064548790239622 -0.0077016504870093235 0.0013873305086531842 0.012075139532840281 0.9934040025145989 -0.06121539934284667 0.0054084554354170014 0.02560123041007336
0.09378907878283 0.005814660584083958 0.027565093311437288 0.9928607284826204 -0.06569276540316565 0.0015788369440772505 0.012936019109823876 -0.001352093498322861 -0.00825543536546442
 0.9928607284826204 -0.06569276540316565 0.005818212030429145 0.02756475481419003 -0.0013527967484282092 -0.008255402571097645 0.0015569154638574961 0.012938965493129584
 0.0015788369440772505 0.012936019109823876 -0.0013527967484282092 -0.008255402571097645 0.005814157905498088 0.027563887322547734 0.9928606760270251 -0.06569401609670254
 -0.001352093498322861 -0.00825543536546442 0.0015569154638574961 0.012938965493129584 0.9928606760270251 -0.06569401609670254 0.005818612874866396 0.027563470430758935
0.100041684035 0.0062448795636393505 0.02954304616700019 0.9922904281164845 -0.07018495528186111 0.0017619197051339246 0.01379877903152211 -0.0015067476063054858 -0.008808882364633137
 0.9922904281164845 -0.07018495528186111 0.0062489192225441605 0.029542663873733457 -0.0015075452972546826 -0.00880883969346173 0.0017369696669962888 0.0138022163074142
 0.0017619197051339246 0.01379877903152211 -0.0015075452972546826 -0.00880883969346173 0.006244307986966578 0.029541764065424532 0.9922903687051342 -0.07018628932541501
 -0.0015067476063054858 -0.008808882364633137 0.0017369696669962888 0.0138022163074142 0.9922903687051342 -0.07018628932541501 0.006249375749591541 0.029541291318306486
0.1059090909091 0.006667594210616727 0.03141302220054705 0.9917304382101556 -0.07441261223035842 0.001943493071569473 0.014607673198748538 -0.0016601443487760177 -0.009327782261337333
 0.9917304382101556 -0.07441261223035842 0.006672120628899851 0.031412595858103964 -0.0016610358182611946 -0.009327729087812708 0.001915521900856324 0.014611618717364045
 0.001943493071569473 0.014607673198748538 -0.0016610358182611946 -0.009327729087812708 0.006666953968390592 0.031411669404441324 0.9917303718698562 -0.074414024513381
 -0.0016601443487760177 -0.009327782261337333 0.001915521900856324 0.014611618717364045 0.9917303718698562 -0.074414024513381 0.006672632719251875 0.03141114009016387
0.1062942892872 0.006695995815153592 0.031536250266450835 0.9916928273009157 -0.07469056882140648 0.0019557458851472294 0.014660749902448169 -0.0016704966140010965 -0.009361829661446185
 0.9916928273009157 -0.07469056882140648 0.00670055515946755 0.03153582092994965 -0.0016713944137184587 -0.009361775755214418 0.0019275703063525772 0.014664730458202076
 0.0019557458851472294 0.014660749902448169 -0.0016713944137184587 -0.009361775755214418 0.0066953509291645865 0.031534892854311755 0.9916927604922072 -0.07469198624245471
 -0.0016704966140010965 -0.009361829661446185 0.0019275703063525772 0.014664730458202076 0.9916927604922072 -0.07469198624245471 0.006701071009906258 0.03153435968166048
0.11254689453939999 0.0071683333184529375 0.03354437163656957 0.9910676082240769 -0.07920936057373248 0.0021603898422074084 0.01552176384485177 -0.0018434169426247168 -0.009914112651635578
 0.9910676082240769 -0.07920936057373248 0.007173443858874856 0.03354389189827189 -0.001844420470890754 -0.00991404608248741 0.0021287916772997806 0.015526342940746316
 0.0021603898422074084 0.01552176384485177 -0.001844420470890754 -0.00991404608248741 0.007167610716242484 0.03354293976971072 0.9910675335734787 -0.0792108614015002
 -0.0018434169426247168 -0.009914112651635578 0.0021287916772997806 0.015526342940746316 0.9910675335734787 -0.0792108614015002 0.007174022676068522 0.03354234140226971
0.11879949979160001 0.007662212984174296 0.035567074563207776 0.9904144555186698 -0.08374107344354864 0.0023759228915978905 0.016381649574233565 -0.002025581921672816 -0.010465563925858935
 0.9904144555186698 -0.08374107344354864 0.007667906275560513 0.03556654095079741 -0.002026696749836399 -0.010465483196492638 0.002340705071053063 0.016386885369331496
 0.0023759228915978905 0.016381649574233565 -0.002026696749836399 -0.010465483196492638 0.007661408263736548 0.03556556915020282 0.9904143725791433 -0.08374265771066292
 -0.002025581921672816 -0.010465563925858935 0.002340705071053063 0.016386885369331496 0.9904143725791433 -0.08374265771066292 0.007668551705578862 0.03556490061615402
0.1250521050438 0.008177952513475948 0.037604020791993764 0.9897330564603036 -0.08828543949299422 0.00260241319353581 0.0172402324925779 -0.002217061686276747 -0.011016013266834686
 0.9897330564603036 -0.08828543949299422 0.008184260161769529 0.03760342971664144 -0.0022182933369317846 -0.011015916810651054 0.002563378664042664 0.01724618606993053
 0.00260241319353581 0.0172402324925779 -0.0022182933369317846 -0.011015916810651054 0.00817706127878097 0.03760244279224511 0.9897329647818113 -0.08828710723795555
 -0.002217061686276747 -0.011016013266834686 0.002563378664042664 0.01724618606993053 0.9897329647818113 -0.08828710723795555 0.008184975852912838 0.03760169891342096
0.131304710296 0.00871586625053321 0.039654868891966275 0.9890231011605759 -0.09284218059207135 0.002839925642025728 0.01809733477784954 -0.002417923073754525 -0.011565287657531169
 0.9890231011605759 -0.09284218059207135 0.008722819919643679 0.039654216645321164 -0.0024192770203396614 -0.011565173838770381 0.0027968774081427853 0.01810407016896313
 0.002839925642025728 0.01809733477784954 -0.0024192770203396614 -0.011565173838770381 0.008714884111720524 0.03965321931978915 0.9890230002898857 -0.0928439318558231
 -0.002417923073754525 -0.011565287657531169 0.0027968774081427853 0.01810407016896313 0.9890230002898857 -0.0928439318558231 0.008723609522109661 0.039652394707470805
0.1375573155481 0.009156035484947074 0.04145279243619405 0.9884045641978779 -0.09714439480880077 0.0030595620494204253 0.01892670953890329 -0.002599320105870731 -0.012087127520171893
 0.9884045641978779 -0.09714439480880077 0.009163670272583373 0.04145209158277701 -0.0026008045802871477 -0.012086996124219922 0.003012396523180298 0.018934219859166865
 0.0030595620494204253 0.01892670953890329 -0.0026008045802871477 -0.012086996124219922 0.009154958785524667 0.04145107205030997 0.9884044537190627 -0.09714622957315756
 -0.002599320105870731 -0.012087127520171893 0.003012396523180298 0.018934219859166865 0.9884044537190627 -0.09714622957315756 0.009164536632125927 0.041450177984015624
0.1438099208003 0.009611797977449796 0.04324068812637778 0.9877640711597074 -0.10143512448635594 0.0032880564845959625 0.019752339088201155 -0.002787947937799261 -0.01260553848049702
 0.9877640711597074 -0.10143512448635594 0.009620146163251153 0.043239936021378544 -0.002789568839230522 -0.012605387887045998 0.0032365936165011074 0.0197606832629815
 0.0032880564845959625 0.019752339088201155 -0.002789568839230522 -0.012605387887045998 0.009610622466960504 0.04323889794176246 0.9877639506235963 -0.10143704278282725
 -0.002787947937799261 -0.01260553848049702 0.0032365936165011074 0.0197606832629815 0.9877639506235963 -0.10143704278282725 0.009621092787210912 0.043237930088660156
0.1500625260525 0.010082984900924739 0.045018389483601 0.9871017952955149 -0.10571424548589432 0.0035253249195592792 0.020574126834846513 -0.002983725091068177 -0.013120430001101743
 0.9871017952955149 -0.10571424548589432 0.010092078842678867 0.04501758332637879 -0.0029854883046202584 -0.01312025852448434 0.003469385791708007 0.02058336595270357
 0.0035253249195592792 0.020574126834846513 -0.0029854883046202584 -0.01312025852448434 0.01008170634305293 0.04501653055631384 0.9871016642505122 -0.105716247345891
 -0.002983725091068177 -0.013120430001101743 0.003469385791708007 0.02058336595270357 0.9871016642505122 -0.105716247345891 0.010093109230787371 0.04501548436017601
0.15631513130469998 0.010569426131012295 0.0467857350037644 0.9864179108426174 -0.1099816344783802 0.003771282275308374 0.021391977947401577 -0.003186569031737118 -0.013631713550218326
 0.9864179108426174 -0.1099816344783802 0.010579298267065088 0.04678487183406882 -0.0031884804281801667 -0.013631519439704096 0.003710689119890242 0.021402175236889767
