! Created with skrf 1.8.0 (http://scikit-rf.org).
# GHz S RI R 50.0 
!freq ReS11 ImS11 ReS12 ImS12 ReS13 ImS13
! ReS14 ImS14
! ReS21 ImS21 ReS22 ImS22 ReS23 ImS23
! ReS24 ImS24
! ReS31 ImS31 ReS32 ImS32 ReS33 ImS33
! ReS34 ImS34
! ReS41 ImS41 ReS42 ImS42 ReS43 ImS43
! ReS44 ImS44
!
0.0 0.001465444158326 0.0 0.9985345558415 0.0 5.645509187809e-05 0.0 -5.645509198339e-05 6.913754769302797e-21
 0.9985345558415 0.0 0.001465444158343 0.0 -5.64550919839e-05 6.913754769365254e-21 5.645509187828e-05 0.0
 5.645509187809e-05 0.0 -5.64550919839e-05 6.913754769365254e-21 0.001465444153413 0.0 0.9985345558366 0.0
 -5.645509198339e-05 6.913754769302797e-21 5.645509187828e-05 0.0 0.9985345558366 0.0 0.001465444153399 0.0
0.005 0.0015764974323396813 0.0011978603807173715 0.9983940981965003 -0.0030700688310147588 7.9117640284603e-05 0.0006288470454219427 -7.683876761070383e-05 -0.0003935626298160736
 0.9983940981965003 -0.0030700688310147588 0.0015764955640279951 0.0011978615366013234 -7.683948827915817e-05 -0.0003935632341353648 7.911393826825954e-05 0.0006288482638556066
 7.9117640284603e-05 0.0006288470454219427 -7.683948827915817e-05 -0.0003935632341353648 0.0015764971537482937 0.001197927849737676 0.9983940985463097 -0.003070001770659682
 -7.683876761070383e-05 -0.0003935626298160736 7.911393826825954e-05 0.0006288482638556066 0.9983940985463097 -0.003070001770659682 0.0015764965384929147 0.0011979281859360372
0.006252605252188 0.0016055603700467272 0.0015020517755006857 0.9983571197576592 -0.0038383474016564488 8.554978430318665e-05 0.0007863647880773098 -8.256390153353453e-05 -0.0004924674187839925
 0.9983571197576592 -0.0038383474016564488 0.001605557449518186 0.001502053291176984 -8.256502255270996e-05 -0.0004924681650447177 8.55439979374043e-05 0.000786366400317357
 8.554978430318665e-05 0.0007863647880773098 -8.256502255270996e-05 -0.0004924681650447177 0.0016055598586597688 0.0015021361200413439 0.9983571202288531 -0.0038382635721035774
 -8.256390153353453e-05 -0.0004924674187839925 8.55439979374043e-05 0.000786366400317357 0.9983571202288531 -0.0038382635721035774 0.0016055588977753733 0.0015021366002681944
0.01250521050438 0.0017581872329573216 0.003035704612594817 0.9981616970100768 -0.007677568678556144 0.00012221286410442583 0.0015730968052849255 -0.00011488693044807808 -0.0009873697321956872
 0.9981616970100768 -0.007677568678556144 0.0017581755674379797 0.0030357083759541153 -0.00011489134355164656 -0.0009873711255201842 0.00012218971828068336 0.001573100966992928
 0.00012221286410442583 0.0015730968052849255 -0.00011489134355164656 -0.0009873711255201842 0.0017581846382299824 0.0030358730817124846 0.9981616983471544 -0.007677401278795694
 -0.00011488693044807808 -0.0009873697321956872 0.00012218971828068336 0.001573100966992928 0.9981616983471544 -0.007677401278795694 0.001758180810792259 0.00303587465312088
0.01875781575657 0.001923645328025334 0.004591321571168536 0.997948053676641 -0.011527022500879907 0.00016652765144485935 0.00236073926181738 -0.0001535211640896399 -0.0014839936102186719
 0.997948053676641 -0.011527022500879907 0.0019236191063863514 0.00459132839097621 -0.00015353099895245797 -0.0014839955347785184 0.00016647548935595698 0.0023607470485781145
 0.00016652765144485935 0.00236073926181738 -0.00015353099895245797 -0.0014839955347785184 0.0019236390562641932 0.004591574117867988 0.9979480562565051 -0.011526771614711466
 -0.0001535211640896399 -0.0014839936102186719 0.00016647548935595698 0.0023607470485781145 0.9979480562565051 -0.011526771614711466 0.0019236304738371398 0.004591577430489485
0.02501042100875 0.0021022464613283903 0.0061667365902360995 0.9977159469515025 -0.015388587476009317 0.000218578552248405 0.0031493358038350806 -0.0001985606462875439 -0.0019821202469219625
 0.9977159469515025 -0.015388587476009317 0.0021021998819703864 0.006166747353582063 -0.00019857800513094396 -0.0019821225680071363 0.00021848561133830448 0.0031493484353745564
 0.000218578552248405 0.0031493358038350806 -0.00019857800513094396 -0.0019821225680071363 0.002102234921522498 0.00616707320253235 0.997715951160633 -0.015388253148948032
 -0.0001985606462875439 -0.0019821202469219625 0.00021848561133830448 0.0031493484353745564 0.997715951160633 -0.015388253148948032 0.0021022197128896455 0.006167078948120426
0.03126302626094 0.00229428951083189 0.007760841341549106 0.9974651211950399 -0.01926307526242722 0.00027845049736641885 0.003938857048587391 -0.00025009690639868294 -0.0024815988363922348
 0.9974651211950399 -0.01926307526242722 0.002294216781715313 0.007760857014966212 -0.00025012386874207686 -0.002481601400142196 0.000278304901284948 0.003938875892818226
 0.00027845049736641885 0.003938857048587391 -0.00025012386874207686 -0.002481601400142196 0.0022942711031200174 0.0077612620234138174 0.9974651274184514 -0.01926265752058165
 -0.00025009690639868294 -0.0024815988363922348 0.000278304901284948 0.003938875892818226 0.9974651274184514 -0.01926265752058165 0.002294247415284553 0.007761270936506713
0.037515631513130004 0.002500066980529957 0.009372918002800327 0.9971953146749221 -0.023150897737010963 0.00034622814186682815 0.004729244883124442 -0.00030821963005976915 -0.0029823022727545473
 0.9971953146749221 -0.023150897737010963 0.0024999623195350296 0.009372939633357434 -0.0003082582551777622 -0.002982304906103428 0.00034601789561031226 0.0047292714600116565
 0.00034622814186682815 0.004729244883124442 -0.0003082582551777622 -0.002982304906103428 0.002500040096469071 0.009373422768115567 0.9971953232976454 -0.02315039659319341
 -0.00030821963005976915 -0.0029823022727545473 0.00034601789561031226 0.0047292714600116565 0.9971953232976454 -0.02315039659319341 0.002500006095336196 0.009373435626663311
0.043768236765320004 0.0027198675415971694 0.011002436189309956 0.9969062622953391 -0.02705226999559922 0.00042199548574851605 0.005520425960589401 -0.00037301690744842185 -0.003484113650763494
 0.9969062622953391 -0.02705226999559922 0.002719725177279879 0.011002464905692788 -0.0003730692358326061 -0.0034841161614631625 0.00042170847227680135 0.005520461945959685
 0.00042199548574851605 0.005520425960589401 -0.0003730692358326061 -0.0034841161614631625 0.0027198305650554125 0.011003025069687677 0.9969062737035146 -0.027051685441645976
 -0.00037301690744842185 -0.003484113650763494 0.00042170847227680135 0.005520461945959685 0.9969062737035146 -0.027051685441645976 0.002719784436485117 0.011003042695449895
0.050020842017509996 0.0029539772127108706 0.01264896905521068 0.9965976969679361 -0.030967294182249572 0.0005058356524590729 0.0063123172437729285 -0.00044457532208948497 -0.003986920720093703
 0.9965976969679361 -0.030967294182249572 0.0029537913859119013 0.012649006068587898 -0.0004446433765201265 -0.003986922896726005 0.000505459630170584 0.006312364473183057
 0.0005058356524590729 0.0063123172437729285 -0.0004446433765201265 -0.003986922896726005 0.0029539285214917874 0.0126496420814438 0.9965977115510197 -0.030966626207609958
 -0.00044457532208948497 -0.003986920720093703 0.000505459630170584 0.006312364473183057 0.9965977115510197 -0.030966626207609958 0.0029538684720597187 0.012649665340445693
0.055454545454549996 0.0031692669563127504 0.014093389797007975 0.9963134891134251 -0.034380680770053886 0.0005853151970855648 0.00700100180117746 -0.0005123187562940429 -0.004424598204447148
 0.9963134891134251 -0.034380680770053886 0.003169038692552823 0.01409343506907181 -0.0005124021066075925 -0.004424599904205028 0.0005848517833483051 0.0070010604196692056
 0.0005853151970855648 0.00700100180117746 -0.0005124021066075925 -0.004424599904205028 0.003169206760112168 0.014094135981557029 0.9963135067720614 -0.034379940281311534
 -0.0005123187562940429 -0.004424598204447148 0.0005848517833483051 0.0070010604196692056 0.9963135067720614 -0.034379940281311534 0.0031691331736928997 0.014094164873980086
0.056273447269699996 0.0032026799730849043 0.014312152082055886 0.9962693504183854 -0.034896000631641194 0.0005978307278402434 0.007104828754764681 -0.000522979977822055 -0.004490613135666705
 0.9962693504183854 -0.034896000631641194 0.003202444938074355 0.014312198686971702 -0.0005230657640199603 -0.004490614747677018 0.0005973533283362082 0.007104889227388712
 0.0005978307278402434 0.007104828754764681 -0.0005230657640199603 -0.004490614747677018 0.0032026179361531073 0.014312909295931495 0.9962693685664364 -0.0348952492116408
 -0.000522979977822055 -0.004490613135666705 0.0005973533283362082 0.007104889227388712 0.9962693685664364 -0.0348952492116408 0.003202542194451833 0.014312939098829698
0.06252605252188 0.0034662580913415665 0.01599166044592457 0.9959209537112712 -0.03883837043480302 0.0006980616371957249 0.007897865059553727 -0.0006083144857492378 -0.004995080975764733
 0.9959209537112712 -0.03883837043480302 0.0034659681173265806 0.015991718021237555 -0.00060841999287793 -0.004995081773501246 0.0006974703634323801 0.007897940942130983
 0.0006980616371957249 0.007897865059553727 -0.00060841999287793 -0.004995081773501246 0.003466181069325311 0.015992501892702193 0.9959209758163083 -0.03883753553833826
 -0.0006083144857492378 -0.004995080975764733 0.0006974703634323801 0.007897940942130983 0.9959209758163083 -0.03883753553833826 0.003466087887058986 0.015992539195052287
0.06877865777407 0.003744992303134936 0.01768719550972881 0.9955522376289679 -0.04279434888257205 0.0008066080369339418 0.008691326172764488 -0.000700660935031894 -0.005500213843112781
 0.9955522376289679 -0.04279434888257205 0.0037446416759964454 0.017687265519359768 -0.0007007881361550335 -0.005500213557861917 0.0008058902615450696 0.008691419803613062
 0.0008066080369339418 0.008691326172764488 -0.0007007881361550335 -0.005500213557861917 0.0037448986497028644 0.017688121241947026 0.9955522640861593 -0.042793430468384124
 -0.000700660935031894 -0.005500213843112781 0.0008058902615450696 0.008691419803613062 0.9955522640861593 -0.042793430468384124 0.003744786302408473 0.017688167044539838
0.07503126302626001 0.004039161900868816 0.019398476264207487 0.9951629329639832 -0.04676385396347815 0.0009235482187231704 0.009485108126812594 -0.0008000998497650848 -0.006005900304922923
 0.9951629329639832 -0.04676385396347815 0.004038744924489495 0.019398560258026967 -0.0008002507020304561 -0.006005898648950389 0.000922691182398541 0.00948522201989876
 0.0009235482187231704 0.009485108126812594 -0.0008002507020304561 -0.006005898648950389 0.0040390499610633394 0.019399486342527084 0.9951629641706587 -0.04676285197953368
 -0.0008000998497650848 -0.006005900304922923 0.000922691182398541 0.00948522201989876 0.9951629641706587 -0.04676285197953368 0.004038916749740992 0.01939954169156051
0.08128386827845 0.004349044763606625 0.0211252336323262 0.9947527707556744 -0.05074678200197952 0.0010489590206063013 0.01027910334548157 -0.0009067101371154353 -0.006512027532093649
 0.9947527707556744 -0.05074678200197952 0.004348555761856693 0.021125333246907362 -0.0009068865820431018 -0.006512024198684832 0.0010479498307216552 0.010279240194546447
 0.0010489590206063013 0.01027910334548157 -0.0009068865820431018 -0.006512024198684832 0.004348912874651953 0.02112632812282354 0.9947528071124814 -0.05074569638821226
 -0.0009067101371154353 -0.006512027532093649 0.0010479498307216552 0.010279240194546447 0.9947528071124814 -0.05074569638821226 0.004348757126693442 0.02112639411023397
0.08753647353064001 0.0046749173505742725 0.022867206530589435 0.9943214824940474 -0.05474301154357859 0.0011829157404200175 0.011073200921280587 -0.001020569031973362 -0.007018481038376453
 0.9943214824940474 -0.05474301154357859 0.004674350669217677 0.02286732348993686 -0.001020772995640204 -0.0070184757018681284 0.0011817413696721605 0.011073363604023842
 0.0011829157404200175 0.011073200921280587 -0.001020772995640204 -0.0070184757018681284 0.004674763842155333 0.022868385502784874 0.9943215244053776 -0.05474184223410802
 -0.001020569031973362 -0.007018481038376453 0.0011817413696721605 0.011073363604023842 0.9943215244053776 -0.05474184223410802 0.004674583912559228 0.022868463266394794
0.09378907878283 0.005017054670397769 0.024624139052206444 0.9938688003016001 -0.058752406122392395 0.001325492054039418 0.011867286803384877 -0.0011417520354355748 -0.007525144512756721
 0.9938688003016001 -0.058752406122392395 0.005016404678656022 0.024624275168472248 -0.0011419854285619029 -0.007525136828584633 0.0013241393391524494 0.011867478385744642
 0.001325492054039418 0.011867286803384877 -0.0011419854285619029 -0.007525136828584633 0.005016877863927955 0.024625402582832606 0.9938688481752141 -0.058751153041906416
 -0.0011417520354355748 -0.007525144512756721 0.0013241393391524494 0.011867478385744642 0.9938688481752141 -0.058751153041906416 0.005016672136533774 0.024625493306538786
0.100041684035 0.005375730228810317 0.026395778403890294 0.9933944570974652 -0.06277481627936901 0.0014767599339205217 0.012661243946714586 -0.0012703328516850874 -0.008031899694824767
 0.9933944570974652 -0.06277481627936901 0.005374991321430208 0.026395935578107526 -0.0012705975697320166 -0.00803188929956273 0.0014752155745362888 0.01266146768716718
 0.0014767599339205217 0.012661243946714586 -0.0012705975697320166 -0.00803188929956273 0.005375528437782861 0.026397126577163286 0.9933945113451739 -0.06277347934299413
 -0.0012703328516850874 -0.008031899694824767 0.0014752155745362888 0.01266146768716718 0.9933945113451739 -0.06277347934299413 0.005375295326773306 0.02639723149107866
0.1059090909091 0.0057275928065314615 0.028071425920909446 0.9929293987813715 -0.06656111588752261 0.001626676227035682 0.013406064641050838 -0.0013977845594942905 -0.008507411959839336
 0.9929293987813715 -0.06656111588752261 0.005726765388035903 0.028071604664448555 -0.0013980803830880124 -0.008507398673201128 0.0016249398098390985 0.013406321697361745
 0.001626676227035682 0.013406064641050838 -0.0013980803830880124 -0.008507398673201128 0.0057273660292441065 0.02807285360389109 0.9929294593889196 -0.06655970017753153
 -0.0013977845594942905 -0.008507411959839336 0.0016249398098390985 0.013406321697361745 0.9929294593889196 -0.06655970017753153 0.005727105807240297 0.028072972993915712
0.1062942892872 0.005751215964657846 0.028181873355294887 0.9928981867524311 -0.06681008107253415 0.0016367895699594128 0.013454952428082069 -0.0014063833216045555 -0.008538626287079402
 0.9928981867524311 -0.06681008107253415 0.005750382564105807 0.02818205357797482 -0.0014066812449081841 -0.008538612798472506 0.001635040127337668 0.013455211782034272
 0.0016367895699594128 0.013454952428082069 -0.0014066812449081841 -0.008538612798472506 0.0057509874946433505 0.02818330626128195 0.9928982477903396 -0.0668086601877433
 -0.0014063833216045555 -0.008538626287079402 0.001635040127337668 0.013455211782034272 0.9928982477903396 -0.0668086601877433 0.005750725445557555 0.02818342664192027
0.11254689453939999 0.006143782174551243 0.029982173052926213 0.9923797242350683 -0.07085802922747628 0.001805649290354168 0.014248289538781437 -0.0015499733552736537 -0.009045201895093388
 0.9923797242350683 -0.07085802922747628 0.006142848732553923 0.029982378404713482 -0.0015503063490039898 -0.009045184912106081 0.0018036811863940418 0.014248588163000774
 0.001805649290354168 0.014248289538781437 -0.0015503063490039898 -0.009045184912106081 0.0061435253230395295 0.02998369078743766 0.9923797924841047 -0.07085652429431533
 -0.0015499733552736537 -0.009045201895093388 0.0018036811863940418 0.014248588163000774 0.9923797924841047 -0.07085652429431533 0.0061432328143266575 0.029983827957769445
0.11879949979160001 0.0065536974293359035 0.031796426096248345 0.991838805753813 -0.07491848003056152 0.0019834054835908793 0.01504112986184456 -0.0017011708625286612 -0.00955150198722087
 0.991838805753813 -0.07491848003056152 0.006552658429515539 0.03179665874846757 -0.0017015407768186093 -0.009551481090070797 0.001981204999701336 0.015041471619032158
 0.0019834054835908793 0.01504112986184456 -0.0017015407768186093 -0.009551481090070797 0.006553410485986351 0.031798028762108826 0.9918388816397455 -0.07491689094062902
 -0.0017011708625286612 -0.00955150198722087 0.001981204999701336 0.015041471619032158 0.9918388816397455 -0.07491689094062902 0.0065530860302372785 0.03179818409169308
0.1250521050438 0.006981228484240243 0.033624379807717326 0.9912751688935291 -0.0789912440332847 0.0021701225205912915 0.01583334534236451 -0.0018600416826292743 -0.010057399865794094
 0.9912751688935291 -0.0789912440332847 0.006980078443710068 0.033624642022968734 -0.0018604503524708926 -0.01005737461600485 0.0021676757967281656 0.015833734305702285
 0.0021701225205912915 0.01583334534236451 -0.0018604503524708926 -0.01005737461600485 0.006980909730590457 0.03362606751527421 0.9912752528475448 -0.07898957066948681
 -0.0018600416826292743 -0.010057399865794094 0.0021676757967281656 0.015833734305702285 0.9912752528475448 -0.07898957066948681 0.006980551876154897 0.033626242420268605
0.131304710296 0.007426640182958736 0.035465779651905414 0.9906885527503824 -0.08307612361288284 0.0023658626771480297 0.016624805345741 -0.0020266495129262953 -0.010562766654797709
 0.9906885527503824 -0.08307612361288284 0.007425373655067785 0.035466073784512844 -0.0020270987583272215 -0.010562736595220047 0.0023631557108370863 0.016625245803525993
 0.0023658626771480297 0.016624805345741 -0.0020270987583272215 -0.010562736595220047 0.007426287892891434 0.035467552517770985 0.9906886452093303 -0.08307436585087785
 -0.0020266495129262953 -0.010562766654797709 0.0023631557108370863 0.016625245803525993 0.9906886452093303 -0.08307436585087785 0.007425895225073044 0.03546774846098484
0.1375573155481 0.007786262791109159 0.037079909179203334 0.9901826679375924 -0.08693234909579288 0.0025454406337068673 0.017391041188098155 -0.0021758204093482794 -0.011043147744848108
 0.9901826679375924 -0.08693234909579288 0.00778487494111642 0.0370802304589543 -0.002176313066319407 -0.011043112863103987 0.002542473192913757 0.0173915323504475
 0.0025454406337068673 0.017391041188098155 -0.002176313066319407 -0.011043112863103987 0.007785876081180748 0.03708176709049566 0.9901827692884546 -0.08693050688694032
 -0.0021758204093482794 -0.011043147744848108 0.002542473192913757 0.0173915323504475 0.9901827692884546 -0.08693050688694032 0.007785446200847151 0.03708197899947613
0.1438099208003 0.008158480318363196 0.038685837839272486 0.9896591046221538 -0.09077911249000566 0.0027322769779939927 0.018154388923612624 -0.002330968462479375 -0.011520873326124715
 0.9896591046221538 -0.09077911249000566 0.008156965866010136 0.03868618803498109 -0.00233150651229157 -0.011520833170956582 0.002729037343309745 0.01815493462102996
 0.0027322769779939927 0.018154388923612624 -0.00233150651229157 -0.011520833170956582 0.008158057604225076 0.03868778088427236 0.9896592152993438 -0.09077718571741597
 -0.002330968462479375 -0.011520873326124715 0.002729037343309745 0.01815493462102996 0.9896592152993438 -0.09077718571741597 0.008157588975817904 0.03868800967604255
0.1500625260525 0.008543166123624182 0.04028344043504263 0.989117993252988 -0.0946163276095724 0.002926310229491826 0.01891477762166092 -0.002492033723183454 -0.01199587561929462
 0.989117993252988 -0.0946163276095724 0.008541519830528555 0.040283821385328475 -0.0024926191448552144 -0.01199582972106338 0.0029227867044419216 0.01891538182938234
 0.002926310229491826 0.01891477762166092 -0.0024926191448552144 -0.01199582972106338 0.00854270582332011 0.04028546870472979 0.9891181136953581 -0.09461431615208007
 -0.002492033723183454 -0.01199587561929462 0.0029227867044419216 0.01891538182938234 0.9891181136953581 -0.09461431615208007 0.008542196935125935 0.04028571533424355
0.15631513130469998 0.008940192718429791 0.041872595585938775 0.9885594648848908 -0.09844390838426938 0.0031274782152802944 0.019672137501490425 -0.002658955532455445 -0.012468088239711886
