! Created with skrf 1.8.0 (http://scikit-rf.org).
# GHz S RI R 50.0 
!freq ReS11 ImS11 ReS12 ImS12 ReS13 ImS13
! ReS14 ImS14
! ReS21 ImS21 ReS22 ImS22 ReS23 ImS23
! ReS24 ImS24
! ReS31 ImS31 ReS32 ImS32 ReS33 ImS33
! ReS34 ImS34
! ReS41 ImS41 ReS42 ImS42 ReS43 ImS43
! ReS44 ImS44
!
0.0 0.001123704381988 0.0 0.9988762956177 0.0 4.265693331794e-05 0.0 -4.265693486175e-05 5.223967873987928e-21
 0.9988762956177 0.0 0.001123704381982 0.0 -4.265693486138e-05 5.223967873942616e-21 4.265693331881e-05 0.0
 4.265693331794e-05 0.0 -4.265693486138e-05 5.223967873942616e-21 0.001123704378081 0.0 0.9988762956138 0.0
 -4.265693486175e-05 5.223967873987928e-21 4.265693331881e-05 0.0 0.9988762956138 0.0 0.001123704378092 0.0
0.005 0.001208113892672044 0.000919475699762548 0.99876965353657 -0.00235504882278123 5.924829605265019e-05 0.00047264609057692943 -5.7671849317646476e-05 -0.00029636048877936883
 0.99876965353657 -0.00235504882278123 0.0012080991977873705 0.0009194842301755002 -5.7669751585122114e-05 -0.0002963588618895934 5.934131941320785e-05 0.0004726106991701256
 5.924829605265019e-05 0.00047264609057692943 -5.7669751585122114e-05 -0.0002963588618895934 0.001208114721125786 0.0009194079396492385 0.9987696532141307 -0.00235511588806782
 -5.7671849317646476e-05 -0.00029636048877936883 5.934131941320785e-05 0.0004726106991701256 0.9987696532141307 -0.00235511588806782 0.0012080977275316996 0.0009194178621145737
0.006252605252188 0.0012299911848357484 0.0011530006747841124 0.9987418855281481 -0.0029444278233042324 6.38251069189501e-05 0.000591052948231781 -6.179085042794893e-05 -0.0003708495150224584
 0.9987418855281481 -0.0029444278233042324 0.0012299682147162276 0.0011530115403467598 -6.178758622534142e-05 -0.00037084750763778456 6.3970449935509e-05 0.0005910070568980174
 6.38251069189501e-05 0.000591052948231781 -6.178758622534142e-05 -0.00037084750763778456 0.0012299925538145282 0.001152915983353053 0.998741885097727 -0.0029445116446797748
 -6.179085042794893e-05 -0.0003708495150224584 6.3970449935509e-05 0.0005910070568980174 0.998741885097727 -0.0029445116446797748 0.001229965989828847 0.0011529285944523176
0.01250521050438 0.001343639133839262 0.002330559196947962 0.9985969049906008 -0.0058898707248907535 8.9210742887347e-05 0.0011825431794438481 -8.451575765500041e-05 -0.0007436636037274566
 0.9985969049906008 -0.0058898707248907535 0.0013435474221818139 0.0023305829559953787 -8.450289370942227e-05 -0.0007436598703620238 8.979038724435941e-05 0.0011824338894393677
 8.9210742887347e-05 0.0011825431794438481 -8.450289370942227e-05 -0.0007436598703620238 0.0013436451708176284 0.0023303900404667084 0.9985969038373219 -0.005890038126982708
 -8.451575765500041e-05 -0.0007436636037274566 8.979038724435941e-05 0.0011824338894393677 0.9985969038373219 -0.005890038126982708 0.0013435391001371147 0.002330417359627249
0.01875781575657 0.0014648404285269273 0.0035253232425935346 0.9984412139662021 -0.00884355153494882 0.00011886446372329496 0.0017749037992362835 -0.00011088936528171396 -0.0011179338397845431
 0.9984412139662021 -0.00884355153494882 0.0014646343645034086 0.0035253620244132225 -0.00011086067695924615 -0.0011179287015179605 0.00012016669686586914 0.0017747109062520596
 0.00011886446372329496 0.0017749037992362835 -0.00011086067695924615 -0.0011179287015179605 0.0014648544242815158 0.0035250696961314307 0.9984412117939461 -0.008843802425379943
 -0.00011088936528171396 -0.0011179338397845431 0.00012016669686586914 0.0017747109062520596 0.9984412117939461 -0.008843802425379943 0.0014646160780753322 0.0035251139685252425
0.02501042100875 0.0015937843568596267 0.004735673646131071 0.9982746685827739 -0.011806955728905884 0.0001528370839080284 0.0023681955431494165 -0.00014096829485808253 -0.0014935218046548588
 0.9982746685827739 -0.011806955728905884 0.0015934184348817327 0.004735729667484741 -0.00014091763022241988 -0.0014935156287303039 0.00015515041323919005 0.002367896281200466
 0.0001528370839080284 0.0023681955431494165 -0.00014091763022241988 -0.0014935156287303039 0.001593809604934663 0.004735335729492563 0.9982746650976855 -0.011807290069332097
 -0.00014096829485808253 -0.0014935218046548588 0.00015515041323919005 0.002367896281200466 0.9982746650976855 -0.011807290069332097 0.0015933863231497062 0.004735399331282194
0.03126302626094 0.0017306519046437461 0.005960804215981753 0.9980971158357371 -0.01478075158032083 0.0001911799356718246 0.002962425341750323 -0.00017480799679532667 -0.001870340594111547
 0.9980971158357371 -0.01478075158032083 0.0017300807022708337 0.005960879778184276 -0.00017472926362283825 -0.0018703337948163049 0.0001947933778689159 0.0029619943719882713
 0.0001911799356718246 0.002962425341750323 -0.00017472926362283825 -0.0018703337948163049 0.0017306916985089086 0.0059603819404086215 0.9980971107416957 -0.0147811693399618
 -0.00017480799679532667 -0.001870340594111547 0.0001947933778689159 0.0029619943719882713 0.9980971107416957 -0.0147811693399618 0.0017300309047463438 0.005960467375693137
0.037515631513130004 0.0018756202835660445 0.0072002098184353654 0.9979083981878158 -0.017765302037716077 0.00023394447305083514 0.00355757940893667 -0.00021246317154131807 -0.0022483217271775744
 0.9979083981878158 -0.017765302037716077 0.0018747984483217987 0.007200307305620995 -0.00021235033061401838 -0.0022483147661590316 0.00023914769548425874 0.0035569887938141716
 0.00023394447305083514 0.00355757940893667 -0.00021235033061401838 -0.0022483147661590316 0.0018756779208715215 0.007199703167274523 0.9979083911890091 -0.0177658032126366
 -0.00021246317154131807 -0.0022483217271775744 0.00023914769548425874 0.0035569887938141716 0.9979083911890091 -0.0177658032126366 0.0018747271074012343 0.007199813066714588
0.043768236765320004 0.002028864683495633 0.008453530581190218 0.9977083553893115 -0.020760820477550578 0.0002811820912894308 0.004153633304767035 -0.0002539879343065682 -0.002627405073964746
 0.9977083553893115 -0.020760820477550578 0.002027746922479326 0.008453652458987146 -0.00025383499529672653 -0.002627398460371698 0.00028826549028230223 0.00415285247756507
 0.0002811820912894308 0.004153633304767035 -0.00025383499529672653 -0.002627398460371698 0.0020289434654530624 0.008452939527270135 0.9977083461895178 -0.020761405073292955
 -0.0002539879343065682 -0.002627405073964746 0.00028826549028230223 0.00415285247756507 0.9977083461895178 -0.020761405073292955 0.0020276501821760847 0.008453076647218501
0.050020842017509996 0.002190559097257015 0.009720487533996106 0.9974968253726005 -0.023767435018726836 0.0003329440238733109 0.0047505560836228495 -0.00029943588700392384 -0.0030075346966138123
 0.9974968253726005 -0.023767435018726836 0.0021891001690552718 0.009720636348389428 -0.0002992369057958943 -0.003007528987167658 0.000342198769771138 0.004749551816060261
 0.0003329440238733109 0.0047505560836228495 -0.0002992369057958943 -0.003007528987167658 0.0021906623279581232 0.009719812042884605 0.9974968136732166 -0.023768103046787843
 -0.00029943588700392384 -0.0030075346966138123 0.000342198769771138 0.004749551816060261 0.9974968136732166 -0.023768103046787843 0.0021889741735929887 0.009719979264907858
0.055454545454549996 0.002338073442489914 0.01083240650381347 0.9973035434906906 -0.026389344350177032 0.00038164062700879773 0.005269978289703099 -0.0003421589110885589 -0.003338686751970717
 0.9973035434906906 -0.026389344350177032 0.00233628132255591 0.010832580856278647 -0.00034191512491332614 -0.0033386823173639896 0.00039301942552122143 0.005268750768024549
 0.00038164062700879773 0.005269978289703099 -0.00034191512491332614 -0.0033386823173639896 0.002338200606994839 0.010831657593849875 0.9973035293759617 -0.026390084904123746
 -0.0003421589110885589 -0.003338686751970717 0.00039301942552122143 0.005268750768024549 0.9973035293759617 -0.026390084904123746 0.0023361267737071847 0.010831853412626947
0.056273447269699996 0.0023608767572921045 0.011000850997688261 0.9972736447583579 -0.02678522008791634 0.0003892812747227374 0.0053483123294428515 -0.00034886014781850347 -0.003388656803017044
 0.9972736447583579 -0.02678522008791634 0.0023590314645798266 0.011001029374089649 -0.00034860922459000696 -0.0033886526020587854 0.000400999337292657 0.0053470486982453835
 0.0003892812747227374 0.0053483123294428515 -0.00034860922459000696 -0.0033886526020587854 0.002361007745500085 0.011000091019979109 0.9972736302598924 -0.02678597157339528
 -0.00034886014781850347 -0.003388656803017044 0.000400999337292657 0.0053470486982453835 0.9972736302598924 -0.02678597157339528 0.002358872360091463 0.011000291350462868
0.06252605252188 0.0025399903848286106 0.012294423212511361 0.9970386491757767 -0.029814213745875395 0.00045024456524653445 0.005946863272885189 -0.00040231336189254914 -0.0037707186189343497
 0.9970386491757767 -0.029814213745875395 0.002537713567822322 0.01229463385495183 -0.0004020046397985717 -0.0037707165784570933 0.0004647187259947557 0.005945301625827373
 0.00045024456524653445 0.005946863272885189 -0.0004020046397985717 -0.0037707165784570933 0.002540152443918629 0.012293578687077287 0.9970386315771628 -0.029815048724040345
 -0.00040231336189254914 -0.0037707186189343497 0.0004647187259947557 0.005945301625827373 0.9970386315771628 -0.029815048724040345 0.0025375175017653953 0.01229381525712242
0.06877865777407 0.002728072336220707 0.01360102798382464 0.9967916734811378 -0.03285442799671315 0.0005158842918114163 0.006546167447616205 -0.00045984769885502115 -0.004153667721608979
 0.9967916734811378 -0.03285442799671315 0.002725318866282837 0.01360127367425116 -0.0004594753629705813 -0.004153668541275794 0.00053340814745717 0.006544266369222553
 0.0005158842918114163 0.006546167447616205 -0.0004594753629705813 -0.004153668541275794 0.002728268783696946 0.013600098840995948 0.9967916524793001 -0.03285534650965417
 -0.00045984769885502115 -0.004153667721608979 0.00053340814745717 0.006544266369222553 0.9967916524793001 -0.03285534650965417 0.0027250819873547065 0.013600374906306332
0.07503126302626001 0.0029252946899674262 0.014920504113442923 0.9965325519187754 -0.035905855312052114 0.0005862504877585564 0.007146181111923903 -0.0005215148438875114 -0.004537451608791039
 0.9965325519187754 -0.035905855312052114 0.002922019463486325 0.014920787711160625 -0.0005210731204833269 -0.0045374560359478285 0.0006071184470236546 0.00714389638900435
 0.0005862504877585564 0.007146181111923903 -0.0005210731204833269 -0.0045374560359478285 0.002925528848182851 0.014919490272740425 0.9965325272084529 -0.03590685741077206
 -0.0005215148438875114 -0.004537451608791039 0.0006071184470236546 0.00714389638900435 0.9965325272084529 -0.03590685741077206 0.0029217379221362434 0.014919809213735187
0.08128386827845 0.0031318292965298827 0.016252701031902284 0.996261118246222 -0.03896847295514096 0.0006613927892476697 0.007746858523165605 -0.0005873659834290798 -0.004922017415797868
 0.996261118246222 -0.03896847295514096 0.0031279872291618076 0.016253025473101066 -0.000586849139421066 -0.00492202624547663 0.000685900064637989 0.0077441431102627635
 0.0006613927892476697 0.007746858523165605 -0.000586849139421066 -0.00492202624547663 0.0031321044931211313 0.016251602401542466 0.9962610895200343 -0.038969558699807165
 -0.0005873659834290798 -0.004922017415797868 0.000685900064637989 0.0077441431102627635 0.9962610895200343 -0.038969558699807165 0.003127657178038666 0.016251967723573967
0.08753647353064001 0.0033478478041387423 0.017597475772676577 0.9959772058361452 -0.04204224596372227 0.0007413604024950089 0.008348152129255949 -0.0006574517881597842 -0.00530731171643594
 0.9959772058361452 -0.04204224596372227 0.003343393825028428 0.01759784407011302 -0.0006568541306937942 -0.00530732579136051 0.0007698029982180997 0.008344956114082766
 0.0007413604024950089 0.008348152129255949 -0.0006568541306937942 -0.00530732579136051 0.0033481673718502884 0.01759629224963882 0.9959771727841736 -0.042043415423446376
 -0.0006574517881597842 -0.00530731171643594 0.0007698029982180997 0.008344956114082766 0.9959771727841736 -0.042043415423446376 0.003343011418942702 0.01759670758331142
0.09378907878283 0.003573521667976156 0.01895469080905981 0.9956806477635753 -0.045127129271293843 0.0008262020730193542 0.008950012700577973 -0.0007318223930134015 -0.0056932803845096734
 0.9956806477635753 -0.045127129271293843 0.003568410713838729 0.018955106051800893 -0.000731138269136544 -0.005693300595095038 0.0008588767695126034 0.008946283269482366
 0.0008262020730193542 0.008950012700577973 -0.000731138269136544 -0.005693300595095038 0.0035738889445520836 0.018953422281393188 0.9956806100729556 -0.04512838252153814
 -0.0007318223930134015 -0.0056932803845096734 0.0008588767695126034 0.008946283269482366 0.9956806100729556 -0.04512838252153814 0.0035679721100455447 0.018953891383023252
0.100041684035 0.003809022146932584 0.02032421246949205 0.9953712768822018 -0.04822306925086863 0.000915966055037279 0.0095523894297715 -0.0008105273758878697 -0.00607986848847916
 0.9953712768822018 -0.04822306925086863 0.0038032091562986647 0.020324677822901694 -0.0008097511723567826 -0.0060798957728196035 0.0009531703908862819 0.009548070833291449
 0.000915966055037279 0.0095523894297715 -0.0008097511723567826 -0.0060798957728196035 0.00380944047568337 0.020322858811297563 0.995371234237296 -0.04822440637832761
 -0.0008105273758878697 -0.00607986848847916 0.0009531703908862819 0.009548070833291449 0.995371234237296 -0.04822440637832761 0.003802710515118444 0.020323385563492623
0.1059090909091 0.004039103940540831 0.021620439294544023 0.9950691629890279 -0.05113828220675654 0.0010047193463883295 0.010118078962261023 -0.0008883693782960883 -0.006443154083701362
 0.9950691629890279 -0.05113828220675654 0.004032591176824253 0.02162095461829687 -0.0008875016978468311 -0.00644318890165922 0.0010464455337320128 0.01011315414768342
 0.0010047193463883295 0.010118078962261023 -0.0008875016978468311 -0.00644318890165922 0.004039573221822099 0.021619005629496795 0.9950691154049008 -0.051139698126614
 -0.0008883693782960883 -0.006443154083701362 0.0010464455337320128 0.01011315414768342 0.9950691154049008 -0.051139698126614 0.004032032707498803 0.021619590124988507
0.1062942892872 0.004054520292058793 0.021705909740612147 0.9950489258935945 -0.0513300048722296 0.0010107000816458244 0.01015523000583805 -0.0008936157347713901 -0.006467020212884369
 0.9950489258935945 -0.0513300048722296 0.004047960199579467 0.021706428446317656 -0.0008927418779133659 -0.006467055556740693 0.0010527323331248526 0.010150263524358279
 0.0010107000816458244 0.01015523000583805 -0.0008927418779133659 -0.006467055556740693 0.004054993021721031 0.021704470818379704 0.99504887797538 -0.05133142596818111
 -0.0008936157347713901 -0.006467020212884369 0.0010527323331248526 0.010150263524358279 0.99504887797538 -0.05133142596818111 0.00404739768445563 0.02170505923079058
0.11254689453939999 0.004310186928557857 0.02309965335431382 0.9947134274111888 -0.0544478685761752 0.0011104513353577348 0.010758480667919993 -0.0009811358636101478 -0.00685467880120264
 0.9947134274111888 -0.0544478685761752 0.004302834659139872 0.02310022873042458 -0.0009801588192230595 -0.006854723237989578 0.0011576104940135808 0.010752804577476042
 0.0011104513353577348 0.010758480667919993 -0.0009801588192230595 -0.006854723237989578 0.004310717413335217 0.023098129021394537 0.9947133738972959 -0.05444937374182109
 -0.0009811358636101478 -0.00685467880120264 0.0011576104940135808 0.010752804577476042 0.9947133738972959 -0.05444937374182109 0.004302204437181576 0.02309878323153551
0.11879949979160001 0.004576192632261725 0.02450531506876949 0.9943646140205591 -0.057576586956177234 0.001215266418654118 0.011362086251037934 -0.001073135527413492 -0.00724278650797691
 0.9943646140205591 -0.057576586956177234 0.004568003095246458 0.024505950510190735 -0.001072049800770125 -0.007242841118736756 0.0012678521670072141 0.01135563578928338
 0.001215266418654118 0.011362086251037934 -0.001072049800770125 -0.007242841118736756 0.004576784232224476 0.02450370516712207 0.99436455458475 -0.057578176300604064
 -0.001073135527413492 -0.00724278650797691 0.0012678521670072141 0.01135563578928338 0.99436455458475 -0.057578176300604064 0.004567301337594192 0.024504429441387067
0.1250521050438 0.004852707702554019 0.025922767101898263 0.9940023183373 -0.06071608128875952 0.0013251913246380136 0.011965990219465766 -0.0011696618364750906 -0.007631284564383082
 0.9940023183373 -0.06071608128875952 0.004843635785858273 0.025923466080806992 -0.0011684619723059488 -0.007631350477760485 0.0013835040103703288 0.01195869755184348
 0.0013251913246380136 0.011965990219465766 -0.0011684619723059488 -0.007631350477760485 0.004853363783447794 0.025921071461905237 0.9940022526496578 -0.060717754928919856
 -0.0011696618364750906 -0.007631284564383082 0.0013835040103703288 0.01195869755184348 0.9940022526496578 -0.060717754928919856 0.004842858668133679 0.025921870196680238
0.131304710296 0.005139902131419861 0.027351881676291424 0.993626373062364 -0.06386626795382838 0.0014402714076931838 0.012570134695680687 -0.0012707612199611411 -0.008020113149585341
 0.993626373062364 -0.06386626795382838 0.005129902695604862 0.02735264774270343 -0.0012694418025379914 -0.008020191541791575 0.0015046120161731173 0.012561928881829828
 0.0014402714076931838 0.012570134695680687 -0.0012694418025379914 -0.008020191541791575 0.005140626065035699 0.027350100115539042 0.9936263007886244 -0.06386802601537576
 -0.0012707612199611411 -0.008020113149585341 0.0015046120161731173 0.012561928881829828 0.9936263007886244 -0.06386802601537576 0.00512904639829323 0.027350977838530965
0.1375573155481 0.005363603437213997 0.028605291292568412 0.9933109715730265 -0.06683976385478264 0.0015432845549406466 0.0131547852822171 -0.0013591399995098615 -0.008389593237833212
 0.9933109715730265 -0.06683976385478264 0.005352627146244577 0.02860610820387029 -0.0013576930664227424 -0.008389683897287534 0.001613804454528813 0.013145692578248316
 0.0015432845549406466 0.0131547852822171 -0.0013576930664227424 -0.008389683897287534 0.0053643980711199106 0.028603423564977276 0.9933108924173408 -0.06684160640003407
 -0.0013591399995098615 -0.008389593237833212 0.001613804454528813 0.013145692578248316 0.9933108924173408 -0.06684160640003407 0.0053516883071070805 0.028604365039066337
0.1438099208003 0.005594852496667699 0.029853436692336633 0.992985060728803 -0.06980708793376804 0.0016504339982272927 0.013737928471823776 -0.0014510618657136896 -0.00875766148561029
 0.992985060728803 -0.06980708793376804 0.00558285350036832 0.029854306584894724 -0.00144948159876417 -0.008757765537953517 0.0017274079452842934 0.01372788543470083
 0.0016504339982272927 0.013737928471823776 -0.00144948159876417 -0.008757765537953517 0.0055957211154455426 0.02985148261113518 0.9929849743586934 -0.06980901508430368
 -0.0014510618657136896 -0.00875766148561029 0.0017274079452842934 0.01372788543470083 0.9929849743586934 -0.06980901508430368 0.005581828389508599 0.029852490981938318
0.1500625260525 0.005833583798455689 0.031096253636102005 0.992648708545623 -0.07276820746835812 0.0017616913006897918 0.014319533318478187 -0.00154649856176402 -0.009124286334406073
 0.992648708545623 -0.07276820746835812 0.005820516186570008 0.031097178765762276 -0.0015447791497404954 -0.009124404949820284 0.0018453929079779569 0.01430847422829118
 0.0017616913006897918 0.014319533318478187 -0.0015447791497404954 -0.009124404949820284 0.005834529686357345 0.031094213005809022 0.992648614625254 -0.07277021935211314
 -0.00154649856176402 -0.009124286334406073 0.0018453929079779569 0.01430847422829118 0.992648614625254 -0.07277021935211314 0.005819401084352377 0.0310952915787841
0.15631513130469998 0.006079731543484275 0.032333680087024634 0.9923019831891958 -0.07572308912088632 0.0018770277958146747 0.01489956926713453 -0.0016454215817312135 -0.009489436803244112
