! Created with skrf 1.8.0 (http://scikit-rf.org).
# GHz S RI R 50.0 
!freq ReS11 ImS11 ReS12 ImS12 ReS13 ImS13
! ReS14 ImS14
! ReS21 ImS21 ReS22 ImS22 ReS23 ImS23
! ReS24 ImS24
! ReS31 ImS31 ReS32 ImS32 ReS33 ImS33
! ReS34 ImS34
! ReS41 ImS41 ReS42 ImS42 ReS43 ImS43
! ReS44 ImS44
!
0.0 0.001265470915027 0.0 0.9987345290547 0.0 4.842903218722e-05 0.0 -4.84290330314e-05 5.930846028770545e-21
 0.9987345290547 0.0 0.001265470915016 0.0 -4.842903303075e-05 5.930846028690943e-21 4.842903218735e-05 0.0
 4.842903218722e-05 0.0 -4.842903303075e-05 5.930846028690943e-21 0.001265470930115 0.0 0.9987345290699 0.0
 -4.84290330314e-05 5.930846028770545e-21 4.842903218735e-05 0.0 0.9987345290699 0.0 0.001265470930134 0.0
0.005 0.0013608869817407034 0.001034115766169437 0.9986139161066316 -0.0026517869287685614 6.769583796470951e-05 0.0005432367411168605 -6.575577008345033e-05 -0.0003394182503975884
 0.9986139161066316 -0.0026517869287685614 0.001360891569959398 0.0010341130316800513 -6.57575829739371e-05 -0.0003394195613060247 6.767176970422434e-05 0.0005432460071015788
 6.769583796470951e-05 0.0005432367411168605 -6.57575829739371e-05 -0.0003394195613060247 0.0013608867986615353 0.0010341830793892425 0.9986139164365185 -0.002651719863957798
 -6.575577008345033e-05 -0.0003394182503975884 6.767176970422434e-05 0.0005432460071015788 0.9986139164365185 -0.002651719863957798 0.001360892411585409 0.001034179847908532
0.006252605252188 0.0013857152730806816 0.001296747887448217 0.9985823642221283 -0.0033154134811322973 7.30886722106325e-05 0.0006793172649087171 -7.055723672839316e-05 -0.00042472540495890217
 0.9985823642221283 -0.0033154134811322973 0.0013857224453615255 0.001296744371037039 -7.056005842004405e-05 -0.00042472702023281365 7.305106859179235e-05 0.0006793292685087482
 7.30886722106325e-05 0.0006793172649087171 -7.056005842004405e-05 -0.00042472702023281365 0.0013857149220552851 0.0012968320025599784 0.9985823646726891 -0.003315329669886081
 -7.055723672839316e-05 -0.00042472540495890217 7.305106859179235e-05 0.0006793292685087482 0.9985823646726891 -0.003315329669886081 0.0013857236954583957 0.001296827877772999
0.01250521050438 0.0015152730104282704 0.0026210114709418735 0.9984167795240456 -0.006631816520576292 0.00010342588079449292 0.0013590329330225304 -9.731431929964082e-05 -0.0008516447133133858
 0.9984167795240456 -0.006631816520576292 0.0015153016557921922 0.0026210034460025723 -9.732544827197329e-05 -0.0008516476904277262 0.00010327595580390921 0.001359061442479868
 0.00010342588079449292 0.0013590329330225304 -9.732544827197329e-05 -0.0008516476904277262 0.0015152710439588046 0.0026211794056657453 0.9984167807508154 -0.0066316491273831785
 -9.731431929964082e-05 -0.0008516447133133858 0.00010327595580390921 0.001359061442479868 0.9984167807508154 -0.0066316491273831785 0.00151530606696183 0.002621170289052361
0.01875781575657 0.00165438614800611 0.003964493765936765 0.9982375984925916 -0.009957323602444676 0.00013950418684301056 0.002039638911616174 -0.00012877400365547773 -0.0012801554610697822
 0.9982375984925916 -0.009957323602444676 0.001654450529201481 0.003964480182934477 -0.00012879883487969577 -0.0012801595034356355 0.00013916746382582233 0.002039689209062885
 0.00013950418684301056 0.002039638911616174 -0.00012879883487969577 -0.0012801595034356355 0.001654381322601389 0.003964745348334988 0.9982376008278243 -0.009957072735611115
 -0.00012877400365547773 -0.0012801554610697822 0.00013916746382582233 0.002039689209062885 0.9982376008278243 -0.009957072735611115 0.0016544600034709917 0.003964730302540976
0.02501042100875 0.0018032916542451822 0.0053253529043152965 0.9980446388837791 -0.013293588114540046 0.00018138811266675791 0.002721193051296071 -0.0001650082180427374 -0.001710085972773696
 0.9980446388837791 -0.013293588114540046 0.0018034060114794478 0.005325332658484947 -0.0001650520871740805 -0.0017100907353415642 0.00018079011904389115 0.002721271158959884
 0.00018138811266675791 0.002721193051296071 -0.0001650520871740805 -0.0017100907353415642 0.0018032827333273377 0.005325688007117135 0.9980446426553911 -0.013293253838944837
 -0.0001650082180427374 -0.001710085972773696 0.00018079011904389115 0.002721271158959884 0.9980446426553911 -0.013293253838944837 0.0018034224338106637 0.005325666029076332
0.03126302626094 0.0019622164333803 0.006702661828536612 0.9978377077872854 -0.01664134262457487 0.0002291429073757209 0.0034036901900973537 -0.00020608721814883491 -0.002141324293636465
 0.9978377077872854 -0.01664134262457487 0.001962394990073405 0.006702633759905777 -0.00020615541200871167 -0.0021413293821151555 0.00022820909835781036 0.0034038028725515727
 0.0002291429073757209 0.0034036901900973537 -0.00020615541200871167 -0.0021413293821151555 0.0019622021911751848 0.006703080347585961 0.997837713324178 -0.01664092498291613
 -0.00020608721814883491 -0.002141324293636465 0.00022820909835781036 0.0034038028725515727 0.997837713324178 -0.01664092498291613 0.001962420234753926 0.006703050368949549
0.037515631513130004 0.00213138266212094 0.008095831847389415 0.9976166070685638 -0.02000097527576671 0.00028283391510083736 0.004087100709336252 -0.00025208012820612086 -0.0025737796220133683
 0.9976166070685638 -0.02000097527576671 0.0021316396283434257 0.008095794740737716 -0.00025217789016718375 -0.0025737845925725626 0.00028148963720922695 0.004087255480107552
 0.00028283391510083736 0.004087100709336252 -0.00025217789016718375 -0.0025737845925725626 0.002131361881968617 0.008096333680252343 0.9976166146994997 -0.02000047430978341
 -0.00025208012820612086 -0.0025737796220133683 0.00028148963720922695 0.004087255480107552 0.9976166146994997 -0.02000047430978341 0.0021316755584852246 0.008096294567472401
0.043768236765320004 0.0023110098622151415 0.009504437192947203 0.9973811355476115 -0.023372705175311946 0.0003425262908575669 0.0047713822496348686 -0.00030305514366115913 -0.003007370581605655
 0.9973811355476115 -0.023372705175311946 0.002311359437335513 0.009504389777689557 -0.0003031876768417458 -0.0030073749406947306 0.00034069676226665993 0.004771587379154314
 0.0003425262908575669 0.0047713822496348686 -0.0003031876768417458 -0.0030073749406947306 0.0023109813351365866 0.009505022254052475 0.9973811456003489 -0.023372120910446666
 -0.00030305514366115913 -0.003007370581605655 0.00034069676226665993 0.004771587379154314 0.9973811456003489 -0.023372120910446666 0.002311407904371274 0.009504972808328108
0.050020842017509996 0.0025013158678868328 0.010928142549643114 0.9971310900742189 -0.026756654808656175 0.00040828483571248014 0.005456484553834823 -0.0003590796169084575 -0.0034420203672312225
 0.9971310900742189 -0.026756654808656175 0.002501772242407316 0.010928083499684953 -0.0003592520861957743 -0.0034420235714638747 0.000405895135466283 0.005456749077934458
 0.00040828483571248014 0.005456484553834823 -0.0003592520861957743 -0.0034420235714638747 0.0025012783934264364 0.01092881075077294 0.9971311028768514 -0.026755987273588962
 -0.0003590796169084575 -0.0034420203672312225 0.000405895135466283 0.005456749077934458 0.9971311028768514 -0.026755987273588962 0.002501835087843825 0.010928749707810919
0.055454545454549996 0.002675538341969973 0.01217742989609846 0.9969017983523519 -0.029707382326086728 0.00047040745486556524 0.0060524825583066575 -0.00041191905827396666 -0.0038205461250888618
 0.9969017983523519 -0.029707382326086728 0.0026760990473560595 0.012177359615071206 -0.0004121303991427259 -0.003820547845634203 0.000467469991365672 0.006052806637378907
 0.00047040745486556524 0.0060524825583066575 -0.0004121303991427259 -0.003820547845634203 0.002675492122841465 0.012178170285161763 0.9969018138110853 -0.0297066424419241
 -0.00041191905827396666 -0.0038205461250888618 0.000467469991365672 0.006052806637378907 0.9969018138110853 -0.0297066424419241 0.002676175875313672 0.012178098086144461
0.056273447269699996 0.002702517337738317 0.012366667453516248 0.9968662661500798 -0.03015288558344288 0.00048017388628062433 0.006142351829904707 -0.0004202200889592889 -0.0038776543715413675
 0.9968662661500798 -0.03015288558344288 0.0027030946951594535 0.012366595387112263 -0.0004204376224207224 -0.003877655827589241 0.0004771489489747322 0.006142685558634816
 0.00048017388628062433 0.006142351829904707 -0.0004204376224207224 -0.003877655827589241 0.002702469722877186 0.012367418717407942 0.9968662820305388 -0.030152134796328833
 -0.0004202200889592889 -0.0038776543715413675 0.0004771489489747322 0.006142685558634816 0.9968662820305388 -0.030152134796328833 0.0027031737498189566 0.012367344747311207
0.06252605252188 0.0029148300386642977 0.013819766739513278 0.9965864583251011 -0.03356141732587286 0.0005582572296020976 0.006828924056141197 -0.00048654229554028486 -0.004314198870685648
 0.9965864583251011 -0.03356141732587286 0.002915542556829362 0.013819680219058895 -0.000486809985329941 -0.004314197935202947 0.000554521843472955 0.006829337582717564
 0.0005582572296020976 0.006828924056141197 -0.000486809985329941 -0.004314197935202947 0.002914771098235769 0.013820600989103959 0.9965864776116641 -0.03356058330500395
 -0.00048654229554028486 -0.004314198870685648 0.000554521843472955 0.006829337582717564 0.9965864776116641 -0.03356058330500395 0.0029156396420076257 0.013820512696052835
0.06877865777407 0.003138469010081929 0.015287218867320254 0.9962914604758113 -0.03698223989949859 0.0006425980338001213 0.007516137751301981 -0.0005581111566506852 -0.004751580246512517
 0.9962914604758113 -0.03698223989949859 0.0031393308626998548 0.015287116399140387 -0.0005584340596647396 -0.004751576226059276 0.0006380768411946707 0.0075166424611432915
 0.0006425980338001213 0.007516137751301981 -0.0005584340596647396 -0.004751576226059276 0.003138397566415413 0.015288136029013353 0.9962914834971371 -0.036981322660057436
 -0.0005581111566506852 -0.004751580246512517 0.0006380768411946707 0.0075166424611432915 0.9962914834971371 -0.036981322660057436 0.0031394477901666943 0.015288031950948838
0.07503126302626001 0.0033736486548408356 0.016768818529807546 0.9959810660127784 -0.04041532054297481 0.0007332587866771561 0.008203926465691272 -0.0006349907572262358 -0.005189724489411284
 0.9959810660127784 -0.04041532054297481 0.003374674012809176 0.016768698563870494 -0.0006353738955554785 -0.005189716640382735 0.0007278762864907357 0.008204534545458846
 0.0007332587866771561 0.008203926465691272 -0.0006353738955554785 -0.005189716640382735 0.0033735635371377683 0.016769818534564645 0.9959810930977144 -0.04041432009578274
 -0.0006349907572262358 -0.005189724489411284 0.0007278762864907357 0.008204534545458846 0.9959810930977144 -0.04041432009578274 0.0033748125844036644 0.016769697142905247
0.08128386827845 0.00362058278610002 0.018264371729786573 0.9956550680465526 -0.04386060874074196 0.0008303012397162991 0.0088922211036159 -0.0007172443217013694 -0.005628556871456017
 0.9956550680465526 -0.04386060874074196 0.003621785818772708 0.018264232659462677 -0.0007176926828658692 -0.005628544400031199 0.000823981791027376 0.008892945550282057
 0.0008303012397162991 0.0088922211036159 -0.0007176926828658692 -0.005628544400031199 0.003620482830490372 0.018265454511653973 0.9956550995243397 -0.04385952509375464
 -0.0007172443217013694 -0.005628556871456017 0.000823981791027376 0.008892945550282057 0.9956550995243397 -0.04385952509375464 0.003621947827134344 0.018265314210897547
0.08753647353064001 0.0038794846443228645 0.019773692376581522 0.9953132595250461 -0.04731803957596229 0.0009337863555628548 0.00958095014795676 -0.0008049341839102655 -0.006068001719277351
 0.9953132595250461 -0.04731803957596229 0.003880879520939808 0.0197735325382953 -0.0008054527210474546 -0.006067983781361552 0.000926454182489352 0.009581804777827982
 0.0009337863555628548 0.00958095014795676 -0.0008054527210474546 -0.006067983781361552 0.0038793686936718992 0.019774857871482098 0.9953132957256148 -0.04731687273538939
 -0.0008049341839102655 -0.006068001719277351 0.000926454182489352 0.009581804777827982 0.9953132957256148 -0.04731687273538939 0.0038810667492462725 0.019774696998728036
0.09378907878283 0.0041505668944183645 0.021296599844425553 0.9949554333536359 -0.0507875361233371 0.0010437742576386879 0.010270039820911786 -0.000898121754135544 -0.006507982252585336
 0.9949554333536359 -0.0507875361233371 0.004152167784978009 0.021296417517328785 -0.0008987153860012951 -0.006507957953770284 0.001035353454964473 0.010271039278644442
 0.0010437742576386879 0.010270039820911786 -0.0008987153860012951 -0.006507957953770284 0.004150433798040841 0.021297847990765135 0.9949554746074687 -0.05078628609300364
 -0.000898121754135544 -0.006507982252585336 0.001035353454964473 0.010271039278644442 0.9949554746074687 -0.05078628609300364 0.004152382007502994 0.02129766481529622
0.100041684035 0.004434041607587669 0.022832917193230055 0.9945813825024644 -0.05426901118159661 0.0011603241811028652 0.010959414202176545 -0.0009968674836473548 -0.006948420467280966
 0.9945813825024644 -0.05426901118159661 0.004435862684244241 0.022832710598775 -0.000997541094621905 -0.0069483888628018246 0.0011507387207825256 0.010960573969697648
 0.0011603241811028652 0.010959414202176545 -0.000997541094621905 -0.0069483888628018246 0.004433890221119185 0.022834247930755485 0.9945814291406745 -0.0542676779640718
 -0.0009968674836473548 -0.006948420467280966 0.0011507387207825256 0.010960573969697648 0.9945814291406745 -0.0542676779640718 0.004436105666272992 0.02283404065354732
0.1059090909091 0.004711511734394071 0.024286628654530358 0.9942154350073614 -0.05754681503706362 0.0012757139530502988 0.011606508450154098 -0.0010946379373527365 -0.0073620706394457325
 0.9942154350073614 -0.05754681503706362 0.004713552325010944 0.0242863976183992 -0.0010953910118339523 -0.007362031275240057 0.0012649663352161495 0.011607833485702998
 0.0012757139530502988 0.011606508450154098 -0.0010953910118339523 -0.007362031275240057 0.004711342149196606 0.02428803684293296 0.994215487000243 -0.05754540375696042
 -0.0010946379373527365 -0.0073620706394457325 0.0012649663352161495 0.011607833485702998 0.994215487000243 -0.05754540375696042 0.004713823892163676 0.024287805251214073
0.1062942892872 0.004730120233316969 0.024382469816986364 0.9941909001048013 -0.05776236858057017 0.0012834944248731662 0.011648995318237902 -0.001101230827432028 -0.007389237049367459
 0.9941909001048013 -0.05776236858057017 0.0047321756718480806 0.024382237118513842 -0.0011019892674383872 -0.0073891971440757185 0.0012726681631351623 0.011650331723653089
 0.0012834944248731662 0.011648995318237902 -0.0011019892674383872 -0.0073891971440757185 0.004729949418410198 0.024383883088990598 0.9941909524593844 -0.05776095217491242
 -0.001101230827432028 -0.007389237049367459 0.0012726681631351623 0.011650331723653089 0.9941909524593844 -0.05776095217491242 0.004732449169540924 0.024383649842092375
0.11254689453939999 0.005039013562610652 0.025945084417203442 0.9937837795497884 -0.061267504165333046 0.0014133423040800428 0.012338703211841101 -0.0012112702055976385 -0.007830351310882937
 0.9937837795497884 -0.061267504165333046 0.005041317543253245 0.025944823719495455 -0.001212118289949365 -0.00783030205921853 0.0014011989890383564 0.012340233438216728
 0.0014133423040800428 0.012338703211841101 -0.001212118289949365 -0.00783030205921853 0.005038822186807592 0.02594658016866555 0.9937838379535628 -0.0612660045689462
 -0.0012112702055976385 -0.007830351310882937 0.0014011989890383564 0.012340233438216728 0.9937838379535628 -0.0612660045689462 0.005041623303959006 0.02594631901466171
0.11879949979160001 0.005360931685346161 0.027520588196472132 0.9933598145705714 -0.06478430656268315 0.0015499241030360639 0.013028455999839341 -0.001327042963322164 -0.008271681139487447
 0.9933598145705714 -0.06478430656268315 0.005363498394118771 0.027520297545189407 -0.0013279854725184606 -0.008271621445469965 0.0015363873829685407 0.013030198093951508
 0.0015499241030360639 0.013028455999839341 -0.0013279854725184606 -0.008271621445469965 0.005360718621667726 0.02752216637442699 0.9933598793572301 -0.064782723770898
 -0.001327042963322164 -0.008271681139487447 0.0015363873829685407 0.013030198093951508 0.9933598793572301 -0.064782723770898 0.005363838156400088 0.027521875305731466
0.1250521050438 0.005696083941641879 0.029108808219787143 0.9929187993288767 -0.068312657782175 0.0016932950284508212 0.013718169916493723 -0.0014486053298907468 -0.008713142964895572
 0.9929187993288767 -0.068312657782175 0.005698927571756805 0.029108485600953485 -0.0014496470094355343 -0.008713071682112728 0.0016782884603673447 0.013720142797424744
 0.0016932950284508212 0.013718169916493723 -0.0014496470094355343 -0.008713071682112728 0.005695848068932977 0.029110468773328655 0.9929188708333213 -0.06831099178823377
 -0.0014486053298907468 -0.008713142964895572 0.0016782884603673447 0.013720142797424744 0.9929188708333213 -0.06831099178823377 0.005699303065604069 0.029110145711532566
0.131304710296 0.00604467887048967 0.03070957090481122 0.9924605284982487 -0.07185243369077737 0.0018435091625577727 0.014407759354421238 -0.0015760123769904683 -0.009154651729802739
 0.9924605284982487 -0.07185243369077737 0.006047813623343169 0.030709214244181476 -0.0015771579370884243 -0.009154567661411425 0.0018269562213270678 0.01440998282212948
 0.0018435091625577727 0.014407759354421238 -0.0015771579370884243 -0.009154567661411425 0.006044419072543391 0.030711313785685264 0.9924606070563613 -0.07185068448526108
 -0.0015760123769904683 -0.009154651729802739 0.0018269562213270678 0.01440998282212948 0.9924606070563613 -0.07185068448526108 0.00604822656994841 0.03071095658076773
0.1375573155481 0.00632068183826745 0.03211301984634404 0.9920710634168801 -0.0751937621459705 0.0019799276277971877 0.015075368492951243 -0.0016886447301512817 -0.009574348780950263
 0.9920710634168801 -0.0751937621459705 0.006324121987520702 0.032112636680612025 -0.0016899008423166308 -0.009574251993685145 0.0019617859939638376 0.015077836997720733
 0.0019799276277971877 0.015075368492951243 -0.0016899008423166308 -0.009574251993685145 0.006320396112382916 0.032114845588906774 0.9920711493462328 -0.07519192975345368
 -0.0016886447301512817 -0.009574348780950263 0.0019617859939638376 0.015077836997720733 0.9920711493462328 -0.07519192975345368 0.006324575029791196 0.03211446059979501
0.1438099208003 0.00660616506476032 0.03351008693016992 0.9916683159985661 -0.0785276581389852 0.002121862377014461 0.015740928687062068 -0.0018058002816933021 -0.009992171225155505
 0.9916683159985661 -0.0785276581389852 0.006609924805904052 0.0335096759205273 -0.0018071719591538401 -0.009992060564804173 0.0021020616087594167 0.015743660151068685
 0.002121862377014461 0.015740928687062068 -0.0018071719591538401 -0.009992060564804173 0.006605852142090379 0.03351199554983094 0.9916684096326094 -0.07852574255620812
 -0.0018058002816933021 -0.009992171225155505 0.0021020616087594167 0.015743660151068685 0.9916684096326094 -0.07852574255620812 0.006610419820501539 0.03351158124002452
0.1500625260525 0.006901040890271563 0.03490068582856266 0.9912523769257566 -0.08185407006863661 0.002269272631496819 0.01640439349339878 -0.0019274394274450446 -0.010408074210995863
 0.9912523769257566 -0.08185407006863661 0.006905134422285309 0.03490024557241493 -0.0019289316734204661 -0.010407948477604434 0.002247742607462826 0.016407406491869975
 0.002269272631496819 0.01640439349339878 -0.0019289316734204661 -0.010407948477604434 0.006900699496528653 0.034902677344489756 0.9912524785984425 -0.08185207129113195
 -0.0019274394274450446 -0.010408074210995863 0.002247742607462826 0.016407406491869975 0.9912524785984425 -0.08185207129113195 0.006905673288751184 0.03490223210215348
0.15631513130469998 0.007205221182378038 0.036284732995228657 0.9908233371758663 -0.08517294593049239 0.002422117225161586 0.017065717117119884 -0.0020535221602896053 -0.010822013743289774
