! Created with skrf 1.8.0 (http://scikit-rf.org).
# GHz S RI R 50.0 
!freq ReS11 ImS11 ReS12 ImS12 ReS13 ImS13
! ReS14 ImS14
! ReS21 ImS21 ReS22 ImS22 ReS23 ImS23
! ReS24 ImS24
! ReS31 ImS31 ReS32 ImS32 ReS33 ImS33
! ReS34 ImS34
! ReS41 ImS41 ReS42 ImS42 ReS43 ImS43
! ReS44 ImS44
!
0.0 0.001362222119797 0.0 0.9986377778603 0.0 5.235447328736e-05 0.0 -5.235447364277e-05 6.411573856766275e-21
 0.9986377778603 0.0 0.001362222119789 0.0 -5.235447364259e-05 6.4115738567442314e-21 5.235447328748e-05 0.0
 5.235447328736e-05 0.0 -5.235447364259e-05 6.4115738567442314e-21 0.001362222126898 0.0 0.9986377778674 0.0
 -5.235447364277e-05 6.411573856766275e-21 5.235447328748e-05 0.0 0.9986377778674 0.0 0.001362222126901 0.0
0.005 0.001465190329609399 0.0011125839340480794 0.9985075746846674 -0.0028542160469433183 7.341998241920311e-05 0.0005898148594089818 -7.125284907986524e-05 -0.0003680424476452179
 0.9985075746846674 -0.0028542160469433183 0.0014652024357719546 0.001112576808892495 -7.125380696719407e-05 -0.0003680431101084741 7.334479878963247e-05 0.0005898434510284039
 7.341998241920311e-05 0.0005898148594089818 -7.125380696719407e-05 -0.0003680431101084741 0.0014651905578006571 0.0011126510254554135 0.9985075750350849 -0.0028541489766691387
 -7.125284907986524e-05 -0.0003680424476452179 7.334479878963247e-05 0.0005898434510284039 0.9985075750350849 -0.0028541489766691387 0.0014652029066550031 0.0011126438571736643
0.006252605252188 0.0014920569865771868 0.0013951360389495055 0.9984734074034364 -0.0035684905926072494 7.936606042562563e-05 0.0007375567809139956 -7.652542717353085e-05 -0.00046054002024426325
 0.9984734074034364 -0.0035684905926072494 0.001492075911156066 0.0013951269827597046 -7.652691832961166e-05 -0.00046054083573610413 7.924859167031692e-05 0.0007375938890280846
 7.936606042562563e-05 0.0007375567809139956 -7.652691832961166e-05 -0.00046054083573610413 0.0014920572642890839 0.0013952198724325533 0.99847340787188 -0.0035684067788006005
 -7.652542717353085e-05 -0.00046054002024426325 7.924859167031692e-05 0.0007375938890280846 0.99847340787188 -0.0035684067788006005 0.00149207656737053 0.0013952107747385407
0.01250521050438 0.001632681068953278 0.0028197822043789077 0.9982934808766674 -0.007137928910342345 0.00011308347094117165 0.0014754807015217482 -0.00010610250050902018 -0.0009234138789362799
 0.9982934808766674 -0.007137928910342345 0.0016327566431352041 0.0028197625870186194 -0.0001061083844934205 -0.0009234153723384664 0.00011261500225684267 0.001475569568820286
 0.00011308347094117165 0.0014754807015217482 -0.0001061083844934205 -0.0009234153723384664 0.0016326815905705519 0.002819949563338701 0.998293482153124 -0.007137761519193283
 -0.00010610250050902018 -0.0009234138789362799 0.00011261500225684267 0.001475569568820286 0.998293482153124 -0.007137761519193283 0.0016327586612881397 0.0028199299879677134
0.01875781575657 0.0017843732972070156 0.0042649936010939644 0.998097794805396 -0.010717033909040422 0.0001535796748130388 0.0022142977526714105 -0.00014117093017565512 -0.0013879555158220085
 0.998097794805396 -0.010717033909040422 0.001784543131356608 0.004264961821417281 -0.00014118406242130078 -0.0013879575235022862 0.0001525272359690113 0.0022144556367651455
 0.0001535796748130388 0.0022142977526714105 -0.00014118406242130078 -0.0013879575235022862 0.0017843740665895386 0.00426524430658553 0.9980977972575803 -0.010716783036853392
 -0.00014117093017565512 -0.0013879555158220085 0.0001525272359690113 0.0022144556367651455 0.9980977972575803 -0.010716783036853392 0.0017845472331780986 0.004265212781033561
0.02501042100875 0.0019474058668377593 0.005728772808541431 0.9978861385286125 -0.01430756963514943 0.00020092900399307025 0.002954060130238892 -0.0001818135974898126 -0.0018539686024756905
 0.9978861385286125 -0.01430756963514943 0.001947707503693379 0.00572872718204943 -0.00018183680311928898 -0.0018539709320385632 0.00019905947841180726 0.002954306792247471
 0.00020092900399307025 0.002954060130238892 -0.00018183680311928898 -0.0018539709320385632 0.0019474068813858882 0.005729106703335477 0.9978861425095866 -0.014307235344839365
 -0.0001818135974898126 -0.0018539686024756905 0.00019905947841180726 0.002954306792247471 0.9978861425095866 -0.014307235344839365 0.0019477143856304188 0.005729061676303016
0.03126302626094 0.002122039554116911 0.007210106563439024 0.9976582896531375 -0.01791030851560329 0.00025520654101877943 0.003694751026387223 -0.00022811130361946128 -0.002321321694540238
 0.9976582896531375 -0.01791030851560329 0.002122510487965867 0.007210045324766073 -0.00022814738274764225 -0.0023213241244070875 0.0002522864415577406 0.0036951087447594333
 0.00025520654101877943 0.003694751026387223 -0.00022814738274764225 -0.0023213241244070875 0.0021220408198758555 0.007210523501208806 0.9976582955176161 -0.017909890847150778
 -0.00022811130361946128 -0.002321321694540238 0.0002522864415577406 0.0036951087447594333 0.9976582955176161 -0.017909890847150778 0.0021225208375121045 0.007210463345534165
0.037515631513130004 0.0023085296544260083 0.008708345269197608 0.9974140201312166 -0.021525651794540152 0.00031648734633311806 0.004436326685609741 -0.000280143384950206 -0.0027899061627953297
 0.9974140201312166 -0.021525651794540152 0.0023092073438521353 0.008708266573422177 -0.00028019511539949433 -0.002789908442038712 0.0003122827106107382 0.004436820281873705
 0.00031648734633311806 0.004436326685609741 -0.00028019511539949433 -0.002789908442038712 0.00230853118524198 0.008708845103054069 0.997414028234668 -0.021525150776190452
 -0.000280143384950206 -0.0027899061627953297 0.0003122827106107382 0.004436820281873705 0.997414028234668 -0.021525150776190452 0.0023092218390645238 0.008708768117215092
0.043768236765320004 0.0025071282741955616 0.010223014210339772 0.9971530986923589 -0.025153818257497372 0.0003848461091658856 0.005178729187018334 -0.00033798793763944307 -0.0032596234005276337
 0.9971530986923589 -0.025153818257497372 0.002508050151473399 0.010222916133921702 -0.00033805807645110155 -0.0032596252487551085 0.00037912244536642995 0.00517938605530385
 0.0003848461091658856 0.005178729187018334 -0.00033805807645110155 -0.0032596252487551085 0.0025071300892341815 0.010223596787459488 0.9971531093896129 -0.025153233910973925
 -0.00033798793763944307 -0.0032596234005276337 0.00037912244536642995 0.00517938605530385 0.9971531093896129 -0.025153233910973925 0.0025080694595315846 0.010223501196665272
0.050020842017509996 0.0027180854024790426 0.011753735497898406 0.996875292058994 -0.028794922222923475 0.00046035694005120147 0.005921891723658225 -0.0004017219103598206 -0.0037303795355335193
 0.996875292058994 -0.028794922222923475 0.0027192888824022787 0.011753616039122599 -0.00040181319484210333 -0.00373038064279223 0.00045287920004749094 0.005922741861747909
 0.00046035694005120147 0.005921891723658225 -0.00040181319484210333 -0.00373038064279223 0.002718087527535022 0.011754400661512938 0.9968753057058498 -0.028794254561157265
 -0.0004017219103598206 -0.0037303795355335193 0.00045287920004749094 0.005922741861747909 0.9968753057058498 -0.028794254561157265 0.0027193136608604294 0.011754284618435735
0.055454545454549996 0.0029116431386175413 0.013096766081734091 0.9966199746733561 -0.03196969730655132 0.0005318435135926754 0.006568283085383346 -0.00046195051519785864 -0.004140253319333103
 0.9966199746733561 -0.03196969730655132 0.0029131217166600484 0.013096626355044034 -0.0004620623840074049 -0.0041402535079491055 0.0005226500996925592 0.006569327588745853
 0.0005318435135926754 0.006568283085383346 -0.0004620623840074049 -0.0041402535079491055 0.0029116455587437956 0.013097502881409265 0.9966199911731285 -0.03196895724860308
 -0.00046195051519785864 -0.004140253319333103 0.0005226500996925592 0.006569327588745853 0.9966199911731285 -0.03196895724860308 0.0029131517761071166 0.013097367508432033
0.056273447269699996 0.002941649472008596 0.013300189782769641 0.9965803656537607 -0.0324490117653894 0.0005430932309558684 0.006665741196035086 -0.0004714211338884838 -0.004202082829674679
 0.9965803656537607 -0.0324490117653894 0.002943171958731453 0.013300046862198484 -0.0004715362821641895 -0.004202082856394725 0.0005336257989913027 0.00666681723721832
 0.0005430932309558684 0.006665741196035086 -0.0004715362821641895 -0.004202082856394725 0.002941651938926488 0.013300937367556914 0.996580382606805 -0.03244826079697515
 -0.0004714211338884838 -0.004202082829674679 0.0005336257989913027 0.00666681723721832 0.996580382606805 -0.03244826079697515 0.002943202856001371 0.01330079895280598
0.06252605252188 0.0031780676663199217 0.014862095185873371 0.9962680840560679 -0.03611608972342551 0.0006331275469631356 0.007410199623646051 -0.0005471603196852139 -0.004674642262594045
 0.9962680840560679 -0.03611608972342551 0.0031799465609123542 0.014861926646457408 -0.0005473020311596921 -0.004674640839515469 0.0006214342395241427 0.007411536868908849
 0.0006331275469631356 0.007410199623646051 -0.0005473020311596921 -0.004674640839515469 0.0031780705119577733 0.014862925021566394 0.9962681046720044 -0.03611525544874935
 -0.0005471603196852139 -0.004674642262594045 0.0006214342395241427 0.007411536868908849 0.9962681046720044 -0.03611525544874935 0.003179984215123421 0.014862762244004395
0.06877865777407 0.0034275860921719886 0.016439194752525834 0.9959382113261047 -0.03979612618459871 0.000730531535518311 0.008155184997310785 -0.0006290130415763251 -0.005147966676843745
 0.9959382113261047 -0.03979612618459871 0.003429858799290543 0.016438998359564392 -0.0006291839971748169 -0.00514796340495978 0.00071637560837667 0.008156821447704394
 0.000730531535518311 0.008155184997310785 -0.0006291839971748169 -0.00514796340495978 0.0034275893589387797 0.016440106657965227 0.9959382359628622 -0.03979520860168743
 -0.0006290130415763251 -0.005147966676843745 0.00071637560837667 0.008156821447704394 0.9959382359628622 -0.03979520860168743 0.0034299038394077675 0.01643991745482411
0.07503126302626001 0.0036904498697352493 0.01803124848710962 0.9955905112499145 -0.04348906639270648 0.0008353758469909819 0.008900611813593308 -0.0007170517055504349 -0.005621964243403659
 0.9955905112499145 -0.04348906639270648 0.003693153804117178 0.018031021928101937 -0.0007172545678747845 -0.005621958693905255 0.0008185200077328294 0.008902588202617027
 0.0008353758469909819 0.008900611813593308 -0.0007172545678747845 -0.005621958693905255 0.003690453605374799 0.01803224226965447 0.9955905402667855 -0.043488065497551444
 -0.0007170517055504349 -0.005621964243403659 0.0008185200077328294 0.008902588202617027 0.9955905402667855 -0.043488065497551444 0.003693206849957034 0.018032024506489698
0.08128386827845 0.003966903175144751 0.01963802805114427 0.9952247475394654 -0.04719483599379482 0.0009477300607322576 0.00964639143255645 -0.0008113475132665198 -0.006096542106412956
 0.9952247475394654 -0.04719483599379482 0.00397007576824807 0.01963776893537624 -0.0008115849266239596 -0.006096533820644092 0.0009279364857335305 0.009648751258467678
 0.0009477300607322576 0.00964639143255645 -0.0008115849266239596 -0.006096533820644092 0.003966907431622833 0.019639103513939892 0.9952247812964959 -0.047193751773017475
 -0.0008113475132665198 -0.006096542106412956 0.0009279364857335305 0.009648751258467678 0.9952247812964959 -0.047193751773017475 0.003970137429859839 0.019638854984356146
0.08753647353064001 0.004257189246666415 0.021259313104924762 0.9948406839986861 -0.050913344641464145 0.0010676626162644453 0.010392432325884727 -0.0009119704197078113 -0.006571606140213407
 0.9948406839986861 -0.050913344641464145 0.004260867952992325 0.021259018962947747 -0.0009122450101118469 -0.006571594629629535 0.0010446929709947313 0.010395221883876852
 0.0010676626162644453 0.010392432325884727 -0.0009122450101118469 -0.006571594629629535 0.004257194080424589 0.021260470040443225 0.9948407228574114 -0.050912177078513664
 -0.0009119704197078113 -0.006571606140213407 0.0010446929709947313 0.010395221883876852 0.9948407228574114 -0.050912177078513664 0.004260938831406896 0.021260188465644685
0.09378907878283 0.004561550369506782 0.022894888685997844 0.9944380846707614 -0.054644488567985275 0.0011952407463167297 0.01113864025605804 -0.001018989088041167 -0.0070470607781392795
 0.9944380846707614 -0.054644488567985275 0.004565772673259737 0.022894556968833288 -0.0010193034632053144 -0.0070470455242582775 0.0011688562084162812 0.0111419086702583
 0.0011952407463167297 0.01113864025605804 -0.0010193034632053144 -0.0070470455242582775 0.004561555841583614 0.022896126875202063 0.9944381289946225 -0.054643237643899674
 -0.001018989088041167 -0.0070470607781392795 0.0011688562084162812 0.0111419086702583 0.9944381289946225 -0.054643237643899674 0.004565853360418244 0.022895809903370215
0.100041684035 0.004880227844475744 0.024544543285268974 0.9940167139724769 -0.05838815246107072 0.0013305304124969458 0.011884918410440155 -0.0011324708409476206 -0.007522808889235828
 0.9940167139724769 -0.05838815246107072 0.004885031265700937 0.024544171363483806 -0.0011328275900984361 -0.00752278934361924 0.0013004916973586825 0.011888717665627583
 0.0013305304124969458 0.011884918410440155 -0.0011328275900984361 -0.00752278934361924 0.004880234019028752 0.024545862499544296 0.9940167641258905 -0.05838681815232893
 -0.0011324708409476206 -0.007522808889235828 0.0013004916973586825 0.011888717665627583 0.9940167641258905 -0.05838681815232893 0.004885122344151575 0.024545507704992156
0.1059090909091 0.00519250746546547 0.026105187227488766 0.9936040204895034 -0.06191245910624427 0.0014645565581754537 0.012585196764457742 -0.0012448982844357535 -0.0079694269691644
 0.9936040204895034 -0.06191245910624427 0.005197890365850976 0.026104775113808876 -0.001245297135445584 -0.007969402870689398 0.0014308707712045487 0.012589544013090523
 0.0014645565581754537 0.012585196764457742 -0.001245297135445584 -0.007969402870689398 0.0051925143610666545 0.02610658225883589 0.9936040764469296 -0.0619110465243078
 -0.0012448982844357535 -0.0079694269691644 0.0014308707712045487 0.012589544013090523 0.9936040764469296 -0.0619110465243078 0.005197991717199024 0.026106189698818758
0.1062942892872 0.005213461942950824 0.026208067401365807 0.9935763368162683 -0.06214421086526247 0.0014735962412158656 0.012631167503815635 -0.0012524816106237481 -0.007998751689527047
 0.9935763368162683 -0.06214421086526247 0.005218884044444543 0.026207652563923784 -0.0012528833044563041 -0.007998727273739561 0.0014396636297513638 0.012635552476902089
 0.0014735962412158656 0.012631167503815635 -0.0012528833044563041 -0.007998727273739561 0.005213468888199327 0.026209467402693476 0.9935763931662182 -0.062142793143586415
 -0.0012524816106237481 -0.007998751689527047 0.0014396636297513638 0.012635552476902089 0.9935763931662182 -0.062142793143586415 0.0052189860878512715 0.02620907228482853
0.11254689453939999 0.005561491854355925 0.027885252435624182 0.9931167187284081 -0.06591252924628042 0.0016245014613912592 0.013377285860625235 -0.0013790858864983436 -0.00847478867658647
 0.9931167187284081 -0.06591252924628042 0.005567570247949817 0.027884791888576756 -0.0013795350769722442 -0.0084747587821808 0.0015864348293580313 0.013382314351814362
 0.0016245014613912592 0.013377285860625235 -0.0013795350769722442 -0.0084747587821808 0.0055614996412954405 0.027886732975327382 0.9931167816432537 -0.0659110280796752
 -0.0013790858864983436 -0.00847478867658647 0.0015864348293580313 0.013382314351814362 0.9931167816432537 -0.0659110280796752 0.005567683820604916 0.02788629495739939
0.11879949979160001 0.005924555624747631 0.029575889828781978 0.9926376259595029 -0.06969296481693685 0.0017833078419383689 0.014123169480911538 -0.0015123466618998153 -0.008950817583499898
 0.9926376259595029 -0.06969296481693685 0.005931327977888831 0.029575380693667417 -0.001512845882061773 -0.008950781571997512 0.0017408666912587581 0.014128902244505512
 0.0017833078419383689 0.014123169480911538 -0.001512845882061773 -0.008950781571997512 0.005924564327500568 0.029577450646909777 0.99263769581021 -0.06969138017019857
 -0.0015123466618998153 -0.008950817583499898 0.0017408666912587581 0.014128902244505512 0.99263769581021 -0.06969138017019857 0.00593145363536167 0.02957696707454344
0.1250521050438 0.006302890090832986 0.03127977037526692 0.9921388255938354 -0.07348536718896852 0.0019500756299662642 0.014868712097930658 -0.001652325379532147 -0.00942673434444119
 0.9921388255938354 -0.07348536718896852 0.006310394133481692 0.03127920968735183 -0.0016528771433283506 -0.009426691547322513 0.0019030191214949735 0.014875212872747994
 0.0019500756299662642 0.014868712097930658 -0.0016528771433283506 -0.009426691547322513 0.006302899785965025 0.03128141120287227 0.9921389027534007 -0.07348369902136599
 -0.001652325379532147 -0.00942673434444119 0.0019030191214949735 0.014875212872747994 0.9921389027534007 -0.07348369902136599 0.006310532422056469 0.03128087934237383
0.131304710296 0.006696730808535998 0.032996683679841536 0.991620085654526 -0.07728957888639641 0.0021248634892419554 0.015613805226601867 -0.0017990818760311637 -0.009902433072505545
 0.991620085654526 -0.07728957888639641 0.0067050043395514665 0.03299606838610961 -0.0017996886780747377 -0.00990238279120731 0.0020729504766971566 0.015621140766033836
 0.0021248634892419554 0.015613805226601867 -0.0017996886780747377 -0.00990238279120731 0.006696741574868491 0.032998404235354044 0.9916201704985023 -0.07728782715512014
 -0.0017990818760311637 -0.009902433072505545 0.0020729504766971566 0.015621140766033836 0.9916201704985023 -0.07728782715512014 0.006705155796577803 0.03299782127181206
0.1375573155481 0.007011643357879718 0.03450166021852327 0.991175872619247 -0.08088060392134089 0.0022846675448774446 0.01633525608996979 -0.0019296760008024084 -0.010354692204003334
 0.991175872619247 -0.08088060392134089 0.007020726098966263 0.034501001182666524 -0.001930341298735661 -0.010354634430595264 0.002227778154058483 0.016343410965029802
 0.0022846675448774446 0.01633525608996979 -0.001930341298735661 -0.010354634430595264 0.00701165441631292 0.034503460730157205 0.9911759654944872 -0.08087876862993205
 -0.0019296760008024084 -0.010354692204003334 0.002227778154058483 0.016343410965029802 0.9911759654944872 -0.08087876862993205 0.007020892173527964 0.034502836830267614
0.1438099208003 0.007337479690051917 0.035999408912269854 0.9907163151339408 -0.08446324658897719 0.0024509416450271956 0.01705422436203458 -0.0020655117418219436 -0.010804703352049184
 0.9907163151339408 -0.08446324658897719 0.007347409805382009 0.035998703987042205 -0.0020662381762359574 -0.010804637410127882 0.002388856242725314 0.017063259135970326
 0.0024509416450271956 0.01705422436203458 -0.0020662381762359574 -0.010804637410127882 0.007337490967705327 0.036001289147415676 0.9907164164131728 -0.0844613276991406
 -0.0020655117418219436 -0.010804703352049184 0.002388856242725314 0.017063259135970326 0.9907164164131728 -0.0844613276991406 0.007347591187666502 0.03600062230679285
0.1500625260525 0.007674134332098806 0.03748982576733562 0.9902415220797472 -0.08803743958524766 0.0026236347329050094 0.017770650783923644 -0.0022065399287599617 -0.011252410712634645
 0.9902415220797472 -0.08803743958524766 0.007684950058732335 0.037489072681311755 -0.0022073301334224037 -0.01125233589897491 0.0025561348036458593 0.017780628222263558
 0.0026236347329050094 0.017770650783923644 -0.0022073301334224037 -0.01125233589897491 0.007674145748144415 0.03749178548416025 0.9902416321375873 -0.08803543705904857
 -0.0022065399287599617 -0.011252410712634645 0.0025561348036458593 0.017780628222263558 0.9902416321375873 -0.08803543705904857 0.007685147441342378 0.03749107357692495
0.15631513130469998 0.008021501171590742 0.038972810040480026 0.9897516027703853 -0.09160311542529277 0.002802695214840793 0.018484476982295262 -0.002352710846228826 -0.01169775958719418
