! Created with skrf 1.8.0 (http://scikit-rf.org).
# GHz S RI R 50.0 
!freq ReS11 ImS11 ReS12 ImS12 ReS13 ImS13
! ReS14 ImS14
! ReS21 ImS21 ReS22 ImS22 ReS23 ImS23
! ReS24 ImS24
! ReS31 ImS31 ReS32 ImS32 ReS33 ImS33
! ReS34 ImS34
! ReS41 ImS41 ReS42 ImS42 ReS43 ImS43
! ReS44 ImS44
!
0.0 0.001246551941111 0.0 0.9987534480589 0.0 4.74145017479e-05 0.0 -4.74145011925e-05 5.806601711856349e-21
 0.9987534480589 0.0 0.001246551941115 0.0 -4.741450119243e-05 5.806601711847777e-21 4.741450174729e-05 0.0
 4.74145017479e-05 0.0 -4.741450119243e-05 5.806601711847777e-21 0.001246551925227 0.0 0.998753448043 0.0
 -4.74145011925e-05 5.806601711856349e-21 4.741450174729e-05 0.0 0.998753448043 0.0 0.001246551925231 0.0
0.005 0.0013404372158092926 0.001023377947235241 0.9986347889678172 -0.0026119391910619473 6.556856121417372e-05 0.0005036637343374143 -6.384377421263209e-05 -0.00031953949847503824
 0.9986347889678172 -0.0026119391910619473 0.0013404502187263408 0.0010233703220147267 -6.384600687570763e-05 -0.00031954112877474825 6.549177784197887e-05 0.0005036930318123602
 6.556856121417372e-05 0.0005036637343374143 -6.384600687570763e-05 -0.00031954112877474825 0.001340436847746137 0.001023445366445009 0.9986347892992191 -0.002611872128150228
 -6.384377421263209e-05 -0.00031953949847503824 6.549177784197887e-05 0.0005036930318123602 0.9986347892992191 -0.002611872128150228 0.001340451249121747 0.001023437028908409
0.006252605252188 0.0013648513134947747 0.0012832630522692993 0.998603771480141 -0.0032655936254644786 7.064409437330607e-05 0.0006298449749266908 -6.83850709324931e-05 -0.0003998448789676268
 0.998603771480141 -0.0032655936254644786 0.0013648716392972264 0.0012832533191920769 -6.83885458722488e-05 -0.0003998468881660935 7.052412685972726e-05 0.0006298829668266856
 7.064409437330607e-05 0.0006298449749266908 -6.83885458722488e-05 -0.0003998468881660935 0.0013648506660530356 0.0012833473014049036 0.9986037719258118 -0.003265509815082491
 -6.83850709324931e-05 -0.0003998448789676268 7.052412685972726e-05 0.0006298829668266856 0.9986037719258118 -0.003265509815082491 0.0013648731771073817 0.0012833366912100126
0.01250521050438 0.001492154657225678 0.0025936017897080985 0.9984411257868081 -0.006532157598172528 9.916468248890675e-05 0.001260166741886307 -9.362948251084376e-05 -0.0008017375520283423
 0.9984411257868081 -0.006532157598172528 0.001492235821483555 0.002593580291363389 -9.364318642639023e-05 -0.0008017412596809927 9.868627806652244e-05 0.0012602573331967403
 9.916468248890675e-05 0.001260166741886307 -9.364318642639023e-05 -0.0008017412596809927 0.001492151513610776 0.0025937699987436257 0.9984411270000508 -0.006531990203707357
 -9.362948251084376e-05 -0.0008017375520283423 9.868627806652244e-05 0.0012602573331967403 0.9984411270000508 -0.006531990203707357 0.0014922413875713527 0.0025937468724242666
0.01875781575657 0.001628696381997028 0.003922853640845294 0.9982653400776369 -0.009807681850900396 0.00013303545204749207 0.0018913911683099069 -0.00012321585424211818 -0.0012051507461895313
 0.9982653400776369 -0.009807681850900396 0.0016288787691942175 0.003922818216494772 -0.0001232464287123651 -0.0012051557896466832 0.00013196075912507026 0.0018915514201089596
 0.00013303545204749207 0.0018913911683099069 -0.0001232464287123651 -0.0012051557896466832 0.0016286889125060957 0.003923105638312031 0.9982653423825201 -0.009807430991713283
 -0.00012321585424211818 -0.0012051507461895313 0.00013196075912507026 0.0018915514201089596 0.9982653423825201 -0.009807430991713283 0.0016288908385391331 0.003923067939734065
0.02501042100875 0.001774706193417413 0.005269209290673949 0.9980762379666616 -0.013093797386690413 0.00017231664058753343 0.002523565610694943 -0.00015721082246005657 -0.001609932761411887
 0.9980762379666616 -0.013093797386690413 0.0017750301078019953 0.005269157661723907 -0.00015726483541705937 -0.0016099387195222445 0.00017040768852310555 0.0025238149241751254
 0.00017231664058753343 0.002523565610694943 -0.00015726483541705937 -0.0016099387195222445 0.0017746925792282583 0.005269544971519104 0.9980762416852401 -0.013093463124929742
 -0.00015721082246005657 -0.001609932761411887 0.00017040768852310555 0.0025238149241751254 0.9980762416852401 -0.013093463124929742 0.0017750511396822828 0.005269490508112159
0.03126302626094 0.0019304040054435698 0.006631759920070485 0.9978736326127123 -0.016391229013390556 0.0002170691951606212 0.003156682432092873 -0.00019567957964059023 -0.0020159838864066797
 0.9978736326127123 -0.016391229013390556 0.0019309096899865527 0.006631689692098394 -0.00019576353847383784 -0.0020159902785869387 0.00021408765744020827 0.003157042559063322
 0.0002170691951606212 0.003156682432092873 -0.00019576353847383784 -0.0020159902785869387 0.0019303824392604921 0.006632179202509463 0.9978736380667705 -0.016390811396832232
 -0.00019567957964059023 -0.0020159838864066797 0.00021408765744020827 0.003157042559063322 0.9978736380667705 -0.016390811396832232 0.0019309421310210822 0.00663210564770543
0.037515631513130004 0.002096005163318507 0.008009929839157144 0.9976573320372173 -0.019700362663239764 0.00026735418856069703 0.003790712594330502 -0.0002386863341192837 -0.002423222790186699
 0.9976573320372173 -0.019700362663239764 0.0020967328108302983 0.008009838502767146 -0.00023880669227748327 -0.0024232290760451036 0.00026306126913224284 0.003791207660267009
 0.00026735418856069703 0.003790712594330502 -0.00023880669227748327 -0.0024232290760451036 0.0020959738472046993 0.008010432652302236 0.9976573395475179 -0.019699861737551897
 -0.0002386863341192837 -0.002423222790186699 0.00026306126913224284 0.003791207660267009 0.9976573395475179 -0.019699861737551897 0.0020967790951706314 0.008010337546455745
0.043768236765320004 0.002271722470061082 0.009403303831980594 0.9974271412483096 -0.023021417994941416 0.00032323254963838815 0.004425615881159168 -0.0002862944884005455 -0.002831576285547538
 0.9974271412483096 -0.023021417994941416 0.002272712232017549 0.009403188763384234 -0.0002864576494232171 -0.002831581864680791 0.0003173889215693201 0.004426272412259331
 0.00032323254963838815 0.004425615881159168 -0.0002864576494232171 -0.002831581864680791 0.0022716796166659284 0.009403890119347289 0.9974271511357674 -0.023020833800048802
 -0.0002862944884005455 -0.002831576285547538 0.0003173889215693201 0.004426272412259331 0.9974271511357674 -0.023020833800048802 0.0022727747833161532 0.009403770870380095
0.050020842017509996 0.002457767135195453 0.010811555807784683 0.9971828632890182 -0.02635451968703797 0.0003847649122297794 0.005061345102482054 -0.0003385667094913133 -0.003240975112714148
 0.9971828632890182 -0.02635451968703797 0.002459059128976165 0.010811414269189079 -0.0003387790296139808 -0.003240979324566867 0.0003771306842622475 0.0050621920543718266
 0.0003847649122297794 0.005061345102482054 -0.0003387790296139808 -0.003240979324566867 0.0024577109659038344 0.010812225529397142 0.9971828758735737 -0.026353852255013712
 -0.0003385667094913133 -0.003240975112714148 0.0003771306842622475 0.0050621920543718266 0.9971828758735737 -0.026353852255013712 0.0024591403590327374 0.010812079413065494
0.055454545454549996 0.002627995873510338 0.012047239978220717 0.9969589838360646 -0.02926092051307845 0.00044287693120570215 0.005614443470508061 -0.00038782878624000594 -0.0035975516463621414
 0.9969589838360646 -0.02926092051307845 0.002629583073944298 0.012047073124635214 -0.00038808895367395315 -0.0035975540867576833 0.00043349134537368054 0.005615481328389513
 0.00044287693120570215 0.005614443470508061 -0.00038808895367395315 -0.0035975540867576833 0.00262792669488819 0.012047982180914952 0.996958999024325 -0.02926018077156334
 -0.00038782878624000594 -0.0035975516463621414 0.00043349134537368054 0.005615481328389513 0.996958999024325 -0.02926018077156334 0.0026296824870929124 0.012047810401057598
0.056273447269699996 0.0026543492744020526 0.012234413777802565 0.9969242998379881 -0.029699732405477214 0.0004520115087975143 0.005697848176931775 -0.0003955649589348286 -0.0036513518457261425
 0.9969242998379881 -0.029699732405477214 0.0026559835891236056 0.01223424291766905 -0.00039583274877207417 -0.003651353969486366 0.0004423462083186028 0.0056989169642230764
 0.0004520115087975143 0.005697848176931775 -0.00039583274877207417 -0.003651353969486366 0.002654278019612183 0.01223516690459001 0.996924315439476 -0.029698981766114765
 -0.0003955649589348286 -0.0036513518457261425 0.0004423462083186028 0.0056989169642230764 0.996924315439476 -0.029698981766114765 0.0026560858993112347 0.012234991064604076
0.06252605252188 0.002861678190463847 0.01367164060571746 0.9966512515954349 -0.03305707999777938 0.0005250320945546122 0.006335069244763546 -0.0004573504938329359 -0.004062639769746695
 0.9966512515954349 -0.03305707999777938 0.0028636948927340975 0.013671437458869251 -0.000457680019598383 -0.004062639024249006 0.0005130946614766286 0.006336393771082892
 0.0005250320945546122 0.006335069244763546 -0.000457680019598383 -0.004062639024249006 0.002861590089723407 0.013672477115093605 0.9966512705334903 -0.03305624618298137
 -0.0004573504938329359 -0.004062639769746695 0.0005130946614766286 0.006336393771082892 0.9966512705334903 -0.03305624618298137 0.0028638206745015393 0.013672268563123138
0.06877865777407 0.0030799625349575118 0.015123022516708074 0.9963635185496214 -0.036426556929580446 0.0006038858812224303 0.006972949353030254 -0.0005239838587532238 -0.004474772187438108
 0.9963635185496214 -0.036426556929580446 0.0030824016742883355 0.015122784004363744 -0.0005243813430849425 -0.00447476773108838 0.0005894346695107387 0.006974566041258262
 0.0006038858812224303 0.006972949353030254 -0.0005243813430849425 -0.00447476773108838 0.0030798558365930295 0.015123942400967282 0.996363541144075 -0.03642563996496354
 -0.0005239838587532238 -0.004474772187438108 0.0005894346695107387 0.006974566041258262 0.996363541144075 -0.03642563996496354 0.0030825533091546897 0.015123698016485648
0.07503126302626001 0.0033094104000329434 0.016588361827480486 0.9960609001774673 -0.039808135501252354 0.0006886314811590008 0.007611426878374447 -0.000595524867342356 -0.004887681989141942
 0.9960609001774673 -0.039808135501252354 0.003312312013784539 0.016588084757104986 -0.0005959964898787018 -0.004887672919850161 0.0006714242656513345 0.007613374701000545
 0.0006886314811590008 0.007611426878374447 -0.0005959964898787018 -0.004887672919850161 0.0033092833605643315 0.016589365086428637 0.9960609267476466 -0.03980713541354482
 -0.000595524867342356 -0.004887681989141942 0.0006714242656513345 0.007613374701000545 0.9960609267476466 -0.03980713541354482 0.0033124918732135964 0.016589081616396183
0.08128386827845 0.003550229366496951 0.018067472095745597 0.995743195602403 -0.04320177064656875 0.0007793268562082644 0.008250437804702651 -0.000672032578465432 -0.005301301369734525
 0.995743195602403 -0.04320177064656875 0.003553633485026558 0.018067153160842057 -0.0006725844762065753 -0.005301286724842549 0.0007591208441453213 0.008252758314188488
 0.0007793268562082644 0.008250437804702651 -0.0006725844762065753 -0.005301286724842549 0.00355008025093444 0.018068558740025675 0.9957432264677721 -0.04320068746023943
 -0.000672032578465432 -0.005301301369734525 0.0007591208441453213 0.008252758314188488 0.9957432264677721 -0.04320068746023943 0.003553843931032895 0.01806823279851922
0.08753647353064001 0.0038026265230332915 0.01956017476699279 0.9954102037256122 -0.046607403235499896 0.0008760292688486074 0.008889915922629733 -0.0007535652699149918 -0.005715561625263621
 0.9954102037256122 -0.046607403235499896 0.003806573174326936 0.01955981054672912 -0.0007542035374256268 -0.005715540381501274 0.000852581114348235 0.008892653281740357
 0.0008760292688486074 0.008889915922629733 -0.0007542035374256268 -0.005715540381501274 0.0038024536043045165 0.019561344817871834 0.9954102392052989 -0.04660623697300274
 -0.0007535652699149918 -0.005715561625263621 0.000852581114348235 0.008892653281740357 0.9954102392052989 -0.04660623697300274 0.003806816559387719 0.019560972885516604
0.09378907878283 0.004066808465949899 0.021066296783373864 0.9950617233401498 -0.05002496241664926 0.000978795236534933 0.009529792966686173 -0.0008401804077962844 -0.006130393013537051
 0.9950617233401498 -0.05002496241664926 0.004071337680833342 0.021065883742109468 -0.0008409110973359297 -0.006130364086969931 0.0009518610582556737 0.009532993978707409
 0.000978795236534933 0.009529792966686173 -0.0008409110973359297 -0.006130364086969931 0.004066610025268726 0.021067550270543797 0.9950617637536638 -0.050023713100686734
 -0.0008401804077962844 -0.006130393013537051 0.0009518610582556737 0.009532993978707409 0.9950617637536638 -0.050023713100686734 0.004071616348269445 0.021067128693838953
0.100041684035 0.00434298128464113 0.022585668818031167 0.9946975532324461 -0.05345436733606696 0.001087680486885036 0.01016999871595422 -0.0009319346147393438 -0.006545724652979704
 0.9946975532324461 -0.05345436733606696 0.004348133101185075 0.022585203304727297 -0.0009327637362210277 -0.006545686898975916 0.0010570158877778802 0.010173712854771977
 0.001087680486885036 0.01016999871595422 -0.0009327637362210277 -0.006545686898975916 0.004342755610868206 0.0225870057797896 0.9946975988990928 -0.05345303498934034
 -0.0009319346147393438 -0.006545724652979704 0.0010570158877778802 0.010173712854771977 0.9946975988990928 -0.05345303498934034 0.004348449385245774 0.02258653077029015
0.1059090909091 0.004613228868946403 0.02402334035287317 0.9943413694187575 -0.056683194002071995 0.0011954720754633443 0.010770998665151627 -0.0010227598021499478 -0.006935860109355398
 0.9943413694187575 -0.056683194002071995 0.004619001356304935 0.024022822176063694 -0.0010236867197752349 -0.00693581297660729 0.0011610841555435422 0.010775241720253974
 0.0011954720754633443 0.010770998665151627 -0.0010236867197752349 -0.00693581297660729 0.004612976090415521 0.024024755691646096 0.9943414203055793 -0.05668178375803177
 -0.0010227598021499478 -0.006935860109355398 0.0011610841555435422 0.010775241720253974 0.9943414203055793 -0.05668178375803177 0.004619355054291689 0.02402422697456295
0.1062942892872 0.004631350536584695 0.0241181239524528 0.994317492275256 -0.05689552841484486 0.0012027399136834622 0.010810461073842282 -0.0010288836362713604 -0.006961484444125641
 0.994317492275256 -0.05689552841484486 0.00463716500529042 0.024117602199906857 -0.0010298171572285346 -0.0069614366573217895 0.001168100002922985 0.010814740513895625
 0.0012027399136834622 0.010810461073842282 -0.0010298171572285346 -0.0069614366573217895 0.004631095926251152 0.024119544439077933 0.9943175435145265 -0.05689411305676844
 -0.0010288836362713604 -0.006961484444125641 0.001168100002922985 0.010814740513895625 0.9943175435145265 -0.05689411305676844 0.004637521230995369 0.024119012072457327
0.11254689453939999 0.004932121214488494 0.02566349666497053 0.9939213395150124 -0.060348348317622175 0.0013240275338327605 0.011451106127010655 -0.0011310823056744008 -0.0073775990138871235
 0.9939213395150124 -0.060348348317622175 0.004938638402964057 0.025662914788922513 -0.0011321261511154836 -0.0073775399281662 0.001285166950436503 0.011456005772943518
 0.0013240275338327605 0.011451106127010655 -0.0011321261511154836 -0.0073775399281662 0.004931835971990657 0.02566500073343411 0.9939213966467109 -0.060346849969594205
 -0.0011310823056744008 -0.0073775990138871235 0.001285166950436503 0.011456005772943518 0.9939213966467109 -0.060346849969594205 0.00493903688666514 0.02566440694843007
0.11879949979160001 0.005245497707251029 0.02722162203253765 0.9935088942549073 -0.06381272270996041 0.001451596444155987 0.01209185819331663 -0.0012385845081867395 -0.007793993672524324
 0.9935088942549073 -0.06381272270996041 0.005252757705190145 0.027220976030698105 -0.0012397445603766933 -0.007793921961010095 0.0014082693822539535 0.012097435709514347
 0.001451596444155987 0.01209185819331663 -0.0012397445603766933 -0.007793921961010095 0.005245180144322387 0.027223209750526976 0.9935089575988791 -0.06381114139136532
 -0.0012385845081867395 -0.007793993672524324 0.0014082693822539535 0.012097435709514347 0.9935089575988791 -0.06381114139136532 0.005253200754412743 0.02722255034760339
0.1250521050438 0.0055716837563227544 0.028792335104664807 0.9930799561344474 -0.06728854084553364 0.0015854987789246412 0.012732639862025509 -0.0013514431437603141 -0.008210592380490926
 0.9930799561344474 -0.06728854084553364 0.005579726680302475 0.028791620855491324 -0.0013527252419955978 -0.00821050665553845 0.0015374590144851018 0.012738955701822274
 0.0015854987789246412 0.012732639862025509 -0.0013527252419955978 -0.00821050665553845 0.005571332191879053 0.02879400654913125 0.9930800260106019 -0.06728687657529588
 -0.0013514431437603141 -0.008210592380490926 0.0015374590144851018 0.012738955701822274 0.9930800260106019 -0.06728687657529588 0.005580216593733334 0.028793277189144297
0.131304710296 0.005910882407120693 0.03037547039848558 0.9926343252072042 -0.07077568603471592 0.0017257856671223724 0.013373372026503369 -0.0014697100894180974 -0.008627317724676191
 0.9926343252072042 -0.07077568603471592 0.00591974840559516 0.030374683659894906 -0.0014711200297363959 -0.008627216537883944 0.0016727865860509943 0.013380489461099973
 0.0017257856671223724 0.013373372026503369 -0.0014711200297363959 -0.008627216537883944 0.005910495167482148 0.03037722565647818 0.9926344019358863 -0.07077393883035431
 -0.0014697100894180974 -0.008627317724676191 0.0016727865860509943 0.013380489461099973 0.9926344019358863 -0.07077393883035431 0.005920287473532514 0.03037642185911885
0.1375573155481 0.0061786348748044135 0.031764668251956965 0.9922564845218826 -0.07406779068367983 0.0018531274528857194 0.013992946571667652 -0.0015741169155095575 -0.009023028438040278
 0.9922564845218826 -0.07406779068367983 0.006188366340775087 0.031763824197709616 -0.0015756629476356692 -0.009022911885160176 0.0017950421952405294 0.014000847207113863
 0.0018531274528857194 0.013992946571667652 -0.0015756629476356692 -0.009022911885160176 0.006178209369456698 0.03176650803704423 0.9922565684109979 -0.07406596058679908
 -0.0015741169155095575 -0.009023028438040278 0.0017950421952405294 0.014000847207113863 0.9922565684109979 -0.07406596058679908 0.006188957796345115 0.031765643529578946
0.1438099208003 0.0064555667153164695 0.03314767401355762 0.9918657944478108 -0.07735267569053823 0.0019856148238602505 0.01461060990981631 -0.0016827056835496599 -0.009417004478219186
 0.9918657944478108 -0.07735267569053823 0.00646620416691928 0.033146769785983514 -0.0016843939838054138 -0.009416871162785776 0.0019222179221143568 0.014619350850726283
 0.0019856148238602505 0.01461060990981631 -0.0016843939838054138 -0.009416871162785776 0.006455101114982529 0.03314959848807253 0.9918658858151201 -0.07735076272417561
 -0.0016827056835496599 -0.009417004478219186 0.0019222179221143568 0.014619350850726283 0.9918658858151201 -0.07735076272417561 0.006466850459602018 0.033148670034503315
0.1500625260525 0.006741594112462073 0.034524405356172 0.9914623416971415 -0.08063029309858932 0.0021232101562616377 0.015226319026104664 -0.0017954402010598568 -0.009809205127038216
 0.9914623416971415 -0.08063029309858932 0.006753178110037437 0.03452343795062662 -0.0017972769341499945 -0.009809053597178473 0.0020542771682973233 0.015235959448495002
 0.0021232101562616377 0.015226319026104664 -0.0017972769341499945 -0.009809053597178473 0.006741086584143619 0.034526414691555866 0.9914624408603137 -0.08062829728637619
 -0.0017954402010598568 -0.009809205127038216 0.0020542771682973233 0.015235959448495002 0.9914624408603137 -0.08062829728637619 0.006753881692423076 0.03452541888980373
0.15631513130469998 0.007036632816793044 0.03589478263392821 0.9910462132428627 -0.08390059449580736 0.0022658754763531666 0.015840031499643144 -0.0019122839170823392 -0.010199590434445469
