! Created with skrf 1.8.0 (http://scikit-rf.org).
# GHz S RI R 50.0 
!freq ReS11 ImS11 ReS12 ImS12 ReS13 ImS13
! ReS14 ImS14
! ReS21 ImS21 ReS22 ImS22 ReS23 ImS23
! ReS24 ImS24
! ReS31 ImS31 ReS32 ImS32 ReS33 ImS33
! ReS34 ImS34
! ReS41 ImS41 ReS42 ImS42 ReS43 ImS43
! ReS44 ImS44
!
0.0 0.001796525449634 0.0 0.9982034745443 0.0 6.961593887935e-05 0.0 -6.961593858982e-05 8.525493636366177e-21
 0.9982034745443 0.0 0.001796525449641 0.0 -6.961593859048e-05 8.525493636447003e-21 6.961593887825e-05 0.0
 6.961593887935e-05 0.0 -6.961593859048e-05 8.525493636447003e-21 0.001796525449205 0.0 0.9982034745439 0.0
 -6.961593858982e-05 8.525493636366177e-21 6.961593887825e-05 0.0 0.9982034745439 0.0 0.001796525449181 0.0
0.005 0.0019337528587344839 0.0014707853633805115 0.9980297534030887 -0.0037622622803279143 9.762080704444926e-05 0.000755685315057448 -9.491407566052768e-05 -0.0004761396677570462
 0.9980297534030887 -0.0037622622803279143 0.0019337251658589248 0.0014708015914280247 -9.491576932022944e-05 -0.00047614101506280617 9.77815342282207e-05 0.0007556239747891181
 9.762080704444926e-05 0.000755685315057448 -9.491576932022944e-05 -0.00047614101506280617 0.0019337521169117276 0.0014708531341469622 0.9980297537810204 -0.0037621952103326106
 -9.491407566052768e-05 -0.0004761396677570462 9.77815342282207e-05 0.0007556239747891181 0.9980297537810204 -0.0037621952103326106 0.0019337266577131196 0.0014708679566906298
0.006252605252188 0.0019700007197099036 0.001844223199142833 0.9979835458978655 -0.004703706378230494 0.00010572434413009973 0.0009449640200765881 -0.00010216733414128617 -0.0005957723720275065
 0.9979835458978655 -0.004703706378230494 0.0019699574303027947 0.0018442438220890292 -0.00010216996921353367 -0.0005957740336857876 0.00010597546146414831 0.0009448843247171767
 0.00010572434413009973 0.0009449640200765881 -0.00010216996921353367 -0.0005957740336857876 0.001969999486945352 0.001844307898764589 0.9979835464160213 -0.0047036225589933995
 -0.00010216733414128617 -0.0005957723720275065 0.00010597546146414831 0.0009448843247171767 0.9979835464160213 -0.0047036225589933995 0.0019699596902125194 0.0018443267518064904
0.01250521050438 0.0021623137241146106 0.0037266272261950264 0.9977366420795084 -0.009407904435643565 0.00015274050760448978 0.0018902266376984794 -0.00014391474729214887 -0.0011942554578237149
 0.9977366420795084 -0.009407904435643565 0.0021621408630090435 0.0037266719134411205 -0.00014392512694351024 -0.0011942585321512735 0.00015374181894317393 0.0018900343174135348
 0.00015274050760448978 0.0018902266376984794 -0.00014392512694351024 -0.0011942585321512735 0.002162308235752967 0.003726796424302922 0.9977366435921985 -0.009407737040817737
 -0.00014391474729214887 -0.0011942554578237149 0.00015374181894317393 0.0018900343174135348 0.9977366435921985 -0.009407737040817737 0.002162149335737516 0.0037268374168426517
0.01875781575657 0.002373936062767388 0.005635328362592096 0.9974624193425042 -0.01412397862686643 0.000210783401562495 0.0028363708623107614 -0.00019499676074172893 -0.0017945644489728012
 0.9974624193425042 -0.01412397862686643 0.0023735476216191318 0.0056354008866187025 -0.00019501990031211872 -0.0017945686333630058 0.0002130325231645618 0.002836025747034783
 0.000210783401562495 0.0028363708623107614 -0.00019501990031211872 -0.0017945686333630058 0.002373923290155403 0.005635582028163162 0.9974624223215569 -0.014123727732501134
 -0.00019499676074172893 -0.0017945644489728012 0.0002130325231645618 0.002836025747034783 0.9974624223215569 -0.014123727732501134 0.0023735662491133256 0.005635648702149463
0.02501042100875 0.0026053222179324097 0.007567592522408176 0.997160519030203 -0.018854147244170096 0.0002799722431812105 0.003783394331742147 -0.00025554637398475695 -0.0023963909101035823
 0.997160519030203 -0.018854147244170096 0.0026046323491462284 0.0075676969580859635 -0.00025558722589659336 -0.0023963958432374377 0.00028396680464054487 0.0037828492251840515
 0.0002799722431812105 0.003783394331742147 -0.00025558722589659336 -0.0023963958432374377 0.0026052991263095706 0.007567930660478449 0.9971605239481898 -0.018853812891065313
 -0.00025554637398475695 -0.0023963909101035823 0.00028396680464054487 0.0037828492251840515 0.9971605239481898 -0.018853812891065313 0.0026046650700689887 0.0075680267876435045
0.03126302626094 0.0028569077668675813 0.009521978725566049 0.9968305662524799 -0.023599318922917067 0.0003604256915432888 0.004731207914255667 -0.00032569205337022294 -0.002999504364127094
 0.9968305662524799 -0.023599318922917067 0.0028558307340868913 0.009522119445713097 -0.00032575551756340836 -0.0029995096254592755 0.00036666377151834176 0.004730408552872398
 0.0003604256915432888 0.004731207914255667 -0.00032575551756340836 -0.0029995096254592755 0.0028568713142831693 0.009522401376040768 0.9968305735829394 -0.02359890111786759
 -0.00032569205337022294 -0.002999504364127094 0.00036666377151834176 0.004730408552872398 0.9968305735829394 -0.02359890111786759 0.002855881484802496 0.009522530952785048
0.037515631513130004 0.003129118155821528 0.011497521709865142 0.9964721790731 -0.028359909972886305 0.00045226082263305354 0.0056796875178968505 -0.0004055586093702561 -0.0036037005387485554
 0.9964721790731 -0.028359909972886305 0.003127568300193999 0.011497703383892775 -0.0004056495385261349 -0.003603705648399373 0.0004612411281742248 0.005678572503202501
 0.00045226082263305354 0.0056796875178968505 -0.0004056495385261349 -0.003603705648399373 0.0031290652935857064 0.011498028924587246 0.9964721892929821 -0.028359408711854366
 -0.0004055586093702561 -0.0036037005387485554 0.0004612411281742248 0.005678572503202501 0.9964721892929821 -0.028359408711854366 0.0031276410164404636 0.011498196169776547
0.043768236765320004 0.0034223720773384416 0.013493483165889917 0.9960849722962809 -0.033136093076110824 0.0005555926148028825 0.006628689867547284 -0.0004952674870418379 -0.004208785635756649
 0.9960849722962809 -0.033136093076110824 0.0034202637902854913 0.013493710759880295 -0.0004953906897801917 -0.004208790054530367 0.0005678145503421426 0.006627190590421845
 0.0005555926148028825 0.006628689867547284 -0.0004953906897801917 -0.004208790054530367 0.0034222997486719276 0.013494075025032467 0.9960849858851923 -0.03313550832799282
 -0.0004952674870418379 -0.004208785635756649 0.0005678145503421426 0.006627190590421845 0.9960849858851923 -0.03313550832799282 0.0034203624051478707 0.013494284379193486
0.050020842017509996 0.0037370830089036417 0.015509248947116642 0.9956685594181787 -0.037927900009554955 0.0006705336181218553 0.00757805902259045 -0.0005949368442181532 -0.004814569861997381
 0.9956685594181787 -0.037927900009554955 0.003734330707677692 0.015509527724926178 -0.0005950970869342448 -0.004814572991436708 0.0006864972955903112 0.007576099584571413
 0.0006705336181218553 0.00757805902259045 -0.0005950970869342448 -0.004814572991436708 0.003736988146997319 0.015509925540650569 0.9956685768578526 -0.03792723173514479
 -0.0005949368442181532 -0.004814569861997381 0.0006864972955903112 0.007576099584571413 0.9956685768578526 -0.03792723173514479 0.003734459150414844 0.015510181665953325
0.055454545454549996 0.004028319836597756 0.017276673005342094 0.9952826647947569 -0.0421047699838487 0.0007799343341088967 0.008403259228912106 -0.0006897309493812692 -0.00534143575232182
 0.9952826647947569 -0.0421047699838487 0.004024938367629014 0.017277000771106023 -0.0006899272201593661 -0.005341437229309706 0.0007995563814035823 0.008400832537030577
 0.0007799343341088967 0.008403259228912106 -0.0006899272201593661 -0.005341437229309706 0.004028202896049168 0.01727742332115186 0.9952826859759497 -0.042104029079856185
 -0.0006897309493812692 -0.00534143575232182 0.0007995563814035823 0.008400832537030577 0.9952826859759497 -0.042104029079856185 0.004025095920227955 0.017277724051077026
0.056273447269699996 0.004073659976390266 0.017544278618349524 0.9952225538082548 -0.042735272034427355 0.0007971937032124496 0.008527629596445483 -0.0007046815358375334 -0.005420864264329831
 0.9952225538082548 -0.042735272034427355 0.0040701780821359055 0.017544614143632512 -0.0007048835441163165 -0.005420865446803276 0.0008173999164800881 0.008525126729999093
 0.0007971937032124496 0.008527629596445483 -0.0007048835441163165 -0.005420865446803276 0.004073539506609254 0.01754504005464664 0.9952225755853178 -0.042734520178177006
 -0.0007046815358375334 -0.005420864264329831 0.0008173999164800881 0.008525126729999093 0.9952225755853178 -0.042734520178177006 0.004070340278864586 0.0175453478358458
0.06252605252188 0.004432507938992828 0.019598077736190732 0.9947465695164556 -0.04755808756085676 0.0009356798492561577 0.00947722854025904 -0.0008246130510540691 -0.006027479007901959
 0.9947465695164556 -0.04755808756085676 0.004428210855374484 0.019598475875189262 -0.0008248615104344851 -0.006027477526679226 0.0009606300249199965 0.009474091529064841
 0.0009356798492561577 0.00947722854025904 -0.0008248615104344851 -0.006027477526679226 0.0044323587769513765 0.019598924137707422 0.9947465961213705 -0.04755725205548491
 -0.0008246130510540691 -0.006027479007901959 0.0009606300249199965 0.009474091529064841 0.9947465961213705 -0.04755725205548491 0.0044284107271587245 0.01959928868391897
0.06877865777407 0.004814027960615895 0.021670181311357395 0.9942402218727538 -0.05239617863932991 0.0010860959557172983 0.010426676216300173 -0.0009548394215407748 -0.006634222373087563
 0.9942402218727538 -0.05239617863932991 0.004808830052761698 0.021670648236523544 -0.0009551389780927608 -0.006634217452439731 0.001116292086172055 0.01042280681612147
 0.0010860959557172983 0.010426676216300173 -0.0009551389780927608 -0.006634217452439731 0.004813847012512135 0.021671112820873563 0.9942402538008891 -0.052395259400125335
 -0.0009548394215407748 -0.006634222373087563 0.001116292086172055 0.01042280681612147 0.9942402538008891 -0.052395259400125335 0.004809071515074953 0.021671539468059588
0.07503126302626001 0.005218617258484231 0.023760143356739344 0.9937031279688965 -0.05724934137637209 0.0012485426656131937 0.011375787097419305 -0.0010954651139328361 -0.007240900135362643
 0.9937031279688965 -0.05724934137637209 0.005212432832665453 0.023760685551188952 -0.0010958203745806048 -0.007240890940654375 0.0012844872297906962 0.01137107945794483
 0.0012485426656131937 0.011375787097419305 -0.0010958203745806048 -0.007240890940654375 0.005218401421301884 0.023761160129950713 0.9937031657216574 -0.05724833830899303
 -0.0010954651139328361 -0.007240900135362643 0.0012844872297906962 0.01137107945794483 0.9937031657216574 -0.05724833830899303 0.005212719794888732 0.02376165444435548
0.08128386827845 0.005646669172372327 0.02586752991884657 0.9931349070666 -0.06211734287728003 0.001423117197990974 0.012324370251187895 -0.0012465909107462977 -0.007847315169848748
 0.9931349070666 -0.06211734287728003 0.005639412456041567 0.02586815418169785 -0.0012470064434394789 -0.00784730080765415 0.0014653130716751619 0.012318710839133912
 0.001423117197990974 0.012324370251187895 -0.0012470064434394789 -0.00784730080765415 0.005646415333172766 0.025868632130821554 0.9931349511511257 -0.06211625587179459
 -0.0012465909107462977 -0.007847315169848748 0.0014653130716751619 0.012318710839133912 0.9931349511511257 -0.06211625587179459 0.0056397488198522035 0.02586919991312689
0.08753647353064001 0.006098573081520064 0.027991914289755008 0.9925351809571288 -0.0669999260196276 0.0016099131854825448 0.013272229687954964 -0.0014083137841947532 -0.008453267201720176
 0.9925351809571288 -0.0669999260196276 0.006090158203385169 0.027992627742167965 -0.001408794118053159 -0.008453246719914796 0.0016588635430917751 0.013265497211688373
 0.0016099131854825448 0.013272229687954964 -0.001408794118053159 -0.008453246719914796 0.006098278117758571 0.027993102130366723 0.9925352318874939 -0.06699875495559171
 -0.0014083137841947532 -0.008453267201720176 0.0016588635430917751 0.013265497211688373 0.9925352318874939 -0.06699875495559171 0.006090547861508087 0.02799374942084949
0.09378907878283 0.00657471428561541 0.030132873577568133 0.9919035742900085 -0.07189681287966605 0.0018090205156027614 0.01421916463075217 -0.0015807267648868585 -0.009058552644741754
 0.9919035742900085 -0.07189681287966605 0.006565055255546326 0.030133683669753327 -0.0015812763900961342 -0.009058525032626951 0.0018652287250477003 0.01421122996651511
 0.0018090205156027614 0.01421916463075217 -0.0015812763900961342 -0.009058525032626951 0.006574375064706594 0.03013414725414059 0.9919036325874214 -0.07189555762400462
 -0.0015807267648868585 -0.009058552644741754 0.0018652287250477003 0.01421122996651511 0.9919036325874214 -0.07189555762400462 0.006565502090803136 0.030134880338530137
0.100041684035 0.007075473859178262 0.03228998621640577 0.9912397148793833 -0.07680770723139929 0.0020205251749317124 0.015164969732801122 -0.0017639188069049736 -0.00966296450246211
 0.9912397148793833 -0.07680770723139929 0.007064484547958076 0.03229090073561379 -0.001764542174583118 -0.009662928690894032 0.002084494686203704 0.015155695852844878
 0.0020205251749317124 0.015164969732801122 -0.001764542174583118 -0.009662928690894032 0.0070750872385765716 0.0322913459556249 0.9912397810729748 -0.076806367637102
 -0.0017639188069049736 -0.00966296450246211 0.002084494686203704 0.015155695852844878 0.9912397810729748 -0.076806367637102 0.007064992432371453 0.03229217137203375
0.1059090909091 0.007568109350829835 0.034328522938713815 0.9905870912107212 -0.08142852208532178 0.0022303481378212033 0.01605129315268101 -0.0019457040885388327 -0.01022915898160839
 0.9905870912107212 -0.08142852208532178 0.007555793237303403 0.03432954284190403 -0.0019464006690615425 -0.010229114451377523 0.002302058660436783 0.01604063083331529
 0.0022303481378212033 0.01605129315268101 -0.0019464006690615425 -0.010229114451377523 0.007567675383721059 0.03432996366015578 0.9905871653031463 -0.08142710320443104
 -0.0019457040885388327 -0.01022915898160839 0.002302058660436783 0.01604063083331529 0.9905871653031463 -0.08142710320443104 0.0075563619205332114 0.03433088189834889
0.1062942892872 0.007601228486777845 0.03446283010137363 0.9905432339949262 -0.08173229643304498 0.0022445090955377917 0.016109435256282747 -0.0019579746501697565 -0.010266292318579137
 0.9905432339949262 -0.08173229643304498 0.00758882260663179 0.03446385718063465 -0.0019586761722738106 -0.01026624718008605 0.0023167433238900953 0.016098677158938826
 0.0022445090955377917 0.016109435256282747 -0.0019586761722738106 -0.01026624718008605 0.007600791314123185 0.03446427614772086 0.9905433086226915 -0.08173087234132059
 -0.0019579746501697565 -0.010266292318579137 0.0023167433238900953 0.016098677158938826 0.9905433086226915 -0.08173087234132059 0.007589395400023694 0.03446520069442777
0.11254689453939999 0.008152350284459741 0.03665098117387405 0.9898137666424907 -0.08667025287600663 0.002481050002824362 0.017052347235122074 -0.002162974681754229 -0.010868322153981117
 0.9898137666424907 -0.08667025287600663 0.008138441368753182 0.03665212930178716 -0.002163758730781457 -0.010868266502902959 0.0025620522070537006 0.017039951876992917
 0.002481050002824362 0.017052347235122074 -0.002163758730781457 -0.010868266502902959 0.008151859396717908 0.036652513788919566 0.9898138502509437 -0.08666874411765163
 -0.002162974681754229 -0.010868322153981117 0.0025620522070537006 0.017039951876992917 0.9898138502509437 -0.08666874411765163 0.008139082917129802 0.036653544533124555
0.11879949979160001 0.008729206608551697 0.03885401233226962 0.9890509518351818 -0.09162123512142997 0.002730221265741813 0.01799348761618702 -0.002378994795330496 -0.01146883659604169
 0.9890509518351818 -0.09162123512142997 0.008713707991991232 0.03885529036374243 -0.002379865704108085 -0.011468769188670864 0.002820494421750452 0.017979293846626557
 0.002730221265741813 0.01799348761618702 -0.002379865704108085 -0.011468769188670864 0.008728658833043579 0.0388556317988088 0.9890510449809368 -0.09161964151331711
 -0.002378994795330496 -0.01146883659604169 0.002820494421750452 0.017979293846626557 0.9890510449809368 -0.09161964151331711 0.008714422126675662 0.03885677608644397
0.1250521050438 0.009332159856581082 0.04107149258565191 0.9882544328592462 -0.09658488880715174 0.0029920917475974185 0.018932634395744434 -0.0026061062508760165 -0.012067614783697491
 0.9882544328592462 -0.09658488880715174 0.009314984655433246 0.041072909753610984 -0.002607068312194698 -0.012067534318465514 0.0030921384182149773 0.018916472893585102
 0.0029920917475974185 0.018932634395744434 -0.002607068312194698 -0.012067534318465514 0.009331552009961925 0.041073199205807445 0.9882545361090863 -0.09658321015485863
 -0.0026061062508760165 -0.012067614783697491 0.0030921384182149773 0.018916472893585102 0.9882545361090863 -0.09658321015485863 0.009315775191598671 0.041074464672181364
0.131304710296 0.00996156726106464 0.04330298639227077 0.9874238575351683 -0.10156084738354573 0.003266725659342101 0.01986956174922358 -0.0028443755337653406 -0.01266443245019668
 0.9874238575351683 -0.10156084738354573 0.009942628353278611 0.04330455232034215 -0.0028454330001483384 -0.012664337567777805 0.003377047859846801 0.019851254962126728
 0.003266725659342101 0.01986956174922358 -0.0028454330001483384 -0.012664337567777805 0.009960896150145886 0.04330478048734588 0.9874239714669377 -0.10155908348222391
 -0.0028443755337653406 -0.01266443245019668 0.003377047859846801 0.019851254962126728 0.9874239714669377 -0.10155908348222391 0.00994349908863543 0.04330617506898424
0.1375573155481 0.010482355050787257 0.04525852853767711 0.9866943779569395 -0.10625900749701062 0.0035213709897354327 0.020776267076813848 -0.003060934248460334 -0.013231411068045713
 0.9866943779569395 -0.10625900749701062 0.01046155975818126 0.04526022196140639 -0.003062093607405942 -0.013231301503622854 0.00364222303955344 0.020755825148937875
 0.0035213709897354327 0.020776267076813848 -0.003062093607405942 -0.013231301503622854 0.010481618447678046 0.04526041020876529 0.9866945030640565 -0.1062571582551785
 -0.003060934248460334 -0.013231411068045713 0.00364222303955344 0.020755825148937875 0.9866945030640565 -0.1062571582551785 0.010462513676015224 0.04526191159363486
0.1438099208003 0.011021733753226761 0.047202149092171374 0.985938730014456 -0.11094360305801558 0.00378622136780244 0.021678365743326055 -0.0032860762161968132 -0.013794068033226742
 0.985938730014456 -0.11094360305801558 0.010998993839464991 0.04720397795690201 -0.0032873420640101786 -0.013793942428976613 0.003918059875652075 0.021655624641182005
 0.00378622136780244 0.021678365743326055 -0.0032873420640101786 -0.013793942428976613 0.011020928624258276 0.04720411863460567 0.9859388668721398 -0.11094166828356102
 -0.0032860762161968132 -0.013794068033226742 0.003918059875652075 0.021655624641182005 0.9859388668721398 -0.11094166828356102 0.011000034567562598 0.04720573310191462
0.1500625260525 0.01157948830231461 0.04913363696411609 0.9851571339597385 -0.11561446805595868 0.004061168180127418 0.022575736359343422 -0.003519693834500503 -0.014352286530268673
 0.9851571339597385 -0.11561446805595868 0.011554715287639749 0.04913560968892636 -0.0035210707554103235 -0.014352143473282187 0.0042044463941970246 0.022550526059989227
 0.004061168180127418 0.022575736359343422 -0.0035210707554103235 -0.014352143473282187 0.011578611615308917 0.04913569468885843 0.985157283152364 -0.11561244754706677
 -0.003519693834500503 -0.014352286530268673 0.0042044463941970246 0.022550526059989227 0.985157283152364 -0.11561244754706677 0.011555846428112217 0.049137428926331925
0.15631513130469998 0.012155401800377363 0.05105278734804097 0.9843498115036093 -0.12027143819500286 0.004346101362432034 0.023468260013844115 -0.003761678015060912 -0.01490595253960505
 0.9843498115036093 -0.12027143819500286 0.012128506955562075 0.051054912838196694 -0.0037631705810846432 -0.014905790562037688 0.004501269110038194 0.02344040457787859
