! Created with skrf 1.8.0 (http://scikit-rf.org).
# GHz S RI R 50.0 
!freq ReS11 ImS11 ReS12 ImS12 ReS13 ImS13
! ReS14 ImS14
! ReS21 ImS21 ReS22 ImS22 ReS23 ImS23
! ReS24 ImS24
! ReS31 ImS31 ReS32 ImS32 ReS33 ImS33
! ReS34 ImS34
! ReS41 ImS41 ReS42 ImS42 ReS43 ImS43
! ReS44 ImS44
!
0.0 0.001357560526856 0.0 0.9986424394726 0.0 5.208953461907e-05 0.0 -5.208953468615e-05 6.379128192246863e-21
 0.9986424394726 0.0 0.001357560526844 0.0 -5.208953468588e-05 6.379128192213797e-21 5.208953461981e-05 0.0
 5.208953461907e-05 0.0 -5.208953468588e-05 6.379128192213797e-21 0.001357560526585 0.0 0.9986424394724 0.0
 -5.208953468615e-05 6.379128192246863e-21 5.208953461981e-05 0.0 0.9986424394724 0.0 0.001357560526583 0.0
0.005 0.0014601532253599584 0.0011102167005023957 0.9985127260176713 -0.002844382773480294 7.2796432342904e-05 0.0005782264753038327 -7.072855995065127e-05 -0.0003622783971856258
 0.9985127260176713 -0.002844382773480294 0.0014601536313598306 0.0011102165142168904 -7.072871704921745e-05 -0.00036227857272905564 7.277314862767595e-05 0.0005782350213448237
 7.2796432342904e-05 0.0005782264753038327 -7.072871704921745e-05 -0.00036227857272905564 0.001460153206390109 0.001110284019546167 0.9985127263580112 -0.002844315708842441
 -7.072855995065127e-05 -0.0003622783971856258 7.277314862767595e-05 0.0005782350213448237 0.9985127263580112 -0.002844315708842441 0.0014601543315242408 0.00111028332677694
0.006252605252188 0.00148691962403318 0.0013921613378907957 0.9984786938192255 -0.0035561965008263164 7.863013267554055e-05 0.0007230703930641112 -7.592547446982583e-05 -0.0004533256207426675
 0.9984786938192255 -0.0035561965008263164 0.0014869202590001955 0.0013921611845556742 -7.592571849770349e-05 -0.00045332583837899516 7.859374987091835e-05 0.0007230815346791294
 7.863013267554055e-05 0.0007230703930641112 -7.592571849770349e-05 -0.00045332583837899516 0.0014869195287281298 0.00139224547770656 0.9984786942859418 -0.0035561126852591027
 -7.592547446982583e-05 -0.0004533256207426675 7.859374987091835e-05 0.0007230815346791294 0.9984786942859418 -0.0035561126852591027 0.0014869212886211602 0.001392244680588864
0.01250521050438 0.0016270053626111522 0.0028137211837880936 0.9982995164944066 -0.007113335678119109 0.00011165131630536095 0.0014465398051505558 -0.0001050601044027327 -0.0009089430940523542
 0.9982995164944066 -0.007113335678119109 0.0016270078969829536 0.0028137216995654394 -0.00010506106079962365 -0.0009089435104161 0.00011150610665743165 0.0014465669662820618
 0.00011165131630536095 0.0014465398051505558 -0.00010506106079962365 -0.0009089435104161 0.001627004384427475 0.002813889288506593 0.9982995177665828 -0.007113168293917923
 -0.0001050601044027327 -0.0009089430940523542 0.00011150610665743165 0.0014465669662820618 0.9982995177665828 -0.007113168293917923 0.0016270114242773167 0.002813888402391883
0.01875781575657 0.0017780945592221645 0.0042557683272210255 0.9981047055178853 -0.010680105751382365 0.0001512251451305431 0.002170916188176073 -0.0001395769606760929 -0.0013662091064293909
 0.9981047055178853 -0.010680105751382365 0.0017781002481383557 0.004255770411174122 -0.00013957908616041032 -0.0013662097011465425 0.00015089865744515797 0.002170965050174972
 0.0001512251451305431 0.002170916188176073 -0.00013957908616041032 -0.0013662097011465425 0.0017780919241148778 0.004256020381721842 0.9981047079515181 -0.010679854911961646
 -0.0001395769606760929 -0.0013662091064293909 0.00015089865744515797 0.002170965050174972 0.9981047079515181 -0.010679854911961646 0.0017781077637114649 0.0042560201678843
0.02501042100875 0.001940457407664565 0.005716313663373758 0.9978940517855993 -0.0142582654958568 0.00019742472953846485 0.002896250257861937 -0.00017955734337426105 -0.0018249335741476799
 0.9978940517855993 -0.0142582654958568 0.0019404675037752667 0.005716318297343644 -0.00017956108687025815 -0.001824934324759217 0.00019684431022150625 0.002896327290555936
 0.00019742472953846485 0.002896250257861937 -0.00017956108687025815 -0.001824934324759217 0.0019404523347400526 0.0057166497063011155 0.9978940557341576 -0.014257931286759127
 -0.00017955734337426105 -0.0018249335741476799 0.00019684431022150625 0.002896327290555936 0.9978940557341576 -0.014257931286759127 0.0019404805022323643 0.005716650985865229
0.03126302626094 0.002114352784202428 0.007194348636747271 0.997667334523984 -0.01784858576791241 0.0002503238293113154 0.0036225261260684517 -0.00022508055514255024 -0.002284989001795144
 0.997667334523984 -0.01784858576791241 0.002114368541617939 0.007194356888011041 -0.00022508635910148088 -0.002284989883705299 0.0002494165605878774 0.003622638596779943
 0.0002503238293113154 0.0036225261260684517 -0.00022508635910148088 -0.002284989883705299 0.002114344481401521 0.007194768748887262 0.9976673403338088 -0.017848168258415172
 -0.00022508055514255024 -0.002284989001795144 0.0002494165605878774 0.003622638596779943 0.9976673403338088 -0.017848168258415172 0.002114388517830325 0.007194772405338226
0.037515631513130004 0.0023000341351738533 0.008689227078768218 0.9974243273163266 -0.021451467613436626 0.0003099961540922983 0.004349701888472618 -0.0002762244887994918 -0.002746269886590271
 0.9974243273163266 -0.021451467613436626 0.0023000568131301452 0.008689240101778595 -0.00027623278995652593 -0.0027462708730908985 0.0003086888249793614 0.004349857873146406
 0.0003099961540922983 0.004349701888472618 -0.00027623278995652593 -0.0027462708730908985 0.0023000218057863705 0.008689731371512865 0.9974243353331227 -0.021450966868234486
 -0.0002762244887994918 -0.002746269886590271 0.0003086888249793614 0.004349857873146406 0.9974243353331227 -0.021450966868234486 0.0023000852684596953 0.008689738352065313
0.043768236765320004 0.002497751758613906 0.010200477090072392 0.9971648005239158 -0.025067130324218218 0.0003765150407815093 0.005077721963857498 -0.0003330658461710753 -0.0032086803699437182
 0.9971648005239158 -0.025067130324218218 0.002497782625078741 0.010200496128131589 -0.0003330770760229547 -0.0032086814322490878 0.0003747341321367031 0.005077930359071557
 0.0003765150407815093 0.005077721963857498 -0.0003330770760229547 -0.0032086814322490878 0.0024977346022613377 0.01020106569410337 0.9971648110931977 -0.025066546414773842
 -0.0003330658461710753 -0.0032086803699437182 0.0003747341321367031 0.005077930359071557 0.9971648110931977 -0.025066546414773842 0.002497821068157518 0.010201077010991615
0.050020842017509996 0.002707753872375117 0.011727723276427949 0.9968885224956616 -0.02869568913867078 0.00044995326432742546 0.005806522182799454 -0.0003956802254056216 -0.0036721291403603524
 0.9968885224956616 -0.02869568913867078 0.002707794207003981 0.011727749663074098 -0.00039569481048993356 -0.003672130247642892 0.0004476249414435525 0.005806792718021292
 0.00044995326432742546 0.005806522182799454 -0.00039569481048993356 -0.003672130247642892 0.0027077310831064272 0.011728396355374912 0.9968885359603858 -0.028695022129721807
 -0.0003956802254056216 -0.0036721291403603524 0.0004476249414435525 0.005806792718021292 0.9968885359603858 -0.028695022129721807 0.002707844151966884 0.011728413086862
0.055454545454549996 0.0029004202079999522 0.01306769007172511 0.9966346435582062 -0.03185952940887875 0.0005194486559666086 0.0064404507871633175 -0.00045484032285913475 -0.004075654025965881
 0.9966346435582062 -0.03185952940887875 0.002900469821996701 0.013067723998519585 -0.0004548581665717064 -0.004075655145741923 0.0005165844030394857 0.00644078388169253
 0.0005194486559666086 0.0064404507871633175 -0.0004548581665717064 -0.004075655145741923 0.0029003918662458108 0.013068436708192466 0.9966346598167466 -0.031858790243608645
 -0.00045484032285913475 -0.004075654025965881 0.0005165844030394857 0.00644078388169253 0.9966346598167466 -0.031858790243608645 0.002900530997003773 0.013068459072777499
0.056273447269699996 0.002930287169383244 0.013270648599923095 0.9965952602673487 -0.03233719332730044 0.0005303829080475572 0.006536032286147698 -0.00046414214900618214 -0.004136526927876736
 0.9965952602673487 -0.03233719332730044 0.0029303382673436717 0.013270683760168338 -0.0004641605112645656 -0.004136528047303987 0.0005274330172084992 0.006536375536205715
 0.0005303829080475572 0.006536032286147698 -0.0004641605112645656 -0.004136528047303987 0.0029302579375096575 0.013271406336095201 0.9965952769691725 -0.03233644329123745
 -0.00046414214900618214 -0.004136526927876736 0.0005274330172084992 0.006536375536205715 0.9965952769691725 -0.03233644329123745 0.0029304012345097146 0.013271429627382064
0.06252605252188 0.0031655971250510013 0.01482897339217962 0.9962847800159302 -0.03599164711721363 0.0006178752615208953 0.007266177298805994 -0.0005385250631867738 -0.004601785125047857
 0.9962847800159302 -0.03599164711721363 0.0031656603000223436 0.014829018843744454 -0.0005385476200701916 -0.00460178622182202 0.0006142293302424533 0.007266604696430561
 0.0006178752615208953 0.007266177298805994 -0.0005385476200701916 -0.00460178622182202 0.003165560637074092 0.014829815993869826 0.9962848002950814 -0.03599081412681814
 -0.0005385250631867738 -0.004601785125047857 0.0006142293302424533 0.007266604696430561 0.9962848002950814 -0.03599081412681814 0.003165737816300664 0.014829847057972991
0.06877865777407 0.0034139281688366644 0.01640244284551068 0.9959568473800979 -0.039659022140274315 0.0007125007363401861 0.007996878342193122 -0.0006189013189416865 -0.005067814971333291
 0.9959568473800979 -0.039659022140274315 0.0034140047566237905 0.016402500199941286 -0.0006189284836196109 -0.0050678160087312815 0.000708083975047549 0.007997402190627183
 0.0007125007363401861 0.007996878342193122 -0.0006189284836196109 -0.0050678160087312815 0.003413883607672569 0.016403370545809884 0.9959568715746274 -0.03965810627005006
 -0.0006189013189416865 -0.005067814971333291 0.000708083975047549 0.007997402190627183 0.9959568715746274 -0.03965810627005006 0.00341409835495608 0.016403410664198932
0.07503126302626001 0.003675523775104422 0.017990819082307534 0.9956112277033562 -0.04333926530517992 0.0008143287903760408 0.00872805315239765 -0.0007053421430635508 -0.005534527034082719
 0.9956112277033562 -0.04333926530517992 0.0036756151371737707 0.017990890045902815 -0.0007053743246119857 -0.005534527973488354 0.0008090660960340129 0.00872868663801728
 0.0008143287903760408 0.00872805315239765 -0.0007053743246119857 -0.005534527973488354 0.0036754703208393886 0.01799183213456142 0.9956112561496206 -0.043338266635944
 -0.0007053421430635508 -0.005534527034082719 0.0008090660960340129 0.00872868663801728 0.9956112561496206 -0.043338266635944 0.0036757263566560006 0.017991882657858057
0.08128386827845 0.003950626505251797 0.01959387587409927 0.9952476862308401 -0.04703230402216846 0.0009234278582144039 0.009459616424465784 -0.0007979176022358177 -0.006001830865797914
 0.9952476862308401 -0.04703230402216846 0.003950734032207748 0.01959396224891695 -0.0007979552057190651 -0.006001831666737471 0.0009172438189292249 0.00946037362943081
 0.0009234278582144039 0.009459616424465784 -0.0007979552057190651 -0.006001831666737471 0.003950563335426017 0.01959497455602839 0.9952477192630007 -0.04703122263702123
 -0.0007979176022358177 -0.006001830865797914 0.0009172438189292249 0.00946037362943081 0.9952477192630007 -0.04703122263702123 0.003950864418254497 0.019595036904600772
0.08753647353064001 0.0042394780161180996 0.021211394990581434 0.9948659882744754 -0.050738049800340065 0.0010398652850749182 0.010191480052187892 -0.0008966965623202777 -0.006469634768461989
 0.9948659882744754 -0.050738049800340065 0.004239603131035016 0.021211498675268888 -0.000896739988921513 -0.006469635388645469 0.0010326841856672642 0.010192375967052185
 0.0010398652850749182 0.010191480052187892 -0.000896739988921513 -0.006469635388645469 0.004239404306088872 0.021212579602062142 0.9948660262248449 -0.05073688578700636
 -0.0008966965623202777 -0.006469634768461989 0.0010326841856672642 0.010192375967052185 0.9948660262248449 -0.05073688578700636 0.004239754235262583 0.021212655266462304
0.09378907878283 0.00454231904462786 0.02284316358813672 0.9944658993580568 -0.05445640080838819 0.0011637072633177024 0.010923553300358347 -0.001001746643963005 -0.006937845628049169
 0.9944658993580568 -0.05445640080838819 0.004542463207204814 0.022843286578636417 -0.001001796291089625 -0.006937846023396288 0.001155453091784091 0.010924603836666566
 0.0011637072633177024 0.010923553300358347 -0.001001796291089625 -0.006937846023396288 0.004542233967913126 0.022844434453686564 0.994465942556566 -0.054455154256659484
 -0.001001746643963005 -0.006937845628049169 0.001155453091784091 0.010924603836666566 0.994465942556566 -0.054455154256659484 0.0045426365872625555 0.022844524995067055
0.100041684035 0.004859389377495417 0.02448897229638786 0.9940471853489993 -0.058187243739946236 0.0012950187701903108 0.011655742932321174 -0.0011131341758114212 -0.007406368796466584
 0.9940471853489993 -0.058187243739946236 0.004859554087427959 0.02448911668668504 -0.001113190437221377 -0.0074063689211396715 0.0012856152250486678 0.011656964935187104
 0.0012950187701903108 0.011655742932321174 -0.001113190437221377 -0.0074063689211396715 0.0048592921067777415 0.02449032976154403 0.9940472341233402 -0.05818591474545437
 -0.0011131341758114212 -0.007406368796466584 0.0012856152250486678 0.011656964935187104 0.9940472341233402 -0.05818591474545437 0.0048597513073526345 0.02449043681201107
0.1059090909091 0.005170080380194858 0.026045973816959226 0.993637119190548 -0.06169949561266626 0.0014250909075745708 0.012342845932355394 -0.0012234813096850422 -0.007846226403517391
 0.993637119190548 -0.06169949561266626 0.0051702657747798465 0.02604614028095529 -0.0012235441328329205 -0.007846226230965673 0.00141453915056857 0.012344245001421918
 0.0014250909075745708 0.012342845932355394 -0.0012235441328329205 -0.007846226230965673 0.005169970913481917 0.02604741288175806 0.9936371734932373 -0.06169808934445958
 -0.0012234813096850422 -0.007846226403517391 0.00141453915056857 0.012344245001421918 0.9936371734932373 -0.06169808934445958 0.005170486793685209 0.026047536972055557
0.1062942892872 0.005190927808348564 0.026148613774486146 0.9936096125800119 -0.0619304552126006 0.0014338635072895043 0.01238795331057004 -0.0012309241453604082 -0.007875108003354059
 0.9936096125800119 -0.0619304552126006 0.005191114609444584 0.026148781757120293 -0.0012309874112503367 -0.007875107809787233 0.0014232340050996117 0.01238936457115047
 0.0014338635072895043 0.01238795331057004 -0.0012309874112503367 -0.007875107809787233 0.005190817515492324 0.026150058209504213 0.9936096672555732 -0.06192904387309534
 -0.0012309241453604082 -0.007875108003354059 0.0014232340050996117 0.01238936457115047 0.9936096672555732 -0.06192904387309534 0.005191337239204078 0.026150183472354968
0.11254689453939999 0.005537172085490877 0.02782188161150396 0.9931529479644409 -0.06568590282574417 0.0015803038398710268 0.013120086472785394 -0.0013551801485989484 -0.008343965295195982
 0.9931529479644409 -0.06568590282574417 0.005537382569211408 0.027822075478135925 -0.0013552508056789386 -0.008343964734128047 0.0015683715235926949 0.013121705740828311
 0.0015803038398710268 0.013120086472785394 -0.0013552508056789386 -0.008343964734128047 0.005537047941908729 0.027823413406827143 0.9931530088639581 -0.06568440924574181
 -0.0013551801485989484 -0.008343965295195982 0.0015683715235926949 0.013121705740828311 0.9931530088639581 -0.06568440924574181 0.005537632184759581 0.027823558656722803
0.11879949979160001 0.005898358852278551 0.029508569463138654 0.9926769591060779 -0.06945344598574239 0.0017344007371455068 0.013852042198025471 -0.0014859643379128288 -0.008812840987516758
 0.9926769591060779 -0.06945344598574239 0.005898594661992327 0.02950879160486416 -0.001486042769512896 -0.00881284000801265 0.0017210884850319631 0.013853889194179774
 0.0017344007371455068 0.013852042198025471 -0.001486042769512896 -0.00881284000801265 0.005898220029705719 0.029510189033256584 0.9926770265495967 -0.06945187027253724
 -0.0014859643379128288 -0.008812840987516758 0.0017210884850319631 0.013853889194179774 0.9926770265495967 -0.06945187027253724 0.005898872845262127 0.029510356116260333
0.1250521050438 0.006274723582173613 0.0312084703692908 0.992181414406003 -0.07323293655329989 0.0018962137128160086 0.01458371805860067 -0.001623337369092084 -0.009281633634191305
 0.992181414406003 -0.07323293655329989 0.00627498641705035 0.031208723276993134 -0.0016234239552485544 -0.009281632183665994 0.0018814441474727544 0.014585813486820288
 0.0018962137128160086 0.01458371805860067 -0.0016234239552485544 -0.009281632183665994 0.0062745692528264965 0.031210178151040355 0.9921814887106868 -0.0732312788187957
 -0.001623337369092084 -0.009281633634191305 0.0018814441474727544 0.014585813486820288 0.9921814887106868 -0.0732312788187957 0.006275294755598579 0.031210368984637117
0.131304710296 0.006666500508887699 0.032921376210750385 0.9916660831665879 -0.07702421935567612 0.002065800765430669 0.01531500946905186 -0.001767358347522544 -0.009750240002986814
 0.9916660831665879 -0.07702421935567612 0.006666792127809897 0.032921662475293156 -0.0017674534650352852 -0.009750238027234114 0.0020494962635762455 0.015317375028813697
 0.002065800765430669 0.01531500946905186 -0.0017674534650352852 -0.009750238027234114 0.006666329846111008 0.03292317266469978 0.991666164646947 -0.07702247971490345
 -0.001767358347522544 -0.009750240002986814 0.0020494962635762455 0.015317375028813697 0.991666164646947 -0.07702247971490345 0.006667132215186533 0.03292338923767592
0.1375573155481 0.006979656296103029 0.034423213205793605 0.9912250308754637 -0.08060318387377191 0.002220591931181361 0.016022886843710164 -0.0018954861084494617 -0.01019562970207182
 0.9912250308754637 -0.08060318387377191 0.0069799796514183185 0.034423526976596244 -0.0018955904733385406 -0.010195627213774369 0.0022027252591838315 0.01602551735156269
 0.002220591931181361 0.016022886843710164 -0.0018955904733385406 -0.010195627213774369 0.006979469257339312 0.0344250984808537 0.991225119852249 -0.08060136244296946
 -0.0018954861084494617 -0.01019562970207182 0.0022027252591838315 0.01602551735156269 0.991225119852249 -0.08060136244296946 0.006980352291083774 0.034425334992343605
0.1438099208003 0.00730367716003601 0.03591787341614376 0.9907687517095386 -0.08417382715794332 0.0023816425307132075 0.01672836069301993 -0.0020287545810094903 -0.010638818822586332
 0.9907687517095386 -0.08417382715794332 0.007304034303014918 0.03591821651874651 -0.0020288686264962595 -0.010638815766014408 0.0023621448274741084 0.01673127568283467
 0.0023816425307132075 0.01672836069301993 -0.0020288686264962595 -0.010638815766014408 0.007303473063517871 0.03591984796193271 0.9907688484933331 -0.08417192406237758
 -0.0020287545810094903 -0.010638818822586332 0.0023621448274741084 0.01673127568283467 0.9907688484933331 -0.08417192406237758 0.0073044409544585865 0.03592010568984664
0.1500625260525 0.0076384588129480456 0.03740525389699181 0.9902973533164262 -0.08773608306169124 0.0025489032041610873 0.01743137419026222 -0.0021671158172543825 -0.011079752989384274
 0.9902973533164262 -0.08773608306169124 0.007638851863279842 0.03740562822019308 -0.0021672399775616207 -0.011079749306339454 0.0025277059601744195 0.01743459389953236
 0.0025489032041610873 0.01743137419026222 -0.0021672399775616207 -0.011079749306339454 0.007638236987839464 0.03740731818443143 0.9902974582152334 -0.08773409842758392
 -0.0021671158172543825 -0.011079752989384274 0.0025277059601744195 0.01743459389953236 0.9902974582152334 -0.08773409842758392 0.0076392939825630736 0.03740759845042322
0.15631513130469998 0.007983896342399687 0.03888525492498005 0.989810943763449 -0.09128988523373231 0.0027223240795889864 0.018131871360670765 -0.002310521342615149 -0.011518378899197042
