! Created with skrf 1.8.0 (http://scikit-rf.org).
# GHz S RI R 50.0 
!freq ReS11 ImS11 ReS12 ImS12 ReS13 ImS13
! ReS14 ImS14
! ReS21 ImS21 ReS22 ImS22 ReS23 ImS23
! ReS24 ImS24
! ReS31 ImS31 ReS32 ImS32 ReS33 ImS33
! ReS34 ImS34
! ReS41 ImS41 ReS42 ImS42 ReS43 ImS43
! ReS44 ImS44
!
0.0 0.001453504720844 0.0 0.9985464952792 0.0 5.600854993634e-05 0.0 -5.600855005879e-05 6.859069155438147e-21
 0.9985464952792 0.0 0.001453504720824 0.0 -5.600855005829e-05 6.859069155376916e-21 5.60085499365e-05 0.0
 5.600854993634e-05 0.0 -5.600855005829e-05 6.859069155376916e-21 0.001453504705462 0.0 0.9985464952638 0.0
 -5.600855005879e-05 6.859069155438147e-21 5.60085499365e-05 0.0 0.9985464952638 0.0 0.001453504705468 0.0
0.005 0.001563623749348792 0.0011875507017720895 0.9984072170344614 -0.003045065246705257 7.859447185284906e-05 0.0006277459314469032 -7.62857776112248e-05 -0.000392213538203572
 0.9984072170344614 -0.003045065246705257 0.0015636307907873409 0.0011875466113364982 -7.628942793798122e-05 -0.0003922163458816461 7.854614058440871e-05 0.0006277644310588383
 7.859447185284906e-05 0.0006277459314469032 -7.628942793798122e-05 -0.0003922163458816461 0.001563621500439591 0.001187484771999326 0.9984072166751216 -0.0030451323096970296
 -7.62857776112248e-05 -0.000392213538203572 7.854614058440871e-05 0.0006277644310588383 0.9984072166751216 -0.0030451323096970296 0.001563632323507398 0.0011874784162435794
0.006252605252188 0.0015924313970094943 0.001489128169275493 0.9983705622929565 -0.0038070885165511995 8.50065956833142e-05 0.0007849862211440873 -8.197692948823572e-05 -0.0004907807487996803
 0.9983705622929565 -0.0038070885165511995 0.0015924424034261613 0.0014891229246439164 -8.198260970796547e-05 -0.0004907842111191652 8.493108344188458e-05 0.0007850102191673333
 8.50065956833142e-05 0.0007849862211440873 -8.198260970796547e-05 -0.0004907842111191652 0.001592427973126638 0.0014890457736803616 0.998370561823236 -0.0038071723326064343
 -8.197692948823572e-05 -0.0004907807487996803 8.493108344188458e-05 0.0007850102191673333 0.998370561823236 -0.0038071723326064343 0.0015924448916975942 0.0014890376909068462
0.01250521050438 0.0017436549369603148 0.003009622515840852 0.9981769261626436 -0.007615063435555241 0.00012156425080891027 0.001570326748466831 -0.00011408610810476145 -0.0009839979202161502
 0.9981769261626436 -0.007615063435555241 0.0017436988792076864 0.003009610710013435 -0.00011410849383936903 -0.0009840043287651305 0.00012126315591393655 0.0015703841450677076
 0.00012156425080891027 0.001570326748466831 -0.00011410849383936903 -0.0009840043287651305 0.001743641810756349 0.003009458020863107 0.9981769248360727 -0.007615230831043403
 -0.00011408610810476145 -0.0009839979202161502 0.00012126315591393655 0.0015703841450677076 0.9981769248360727 -0.007615230831043403 0.0017437093696826196 0.0030094404427789714
0.01875781575657 0.0019074910742901754 0.004551925616515592 0.997965356528853 -0.01143320999749508 0.00016576362662037628 0.002356568224935477 -0.00015243216721843816 -0.0014789364329187646
 0.997965356528853 -0.01143320999749508 0.0019075898023773572 0.004551905878923819 -0.0001524820894471929 -0.0014789451771626484 0.00016508732163772897 0.002356670200396773
 0.00016576362662037628 0.002356568224935477 -0.0001524820894471929 -0.0014789451771626484 0.0019074619901079512 0.004551679240378956 0.9979653539658898 -0.011433460872276037
 -0.00015243216721843816 -0.0014789364329187646 0.00016508732163772897 0.002356670200396773 0.9979653539658898 -0.011433460872276037 0.0019076138039797771 0.004551650607230248
0.02501042100875 0.0020842470140492175 0.006113890855812416 0.9977356143547353 -0.015263393657780096 0.000217688147005617 0.003143755347497547 -0.0001971082527985714 -0.001975378238342167
 0.9977356143547353 -0.015263393657780096 0.002084422324916436 0.00611386176672888 -0.00019719641409353663 -0.001975388602319386 0.0002164869900207899 0.003143914789617706
 0.000217688147005617 0.003143755347497547 -0.00019719641409353663 -0.001975388602319386 0.0020841957267678526 0.006113562832530286 0.9977356101785478 -0.015263727951782992
 -0.0001971082527985714 -0.001975378238342167 0.0002164869900207899 0.003143914789617706 0.9977356101785478 -0.015263727951782992 0.002084465345018518 0.006113521447758988
0.03126302626094 0.0022742172048071836 0.00769442093879002 0.997487447901437 -0.0191064215428852 0.0002774218439094924 0.003931859484465534 -0.0002482050155303155 -0.002473173668181024
 0.997487447901437 -0.0191064215428852 0.0022744908528360137 0.0076943810305791435 -0.00024834201211755016 -0.002473184829114674 0.00027554603733988714 0.00393209099601731
 0.0002774218439094924 0.003931859484465534 -0.00024834201211755016 -0.002473184829114674 0.0022741374708474685 0.007694011533803884 0.9974874417314542 -0.019106839220760397
 -0.0002482050155303155 -0.002473173668181024 0.00027554603733988714 0.00393209099601731 0.9974874417314542 -0.019106839220760397 0.0022745583938777398 0.007693955565075465
0.037515631513130004 0.0024776898178615753 0.009292805986668174 0.9972205993868496 -0.022962704296103757 0.0003450485234034677 0.004720823180348273 -0.00030581128432847934 -0.0029721969228795465
 0.9972205993868496 -0.022962704296103757 0.002478083522330118 0.00929275374457257 -0.00030600761742081506 -0.002972207950727092 0.0003423480510363844 0.004721143094730611
 0.0003450485234034677 0.004720823180348273 -0.00030600761742081506 -0.002972207950727092 0.002477575399575092 0.009292315513038807 0.9972205908439216 -0.022963205331562857
 -0.00030581128432847934 -0.0029721969228795465 0.0003423480510363844 0.004721143094730611 0.9972205908439216 -0.022963205331562857 0.002478181088645096 0.009292242992273632
0.043768236765320004 0.002694949266989309 0.010908522133535364 0.9969348076872225 -0.026832457413987248 0.0004206513719703424 0.005510573711376923 -0.00037001431764387333 -0.003472332510949098
 0.9969348076872225 -0.026832457413987248 0.00269548471769952 0.010908455996429174 -0.00037028040015136496 -0.0034723423682466656 0.00041697596955308255 0.005511000110769477
 0.0004206513719703424 0.005510573711376923 -0.00037028040015136496 -0.0034723423682466656 0.002694793929083075 0.0109079509487938 0.9969347963909019 -0.026833041793668865
 -0.00037001431764387333 -0.003472332510949098 0.00041697596955308255 0.005511000110769477 0.9969347963909019 -0.026833041793668865 0.00269561781350568 0.01090785977173024
0.050020842017509996 0.0029262773713723492 0.01254114826776557 0.996629809684616 -0.030715784436220694 0.0005043127272006025 0.006301028666701195 -0.00044089989553323586 -0.003973469664555604
 0.996629809684616 -0.030715784436220694 0.002926976233976957 0.012541066628616603 -0.0004412460564233333 -0.0039734772063322425 0.0004995118706598645 0.006301581401134923
 0.0005043127272006025 0.006301028666701195 -0.0004412460564233333 -0.0039734772063322425 0.002926074882076562 0.012540496782115215 0.9966297952542323 -0.030716452152317084
 -0.00044089989553323586 -0.003973469664555604 0.0004995118706598645 0.006301581401134923 0.9966297952542323 -0.030716452152317084 0.0029271503651203856 0.012540384707665737
0.055454545454549996 0.0031389513491685535 0.013973402751710882 0.996348954051458 -0.03410156342302035 0.0005836246624691253 0.006988460802982071 -0.0005079941839475189 -0.004409701916899224
 0.996348954051458 -0.03410156342302035 0.0031398098014118014 0.013973306300450634 -0.0005084182607515824 -0.004409706433054949 0.0005777233055128701 0.006989140834784594
 0.0005836246624691253 0.006988460802982071 -0.0005084182607515824 -0.004409706433054949 0.0031387028251233955 0.013972681859320157 0.9963489365871957 -0.034102303556323633
 -0.0005079941839475189 -0.004409701916899224 0.0005777233055128701 0.006989140834784594 0.9963489365871957 -0.034102303556323633 0.0031400240660856052 0.013972549697453917
0.056273447269699996 0.0031719539641913226 0.014190325189143756 0.9963053410632784 -0.03461271772039856 0.000596113915745576 0.007092098694796487 -0.0005185523458072582 -0.004475499592200416
 0.9963053410632784 -0.03461271772039856 0.003172837884614217 0.0141902263955324 -0.0005189888329802847 -0.00447550356596419 0.000590036820126055 0.007092799401732954
 0.000596113915745576 0.007092098694796487 -0.0005189888329802847 -0.00447550356596419 0.003171698094788062 0.014189593864996623 0.9963053231170739 -0.034613468771816355
 -0.0005185523458072582 -0.004475499592200416 0.000590036820126055 0.007092799401732954 0.9963053231170739 -0.034613468771816355 0.0031730585587936445 0.01418945851437168
0.06252605252188 0.003432257219965723 0.015855733132582126 0.9959611368280823 -0.038523240852000915 0.0006961351263783775 0.007883689010250106 -0.0006030545348653506 -0.004978313973978264
 0.9959611368280823 -0.038523240852000915 0.0034333478289770717 0.015855615486931283 -0.0006035915172307955 -0.004978313019715215 0.0006886307518625512 0.007884561134214403
 0.0006961351263783775 0.007883689010250106 -0.0006035915172307955 -0.004978313019715215 0.0034319417447865918 0.015854922490786415 0.9959611149831875 -0.03852407523894004
 -0.0006030545348653506 -0.004978313973978264 0.0006886307518625512 0.007884561134214403 0.9959611149831875 -0.03852407523894004 0.0034336205552417585 0.01585476134658169
0.06877865777407 0.003707463832282581 0.01753707838333914 0.9955969316763524 -0.04244730196551368 0.0008044553022329174 0.008675700294534117 -0.0006944878388365764 -0.005481804065892607
 0.9955969316763524 -0.04244730196551368 0.003708782749529219 0.017536940143173106 -0.0006951354075683464 -0.005481796716090135 0.0007953723650653622 0.008676769106778377
 0.0008044553022329174 0.008675700294534117 -0.0006951354075683464 -0.005481796716090135 0.003707082528599888 0.017536188993612974 0.9955969055483964 -0.04244821969994332
 -0.0006944878388365764 -0.005481804065892607 0.0007953723650653622 0.008676769106778377 0.9955969055483964 -0.04244821969994332 0.003709113039111458 0.017535999398515512
0.07503126302626001 0.003997849101426547 0.019234084781845278 0.995212460283362 -0.04638482217912355 0.0009211520442243439 0.009468029264472993 -0.0007929321021380374 -0.005985860139874489
 0.995212460283362 -0.04638482217912355 0.00399941793977535 0.019233924159874374 -0.0007937002716888757 -0.0059858448195570175 0.0009103390316420271 0.009469321882479844
 0.0009211520442243439 0.009468029264472993 -0.0007937002716888757 -0.0059858448195570175 0.003997395750366854 0.01923311727019457 0.9952124294869805 -0.046385823278074896
 -0.0007929321021380374 -0.005985860139874489 0.0009103390316420271 0.009469321882479844 0.9952124294869805 -0.046385823278074896 0.003999811306171727 0.01923289642581014
0.08128386827845 0.004303686967783755 0.020946488074318537 0.9948074575366833 -0.05033570118710609 0.0010463015217164594 0.010260569059991951 -0.0008984655882041862 -0.006490371107992805
 0.9948074575366833 -0.05033570118710609 0.004305527337367652 0.02094630323833057 -0.0008993642968977746 -0.00649034613476373 0.0010336067092898218 0.010262114466825222
 0.0010463015217164594 0.010260569059991951 -0.0008993642968977746 -0.00649034613476373 0.004303155354056778 0.020945443123493744 0.9948074216845992 -0.0503367856731116
 -0.0008984655882041862 -0.006490371107992805 0.0010336067092898218 0.010262114466825222 0.9948074216845992 -0.0503367856731116 0.004305989295694352 0.02094518808887968
0.08753647353064001 0.00462525000676674 0.02267403200088592 0.9943816587350761 -0.0542998211185333 0.0011799783875342839 0.011053209508818076 -0.0010111649241789941 -0.006995224273430442
 0.9943816587350761 -0.0542998211185333 0.004627383519142082 0.02267382107358716 -0.001012204034499246 -0.0069951878575329595 0.0011652498594155987 0.01105503857220594
 0.0011799783875342839 0.011053209508818076 -0.001012204034499246 -0.0069951878575329595 0.004624633919050976 0.022672910352229726 0.9943816174378606 -0.054300989018484166
 -0.0010111649241789941 -0.006995224273430442 0.0011652498594155987 0.01105503857220594 0.9943816174378606 -0.054300989018484166 0.004627919586644 0.02267261804234288
0.09378907878283 0.00496280939860698 0.024416465508662707 0.9939347997649071 -0.05827704927493776 0.0013222556957501162 0.011845837323442002 -0.001131105042060854 -0.007500305152935184
 0.9939347997649071 -0.05827704927493776 0.0049652576709973435 0.02441622656730577 -0.0011322943408485788 -0.007500255397329659 0.0013053413665457612 0.011847982814556304
 0.0013222556957501162 0.011845837323442002 -0.0011322943408485788 -0.007500255397329659 0.004962102630063033 0.02441526796456711 0.9939347526311904 -0.05827830061847602
 -0.001131105042060854 -0.007500305152935184 0.0013053413665457612 0.011847982814556304 0.9939347526311904 -0.05827830061847602 0.004965873366572447 0.024414935148485875
0.100041684035 0.005316634879851392 0.026173540704090857 0.9934666172624838 -0.06226724013304929 0.0014732048216971614 0.012638336247416527 -0.0012583591164625158 -0.008005497353887905
 0.9934666172624838 -0.06226724013304929 0.005319419539029985 0.026173271780042823 -0.0012597083148576135 -0.00800543225433269 0.0014539524600732697 0.012640832859368059
 0.0014732048216971614 0.012638336247416527 -0.0012597083148576135 -0.00800543225433269 0.005315831228862835 0.02617226812369258 0.9934665638986802 -0.06226857495768824
 -0.0012583591164625158 -0.008005497353887905 0.0014539524600732697 0.012640832859368059 0.9934665638986802 -0.06226857495768824 0.0053201203838242166 0.026171891422818942
0.1059090909091 0.005663695353796659 0.027835466470352194 0.99300765031146 -0.06602326090289679 0.00162280352671732 0.013381789143633518 -0.00138448911624554 -0.00847956246391424
 0.99300765031146 -0.06602326090289679 0.005666815358097733 0.02783516757878856 -0.0013859971281067992 -0.008479481047441522 0.001601218609053237 0.013384648526225146
 0.00162280352671732 0.013381789143633518 -0.0013859971281067992 -0.008479481047441522 0.00566279515309114 0.027834124312280804 0.9930075907409992 -0.06602467410348432
 -0.00138448911624554 -0.00847956246391424 0.001601218609053237 0.013384648526225146 0.9930075907409992 -0.06602467410348432 0.005667601128756284 0.02783370322404365
0.1062942892872 0.005686994681130578 0.02794501130964772 0.9929768487643635 -0.0662702368476268 0.0016328953828560573 0.013430587170983858 -0.0013929985003636538 -0.008510682486045243
 0.9929768487643635 -0.0662702368476268 0.005690137367990507 0.027944710387683286 -0.0013945172337017488 -0.00851059993119254 0.0016111526367295296 0.01343347153694357
 0.0016328953828560573 0.013430587170983858 -0.0013945172337017488 -0.00851059993119254 0.005686087951130943 0.027943664613510215 0.9929767887740949 -0.06627165519481215
 -0.0013929985003636538 -0.008510682486045243 0.0016111526367295296 0.01343347153694357 0.9929767887740949 -0.06627165519481215 0.005690928884189443 0.02794324049951583
0.11254689453939999 0.0060741554545913614 0.029730631492210453 0.9924652328502204 -0.07028587238701169 0.0018013951614528896 0.014222468224494493 -0.0015350926584936301 -0.00901574009960188
 0.9924652328502204 -0.07028587238701169 0.006077677827886346 0.029730296509799428 -0.0015367904859888328 -0.00901563787112458 0.0017770095842899107 0.014225778935465406
 0.0018013951614528896 0.014222468224494493 -0.0015367904859888328 -0.00901563787112458 0.006073139455174181 0.029729211661292936 0.9924651658348144 -0.07028737430395714
 -0.0015350926584936301 -0.00901574009960188 0.0017770095842899107 0.014225778935465406 0.9924651658348144 -0.07028737430395714 0.006078565539675842 0.02972873645392777
0.11879949979160001 0.006478382193131391 0.031530154942438764 0.9919315092816076 -0.07431397042275754 0.001978770026667831 0.015013854856566545 -0.00168470909992335 -0.009520547642802041
 0.9919315092816076 -0.07431397042275754 0.006482305934001965 0.031529783788756996 -0.0016865955043721468 -0.009520423415512572 0.0019515891052563513 0.015017632478632545
 0.001978770026667831 0.015013854856566545 -0.0016865955043721468 -0.009520423415512572 0.006477250740335025 0.03152866302089021 0.9919314348390444 -0.07431555596039728
 -0.00168470909992335 -0.009520547642802041 0.0019515891052563513 0.015017632478632545 0.9919314348390444 -0.07431555596039728 0.0064832953667352386 0.03152813288568422
0.1250521050438 0.006899938143149181 0.03334333415195772 0.991375419134842 -0.07835434602601425 0.0021650838581055063 0.015804619901824062 -0.0018419133090545072 -0.010024980434126743
 0.991375419134842 -0.07835434602601425 0.0069042849593587505 0.03334292466677222 -0.001843997696405159 -0.010024831776130276 0.002134955041199476 0.015808906993114352
 0.0021650838581055063 0.015804619901824062 -0.001843997696405159 -0.010024831776130276 0.006898685060170706 0.03334177124629337 0.9913753368601632 -0.07835601524054908
 -0.0018419133090545072 -0.010024980434126743 0.002134955041199476 0.015808906993114352 0.9913753368601632 -0.07835601524054908 0.006905381639518386 0.03334118219202453
0.131304710296 0.007339084711929262 0.035169919837147595 0.9907967049321952 -0.08240680622256358 0.0023603984692796786 0.016594633640644754 -0.002006768675760539 -0.010528911647060213
 0.9907967049321952 -0.08240680622256358 0.00734387634197386 0.035169469809525206 -0.002009060374589629 -0.0105287360198932 0.0023271691972751776 0.016599474767752375
 0.0023603984692796786 0.016594633640644754 -0.002009060374589629 -0.0105287360198932 0.0073377038297175855 0.03516828711758134 0.9907966144174505 -0.08240855917495797
 -0.002006768675760539 -0.010528911647060213 0.0023271691972751776 0.016599474767752375 0.9907966144174505 -0.08240855917495797 0.007345085797162761 0.0351676349936278
0.1375573155481 0.007693236349793283 0.036770940443567636 0.990297991003526 -0.08623233828636412 0.0025396564369137955 0.01735954854269634 -0.002154256293479313 -0.011007981771528499
 0.990297991003526 -0.08623233828636412 0.007698497086927304 0.03677046071463448 -0.0021567690945697507 -0.01100777907426228 0.002503246880400403 0.0173649352821861
 0.0025396564369137955 0.01735954854269634 -0.0021567690945697507 -0.01100777907426228 0.007691722012313818 0.03676923909198084 0.9902978918753905 -0.08623417498106602
 -0.002154256293479313 -0.011007981771528499 0.002503246880400403 0.0173649352821861 0.9902978918753905 -0.08623417498106602 0.00769982426630031 0.036768532671722205
0.1438099208003 0.008059774808526538 0.0383638739716296 0.9897818714819124 -0.09004853122746997 0.0027261646483701363 0.01812158825016228 -0.0023076545517078805 -0.011484432918573543
 0.9897818714819124 -0.09004853122746997 0.008065526836134753 0.0383633632504771 -0.00231039847628907 -0.011484200665508213 0.002686435389717727 0.018127561250989032
 0.0027261646483701363 0.01812158825016228 -0.00231039847628907 -0.011484200665508213 0.008058120948663646 0.03836210519496943 0.9897817633351952 -0.09005045171794007
 -0.0023076545517078805 -0.011484432918573543 0.002686435389717727 0.018127561250989032 0.9897817633351952 -0.09005045171794007 0.00806697716418767 0.038361341176370564
0.1500625260525 0.008438575889409525 0.03994859778273422 0.9892484743532785 -0.09385530101108179 0.002919862104517361 0.018880682037898208 -0.002466904448965325 -0.011958198372317186
 0.9892484743532785 -0.09385530101108179 0.008444841438378902 0.03994805469628672 -0.0024698894979294124 -0.011957933978154011 0.002876674562937992 0.01888728341909887
 0.002919862104517361 0.018880682037898208 -0.0024698894979294124 -0.011957933978154011 0.008436776452824184 0.03994676283637818 0.9892483567801994 -0.09385730535313457
 -0.002466904448965325 -0.011958198372317186 0.002876674562937992 0.01888728341909887 0.9892483567801994 -0.09385730535313457 0.008446420333938281 0.039945937752982365
0.15631513130469998 0.008829514569476933 0.041524992992100704 0.9886979281912268 -0.09765256368323634 0.003120687117745883 0.019636760315118573 -0.0026319462878146406 -0.012429212786170967
 0.9886979281912268 -0.09765256368323634 0.008836315919837481 0.04152441608283197 -0.002635182441349183 -0.012428913566468639 0.0030739035629856943 0.01964403364959487
