! Created with skrf 1.8.0 (http://scikit-rf.org).
# GHz S RI R 50.0 
!freq ReS11 ImS11 ReS12 ImS12 ReS13 ImS13
! ReS14 ImS14
! ReS21 ImS21 ReS22 ImS22 ReS23 ImS23
! ReS24 ImS24
! ReS31 ImS31 ReS32 ImS32 ReS33 ImS33
! ReS34 ImS34
! ReS41 ImS41 ReS42 ImS42 ReS43 ImS43
! ReS44 ImS44
!
0.0 0.001694834460963 0.0 0.9983051655135 0.0 6.605020292046e-05 0.0 -6.605020256546e-05 8.088816915482489e-21
 0.9983051655135 0.0 0.001694834460972 0.0 -6.605020256518e-05 8.088816915448198e-21 6.605020292072e-05 0.0
 6.605020292046e-05 0.0 -6.605020256518e-05 8.088816915448198e-21 0.001694834473738 0.0 0.9983051655262 0.0
 -6.605020256546e-05 8.088816915482489e-21 6.605020292072e-05 0.0 0.9983051655262 0.0 0.001694834473758 0.0
0.005 0.0018240744429767262 0.001378202032962221 0.9981415444893543 -0.0035501213819009105 9.40865544600963e-05 0.0007753869438330776 -9.100493600577285e-05 -0.00047828652695900857
 0.9981415444893543 -0.0035501213819009105 0.001824087181102828 0.0013781946191871689 -9.10079740405168e-05 -0.00047828888559832915 9.399808839768622e-05 0.0007754206616526931
 9.40865544600963e-05 0.0007753869438330776 -9.10079740405168e-05 -0.00047828888559832915 0.0018240724011738864 0.001378135982789126 0.9981415441249011 -0.0035501884519120743
 -9.100493600577285e-05 -0.00047828652695900857 9.399808839768622e-05 0.0007754206616526931 0.9981415441249011 -0.0035501884519120743 0.0018240884954167636 0.0013781265281126325
0.006252605252188 0.0018581154594846446 0.0017281902421871554 0.9980981473388821 -0.0044384999931260626 0.00010219540595908817 0.0009695763695386218 -9.812898948999338e-05 -0.000598478132253143
 0.9980981473388821 -0.0044384999931260626 0.0018581353712074425 0.0017281808095193849 -9.81337166889915e-05 -0.0005984810404003585 0.00010205718703085622 0.0009696201692048793
 0.00010219540595908817 0.0009695763695386218 -9.81337166889915e-05 -0.0005984810404003585 0.001858112334434039 0.0017281077003201417 0.9980981468364272 -0.004438583814511616
 -9.812898948999338e-05 -0.000598478132253143 0.00010205718703085622 0.0009696201692048793 0.9980981468364272 -0.004438583814511616 0.001858137493288842 0.001728095706506402
0.01250521050438 0.0020381604965615126 0.0034926534886794724 0.9978669639876923 -0.008877676879506599 0.0001492194160871987 0.0019392879232622237 -0.00013897070975629855 -0.0011998003411027585
 0.9978669639876923 -0.008877676879506599 0.002038240001982276 0.0034926329751538763 -0.00013898933641319565 -0.001199805714306132 0.00014866825246998382 0.0019393934604162522
 0.0001492194160871987 0.0019392879232622237 -0.00013898933641319565 -0.001199805714306132 0.002038148561236559 0.0034924887214742586 0.9978669625300937 -0.008877844266705704
 -0.00013897070975629855 -0.0011998003411027585 0.00014866825246998382 0.0019393934604162522 0.9978669625300937 -0.008877844266705704 0.0020382490307390222 0.003492462954504232
0.01875781575657 0.002235393896015273 0.005282183912399018 0.9976113062818041 -0.013328306653489393 0.00020723452679881105 0.0029098107352270165 -0.00018870914454907373 -0.0018030114180702212
 0.9976113062818041 -0.013328306653489393 0.0022355725455346035 0.005282150602659157 -0.00018875067824883034 -0.0018030187213258424 0.00020599645340151052 0.0029099997130406516
 0.00020723452679881105 0.0029098107352270165 -0.00018875067824883034 -0.0018030187213258424 0.002235367491221218 0.005281937137002483 0.9976113034321343 -0.013328557493878006
 -0.00018870914454907373 -0.0018030114180702212 0.00020599645340151052 0.0029099997130406516 0.9976113034321343 -0.013328557493878006 0.0022355932715451866 0.0052818956549194225
0.02501042100875 0.002450225516686015 0.007094220261047841 0.9973308520762311 -0.017792506566706393 0.00027635488073447106 0.0038811698614470307 -0.00024747271309501147 -0.0024077991540930174
 0.9973308520762311 -0.017792506566706393 0.002450542782013582 0.007094172386077037 -0.0002475460518031757 -0.0024078077514468007 0.00027415588030193345 0.003881467630722382
 0.00027635488073447106 0.0038811698614470307 -0.0002475460518031757 -0.0024078077514468007 0.0024501789811193922 0.007093891689496827 0.9973308473924166 -0.017792840794304553
 -0.00024747271309501147 -0.0024077991540930174 0.00027415588030193345 0.003881467630722382 0.9973308473924166 -0.017792840794304553 0.0024505799872153655 0.007093832405770587
0.03126302626094 0.0026830481519253936 0.00892742362473086 0.9970252640200207 -0.022271157347621917 0.00035669488040923825 0.004853294536638398 -0.0003153855520352093 -0.0030139391148137564
 0.9970252640200207 -0.022271157347621917 0.0026835434507274897 0.008927359364979931 -0.00031549950248125534 -0.00301394826831864 0.00035326064033037395 0.0048537301171023
 0.00035669488040923825 0.004853294536638398 -0.00031549950248125534 -0.00301394826831864 0.0026829758269483893 0.008927013512017076 0.9970252570613062 -0.02227157489540224
 -0.0003153855520352093 -0.0030139391148137564 0.00035326064033037395 0.0048537301171023 0.9970252570613062 -0.02227157489540224 0.00268360191724127 0.008926934198188673
0.037515631513130004 0.0029342456332551053 0.010780905242537484 0.9966941979898176 -0.0267646753385595 0.0004483679243995714 0.005826075862707997 -0.00039256847307166066 -0.0036212369722808313
 0.9966941979898176 -0.0267646753385595 0.002934958346527046 0.010780822729728853 -0.0003927317600370766 -0.003621245841711862 0.00044342373421498 0.005826681978653157
 0.0004483679243995714 0.005826075862707997 -0.0003927317600370766 -0.003621245841711862 0.002934141862742753 0.010780413865147914 0.9966941883177524 -0.026765176160673688
 -0.00039256847307166066 -0.0036212369722808313 0.00044342373421498 0.005826681978653157 0.9966941883177524 -0.026765176160673688 0.0029350428586298483 0.010780312151621615
0.043768236765320004 0.0032041959517276983 0.012653991503248467 0.9963373065449891 -0.03127324742811867 0.0005514858048276163 0.006799384372938231 -0.0004791392950308363 -0.0042295109653123575
 0.9963373065449891 -0.03127324742811867 0.0032051654385369783 0.012653888821558639 -0.00047936056686133637 -0.004229518608105907 0.0005447565142079213 0.006800197493230914
 0.0005514858048276163 0.006799384372938231 -0.00047936056686133637 -0.004229518608105907 0.003204055079737679 0.012653419188928042 0.9963372937215703 -0.03127383147090408
 -0.0004791392950308363 -0.0042295109653123575 0.0005447565142079213 0.006800197493230914 0.9963372937215703 -0.03127383147090408 0.0032052807807965026 0.012653292564908703
0.050020842017509996 0.0034932726924250938 0.014546126825882355 0.995954240699981 -0.03579692810308062 0.0006661583391036577 0.007773077290657294 -0.0005752129526844571 -0.004838584670380316
 0.995954240699981 -0.03579692810308062 0.003494538303387106 0.014546002012679592 -0.0005755007847379694 -0.0048385900416470316 0.0006573683479882942 0.007774137670416174
 0.0006661583391036577 0.007773077290657294 -0.0005755007847379694 -0.0048385900416470316 0.0034930890635194844 0.014545473942140364 0.9959542242881966 -0.03579759531740301
 -0.0005752129526844571 -0.004838584670380316 0.0006573683479882942 0.007774137670416174 0.9959542242881966 -0.03579759531740301 0.0034946892613565636 0.014545319754994464
0.055454545454549996 0.003760309503037002 0.01620554185301094 0.9955998166449779 -0.039740391745770876 0.0007752796477107838 0.00861943987948838 -0.0006665084417407457 -0.005368402013280102
 0.9955998166449779 -0.039740391745770876 0.0037618644153558914 0.016205396176755642 -0.0006668610259185027 -0.005368404482505258 0.0007644746822834712 0.008620750799668826
 0.0007752796477107838 0.00861943987948838 -0.0006668610259185027 -0.005368404482505258 0.0037600841237935864 0.016204819282597618 0.9955997967600216 -0.03974113120171418
 -0.0006665084417407457 -0.005368402013280102 0.0007644746822834712 0.008620750799668826 0.9955997967600216 -0.03974113120171418 0.0037620502107742616 0.016204638876994217
0.056273447269699996 0.0038018457557277914 0.01645682600819952 0.9955446509887382 -0.04033568703567704 0.0007924931042368813 0.008747002101194858 -0.0006809015065573834 -0.005448283465234975
 0.9955446509887382 -0.04033568703567704 0.0038034468456163957 0.016456677054272173 -0.0006812644034622551 -0.005448285417808203 0.0007813663725396335 0.008748353824032188
 0.0007924931042368813 0.008747002101194858 -0.0006812644034622551 -0.005448285417808203 0.0038016137139765043 0.01645609296363675 0.9955446305517636 -0.040336437376521865
 -0.0006809015065573834 -0.005448283465234975 0.0007813663725396335 0.008748353824032188 0.9955446305517636 -0.040336437376521865 0.0038036382047778672 0.01645590841775193
0.06252605252188 0.004130281725070544 0.018385648022302473 0.995108188180829 -0.044889435229483104 0.0009305952229199863 0.009720998521831493 -0.0007963141019033255 -0.006058432601218782
 0.995108188180829 -0.044889435229483104 0.004132257664999154 0.018385472871781897 -0.0007967604991087565 -0.0060584298857305095 0.0009168552930796518 0.009722689542185936
 0.0009305952229199863 0.009720998521831493 -0.0007967604991087565 -0.0060584298857305095 0.004129995615368641 0.01838483527187196 0.995108163282623 -0.044890268651538244
 -0.0007963141019033255 -0.006058432601218782 0.0009168552930796518 0.009722689542185936 0.995108163282623 -0.044890268651538244 0.004132494211433563 0.018384617427130507
0.06877865777407 0.004478944045528105 0.020332180393893687 0.9946445038125517 -0.04945804058823795 0.001080567178203788 0.01069489968955328 -0.0009215568987429849 -0.006668856065029807
 0.9946445038125517 -0.04945804058823795 0.004481334234845254 0.02033197694368812 -0.0009220951633923196 -0.006668847329986586 0.0010639372072171643 0.010696981874759145
 0.001080567178203788 0.01069489968955328 -0.0009220951633923196 -0.006668847329986586 0.004478598213226337 0.020331288440590605 0.9946444740180814 -0.04945895704516277
 -0.0009215568987429849 -0.006668856065029807 0.0010639372072171643 0.010696981874759145 0.9946444740180814 -0.04945895704516277 0.004481620755083159 0.02033103421033887
0.07503126302626001 0.004848193085841788 0.022296029326218075 0.9941532506072434 -0.05404133774774224 0.0012425086445457 0.011668532925286938 -0.0010567329848297016 -0.0072793758715864266
 0.9941532506072434 -0.05404133774774224 0.004851036964155807 0.022295795425015884 -0.0010573714164597591 -0.007279359663464373 0.001222711442797574 0.011671062097198821
 0.0012425086445457 0.011668532925286938 -0.0010573714164597591 -0.007279359663464373 0.004847781876627167 0.022295058717727738 0.9941532154815587 -0.05404233719640952
 -0.0010567329848297016 -0.0072793758715864266 0.001222711442797574 0.011671062097198821 0.9941532154815587 -0.05404233719640952 0.004851378243730431 0.022294764866370723
0.08128386827845 0.005238386129513135 0.02427681310654519 0.9936340828284498 -0.05863913463346411 0.0014165163299565324 0.012641720255224977 -0.0012019422766212306 -0.007889811607680212
 0.9936340828284498 -0.05863913463346411 0.005241723188768275 0.024276546553417634 -0.001202689107430548 -0.007889786371034518 0.0013932744057654255 0.012644756231262723
 0.0014165163299565324 0.012641720255224977 -0.001202689107430548 -0.007889786371034518 0.005237903890088803 0.024275764442123246 0.9936340419374698 -0.05864021702796223
 -0.0012019422766212306 -0.007889811607680212 0.0013932744057654255 0.012644756231262723 0.9936340419374698 -0.05864021702796223 0.005242124012432763 0.02427542758223091
0.08753647353064001 0.0056498773177984345 0.026274157576343465 0.9930866565898088 -0.06325121696305655 0.0016026838253367717 0.013614278781874833 -0.0013572814122564166 -0.00849998013407321
 0.9930866565898088 -0.06325121696305655 0.005653747114008147 0.02627385611887398 -0.0013581448072388454 -0.008499944211649301 0.001575719433857886 0.013617885415360974
 0.0016026838253367717 0.013614278781874833 -0.0013581448072388454 -0.008499944211649301 0.00564931839628821 0.026273031503943292 0.9930866094999274 -0.06325238225848524
 -0.0013572814122564166 -0.00849998013407321 0.001575719433857886 0.013617885415360974 0.9930866094999274 -0.06325238225848524 0.005654212265169896 0.026272648093037546
0.09378907878283 0.006083017559921899 0.02828769288667144 0.992510630135783 -0.0678773514729242 0.0018011014578865861 0.014586020967949028 -0.0015228436397163902 -0.009109695383161517
 0.992510630135783 -0.0678773514729242 0.00608745972536516 0.028287354218673663 -0.0015238316965944562 -0.009109647016029386 0.0017701366538539457 0.014590266187662319
 0.0018011014578865861 0.014586020967949028 -0.0015238316965944562 -0.009109647016029386 0.0060823763059401036 0.0282864901064625 0.9925105764136284 -0.06787859962275314
 -0.0015228436397163902 -0.009109695383161517 0.0017701366538539457 0.014590266187662319 0.9925105764136284 -0.06787859962275314 0.006087993985187245 0.02828605644318354
0.100041684035 0.0065381544186089 0.030317051136609575 0.9919056641018562 -0.07251728827118605 0.0020118561485826685 0.015556754855826546 -0.0016987187003349126 -0.009718768229590032
 0.9919056641018562 -0.07251728827118605 0.006543208673439009 0.03031667289532716 -0.0016998394493361252 -0.009718705557284086 0.0019766128423721603 0.015561710704624502
 0.0020118561485826685 0.015556754855826546 -0.0016998394493361252 -0.009718705557284086 0.006537425184035934 0.03031577239852065 0.9919056033147727 -0.07251861923069994
 -0.0016987187003349126 -0.009718768229590032 0.0019766128423721603 0.015561710704624502 0.9919056033147727 -0.07251861923069994 0.006543816820816766 0.030315284618455448
0.1059090909091 0.006985564324167281 0.03223545183865647 0.991311347426921 -0.07688369421633974 0.002220921807267739 0.016466593898549264 -0.001873214959165678 -0.01028956301156945
 0.991311347426921 -0.07688369421633974 0.006991229174238383 0.03223503425985882 -0.0018744674686685583 -0.01028948513299287 0.002181410584312476 0.016472285817473706
 0.002220921807267739 0.016466593898549264 -0.0018744674686685583 -0.01028948513299287 0.006984747394422942 0.03223410255338509 0.9913112796168182 -0.07688510284071517
 -0.001873214959165678 -0.01028956301156945 0.002181410584312476 0.016472285817473706 0.9913112796168182 -0.07688510284071517 0.006991911000673997 0.0322335603264224
0.1062942892872 0.007015631979230662 0.03236186459915928 0.9912714217620462 -0.0771707626130531 0.0022350312717437488 0.01652628424779823 -0.0018849927099086501 -0.01032700640888342
 0.9912714217620462 -0.0771707626130531 0.007021338143965459 0.032361444361978735 -0.001886254113466052 -0.010326927469569182 0.0021952312883398634 0.01653202692032293
 0.0022350312717437488 0.01652628424779823 -0.001886254113466052 -0.010326927469569182 0.007014809118328414 0.032360510706920004 0.9912713534776163 -0.07717217633608589
 -0.0018849927099086501 -0.01032700640888342 0.0021952312883398634 0.01653202692032293 0.9912713534776163 -0.07717217633608589 0.0070220249545044095 0.032359964777855535
0.11254689453939999 0.007515790704131548 0.03442176437901168 0.9906075692645905 -0.08183749625429122 0.0024707065168253503 0.017494408862432708 -0.002081748037495043 -0.010934214468805013
 0.9906075692645905 -0.08183749625429122 0.007522188711728008 0.03442129965967783 -0.0020831579898939003 -0.010934117199424791 0.0024260716574142083 0.01750101874179118
 0.0024707065168253503 0.017494408862432708 -0.0020831579898939003 -0.010934117199424791 0.00751486857471197 0.034420336190588666 0.9906074930509267 -0.08183899269373711
 -0.002081748037495043 -0.010934214468805013 0.0024260716574142083 0.01750101874179118 0.9906074930509267 -0.08183899269373711 0.007522958957365005 0.03441972790741783
0.11879949979160001 0.008038967278263032 0.036496379369226124 0.9899137758618887 -0.08651719851627956 0.00271895775186311 0.018460924468582243 -0.002289063182795332 -0.011540193752172091
 0.9899137758618887 -0.08651719851627956 0.00804609718633608 0.036495867613571036 -0.0022906295096218558 -0.011540075988666172 0.002669209857830922 0.018468486161947396
 0.00271895775186311 0.018460924468582243 -0.0022906295096218558 -0.011540075988666172 0.008037940241642852 0.03649487779663302 0.9899136912875616 -0.08651877762520635
 -0.002289063182795332 -0.011540193752172091 0.002669209857830922 0.018468486161947396 0.9899136912875616 -0.08651877762520635 0.008046955634593672 0.036494202775544916
0.1250521050438 0.00858549444568456 0.03858533544098821 0.9891897141345171 -0.09120956712851686 0.002979856888229335 0.019425623011138322 -0.002507012652747966 -0.012144742397111141
 0.9891897141345171 -0.09120956712851686 0.008593396448550882 0.0385847740221459 -0.0025087431104058875 -0.012144601874598152 0.002924717907186126 0.01943422538419532
 0.002979856888229335 0.019425623011138322 -0.0025087431104058875 -0.012144601874598152 0.008584356867307229 0.038583761449888364 0.9891896207681501 -0.09121122886136997
 -0.002507012652747966 -0.012144742397111141 0.002924717907186126 0.01943422538419532 0.9891896207681501 -0.09121122886136997 0.00859434786171291 0.03858301512225572
0.131304710296 0.009155700839382979 0.04068825480114252 0.9884350602103906 -0.0959142889141512 0.0032534717466207444 0.02038829272922893 -0.002735666837559601 -0.012747655354120924
 0.9884350602103906 -0.0959142889141512 0.009164415280647454 0.04068764101415337 -0.0027375691126393822 -0.012747489707121147 0.003192663800755479 0.020398028939400945
 0.0032534717466207444 0.02038829272922893 -0.0027375691126393822 -0.012747489707121147 0.009154447089666352 0.040686609415857326 0.9884349576210395 -0.09591603322267928
 -0.002735666837559601 -0.012747655354120924 0.003192663800755479 0.020398028939400945 0.9884349576210395 -0.09591603322267928 0.009165464415286784 0.040685787021509705
0.1375573155481 0.009624467375472394 0.04252908638736536 0.9877749950885094 -0.10035522160604574 0.0035073573540906136 0.021321360035772244 -0.002942656670706183 -0.013321336955099189
 0.9877749950885094 -0.10035522160604574 0.009634038447276675 0.04252843310158494 -0.0029447422773481117 -0.013321145833916886 0.0034407412159118576 0.02133222131005995
 0.0035073573540906136 0.021321360035772244 -0.0029447422773481117 -0.013321145833916886 0.009623092539151735 0.042527370452900656 0.9877748828636169 -0.100357048401357
 -0.002942656670706183 -0.013321336955099189 0.0034407412159118576 0.02133222131005995 0.9877748828636169 -0.100357048401357 0.009635189308577605 0.042526483069567
0.1438099208003 0.010109857923821715 0.044359149766942274 0.9870914141217715 -0.10478384342978501 0.0037714892213692812 0.022250031963164288 -0.003157900557030789 -0.0138910298657761
 0.9870914141217715 -0.10478384342978501 0.010120326755521023 0.044358455183725644 -0.0031601777703742966 -0.013890810925372307 0.0036988122683068495 0.02226210399989306
 0.0037714892213692812 0.022250031963164288 -0.0031601777703742966 -0.013890810925372307 0.010108356503916864 0.044357364304842266 0.9870912918356649 -0.10478575265339127
 -0.003157900557030789 -0.0138910298657761 0.0036988122683068495 0.02226210399989306 0.9870912918356649 -0.10478575265339127 0.010121583955875599 0.04435640805158377
0.1500625260525 0.010611685243090202 0.04617826109127051 0.9863845093511857 -0.10920001306629473 0.004045766748747712 0.023174192932347626 -0.003381301364127408 -0.014456626663519406
 0.9863845093511857 -0.10920001306629473 0.010623093126004521 0.04617752326147689 -0.003383778438204568 -0.014456377464293577 0.00396677812002042 0.023187564547091245
 0.004045766748747712 0.023174192932347626 -0.003383778438204568 -0.014456377464293577 0.01061005175479137 0.046176407163710714 0.986384376579351 -0.10920200465717046
 -0.003381301364127408 -0.014456626663519406 0.00396677812002042 0.023187564547091245 0.986384376579351 -0.10920200465717046 0.010624461263273951 0.04617537792545134
0.15631513130469998 0.011129760559225096 0.047986242018081576 0.985654474021204 -0.11360359039185904 0.004330088027237183 0.02409372953502288 -0.003612760654166994 -0.015018022394362339
 0.985654474021204 -0.11360359039185904 0.011142148950772155 0.04798545883494778 -0.0036154458216616082 -0.01501774040251584 0.004244538654380625 0.024108492623364983
