! Created with skrf 1.8.0 (http://scikit-rf.org).
# GHz S RI R 50.0 
!freq ReS11 ImS11 ReS12 ImS12 ReS13 ImS13
! ReS14 ImS14
! ReS21 ImS21 ReS22 ImS22 ReS23 ImS23
! ReS24 ImS24
! ReS31 ImS31 ReS32 ImS32 ReS33 ImS33
! ReS34 ImS34
! ReS41 ImS41 ReS42 ImS42 ReS43 ImS43
! ReS44 ImS44
!
0.0 0.001733365049839 0.0 0.9982666349501 0.0 6.709150050405e-05 0.0 -6.709150050506e-05 8.216339134351477e-21
 0.9982666349501 0.0 0.001733365049862 0.0 -6.709150050415e-05 8.216339134240033e-21 6.709150050512e-05 0.0
 6.709150050405e-05 0.0 -6.709150050415e-05 8.216339134240033e-21 0.00173336503844 0.0 0.9982666349388 0.0
 -6.709150050506e-05 8.216339134351477e-21 6.709150050512e-05 0.0 0.9982666349388 0.0 0.001733365038508 0.0
0.005 0.0018655574782301392 0.0014190345014744893 0.9980993080706827 -0.0036302162456183567 9.40572738202693e-05 0.000729700217018505 -9.140268164449694e-05 -0.00045956363975938297
 0.9980993080706827 -0.0036302162456183567 0.0018655533825942378 0.0014190368164485384 -9.140328671680493e-05 -0.00045956402162324175 9.409605232622036e-05 0.0007296856398023945
 9.40572738202693e-05 0.000729700217018505 -9.140328671680493e-05 -0.00045956402162324175 0.0018655579632848708 0.001419101438132957 0.9980993084448841 -0.0036301491864410796
 -9.140268164449694e-05 -0.00045956363975938297 9.409605232622036e-05 0.0007296856398023945 0.9980993084448841 -0.0036301491864410796 0.001865553646698575 0.001419104001410413
0.006252605252188 0.0019004114124154747 0.0017793423865238949 0.998054887753771 -0.004538628011185575 0.00010184339378832235 0.0009124725823910262 -9.834603770178466e-05 -0.0005750355408064748
 0.998054887753771 -0.004538628011185575 0.0019004050103320499 0.0017793452666411476 -9.834697989515018e-05 -0.0005750360096962958 0.0001019039834246345 0.0009124536109335044
 0.00010184339378832235 0.0009124725823910262 -9.834697989515018e-05 -0.0005750360096962958 0.0019004121000376398 0.0017794260302680272 0.9980548882676615 -0.004538544208015716
 -9.834603770178466e-05 -0.0005750355408064748 0.0001019039834246345 0.0009124536109335044 0.9980548882676615 -0.004538544208015716 0.0019004053514491187 0.0017794292357995389
0.01250521050438 0.00208495981912467 0.003595624865034332 0.9978180242589583 -0.009077836833089289 0.00014692961485306512 0.0018252603229949457 -0.00013816753728151138 -0.0011527295194629743
 0.9978180242589583 -0.009077836833089289 0.0020849342601487737 0.003595630469537447 -0.00013817125826365577 -0.0011527303626330159 0.00014717129433630517 0.001825214251404228
 0.00014692961485306512 0.0018252603229949457 -0.00013817125826365577 -0.0011527303626330159 0.002084961991542557 0.00359579186482903 0.9978180257277859 -0.009077669456065265
 -0.00013816753728151138 -0.0011527295194629743 0.00014717129433630517 0.001825214251404228 0.9978180257277859 -0.009077669456065265 0.0020849350309196874 0.0035957982776538473
0.01875781575657 0.002287451094799754 0.0054373964192707454 0.9975557230518811 -0.013628627480663801 0.00020246142121665652 0.002738935882558202 -0.00018668598271669946 -0.0017322357858904742
 0.9975557230518811 -0.013628627480663801 0.002287393673106184 0.005437404560721591 -0.00018669429139632192 -0.0017322368852093367 0.00020300447145411642 0.0027388528906722937
 0.00020246142121665652 0.002738935882558202 -0.00018669429139632192 -0.0017322368852093367 0.0022874555751888925 0.005437646594057606 0.9975557259318804 -0.013628376662593297
 -0.00018668598271669946 -0.0017322357858904742 0.00020300447145411642 0.0027388528906722937 0.9975557259318804 -0.013628376662593297 0.0022873949683817857 0.005437656203729238
0.02501042100875 0.0025083107663187443 0.007302035043918952 0.9972676490474839 -0.01819315704309846 0.0002685509439828841 0.0036535058385153457 -0.0002440264058231389 -0.0023132662243884666
 0.9972676490474839 -0.01819315704309846 0.002508208803379318 0.007302045494924134 -0.00024404109272433883 -0.002313267436619905 0.0002695157678363717 0.0036533744542971563
 0.0002685509439828841 0.0036535058385153457 -0.00024404109272433883 -0.002313267436619905 0.002508318374003488 0.007302368268121441 0.9972676537796046 -0.018192822870952398
 -0.0002440264058231389 -0.0023132662243884666 0.0002695157678363717 0.0036533744542971563 0.9972676537796046 -0.018192822870952398 0.002508210695569862 0.007302381044257589
0.03126302626094 0.002747946709732744 0.009188167019761611 0.996953451521216 -0.022772319388254032 0.0003453101600385627 0.004568893070078685 -0.0003103097911235017 -0.0028956084428550448
 0.996953451521216 -0.022772319388254032 0.0027477875436554204 0.009188179510083782 -0.0003103326313755556 -0.002895609599377436 0.0003468173845489416 0.004568700156308745
 0.0003453101600385627 0.004568893070078685 -0.0003103326313755556 -0.002895609599377436 0.0027479582816707358 0.00918858318076381 0.9969534585531706 -0.02277190194525258
 -0.0003103097911235017 -0.0028956084428550448 0.0003468173845489416 0.004568700156308745 0.9969534585531706 -0.02277190194525258 0.0027477901049336342 0.009188599070748728
0.037515631513130004 0.003006757514104046 0.011094878164522893 0.9966127728283039 -0.027366533851486453 0.0004328498441974892 0.0054849868709337165 -0.00038565391114514513 -0.0034790756928158206
 0.9966127728283039 -0.027366533851486453 0.0030065284910797134 0.011094892379742708 -0.00038568666592854277 -0.0034790765995316 0.00043502036425563297 0.005484717606449248
 0.0004328498441974892 0.0054849868709337165 -0.00038568666592854277 -0.0034790765995316 0.003006773890918254 0.011095377160927546 0.9966127825997322 -0.027366033218581762
 -0.00038565391114514513 -0.0034790756928158206 0.00043502036425563297 0.005484717606449248 0.9966127825997322 -0.027366033218581762 0.003006531779719312 0.011095396088737743
0.043768236765320004 0.003285135677818967 0.013021473809430677 0.9962452519548541 -0.03197598518850187 0.0005312790563883938 0.006401658214699045 -0.0004701736084497911 -0.004063491633869123
 0.9962452519548541 -0.03197598518850187 0.0032848241446667282 0.013021489389474016 -0.0004702180256648616 -0.0040634920710881295 0.0005342340521989493 0.006401296073955559
 0.0005312790563883938 0.006401658214699045 -0.0004702180256648616 -0.0040634920710881295 0.003285157711048975 0.013022055550708306 0.9962452649051519 -0.03197540144426401
 -0.0004701736084497911 -0.004063491633869123 0.0005342340521989493 0.006401296073955559 0.9962452649051519 -0.03197540144426401 0.0032848282137390872 0.01302207741602042
0.050020842017509996 0.003583469087160218 0.01496737962118764 0.9958505263559347 -0.03660072268177781 0.0006407048213393477 0.007318766054850163 -0.0005639808760238211 -0.004648684066734933
 0.9958505263559347 -0.03660072268177781 0.003583062384349092 0.01496739615936784 -0.0005640386907577819 -0.004648683789103283 0.0006445657629078448 0.007318292786846536
 0.0006407048213393477 0.007318766054850163 -0.0005640386907577819 -0.004648683789103283 0.003583497637561903 0.014968044018406023 0.9958505429216217 -0.03660005591132279
 -0.0005639808760238211 -0.004648684066734933 0.0006445657629078448 0.007318292786846536 0.9958505429216217 -0.03660005591132279 0.003583067279947983 0.014968068696013373
0.055454545454549996 0.0038592342934284825 0.01667372127288514 0.9954851223778195 -0.04063214639545553 0.0007448110861717481 0.00811599876609392 -0.0006531297127058976 -0.0051577317324888895
 0.9954851223778195 -0.04063214639545553 0.0038587345942903938 0.016673738276759813 -0.0006532005695698351 -0.005157730614404358 0.000749558193061631 0.008115412746912081
 0.0007448110861717481 0.00811599876609392 -0.0006532005695698351 -0.005157730614404358 0.0038592692143096232 0.01667445743268642 0.9954851424385385 -0.04063140754360749
 -0.0006531297127058976 -0.0051577317324888895 0.000749558193061631 0.008115412746912081 0.9954851424385385 -0.04063140754360749 0.0038587402415522997 0.01667448443300387
0.056273447269699996 0.003902141753517022 0.01693209290217804 0.9954282330564302 -0.04124070877249003 0.0007612318879536054 0.008236160428578285 -0.0006671848532545813 -0.005234481867770344
 0.9954282330564302 -0.04124070877249003 0.003901627208497387 0.01693210994457469 -0.0006672577879487626 -0.0052344806042195595 0.0007661205315748072 0.008235556035461082
 0.0007612318879536054 0.008236160428578285 -0.0006672577879487626 -0.0052344806042195595 0.0039021776915331933 0.016932839870610682 0.9954282536718845 -0.04123995906452586
 -0.0006671848532545813 -0.005234481867770344 0.0007661205315748072 0.008235556035461082 0.9954282536718845 -0.04123995906452586 0.003901632971153263 0.016932867210094626
0.06252605252188 0.004241534189286337 0.01891515584360882 0.9949780093961946 -0.04589584574551659 0.0008929625324376303 0.009153684179209988 -0.0007798917750797415 -0.0058207133113116274
 0.9949780093961946 -0.04589584574551659 0.0042408991092953265 0.018915172888535208 -0.0007799815395480354 -0.0058207107649999945 0.0008990009109013984 0.009152926894924803
 0.0008929625324376303 0.009153684179209988 -0.0007799815395480354 -0.0058207107649999945 0.0042415783950965425 0.018915985301309408 0.9949780344935593 -0.045895013193389005
 -0.0007798917750797415 -0.0058207133113116274 0.0008990009109013984 0.009152926894924803 0.9949780344935593 -0.045895013193389005 0.00424090577482512 0.018916015126903166
0.06877865777407 0.004602023585569554 0.02091613956869968 0.994499493582659 -0.050565991631487325 0.0010359963836352522 0.01007117398629236 -0.000902204895314981 -0.006407205091611225
 0.994499493582659 -0.050565991631487325 0.004601255251706837 0.020916156066372746 -0.0009023131867696399 -0.006407200939865627 0.0010433067932594528 0.010070240255222308
 0.0010359963836352522 0.01007117398629236 -0.0009023131867696399 -0.006407200939865627 0.004602076948146079 0.02091705143786036 0.9944995235903541 -0.05056507633141985
 -0.000902204895314981 -0.006407205091611225 0.0010433067932594528 0.010070240255222308 0.9944995235903541 -0.05056507633141985 0.004601262850392072 0.020917083548499447
0.07503126302626001 0.00498398387193974 0.022934634034213048 0.9939923251292513 -0.055250970258607306 0.0011904302625468301 0.010988461034187796 -0.0010342243942199375 -0.006993781713771228
 0.9939923251292513 -0.055250970258607306 0.00498306953159154 0.02293464938683509 -0.0010343528970644643 -0.006993775608065637 0.0011991352469441436 0.010987325490013794
 0.0011904302625468301 0.010988461034187796 -0.0010343528970644643 -0.006993775608065637 0.004984047290161877 0.022935628235692583 0.9939923604733424 -0.05524997231481678
 -0.0010342243942199375 -0.006993781713771228 0.0011991352469441436 0.010987325490013794 0.9939923604733424 -0.05524997231481678 0.004983078090741309 0.022935662405333297
0.08128386827845 0.005387785702000904 0.024970241304277226 0.9934561452255809 -0.059950577941092945 0.0013563580297219924 0.011905371471571759 -0.0011760472761022612 -0.007580265101822711
 0.9934561452255809 -0.059950577941092945 0.005386712562881695 0.024970254866074845 -0.0011761976618377649 -0.007580256667728202 0.001366580361094519 0.011904006916295316
 0.0013563580297219924 0.011905371471571759 -0.0011761976618377649 -0.007580256667728202 0.005387860084191815 0.024971317761991785 0.9934561863288156 -0.059949497460964216
 -0.0011760472761022612 -0.007580265101822711 0.001366580361094519 0.011904006916295316 0.9934561863288156 -0.059949497460964216 0.005386722106383163 0.02497135374006071
0.08753647353064001 0.005813796389703201 0.02702257091916479 0.9928905970624151 -0.06466458808169319 0.0015338704389248855 0.012821726738627508 -0.001327767259094493 -0.008166474347323455
 0.9928905970624151 -0.06466458808169319 0.005812551612598339 0.02702258199685331 -0.0013279411861022246 -0.008166463184493404 0.001545733097725626 0.01282010412188014
 0.0015338704389248855 0.012821726738627508 -0.0013279411861022246 -0.008166463184493404 0.005813882653912516 0.027023729557773622 0.9928906443444282 -0.06466342517775905
 -0.001327767259094493 -0.008166474347323455 0.001545733097725626 0.01282010412188014 0.9928906443444282 -0.06466342517775905 0.005812562162040175 0.02702376706990437
0.09378907878283 0.0062623798112622225 0.029091236585973457 0.9922953261269922 -0.06939275446237875 0.0017230549941511179 0.013737343820111523 -0.0014894746606878148 -0.008752225540605795
 0.9922953261269922 -0.06939275446237875 0.00626095050352059 0.02909124443936565 -0.0014896737739872263 -0.008752211222748675 0.0017366811467946935 0.013735432218754532
 0.0017230549941511179 0.013737343820111523 -0.0014896737739872263 -0.008752211222748675 0.00626247888473247 0.029092477327525602 0.9922953800033999 -0.06939150925511478
 -0.0014894746606878148 -0.008752225540605795 0.0017366811467946935 0.013735432218754532 0.9922953800033999 -0.06939150925511478 0.0062609620782972586 0.0290925160765099
0.100041684035 0.006733896282078268 0.031175853757395112 0.9916699804765786 -0.0741348136566482 0.0019239958095872733 0.014652035441890938 -0.0016612562792634898 -0.009337331667190935
 0.9916699804765786 -0.0741348136566482 0.006732269489886314 0.031175857600352852 -0.0016614822101673216 -0.00933731374207638 0.0019395087850100682 0.014649802039948851
 0.0019239958095872733 0.014652035441890938 -0.0016614822101673216 -0.00933731374207638 0.006734009101630467 0.03117717652509397 0.9916700413600081 -0.07413348627051622
 -0.0016612562792634898 -0.009337331667190935 0.0019395087850100682 0.014649802039948851 0.9916700413600081 -0.07413348627051622 0.006732282109033909 0.03117721619196283
0.1059090909091 0.00719753955426408 0.033146210994201716 0.9910554962646255 -0.07859712043021413 0.0021233214742453358 0.015509364403977476 -0.001831691623940844 -0.009885635655534877
 0.9910554962646255 -0.07859712043021413 0.0071957156029284885 0.033146210318716604 -0.0018319441916197388 -0.009885613910973408 0.0021407173220352586 0.015506797477079157
 0.0021233214742453358 0.015509364403977476 -0.0018319441916197388 -0.009885613910973408 0.007197666133711112 0.03314761066392009 0.9910555640948892 -0.07859571604609593
 -0.001831691623940844 -0.009885635655534877 0.0021407173220352586 0.015506797477079157 0.9910555640948892 -0.07859571604609593 0.007195729218750762 0.03314765088387539
0.1062942892872 0.007228702415321403 0.033276037828952346 0.9910142109996711 -0.07889048683435365 0.0021367734714958482 0.015565610237225856 -0.0018431952732590527 -0.009921602543451497
 0.9910142109996711 -0.07889048683435365 0.007226865117801453 0.0332760368303567 -0.0018434496391972715 -0.00992158053290221 0.0021542967363577846 0.015563020306142837
 0.0021367734714958482 0.015565610237225856 -0.0018434496391972715 -0.00992158053290221 0.007228829927461321 0.03327744254529263 0.9910142792984683 -0.07888907739899303
 -0.0018431952732590527 -0.009921602543451497 0.0021542967363577846 0.015563020306142837 0.9910142792984683 -0.07888907739899303 0.007226878799611671 0.0332774827907235
0.11254689453939999 0.007747150967827674 0.03539140276282116 0.9903276716650373 -0.08365948115011279 0.0023614649019967756 0.016477872888135528 -0.0020353710384381995 -0.010504844786141828
 0.9903276716650373 -0.08365948115011279 0.007745090069360047 0.03539139604805681 -0.0020356554426081957 -0.010504818186017008 0.0023811220346444265 0.016474889767526143
 0.0023614649019967756 0.016477872888135528 -0.0020356554426081957 -0.010504818186017008 0.007747294128159735 0.03539288934830648 0.9903277477835595 -0.08365798980133866
 -0.0020353710384381995 -0.010504844786141828 0.0023811220346444265 0.016474889767526143 0.9903277477835595 -0.08365798980133866 0.007745104832301815 0.03539292981431004
0.11879949979160001 0.008289590673913019 0.0375215600234242 0.9896100197644647 -0.08844149083150422 0.0025981432238672006 0.017388624253366035 -0.0022378590840996947 -0.011086861804563178
 0.9896100197644647 -0.08844149083150422 0.008287292997032935 0.037521546675984965 -0.002238175115122665 -0.011086830084825465 0.0026200578873342762 0.017385209332061637
 0.0025981432238672006 0.017388624253366035 -0.002238175115122665 -0.011086830084825465 0.00828975044761147 0.037523128397995785 0.989610104102911 -0.08843991770932957
 -0.0022378590840996947 -0.011086861804563178 0.0026200578873342762 0.017385209332061637 0.989610104102911 -0.08843991770932957 0.008287308860735493 0.03752316870968364
0.1250521050438 0.008856366071255927 0.039666117753713905 0.9888609161494656 -0.09323619803755495 0.002846877626873979 0.018297661486067002 -0.002450730908304319 -0.011667453812418078
 0.9888609161494656 -0.09323619803755495 0.008853818349717145 0.03966609681703688 -0.0024510801399065256 -0.011667416417129449 0.0028711735409667244 0.01829377418367594
 0.002846877626873979 0.018297661486067002 -0.0024510801399065256 -0.011667416417129449 0.008856543432610641 0.03966776783423877 0.9888610091033636 -0.09323454328831897
 -0.002450730908304319 -0.011667453812418078 0.0028711735409667244 0.01829377418367594 0.9888610091033636 -0.09323454328831897 0.008853835335225591 0.03966780760199265
0.131304710296 0.009447817320186824 0.04182468011855604 0.9880800254634143 -0.09804327356180606 0.0031077332354432254 0.019204778145419113 -0.002674053872817285 -0.01224641785499984
 0.9880800254634143 -0.09804327356180606 0.0094450061914152 0.041824650598299075 -0.0026744378634474975 -0.012246374202367417 0.0031345341476806264 0.01920037589438039
 0.0031077332354432254 0.019204778145419113 -0.0026744378634474975 -0.012246374202367417 0.009448013252900775 0.041826411820556915 0.9880801274237869 -0.09804153733591803
 -0.002674053872817285 -0.01224641785499984 0.0031345341476806264 0.01920037589438039 0.9880801274237869 -0.09804153733591803 0.009445024322317582 0.041826450642430464
0.1375573155481 0.009935065834832738 0.04371653410185424 0.9873962954381028 -0.10258189930603599 0.0033494486697052224 0.020082649617903087 -0.002876540105760548 -0.012796480448413887
 0.9873962954381028 -0.10258189930603599 0.009931975568532253 0.04371649688160275 -0.0028769609472433086 -0.012796430429868466 0.0033788094359132287 0.020077735971134377
 0.0033494486697052224 0.020082649617903087 -0.0028769609472433086 -0.012796430429868466 0.009935280270934701 0.04371834790951056 0.9873964068015276 -0.10258008176638671
 -0.002876540105760548 -0.012796480448413887 0.0033788094359132287 0.020077735971134377 0.9873964068015276 -0.10258008176638671 0.00993199591975184 0.04371838617356856
0.1438099208003 0.010439656927209997 0.04559725727309338 0.9866881341018869 -0.10710782619697118 0.0036008816393559187 0.02095625920818404 -0.0030870735623940255 -0.013342592096737013
 0.9866881341018869 -0.10710782619697118 0.0104362736407225 0.04559721169110165 -0.003087532887741851 -0.013342535141755322 0.0036329136307132735 0.020950795056704632
 0.0036008816393559187 0.02095625920818404 -0.003087532887741851 -0.013342535141755322 0.010439890675551277 0.045599153179726605 0.9866882552523496 -0.10710592750680661
 -0.0030870735623940255 -0.013342592096737013 0.0036329136307132735 0.020950795056704632 0.9866882552523496 -0.10710592750680661 0.010436296430944054 0.04559919071115991
0.1500625260525 0.01096139511276497 0.04746665734336747 0.985955741810739 -0.11162090588658767 0.0038619336454389854 0.021825495378223696 -0.00330555770989948 -0.013884646852079423
 0.985955741810739 -0.11162090588658767 0.010957704814055648 0.047466602747426215 -0.0033060571440340207 -0.013884582367723795 0.0038967474689140863 0.021819440184748698
 0.0038619336454389854 0.021825495378223696 -0.0033060571440340207 -0.013884582367723795 0.01096164897949794 0.04746863534582353 0.9859558731276648 -0.11161892621388259
 -0.00330555770989948 -0.013884646852079423 0.0038967474689140863 0.021819440184748698 0.9859558731276648 -0.11161892621388259 0.010957730277356564 0.047468671994473265
0.15631513130469998 0.011500083304591307 0.04932454774683966 0.9851993201766491 -0.11612099134730981 0.004132504904279449 0.022690248763018322 -0.0035318947138214102 -0.014422541220205516
