! Created with skrf 1.8.0 (http://scikit-rf.org).
# GHz S RI R 50.0 
!freq ReS11 ImS11 ReS12 ImS12 ReS13 ImS13
! ReS14 ImS14
! ReS21 ImS21 ReS22 ImS22 ReS23 ImS23
! ReS24 ImS24
! ReS31 ImS31 ReS32 ImS32 ReS33 ImS33
! ReS34 ImS34
! ReS41 ImS41 ReS42 ImS42 ReS43 ImS43
! ReS44 ImS44
!
0.0 0.00170821778392 0.0 0.9982917822048 0.0 6.625018846519e-05 0.0 -6.625018802112e-05 8.113308070297493e-21
 0.9982917822048 0.0 0.001708217783878 0.0 -6.625018802018e-05 8.113308070182377e-21 6.625018846428e-05 0.0
 6.625018846519e-05 0.0 -6.625018802018e-05 8.113308070182377e-21 0.001708217788154 0.0 0.998291782209 0.0
 -6.625018802112e-05 8.113308070297493e-21 6.625018846428e-05 0.0 0.998291782209 0.0 0.001708217788153 0.0
0.005 0.0018384517822322873 0.0013954268252211422 0.9981269354208739 -0.003577746960569568 9.333770178788131e-05 0.0007395793186847573 -9.057930719325196e-05 -0.00046243559170535054
 0.9981269354208739 -0.003577746960569568 0.0018384466967454147 0.0013954297645914586 -9.057983973804452e-05 -0.00046243591858049734 9.336282414036488e-05 0.000739569625166237
 9.333770178788131e-05 0.0007395793186847573 -9.057983973804452e-05 -0.00046243591858049734 0.0018384515491667091 0.0013953596193803542 0.9981269350494703 -0.003577814028002477
 -9.057930719325196e-05 -0.00046243559170535054 9.336282414036488e-05 0.000739569625166237 0.9981269350494703 -0.003577814028002477 0.001838446189417282 0.0013953628359809171
0.006252605252188 0.0018727670061731002 0.0017497579333324291 0.9980832035719567 -0.004473034111505265 0.00010115331973159367 0.000924818346366612 -9.752170561394255e-05 -0.0005786348987273332
 0.9980832035719567 -0.004473034111505265 0.0018727590572766792 0.001749761693588067 -9.752253494137643e-05 -0.0005786352998794177 0.00010119256928315576 0.0009248057725439
 0.00010115331973159367 0.000924818346366612 -9.752253494137643e-05 -0.0005786352998794177 0.0018727667184010033 0.001749673936348996 0.9980832030673152 -0.00447311792855289
 -9.752170561394255e-05 -0.0005786348987273332 0.00010119256928315576 0.0009248057725439 0.9980832030673152 -0.00447311792855289 0.0018727583397737482 0.0017496780578726329
0.01250521050438 0.002054333741519199 0.0035359893938839383 0.9978501824919217 -0.008946697422884283 0.00014638041100695676 0.0018499001445724176 -0.00013730554517203978 -0.0011599781104072648
 0.9978501824919217 -0.008946697422884283 0.002054302011419701 0.00353599778945258 -0.0001373088213089592 -0.001159978829299127 0.0001465368783457807 0.0018498700197666122
 0.00014638041100695676 0.0018499001445724176 -0.0001373088213089592 -0.001159978829299127 0.002054333151705475 0.003535821577317149 0.9978501810267234 -0.008946864809715035
 -0.00013730554517203978 -0.0011599781104072648 0.0001465368783457807 0.0018498700197666122 0.9978501810267234 -0.008946864809715035 0.002054299688265975 0.0035358308502707932
0.01875781575657 0.002253347360662855 0.005347409299961586 0.9975924059177562 -0.013431840890936193 0.0002020418224939098 0.0027758505411710857 -0.0001857312234567755 -0.0017431549668901938
 0.9975924059177562 -0.013431840890936193 0.0022532760811313003 0.005347423279470881 -0.00018573854004220617 -0.001743155899327439 0.0002023931865059102 0.002775796812975141
 0.0002020418224939098 0.0027758505411710857 -0.00018573854004220617 -0.001743155899327439 0.0022533464825325246 0.005347157686445475 0.9975924030536034 -0.013432091752731265
 -0.0001857312234567755 -0.0017431549668901938 0.0002023931865059102 0.002775796812975141 0.9975924030536034 -0.013432091752731265 0.0022532712741248854 0.005347173234848903
0.02501042100875 0.0024702225657713007 0.007181437522701539 0.9973095476061576 -0.017930596161344677 0.0002682489740475983 0.003702684451616085 -0.00024292328500203776 -0.002327873120557019
 0.9973095476061576 -0.017930596161344677 0.0024700960132961183 0.0071814581045318085 -0.0002429362198434928 -0.002327874140189418 0.0002688728600266622 0.003702600032916325
 0.0002682489740475983 0.003702684451616085 -0.0002429362198434928 -0.002327874140189418 0.002470221413092928 0.007181102109616312 0.9973095428947739 -0.017930930426230493
 -0.00024292328500203776 -0.002327873120557019 0.0002688728600266622 0.003702600032916325 0.9973095428947739 -0.017930930426230493 0.002470087827141441 0.007181125148209677
0.03126302626094 0.0027053568510889106 0.009036724831596918 0.9970012659441998 -0.022443849602223096 0.00034511325903617 0.004630329718096887 -0.0003090022361316518 -0.0029139194525086196
 0.9970012659441998 -0.022443849602223096 0.0027051593387102226 0.009036753103575657 -0.00030902235373240675 -0.002913920410592741 0.0003460873064784961 0.004630206483718898
 0.00034511325903617 0.004630329718096887 -0.00030902235373240675 -0.002913920410592741 0.002705355451196637 0.009036305580441864 0.9970012589408105 -0.022444267231866943
 -0.0003090022361316518 -0.0029139194525086196 0.0003460873064784961 0.004630206483718898 0.9970012589408105 -0.022444267231866943 0.0027051468755935576 0.009036337414799901
0.037515631513130004 0.0029591386881411014 0.010912375225390113 0.9966672124728283 -0.026972019913900407 0.00043274496487853204 0.005558679379209994 -0.00038408541010956045 -0.003501107832255836
 0.9966672124728283 -0.026972019913900407 0.0029588545603931576 0.010912412344666314 -0.00038411426284848155 -0.003501108557553989 0.0004341468537918756 0.0055585081579785514
 0.00043274496487853204 0.005558679379209994 -0.00038411426284848155 -0.003501108557553989 0.0029591370779773704 0.01091187209291167 0.9966672027326535 -0.026972520872414387
 -0.00038408541010956045 -0.003501107832255836 0.0004341468537918756 0.0055585081579785514 0.9966672027326535 -0.026972520872414387 0.0029588369170059623 0.010911914119615953
0.043768236765320004 0.0032319506717126793 0.012807709308592685 0.9963070353722578 -0.031515294682221764 0.0005312527506431031 0.006487607584119879 -0.0004682872613767966 -0.0040892632303790415
 0.9963070353722578 -0.031515294682221764 0.0032315643002173333 0.012807756501927664 -0.000468326390062795 -0.004089263529075433 0.0005331602099635642 0.006487378149700775
 0.0005312527506431031 0.006487607584119879 -0.000468326390062795 -0.004089263529075433 0.003231948896386196 0.012807122240222733 0.9963070224496693 -0.031515878942820534
 -0.0004682872613767966 -0.0040892632303790415 0.0005331602099635642 0.006487378149700775 0.9963070224496693 -0.031515878942820534 0.003231540567605184 0.012807175947453706
0.050020842017509996 0.0035241709633987935 0.014722166501571616 0.9959203812491461 -0.03607372809801424 0.0006407433202659812 0.0074169761694207175 -0.0005617194575244643 -0.004678215171620476
 0.9959203812491461 -0.03607372809801424 0.003523666743891946 0.014722225065494182 -0.0005617703917543686 -0.004678214827259402 0.0006432341267387677 0.007416677230685164
 0.0006407433202659812 0.0074169761694207175 -0.0005617703917543686 -0.004678214827259402 0.0035241690782290298 0.014721495434505653 0.9959203646993573 -0.03607439563984566
 -0.0005617194575244643 -0.004678215171620476 0.0006432341267387677 0.007416677230685164 0.9959203646993573 -0.03607439563984566 0.0035236360100950933 0.014721562402608792
0.055454545454549996 0.0037941720813410907 0.01640103648408065 0.9955625896694597 -0.040047432873815604 0.0007448945321428574 0.008224869112544402 -0.0006504956695395695 -0.0051905477960921655
 0.9955625896694597 -0.040047432873815604 0.0037935527919262997 0.016401106036877403 -0.0006505580967133678 -0.005190546699486542 0.0007479554811531042 0.008224499768410732
 0.0007448945321428574 0.008224869112544402 -0.0006505580967133678 -0.005190546699486542 0.0037941701513976253 0.016400292362320663 0.9955625696054192 -0.04004817277720196
 -0.0006504956695395695 -0.0051905477960921655 0.0007479554811531042 0.008224499768410732 0.9955625696054192 -0.04004817277720196 0.0037935152297479194 0.016400372210058925
0.056273447269699996 0.003836174021347778 0.0166552570249017 0.9955068962128413 -0.04064728890518045 0.000761321183093853 0.008346637896356751 -0.0006644908798704013 -0.005267794532761761
 0.9955068962128413 -0.04064728890518045 0.003835536370327832 0.0166553283261896 -0.0006645551381168602 -0.00526779330619844 0.0007644731543063145 0.00834625708769807
 0.000761321183093853 0.008346637896356751 -0.0006645551381168602 -0.00526779330619844 0.0038361720889375154 0.01665450188902072 0.9955068755896879 -0.040648039712509826
 -0.0006644908798704013 -0.005267794532761761 0.0007644731543063145 0.00834625708769807 0.9955068755896879 -0.040648039712509826 0.003835497718628902 0.016654583791221034
0.06252605252188 0.004168330970188632 0.018606535536556126 0.9950662265986818 -0.04523588670189096 0.0008930884567799752 0.009276438236209836 -0.000776707578413376 -0.0058578317986098995
 0.9950662265986818 -0.04523588670189096 0.004167544322130026 0.01860662101272242 -0.0007767866680032578 -0.005857829427973431 0.0008969794404264078 0.009275962107926958
 0.0008930884567799752 0.009276438236209836 -0.0007767866680032578 -0.005857829427973431 0.004168329060972776 0.01860569625021778 0.9950662014552032 -0.04523672076832326
 -0.000776707578413376 -0.0058578317986098995 0.0008969794404264078 0.009275962107926958 0.9950662014552032 -0.04523672076832326 0.004167496832786173 0.01860579485333078
0.06877865777407 0.004521009779546547 0.02057558538813183 0.9945980195040035 -0.04983938762925682 0.001036144694577317 0.01020621645115204 -0.0008984726999506407 -0.006448156029396016
 0.9945980195040035 -0.04983938762925682 0.004520058584213118 0.02057568654811486 -0.0008985681170158672 -0.0064481522300488285 0.0010408525547912983 0.010205630460042057
 0.001036144694577317 0.01020621645115204 -0.0008985681170158672 -0.0064481522300488285 0.004521007971870002 0.020574661874656515 0.994597989392469 -0.04984030494128798
 -0.0008984726999506407 -0.006448156029396016 0.0010408525547912983 0.010205630460042057 0.994597989392469 -0.04984030494128798 0.004520001335224345 0.020574779040066934
0.07503126302626001 0.004894575327792976 0.022562008679176373 0.9941019232137966 -0.054457624269676735 0.0011905867269650491 0.011135806284249943 -0.001029886399676587 -0.007038594226344214
 0.9941019232137966 -0.054457624269676735 0.004893444047502432 0.022562127104036513 -0.001029999628991238 -0.007038588690858436 0.0011961893286363558 0.011135094784451923
 0.0011905867269650491 0.011135806284249943 -0.001029999628991238 -0.007038588690858436 0.004894573706431426 0.022561000840675204 0.9941018876848801 -0.054458624832942296
 -0.001029886399676587 -0.007038594226344214 0.0011961893286363558 0.011135094784451923 0.9941018876848801 -0.054458624832942296 0.004893376114391556 0.022561138525288762
0.08128386827845 0.005289389390947638 0.02456541961357996 0.9935775875566388 -0.05909040225142145 0.001356508511752314 0.012065036433884265 -0.0011710457425342506 -0.0076289709205223915
 0.9935775875566388 -0.05909040225142145 0.005288062498171678 0.02456555695739661 -0.0011711782573205912 -0.00762896331867111 0.001363083703189577 0.012064182668012739
 0.001356508511752314 0.012065036433884265 -0.0011711782573205912 -0.00762896331867111 0.005289388047334945 0.024564327357229514 0.9935775461598084 -0.059091486064390235
 -0.0011710457425342506 -0.0076289709205223915 0.001363083703189577 0.012064182668012739 0.9935775461598084 -0.059091486064390235 0.005287982955254816 0.024564487614500516
0.08753647353064001 0.0057058105849136335 0.0265854399441299 0.9930246642190868 -0.06373750477376593 0.0015340009900180573 0.012993730896077756 -0.0013220445973223078 -0.008219107901732518
 0.9930246642190868 -0.06373750477376593 0.005704272559784104 0.02658559793499884 -0.0013221978590399496 -0.008219097880472315 0.0015416265841569996 0.012992716986716443
 0.0015340009900180573 0.012993730896077756 -0.0013221978590399496 -0.008219097880472315 0.005705809616950417 0.02658426316660204 0.9930246165023188 -0.06373867184344527
 -0.0013220445973223078 -0.008219107901732518 0.0015416265841569996 0.012992716986716443 0.9930246165023188 -0.06373867184344527 0.005704180480919032 0.026584448147741187
0.09378907878283 0.006144194274254691 0.028621695693320737 0.9924428070289496 -0.06839869586511646 0.0017231519461884945 0.013921709219155387 -0.0014829735254585686 -0.008808824043199442
 0.9924428070289496 -0.06839869586511646 0.006142429601864232 0.028621876134484973 -0.0014831489835509203 -0.008808811226675902 0.0017319057006838234 0.013920516160685415
 0.0017231519461884945 0.013921709219155387 -0.0014831489835509203 -0.008808811226675902 0.00614419378551306 0.028620434288781586 0.9924427525383106 -0.06839994619898805
 -0.0014829735254585686 -0.008808824043199442 0.0017319057006838234 0.013920516160685415 0.9924427525383106 -0.06839994619898805 0.006142324060802622 0.028620646244077078
0.100041684035 0.00660489245624982 0.03067381478501379 0.9918316722200359 -0.07307372273980305 0.0019240458706750627 0.014848786707036552 -0.0016539196663240886 -0.009397935186053755
 0.9918316722200359 -0.07307372273980305 0.006602885624522162 0.030674019556101342 -0.0016541187579347677 -0.009397919175609625 0.0019340054670304258 0.014847394357944037
 0.0019240458706750627 0.014848786707036552 -0.0016541187579347677 -0.009397919175609625 0.006604892555522021 0.030672468639292783 0.9918316104995212 -0.07307505635184719
 -0.0016539196663240886 -0.009397935186053755 0.0019340054670304258 0.014847394357944037 0.9918316104995212 -0.07307505635184719 0.006602765695509023 0.03067270991941975
0.1059090909091 0.007057814107831094 0.03261360708901777 0.9912312554545717 -0.07747308473971458 0.0021233158661197087 0.015717763197367722 -0.0018235195508930703 -0.00995003649997367
 0.9912312554545717 -0.07747308473971458 0.007055565927492254 0.032613836469910555 -0.001823742115903569 -0.00995001710950757 0.002134477580651651 0.015716164498387614
 0.0021233158661197087 0.015717763197367722 -0.001823742115903569 -0.00995001710950757 0.007057814862576098 0.032612181314197124 0.9912311865330433 -0.07747449651516967
 -0.0018235195508930703 -0.00995003649997367 0.002134477580651651 0.015716164498387614 0.9912311865330433 -0.07747449651516967 0.007055431656493673 0.03261245234127107
0.1062942892872 0.007088253626786898 0.032741425247288104 0.9911909186808207 -0.07776231759363265 0.002136763824758036 0.015774774587302354 -0.001834966619823943 -0.009986254067579553
 0.9911909186808207 -0.07776231759363265 0.007085989123971016 0.032741656305702374 -0.0018351907695212189 -0.009986234441775358 0.00214800684650907 0.015773161662847403
 0.002136763824758036 0.015774774587302354 -0.0018351907695212189 -0.009986234441775358 0.0070882544281295895 0.03273999424134825 0.991190849272398 -0.07776373450081175
 -0.001834966619823943 -0.009986254067579553 0.00214800684650907 0.015773161662847403 0.991190849272398 -0.07776373450081175 0.00708585388287075 0.032740267298928497
0.11254689453939999 0.007594622634151855 0.03482415386149113 0.9905202081954293 -0.08246419896341455 0.002361383307120133 0.016699480152567572 -0.0020261943270407407 -0.010573590284895873
 0.9905202081954293 -0.08246419896341455 0.007592084946432636 0.03482441324391055 -0.0020264449464671708 -0.01057356659955866 0.002373987217262784 0.016697624217902426
 0.002361383307120133 0.016699480152567572 -0.0020264449464671708 -0.01057356659955866 0.007594624256228448 0.03482263787102612 0.9905201306387345 -0.08246569918614906
 -0.0020261943270407407 -0.010573590284895873 0.002373987217262784 0.016697624217902426 0.9905201306387345 -0.08246569918614906 0.007591933471261988 0.03482294526216222
0.11879949979160001 0.008124340521181685 0.03692162511043595 0.989819205675283 -0.08717907279762874 0.0025979781215859058 0.017622706889455702 -0.0022276789497767823 -0.011159750279887248
 0.989819205675283 -0.08717907279762874 0.008121514130203544 0.03692191493455386 -0.002227957437367869 -0.011159722068102385 0.0026120202391169533 0.01762058435326058
 0.0025979781215859058 0.017622706889455702 -0.002227957437367869 -0.011159722068102385 0.008124343086803031 0.036920024007364875 0.9898191195072683 -0.08718065635840012
 -0.0022276789497767823 -0.011159750279887248 0.0026120202391169533 0.01762058435326058 0.9898191195072683 -0.08718065635840012 0.008121345501695496 0.03692036839342036
0.1250521050438 0.008677744358786639 0.039033460363361874 0.9890875793862225 -0.09190663330140733 0.0028466182463007484 0.018544254594419583 -0.0024394927488493364 -0.0117445373462866
 0.9890875793862225 -0.09190663330140733 0.008674613739796036 0.039033782829564524 -0.0024398004895282493 -0.011744504118506633 0.002862175722399487 0.01854184070296729
 0.0028466182463007484 0.018544254594419583 -0.0024398004895282493 -0.011744504118506633 0.008677747994864314 0.03903177401381986 0.9890874841412276 -0.09190830022675169
 -0.0024394927488493364 -0.0117445373462866 0.002862175722399487 0.01854184070296729 0.9890874841412276 -0.09190830022675169 0.008674427042228507 0.03903215816324242
0.131304710296 0.009255167074396744 0.04115927722563321 0.9883250011717277 -0.09664656362725593 0.0031073697039224308 0.019463919483662096 -0.002661703962330013 -0.012327751651777229
 0.9883250011717277 -0.09664656362725593 0.009251716693557288 0.041159634619032846 -0.0026620423270661 -0.012327712895845116 0.0031245194972075872 0.019461188315467448
 0.0031073697039224308 0.019463919483662096 -0.0026620423270661 -0.012327712895845116 0.00925517191131256 0.04115750548880635 0.9883248963812686 -0.09664831394905489
 -0.002661703962330013 -0.012327751651777229 0.0031245194972075872 0.019461188315467448 0.9883248963812686 -0.09664831394905489 0.009251511015619999 0.041157932279055835
0.1375573155481 0.00973018030848702 0.04302174286538025 0.9876579655738728 -0.1011214261255333 0.003348909415251207 0.020354408656771166 -0.0028629798192170578 -0.012882141832117826
 0.9876579655738728 -0.1011214261255333 0.009726392412190726 0.04302212892742611 -0.0028633506233887596 -0.012882097458888419 0.0033676940125307027 0.020351362563727757
 0.003348909415251207 0.020354408656771166 -0.0028633506233887596 -0.012882097458888419 0.009730185409077037 0.04301988606931555 0.9876578508065046 -0.10112325981068347
 -0.0028629798192170578 -0.012882141832117826 0.0033676940125307027 0.020351362563727757 0.9876578508065046 -0.10112325981068347 0.00972616783881181 0.04302034878403317
0.1438099208003 0.010222073431836403 0.04487334742722354 0.9869671388709638 -0.10558388338781513 0.0036001714792607067 0.02124067317511997 -0.0030722668770900895 -0.013432634970967808
 0.9869671388709638 -0.10558388338781513 0.01021793210984506 0.0448737638825173 -0.0030726715519216836 -0.013432584480073916 0.0036206613478873264 0.021237288261108052
 0.0036001714792607067 0.02124067317511997 -0.0030726715519216836 -0.013432584480073916 0.010222078736150034 0.044871405478330594 0.9869670136624557 -0.10558580045683466
 -0.0030722668770900895 -0.013432634970967808 0.0036206613478873264 0.021237288261108052 0.9869670136624557 -0.10558580045683466 0.010217687915209418 0.044871906330663035
0.1500625260525 0.01073065737333516 0.04671390492539357 0.9862527149580443 -0.1100337927355254 0.0038610589502720933 0.022122602594894934 -0.0032894703285787194 -0.013979126577443596
 0.9862527149580443 -0.1100337927355254 0.010726146687947328 0.04671435359470232 -0.0032899102973771585 -0.013979069449220968 0.0038833239760567434 0.02211885411169801
 0.0038610589502720933 0.022122602594894934 -0.0032899102973771585 -0.013979069449220968 0.010730662811574972 0.04671187773096864 0.9862525788422195 -0.11003579320711655
 -0.0032894703285787194 -0.013979126577443596 0.0038833239760567434 0.02211885411169801 0.9862525788422195 -0.11003579320711655 0.01072588216239992 0.04671241904377929
0.15631513130469998 0.011255741525281375 0.04854323492226215 0.985514888931732 -0.11447101269701432 0.00413147362595641 0.02300008858390362 -0.0035144940941545457 -0.01452151456087738
 0.985514888931732 -0.11447101269701432 0.011250845511580627 0.04854371772413052 -0.0035149707721562145 -0.014521450256556356 0.004155583101246981 0.02299595094389387
