! Created with skrf 1.8.0 (http://scikit-rf.org).
# GHz S RI R 50.0 
!freq ReS11 ImS11 ReS12 ImS12 ReS13 ImS13
! ReS14 ImS14
! ReS21 ImS21 ReS22 ImS22 ReS23 ImS23
! ReS24 ImS24
! ReS31 ImS31 ReS32 ImS32 ReS33 ImS33
! ReS34 ImS34
! ReS41 ImS41 ReS42 ImS42 ReS43 ImS43
! ReS44 ImS44
!
0.0 0.001714870328822 0.0 0.9982851296696 0.0 6.650955537846e-05 0.0 -6.650955458933e-05 8.145071314053913e-21
 0.9982851296696 0.0 0.001714870328834 0.0 -6.650955458993e-05 8.145071314127393e-21 6.650955537735e-05 0.0
 6.650955537846e-05 0.0 -6.650955458993e-05 8.145071314127393e-21 0.001714870326426 0.0 0.9982851296672 0.0
 -6.650955458933e-05 8.145071314053913e-21 6.650955537735e-05 0.0 0.9982851296672 0.0 0.001714870326412 0.0
0.005 0.0018456249986323462 0.001401005780968403 0.9981196135874523 -0.0035916489192274683 9.371858377524974e-05 0.0007414945442651915 -9.092499027157329e-05 -0.0004638022101728227
 0.9981196135874523 -0.0035916489192274683 0.0018456313514746128 0.001401002103490769 -9.092741401486912e-05 -0.00046380410458890157 9.368751578601786e-05 0.0007415066667004371
 9.371858377524974e-05 0.0007414945442651915 -9.092741401486912e-05 -0.00046380410458890157 0.0018456232092931343 0.001400939591658391 0.9981196132151494 -0.003591715976445943
 -9.092499027157329e-05 -0.0004638022101728227 9.368751578601786e-05 0.0007415066667004371 0.9981196132151494 -0.003591715976445943 0.0018456323933811406 0.0014009341725551366
0.006252605252188 0.0018800819741479338 0.0017567520128555154 0.9980756953171714 -0.004490413762168684 0.00010158022599032026 0.0009272128116967264 -9.789445852714882e-05 -0.0005803443254966306
 0.9980756953171714 -0.004490413762168684 0.0018800919035292132 0.0017567472524225546 -9.789822979899593e-05 -0.0005803466614548624 0.0001015316890068595 0.0009272285134363946
 0.00010158022599032026 0.0009272128116967264 -9.789822979899593e-05 -0.0005803466614548624 0.001880079249165089 0.0017566692856862084 0.998075694807776 -0.00449049757735975
 -9.789445852714882e-05 -0.0005803443254966306 0.0001015316890068595 0.0009272285134363946 0.998075694807776 -0.00449049757735975 0.0018800936050952747 0.0017566623371186667
0.01250521050438 0.0020624253493405314 0.0035501091391409185 0.99784163040459 -0.008981447477732152 0.00014713040076784877 0.0018546832612997529 -0.00013784641375081752 -0.0011633999652169164
 0.99784163040459 -0.008981447477732152 0.002062464982545596 0.003550097958177892 -0.00013786127240818642 -0.00116340428300635 0.00014693696061636056 0.0018547206623440646
 0.00014713040076784877 0.0018546832612997529 -0.00013786127240818642 -0.00116340428300635 0.0020624150355469007 0.0035499439754243765 0.9978416289461015 -0.008981614847734295
 -0.00013784641375081752 -0.0011633999652169164 0.00014693696061636056 0.0018547206623440646 0.9978416289461015 -0.008981614847734295 0.0020624723576143484 0.0035499282779371875
0.01875781575657 0.0022623330599796983 0.005368741217335601 0.9975826196075668 -0.013483992543463842 0.00020327075360544616 0.0027830147981557467 -0.00018649577533185165 -0.001748290054676988
 0.9975826196075668 -0.013483992543463842 0.002262422089990832 0.005368721842484142 -0.0001865289051505821 -0.001748295925969849 0.0002028364831921339 0.0027830812301173334
 0.00020327075360544616 0.0027830147981557467 -0.0001865289051505821 -0.001748295925969849 0.002262310292608549 0.0053684937804685815 0.9975826167560674 -0.013484243338794394
 -0.00018649577533185165 -0.001748290054676988 0.0002028364831921339 0.0027830812301173334 0.9975826167560674 -0.013484243338794394 0.002262439096721418 0.005368467334422114
0.02501042100875 0.0024802228245869467 0.007210056690472027 0.9972983342619288 -0.01800018723114126 0.00027011327938546056 0.003712219950302197 -0.00024396785832933633 -0.0023347207140875475
 0.9972983342619288 -0.01800018723114126 0.0024803808841419605 0.00721002723614006 -0.00024402635491803406 -0.002334727629164318 0.00026934238778674667 0.0037123240206809864
 0.00027011327938546056 0.003712219950302197 -0.00024402635491803406 -0.002334727629164318 0.002480182742608008 0.007209727128026359 0.997298329580274 -0.018000521340250153
 -0.00024396785832933633 -0.0023347207140875475 0.00026934238778674667 0.0037123240206809864 0.997298329580274 -0.018000521340250153 0.0024804114824104706 0.007209687739025943
0.03126302626094 0.0027164950246386828 0.009072699580263159 0.9969884302711728 -0.022530919695487154 0.00034777000396743463 0.004642224025222959 -0.00031038389301587166 -0.002922477360285815
 0.9969884302711728 -0.022530919695487154 0.002716741693790129 0.009072658048500697 -0.00031047477843702934 -0.0029224847272094085 0.0003465667484412735 0.004642375619417343
 0.00034777000396743463 0.004642224025222959 -0.00031047477843702934 -0.0029224847272094085 0.0027164327628039506 0.009072288037941174 0.996988423324311 -0.022531337011200525
 -0.00031038389301587166 -0.002922477360285815 0.0003465667484412735 0.004642375619417343 0.996988423324311 -0.022531337011200525 0.0027167898413343983 0.009072233316214772
0.037515631513130004 0.002971540937129963 0.010955768853560038 0.9966525566808218 -0.027076608548813615 0.00043635185090583117 0.005572917444157054 -0.00038586189624942346 -0.0035113723972335837
 0.9966525566808218 -0.027076608548813615 0.0029718957481373403 0.010955713133709483 -0.0003859921264294489 -0.003511379541655896 0.0004346205021314319 0.0055731277336726615
 0.00043635185090583117 0.005572917444157054 -0.0003859921264294489 -0.003511379541655896 0.0029714516264582836 0.01095527548116539 0.996652547037927 -0.027077108962968468
 -0.00038586189624942346 -0.0035113723972335837 0.0004346205021314319 0.0055731277336726615 0.996652547037927 -0.027077108962968468 0.002971965403094799 0.01095520284025607
0.043768236765320004 0.0032457458885361196 0.012858580868594899 0.9962903591747675 -0.031637440345064126 0.0005359680938788844 0.006504171677808237 -0.000470516968464627 -0.004101229306631185
 0.9962903591747675 -0.031637440345064126 0.003246228330233513 0.012858508736880582 -0.0004706934376511805 -0.004101235471779915 0.0005336129240988001 0.0065044531302746724
 0.0005359680938788844 0.006504171677808237 -0.0004706934376511805 -0.004101235471779915 0.0032456246546421793 0.012858005832980782 0.996290346408871 -0.03163802373624876
 -0.000470516968464627 -0.004101229306631185 0.0005336129240988001 0.0065044531302746724 0.996290346408871 -0.03163802373624876 0.0032463234493553357 0.012857912488197603
0.050020842017509996 0.0035394907170223358 0.014780571198655022 0.9959014818844657 -0.03621346768555879 0.0006467260187380224 0.0074358458253251086 -0.0005644613837194583 -0.004691876099486373
 0.9959014818844657 -0.03621346768555879 0.003540120236680978 0.014780480317975941 -0.0005646909271184553 -0.004691880446204088 0.0006436513018142386 0.007436212215167137
 0.0006467260187380224 0.0074358458253251086 -0.0005646909271184553 -0.004691880446204088 0.003539332678860969 0.014779914675536928 0.9959014655728259 -0.03621413392809757
 -0.0005644613837194583 -0.004691876099486373 0.0006436513018142386 0.007436212215167137 0.9959014655728259 -0.03621413392809757 0.003540244775341839 0.014779797642433779
0.055454545454549996 0.003810925587928925 0.016466029724203062 0.9955415917331731 -0.04020249055368768 0.0007521080650370079 0.00824572358451993 -0.000653731085121965 -0.005205674995090252
 0.9955415917331731 -0.04020249055368768 0.00381169868670035 0.01646592056364755 -0.0006540122582021797 -0.0052056770161020205 0.0007483303056624742 0.00824617599706476
 0.0007521080650370079 0.00824572358451993 -0.0006540122582021797 -0.0052056770161020205 0.003810731596567925 0.016465302547050552 0.9955415720005829 -0.040203228680288444
 -0.000653731085121965 -0.005205674995090252 0.0007483303056624742 0.00824617599706476 0.9955415720005829 -0.040203228680288444 0.0038118520026039293 0.016465162347879446
0.056273447269699996 0.003853152498235084 0.01672124644712654 0.9954855684677241 -0.040804657337156304 0.0007687306736633085 0.008367789857746607 -0.000667804590855108 -0.0052831421089569825
 0.9954855684677241 -0.040804657337156304 0.00385394850491527 0.016721134366507812 -0.000668093986487778 -0.005283143715767437 0.0007648406930115865 0.00836825627695915
 0.0007687306736633085 0.008367789857746607 -0.000668093986487778 -0.005283143715767437 0.003852952767784395 0.016720508633894907 0.9954855481922703 -0.04080540628911371
 -0.000667804590855108 -0.0052831421089569825 0.0007648406930115865 0.00836825627695915 0.9954855481922703 -0.04080540628911371 0.0038541064163282878 0.016720364726509663
0.06252605252188 0.00418710491901661 0.01868015776836136 0.9950422628391796 -0.04541091665008254 0.0009020846661798224 0.009299846409367105 -0.000780653167289778 -0.005874856241807872
 0.9950422628391796 -0.04541091665008254 0.0041880867855136825 0.018680021922374536 -0.000781009137149673 -0.005874854105011954 0.0008972837272132292 0.009300429278203952
 0.0009020846661798224 0.009299846409367105 -0.000781009137149673 -0.005874854105011954 0.004186858601203489 0.018679338877322864 0.9950422381874549 -0.045411748160864344
 -0.000780653167289778 -0.005874856241807872 0.0008972837272132292 0.009300429278203952 0.9950422381874549 -0.045411748160864344 0.004188282020698776 0.018679164706215303
0.06877865777407 0.004541718457438629 0.020656885081360953 0.9945712097126242 -0.05003210928977266 0.001046887985644821 0.010231851855067928 -0.0009031107456050775 -0.006466845951020562
 0.9945712097126242 -0.05003210928977266 0.004542905522048159 0.020656722789606227 -0.0009035399563405511 -0.006466838984793678 0.0010410804319928302 0.010232568932555261
 0.001046887985644821 0.010231851855067928 -0.0009035399563405511 -0.006466838984793678 0.0045414206478581 0.020655985340217023 0.9945711802767192 -0.05003302320059772
 -0.0009031107456050775 -0.006466845951020562 0.0010410804319928302 0.010232568932555261 0.9945711802767192 -0.05003302320059772 0.0045431420278215775 0.020655777310573418
0.07503126302626001 0.004917360442036254 0.02265102706348049 0.9940720550280102 -0.05466806519677035 0.001203237840368073 0.011163637007277093 -0.0010352779241427342 -0.007058936596364298
 0.9940720550280102 -0.05466806519677035 0.004918772011192446 0.022650835529722784 -0.0010357869875833976 -0.007058923632874074 0.0011963280727651663 0.011164507401355446
 0.001203237840368073 0.011163637007277093 -0.0010357869875833976 -0.007058923632874074 0.00491700622782768 0.02265004672224749 0.9940720204062561 -0.05466906133462144
 -0.0010352779241427342 -0.007058936596364298 0.0011963280727651663 0.011164507401355446 0.9940720204062561 -0.05466906133462144 0.004919053730088703 0.022649801031660265
0.08128386827845 0.005314395042577467 0.024662194506272328 0.993544446314076 -0.05931858719268096 0.0013712285041853766 0.012095027590393728 -0.0011772521670961344 -0.007650951035302397
 0.993544446314076 -0.05931858719268096 0.0053160503922376826 0.024661970817655553 -0.0011778476404684312 -0.007650930824817126 0.0013631210011819763 0.012096071767767603
 0.0013712285041853766 0.012095027590393728 -0.0011778476404684312 -0.007650930824817126 0.0053139795017394355 0.024661133835242998 0.9935444061111462 -0.0593196653733015
 -0.0011772521670961344 -0.007650951035302397 0.0013631210011819763 0.012096071767767603 0.9935444061111462 -0.0593196653733015 0.0053163812614738385 0.024660846471690947
0.08753647353064001 0.00573318320886996 0.02669000571715978 0.99298803300381 -0.06398345554941001 0.001550951169502213 0.013025844582467826 -0.0013291276966205733 -0.008242709354776959
 0.99298803300381 -0.06398345554941001 0.00573510158669926 0.026689746843188637 -0.0013298160825895946 -0.008242680565810062 0.0015415505103164224 0.013027084377963318
 0.001550951169502213 0.013025844582467826 -0.0013298160825895946 -0.008242680565810062 0.005732701409717602 0.026688865008867226 0.9929879868310116 -0.06398461557638181
 -0.0013291276966205733 -0.008242709354776959 0.0015415505103164224 0.013027084377963318 0.9929879868310116 -0.06398461557638181 0.005735485537192543 0.026688531748149256
0.09378907878283 0.0061740825781347744 0.02873408325445479 0.9924024667221986 -0.068662431234339 0.001742493803845925 0.013955904476049497 -0.00149099538089657 -0.008834028692262859
 0.9924024667221986 -0.068662431234339 0.006176283204950433 0.028733786045972116 -0.0014917831274572353 -0.008833989911712078 0.0017317046923770753 0.01395736310153097
 0.001742493803845925 0.013955904476049497 -0.0014917831274572353 -0.008833989911712078 0.006173529578735898 0.028732862825614748 0.9924024141979008 -0.06866367289805388
 -0.00149099538089657 -0.008834028692262859 0.0017317046923770753 0.01395736310153097 0.9924024141979008 -0.06866367289805388 0.006176724160419478 0.028732479229067326
0.100041684035 0.0066374473565081644 0.0307940515288349 0.9917874015532773 -0.07335525829880954 0.0019459410103056616 0.014885019479732848 -0.0016629426174089364 -0.00942472312448803
 0.9917874015532773 -0.07335525829880954 0.006639949428326396 0.030793712716725728 -0.0016638361177800148 -0.009424672857789643 0.0019336683003834117 0.014886721532596002
 0.0019459410103056616 0.014885019479732848 -0.0016638361177800148 -0.009424672857789643 0.006636818205000319 0.030792751718555052 0.9917873423036747 -0.07335658137944341
 -0.0016629426174089364 -0.00942472312448803 0.0019336683003834117 0.014886721532596002 0.9917873423036747 -0.07335658137944341 0.006640451304303324 0.03079231313035248
0.1059090909091 0.007093010493459413 0.032741231207225954 0.9911830934557097 -0.077771335161451 0.0021477540030118607 0.015755865105681985 -0.0018335388073344842 -0.009978290485914343
 0.9911830934557097 -0.077771335161451 0.007095812877280002 0.03274085027331487 -0.0018345373118761302 -0.009978228008977977 0.002134002715774408 0.015757819201491222
 0.0021477540030118607 0.015755865105681985 -0.0018345373118761302 -0.009978228008977977 0.007092305367866544 0.03273985723741026 0.9911830275619791 -0.07777273443191204
 -0.0018335388073344842 -0.009978290485914343 0.002134002715774408 0.015757819201491222 0.9911830275619791 -0.07777273443191204 0.0070963754735337515 0.03273936261516994
0.1062942892872 0.007123628183810212 0.03286953501427182 0.9911424942929594 -0.07806166566723226 0.002161373889551488 0.015812997688902923 -0.0018450532143074482 -0.01001460359590187
 0.9911424942929594 -0.07806166566723226 0.007126450873347924 0.032869151208211864 -0.001846058806552581 -0.010014540267208619 0.0021475226115010067 0.01581496915991356
 0.002161373889551488 0.015812997688902923 -0.001846058806552581 -0.010014540267208619 0.007122917917342081 0.03286815618678376 0.9911424279520387 -0.07806306993304502
 -0.0018450532143074482 -0.01001460359590187 0.0021475226115010067 0.01581496915991356 0.9911424279520387 -0.07806306993304502 0.0071270175760820295 0.03286765773127111
0.11254689453939999 0.007632971983600752 0.03496015688639735 0.9904674046913622 -0.08278136850922191 0.0023888699039146272 0.0167396432296923 -0.0020374072695392843 -0.010603477882690235
 0.9904674046913622 -0.08278136850922191 0.007636134442148355 0.03495972457324599 -0.002038531236365323 -0.010603399835018838 0.0023733452919355532 0.0167419115103629
 0.0023888699039146272 0.0167396432296923 -0.002038531236365323 -0.010603399835018838 0.007632175628714963 0.0349586994326893 0.9904673309018261 -0.08278285371594533
 -0.0020374072695392843 -0.010603477882690235 0.0023733452919355532 0.0167419115103629 0.9904673309018261 -0.08278285371594533 0.0076367698674899235 0.03495813601155291
0.11879949979160001 0.00816582180413226 0.037065537971149545 0.9897617956886136 -0.08751406931177502 0.0026285027428293844 0.01766475638901386 -0.0022400810490227074 -0.011191150579672314
 0.9897617956886136 -0.08751406931177502 0.008169343162942664 0.03706505351347653 -0.002241329617146105 -0.011191056075171181 0.0026112102633061487 0.017667350278396683
 0.0026285027428293844 0.01766475638901386 -0.002241329617146105 -0.011191056075171181 0.00816493437589297 0.037064002309208116 0.9897617141022715 -0.08751563520375069
 -0.0022400810490227074 -0.011191150579672314 0.0026112102633061487 0.017667350278396683 0.9897617141022715 -0.08751563520375069 0.008170051195571862 0.03706336859842778
0.1250521050438 0.008722516649052985 0.039185295924593896 0.9890253336442509 -0.09225945873163606 0.0028803421897926184 0.01858813373210688 -0.0024531468633208504 -0.011777423109109548
 0.9890253336442509 -0.09225945873163606 0.00872641602098055 0.039184755558869834 -0.002454526203270853 -0.0117773103291769 0.002861187570461951 0.01859108344292702
 0.0028803421897926184 0.01858813373210688 -0.002454526203270853 -0.0117773103291769 0.008721533151459331 0.039183682499859276 0.9890252439224472 -0.0922611050423223
 -0.0024531468633208504 -0.011777423109109548 0.002861187570461951 0.01859108344292702 0.9890252439224472 -0.0922611050423223 0.00872720053308603 0.03918297294667024
0.131304710296 0.009303391303355328 0.04131904458129018 0.9882576885634575 -0.0970172162898684 0.0031444539903729553 0.019509568215931108 -0.002676672944603442 -0.012362093742683228
 0.9882576885634575 -0.0970172162898684 0.009307687784535919 0.04131844441600245 -0.0026781891700007093 -0.012361960788280713 0.0031233432502777055 0.01951290538011548
 0.0031444539903729553 0.019509568215931108 -0.0026781891700007093 -0.012361960788280713 0.009302306728622032 0.04131735386807666 0.9882575903770467 -0.09701894274177375
 -0.002676672944603442 -0.012362093742683228 0.0031233432502777055 0.01951290538011548 0.9882575903770467 -0.09701894274177375 0.009308552634496156 0.04131656268770365
0.1375573155481 0.009781369997506386 0.04318846906816315 0.9875860006033372 -0.10150893320239492 0.003389340630971512 0.02040174052845193 -0.002879186552759681 -0.012917853341141452
 0.9875860006033372 -0.10150893320239492 0.009786085538409288 0.04318782179173653 -0.0028808488702840767 -0.012917699909013385 0.003366216588044372 0.020405462584201672
 0.003389340630971512 0.02040174052845193 -0.0028808488702840767 -0.012917699909013385 0.009780180153970816 0.04318670133459835 0.9875858935870324 -0.10151073954297352
 -0.002879186552759681 -0.012917853341141452 0.003366216588044372 0.020405462584201672 0.9875858935870324 -0.10151073954297352 0.009787033821075077 0.043185839734494864
0.1438099208003 0.010276335250379317 0.04504695668951371 0.9868903444693156 -0.10598815909153107 0.003644088086961038 0.021289626472084367 -0.003089758273614724 -0.013469683100420357
 0.9868903444693156 -0.10598815909153107 0.010281489383210862 0.045046259616473946 -0.0030915732715786313 -0.013469507304484707 0.0036188638149739845 0.021293762691646116
 0.003644088086961038 0.021289626472084367 -0.0030915732715786313 -0.013469507304484707 0.010275035256782543 0.04504511237582301 0.9868902283026957 -0.10599004503070296
 -0.003089758273614724 -0.013469683100420357 0.0036188638149739845 0.021293762691646116 0.9868902283026957 -0.10599004503070296 0.010282524799427156 0.04504417576458771
0.1500625260525 0.010788096074708457 0.0468943197585015 0.9861709159769295 -0.11045474956817125 0.003908597779640331 0.022173113613490805 -0.0033082923249764013 -0.01401747757517479
 0.9861709159769295 -0.11045474956817125 0.010793708338185916 0.046893570065132936 -0.003310266574127292 -0.014017277453368577 0.0038811870549196248 0.022177694319490113
 0.003908597779640331 0.022173113613490805 -0.003310266574127292 -0.014017277453368577 0.01078668104672486 0.04689239932272456 0.9861707903489535 -0.11045671480543559
 -0.0033082923249764013 -0.01401747757517479 0.0038811870549196248 0.022177694319490113 0.9861707903489535 -0.11045671480543559 0.010794834566493742 0.04689138289314694
0.15631513130469998 0.011316459925150528 0.04873037618649445 0.9854279121619818 -0.11490856149118818 0.004182769844225126 0.023052091672734396 -0.003534691636466595 -0.014561133750733087
 0.9854279121619818 -0.11490856149118818 0.011322549864520946 0.04872957090926562 -0.0035368316897493703 -0.0145609072654406 0.004153087160570817 0.023057148222745526
