! Created with skrf 1.8.0 (http://scikit-rf.org).
# GHz S RI R 50.0 
!freq ReS11 ImS11 ReS12 ImS12 ReS13 ImS13
! ReS14 ImS14
! ReS21 ImS21 ReS22 ImS22 ReS23 ImS23
! ReS24 ImS24
! ReS31 ImS31 ReS32 ImS32 ReS33 ImS33
! ReS34 ImS34
! ReS41 ImS41 ReS42 ImS42 ReS43 ImS43
! ReS44 ImS44
!
0.0 0.001328592126229 0.0 0.9986714078423 0.0 5.100272156251e-05 0.0 -5.100271898518e-05 6.246031655301263e-21
 0.9986714078423 0.0 0.001328592126239 0.0 -5.100271898563e-05 6.246031655356372e-21 5.100272155975e-05 0.0
 5.100272156251e-05 0.0 -5.100271898563e-05 6.246031655356372e-21 0.001328592141883 0.0 0.9986714078579 0.0
 -5.100271898518e-05 6.246031655301263e-21 5.100272155975e-05 0.0 0.9986714078579 0.0 0.00132859214186 0.0
0.005 0.0014289392777720742 0.0010850755690587394 0.9985445392858966 -0.0027838689504777413 7.145783819393152e-05 0.0005751909622698446 -6.93832829214949e-05 -0.00035882405573277245
 0.9985445392858966 -0.0027838689504777413 0.0014289388593766046 0.0010850758680766579 -6.938430682407927e-05 -0.00035882488308911116 7.144739328113418e-05 0.0005751947943956429
 7.145783819393152e-05 0.0005751909622698446 -6.938430682407927e-05 -0.00035882488308911116 0.0014289388913054175 0.0010851430939700724 0.9985445396291598 -0.0027838018881856013
 -6.93832829214949e-05 -0.00035882405573277245 7.144739328113418e-05 0.0005751947943956429 0.9985445396291598 -0.0027838018881856013 0.0014289399301635527 0.0010851424665215108
0.006252605252188 0.0014550988473595902 0.0013606455193688857 0.9985112828724796 -0.00348054289146786 7.720874681514383e-05 0.0007192716269155771 -7.44997292992974e-05 -0.0004490064473393214
 0.9985112828724796 -0.00348054289146786 0.0014550981931983295 0.0013606459311364869 -7.450132227841238e-05 -0.00044900746860030945 7.719242577076903e-05 0.0007192766221225462
 7.720874681514383e-05 0.0007192716269155771 -7.450132227841238e-05 -0.00044900746860030945 0.0014550981601553993 0.0013607299228190406 0.9985112833263557 -0.003480459070135563
 -7.44997292992974e-05 -0.0004490064473393214 7.719242577076903e-05 0.0007192766221225462 0.9985112833263557 -0.003480459070135563 0.0014550997846233726 0.0013607291674025005
0.01250521050438 0.0015918858927733508 0.0027501114685600323 0.998336359285749 -0.0069620513832170045 0.00010969771547783926 0.0014389222622649617 -0.00010313760439305168 -0.0009003048103919932
 0.998336359285749 -0.0069620513832170045 0.0015918832753212644 0.0027501126889004804 -0.0001031438785988924 -0.0009003067130044084 0.00010963257618104401 0.0014389344291905232
 0.00010969771547783926 0.0014389222622649617 -0.0001031438785988924 -0.0009003067130044084 0.0015918825875067026 0.0027502800646748253 0.9983363605437717 -0.00696188399110973
 -0.00010313760439305168 -0.0009003048103919932 0.00010963257618104401 0.0014389344291905232 0.9983363605437717 -0.00696188399110973 0.0015918890809758536 0.0027502788474102016
0.01875781575657 0.0017392190908028116 0.004159678003636798 0.9981464431803021 -0.010453034952818406 0.00014853956749662337 0.0021594697485685225 -0.00013699766430785864 -0.0013532480121684193
 0.9981464431803021 -0.010453034952818406 0.0017392131979378348 0.004159680478540419 -0.00013701165142643401 -0.001353250634024232 0.00014839311102041565 0.0021594916168089524
 0.00014853956749662337 0.0021594697485685225 -0.00013701165142643401 -0.001353250634024232 0.0017392112345038747 0.004159930755691401 0.998146445591682 -0.010452784073206003
 -0.00013699766430785864 -0.0013532480121684193 0.00014839311102041565 0.0021594916168089524 0.998146445591682 -0.010452784073206003 0.001739225837649363 0.004159929381645945
0.02501042100875 0.0018973581515624566 0.005587401967333943 0.9979413339560002 -0.013955219486170583 0.00019380525907201869 0.002880969475919364 -0.0001761590588505658 -0.001807647603503722
 0.9979413339560002 -0.013955219486170583 0.0018973476681337057 0.005587406193867488 -0.00017618375319892218 -0.001807650757063579 0.0001935448973045551 0.002881003921181761
 0.00019380525907201869 0.002880969475919364 -0.00017618375319892218 -0.001807650757063579 0.0018973438068709337 0.005587738860284605 0.9979413378695206 -0.013954885186389356
 -0.0001761590588505658 -0.001807647603503722 0.0001935448973045551 0.002881003921181761 0.9979413378695206 -0.013954885186389356 0.0018973697620671443 0.005587737649715913
0.03126302626094 0.002066551858894303 0.00703230026377124 0.9977208196575151 -0.017469363870976466 0.00024556641748013256 0.0036034095766076177 -0.00022069899810737758 -0.002263378562698295
 0.9977208196575151 -0.017469363870976466 0.0020665354681375946 0.00703230679121657 -0.00022073736316726892 -0.0022633820346200477 0.00024515944578122644 0.0036034598244912707
 0.00024556641748013256 0.0036034095766076177 -0.00022073736316726892 -0.0022633820346200477 0.002066529077937164 0.007032721324740004 0.9977208254163201 -0.01746894618191933
 -0.00022069899810737758 -0.002263378562698295 0.00024515944578122644 0.0036034598244912707 0.9977208254163201 -0.01746894618191933 0.002066569632163676 0.007032720613961768
0.037515631513130004 0.002247043785583089 0.008493744714527657 0.99748468281821 -0.02099586508814224 0.0003038946581515446 0.004326751967652917 -0.0002706933398080525 -0.0027203382443186804
 0.99748468281821 -0.02099586508814224 0.002247020170229376 0.00849375414541322 -0.0002707483116226409 -0.002720341795331224 0.00030330824262703355 0.004326821598466699
 0.0003038946581515446 0.004326751967652917 -0.0002707483116226409 -0.002720341795331224 0.0022470106200003083 0.008494249982745294 0.9974846907706956 -0.02099536403435282
 -0.0002706933398080525 -0.0027203382443186804 0.00030330824262703355 0.004326821598466699 0.9974846907706956 -0.02099536403435282 0.002247069026396668 0.008494250124851587
0.043768236765320004 0.0024390745133440177 0.009971277875656017 0.9972327028095886 -0.024534942335741106 0.0003688612699097814 0.005050944846176774 -0.00032621681071524287 -0.003178433874011411
 0.9972327028095886 -0.024534942335741106 0.0024390423570218762 0.009971290866603024 -0.00032629129993879763 -0.003178437238894484 0.0003680624410820195 0.0050510378000840125
 0.0003688612699097814 0.005050944846176774 -0.00032629129993879763 -0.003178437238894484 0.0024390290077792253 0.009971867407726135 0.9972327133030857 -0.024534357930261343
 -0.00032621681071524287 -0.003178433874011411 0.0003680624410820195 0.0050510378000840125 0.9972327133030857 -0.024534357930261343 0.0024391085273103657 0.009971868772887598
0.050020842017509996 0.0026428826649068237 0.011464536935335421 0.9969646570046137 -0.02808671307028471 0.0004405370338149706 0.005775927843049901 -0.0003873430943776978 -0.003637577385593673
 0.9969646570046137 -0.02808671307028471 0.002642840653635499 0.011464554197889868 -0.0003874399876908284 -0.0036375802731633974 0.00043949268346827025 0.005776048425342051
 0.0004405370338149706 0.005775927843049901 -0.0003874399876908284 -0.0036375802731633974 0.0026428228591747027 0.01146521079694357 0.9969646703873642 -0.028086045322986967
 -0.0003873430943776978 -0.003637577385593673 0.00043949268346827025 0.005776048425342051 0.9969646703873642 -0.028086045322986967 0.0026429267616454397 0.01146521377282007
0.055454545454549996 0.00282974709029594 0.012774757327132801 0.9967184957818337 -0.03118366051194964 0.0005083285929603794 0.006406550245042303 -0.0004450703230371757 -0.004037371293366987
 0.9967184957818337 -0.03118366051194964 0.002829695450480582 0.012774778922962776 -0.00044518901257893217 -0.004037373509505364 0.0005070438806553578 0.006406698621260506
 0.0005083285929603794 0.006406550245042303 -0.00044518901257893217 -0.004037373509505364 0.0028296732609127346 0.012775504539835579 0.9967185119588675 -0.03118292033805364
 -0.0004450703230371757 -0.004037371293366987 0.0005070438806553578 0.006406698621260506 0.9967185119588675 -0.03118292033805364 0.002829801016434378 0.012775509244030326
0.056273447269699996 0.0028587054477899644 0.01297321633998137 0.9966803214546361 -0.031651230319389725 0.0005189920961191153 0.006501634536978873 -0.00045414486376831937 -0.004097682898957814
 0.9966803214546361 -0.031651230319389725 0.0028586522713228034 0.012973238641418165 -0.00045426702477625235 -0.004097684992083194 0.0005176689765048416 0.006501787423421922
 0.0005189920961191153 0.006501634536978873 -0.00045426702477625235 -0.004097684992083194 0.002858629376047739 0.012973974613222375 0.9966803380757971 -0.0316504792299085
 -0.00045414486376831937 -0.004097682898957814 0.0005176689765048416 0.006501787423421922 0.9966803380757971 -0.0316504792299085 0.0028587609417374694 0.012973979605160233
0.06252605252188 0.0030867789546371346 0.014497047271752075 0.99637947132542 -0.03522850314419049 0.0006042958719556293 0.007227993850531338 -0.000526693782415401 -0.0045586653176977075
 0.99637947132542 -0.03522850314419049 0.003086713308056805 0.014497075435785994 -0.0005268440523680554 -0.0045586662733152926 0.0006026605958779249 0.007228184092755543
 0.0006042958719556293 0.007227993850531338 -0.0005268440523680554 -0.0045586662733152926 0.003086684645298843 0.014497890053700082 0.9963794915347867 -0.03522766870330811
 -0.000526693782415401 -0.0045586653176977075 0.0006026605958779249 0.007228184092755543 0.9963794915347867 -0.03522766870330811 0.0030868471659758934 0.014497897484993607
0.06877865777407 0.0033273383305861565 0.01603578539405845 0.9960618812036733 -0.03881850883490702 0.0006965169648183058 0.007954930873073746 -0.0006050604881916885 -0.005020439501773075
 0.9960618812036733 -0.03881850883490702 0.003327258916083077 0.01603582030162025 -0.0006052416865221242 -0.00502043895091252 0.0006945360070686669 0.007955163903955705
 0.0006965169648183058 0.007954930873073746 -0.0006052416865221242 -0.00502043895091252 0.0033272238077179436 0.016036712788231385 0.996061905353083 -0.03881759103341544
 -0.0006050604881916885 -0.005020439501773075 0.0006945360070686669 0.007955163903955705 0.996061905353083 -0.03881759103341544 0.0033274205878398044 0.016036723100254363
0.07503126302626001 0.003580617866949838 0.017589203085439604 0.9957273253306012 -0.04242120062022958 0.0007957230945671615 0.008682367381177834 -0.000689314567801743 -0.005482919744780809
 0.9957273253306012 -0.04242120062022958 0.0035805233951689427 0.01758924567530625 -0.0006895294924545168 -0.005482917292581788 0.0007933627937380079 0.00868264902023474
 0.0007957230945671615 0.008682367381177834 -0.0006895294924545168 -0.005482917292581788 0.003580481148378439 0.01759021521165589 0.9957273537724686 -0.04242019943909839
 -0.000689314567801743 -0.005482919744780809 0.0007933627937380079 0.00868264902023474 0.9957273537724686 -0.04242019943909839 0.0035807155065356294 0.017590228864014228
0.08128386827845 0.0038468510422536035 0.019157084275088204 0.9953755777866361 -0.04603651277689881 0.0009019810310555821 0.009410222188729183 -0.0007795245240952113 -0.005946019423750791
 0.9953755777866361 -0.04603651277689881 0.0038467402340197554 0.019157135544504628 -0.0007797759518547007 -0.005946014649486482 0.000899207592110759 0.009410558647510753
 0.0009019810310555821 0.009410222188729183 -0.0007797759518547007 -0.005946014649486482 0.003846690141026011 0.019158181263746153 0.995375610875138 -0.04603542819317461
 -0.0007795245240952113 -0.005946019423750791 0.000899207592110759 0.009410558647510753 0.995375610875138 -0.04603542819317461 0.0038469654107912833 0.019158198734404767
0.08753647353064001 0.004126270534410178 0.02073922086535006 0.9950064126493988 -0.04966436415480218 0.0010153565326573764 0.01013841138441811 -0.0008757577375826031 -0.006409650763933698
 0.9950064126493988 -0.04966436415480218 0.0041261421227293035 0.020739281870661916 -0.0008760484242870234 -0.006409643221035489 0.0010121360298236415 0.010138809271863615
 0.0010153565326573764 0.01013841138441811 -0.0008760484242870234 -0.006409643221035489 0.004126083458677488 0.020740402859476408 0.9950064507408389 -0.049663196139722435
 -0.0008757577375826031 -0.006409650763933698 0.0010121360298236415 0.010138809271863615 0.9950064507408389 -0.049663196139722435 0.004126402990170939 0.02074042464479256
0.09378907878283 0.004419108210054144 0.022335410175423245 0.9946196041310502 -0.05330466068328296 0.0011359142850740887 0.010866848511200903 -0.000978080426416825 -0.006873724664030595
 0.9946196041310502 -0.05330466068328296 0.004418960941540359 0.022335482032608496 -0.0009784131071162217 -0.006873713880116995 0.0011322126651761198 0.010867314838997232
 0.0011359142850740887 0.010866848511200903 -0.0009784131071162217 -0.006873713880116995 0.004418892962763215 0.02233667733102836 0.9946196475832648 -0.05330340920208577
 -0.000978080426416825 -0.006873724664030595 0.0011322126651761198 0.010867314838997232 0.9946196475832648 -0.05330340920208577 0.004419260123576033 0.022336703945790706
0.100041684035 0.004725595097443693 0.02394545307223454 0.9942149267016096 -0.05695729719300609 0.0012637178438767444 0.011595444689084222 -0.0010865576016974605 -0.007338150580605828
 0.9942149267016096 -0.05695729719300609 0.004725427734114117 0.023945536957445793 -0.0010869349907583407 -0.007338136057508521 0.0012595009298643164 0.011595986877002636
 0.0012637178438767444 0.011595444689084222 -0.0010869349907583407 -0.007338136057508521 0.004725349676770262 0.02394680555454866 0.9942149758745448 -0.05695596220881713
 -0.0010865576016974605 -0.007338150580605828 0.0012595009298643164 0.011595986877002636 0.9942149758745448 -0.05695596220881713 0.004725767853246243 0.0239468375320158
0.1059090909091 0.005025819371068912 0.025468731734314486 0.9938187277045488 -0.060396030003715316 0.00139029348136118 0.01227921836901336 -0.0011940061754026456 -0.007774203199799554
 0.9938187277045488 -0.060396030003715316 0.0050256320405810085 0.02546882803026421 -0.001194427968875744 -0.007774184691850665 0.0013855618279693617 0.01227983885994635
 0.00139029348136118 0.01227921836901336 -0.001194427968875744 -0.007774184691850665 0.005025543811214125 0.025470164450836243 0.9938187825754163 -0.0603946166199577
 -0.0011940061754026456 -0.007774203199799554 0.0013855618279693617 0.01227983885994635 0.9938187825754163 -0.0603946166199577 0.005026012958224673 0.025470201962015163
0.1062942892872 0.005045961347840486 0.02556915254874498 0.993792155203203 -0.06062215879304238 0.0013988295762816455 0.012324108716186834 -0.0012012530223356533 -0.007802836436932439
 0.993792155203203 -0.06062215879304238 0.005045772669247916 0.025569249698777007 -0.0012016778135386225 -0.007802817650726402 0.0013940630712205107 0.012324734597344103
 0.0013988295762816455 0.012324108716186834 -0.0012016778135386225 -0.007802817650726402 0.005045683747440103 0.025570590538695242 0.9937922104594368 -0.060620740260619095
 -0.0012012530223356533 -0.007802836436932439 0.0013940630712205107 0.012324734597344103 0.9937922104594368 -0.060620740260619095 0.0050461563461078225 0.025570628430515746
0.11254689453939999 0.005380436189028949 0.0272063126541115 0.9933510649588512 -0.06429912189919255 0.0015413106047565668 0.01305274714751025 -0.001322229147317882 -0.008267688556688753
 0.9933510649588512 -0.06429912189919255 0.005380224994012283 0.027206424366821188 -0.001322704013918654 -0.008267664957717474 0.001535960095937338 0.013053464973644806
 0.0015413106047565668 0.01305274714751025 -0.001322704013918654 -0.008267664957717474 0.005380124397855663 0.027207836342621642 0.9933511266631513 -0.06429761977073206
 -0.001322229147317882 -0.008267688556688753 0.001535960095937338 0.013053464973644806 0.9933511266631513 -0.06429761977073206 0.005380654846468551 0.027207880718803975
0.11879949979160001 0.005729247870929019 0.028856737641188058 0.9928914318752079 -0.06798805504778306 0.0016912207503473732 0.013781264356432161 -0.0014495470873418488 -0.008732611617733256
 0.9928914318752079 -0.06798805504778306 0.005729012979254743 0.028856865275933397 -0.0014500746820264804 -0.008732582630651967 0.0016852517135873416 0.01378208280312309
 0.0016912207503473732 0.013781264356432161 -0.0014500746820264804 -0.008732582630651967 0.005728899873398044 0.028858347233676616 0.9928915003949703 -0.06798646926864947
 -0.0014495470873418488 -0.008732611617733256 0.0016852517135873416 0.01378208280312309 0.9928915003949703 -0.06798646926864947 0.005729491622453723 0.028858398682437312
0.1250521050438 0.006092623605620843 0.030520231307921905 0.9924130325420444 -0.07168881951882844 0.001848618476606294 0.014509562588255207 -0.0015832665548293047 -0.009197508616731435
 0.9924130325420444 -0.07168881951882844 0.006092363860299282 0.030520376285884134 -0.0015838495098005508 -0.009197473640531544 0.0018419962808744867 0.014510490760071158
 0.001848618476606294 0.014509562588255207 -0.0015838495098005508 -0.009197473640531544 0.006092237381937719 0.030521927021123905 0.9924131082475672 -0.07168715003086669
 -0.0015832665548293047 -0.009197508616731435 0.0018419962808744867 0.014510490760071158 0.9924131082475672 -0.07168715003086669 0.006092893905664866 0.030521986148803748
0.131304710296 0.0064707895033222695 0.03219659645356278 0.99191564432996 -0.07540126984765316 0.0020135608335285367 0.015237542006287037 -0.0017234458133546953 -0.009662280843953043
 0.99191564432996 -0.07540126984765316 0.006470503772425223 0.03219676025801898 -0.0017240867402784313 -0.009662239251996071 0.0020062507457925733 0.01523858944195885
 0.0020135608335285367 0.015237542006287037 -0.0017240867402784313 -0.009662239251996071 0.006470363029616461 0.032198378517702575 0.9919157275947534 -0.07539951658723512
 -0.0017234458133546953 -0.009662280843953043 0.0020062507457925733 0.01523858944195885 0.9919157275947534 -0.07539951658723512 0.006471087827532624 0.032198445948542626
0.1375573155481 0.006772260226190426 0.03366607962467249 0.9914907826581194 -0.07890562198634597 0.0021638636364099406 0.015942420927479408 -0.0018479144120794816 -0.010104151689597387
 0.9914907826581194 -0.07890562198634597 0.00677194845917872 0.03366625993302957 -0.001848617271852923 -0.010104103511263583 0.002155853416490647 0.01594358520331732
 0.0021638636364099406 0.015942420927479408 -0.001848617271852923 -0.010104103511263583 0.006771792205810657 0.03366794810855574 0.9914908738236159 -0.07890378494210627
 -0.0018479144120794816 -0.010104151689597387 0.002155853416490647 0.01594358520331732 0.9914908738236159 -0.07890378494210627 0.0067725884627539345 0.033668021072849684
0.1438099208003 0.007084158345802587 0.03512863409214377 0.9910513068906127 -0.08240192756178917 0.002320243532652833 0.01664498102108712 -0.0019773800917951036 -0.01054390283981543
 0.9910513068906127 -0.08240192756178917 0.00708381963857356 0.03512883204907198 -0.00197814770974397 -0.010543847464074817 0.002311502370260561 0.01664627070863679
 0.002320243532652833 0.01664498102108712 -0.00197814770974397 -0.010543847464074817 0.007083646881382794 0.03513058921404018 0.9910514063276278 -0.08240000667441333
 -0.0019773800917951036 -0.01054390283981543 0.002311502370260561 0.01664627070863679 0.9910514063276278 -0.08240000667441333 0.007084518071366482 0.03513066801873313
0.1500625260525 0.007406384788121741 0.036584162159471044 0.9905973193985824 -0.08589012491281464 0.002482653325165744 0.017345167972102886 -0.002111796994335882 -0.010981482248409015
 0.9905973193985824 -0.08589012491281464 0.007406018272036379 0.03658437895050454 -0.0021126321924197105 -0.010981419039636411 0.0024731505746982537 0.017346591949166386
 0.002482653325165744 0.017345167972102886 -0.0021126321924197105 -0.010981419039636411 0.007405827987182796 0.036586204142529465 0.9905974274804201 -0.08588812012385626
 -0.002111796994335882 -0.010981482248409015 0.0024731505746982537 0.017346591949166386 0.9905974274804201 -0.08588812012385626 0.007406777603075473 0.03658628910367078
0.15631513130469998 0.0077388399008046106 0.03803256921074733 0.990128922936408 -0.08937015211569185 0.00265104533511416 0.018042928259741464 -0.0022511187655958856 -0.011416838890174094
