! Created with skrf 1.8.0 (http://scikit-rf.org).
# GHz S RI R 50.0 
!freq ReS11 ImS11 ReS12 ImS12 ReS13 ImS13
! ReS14 ImS14
! ReS21 ImS21 ReS22 ImS22 ReS23 ImS23
! ReS24 ImS24
! ReS31 ImS31 ReS32 ImS32 ReS33 ImS33
! ReS34 ImS34
! ReS41 ImS41 ReS42 ImS42 ReS43 ImS43
! ReS44 ImS44
!
0.0 0.002029947389873 0.0 0.9979700526101 0.0 7.912665573879e-05 0.0 -7.912665618287e-05 9.690220622158487e-21
 0.9979700526101 0.0 0.002029947389863 0.0 -7.912665618304e-05 9.690220622179305e-21 7.91266557388e-05 0.0
 7.912665573879e-05 0.0 -7.912665618304e-05 9.690220622179305e-21 0.00202994736999 0.0 0.9979700525902 0.0
 -7.912665618287e-05 9.690220622158487e-21 7.91266557388e-05 0.0 0.9979700525902 0.0 0.002029947369969 0.0
0.005 0.0021858691202775622 0.0016584824372057032 0.9977724514281677 -0.004250382761454523 0.00011209644109895481 0.000874220032361772 -0.00010860672841643224 -0.0005479848084157863
 0.9977724514281677 -0.004250382761454523 0.0021859046409487097 0.001658461601403485 -0.00010860707120627959 -0.000547984978848273 0.00011187623950136017 0.0008743040783067106
 0.00011209644109895481 0.000874220032361772 -0.00010860707120627959 -0.000547984978848273 0.0021858698077574113 0.0016585492600325377 0.9977724518295344 -0.00425031570123497
 -0.00010860672841643224 -0.0005479848084157863 0.00011187623950136017 0.0008743040783067106 0.9977724518295344 -0.00425031570123497 0.0021859047522984924 0.0016585288973675445
0.006252605252188 0.002227308857031735 0.002079552141114374 0.9977195129589109 -0.0053139283476144735 0.00012184310150766465 0.0010931594009427014 -0.0001171845518373422 -0.0006856560134825151
 0.9977195129589109 -0.0053139283476144735 0.0022273643832540525 0.0020795256790641053 -0.00011718508596809156 -0.0006856562213490373 0.00012149906553341413 0.0010932686841332328
 0.00012184310150766465 0.0010931594009427014 -0.00011718508596809156 -0.0006856562213490373 0.0022273098547756125 0.0020796356529612747 0.9977195135089324 -0.0053138445291184685
 -0.0001171845518373422 -0.0006856560134825151 0.00012149906553341413 0.0010932686841332328 0.9977195135089324 -0.0053138445291184685 0.002227364479264726 0.0020796097999998043
0.01250521050438 0.0024486347737160746 0.0042018484595223535 0.9974344899281395 -0.010627961449808083 0.00017946403302945453 0.0021863672983435402 -0.00016721843170039864 -0.0013742622373239934
 0.9974344899281395 -0.010627961449808083 0.002448856508019915 0.004201791297485563 -0.00016722054530364598 -0.001374262593765716 0.00017809227088384764 0.0021866323457032134
 0.00017946403302945453 0.0021863672983435402 -0.00016722054530364598 -0.001374262593765716 0.0024486382036448223 0.004202015120505677 0.997434491561869 -0.010627794063397207
 -0.00016721843170039864 -0.0013742622373239934 0.00017809227088384764 0.0021866323457032134 0.997434491561869 -0.010627794063397207 0.002448856317546977 0.004201959364707315
0.01875781575657 0.002694519596139183 0.0063533845484550116 0.9971145515233555 -0.01595488854121924 0.0002521364454542591 0.003280255871168822 -0.00022940387695236786 -0.002064731760980082
 0.9971145515233555 -0.01595488854121924 0.0026950178845792975 0.0063532920619744915 -0.00022940860190423938 -0.0020647321882967555 0.0002490553722989879 0.0032807343090785752
 0.0002521364454542591 0.003280255871168822 -0.00022940860190423938 -0.0020647321882967555 0.002694526898518775 0.006353634123503348 0.9971145547746828 -0.01595463767303738
 -0.00022940387695236786 -0.002064731760980082 0.0002490553722989879 0.0032807343090785752 0.9971145547746828 -0.01595463767303738 0.0026950170139204985 0.006353544064925877
0.02501042100875 0.002965532614664 0.008530994200182914 0.9967592461796673 -0.0212971370384349 0.00034000897345445576 0.0043747652503628035 -0.00030390780048363485 -0.0027566570314374807
 0.9967592461796673 -0.0212971370384349 0.0029664176208555396 0.008530861416095426 -0.00030391615952146873 -0.0027566574327359396 0.0003345371351123974 0.0043755255698044605
 0.00034000897345445576 0.0043747652503628035 -0.00030391615952146873 -0.0027566574327359396 0.002965545232003833 0.008531326436541309 0.9967592515794369 -0.021296802755169722
 -0.00030390780048363485 -0.0027566570314374807 0.0003345371351123974 0.0043755255698044605 0.9967592515794369 -0.021296802755169722 0.002966415661685476 0.008531197363175862
0.03126302626094 0.0032622186256364965 0.010732970182440604 0.9963681041036689 -0.026655651828616095 0.0004432290211928518 0.005469731939173092 -0.0003908901502942988 -0.003449721401044324
 0.9963681041036689 -0.026655651828616095 0.0032636004020659224 0.010732791784755795 -0.00039090315823813517 -0.0034497216600860234 0.00043468453566225355 0.005470853562142268
 0.0004432290211928518 0.005469731939173092 -0.00039090315823813517 -0.0034497216600860234 0.0032622380033035755 0.010733384830793441 0.9963681121816949 -0.02665523415591508
 -0.0003908901502942988 -0.003449721401044324 0.00043468453566225355 0.005470853562142268 0.9963681121816949 -0.02665523415591508 0.0032635969329684843 0.010733211724906119
0.037515631513130004 0.003585108464754192 0.012958140443080817 0.9959406484476155 -0.0320308190546572 0.0005619410295377863 0.006564949994785991 -0.0004905050131525701 -0.004143638046344442
 0.9959406484476155 -0.0320308190546572 0.0035870970045244503 0.012957910774401433 -0.0004905236772527663 -0.004143638027455937 0.0005496413801429022 0.0065665233769822235
 0.0005619410295377863 0.006564949994785991 -0.0004905236772527663 -0.004143638027455937 0.003585136053806479 0.012958637213251393 0.9959406597371268 -0.032030318021005394
 -0.0004905050131525701 -0.004143638046344442 0.0005496413801429022 0.0065665233769822235 0.9959406597371268 -0.032030318021005394 0.0035870915961043587 0.012958414753230072
0.043768236765320004 0.003934723013081365 0.015205586989802707 0.995476399962891 -0.037422747212103986 0.0006962856166557026 0.007660189670093627 -0.0006029009435119371 -0.0048381314431006585
 0.995476399962891 -0.037422747212103986 0.003937428294477197 0.015205300050261881 -0.000602926263682088 -0.004838130991090015 0.0006795475962294127 0.007662316414249487
 0.0006962856166557026 0.007660189670093627 -0.000602926263682088 -0.004838130991090015 0.003934760266457768 0.015206165577187309 0.9954764149974931 -0.037422162821820606
 -0.0006029009435119371 -0.0048381314431006585 0.0006795475962294127 0.007662316414249487 0.9954764149974931 -0.037422162821820606 0.0039374205057532904 0.015205888137125072
0.050020842017509996 0.0043115749953841435 0.017474529770315283 0.9949748794524952 -0.042831383249625786 0.0008463990222570722 0.00875520515325977 -0.0007282210219638204 -0.005532929757765906
 0.9949748794524952 -0.042831383249625786 0.004315107021432013 0.017474179214798078 -0.0007282539906205346 -0.00553292869788352 0.0008245387583380567 0.008757998125895578
 0.0008463990222570722 0.00875520515325977 -0.0007282539906205346 -0.00553292869788352 0.004311623366809154 0.017475189833824206 0.9949748987671342 -0.04283071550462742
 -0.0007282210219638204 -0.005532929757765906 0.0008245387583380567 0.008757998125895578 0.9949748987671342 -0.04283071550462742 0.00431509640124318 0.017474851481029105
0.055454545454549996 0.004661583631060808 0.019463222999505 0.9945084024817105 -0.047545100283069845 0.0009897605399963533 0.00970642457502605 -0.0008477309208739409 -0.006136767094721308
 0.9945084024817105 -0.047545100283069845 0.00466592350695856 0.019462811735230907 -0.0008477713363552287 -0.006136765349436231 0.0009628930424746164 0.009709897018201036
 0.0009897605399963533 0.00970642457502605 -0.0008477713363552287 -0.006136765349436231 0.00466164284608271 0.019463953566558993 0.9945084259523402 -0.0475443600959617
 -0.0008477309208739409 -0.006136767094721308 0.0009628930424746164 0.009709897018201036 0.9945084259523402 -0.0475443600959617 0.004665910052984676 0.01946355721942879
0.056273447269699996 0.004716169837161043 0.019764269669505112 0.9944356092909316 -0.048256569563879366 0.0010124126875306501 0.009849738407190948 -0.0008666027915660138 -0.006227761154148341
 0.9944356092909316 -0.048256569563879366 0.004720638673607854 0.019763848803104656 -0.0008666443935119201 -0.006227759292041172 0.000984745717513508 0.009853321856009758
 0.0010124126875306501 0.009849738407190948 -0.0008666443935119201 -0.006227759292041172 0.004716230781631848 0.019765010836684076 0.9944356334231742 -0.048255818458108196
 -0.0008666027915660138 -0.006227761154148341 0.000984745717513508 0.009853321856009758 0.9944356334231742 -0.048255818458108196 0.004720624762060646 0.01976460532764137
0.06252605252188 0.005149006058501555 0.022074157216880157 0.9938581144869261 -0.05369807529902675 0.0011944529048733721 0.010943521312589518 -0.0010181781315191287 -0.006922351812562431
 0.9938581144869261 -0.05369807529902675 0.005154521870865256 0.02207365898877041 -0.0010182293436872202 -0.006922348934243493 0.0011602942843698552 0.010948030982960094
 0.0011944529048733721 0.010943521312589518 -0.0010182293436872202 -0.006922348934243493 0.005149081029871089 0.02207497908753514 0.9938581439765944 -0.053697240814459465
 -0.0010181781315191287 -0.006922351812562431 0.0011602942843698552 0.010948030982960094 0.9938581439765944 -0.053697240814459465 0.005154504198690114 0.022074499862182694
0.06877865777407 0.005610575408913886 0.02440357395256419 0.9932419234950126 -0.059155615004832976 0.0013926405049233383 0.012036276992037213 -0.0011830730971543195 -0.007616424784624363
 0.9932419234950126 -0.059155615004832976 0.0056172484985668085 0.024402990948308983 -0.0011831348883709015 -0.0076164206564566135 0.0013513049404419632 0.012041860241744022
 0.0013926405049233383 0.012036276992037213 -0.0011831348883709015 -0.0076164206564566135 0.005610665859847971 0.02440447608942072 0.9932419588851445 -0.059154697120568915
 -0.0011830730971543195 -0.007616424784624363 0.0013513049404419632 0.012041860241744022 0.9932419588851445 -0.059154697120568915 0.005617226588238935 0.02440391626377815
0.07503126302626001 0.00610136285378238 0.026751920634518395 0.9925865688831957 -0.06462886047231159 0.0016070905692567362 0.013127720682308153 -0.0013614077372684635 -0.008309699317203054
 0.9925865688831957 -0.06462886047231159 0.006109303693260294 0.026751245066772948 -0.0013614810678238625 -0.008309693685902014 0.0015578925691074983 0.013134536593861256
 0.0016070905692567362 0.013127720682308153 -0.0013614810678238625 -0.008309693685902014 0.0061014702336001665 0.02675290257104217 0.9925866107200633 -0.06462785915652268
 -0.0013614077372684635 -0.008309699317203054 0.0015578925691074983 0.013134536593861256 0.9925866107200633 -0.06462785915652268 0.00610927705935296 0.02675225492815108
0.08128386827845 0.006621846461372698 0.029118609433708354 0.9918915879085279 -0.07011744860136614 0.0018379121567056096 0.014217560361971537 -0.0015532958997284342 -0.009001890438754174
 0.9918915879085279 -0.07011744860136614 0.006631165730481517 0.029117833131067482 -0.0015533817211860336 -0.009001883031379783 0.0017801661969463706 0.014225779852005047
 0.0018379121567056096 0.014217560361971537 -0.0015533817211860336 -0.009001883031379783 0.006621972215891966 0.029119670668951148 0.9918916367421736 -0.07011636381605114
 -0.0015532958997284342 -0.009001890438754174 0.0017801661969463706 0.014225779852005047 0.9918916367421736 -0.07011636381605114 0.006631133879778216 0.029118927648235038
0.08753647353064001 0.0071724972284979436 0.031503058556521406 0.9911565230340672 -0.07562098686136638 0.0020852080418805674 0.015305497221738124 -0.0017588450279192593 -0.009692708720972767
 0.9911565230340672 -0.07562098686136638 0.007183305849472412 0.0315021729508639 -0.0017589442825893657 -0.009692699244975244 0.0020182287441961708 0.015315303147325396
 0.0020852080418805674 0.015305497221738124 -0.0017589442825893657 -0.009692699244975244 0.007172642797716941 0.03150419855361373 0.9911565794184478 -0.07561981856392233
 -0.0017588450279192593 -0.009692708720972767 0.0020182287441961708 0.015315303147325396 0.9911565794184478 -0.07561981856392233 0.007183268281585837 0.03150335223816812
0.09378907878283 0.0077537788609847 0.033904688436272874 0.9903809224059796 -0.08113905720437746 0.002349074461027988 0.016391226046651306 -0.001978155952193777 -0.010381860147054991
 0.9903809224059796 -0.08113905720437746 0.007766188033716954 0.03390368454828426 -0.0019782695728563517 -0.010381848290292617 0.0022721767811412635 0.016402813307963195
 0.002349074461027988 0.016391226046651306 -0.0019782695728563517 -0.010381848290292617 0.007753945679001345 0.03390590662574625 0.9903809868998887 -0.08113780534401764
 -0.001978155952193777 -0.010381860147054991 0.0022721767811412635 0.016402813307963195 0.9903809868998887 -0.08113780534401764 0.007766144242043936 0.03390494872822202
0.100041684035 0.008366147523085165 0.03632291897011316 0.9895643403022022 -0.08667121895476602 0.0026296008643665377 0.01747443553584526 -0.002211322678253495 -0.011069046061008054
 0.9895643403022022 -0.08667121895476602 0.008380268760872929 0.03632178739294759 -0.0022114515877536675 -0.011069031491813187 0.002542100289820616 0.017488011175008998
 0.0026296008643665377 0.01747443553584526 -0.0022114515877536675 -0.011069031491813187 0.008366337016195652 0.03632421474917178 0.9895644134694188 -0.0866698834731916
 -0.002211322678253495 -0.011069046061008054 0.002542100289820616 0.017488011175008998 0.9895644134694188 -0.0866698834731916 0.00838021823228746 0.036323136595565075
0.1059090909091 0.008969463368001288 0.03860675094926123 0.9887604011170945 -0.09187497148010094 0.0029080707284198045 0.01848833904445068 -0.002442804184731623 -0.011711839436719995
 0.9887604011170945 -0.09187497148010094 0.008985292926926295 0.03860549059727711 -0.0024429482711731745 -0.011711822003199403 0.002809998559147941 0.01850397976722695
 0.0029080707284198045 0.01848833904445068 -0.0024429482711731745 -0.011711822003199403 0.008969675428586947 0.03860811895720796 0.9887604829407044 -0.09187355747194097
 -0.002442804184731623 -0.011711839436719995 0.002809998559147941 0.01850397976722695 0.9887604829407044 -0.09187355747194097 0.008985235604837575 0.03860691970692703
0.1062942892872 0.009010051564919758 0.03875716748080994 0.9887063375616357 -0.09221701099626518 0.0029268696747701026 0.018554808584181987 -0.002458432173667019 -0.011753963173899006
 0.9887063375616357 -0.09221701099626518 0.009025996729147934 0.03875589836204915 -0.002458577284393407 -0.011753945541132176 0.002828082430063927 0.018570591880136017
 0.0029268696747701026 0.018554808584181987 -0.002458577284393407 -0.011753945541132176 0.009010265150388155 0.03875854021147946 0.988706419971047 -0.09221559182950295
 -0.002458432173667019 -0.011753963173899006 0.002828082430063927 0.018570591880136017 0.988706419971047 -0.09221559182950295 0.009025938944743331 0.03875733272315739
0.11254689453939999 0.0096859312323007 0.04120684718287172 0.9878064819975643 -0.09777595347771169 0.0032409560500720257 0.01963202254562605 -0.0027195641543840995 -0.012436303607355285
 0.9878064819975643 -0.09777595347771169 0.009703812567849015 0.04120543020446778 -0.0027197263679626803 -0.01243628254050384 0.0031301993099561902 0.019650245104618762
 0.0032409560500720257 0.01963202254562605 -0.0027197263679626803 -0.01243628254050384 0.00968617031755894 0.04120829619225901 0.9878065742241449 -0.09777445055588142
 -0.0027195641543840995 -0.012436303607355285 0.0031301993099561902 0.019650245104618762 0.9878065742241449 -0.09777445055588142 0.00970374700384877 0.041206949865990085
0.11879949979160001 0.010394218365291523 0.04367136602606813 0.986864348800101 -0.103347549164471 0.0035719276513092053 0.02070574947685531 -0.002994790871563188 -0.013115754975999764
 0.986864348800101 -0.103347549164471 0.01041414853539568 0.04366979038251398 -0.0029949710783873326 -0.013115730085244746 0.003448519760086771 0.020726655318442772
 0.0035719276513092053 0.02070574947685531 -0.0029949710783873326 -0.013115730085244746 0.010394484345744793 0.043672890607511686 0.9868644514246792 -0.10334596241073807
 -0.002994790871563188 -0.013115754975999764 0.003448519760086771 0.020726655318442772 0.9868644514246792 -0.10334596241073807 0.010414074662590166 0.04367139549358035
0.1250521050438 0.011135336085761364 0.04615012581318315 0.9858795209285998 -0.10893128453942513 0.003919844414556963 0.021775656377179226 -0.0032841769003041756 -0.013792000492629538
 0.9858795209285998 -0.10893128453942513 0.01115742820692769 0.04614838018755701 -0.003284375979096133 -0.013791971368985908 0.003783105112177217 0.021799502015544172
 0.003919844414556963 0.021775656377179226 -0.003284375979096133 -0.013791971368985908 0.011135630344538065 0.04615172522529561 0.9858796345387284 -0.10892961387106888
 -0.0032841769003041756 -0.013792000492629538 0.003783105112177217 0.021799502015544172 0.9858796345387284 -0.10892961387106888 0.011157345491989391 0.046150070903640254
0.131304710296 0.011909698480138245 0.04864252153123307 0.9848515894968508 -0.11452663071408895 0.004284758328432809 0.022841405421754536 -0.0035877789300193244 -0.014464719099446955
 0.9848515894968508 -0.11452663071408895 0.011934066156519834 0.0486405940694535 -0.003587997747422073 -0.014464685314894327 0.004134008981745917 0.02286845994205296
 0.004284758328432809 0.022841405421754536 -0.003587997747422073 -0.014464685314894327 0.011910022386128129 0.04864419499800446 0.9848517146871605 -0.11452487604259494
 -0.0035877789300193244 -0.014464719099446955 0.004134008981745917 0.02286845994205296 0.9848517146871605 -0.11452487604259494 0.01193397406211913 0.04864237055226836
0.1375573155481 0.01255850517283923 0.050824609618313095 0.9839394608111877 -0.11980946511565531 0.0046267593519925725 0.023873054411247888 -0.00386586766626872 -0.015103880567566515
 0.9839394608111877 -0.11980946511565531 0.01258526896581109 0.05082252588064849 -0.003866107285401033 -0.015103842008285831 0.004461658588665835 0.023903320036261277
 0.0046267593519925725 0.023873054411247888 -0.003866107285401033 -0.015103842008285831 0.01255885898008742 0.05082635707069519 0.9839395981084805 -0.11980762644590673
 -0.00386586766626872 -0.015103880567566515 0.004461658588665835 0.023903320036261277 0.9839395981084805 -0.11980762644590673 0.012585168197379322 0.05082438775617578
0.1438099208003 0.013230566048341557 0.052991492767555444 0.9829942507837357 -0.12507512668892418 0.004982401118595621 0.024898043573631554 -0.004154857644670268 -0.01573703558673024
 0.9829942507837357 -0.12507512668892418 0.0132598411470912 0.052989242618685685 -0.004155118950652005 -0.01573699183491185 0.004802333199531887 0.024931770423136792
 0.004982401118595621 0.024898043573631554 -0.004155118950652005 -0.01573699183491185 0.01323095090558244 0.05299331348931681 0.9829944007774225 -0.1250732039487031
 -0.004154857644670268 -0.01573703558673024 0.004802333199531887 0.024931770423136792 0.9829944007774225 -0.1250732039487031 0.013259731388665649 0.05299118998762642
0.1500625260525 0.01392557892793338 0.05514288117602222 0.9820162672997225 -0.1303233726723873 0.005351516713936887 0.0259161897055878 -0.004454588852093318 -0.01636401837582995
 0.9820162672997225 -0.1303233726723873 0.013957480983945291 0.05514045379273809 -0.004454872720876884 -0.016363968998328562 0.005155871275304798 0.025953637000494214
 0.005351516713936887 0.0259161897055878 -0.004454872720876884 -0.016363968998328562 0.013925995957487754 0.055144774430184215 0.9820164305841753 -0.13032136578561104
 -0.004454588852093318 -0.01636401837582995 0.005155871275304798 0.025953637000494214 0.9820164305841753 -0.13032136578561104 0.013957361931320503 0.05514248675900203
0.15631513130469998 0.01464323872045131 0.05727849393902842 0.9810058206572051 -0.13555396398829406 0.005733936797610991 0.0269273138343347 -0.004764898920498413 -0.016984667650104163
 0.9810058206572051 -0.13555396398829406 0.014677883857540923 0.05727587778545107 -0.004765206218716243 -0.016984612198720307 0.005522108954847455 0.026968749771281744
