! Created with skrf 1.8.0 (http://scikit-rf.org).
# GHz S RI R 50.0 
!freq ReS11 ImS11 ReS12 ImS12 ReS13 ImS13
! ReS14 ImS14
! ReS21 ImS21 ReS22 ImS22 ReS23 ImS23
! ReS24 ImS24
! ReS31 ImS31 ReS32 ImS32 ReS33 ImS33
! ReS34 ImS34
! ReS41 ImS41 ReS42 ImS42 ReS43 ImS43
! ReS44 ImS44
!
0.0 0.001719607850424 0.0 0.9982803921496 0.0 6.681626252855e-05 0.0 -6.681626297119e-05 8.182632257865565e-21
 0.9982803921496 0.0 0.001719607850397 0.0 -6.681626297214e-05 8.182632257981906e-21 6.681626252663e-05 0.0
 6.681626252855e-05 0.0 -6.681626297214e-05 8.182632257981906e-21 0.001719607844765 0.0 0.9982803921439 0.0
 -6.681626297119e-05 8.182632257865565e-21 6.681626252663e-05 0.0 0.9982803921439 0.0 0.001719607844682 0.0
0.005 0.0018507752507382082 0.0014026235699362499 0.9981143535471303 -0.003601745736689875 9.444893320123558e-05 0.0007579395473012195 -9.159740383945294e-05 -0.0004718275105923785
 0.9981143535471303 -0.003601745736689875 0.0018507606376900942 0.001402632155716603 -9.160246241832966e-05 -0.000471831385844253 9.452428605326099e-05 0.0007579108477310303
 9.444893320123558e-05 0.0007579395473012195 -9.160246241832966e-05 -0.000471831385844253 0.0018507730675568015 0.0014026921491283302 0.9981143539212071 -0.003601678679803923
 -9.159740383945294e-05 -0.0004718275105923785 9.452428605326099e-05 0.0007579108477310303 0.9981143539212071 -0.003601678679803923 0.001850763564754332 0.0014026976878640303
0.006252605252188 0.001885349606792481 0.0017587900048008968 0.9980702872305832 -0.0045030372325430305 0.00010242478612319626 0.0009477712127440566 -9.867634762385567e-05 -0.0005903888218455658
 0.9980702872305832 -0.0045030372325430305 0.0018853267632078612 0.0017588008773230007 -9.86842192047303e-05 -0.0005903935986130915 0.00010254251728772491 0.0009477339248736805
 0.00010242478612319626 0.0009477712127440566 -9.86842192047303e-05 -0.0005903935986130915 0.0018853461179464447 0.001758875730418854 0.9980702877396564 -0.00450295341232296
 -9.867634762385567e-05 -0.0005903888218455658 0.00010254251728772491 0.0009477339248736805 0.9980702877396564 -0.00450295341232296 0.001885331263587755 0.0017588827863692566
0.01250521050438 0.002068363667963199 0.0035542994970976095 0.9978353797973613 -0.009006698619580993 0.00014859468457940545 0.001895765348575158 -0.0001392829550180195 -0.001183544419695558
 0.9978353797973613 -0.009006698619580993 0.0020682724440842064 0.0035543226800400524 -0.000139313976297057 -0.001183553228907194 0.0001490641585319064 0.0018956754165599928
 0.00014859468457940545 0.001895765348575158 -0.000139313976297057 -0.001183553228907194 0.002068349171899445 0.0035544707419120033 0.9978353812718855 -0.009006531225359595
 -0.0001392829550180195 -0.001183544419695558 0.0001490641585319064 0.0018956754165599928 0.9978353812718855 -0.009006531225359595 0.0020682898591103537 0.003554486166211656
0.01875781575657 0.0022690852057246284 0.005375161453039181 0.997575352622946 -0.01352190678157958 0.00020543906591757754 0.0028446148344197226 -0.0001887692498074104 -0.0017785559403111473
 0.997575352622946 -0.01352190678157958 0.0022688802039029315 0.005375198558218207 -0.00018883842742636197 -0.0017785678786535488 0.00020649366025626695 0.002844453647196669
 0.00020543906591757754 0.0028446148344197226 -0.00018883842742636197 -0.0017785678786535488 0.002269052192590779 0.005375418217255275 0.9975753555094937 -0.013521655901187887
 -0.0001887692498074104 -0.0017785559403111473 0.00020649366025626695 0.002844453647196669 0.9975753555094937 -0.013521655901187887 0.0022689189143187253 0.005375443353128596
0.02501042100875 0.0024879343820479465 0.007218774214200349 0.9972898750575566 -0.018050804302949076 0.0002730719422479739 0.003794336903580538 -0.0002472631127484166 -0.002375119516575799
 0.9972898750575566 -0.018050804302949076 0.002487570281980404 0.007218827010113568 -0.00024738527250852473 -0.002375133506834524 0.00027494509239064306 0.0037940826933451784
 0.0002730719422479739 0.003794336903580538 -0.00024738527250852473 -0.002375133506834524 0.0024878753564815588 0.007219116581088693 0.9972898798103865 -0.01805046998547827
 -0.0002472631127484166 -0.002375119516575799 0.00027494509239064306 0.0037940826933451784 0.9972898798103865 -0.01805046998547827 0.0024876386628128492 0.007219152792726234
0.03126302626094 0.0027253139078031543 0.009083775437896737 0.9969786009848919 -0.022594279757169832 0.00035160722009254053 0.004744858063767385 -0.00031488817323833485 -0.0029730138994698637
 0.9969786009848919 -0.022594279757169832 0.0027247454404805394 0.009083845847506062 -0.00031507799013344483 -0.002973028688791389 0.00035453262799002355 0.004744485886537876
 0.00035160722009254053 0.004744858063767385 -0.00031507799013344483 -0.002973028688791389 0.002725221374707932 0.009084203564859648 0.9969786080563174 -0.02259386202204337
 -0.00031488817323833485 -0.0029730138994698637 0.00035453262799002355 0.004744485886537876 0.9969786080563174 -0.02259386202204337 0.0027248518543599347 0.009084252234495226
0.037515631513130004 0.0029816172996572805 0.010969259089673885 0.9966411774313164 -0.02715275065569893 0.00044115760550975596 0.005696068585795388 -0.00039176472587962676 -0.0035720460050223607
 0.9966411774313164 -0.02715275065569893 0.0029807992299122456 0.010969349189888998 -0.00039203673930904683 -0.003572060164429226 0.00044536932803764114 0.00569555028971619
 0.00044115760550975596 0.005696068585795388 -0.00039203673930904683 -0.003572060164429226 0.0029814837652523433 0.010969773178133965 0.9966411872749609 -0.027152249523208688
 -0.00039176472587962676 -0.0035720460050223607 0.00044536932803764114 0.00569555028971619 0.9966411872749609 -0.027152249523208688 0.002980952031331131 0.010969835704258918
0.043768236765320004 0.003257232058184325 0.01287453711012333 0.9962772480956669 -0.031726401712508165 0.0005418340740979117 0.006647839100053483 -0.00047801004125921166 -0.004172034348951924
 0.9962772480956669 -0.031726401712508165 0.0032561191709769943 0.012874649132198554 -0.00047837866385185907 -0.004172046273208242 0.0005475665610162677 0.006647143289985695
 0.0005418340740979117 0.006647839100053483 -0.00047837866385185907 -0.004172046273208242 0.0032570500287102035 0.012875137438263027 0.9962772611667596 -0.03172581717174323
 -0.00047801004125921166 -0.004172034348951924 0.0005475665610162677 0.006647143289985695 0.9962772611667596 -0.03172581717174323 0.0032563267068189323 0.012875215234219294
0.050020842017509996 0.0035525411259531656 0.014799040980448068 0.9958864551615354 -0.03631528320922405 0.0006537455401417651 0.007600027447144055 -0.0005737384625402291 -0.004772802229944681
 0.9958864551615354 -0.03631528320922405 0.00355108821460481 0.014799177310980939 -0.0005742179857428653 -0.004772810137575771 0.0006612336440095816 0.007599119447779034
 0.0006537455401417651 0.007600027447144055 -0.0005742179857428653 -0.004772810137575771 0.0035523031065296745 0.014799727874844409 0.9958864719162842 -0.03631461524728365
 -0.0005737384625402291 -0.004772802229944681 0.0006612336440095816 0.007599119447779034 0.9958864719162842 -0.03631461524728365 0.0035513588233385142 0.014799822367773203
0.055454545454549996 0.0038254623717552364 0.016486719395893214 0.9955247495007388 -0.04031550303054532 0.0007602070440418203 0.008427729786004309 -0.0006647174114251905 -0.005295384687779955
 0.9955247495007388 -0.04031550303054532 0.0038236772536319155 0.016486878911037995 -0.0006653048254981396 -0.005295387521225122 0.0007694118695667178 0.008426606651393215
 0.0007602070440418203 0.008427729786004309 -0.0006653048254981396 -0.005295387521225122 0.0038251696079768163 0.016487481829417974 0.9955247698297373 -0.04031476255399314
 -0.0006647174114251905 -0.005295384687779955 0.0007694118695667178 0.008426606651393215 0.9955247698297373 -0.04031476255399314 0.00382400944119686 0.016487592001745956
0.056273447269699996 0.0038679236182610063 0.01674227336921112 0.9954684403863959 -0.040919359283193305 0.0007769986097963501 0.008552482056095672 -0.0006790614092188461 -0.005374174390644103
 0.9954684403863959 -0.040919359283193305 0.0038660854730178116 0.0167424365514454 -0.0006796660067293472 -0.0053741763239891415 0.0007864775797345347 0.008551323874502787
 0.0007769986097963501 0.008552482056095672 -0.0006796660067293472 -0.0053741763239891415 0.003867622113021411 0.016743047215753305 0.9954684612840905 -0.04091860787504647
 -0.0006790614092188461 -0.005374174390644103 0.0007864775797345347 0.008551323874502787 0.9954684612840905 -0.04091860787504647 0.00386642748611905 0.016743159845918728
0.06252605252188 0.00420375519664976 0.018703781580566944 0.9950228458395088 -0.045538534419541 0.0009116973808730727 0.009505043809289397 -0.0007940873291143535 -0.0059759751984134165
 0.9950228458395088 -0.045538534419541 0.004201486594676788 0.018703974316215944 -0.0007948310592589758 -0.005975969023733037 0.0009234028450869432 0.009503594097334363
 0.0009116973808730727 0.009505043809289397 -0.0007948310592589758 -0.005975969023733037 0.00420338270878381 0.018704642823426678 0.9950228713422951 -0.04553769952997726
 -0.0007940873291143535 -0.0059759751984134165 0.0009234028450869432 0.009503594097334363 0.9950228713422951 -0.04553769952997726 0.004201908335825905 0.01870477504388935
0.06877865777407 0.004560408245523439 0.020683141712304554 0.9945493144469033 -0.050172669240845874 0.001057943264031385 0.0104575471660628 -0.0009189216251066876 -0.006578027574622218
 0.9945493144469033 -0.050172669240845874 0.004557663940828004 0.020683366863651312 -0.0009198184321696932 -0.00657801098222097 0.0010721112048139188 0.010455761182977408
 0.001057943264031385 0.0104575471660628 -0.0009198184321696932 -0.00657801098222097 0.0045599572760849924 0.020684090851776665 0.9945493450197499 -0.05017175082757652
 -0.0009189216251066876 -0.006578027574622218 0.0010721112048139188 0.010455761182977408 0.9945493450197499 -0.05017175082757652 0.004558173725119426 0.020684244128387694
0.07503126302626001 0.004938251932751098 0.02267994862909034 0.9940474904250318 -0.054821590489532786 0.0012158348203174588 0.01140982088464894 -0.0010536665629550532 -0.007180152333256591
 0.9940474904250318 -0.054821590489532786 0.004934986646289103 0.02268020922148158 -0.00105473027800711 -0.007180122837637006 0.001232701542601908 0.011407650459956873
 0.0012158348203174588 0.01140982088464894 -0.00105473027800711 -0.007180122837637006 0.00493771498100208 0.02268098622966091 0.9940475265364864 -0.05482058849601362
 -0.0010536665629550532 -0.007180152333256591 0.001232701542601908 0.011407650459956873 0.9940475265364864 -0.05482058849601362 0.004935592779760646 0.022681162041407375
0.08128386827845 0.00533765219566255 0.024693809296414907 0.9935170196454512 -0.05948509765826823 0.001385467605843697 0.012361688521295343 -0.0011984211694154611 -0.007782167750441717
 0.9935170196454512 -0.05948509765826823 0.005333820605691924 0.02469410852119327 -0.001199665510603194 -0.007782122690481643 0.0014052697014288059 0.012359082018098145
 0.001385467605843697 0.012361688521295343 -0.001199665510603194 -0.007782122690481643 0.005337021759113332 0.024694935977644286 0.993517061768229 -0.05948401202384371
 -0.0011984211694154611 -0.007782167750441717 0.0014052697014288059 0.012359082018098145 0.993517061768229 -0.05948401202384371 0.005334531384933269 0.024695135817345164
0.08753647353064001 0.005758971679259281 0.026724338168198854 0.9929575499553729 -0.06416296757587726 0.0015669340234687765 0.013312968782469072 -0.001353281121673906 -0.00838388928918994
 0.9929575499553729 -0.06416296757587726 0.005754528412265099 0.02672467938591686 -0.0013547196942503778 -0.008383825828333757 0.0015899083314821773 0.013309871061290257
 0.0015669340234687765 0.013312968782469072 -0.0013547196942503778 -0.008383825828333757 0.005758240253761568 0.026725554611882866 0.992957598566262 -0.06416179822951754
 -0.001353281121673906 -0.00838388928918994 0.0015899083314821773 0.013309871061290257 0.992957598566262 -0.06416179822951754 0.005755352123169314 0.02672577998731841
0.09378907878283 0.0062025696408618625 0.02877115391249448 0.9923687314683961 -0.0688549576646473 0.0017603231781159903 0.014263475796711837 -0.0015183386320785119 -0.008985129412993237
 0.9923687314683961 -0.0688549576646473 0.006197469261304234 0.02877154065663715 -0.0015199849280250405 -0.008985044539488453 0.0017867067420086265 0.014259828180026584
 0.0017603231781159903 0.014263475796711837 -0.0015199849280250405 -0.008985044539488453 0.0062017297205811586 0.02877246086234663 0.9923687870491762 -0.06885370452644367
 -0.0015183386320785119 -0.008985129412993237 0.0017867067420086265 0.014259828180026584 0.9923687870491762 -0.06885370452644367 0.0061984141787026995 0.028772713297734908
0.100041684035 0.006668801828943485 0.030833877006863346 0.9917502168349733 -0.07356080833825207 0.0019657207346251418 0.015213019326619902 -0.0016936823290613682 -0.00958569746824304
 0.9917502168349733 -0.07356080833825207 0.006662998830429518 0.030834312987812872 -0.0016955497265668208 -0.009585587995389567 0.0019957507566070024 0.015208759563948624
 0.0019657207346251418 0.015213019326619902 -0.0016955497265668208 -0.009585587995389567 0.0066678459060916665 0.030835275270742705 0.9917502798724073 -0.07355947131806248
 -0.0016936823290613682 -0.00958569746824304 0.0019957507566070024 0.015208759563948624 0.9917502798724073 -0.07355947131806248 0.006664073216611823 0.030835556308543875
0.1059090909091 0.007127210566607263 0.03278365336167701 0.9911424911696022 -0.07798911152791063 0.0021694592339522962 0.01610301579887394 -0.0018676546628214133 -0.010148483019975115
 0.9911424911696022 -0.07798911152791063 0.007120706775563034 0.0327841390822966 -0.0018697416059947891 -0.01014834740937943 0.002203126902060514 0.01609812177330097
 0.0021694592339522962 0.01610301579887394 -0.0018697416059947891 -0.01014834740937943 0.007126138958192778 0.03278513810280699 0.9911425616519184 -0.07798769570650019
 -0.0018676546628214133 -0.010148483019975115 0.002203126902060514 0.01609812177330097 0.9911425616519184 -0.07798769570650019 0.007121910157256476 0.032785447402065314
0.1062942892872 0.0071580203450993555 0.03291212795028592 0.9911016614981544 -0.07828024479299545 0.0021832087781014265 0.016161404943546256 -0.0018793971351421823 -0.010185399612713619
 0.9911016614981544 -0.07828024479299545 0.00715146914061432 0.032912617059909055 -0.0018814988978802618 -0.01018526217914464 0.0022171225709906863 0.016156467177377207
 0.0021832087781014265 0.016161404943546256 -0.0018814988978802618 -0.01018526217914464 0.007156940910574887 0.03291361839717265 0.9911017324845743 -0.07827882379468727
 -0.0018793971351421823 -0.010185399612713619 0.0022171225709906863 0.016156467177377207 0.9911017324845743 -0.07827882379468727 0.007152681244809889 0.032913929600416524
0.11254689453939999 0.007670573492333076 0.03500552589194464 0.9904227239399415 -0.08301297839325913 0.0024128656759479414 0.017108434178881513 -0.002075564143080709 -0.010784038776753874
 0.9904227239399415 -0.08301297839325913 0.007663228404961358 0.03500607220832897 -0.002077913419317072 -0.010783869846751453 0.002450900612791488 0.017102748911372635
 0.0024128656759479414 0.017108434178881513 -0.002077913419317072 -0.010783869846751453 0.007669363035710314 0.03500710945618963 0.990422803373561 -0.08301147331144122
 -0.002075564143080709 -0.010784038776753874 0.002450900612791488 0.017102748911372635 0.990422803373561 -0.08301147331144122 0.007664586462027711 0.03500745241115183
0.11879949979160001 0.00820680561230453 0.03711368758337634 0.9897130659187968 -0.08775870774401037 0.002654765941056138 0.018053904657251086 -0.0022822604907464772 -0.011381414651750231
 0.9897130659187968 -0.08775870774401037 0.008198620865614832 0.03711429537629976 -0.0022848703123522266 -0.011381210515596343 0.0026971594028032913 0.01804739871775858
 0.002654765941056138 0.018053904657251086 -0.0022848703123522266 -0.011381210515596343 0.00820545662200899 0.037115365265343286 0.9897131543044678 -0.0877571184645871
 -0.0022822604907464772 -0.011381414651750231 0.0026971594028032913 0.01804739871775858 0.9897131543044678 -0.0877571184645871 0.008200133095135115 0.037115741584714576
0.1250521050438 0.008767056914425066 0.03923622655439516 0.9889723527035489 -0.0925171195511425 0.002908980096621385 0.018997610221181807 -0.0024995592350538437 -0.01197732369660804
 0.9889723527035489 -0.0925171195511425 0.008757986623520111 0.039236900290903105 -0.002502442516428864 -0.011977080470936602 0.002955969417921042 0.018990206734694693
 0.002908980096621385 0.018997610221181807 -0.002502442516428864 -0.011977080470936602 0.00876556187837421 0.03923799942223861 0.9889724505526224 -0.09251544595058311
 -0.0024995592350538437 -0.01197732369660804 0.002955969417921042 0.018990206734694693 0.9889724505526224 -0.09251544595058311 0.008759661228363268 0.03923841074866268
0.131304710296 0.009351663298754295 0.041372752466171676 0.9882002533007433 -0.09728788931559063 0.003175574542096518 0.019939341045847853 -0.0027275292255321184 -0.012571559163619479
 0.9882002533007433 -0.09728788931559063 0.00934166146030765 0.041373496816893576 -0.0027306987623158265 -0.012571272791855017 0.0032273969552260094 0.019930959402424966
 0.003175574542096518 0.019939341045847853 -0.0027306987623158265 -0.012571272791855017 0.009350014703974254 0.041374621653690796 0.9882003611318517 -0.09728613126430666
 -0.0027275292255321184 -0.012571559163619479 0.0032273969552260094 0.019930959402424966 0.9882003611318517 -0.09728613126430666 0.009343506625517577 0.04137506966381894
0.1375573155481 0.009833098398372972 0.04324402525426413 0.9875243614144038 -0.10179166685132623 0.003422532223863198 0.02085150602904071 -0.002934098761097589 -0.013136600859512002
 0.9875243614144038 -0.10179166685132623 0.00982211705651152 0.043244832564975334 -0.002937573598859454 -0.013136270681206558 0.0034793058977327846 0.020842152977426743
 0.003422532223863198 0.02085150602904071 -0.002937573598859454 -0.013136270681206558 0.009831289362463805 0.04324599205336362 0.9875244796841599 -0.10178982430955999
 -0.002934098761097589 -0.013136600859512002 0.0034793058977327846 0.020842152977426743 0.9875244796841599 -0.10178982430955999 0.009824140449948213 0.04324646594301689
0.1438099208003 0.010331648329068492 0.045104276854851987 0.9868243458811587 -0.10628286115758113 0.0036794248913878127 0.02175933189036875 -0.003148889317873607 -0.013697625298738966
 0.9868243458811587 -0.10628286115758113 0.010319641058833139 0.04510515118133396 -0.0031526832063957463 -0.013697247291079217 0.0037413654427144883 0.021748933185394642
 0.0036794248913878127 0.02175933189036875 -0.0031526832063957463 -0.013697247291079217 0.010329671450441268 0.04510634244609838 0.9868244751051398 -0.10628093400625636
 -0.003148889317873607 -0.013697625298738966 0.0037413654427144883 0.021748933185394642 0.9868244751051398 -0.10628093400625636 0.010321850751079985 0.045106843170675454
0.1500625260525 0.010847120035510971 0.046953317471841616 0.9861004047210433 -0.11076132580767503 0.003946152429358184 0.022662705033119058 -0.003371802639037426 -0.014254524385768646
 0.9861004047210433 -0.11076132580767503 0.01083404029676706 0.04695426310106297 -0.0033759292891804983 -0.014254094364120217 0.004013474009385286 0.02265118371302647
 0.003946152429358184 0.022662705033119058 -0.0033759292891804983 -0.014254094364120217 0.01084496791881928 0.0469554830865165 0.9861005454205031 -0.11075931392310491
 -0.003371802639037426 -0.014254524385768646 0.004013474009385286 0.02265118371302647 0.9861005454205031 -0.11075931392310491 0.010836444336590687 0.046956011704300894
0.15631513130469998 0.011379318875304256 0.048790962971639915 0.9853527372040771 -0.11522691567099397 0.00422261341482248 0.023561514054098658 -0.0036027391398644284 -0.014807192530419153
 0.9853527372040771 -0.11522691567099397 0.011365120009750276 0.04879198442726356 -0.00360721222273673 -0.014806706149179148 0.004295528684734407 0.023548790471479304
