! Created with skrf 1.8.0 (http://scikit-rf.org).
# GHz S RI R 50.0 
!freq ReS11 ImS11 ReS12 ImS12 ReS13 ImS13
! ReS14 ImS14
! ReS21 ImS21 ReS22 ImS22 ReS23 ImS23
! ReS24 ImS24
! ReS31 ImS31 ReS32 ImS32 ReS33 ImS33
! ReS34 ImS34
! ReS41 ImS41 ReS42 ImS42 ReS43 ImS43
! ReS44 ImS44
!
0.0 0.002008842059942 0.0 0.9979911579401 0.0 7.849097788305e-05 0.0 -7.849097806153e-05 9.612372504499784e-21
 0.9979911579401 0.0 0.002008842059925 0.0 -7.849097806059e-05 9.612372504384667e-21 7.849097788376e-05 0.0
 7.849097788305e-05 0.0 -7.849097806059e-05 9.612372504384667e-21 0.002008842041452 0.0 0.9979911579216 0.0
 -7.849097806153e-05 9.612372504499784e-21 7.849097788376e-05 0.0 0.9979911579216 0.0 0.002008842041477 0.0
0.005 0.002163143459067773 0.0016373859129250443 0.9977956409912503 -0.004206425105024822 0.00011161961698884102 0.0008912140727248789 -0.00010816301998813123 -0.0005544393921060277
 0.9977956409912503 -0.004206425105024822 0.002163122869747456 0.001637397902148367 -0.00010816158245141748 -0.0005544382255125615 0.00011175312181976525 0.0008911630976190523
 0.00011161961698884102 0.0008912140727248789 -0.00010816158245141748 -0.0005544382255125615 0.0021631441041874634 0.0016373181929959537 0.997795640581798 -0.00420649215145535
 -0.00010816301998813123 -0.0005544393921060277 0.00011175312181976525 0.0008911630976190523 0.997795640581798 -0.00420649215145535 0.0021631214096763775 0.0016373315306355454
0.006252605252188 0.0022041395740930204 0.002053120251012237 0.997743288195045 -0.005258976778341179 0.00012136086755203712 0.001114403207596863 -0.00011679312574326689 -0.0006937390835316967
 0.997743288195045 -0.005258976778341179 0.0022041073895984913 0.0020531354864879755 -0.00011679088937273815 -0.0006937376446313997 0.00012156945117598233 0.001114336933606212
 0.00012136086755203712 0.001114403207596863 -0.00011679088937273815 -0.0006937376446313997 0.0022041406767070886 0.0020530355745941318 0.9977432876484942 -0.005259060606186574
 -0.00011679312574326689 -0.0006937390835316967 0.00012156945117598233 0.001114336933606212 0.9977432876484942 -0.005259060606186574 0.002204105200130935 0.00205305251095913
0.01250521050438 0.0024230209349813164 0.004148614083248884 0.997461572593254 -0.010518117503316028 0.00017868551703463596 0.0022288257188999667 -0.00016711352884517548 -0.0013905014015226742
 0.997461572593254 -0.010518117503316028 0.0024228924240359065 0.004148647061361473 -0.00016710472235206865 -0.0013904987393744837 0.00017951718984812035 0.0022286650872931093
 0.00017868551703463596 0.0022288257188999667 -0.00016710472235206865 -0.0013904987393744837 0.0024230259036295714 0.004148444922349155 0.9974615709669441 -0.010518284892864679
 -0.00016711352884517548 -0.0013905014015226742 0.00017951718984812035 0.0022286650872931093 0.9974615709669441 -0.010518284892864679 0.0024228842305875345 0.004148481483849743
0.01875781575657 0.002666069622984777 0.006273115870394333 0.9971455868875169 -0.015790089092920394 0.0002506139217614525 0.003343953577618533 -0.00022962888647716547 -0.0020891584371560763
 0.9971455868875169 -0.015790089092920394 0.002665780852436722 0.00627316927365567 -0.00022960925804637914 -0.002089154817270542 0.00025248190274250736 0.0033436638201778733
 0.0002506139217614525 0.003343953577618533 -0.00022960925804637914 -0.002089154817270542 0.0026660812321425247 0.006272862215567439 0.9971455836572838 -0.01579033995632141
 -0.00022962888647716547 -0.0020891584371560763 0.00025248190274250736 0.0033436638201778733 0.9971455836572838 -0.01579033995632141 0.0026657628527910313 0.006272921346715384
0.02501042100875 0.0029338447642213205 0.00842349563822527 0.9967948877334594 -0.021077299817360333 0.0003372953824501135 0.004459746741813919 -0.0003045071461728313 -0.0027892949146139843
 0.9967948877334594 -0.021077299817360333 0.0029333319187398094 0.008423572302725543 -0.0003044724989601221 -0.0027892906566190515 0.0003406128007165182 0.004459286578441833
 0.0003372953824501135 0.004459746741813919 -0.0003044724989601221 -0.0027892906566190515 0.002933865791822397 0.008423157425303725 0.9967948823730601 -0.021077634099735607
 -0.0003045071461728313 -0.0027892949146139843 0.0003406128007165182 0.004459286578441833 0.9967948823730601 -0.021077634099735607 0.00293330030904959 0.008423242302357496
0.03126302626094 0.0032268814876843894 0.01059806806049778 0.996409013747312 -0.02638069033974516 0.00043887770512563757 0.0055760568210020635 -0.00039190927186510033 -0.003490591308724671
 0.996409013747312 -0.02638069033974516 0.003226080827079772 0.010598170971843839 -0.0003918554551284622 -0.0034905867867585077 0.00044405793646745115 0.005575378421140282
 0.00043887770512563757 0.0055760568210020635 -0.0003918554551284622 -0.0034905867867585077 0.0032269147178092075 0.010597645184472246 0.9964090057291765 -0.0263811080052226
 -0.00039190927186510033 -0.003490591308724671 0.00044405793646745115 0.005575378421140282 0.9964090057291765 -0.0263811080052226 0.0032260318022303423 0.010597759212147386
0.037515631513130004 0.0035457013005445927 0.01279567784153406 0.99598749651764 -0.03170064831782144 0.0005555057056134614 0.006692691302506162 -0.0004919903973539401 -0.004192759744111579
 0.99598749651764 -0.03170064831782144 0.003544549127765615 0.012795810133414113 -0.0004919133018649204 -0.004192755386864153 0.0005629624958806079 0.00669174022462284
 0.0005555057056134614 0.006692691302506162 -0.0004919133018649204 -0.004192755386864153 0.0035457495253670103 0.012795170169956563 0.995987485314531 -0.031701149335905766
 -0.0004919903973539401 -0.004192759744111579 0.0005629624958806079 0.00669174022462284 0.995987485314531 -0.031701149335905766 0.0035444788835596076 0.012795316980777129
0.043768236765320004 0.0038908160310157105 0.01501542143336286 0.9955298651819615 -0.03703728665963081 0.000687320453376686 0.007809433122261209 -0.0006049001796535731 -0.00489552454469303
 0.9955298651819615 -0.03703728665963081 0.0038892486645433523 0.01501558638762443 -0.0006047957350448179 -0.004895520835320871 0.0006974679499589565 0.007808148247044205
 0.000687320453376686 0.007809433122261209 -0.0006047957350448179 -0.004895520835320871 0.0038908820497966803 0.015014828784092937 0.995529850265539 -0.0370378710270989
 -0.0006049001796535731 -0.00489552454469303 0.0006974679499589565 0.007808148247044205 0.995529850265539 -0.0370378710270989 0.003889153396913541 0.015015012239756324
0.050020842017509996 0.004262729604966126 0.017256531989822233 0.9950356488421079 -0.04239055854680446 0.0008344587746406508 0.008926048786912073 -0.0007307828701405468 -0.0055986142398315114
 0.9950356488421079 -0.04239055854680446 0.004260683354194734 0.01725673303738619 -0.0007306470432936769 -0.005598611715869087 0.0008477115087578754 0.008924362248362178
 0.0008344587746406508 0.008926048786912073 -0.0007306470432936769 -0.005598611715869087 0.004262816224751482 0.017255854161653685 0.9950356296829912 -0.042391226256661106
 -0.0007307828701405468 -0.0055986142398315114 0.0008477115087578754 0.008924362248362178 0.9950356296829912 -0.042391226256661106 0.004260559260159739 0.01725607835508285
0.055454545454549996 0.004608083774410866 0.019220942985485486 0.9945760837205032 -0.047056107824211095 0.0009748738464435076 0.009896128463772885 -0.0008508222616503324 -0.006209673794271913
 0.9945760837205032 -0.047056107824211095 0.004605569608990565 0.019221178302979692 -0.0008506559153702391 -0.006209672779161206 0.000991162038426172 0.009894032460315439
 0.0009748738464435076 0.009896128463772885 -0.0008506559153702391 -0.006209672779161206 0.0046081905815964185 0.019220190944676904 0.9945760604425274 -0.04705684796370159
 -0.0008508222616503324 -0.006209673794271913 0.000991162038426172 0.009894032460315439 0.9945760604425274 -0.04705684796370159 0.004605417376087607 0.019220454046432356
0.056273447269699996 0.0046619388924302955 0.019518322996081045 0.9945043780547546 -0.047760313792932656 0.0009970528711604058 0.010042292391232818 -0.0008697772590547652 -0.006301757687373233
 0.9945043780547546 -0.047760313792932656 0.004659350033589719 0.01951856371914668 -0.0008696060529660434 -0.006301756940623212 0.0010138257097671204 0.01004012950759204
 0.0009970528711604058 0.010042292391232818 -0.0008696060529660434 -0.006301756940623212 0.004662048926725873 0.01951755975224287 0.9945043541212688 -0.047761064850622266
 -0.0008697772590547652 -0.006301757687373233 0.0010138257097671204 0.01004012950759204 0.9945043541212688 -0.047761064850622266 0.00465919331123128 0.01951782901085874
0.06252605252188 0.005088934097681948 0.021800157252321442 0.9939355858720352 -0.05314632986268247 0.0011752299958680311 0.01115790786585009 -0.001022016556446081 -0.007004681980850084
 0.9939355858720352 -0.05314632986268247 0.005085738850792531 0.021800441387401625 -0.0010218060095542982 -0.007004683657263259 0.0011959380737121739 0.011155187071068948
 0.0011752299958680311 0.01115790786585009 -0.0010218060095542982 -0.007004683657263259 0.005089070366133059 0.02179930832815455 0.993935556629334 -0.05314716427792917
 -0.001022016556446081 -0.007004681980850084 0.0011959380737121739 0.011155187071068948 0.993935556629334 -0.05314716427792917 0.005085545699532047 0.021799627218145635
0.06877865777407 0.005544198898731071 0.02410142842741594 0.9933288086373724 -0.058548330337229046 0.0013691121616686804 0.012272630352407594 -0.0011876282369486862 -0.007707111244687851
 0.9933288086373724 -0.058548330337229046 0.0055403334044724075 0.024101759869400868 -0.0011873744226451538 -0.0077071160442481815 0.0013941707979791059 0.012269263128874832
 0.0013691121616686804 0.012272630352407594 -0.0011873744226451538 -0.0077071160442481815 0.005544364228074227 0.02410049352473846 0.9933287735490052 -0.058549248129239326
 -0.0011876282369486862 -0.007707111244687851 0.0013941707979791059 0.012269263128874832 0.9933287735490052 -0.058549248129239326 0.005540100027486504 0.024100866856289108
0.07503126302626001 0.0060282104358751875 0.026421549385605175 0.9926835866369779 -0.06396599662475484 0.0015788158693559916 0.013386187114146979 -0.00136673386271452 -0.008408765910409208
 0.9926835866369779 -0.06396599662475484 0.006023610733105428 0.026421932192842185 -0.001366432889099495 -0.008408774587012495 0.0016086404739331795 0.01338207792689974
 0.0015788158693559916 0.013386187114146979 -0.001366432889099495 -0.008408774587012495 0.006028407658737899 0.02642052817488722 0.992683545163015 -0.06396699781965805
 -0.00136673386271452 -0.008408765910409208 0.0016086404739331795 0.01338207792689974 0.992683545163015 -0.06396699781965805 0.006023333337092225 0.02642096100832437
0.08128386827845 0.0065414392073873265 0.02875994444743803 0.9919994646624902 -0.06939897575573852 0.0018044518488618327 0.014498298177179918 -0.001559448892724633 -0.009109362279042204
 0.9919994646624902 -0.06939897575573852 0.006536041210557698 0.02876038284785122 -0.001559096902447992 -0.009109375640368872 0.001839457818955422 0.014493344410008525
 0.0018044518488618327 0.014498298177179918 -0.001559096902447992 -0.009109375640368872 0.006541671162321617 0.028758836567167594 0.9919994162597335 -0.06940006038675096
 -0.001559448892724633 -0.009109362279042204 0.001839457818955422 0.014493344410008525 0.9919994162597335 -0.06940006038675096 0.0065357160072331034 0.028759334220279206
0.08753647353064001 0.007084348900916431 0.031116044066592297 0.9912759925151496 -0.07484688578222287 0.002046124809451957 0.015608676816816347 -0.0017658824831975068 -0.009808612255824944
 0.9912759925151496 -0.07484688578222287 0.0070780883776657075 0.031116542464893437 -0.0017654756534788538 -0.009808631163213365 0.002086727419170995 0.015602768710390983
 0.002046124809451957 0.015608676816816347 -0.0017654756534788538 -0.009808631163213365 0.007084618431788394 0.03111484912487994 0.9912759366362103 -0.07484805388752425
 -0.0017658824831975068 -0.009808612255824944 0.002086727419170995 0.015602768710390983 0.9912759366362103 -0.07484805388752425 0.007077711584183444 0.031115417181161013
0.09378907878283 0.00765739618272532 0.0334892810527451 0.9905127254697806 -0.08030931965154703 0.0023039331964564416 0.0167170299410994 -0.0019861372827150166 -0.010506223205331462
 0.9905127254697806 -0.08030931965154703 0.007650208730948586 0.03348984403867585 -0.0019856718252944717 -0.01050624857365699 0.0023505474798962505 0.01671005053338564
 0.0023039331964564416 0.0167170299410994 -0.0019856718252944717 -0.01050624857365699 0.007657706138289166 0.03348799862483761 0.9905126615632748 -0.08031057127641647
 -0.0019861372827150166 -0.010506223205331462 0.0023505474798962505 0.01671005053338564 0.9905126615632748 -0.08031057127641647 0.007649776571498867 0.03348864294284694
0.100041684035 0.008261030455252531 0.03587908783858745 0.9897092247128686 -0.0857858480571728 0.002577968953433654 0.017823058413740513 -0.0022203092235922304 -0.011201897885377681
 0.9897092247128686 -0.0857858480571728 0.008252851481209208 0.03587972019630629 -0.0022197813849899766 -0.011201930682893126 0.002631009582432593 0.01781488348273124
 0.002577968953433654 0.017823058413740513 -0.0022197813849899766 -0.011201930682893126 0.008261383689349812 0.035877717468445314 0.9897091522229311 -0.08578718325174044
 -0.0022203092235922304 -0.011201897885377681 0.002631009582432593 0.01781488348273124 0.9897091522229311 -0.08578718325174044 0.008252360187975132 0.03587844419224353
0.1059090909091 0.008855689450516032 0.03813623039197307 0.9889182470185749 -0.09093740787956343 0.002849957054302594 0.01885856305394877 -0.0024527916193658435 -0.011852684940061912
 0.9889182470185749 -0.09093740787956343 0.008846521099891954 0.03813693238132202 -0.002452201859882961 -0.0118527256371376 0.0029094048319160946 0.018849146757484482
 0.002849957054302594 0.01885856305394877 -0.002452201859882961 -0.0118527256371376 0.00885608589605691 0.038134777050935854 0.9889181659637817 -0.09093882154885898
 -0.0024527916193658435 -0.011852684940061912 0.0029094048319160946 0.018849146757484482 0.9889181659637817 -0.09093882154885898 0.008845970897117127 0.038135586956250515
0.1062942892872 0.008895693593796515 0.0382848944449552 0.9888650577602717 -0.09127602161280896 0.0028683172892557695 0.018926457336063348 -0.0024684873116662745 -0.011895334439844099
 0.9888650577602717 -0.09127602161280896 0.0088864582892571 0.0382856011635778 -0.0024678933732233074 -0.011895375688057487 0.002928198445990322 0.01891695534522048
 0.0028683172892557695 0.018926457336063348 -0.0024678933732233074 -0.011895375688057487 0.008896092964330915 0.03828343564147315 0.9888649761257085 -0.09127744043548724
 -0.0024684873116662745 -0.011895334439844099 0.002928198445990322 0.01891695534522048 0.9888649761257085 -0.09127744043548724 0.008885904103428328 0.038284251212199416
0.11254689453939999 0.00956181966515445 0.04070612696664383 0.9879797988587977 -0.0967793725280752 0.0031750564490375544 0.02002691630416591 -0.0027307534155476296 -0.012586226434899402
 0.9879797988587977 -0.0967793725280752 0.009551462984931954 0.040706913251933104 -0.0027300896936479704 -0.012586277208437595 0.0032421916944004887 0.020015948350446327
 0.0031750564490375544 0.02002691630416591 -0.0027300896936479704 -0.012586277208437595 0.00956226803396897 0.040704579206453345 0.9879797075136119 -0.09678087504217625
 -0.0027307534155476296 -0.012586226434899402 0.0032421916944004887 0.020015948350446327 0.9879797075136119 -0.09678087504217625 0.009550842158225156 0.04070549037497025
0.11879949979160001 0.010259834634873436 0.04314220641649713 0.9870530293789173 -0.10229541594822483 0.0034982574895002505 0.021124119650395665 -0.0030071820559762798 -0.013274262929325221
 0.9870530293789173 -0.10229541594822483 0.01024829127479892 0.043143077703765825 -0.0030064449024436763 -0.013274324355742969 0.003573059627162161 0.021111539415219097
 0.0034982574895002505 0.021124119650395665 -0.0030064449024436763 -0.013274324355742969 0.01026033486720748 0.043140569142707405 0.9870529277508936 -0.10229700222270849
 -0.0030071820559762798 -0.013274262929325221 0.003573059627162161 0.021111539415219097 0.9870529277508936 -0.10229700222270849 0.010247600070051035 0.04314158298352718
0.1250521050438 0.010990156065111892 0.04559254785264624 0.9860843381958756 -0.10782365103345369 0.003837984058144906 0.022217746675231603 -0.003297840196813938 -0.013959128573027316
 0.9860843381958756 -0.10782365103345369 0.010977360439465672 0.045593509820851114 -0.0032970259989435337 -0.013959201832711597 0.003920864995227736 0.022203400378323277
 0.003837984058144906 0.022217746675231603 -0.0032970259989435337 -0.013959201832711597 0.010990711029148571 0.04559082047272683 0.9860842257068646 -0.10782532114446743
 -0.003297840196813938 -0.013959128573027316 0.003920864995227736 0.022203400378323277 0.9860842257068646 -0.10782532114446743 0.01097659513259628 0.04559194439897001
0.131304710296 0.011753192805302525 0.04805655970138958 0.9850733220650792 -0.11336356186566136 0.00419429217687126 0.023307471874675436 -0.0036027870376096546 -0.014640503728785675
 0.9850733220650792 -0.11336356186566136 0.011739079025063728 0.04805761828846663 -0.0036018922187045495 -0.014640590054752288 0.004285662780769329 0.02329119823109905
 0.00419429217687126 0.023307471874675436 -0.0036018922187045495 -0.014640590054752288 0.011753805371818811 0.048054741589754216 0.9850731981303608 -0.11336531589345633
 -0.0036027870376096546 -0.014640503728785675 0.004285662780769329 0.02329119823109905 0.9850731981303608 -0.11336531589345633 0.011738235905861785 0.0480559833694905
0.1375573155481 0.01239234964405988 0.0502129061149925 0.9841766856371508 -0.11859360947927755 0.004527201739164164 0.02436304413761496 -0.003881955456835803 -0.015288266969486519
 0.9841766856371508 -0.11859360947927755 0.01237684604484309 0.05021404445748656 -0.0038809744639796318 -0.015288366687977539 0.004627269095772139 0.02434484294234293
 0.004527201739164164 0.02436304413761496 -0.0038809744639796318 -0.015288366687977539 0.012393021600386817 0.05021099700446573 0.9841765497365403 -0.11859544741272118
 -0.003881955456835803 -0.015288266969486519 0.004627269095772139 0.02434484294234293 0.9841765497365403 -0.11859544741272118 0.012375922365694902 0.05021234071536993
0.1438099208003 0.013054415859209561 0.0523543018941896 0.9832475627393549 -0.12380676800869224 0.00487337931533316 0.02541218688475303 -0.004172090396068318 -0.015930049221168932
 0.9832475627393549 -0.12380676800869224 0.013037455299001388 0.052355524851379655 -0.004171019349496789 -0.015930163575667223 0.004982516202594512 0.025391908353101518
 0.00487337931533316 0.02541218688475303 -0.004171019349496789 -0.015930163575667223 0.013055149883742755 0.052352301182295786 0.9832474142933622 -0.12380868991237551
 -0.004172090396068318 -0.015930049221168932 0.004982516202594512 0.025391908353101518 0.9832474142933622 -0.12380868991237551 0.01303644753940606 0.052353753464976095
0.1500625260525 0.01373909652184931 0.054480462995210185 0.9822862543746163 -0.12900280053748994 0.0052326639194788605 0.026454725245011055 -0.004473033260693508 -0.016565685115191024
 0.9822862543746163 -0.12900280053748994 0.013720611552234035 0.054481775795882315 -0.004471868291661745 -0.0165658154001219 0.005351239810417302 0.02643221416703972
 0.0052326639194788605 0.026454725245011055 -0.004471868291661745 -0.0165658154001219 0.013739895282635734 0.054478370054726936 0.9822860927990205 -0.1290048064784734
 -0.004473033260693508 -0.016565685115191024 0.005351239810417302 0.02643221416703972 0.9822860927990205 -0.1290048064784734 0.013719516215704717 0.05447993798745408
0.15631513130469998 0.014446093872877156 0.0565911140509887 0.9812930638965153 -0.1341814736852976 0.005604892261038905 0.027490488396600638 -0.0047846231286321015 -0.017195013719683384
 0.9812930638965153 -0.1341814736852976 0.01442601673279242 0.05659252230925272 -0.0047833603797577074 -0.017195161280209398 0.00573327325901721 0.02746558421446613
