! Created with skrf 1.8.0 (http://scikit-rf.org).
# GHz S RI R 50.0 
!freq ReS11 ImS11 ReS12 ImS12 ReS13 ImS13
! ReS14 ImS14
! ReS21 ImS21 ReS22 ImS22 ReS23 ImS23
! ReS24 ImS24
! ReS31 ImS31 ReS32 ImS32 ReS33 ImS33
! ReS34 ImS34
! ReS41 ImS41 ReS42 ImS42 ReS43 ImS43
! ReS44 ImS44
!
0.0 0.001100365606547 0.0 0.9988996343934 0.0 4.158463964334e-05 0.0 -4.158463973153e-05 5.092649594091406e-21
 0.9988996343934 0.0 0.001100365606564 0.0 -4.158463973258e-05 5.092649594219994e-21 4.158463964316e-05 0.0
 4.158463964334e-05 0.0 -4.158463973258e-05 5.092649594219994e-21 0.001100365580638 0.0 0.9988996343675 0.0
 -4.158463973153e-05 5.092649594091406e-21 4.158463964316e-05 0.0 0.9988996343675 0.0 0.001100365580601 0.0
0.005 0.00118294540425192 0.0009027893248383123 0.9987953224676851 -0.0023061420106520792 5.734527868574756e-05 0.00044599032573943364 -5.593241499759138e-05 -0.00028221519569961016
 0.9987953224676851 -0.0023061420106520792 0.0011829242284819592 0.0009028016790522817 -5.5933408039506434e-05 -0.000282215988294899 5.747348904245068e-05 0.00044594169699453966
 5.734527868574756e-05 0.00044599032573943364 -5.5933408039506434e-05 -0.000282215988294899 0.00118294505608747 0.0009028568079409306 0.9987953227867328 -0.002306074944981061
 -5.593241499759138e-05 -0.00028221519569961016 5.747348904245068e-05 0.00044594169699453966 0.9987953227867328 -0.002306074944981061 0.0011829252115346833 0.000902868324743537
0.006252605252188 0.001204334406947653 0.0011320672041308048 0.9987681838645678 -0.0028832825211743437 6.167636916030372e-05 0.0005577277742761106 -5.9858867865040604e-05 -0.00035314632413943506
 0.9987681838645678 -0.0028832825211743437 0.00120430130529091 0.001132082880976671 -5.986041292038753e-05 -0.00035314730257508554 6.187669158575924e-05 0.0005576646995706517
 6.167636916030372e-05 0.0005577277742761106 -5.986041292038753e-05 -0.00035314730257508554 0.0012043337842625368 0.0011321515495282992 0.9987681842852437 -0.0028831986998210136
 -5.9858867865040604e-05 -0.00035314632413943506 6.187669158575924e-05 0.0005576646995706517 0.9987681842852437 -0.0028831986998210136 0.0012043027641741664 0.0011321661725455926
0.01250521050438 0.0013153627109473555 0.0022881779907862757 0.9986266212086304 -0.005767567448024693 8.560896045837512e-05 0.0011159366818408345 -8.146882328526322e-05 -0.0007081585034377782
 0.9986266212086304 -0.005767567448024693 0.0013152305351268028 0.0022882116982459095 -8.147491006123695e-05 -0.0007081603285799377 8.640792742282658e-05 0.0011157863182572007
 8.560896045837512e-05 0.0011159366818408345 -8.147491006123695e-05 -0.0007081603285799377 0.0013153596810977347 0.002288346456758603 0.9986266223507346 -0.005767400048598015
 -8.146882328526322e-05 -0.0007081585034377782 8.640792742282658e-05 0.0011157863182572007 0.9986266223507346 -0.005767400048598015 0.0013152358269211636 0.002288377976990936
0.01875781575657 0.001433634692555985 0.0034611386460098115 0.9984748122716932 -0.008659927394748957 0.00011343001064536704 0.001675021054406799 -0.00010646831997865395 -0.001064574117553937
 0.9984748122716932 -0.008659927394748957 0.0014333376881512482 0.003461192900190354 -0.00010648189128331051 -0.0010645766400206387 0.00011522511183957892 0.0016747555431376828
 0.00011343001064536704 0.001675021054406799 -0.00010648189128331051 -0.0010645766400206387 0.001433627446830377 0.0034613911634793835 0.9984748144132276 -0.008659676497919553
 -0.00010646831997865395 -0.001064574117553937 0.00011522511183957892 0.0016747555431376828 0.9984748144132276 -0.008659676497919553 0.0014333491612172917 0.003461441988250122
0.02501042100875 0.0015593319469368026 0.004649367175813441 0.9983126193271449 -0.011561819338149957 0.00014518703683816285 0.0022350365516856318 -0.0001349102382202488 -0.0014222672386066193
 0.9983126193271449 -0.011561819338149957 0.001558804495316846 0.004649444631553617 -0.000134934201505924 -0.0014222702882278825 0.00014837614680765314 0.0022346245686928378
 0.00014518703683816285 0.0022350365516856318 -0.000134934201505924 -0.0014222702882278825 0.001559318686646369 0.004649703700732952 0.998312622760147 -0.011561484991657947
 -0.0001349102382202488 -0.0014222672386066193 0.00014837614680765314 0.0022346245686928378 0.998312622760147 -0.011561484991657947 0.0015588245116121933 0.0046497763486934044
0.03126302626094 0.0016926280655305236 0.005852077404056177 0.9981398957841298 -0.014473900485355176 0.00018092796136810648 0.002795989909847965 -0.00016684641485992856 -0.0017811587743736842
 0.9981398957841298 -0.014473900485355176 0.0016918046519565986 0.0058521808502673585 -0.00016688364849581187 -0.0017811621597699895 0.000185909735245538 0.0027953966493731255
 0.00018092796136810648 0.002795989909847965 -0.00016688364849581187 -0.0017811621597699895 0.001692606982115231 0.005852497905527164 0.9981399007962565 -0.01447348271575244
 -0.00016684641485992856 -0.0017811587743736842 0.000185909735245538 0.0027953966493731255 0.9981399007962565 -0.01447348271575244 0.0016918355689287967 0.0058525950019552445
0.037515631513130004 0.0018336930127207606 0.007068777922789312 0.9979564906319043 -0.017396529285342358 0.00022070079548225222 0.0033578690288772442 -0.00020232802130976793 -0.0021411863803548732
 0.9979564906319043 -0.017396529285342358 0.0018325082071982194 0.007068910279965989 -0.00020238137789718713 -0.0021411898888077383 0.00022787486281844826 0.0033570561673880285
 0.00022070079548225222 0.0033578690288772442 -0.00020238137789718713 -0.0021411898888077383 0.001833662293914242 0.007069282388210948 0.9979564975129612 -0.017396028092784056
 -0.00020232802130976793 -0.0021411863803548732 0.00022787486281844826 0.0033570561673880285 0.9979564975129612 -0.017396028092784056 0.0018325523843636296 0.0070694066623091115
0.043768236765320004 0.001982694830445779 0.00829911962772249 0.99776225020723 -0.020329917851743696 0.00026455349193831625 0.003920652121739536 -0.00024140571348823153 -0.002502295302132574
 0.99776225020723 -0.020329917851743696 0.0019810832732212163 0.00829928394631009 -0.00024147802180594935 -0.0025022986995292974 0.0002743205642819742 0.003919577775804665
 0.00026455349193831625 0.003920652121739536 -0.00024147802180594935 -0.0025022986995292974 0.0019826526578776487 0.008299708041017848 0.997762259247694 -0.020329333231808255
 -0.00024140571348823153 -0.002502295302132574 0.0002743205642819742 0.003919577775804665 0.997762259247694 -0.020329333231808255 0.0019811430705941086 0.008299862323838393
0.050020842017509996 0.0021398004381857 0.009542832673976697 0.9975570190586118 -0.023274194963968854 0.0003125338600410468 0.004484311491494883 -0.00028412969771962875 -0.002864434587946025
 0.9975570190586118 -0.023274194963968854 0.00213769682847669 0.009543032133048905 -0.00028422376408916456 -0.0028644376187631137 0.0003252957933231845 0.0044829301730216434
 0.0003125338600410468 0.004484311491494883 -0.00028422376408916456 -0.0028644376187631137 0.0021397449878624007 0.009543505023314571 0.9975570305505036 -0.02327352689998766
 -0.00028412969771962875 -0.002864434587946025 0.0003252957933231845 0.0044829301730216434 0.9975570305505036 -0.02327352689998766 0.002137774606971098 0.009543692246096205
0.055454545454549996 0.0022830403501495297 0.010634343271377387 0.9973696194462182 -0.02584176405678056 0.0003576194102503727 0.004974835619281301 -0.0003242580440351067 -0.0031799432965980614
 0.9973696194462182 -0.02584176405678056 0.002280456137926698 0.010634575949531839 -0.000324373281152905 -0.0031799457846883273 0.0003733112403364312 0.00497314775627267
 0.0003576194102503727 0.004974835619281301 -0.000324373281152905 -0.0031799457846883273 0.002282971875384744 0.010635088555852655 0.9973696333070645 -0.025841023455845866
 -0.0003242580440351067 -0.0031799432965980614 0.0003733112403364312 0.00497314775627267 0.9973696333070645 -0.025841023455845866 0.002280551460663632 0.010635306861766152
0.056273447269699996 0.002305176058380289 0.010799695569875239 0.9973406404355112 -0.02622943692981866 0.00036468951014490426 0.0050488153742521665 -0.0003305497572129082 -0.0032275552350295206
 0.9973406404355112 -0.02622943692981866 0.002302515144315117 0.010799933476138815 -0.00033066836642276566 -0.003227557622318185 0.0003808493401978713 0.0050470779444132296
 0.00036468951014490426 0.0050488153742521665 -0.00033066836642276566 -0.003227557622318185 0.002305105500398816 0.01080045184690709 0.9973406546724506 -0.026228685393624968
 -0.0003305497572129082 -0.0032275552350295206 0.0003808493401978713 0.0050470779444132296 0.9973406546724506 -0.026228685393624968 0.002302613265624705 0.010800675039696759
0.06252605252188 0.0024789874579227975 0.012069518163439756 0.9971129565944653 -0.029195684555336374 0.0004210678085162016 0.005614128957790021 -0.000380715262828972 -0.0035916091605019775
 0.9971129565944653 -0.029195684555336374 0.0024757040275914023 0.012069797950399955 -0.00038086117884617433 -0.0035916106058933445 0.0004410297687277947 0.0056119825801880675
 0.0004210678085162016 0.005614128957790021 -0.00038086117884617433 -0.0035916106058933445 0.0024788999556699717 0.012070358359789033 0.9971129738714274 -0.029194849510842533
 -0.000380715262828972 -0.0035916091605019775 0.0004410297687277947 0.0056119825801880675 0.9971129738714274 -0.029194849510842533 0.0024758248531213324 0.012070620650194614
0.06877865777407 0.0026614000919308925 0.013352131507782547 0.996873809009779 -0.03217295323612833 0.0004817158412635874 0.006180214982503656 -0.0004346751712237416 -0.003956548590400923
 0.996873809009779 -0.03217295323612833 0.002657428964901645 0.013352456735151563 -0.00043485113765561693 -0.00395654877411383 0.0005058853680845163 0.006177603075890323
 0.0004817158412635874 0.006180214982503656 -0.00043485113765561693 -0.00395654877411383 0.0026612938025678155 0.013353055618111157 0.9968738296237047 -0.03217203463633483
 -0.0004346751712237416 -0.003956548590400923 0.0005058853680845163 0.006177603075890323 0.9968738296237047 -0.03217203463633483 0.0026575748566548788 0.013353360230241395
0.07503126302626001 0.0028525791896789323 0.014647381429899548 0.9966230385257777 -0.03516123934567357 0.0005466803823911856 0.006747034115701149 -0.0004924780163855925 -0.004322325675981849
 0.9966230385257777 -0.03516123934567357 0.002847855208899867 0.014647755783131045 -0.0004926867569023079 -0.004322324256827048 0.00057546411196203 0.006743896306465519
 0.0005466803823911856 0.006747034115701149 -0.0004926867569023079 -0.004322324256827048 0.0028524522637023916 0.014648389450828069 0.9966230627760818 -0.03516023713382854
 -0.0004924780163855925 -0.004322325675981849 0.00057546411196203 0.006743896306465519 0.9966230627760818 -0.03516023713382854 0.0028480285285813886 0.014648739704420446
0.08128386827845 0.0030526898048057736 0.01595512426064342 0.996360485476902 -0.038160524463293974 0.0006160078635453701 0.00731454520921011 -0.0005541718978555601 -0.004688892227426954
 0.996360485476902 -0.038160524463293974 0.0030471478290155524 0.015955551550609064 -0.0005544161164820396 -0.0046888888428225205 0.0006498136213991084 0.007310817283718499
 0.0006160078635453701 0.00731454520921011 -0.0005544161164820396 -0.0046888888428225205 0.0030525403859002725 0.015956216188674405 0.9963605136649245 -0.0381594385749946
 -0.0005541718978555601 -0.004688892227426954 0.0006498136213991084 0.007310817283718499 0.9963605136649245 -0.0381594385749946 0.003047350937810596 0.01595661549836887
0.08753647353064001 0.003261896841757482 0.017275223870617962 0.9960859897827996 -0.041170778296642396 0.000689744346288467 0.00788270546457199 -0.0006198044649093142 -0.00505619954076286
 0.9960859897827996 -0.041170778296642396 0.0032554717375416838 0.0172757080335196 -0.0006200868462431494 -0.0050561938067422724 0.000728981131630228 0.007878319321494133
 0.000689744346288467 0.00788270546457199 -0.0006200868462431494 -0.0050561938067422724 0.00326172306689473 0.0172763997036942 0.9960860222128728 -0.04116960865840621
 -0.0006198044649093142 -0.00505619954076286 0.000728981131630228 0.007878319321494133 0.9960860222128728 -0.04116960865840621 0.0032557069961384913 0.017276851578511686
0.09378907878283 0.003480365066955602 0.018607549552281846 0.9957993910316115 -0.04419196075908383 0.000767935494595285 0.008451470560502961 -0.0006894228992955279 -0.005424198263343293
 0.9957993910316115 -0.04419196075908383 0.003472991701465801 0.018608094649637103 -0.0006897461087040723 -0.0054241897745751205 0.000813013460216749 0.008446354163150899
 0.000767935494595285 0.008451470560502961 -0.0006897461087040723 -0.0054241897745751205 0.003480165065941612 0.018608809289450617 0.9957994280108634 -0.04419070728881303
 -0.0006894228992955279 -0.005424198263343293 0.000813013460216749 0.008446354163150899 0.9957994280108634 -0.04419070728881303 0.0034732614691568367 0.018609317332289262
0.100041684035 0.003708259107304018 0.019951974471481573 0.9955005285508645 -0.047224023478328575 0.0008506265484409261 0.0090207947374741 -0.0007630738958433449 -0.005792838303122974
 0.9955005285508645 -0.047224023478328575 0.0036998723406021575 0.019952584690328973 -0.0007634405795457675 -0.005792826632927384 0.0009019569770415641 0.009014872066228787
 0.0008506265484409261 0.0090207947374741 -0.0007634405795457675 -0.005792826632927384 0.003708031002989671 0.019953318111548962 0.9955005703894727 -0.047222686086662906
 -0.0007630738958433449 -0.005792838303122974 0.0009019569770415641 0.009014872066228787 0.9955005703894727 -0.047222686086662906 0.003700178975761504 0.019953886019063425
0.1059090909091 0.003930832686485864 0.0212244681785338 0.9952087807872045 -0.050079138854766635 0.0009323558503592925 0.009555511608463322 -0.0008358962654977539 -0.006139305816716803
 0.9952087807872045 -0.050079138854766635 0.0039214356933995305 0.021225143427211407 -0.0008363061350196493 -0.006139290754024149 0.0009899285920768432 0.009548759606067101
 0.0009323558503592925 0.009555511608463322 -0.0008363061350196493 -0.006139290754024149 0.003930576496375697 0.021225890555457292 0.9952088274707986 -0.05007772262001712
 -0.0008358962654977539 -0.006139305816716803 0.0009899285920768432 0.009548759606067101 0.9952088274707986 -0.05007772262001712 0.003921779067640856 0.021226518085061492
0.1062942892872 0.003945743441585417 0.021308374494241736 0.9951892414724208 -0.050266910930889974 0.0009378622973885669 0.00959063086738638 -0.0008408036421919912 -0.0061620687537564875
 0.9951892414724208 -0.050266910930889974 0.003936278119195533 0.021309054147520323 -0.0008412164274284155 -0.006162053454119561 0.0009958575745413532 0.009583821872268724
 0.0009378622973885669 0.00959063086738638 -0.0008412164274284155 -0.006162053454119561 0.003945485349368017 0.02130980203957001 0.9951892884837973 -0.050265489517596657
 -0.0008408036421919912 -0.0061620687537564875 0.0009958575745413532 0.009583821872268724 0.9951892884837973 -0.050265489517596657 0.003936623977906493 0.021310433602006334
0.11254689453939999 0.004192982384569594 0.022676627291355788 0.9948653687920529 -0.05332056129966573 0.0010296870546107112 0.010160930499478695 -0.0009226577971643025 -0.006531837844447028
 0.9948653687920529 -0.05332056129966573 0.004182373330001179 0.022677380818437797 -0.000923119292207519 -0.006531818446048055 0.0010947606391640103 0.010153151052866545
 0.0010296870546107112 0.010160930499478695 -0.000923119292207519 -0.006531818446048055 0.004192692412686159 0.022678138743981457 0.9948654212932789 -0.05331905575760291
 -0.0009226577971643025 -0.006531837844447028 0.0010947606391640103 0.010153151052866545 0.9948654212932789 -0.05331905575760291 0.004182760766501692 0.02267883784534875
0.11879949979160001 0.004450140066894988 0.024056611639503525 0.9945287494255263 -0.05638490713612805 0.0011261446308791633 0.010731643904225412 -0.0010086814684228485 -0.006902092892807171
 0.9945287494255263 -0.05638490713612805 0.004438322073993897 0.02405744360689479 -0.0010091942626349428 -0.006902068905036882 0.0011987110228323136 0.010722805753803128
 0.0011261446308791633 0.010731643904225412 -0.0010091942626349428 -0.006902068905036882 0.0044498163159760965 0.02405820700235296 0.9945288077375142 -0.05638331735013161
 -0.0010086814684228485 -0.006902092892807171 0.0011987110228323136 0.010722805753803128 0.9945288077375142 -0.05638331735013161 0.004438753439957879 0.024058977620709115
0.1250521050438 0.0047173804106915695 0.025448206860458553 0.9941792222623316 -0.059459875885434305 0.0012272783085386081 0.011302720100895076 -0.0010989191893808056 -0.007272780275120968
 0.9941792222623316 -0.059459875885434305 0.004704288236131448 0.02544912196272779 -0.001099485853244486 -0.0072727511861082296 0.0013077530147332368 0.011292730822799687
 0.0012272783085386081 0.011302720100895076 -0.001099485853244486 -0.0072727511861082296 0.0047170209735945285 0.02544988613990045 0.9941792867098751 -0.059458201730016265
 -0.0010989191893808056 -0.007272780275120968 0.0013077530147332368 0.011292730822799687 0.9941792867098751 -0.059458201730016265 0.00470476588009283 0.02545073234777051
0.131304710296 0.004994867101971701 0.026851292380042042 0.9938166262169128 -0.06254539029310367 0.0013331308154125275 0.011874106883592648 -0.0011934148954973365 -0.00764384539911971
 0.9938166262169128 -0.06254539029310367 0.004980435457632017 0.026852295440914737 -0.001194037980623342 -0.007643810675755115 0.0014219303132303293 0.011862869835888547
 0.0013331308154125275 0.011874106883592648 -0.001194037980623342 -0.007643810675755115 0.004994470063943965 0.026853055582954893 0.9938166971291446 -0.06254363163541792
 -0.0011934148954973365 -0.00764384539911971 0.0014219303132303293 0.011862869835888547 0.9938166971291446 -0.06254363163541792 0.004980961724847263 0.026853981548079445
0.1375573155481 0.005210306764154394 0.028082497424950347 0.9935132744355323 -0.06545806516956312 0.0014274714886138872 0.012426657692277727 -0.0012758325794302984 -0.007996213305207316
 0.9935132744355323 -0.06545806516956312 0.005194466083374038 0.028083571387675824 -0.0012765159043103052 -0.007996173057426389 0.0015247997266557983 0.0124142101359622
 0.0014274714886138872 0.012426657692277727 -0.0012765159043103052 -0.007996173057426389 0.005209870815166725 0.028084344481407952 0.9935133521025797 -0.06545622194065887
 -0.0012758325794302984 -0.007996213305207316 0.0015247997266557983 0.0124142101359622 0.9935133521025797 -0.06545622194065887 0.0051950427825249055 0.02808533274702897
0.1438099208003 0.005432994633425473 0.029308622194363174 0.9931998601375186 -0.06836477707256632 0.0015255864860572222 0.012977821390609056 -0.0013615466641910216 -0.00834726797406966
 0.9931998601375186 -0.06836477707256632 0.005415678900726089 0.029309770409642076 -0.0013622929817527257 -0.008347221691751948 0.0016318227732944682 0.012964077092532575
 0.0015255864860572222 0.012977821390609056 -0.0013622929817527257 -0.008347221691751948 0.005432517957531878 0.02931055309504596 0.9931999448869173 -0.06836284914322492
 -0.0013615466641910216 -0.00834726797406966 0.0016318227732944682 0.012964077092532575 0.9931999448869173 -0.06836284914322492 0.0054163082749662 0.02931160636369236
0.1500625260525 0.005662868687146104 0.030529605955577924 0.9928764477551804 -0.07126549628957556 0.001627449952045617 0.013527570249113732 -0.0014505312037948167 -0.00869698066698107
 0.9928764477551804 -0.07126549628957556 0.005644011813697354 0.03053083195084096 -0.0014513432642413965 -0.008696927819807012 0.001742972032745858 0.01351243989252293
 0.001627449952045617 0.013527570249113732 -0.0014513432642413965 -0.008696927819807012 0.0056623494681706825 0.03053162069168045 0.9928765399177198 -0.07126348352366474
 -0.0014505312037948167 -0.00869698066698107 0.001742972032745858 0.01351243989252293 0.9928765399177198 -0.07126348352366474 0.005644696096464692 0.030532741817564185
0.15631513130469998 0.005899866643873411 0.0317453900903507 0.9925431018475382 -0.0741601924604181 0.0017330358290766268 0.014075876885944891 -0.0015427600308696007 -0.009045323167069401
