! Created with skrf 1.8.0 (http://scikit-rf.org).
# GHz S RI R 50.0 
!freq ReS11 ImS11 ReS12 ImS12 ReS13 ImS13
! ReS14 ImS14
! ReS21 ImS21 ReS22 ImS22 ReS23 ImS23
! ReS24 ImS24
! ReS31 ImS31 ReS32 ImS32 ReS33 ImS33
! ReS34 ImS34
! ReS41 ImS41 ReS42 ImS42 ReS43 ImS43
! ReS44 ImS44
!
0.0 0.001532330447127 0.0 0.9984676695301 0.0 5.888343893753e-05 0.0 -5.888343929371e-05 7.211141545382944e-21
 0.9984676695301 0.0 0.001532330447176 0.0 -5.888343929482e-05 7.211141545518879e-21 5.888343894045e-05 0.0
 5.888343893753e-05 0.0 -5.888343929482e-05 7.211141545518879e-21 0.001532330451415 0.0 0.9984676695344 0.0
 -5.888343929371e-05 7.211141545382944e-21 5.888343894045e-05 0.0 0.9984676695344 0.0 0.001532330451412 0.0
0.005 0.0016485903915145212 0.0012573572223574692 0.9983206195922119 -0.003209682703424571 8.182937688161293e-05 0.000625965881592488 -7.96776431859652e-05 -0.00039689013536053084
 0.9983206195922119 -0.003209682703424571 0.0016485831117853131 0.0012573614110195266 -7.967695686159063e-05 -0.0003968895566362769 8.188673818505565e-05 0.0006259441735703522
 8.182937688161293e-05 0.000625965881592488 -7.967695686159063e-05 -0.0003968895566362769 0.0016485913690535464 0.0012574238601155612 0.9983206199492918 -0.0032096156502224513
 -7.96776431859652e-05 -0.00039689013536053084 8.188673818505565e-05 0.0006259441735703522 0.9983206199492918 -0.0032096156502224513 0.0016485828394977224 0.0012574288712384114
0.006252605252188 0.0016790722913729308 0.0015766265619205288 0.9982818291780651 -0.004012888341270833 8.835637113771243e-05 0.000782773209516452 -8.55371830804263e-05 -0.0004966211120490465
 0.9982818291780651 -0.004012888341270833 0.001679060912175317 0.0015766318502807434 -8.553611551141614e-05 -0.0004966203973831791 8.844599436573371e-05 0.000782745001733388
 8.835637113771243e-05 0.000782773209516452 -8.553611551141614e-05 -0.0004966203973831791 0.0016790737472906219 0.0015767098485482544 0.9982818296637849 -0.004012804525494937
 -8.55371830804263e-05 -0.0004966211120490465 8.844599436573371e-05 0.000782745001733388 0.9982818296637849 -0.004012804525494937 0.001679060413464257 0.001576716176548625
0.01250521050438 0.0018394795858632637 0.0031861557053315987 0.9980763918689833 -0.00802656910610042 0.00012563766643276892 0.0015659897082707535 -0.00011872192226893678 -0.000995634416440644
 0.9980763918689833 -0.00802656910610042 0.001839434155991306 0.0031861667988284173 -0.00011871771998223313 -0.0009956330823149627 0.00012599511184123473 0.00156592173945928
 0.00012563766643276892 0.0015659897082707535 -0.00011871771998223313 -0.0009956330823149627 0.0018394848385039602 0.0031863219266753066 0.9980763932441022 -0.008026401694304944
 -0.00011872192226893678 -0.000995634416440644 0.00012599511184123473 0.00156592173945928 0.9980763932441022 -0.008026401694304944 0.0018394315894401793 0.0031863352285671676
0.01875781575657 0.0020139005458383688 0.004818508052433757 0.9978511034943625 -0.012050808401271628 0.00017081489807468326 0.0023501497112868278 -0.00015853868855736245 -0.001496353918172252
 0.9978511034943625 -0.012050808401271628 0.0020137984800145947 0.004818525486671472 -0.00015852932412457535 -0.0014963520764270228 0.00017161797256473095 0.002350028204934223
 0.00017081489807468326 0.0023501497112868278 -0.00015852932412457535 -0.0014963520764270228 0.002013911938503534 0.00481875693152457 0.9978511061690793 -0.012050557450321705
 -0.00015853868855736245 -0.001496353918172252 0.00017161797256473095 0.002350028204934223 0.9978511061690793 -0.012050557450321705 0.002013792274246261 0.004818777912416331
0.02501042100875 0.0022026732084265547 0.006471409089849746 0.9976056999204139 -0.016087557092578912 0.0002239762830888523 0.003135281355866332 -0.00020508542149560297 -0.001998560149114413
 0.9976056999204139 -0.016087557092578912 0.0022024919772102285 0.006471433409421643 -0.00020506889396328785 -0.0019985579304040374 0.0002254029238290785 0.0031350903829173247
 0.0002239762830888523 0.003135281355866332 -0.00020506889396328785 -0.0019985579304040374 0.0022026930793531485 0.0064717403081685065 0.9976057043036943 -0.016087222613365957
 -0.00020508542149560297 -0.001998560149114413 0.0002254029238290785 0.0031350903829173247 0.9976057043036943 -0.016087222613365957 0.0022024805464362115 0.0064717697212642936
0.03126302626094 0.002406121660412566 0.008143688984650652 0.9973399034586561 -0.020137650953070137 0.0002852102777112371 0.003921343463843785 -0.00025845740026240386 -0.0025020974640019324
 0.9973399034586561 -0.020137650953070137 0.002405838776055301 0.008143720740228686 -0.00025843173066212623 -0.002502095018012401 0.0002874387115086118 0.003921064928858385
 0.0002852102777112371 0.003921343463843785 -0.00025843173066212623 -0.002502095018012401 0.0024061523467113106 0.008144102187790813 0.9973399099626461 -0.020137232904387174
 -0.00025845740026240386 -0.0025020974640019324 0.0002874387115086118 0.003921064928858385 0.9973399099626461 -0.020137232904387174 0.002405820522684717 0.008144140831834965
0.037515631513130004 0.002624563018456124 0.009834585500867769 0.9970534300673609 -0.0242015076835774 0.0003546048242785288 0.0047082673885165275 -0.00031874789222565016 -0.0030068322006892288
 0.9970534300673609 -0.0242015076835774 0.0026241560250211014 0.009834625247367817 -0.00031871112119909753 -0.0030068296961702893 0.00035781363765906277 0.004707881007075776
 0.0003546048242785288 0.0047082673885165275 -0.00031871112119909753 -0.0030068296961702893 0.002624606856582681 0.009835080259296762 0.9970534391095288 -0.024201006010842345
 -0.00031874789222565016 -0.0030068322006892288 0.00035781363765906277 0.004707881007075776 0.9970534391095288 -0.024201006010842345 0.002624129340047313 0.009835128977255763
0.043768236765320004 0.0028583101283313436 0.0115435318185752 0.9967459922708438 -0.028279339022079648 0.0004322469898804275 0.005495969738864309 -0.00038604838334330214 -0.0035126399585729477
 0.9967459922708438 -0.028279339022079648 0.002857756594033696 0.011543580113721455 -0.0003859985698049678 -0.0035126375833261494 0.0004366151609015147 0.005495453012458075
 0.0004322469898804275 0.005495969738864309 -0.0003859985698049678 -0.0035126375833261494 0.0028583694508862783 0.011544107660017438 0.9967460042721256 -0.028278753624309386
 -0.00038604838334330214 -0.0035126399585729477 0.0004366151609015147 0.005495453012458075 0.9967460042721256 -0.028278753624309386 0.002857719852991974 0.011544167338207895
0.050020842017509996 0.0031076728135962807 0.013270068897291912 0.9964173006311036 -0.03237123830678414 0.0005182227466194044 0.006284357634433941 -0.00046044865656442606 -0.004019400347239514
 0.9964173006311036 -0.03237123830678414 0.003106950323232037 0.013270126300499839 -0.00046038387672892554 -0.004019398308063805 0.0005239296562773842 0.006283685824218928
 0.0005182227466194044 0.006284357634433941 -0.00046038387672892554 -0.004019398308063805 0.0031077499504851987 0.013270725273593648 0.9964173160189729 -0.03237056906919166
 -0.00046044865656442606 -0.004019400347239514 0.0005239296562773842 0.006283685824218928 0.9964173160189729 -0.03237056906919166 0.003106901887737128 0.013270796841292473
0.055454545454549996 0.0033372971321623444 0.014784460384211261 0.9961141712934843 -0.035938663007706116 0.0005997720082671392 0.006969969990465231 -0.0005309391002150381 -0.004460471743374177
 0.9961141712934843 -0.035938663007706116 0.003336409617810889 0.014784526157472134 -0.0005308597648436868 -0.0044604701789231534 0.0006067883139860932 0.006969141556766471
 0.0005997720082671392 0.006969969990465231 -0.0005308597648436868 -0.0044604701789231534 0.0033373916395015297 0.01478518625540195 0.9961141899771464 -0.035937920794613214
 -0.0005309391002150381 -0.004460471743374177 0.0006067883139860932 0.006969141556766471 0.9961141899771464 -0.035937920794613214 0.003336349677069508 0.014785268943227379
0.056273447269699996 0.003372958520632597 0.015013802412600565 0.9960670646187962 -0.03647722346724853 0.000612616811023231 0.007073331280276224 -0.0005420368052315658 -0.0045269944174335325
 0.9960670646187962 -0.03647722346724853 0.00337204466879308 0.015013869483979944 -0.0005419551520094692 -0.004526992940081924 0.0006198422422385122 0.007072477380446681
 0.000612616811023231 0.007073331280276224 -0.0005419551520094692 -0.004526992940081924 0.003373055797817743 0.015014538714456521 0.9960670838277107 -0.036476470245894226
 -0.0005420368052315658 -0.0045269944174335325 0.0006198422422385122 0.007072477380446681 0.9960670838277107 -0.036476470245894226 0.0033719828850078174 0.01501462314356729
0.06252605252188 0.003654472663154641 0.016774379107960403 0.9956949931882048 -0.040597260602682865 0.0007155125133859057 0.00786278539179066 -0.0006308992127035487 -0.005035303245415393
 0.9956949931882048 -0.040597260602682865 0.003653345047813162 0.016774456407703132 -0.0006307987952452955 -0.005035302574541844 0.0007244366418775502 0.007861720102821058
 0.0007155125133859057 0.00786278539179066 -0.0006307987952452955 -0.005035302574541844 0.0036545924016188097 0.01677519466275518 0.9956950166601675 -0.04059642322621896
 -0.0006308992127035487 -0.005035303245415393 0.0007244366418775502 0.007861720102821058 0.9956950166601675 -0.04059642322621896 0.0036532682455199406 0.016775292967772262
0.06877865777407 0.003952518802787441 0.018551472691084047 0.9953007951911443 -0.04473127801950143 0.0008269916850137002 0.008652610041396787 -0.0007271205111070416 -0.005544207099238622
 0.9953007951911443 -0.04473127801950143 0.003951155018583189 0.01855156077890237 -0.0007269994544512788 -0.005544207498338819 0.0008377950645609796 0.008651301743296258
 0.0008269916850137002 0.008652610041396787 -0.0007269994544512788 -0.005544207498338819 0.003952663316951451 0.018552366756580348 0.9953008233761503 -0.04473035629487057
 -0.0007271205111070416 -0.005544207099238622 0.0008377950645609796 0.008651301743296258 0.9953008233761503 -0.04473035629487057 0.003951061509935208 0.018552479994797755
0.07503126302626001 0.0042673987339345324 0.02034477488287971 0.9948841796989795 -0.04887917511996993 0.000947134554782813 0.009442691199060617 -0.0008307835286418311 -0.006053584915158483
 0.9948841796989795 -0.04887917511996993 0.0042657763659573345 0.02034487431772086 -0.00083063997347624 -0.0060535866665130745 0.0009599980978528355 0.00944110592483734
 0.000947134554782813 0.009442691199060617 -0.00083063997347624 -0.0060535866665130745 0.004267570330814292 0.020345746650694885 0.9948842130561146 -0.048878168828550776
 -0.0008307835286418311 -0.006053584915158483 0.0009599980978528355 0.00944110592483734 0.9948842130561146 -0.048878168828550776 0.004265664444789431 0.020345875922562602
0.08128386827845 0.004599412507563173 0.022153989476814486 0.9944448562676654 -0.0530408282853123 0.0010760196514874184 0.010232911098811647 -0.0009419692288661703 -0.006563313952358205
 0.9944448562676654 -0.0530408282853123 0.004597509124652016 0.02215410081674301 -0.0009418013313422164 -0.006563317356976357 0.0010911246066859718 0.010231012508148403
 0.0010760196514874184 0.010232911098811647 -0.0009418013313422164 -0.006563317356976357 0.004599613486124052 0.022155038069104946 0.9944448952667304 -0.053039737185763526
 -0.0009419692288661703 -0.006563313952358205 0.0010911246066859718 0.010231012508148403 0.9944448952667304 -0.053039737185763526 0.004597377066116457 0.022155184518813886
0.08753647353064001 0.004948858415098186 0.02397882821545706 0.993982535166497 -0.05721609494620333 0.0012137237104634035 0.011023148494147969 -0.0010607566441436101 -0.007073269563251307
 0.993982535166497 -0.05721609494620333 0.004946651563755749 0.023978952017787686 -0.0010605625757623004 -0.007073274940803061 0.0012312516370692047 0.01102089784735694
 0.0012137237104634035 0.011023148494147969 -0.0010605625757623004 -0.007073274940803061 0.004949091064545631 0.023979952687073355 0.9939825802878814 -0.05721491877198194
 -0.0010607566441436101 -0.007073269563251307 0.0012312516370692047 0.01102089784735694 0.9939825802878814 -0.05721491877198194 0.004946497622775734 0.023980117503325522
0.09378907878283 0.0053160329442511495 0.02581900786056567 0.99349692758157 -0.06140481646508489 0.0013603215823828735 0.011813278848066582 -0.0011872228052934486 -0.007583325033709352
 0.99349692758157 -0.06140481646508489 0.0053135001419681045 0.025819144682152597 -0.0011870007528156454 -0.00758333272247005 0.001380454322666119 0.011810634980468393
 0.0013603215823828735 0.011813278848066582 -0.0011870007528156454 -0.00758333272247005 0.0053162995430844585 0.02582020719890692 0.9934969793176422 -0.061403554924229435
 -0.0011872228052934486 -0.007583325033709352 0.001380454322666119 0.011810634980468393 0.9934969793176422 -0.061403554924229435 0.005313322552493498 0.025820391615969714
0.100041684035 0.00570123071454283 0.02767424803249981 0.9929877458030016 -0.06560682025428544 0.0015158861439067961 0.012603174476517782 -0.0013214426682233939 -0.008093351474720149
 0.9929877458030016 -0.06560682025428544 0.005698349443287832 0.027674398430300895 -0.0013211908335613747 -0.008093361831502346 0.0015388057932605253 0.012600093773143865
 0.0015158861439067961 0.012603174476517782 -0.0013211908335613747 -0.008093361831502346 0.005701533529246883 0.02767552115162052 0.9929878046590218 -0.06560547303507827
 -0.0013214426682233939 -0.008093351474720149 0.0015388057932605253 0.012600093773143865 0.9929878046590218 -0.06560547303507827 0.005698146417821817 0.027675726450493654
0.1059090909091 0.006079350642678502 0.029428642881773805 0.9924882370735678 -0.06956187060872003 0.0016700851986024155 0.013344077865882795 -0.0014545105634085943 -0.008571814003310228
 0.9924882370735678 -0.06956187060872003 0.00607612185308877 0.029428806526687713 -0.0014542291594975404 -0.008571827204720932 0.0016957858782080575 0.013340545366608272
 0.0016700851986024155 0.013344077865882795 -0.0014542291594975404 -0.008571827204720932 0.006079689491662361 0.029429984190422795 0.992488303082665 -0.06956044268107388
 -0.0014545105634085943 -0.008571814003310228 0.0016957858782080575 0.013340545366608272 0.992488303082665 -0.06956044268107388 0.006075893312568074 0.02943021029265551
0.1062942892872 0.0061047443979877864 0.02954426959570664 0.9924547034006083 -0.06982192135396993 0.001680488209160332 0.013392704665754249 -0.001463489038264043 -0.008603217744947314
 0.9924547034006083 -0.06982192135396993 0.006101492097805807 0.029544434127506142 -0.0014632056385043464 -0.00860323114503374 0.0017063770847662077 0.013389141036499998
 0.001680488209160332 0.013392704665754249 -0.0014632056385043464 -0.00860323114503374 0.0061050856817589415 0.029545615343732824 0.9924547698954618 -0.0698204881172541
 -0.001463489038264043 -0.008603217744947314 0.0017063770847662077 0.013389141036499998 0.9924547698954618 -0.0698204881172541 0.0061012618259204225 0.029545842853642344
0.11254689453939999 0.006526864629298911 0.03142879342016485 0.9918975153915628 -0.07404992363963794 0.0018541964423843592 0.014181735764957123 -0.0016134324927659766 -0.009112790403059855
 0.9918975153915628 -0.07404992363963794 0.00652321869141102 0.03142897264561124 -0.0016131157600917424 -0.009112807240145578 0.0018832370500174958 0.014177640620256024
 0.0018541964423843592 0.014181735764957123 -0.0016131157600917424 -0.009112807240145578 0.0065272466209605196 0.03143021057330183 0.9918975900589534 -0.07404840402470696
 -0.0016134324927659766 -0.009112790403059855 0.0018832370500174958 0.014177640620256024 0.9918975900589534 -0.07404840402470696 0.006522959339409703 0.031430461673365544
0.11879949979160001 0.0069678799058054425 0.033327539423609304 0.9913158984016899 -0.07829062075510655 0.002037077270839712 0.014970131269609355 -0.0017713413023042965 -0.009621933674455055
 0.9913158984016899 -0.07829062075510655 0.006963817666148443 0.033327733905451164 -0.001770989484045141 -0.00962195436056705 0.002069452270374019 0.014965453496533308
 0.002037077270839712 0.014970131269609355 -0.001770989484045141 -0.00962195436056705 0.006968304828075322 0.03332902668760195 0.9913159817907058 -0.07828901437804926
 -0.0017713413023042965 -0.009621933674455055 0.002069452270374019 0.014965453496533308 0.9913159817907058 -0.07828901437804926 0.00696352737565587 0.033329302808770216
0.1250521050438 0.007428076481156122 0.03524022580941229 0.9907095708229444 -0.08254379685587691 0.00222919479841371 0.015757751891702018 -0.0019372813506988928 -0.010130509436292791
 0.9907095708229444 -0.08254379685587691 0.007423575213683251 0.03524043611493712 -0.0019368927093096787 -0.010130534401721436 0.0022650869679329156 0.015752437830655226
 0.00222919479841371 0.015757751891702018 -0.0019368927093096787 -0.010130534401721436 0.0074285465397498345 0.03524178181984166 0.9907096634993537 -0.08254210330929906
 -0.0019372813506988928 -0.010130509436292791 0.0022650869679329156 0.015752437830655226 0.9907096634993537 -0.08254210330929906 0.007423252100957088 0.035242084446993005
0.131304710296 0.007907738253338164 0.037166568467078845 0.9900782529675128 -0.08680922719621013 0.002430610719347902 0.016544455626531264 -0.0021113160544508135 -0.010638377211275597
 0.9900782529675128 -0.08680922719621013 0.007902775162944622 0.03716679516989648 -0.002110888867549544 -0.01063840690451456 0.002470202917968936 0.016538449048510335
 0.002430610719347902 0.016544455626531264 -0.002110888867549544 -0.01063840690451456 0.007908255635329119 0.03716819178896678 0.9900783555144155 -0.08680744604957061
 -0.0021113160544508135 -0.010638377211275597 0.002470202917968936 0.016538449048510335 0.9900783555144155 -0.08680744604957061 0.007902417318018863 0.03716852246341006
0.1375573155481 0.008297048891953537 0.03885621838810551 0.9895318094316639 -0.09083649961802132 0.002615610998870572 0.017305344682196872 -0.0022676878665867403 -0.011120688093168329
 0.9895318094316639 -0.09083649961802132 0.008291597751904446 0.03885645733209421 -0.00226721943102585 -0.011120722543326035 0.002658989890827547 0.0172986543914669
 0.002615610998870572 0.017305344682196872 -0.00226721943102585 -0.011120722543326035 0.008297615054499047 0.038857908037594285 0.9895319223098922 -0.0908346306072126
 -0.0022676878665867403 -0.011120688093168329 0.002658989890827547 0.0172986543914669 0.9895319223098922 -0.0908346306072126 0.008291204206761448 0.038858262920821146
0.1438099208003 0.008700072876350972 0.04053703321575602 0.9889661444448378 -0.0948536050083985 0.0028080639814558276 0.018063153704252242 -0.0024303041249906314 -0.01160014050801853
 0.9889661444448378 -0.0948536050083985 0.008694110236217871 0.04053728481275427 -0.0024297925638433254 -0.01160018015969931 0.0028553951635878912 0.018055728356235496
 0.0028080639814558276 0.018063153704252242 -0.0024297925638433254 -0.01160018015969931 0.008700689848622047 0.04053878773370471 0.9889662682379711 -0.09485164771051367
 -0.0024303041249906314 -0.01160014050801853 0.0028553951635878912 0.018055728356235496 0.9889662682379711 -0.09485164771051367 0.008693679212625182 0.040539168164301406
0.1500625260525 0.009116669329668193 0.04220887374091574 0.9883814030051642 -0.09886044456512624 0.0030079027593420972 0.018817805849458913 -0.002599099131196229 -0.012076660804687457
 0.9883814030051642 -0.09886044456512624 0.009110171646442821 0.04220913845860032 -0.0025985425703872506 -0.012076706120457095 0.0030593507917284404 0.018809592239287555
 0.0030079027593420972 0.018817805849458913 -0.0025985425703872506 -0.012076706120457095 0.009117339114539776 0.04221069161247226 0.988381538311479 -0.09885839853967912
 -0.002599099131196229 -0.012076660804687457 0.0030593507917284404 0.018809592239287555 0.988381538311479 -0.09885839853967912 0.009109701351432442 0.04221109902114317
0.15631513130469998 0.009546696389293582 0.043871604955449985 0.9877777308340586 -0.10285691981411711 0.003215059635593782 0.019569225594273477 -0.0027740063797495143 -0.012550176885717268
