! Created with skrf 1.8.0 (http://scikit-rf.org).
# GHz S RI R 50.0 
!freq ReS11 ImS11 ReS12 ImS12 ReS13 ImS13
! ReS14 ImS14
! ReS21 ImS21 ReS22 ImS22 ReS23 ImS23
! ReS24 ImS24
! ReS31 ImS31 ReS32 ImS32 ReS33 ImS33
! ReS34 ImS34
! ReS41 ImS41 ReS42 ImS42 ReS43 ImS43
! ReS44 ImS44
!
0.0 0.001133182916612 0.0 0.9988668170576 0.0 4.293914666359e-05 0.0 -4.293914658541e-05 5.258528842394136e-21
 0.9988668170576 0.0 0.001133182916606 0.0 -4.29391465859e-05 5.258528842454143e-21 4.293914666318e-05 0.0
 4.293914666359e-05 0.0 -4.29391465859e-05 5.258528842454143e-21 0.001133182929507 0.0 0.9988668170705 0.0
 -4.293914658541e-05 5.258528842394136e-21 4.293914666318e-05 0.0 0.9988668170705 0.0 0.001133182929477 0.0
0.005 0.0012182933367895557 0.0009290910532830738 0.998759278971323 -0.002374775804533563 5.9450669142430066e-05 0.0004645387330640882 -5.785876300191134e-05 -0.0002932350322034868
 0.998759278971323 -0.002374775804533563 0.0012183015887208104 0.0009290862702450879 -5.7861341448203554e-05 -0.000293237020536417 5.9388863120340826e-05 0.0004645621443966233
 5.9450669142430066e-05 0.0004645387330640882 -5.7861341448203554e-05 -0.000293237020536417 0.0012182916570147664 0.0009290248092936114 0.9987592786493676 -0.0023748428655161998
 -5.785876300191134e-05 -0.0002932350322034868 5.9388863120340826e-05 0.0004645621443966233 0.9987592786493676 -0.0023748428655161998 0.0012183026270848184 0.0009290183938902416
0.006252605252188 0.0012403543634386198 0.001165048657805838 0.9987312705251602 -0.002969090011244891 6.402853154052319e-05 0.0005809182665472717 -6.195174284543572e-05 -0.0003669356590622694
 0.9987312705251602 -0.002969090011244891 0.0012403672624440173 0.001165042582862628 -6.195575515586357e-05 -0.00036693811215636707 6.393196232659005e-05 0.0005809486412156059
 6.402853154052319e-05 0.0005809182665472717 -6.195575515586357e-05 -0.00036693811215636707 0.0012403518080512988 0.0011649658679273706 0.9987312700924873 -0.002969173825623513
 -6.195174284543572e-05 -0.0003669356590622694 6.393196232659005e-05 0.0005809486412156059 0.9987312700924873 -0.002969173825623513 0.0012403689565726136 0.001164957747739774
0.01250521050438 0.0013549694346862244 0.0023548348002098624 0.9985849932411063 -0.005939183885585358 8.954493198701637e-05 0.0011622904194822392 -8.453388296476974e-05 -0.0007358016650714876
 0.9985849932411063 -0.005939183885585358 0.0013550209363014192 0.002354821694988647 -8.454969621994954e-05 -0.0007358062241918405 8.91597641569665e-05 0.0011623629308118574
 8.954493198701637e-05 0.0011622904194822392 -8.454969621994954e-05 -0.0007358062241918405 0.0013549597977885505 0.002354669504377472 0.9985849920838088 -0.005939351277585954
 -8.453388296476974e-05 -0.0007358016650714876 8.91597641569665e-05 0.0011623629308118574 0.9985849920838088 -0.005939351277585954 0.00135502827588153 0.00235465224326222
0.01875781575657 0.0014772233580558705 0.0035619465049028377 0.9984278430656569 -0.008917561669163063 0.00011953841825078326 0.001744527088735877 -0.00011074309047768225 -0.0011061098729533002
 0.9984278430656569 -0.008917561669163063 0.0014773390756764732 0.003561925377386954 -0.00011077835761333858 -0.0011061161412173072 0.00011867300750285816 0.0017446553028329522
 0.00011953841825078326 0.001744527088735877 -0.00011077835761333858 -0.0011061161412173072 0.0014772021189281698 0.0035616988832705846 0.9984278408862757 -0.008917812548214174
 -0.00011074309047768225 -0.0011061098729533002 0.00011867300750285816 0.0017446553028329522 0.9984278408862757 -0.008917812548214174 0.0014773559990982354 0.0035616713682459903
0.02501042100875 0.001607308268778539 0.00478475092566247 0.9982596738822846 -0.011905720035396573 0.00015405993735360796 0.002327682614535154 -0.00014063580881121192 -0.0014777261768907917
 0.9982596738822846 -0.011905720035396573 0.0016075137581496783 0.004784720756569584 -0.00014069809385504638 -0.0014777336996676363 0.00015252244230518476 0.0023278818174636605
 0.00015405993735360796 0.002327682614535154 -0.00014069809385504638 -0.0014777336996676363 0.0016072709132314632 0.004784421156913299 0.998259670384934 -0.011906054352887836
 -0.00014063580881121192 -0.0014777261768907917 0.00015252244230518476 0.0023278818174636605 0.998259670384934 -0.011906054352887836 0.0016075442035008512 0.004784382196293684
0.03126302626094 0.0017454078911131703 0.006022434671052124 0.9980803303500978 -0.01490433188354197 0.00019316116447312941 0.002911759768984661 -0.00017426732175963096 -0.0018505657347198618
 0.9980803303500978 -0.01490433188354197 0.0017457286631453331 0.006022394416237786 -0.00017436411564517867 -0.001850573998536989 0.00019075935820326057 0.002912046975616993
 0.00019316116447312941 0.002911759768984661 -0.00017436411564517867 -0.001850573998536989 0.001745349908053906 0.006022022958963764 0.9980803252386824 -0.014904749606321557
 -0.00017426732175963096 -0.0018505657347198618 0.00019075935820326057 0.002912046975616993 0.9980803252386824 -0.014904749606321557 0.0017457765689572152 0.006021971284884796
0.037515631513130004 0.0018917021135642187 0.0072744877926077525 0.9978896525458295 -0.01791376231146891 0.00023689399165882955 0.00349674143296688 -0.0002116921740604959 -0.0022245612758191088
 0.9978896525458295 -0.01791376231146891 0.0018921636428480117 0.007274436384599196 -0.00021183090285873763 -0.002224569707983967 0.0002334351703688142 0.0034971354051180786
 0.00023689399165882955 0.00349674143296688 -0.00021183090285873763 -0.002224569707983967 0.0018916189941926055 0.007273994368573786 0.9978896455240043 -0.01791426341968411
 -0.0002116921740604959 -0.0022245612758191088 0.0002334351703688142 0.0034971354051180786 0.9978896455240043 -0.01791426341968411 0.00189223294917028 0.0072739286381513606
0.043768236765320004 0.002046368765892418 0.008540546752187163 0.9976874778080911 -0.020934225604444932 0.00028531030666955107 0.004082600213615508 -0.0002529643270283411 -0.0025996534704495282
 0.9976874778080911 -0.020934225604444932 0.0020469964969073986 0.008540483101452534 -0.0002531523569556395 -0.002599661438866125 0.00028060123959365883 0.004083121481062272
 0.00028531030666955107 0.004082600213615508 -0.0002531523569556395 -0.002599661438866125 0.0020462560030890904 0.008539971875741162 0.9976874685784459 -0.02093481009134196
 -0.0002529643270283411 -0.0025996534704495282 0.00028060123959365883 0.004083121481062272 0.9976874685784459 -0.02093481009134196 0.002047091145624952 0.008539890671842222
0.050020842017509996 0.0022095844530427185 0.009820329520958735 0.9974736416403587 -0.02396585009039699 0.0003384618658629176 0.004669302411913742 -0.0002981372284310673 -0.0029757869496775074
 0.9974736416403587 -0.02396585009039699 0.00221040380554565 0.00982025251705582 -0.00029838186908257887 -0.0029757937627570533 0.0003323087669053223 0.004669973294637837
 0.0003384618658629176 0.004669302411913742 -0.00029838186908257887 -0.0029757937627570533 0.002209437541188791 0.00981967348674715 0.997473629905374 -0.02396651795595785
 -0.0002981372284310673 -0.0029757869496775074 0.0003323087669053223 0.004669973294637837 0.997473629905374 -0.02396651795595785 0.002210527741339614 0.009819575318333192
0.055454545454549996 0.0023585032606924885 0.010943463573955117 0.9972782122689173 -0.02660954649805893 0.00038853781309077147 0.00517981989345208 -0.00034060288095401494 -0.003303462510106685
 0.9972782122689173 -0.02660954649805893 0.0023595097663547653 0.010943374048380645 -0.00034090261212369594 -0.0033034677112517142 0.00038097198571351653 0.005180640330517739
 0.00038853781309077147 0.00517981989345208 -0.00034090261212369594 -0.0033034677112517142 0.002358323014779778 0.010942737274063958 0.9972781981144344 -0.026610286831412946
 -0.00034060288095401494 -0.003303462510106685 0.00038097198571351653 0.005180640330517739 0.9972781981144344 -0.026610286831412946 0.0023596623596978555 0.010942623094955198
0.056273447269699996 0.002381524997814861 0.011113603728815775 0.9972479782251455 -0.027008709944359048 0.00039640020879071056 0.0052568099752856685 -0.00034726384377208155 -0.003352908340940676
 0.9972479782251455 -0.027008709944359048 0.0023825613715284773 0.011113512241326047 -0.00034757235046460833 -0.00335291324753448 0.0003886087211745217 0.005257654606363931
 0.00039640020879071056 0.0052568099752856685 -0.00034757235046460833 -0.00335291324753448 0.002381339433224986 0.011112866862581 0.9972479636863587 -0.027009461199750614
 -0.00034726384377208155 -0.003352908340940676 0.0003886087211745217 0.005257654606363931 0.9972479636863587 -0.027009461199750614 0.0023827185423384795 0.011112750165087459
0.06252605252188 0.0025623656930491945 0.012420169151725073 0.9970103207477324 -0.030062842654874043 0.000459176597447289 0.005845081560456851 -0.0004003966642855171 -0.0037309651940820457
 0.9970103207477324 -0.030062842654874043 0.0025636444720599076 0.012420062031225297 -0.0004007762396553736 -0.003730967383442265 0.0004495517868899992 0.0058461259092698475
 0.000459176597447289 0.005845081560456851 -0.0004007762396553736 -0.003730967383442265 0.002562136972526255 0.012419351819373453 0.9970103031051372 -0.030063677313860945
 -0.0004003966642855171 -0.0037309651940820457 0.0004495517868899992 0.0058461259092698475 0.9970103031051372 -0.030063677313860945 0.002563838828276757 0.012419214954816266
0.06877865777407 0.002752281448675336 0.013739847275684287 0.9967605016175545 -0.033128259414244805 0.0005268419671008415 0.006434073159611547 -0.000457587703735644 -0.004109905344890544
 0.9967605016175545 -0.033128259414244805 0.002753828005609472 0.013739723354488498 -0.00045804549896525754 -0.004109903946644579 0.000515188320756533 0.006435345055250442
 0.0005268419671008415 0.006434073159611547 -0.00045804549896525754 -0.004109903946644579 0.0027520050707171887 0.013738949874565526 0.9967604805699429 -0.03312917750244422
 -0.000457587703735644 -0.004109905344890544 0.000515188320756533 0.006435345055250442 0.9967604805699429 -0.03312917750244422 0.002754063501275131 0.013738791131630412
0.07503126302626001 0.002951446880020943 0.01507247467136419 0.9964983526316464 -0.03620495169868744 0.0005994468817739511 0.007023738511827549 -0.0005188884903520634 -0.004489676494242921
 0.9964983526316464 -0.03620495169868744 0.0029532865802446343 0.015072332764311434 -0.0005194316060657032 -0.004489670578369188 0.0005855683117378799 0.007025267666603148
 0.0005994468817739511 0.007023738511827549 -0.0005194316060657032 -0.004489670578369188 0.002951118344761656 0.015071497638682435 0.9964983278764342 -0.03620595324567175
 -0.0005188884903520634 -0.004489676494242921 0.0005855683117378799 0.007025267666603148 0.9964983278764342 -0.03620595324567175 0.0029535671730071896 0.015071315232679374
0.08128386827845 0.0031600363583073063 0.01641789859174569 0.9962237051019829 -0.03929289562630836 0.0006770414971298333 0.00761402935714713 -0.0005843500512403234 -0.004870225945550169
 0.9962237051019829 -0.03929289562630836 0.0031621945638591353 0.016417737496823754 -0.0005849855381575168 -0.004870214522369661 0.0006607413470693422 0.0076158473901392024
 0.0006770414971298333 0.00761402935714713 -0.0005849855381575168 -0.004870214522369661 0.0031596511673816718 0.01641684240196353 0.9962236763350238 -0.039293980668695765
 -0.0005843500512403234 -0.004870225945550169 0.0006607413470693422 0.0076158473901392024 0.9962236763350238 -0.039293980668695765 0.0031625242149072776 0.016416634474706118
0.08753647353064001 0.003378224035827998 0.017775973924915766 0.9959363899592867 -0.042392054960747105 0.0007596755243821913 0.008204895622261782 -0.0006540228951694769 -0.005251500411594399
 0.9959363899592867 -0.042392054960747105 0.003380726109391339 0.017775792423818458 -0.0006547577545750164 -0.005251482431765561 0.0007407565789016815 0.008207036082840138
 0.0007596755243821913 0.008204895622261782 -0.0006547577545750164 -0.005251482431765561 0.003377777692680878 0.01777483909103807 0.9959363568745044 -0.042393223541467594
 -0.0006540228951694769 -0.005251500411594399 0.0007407565789016815 0.008207036082840138 0.9959363568745044 -0.042393223541467594 0.003381108783771795 0.017774603710599624
0.09378907878283 0.003606183854631222 0.019146561009530733 0.9956362378412477 -0.04550238325313969 0.000847398196499634 0.008796285547798214 -0.000727956992618033 -0.005633445880793815
 0.9956362378412477 -0.04550238325313969 0.0036090551635748567 0.0191463578681252 -0.0007287981767420544 -0.0056334202353084456 0.0008256626925177037 0.008798783939140862
 0.000847398196499634 0.008796285547798214 -0.0007287981767420544 -0.0056334202353084456 0.0036056718648124746 0.019145348084080065 0.9956362001305715 -0.04550363542086639
 -0.000727956992618033 -0.005633445880793815 0.0008256626925177037 0.008798783939140862 0.9956362001305715 -0.04550363542086639 0.0036094948301095353 0.019145083244523155
0.100041684035 0.0038440895430766103 0.02052952404392696 0.9953230791704903 -0.04862382539152127 0.0009402582353079862 0.009388145785106432 -0.0008062017541922617 -0.006016007515049323
 0.9953230791704903 -0.04862382539152127 0.003847355463420723 0.02052929801267461 -0.000807156166407937 -0.0060159730352472756 0.0009155078755072082 0.009391039587619224
 0.0009402582353079862 0.009388145785106432 -0.000807156166407937 -0.0060159730352472756 0.0038435074143699467 0.02052823361793953 0.9953230365235943 -0.048625161202268306
 -0.0008062017541922617 -0.006016007515049323 0.0009155078755072082 0.009391039587619224 0.9953230365235943 -0.048625161202268306 0.003847856094927691 0.02052793723887045
0.1059090909091 0.0040765390152106805 0.021838425313999734 0.9950172324718478 -0.05156302002057492 0.0010321128356719066 0.009943922727361663 -0.0008835901681242086 -0.0063755117931473424
 0.9950172324718478 -0.05156302002057492 0.004080198326889291 0.0218381766531101 -0.0008846570680463259 -0.006375467907263321 0.0010043525412603692 0.009947223451130503
 0.0010321128356719066 0.009943922727361663 -0.0008846570680463259 -0.006375467907263321 0.004075886985168196 0.021837062736910468 0.9950171849085668 -0.05156443437625893
 -0.0008835901681242086 -0.0063755117931473424 0.0010043525412603692 0.009947223451130503 0.9950171849085668 -0.05156443437625893 0.004080759784354186 0.021836734802527406
0.1062942892872 0.004092114603573792 0.02192472987070573 0.9949967442251784 -0.05175631877584968 0.0010383038201104877 0.0099804214619271 -0.0008888060071545249 -0.006399129579852301
 0.9949967442251784 -0.05175631877584968 0.004095800523968286 0.02192447968492895 -0.0008898805021378905 -0.006399085037430886 0.0010103397876172465 0.009983750156590017
 0.0010383038201104877 0.0099804214619271 -0.0008898805021378905 -0.006399085037430886 0.004091457846268142 0.021923362575766596 0.9949966963294594 -0.05175773829142682
 -0.0008888060071545249 -0.006399129579852301 0.0010103397876172465 0.009983750156590017 0.9949966963294594 -0.05175773829142682 0.0040963660972570416 0.021923032501866523
0.11254689453939999 0.004350432293897918 0.02333204706219345 0.9946570632046361 -0.05489979419342094 0.0011415825560065096 0.010573056239691608 -0.000975817971402709 -0.00678275538392246
 0.9946570632046361 -0.05489979419342094 0.0043545636196445515 0.023331771442297932 -0.0009770193552013828 -0.006782699490955496 0.0011102055306437147 0.010576861331270825
 0.0011415825560065096 0.010573056239691608 -0.0009770193552013828 -0.006782699490955496 0.004349696421090789 0.023330603572850224 0.9946570097447371 -0.054901297479480096
 -0.000975817971402709 -0.00678275538392246 0.0011102055306437147 0.010576861331270825 0.9946570097447371 -0.054901297479480096 0.0043551981155772225 0.023330237573268027
0.11879949979160001 0.0046192156025101246 0.024751345195269413 0.9943038662899427 -0.05805417650613669 0.0012501414428786166 0.01116599235445866 -0.0010672852343060863 -0.0071668272363744736
 0.9943038662899427 -0.05805417650613669 0.004623817759751841 0.024751042846846025 -0.0010686202643404158 -0.007166758645338544 0.0012151516185549595 0.011170317394613659
 0.0012501414428786166 0.01116599235445866 -0.0010686202643404158 -0.007166758645338544 0.00461839613062243 0.02474982622437383 0.994303806948297 -0.05805576363730551
 -0.0010672852343060863 -0.0071668272363744736 0.0012151516185549595 0.011170317394613659 0.994303806948297 -0.05805576363730551 0.004624525163537639 0.02474942199202207
0.1250521050438 0.004898637220917018 0.0261824942778135 0.9939369837042655 -0.061219385187424036 0.0013640268447941335 0.011759170649324427 -0.0011632547244757666 -0.007551286413687959
 0.9939369837042655 -0.061219385187424036 0.004903735660694285 0.0261821638916397 -0.0011647301095122403 -0.007551203717498055 0.0013252239479645844 0.011764061259587405
 0.0013640268447941335 0.011759170649324427 -0.0011647301095122403 -0.007551203717498055 0.004897729669756026 0.026180900582531183 0.9939369181599083 -0.061221056241807015
 -0.0011632547244757666 -0.007551286413687959 0.0013252239479645844 0.011764061259587405 0.9939369181599083 -0.061221056241807015 0.0049045199615306906 0.026180455733319643
0.131304710296 0.005188869511654792 0.027625364292141002 0.9935562457683609 -0.06439533474361943 0.0014832844589267244 0.012352530603796834 -0.0012637726853944487 -0.007936073130984484
 0.9935562457683609 -0.06439533474361943 0.005194489714093028 0.02762500454407614 -0.0012653950854459946 -0.007935974863029875 0.0014404677681221826 0.012358034498329985
 0.0014832844589267244 0.012352530603796834 -0.0012653950854459946 -0.007935974863029875 0.0051878694050180646 0.02762369666928314 0.9935561736976435 -0.06439708980793836
 -0.0012637726853944487 -0.007936073130984484 0.0014404677681221826 0.012358034498329985 0.9935561736976435 -0.06439708980793836 0.005195354905519102 0.027623208741215665
0.1375573155481 0.00541494235179014 0.028891283560239633 0.9932366406652731 -0.06739335173014273 0.0015907181206078625 0.012926461103821812 -0.0013516953596630413 -0.00830154905786638
 0.9932366406652731 -0.06739335173014273 0.005421112235391971 0.028890902249510804 -0.0013534745362201643 -0.008301435463876966 0.001543790741874992 0.012932560944804494
 0.0015907181206078625 0.012926461103821812 -0.0013534745362201643 -0.008301435463876966 0.005413845639881907 0.028889542840435926 0.9932365617746116 -0.06739519083835503
 -0.0013516953596630413 -0.00830154905786638 0.001543790741874992 0.012932560944804494 0.9932365617746116 -0.06739519083835503 0.005422061830579931 0.02888901834264396
0.1438099208003 0.00564864620523536 0.030151881147068606 0.9929063680584395 -0.07038513104277133 0.001702485568259916 0.013498835750349316 -0.0014431386961159343 -0.008665614258610704
 0.9929063680584395 -0.07038513104277133 0.00565539168046977 0.030151477558629642 -0.0014450817983915991 -0.00866548393380967 0.0016512649694342435 0.013505574197102042
 0.001702485568259916 0.013498835750349316 -0.0014450817983915991 -0.00866548393380967 0.005647448494321827 0.030150068160799105 0.9929062820259971 -0.07038705427552408
 -0.0014431386961159343 -0.008665614258610704 0.0016512649694342435 0.013505574197102042 0.9929062820259971 -0.07038705427552408 0.005656429591588288 0.030149505189273357
0.1500625260525 0.005889914396175768 0.031407091806959705 0.9925654970933251 -0.07337063915635107 0.0018185574122913217 0.014069621731171437 -0.001538074431755148 -0.00902823725635547
 0.9925654970933251 -0.07337063915635107 0.005897261420187748 0.03140666517636077 -0.0015401885998344634 -0.009028088740374564 0.001762861849968561 0.014077042969159383
 0.0018185574122913217 0.014069621731171437 -0.0015401885998344634 -0.009028088740374564 0.005888611301037375 0.031405207416393556 0.9925654035945569 -0.0733726465995226
 -0.001538074431755148 -0.00902823725635547 0.001762861849968561 0.014077042969159383 0.9925654035945569 -0.0733726465995226 0.005898391557842381 0.031404603969613844
0.15631513130469998 0.006138679952848463 0.03265685252606203 0.9922140970691428 -0.07634984193742374 0.001938904023413534 0.014638786645019412 -0.0016364740536840394 -0.009389387151474981
