! Created with skrf 1.8.0 (http://scikit-rf.org).
# GHz S RI R 50.0 
!freq ReS11 ImS11 ReS12 ImS12 ReS13 ImS13
! ReS14 ImS14
! ReS21 ImS21 ReS22 ImS22 ReS23 ImS23
! ReS24 ImS24
! ReS31 ImS31 ReS32 ImS32 ReS33 ImS33
! ReS34 ImS34
! ReS41 ImS41 ReS42 ImS42 ReS43 ImS43
! ReS44 ImS44
!
0.0 0.001537812686609 0.0 0.9984621872992 0.0 5.920313248381e-05 0.0 -5.920313177344e-05 7.250292582584226e-21
 0.9984621872992 0.0 0.001537812686569 0.0 -5.920313177252e-05 7.250292582471559e-21 5.920313248318e-05 0.0
 5.920313248381e-05 0.0 -5.920313177252e-05 7.250292582471559e-21 0.001537812685155 0.0 0.9984621872978 0.0
 -5.920313177344e-05 7.250292582584226e-21 5.920313248318e-05 0.0 0.9984621872978 0.0 0.001537812685164 0.0
0.005 0.0016545087327234757 0.0012600565347049798 0.9983145534505875 -0.0032211866578940557 8.268703263254787e-05 0.0006405733197956166 -8.032838364686591e-05 -0.0004041404716729784
 0.9983145534505875 -0.0032211866578940557 0.0016545371999004516 0.0012600399902821127 -8.032687420596375e-05 -0.0004041394006616744 8.251844504307963e-05 0.000640637578512796
 8.268703263254787e-05 0.0006405733197956166 -8.032687420596375e-05 -0.0004041394006616744 0.00165450869675084 0.0012599893400049272 0.9983145530907922 -0.003221253722492582
 -8.032838364686591e-05 -0.0004041404716729784 8.251844504307963e-05 0.000640637578512796 0.9983145530907922 -0.003221253722492582 0.0016545365185842574 0.0012599730570715846
0.006252605252188 0.0016851049441889492 0.0015800190871242078 0.9982756002572638 -0.004027271107912801 8.94043093566644e-05 0.0008010318911006598 -8.628615173851324e-05 -0.0005056956443390047
 0.9982756002572638 -0.004027271107912801 0.0016851494425863566 0.001579998057906947 -8.628380222164988e-05 -0.0005056943256831987 8.914090747389754e-05 0.0008011153156962565
 8.94043093566644e-05 0.0008010318911006598 -8.628380222164988e-05 -0.0005056943256831987 0.0016851049639998823 0.0015799351192160868 0.9982755997713372 -0.004027354921223116
 -8.628615173851324e-05 -0.0005056956443390047 8.914090747389754e-05 0.0008011153156962565 0.9982755997713372 -0.004027354921223116 0.0016851484545234022 0.0015799144023168014
0.01250521050438 0.0018461144338169915 0.003193072054477586 0.9980692508453031 -0.008055339480451298 0.0001279678263459108 0.0016024480944161444 -0.00012005378283957434 -0.0010138345496877158
 0.9980692508453031 -0.008055339480451298 0.001846292102356672 0.003193026466563656 -0.00012004451489175153 -0.001013832133954515 0.00012691745789212395 0.0016026484056000626
 0.0001279678263459108 0.0016024480944161444 -0.00012004451489175153 -0.001013832133954515 0.001846115076760415 0.003192904439748975 0.9980692494764946 -0.00805550687071918
 -0.00012005378283957434 -0.0010138345496877158 0.00012691745789212395 0.0016026484056000626 0.9980692494764946 -0.00805550687071918 0.0018462887383105034 0.003192859332376462
0.01875781575657 0.0020211922616226096 0.0048290393260188285 0.9978428829788625 -0.012094007044981559 0.00017498202714146026 0.002404768414904403 -0.00016060936526948537 -0.0015237014442877322
 0.9978428829788625 -0.012094007044981559 0.002021591463567047 0.004828965364487436 -0.0001605886852005239 -0.0015236981989942906 0.00017262252820968778 0.002405125630305242
 0.00017498202714146026 0.002404768414904403 -0.0001605886852005239 -0.0015236981989942906 0.0020211941079171444 0.0048287882587134175 0.9978428803198971 -0.012094257913279118
 -0.00016060936526948537 -0.0015237014442877322 0.00017262252820968778 0.002405125630305242 0.9978428803198971 -0.012094257913279118 0.002021584341183283 0.004828714806593914
0.02501042100875 0.002210679153403712 0.006485636127842347 0.9975962304728689 -0.01614523039205294 0.00023053702509250704 0.003208019601817274 -0.00020805299053445287 -0.002035068563332539
 0.9975962304728689 -0.01614523039205294 0.0022113880582343565 0.006485529721617107 -0.00020801645435716736 -0.0020350648062424314 0.00022634605556271244 0.0032085800631895763
 0.00023053702509250704 0.003208019601817274 -0.00020801645435716736 -0.0020350648062424314 0.002210682782443655 0.006485301768154848 0.9975962261253084 -0.016145564685129506
 -0.00020805299053445287 -0.002035068563332539 0.00022634605556271244 0.0032085800631895763 0.9975962261253084 -0.016145564685129506 0.002211375818021758 0.006485195763784685
0.03126302626094 0.002414901734697743 0.008161686561122244 0.9973290135267072 -0.020209846682501215 0.0002947235189752783 0.004012156008809245 -0.00026248197833963875 -0.0025477748733341472
 0.9973290135267072 -0.020209846682501215 0.002416008365417194 0.008161543388696518 -0.0002624251832996724 -0.0025477709730677804 0.00028817807401338563 0.004012972417557998
 0.0002947235189752783 0.004012156008809245 -0.0002624251832996724 -0.0025477709730677804 0.0024149077154702143 0.008161269070192127 0.9973290070904679 -0.0202102643581821
 -0.00026248197833963875 -0.0025477748733341472 0.00028817807401338563 0.004012972417557998 0.9973290070904679 -0.0202102643581821 0.002415989659409541 0.008161126058063243
0.037515631513130004 0.002634179568188262 0.009856423831761444 0.9970409459773967 -0.024288273357287997 0.0003676318253169315 0.00481710328936122 -0.00032399155484958976 -0.0030616823666925527
 0.9970409459773967 -0.024288273357287997 0.0026357718329439524 0.009856239323676373 -0.0003239101352037304 -0.003061678742951085 0.00035820801585890885 0.0048182347696519075
 0.0003676318253169315 0.00481710328936122 -0.0003239101352037304 -0.003061678742951085 0.0026341884608910965 0.009855923360475312 0.9970409370511637 -0.024288774395904527
 -0.00032399155484958976 -0.0030616823666925527 0.00035820801585890885 0.0048182347696519075 0.9970409370511637 -0.024288774395904527 0.002635745324976275 0.009855738639493069
0.043768236765320004 0.002868827865925854 0.01156927727505306 0.9967317382316636 -0.02838072104229125 0.00044935142466213376 0.0056227716919920205 -0.00039267509384463626 -0.0035766627644970525
 0.9967317382316636 -0.02838072104229125 0.002870993582822932 0.011569046615425356 -0.0003925647184028003 -0.003576659888209514 0.0004365243727951188 0.005624283862462229
 0.00044935142466213376 0.0056227716919920205 -0.0003925647184028003 -0.003576659888209514 0.00286884022357733 0.011568693986805859 0.9967317264139853 -0.028381305424136395
 -0.00039267509384463626 -0.0035766627644970525 0.0004365243727951188 0.005624283862462229 0.9967317264139853 -0.028381305424136395 0.00287095794940702 0.011568462611557565
0.050020842017509996 0.003119158753126111 0.013299784353395818 0.9964010987556148 -0.032487281478032023 0.0005399706905611074 0.006429061546502201 -0.0004686242006930722 -0.004092592032484488
 0.9964010987556148 -0.032487281478032023 0.0031219856714130656 0.013299502480478108 -0.0004684805713160273 -0.004092590425905206 0.0005232144858368721 0.006431026595483181
 0.0005399706905611074 0.006429061546502201 -0.0004684805713160273 -0.004092590425905206 0.003119175121766848 0.013299118411424546 0.9964010836441279 -0.032487949196236494
 -0.0004686242006930722 -0.004092592032484488 0.0005232144858368721 0.006431026595483181 0.9964010836441279 -0.032487949196236494 0.0031219396012619324 0.013298835192673397
0.055454545454549996 0.0033496806304218756 0.014817674393434638 0.9960961306130498 -0.03606748204855538 0.0006260168578141313 0.007130173693462017 -0.0005405966334850337 -0.004541625661092601
 0.9960961306130498 -0.03606748204855538 0.003353153377235993 0.014817343712953414 -0.0005404206398190784 -0.004541625621982564 0.0006054181891299326 0.007132596093461999
 0.0006260168578141313 0.007130173693462017 -0.0005404206398190784 -0.004541625621982564 0.003349700923338186 0.014816936759671188 0.9960961123116245 -0.03606822218875847
 -0.0005405966334850337 -0.004541625661092601 0.0006054181891299326 0.007132596093461999 0.9960961123116245 -0.03606822218875847 0.003353097181419351 0.01481660408367441
0.056273447269699996 0.0033854819120057735 0.015047547452506992 0.9960487349474525 -0.03660797065209013 0.0006395766976903022 0.007235865965210649 -0.0005519287275409219 -0.004609347685862001
 0.9960487349474525 -0.03660797065209013 0.003389057731802736 0.015047209058731937 -0.0005517475782417317 -0.0046093479226456445 0.0006183643902843984 0.007238362727512574
 0.0006395766976903022 0.007235865965210649 -0.0005517475782417317 -0.0046093479226456445 0.0033855028315328264 0.015046799025519645 0.9960487161390319 -0.036608721707171735
 -0.0005519287275409219 -0.004609347685862001 0.0006183643902843984 0.007238362727512574 0.9960487161390319 -0.036608721707171735 0.0033889999255887256 0.015046458530180188
0.06252605252188 0.003668104930919041 0.016812210138132968 0.9956743537207287 -0.040742752473583665 0.0007482550715138045 0.008043072317072644 -0.0006426767515496564 -0.005126807325270616
 0.9956743537207287 -0.040742752473583665 0.003672517321282303 0.016811809669539175 -0.000642453847860272 -0.005126810030527431 0.0007220586896814078 0.008046186351404718
 0.0007482550715138045 0.008043072317072644 -0.000642453847860272 -0.005126810030527431 0.003668130934761108 0.016811379401588483 0.9956743308105803 -0.04074358687227687
 -0.0006426767515496564 -0.005126807325270616 0.0007220586896814078 0.008046186351404718 0.9956743308105803 -0.04074358687227687 0.0036724464912714183 0.016810975952145278
0.06877865777407 0.00396733348307769 0.018593442986270997 0.995277661920903 -0.04489155287781922 0.0008660898591463737 0.008850563119794668 -0.0007409545336497981 -0.005644847758986803
 0.995277661920903 -0.04489155287781922 0.003972670099944434 0.01859297464140352 -0.0007406856723126643 -0.005644853609343375 0.0008343804439676889 0.008854386786243841
 0.0008660898591463737 0.008850563119794668 -0.0007406856723126643 -0.005644853609343375 0.003967365099228319 0.018592530126317897 0.9952776345030063 -0.04489247062930235
 -0.0007409545336497981 -0.005644847758986803 0.0008343804439676889 0.008854386786243841 0.9952776345030063 -0.04489247062930235 0.003972584970178919 0.018592057799615144
0.07503126302626001 0.004283471412441245 0.020390934619379797 0.9948583666524877 -0.04905426872905164 0.0009931634136751259 0.00965821660747863 -0.0008468464645458209 -0.006163344454007154
 0.9948583666524877 -0.04905426872905164 0.0042898199155658005 0.0203903923476301 -0.000846527473339089 -0.00616335417764907 0.0009554110665346882 0.00966284914474507
 0.0009931634136751259 0.00965821660747863 -0.000846527473339089 -0.00616335417764907 0.004283509163706996 0.020389939825991053 0.9948583343191878 -0.0490552698519867
 -0.0008468464645458209 -0.006163344454007154 0.0009554110665346882 0.00966284914474507 0.9948583343191878 -0.0490552698519867 0.004289719221911605 0.020389392451603428
0.08128386827845 0.004616820755537014 0.022204385725788964 0.9944161755468546 -0.05323077374485756 0.001129556287037454 0.010465907110013307 -0.0009604350018653332 -0.0066821711799837005
 0.9944161755468546 -0.05323077374485756 0.004624268826097501 0.022203763225182412 -0.0009600617396364592 -0.006682185556681696 0.0010852302272498367 0.010471454712135207
 0.001129556287037454 0.010465907110013307 -0.0009600617396364592 -0.006682185556681696 0.00461686515985647 0.022203309197109885 0.9944161378882136 -0.05323185826309512
 -0.0009604350018653332 -0.0066821711799837005 0.0010852302272498367 0.010471454712135207 0.9944161378882136 -0.05323185826309512 0.004624151315494374 0.022202680355137703
0.08753647353064001 0.004967681723860886 0.024033504934200083 0.9939507969933764 -0.0574209225703466 0.0012753471277023216 0.011273505322609179 -0.0010818006022393172 -0.00720119976778116
 0.9939507969933764 -0.0574209225703466 0.004976317080863423 0.024032795648622304 -0.0010813689589070981 -0.007201219628932461 0.0012239157581887766 0.011280081214969453
 0.0012753471277023216 0.011273505322609179 -0.0010813689589070981 -0.007201219628932461 0.004967733294713504 0.02403234687652383 0.9939507535975641 -0.05742209051306428
 -0.0010818006022393172 -0.00720119976778116 0.0012239157581887766 0.011280081214969453 0.9939507535975641 -0.05742209051306428 0.004976181512012151 0.02403162989471276
0.09378907878283 0.005336352657767168 0.025878005863101596 0.9934619403465853 -0.06162455368267224 0.0014306125821915638 0.012080878505461301 -0.0012110216486964376 -0.007720299942722202
 0.9934619403465853 -0.06162455368267224 0.005346263075573035 0.025877202978891158 -0.0012105275455023708 -0.007720326171350191 0.0013715435620138738 0.012088603020011988
 0.0014306125821915638 0.012080878505461301 -0.0012105275455023708 -0.007720326171350191 0.005336411905077335 0.025876766493247324 0.9934618907994159 -0.061625805082084914
 -0.0012110216486964376 -0.007720299942722202 0.0013715435620138738 0.012088603020011988 0.9934618907994159 -0.061625805082084914 0.0053461082185819785 0.025875954443726455
0.100041684035 0.005723129960745358 0.027737604962793264 0.992949316116093 -0.06584149150865112 0.0015954271988416412 0.012887890635359164 -0.001348174375327627 -0.00823933921100648
 0.992949316116093 -0.06584149150865112 0.005734403285581462 0.02773670140484329 -0.0013476137649931245 -0.008239372741774545 0.0015281875215617368 0.012896891284825344
 0.0015954271988416412 0.012887890635359164 -0.0013476137649931245 -0.008239372741774545 0.005723197390622754 0.027736284503270137 0.9929492600005401 -0.06584282640484665
 -0.001348174375327627 -0.00823933921100648 0.0015281875215617368 0.012896891284825344 0.9929492600005401 -0.06584282640484665 0.005734227921941564 0.02773537019860922
0.1059090909091 0.006102809243640109 0.02949612158262217 0.9924463995854134 -0.06981057536795432 0.0017588375764307324 0.013644733607813915 -0.0014841573931456368 -0.008726227079396732
 0.9924463995854134 -0.06981057536795432 0.00611544148633409 0.029495116881403292 -0.0014835307202825604 -0.008726268358515676 0.0016834453209987226 0.01365505420679351
 0.0017588375764307324 0.013644733607813915 -0.0014835307202825604 -0.008726268358515676 0.006102884809674161 0.02949472523991759 0.9924463369244328 -0.06981198865719729
 -0.0014841573931456368 -0.008726227079396732 0.0016834453209987226 0.01365505420679351 0.9924463369244328 -0.06981198865719729 0.00611524578141491 0.029493708207511148
0.1062942892872 0.006128308017765001 0.029612019888310106 0.992412636144611 -0.07007154801711532 0.0017698633334091115 0.013694402527022748 -0.001493332789378728 -0.008758182781463671
 0.992412636144611 -0.07007154801711532 0.006141032184855338 0.02961100831548316 -0.0014927016564228652 -0.008758224600674352 0.001693919410449407 0.013704814078033895
 0.0017698633334091115 0.013694402527022748 -0.0014927016564228652 -0.008758224600674352 0.006128384133408091 0.029610618571495308 0.9924125730409449 -0.07007296645403036
 -0.001493332789378728 -0.008758182781463671 0.001693919410449407 0.013704814078033895 0.9924125730409449 -0.07007296645403036 0.006140835107585047 0.02960959456009414
0.11254689453939999 0.0065521791028459305 0.03150096826405887 0.9918516137782092 -0.07431452392560564 0.001953991055707168 0.014500271933853726 -0.0016465685916642098 -0.00927669351312436
 0.9918516137782092 -0.07431452392560564 0.00656644215352419 0.03149984106394977 -0.0016458629527269597 -0.0092767446586972 0.001868808804358197 0.014512236478973426
 0.001953991055707168 0.014500271933853726 -0.0016458629527269597 -0.0092767446586972 0.006552264404875373 0.031499486331645496 0.9918515432636783 -0.07431602595158306
 -0.0016465685916642098 -0.00927669351312436 0.001868808804358197 0.014512236478973426 0.9918515432636783 -0.07431602595158306 0.006566222167066955 0.031498344892603454
0.11879949979160001 0.006995033277523706 0.03340416671677689 0.991265964030255 -0.0785702096449937 0.0021478780573382706 0.01530535363336013 -0.0018079510953784603 -0.009794731883616277
 0.991265964030255 -0.0785702096449937 0.007010923376328404 0.03340291599985868 -0.0018071669995945064 -0.009794793445067956 0.002052922992999208 0.015319020661710838
 0.0021478780573382706 0.01530535363336013 -0.0018071669995945064 -0.009794793445067956 0.006995128264405821 0.033402604418101216 0.9912658856788706 -0.07857179531438678
 -0.0018079510953784603 -0.009794731883616277 0.002052922992999208 0.015319020661710838 0.9912658856788706 -0.07857179531438678 0.007010679296624522 0.03340133755541592
0.1250521050438 0.0074571582822448215 0.0353213301208602 0.9906554037415191 -0.08283838601791194 0.0023515895599773985 0.016109499504882475 -0.0019775471440747153 -0.010312155970496891
 0.9906554037415191 -0.08283838601791194 0.007474763734280575 0.03531994771396934 -0.0019766806735044135 -0.010312229088891798 0.0022463268919810115 0.016125025971548135
 0.0023515895599773985 0.016109499504882475 -0.0019766806735044135 -0.010312229088891798 0.0074572634508260046 0.035319687714832446 0.9906553171236925 -0.08284005538926004
 -0.0019775471440747153 -0.010312155970496891 0.0022463268919810115 0.016125025971548135 0.9906553171236925 -0.08284005538926004 0.0074744943886948184 0.03531828715090344
0.131304710296 0.007938839421644988 0.0372521709885219 0.9900196517364481 -0.08711882491909613 0.002565188224154823 0.01691255859835113 -0.0021554210287507594 -0.010828821447322353
 0.9900196517364481 -0.08711882491909613 0.00795824868979504 0.03725064842759219 -0.0021544682987360065 -0.010828907315240508 0.0024490829553783385 0.01693010899224099
 0.002565188224154823 0.01691255859835113 -0.0021544682987360065 -0.010828907315240508 0.007938955267393986 0.03725044874058144 0.9900195564187458 -0.08712057805809112
 -0.0021554210287507594 -0.010828821447322353 0.0024490829553783385 0.01693010899224099 0.9900195564187458 -0.08712057805809112 0.007957952917103661 0.03724890590905588
0.1375573155481 0.008329757151515516 0.038945283125890885 0.9894690707306409 -0.09116007433055603 0.0027622565423879603 0.017689539451070976 -0.002315292693619971 -0.01131965988678396
 0.9894690707306409 -0.09116007433055603 0.00835106664852348 0.03894364474610523 -0.0023142482052941524 -0.011319758620812321 0.0026350382123825028 0.017709089177782848
 0.0027622565423879603 0.017689539451070976 -0.0023142482052941524 -0.011319758620812321 0.008329885157980527 0.03894348066806375 0.9894689663191091 -0.09116191123998603
 -0.002315292693619971 -0.01131965988678396 0.0026350382123825028 0.017709089177782848 0.9894689663191091 -0.09116191123998603 0.008350742224960586 0.038941820974190224
0.1438099208003 0.008734431158156676 0.040629489301652714 0.9888991139734347 -0.09519107379782016 0.002967293682491354 0.01846326190105861 -0.002481551941498574 -0.01180757175965026
 0.9888991139734347 -0.09519107379782016 0.00875773080306796 0.0406277286206381 -0.0024804115670507623 -0.011807684527227606 0.0028284748029250295 0.018484961533818674
 0.002967293682491354 0.01846326190105861 -0.0024804115670507623 -0.011807684527227606 0.008734571997574173 0.04062760683817234 0.9888990000381787 -0.09519299453483977
 -0.002481551941498574 -0.01180757175965026 0.0028284748029250295 0.018484961533818674 0.9888990000381787 -0.09519299453483977 0.008757376390816682 0.040625823825550654
0.1500625260525 0.009152718662869814 0.04230464881008009 0.9883099282556522 -0.0992117228342667 0.0031802289348175842 0.01923364323497643 -0.0026541312818833184 -0.012292481340759677
 0.9883099282556522 -0.0992117228342667 0.00917809857794026 0.04230275896787644 -0.00265289090592581 -0.012292609355801305 0.00302932488066888 0.019257648853441015
 0.0031802289348175842 0.01923364323497643 -0.00265289090592581 -0.012292609355801305 0.009152873017601084 0.042302686551840274 0.9883098043636024 -0.09921372745678048
 -0.0026541312818833184 -0.012292481340759677 0.00302932488066888 0.019257648853441015 0.9883098043636024 -0.09921372745678048 0.009177712837129884 0.04230077339205034
0.15631513130469998 0.009584475873959358 0.0439706251984215 0.9877016611112702 -0.10322192131924045 0.0034009907442941237 0.020000602136536268 -0.002832962390245857 -0.012774314510067712
