! Created with skrf 1.8.0 (http://scikit-rf.org).
# GHz S RI R 50.0 
!freq ReS11 ImS11 ReS12 ImS12 ReS13 ImS13
! ReS14 ImS14
! ReS21 ImS21 ReS22 ImS22 ReS23 ImS23
! ReS24 ImS24
! ReS31 ImS31 ReS32 ImS32 ReS33 ImS33
! ReS34 ImS34
! ReS41 ImS41 ReS42 ImS42 ReS43 ImS43
! ReS44 ImS44
!
0.0 0.001471629275065 0.0 0.9985283707249 0.0 5.623884929653e-05 0.0 -5.623884944695e-05 6.88727269629372e-21
 0.9985283707249 0.0 0.001471629275066 0.0 -5.623884944622e-05 6.887272696204321e-21 5.623884929689e-05 0.0
 5.623884929653e-05 0.0 -5.623884944622e-05 6.887272696204321e-21 0.001471629250794 0.0 0.9985283707007 0.0
 -5.623884944695e-05 6.88727269629372e-21 5.623884929689e-05 0.0 0.9985283707007 0.0 0.001471629250833 0.0
0.005 0.0015830685051683537 0.0012116623092259752 0.9983874597979735 -0.0030824443699436843 7.747497327780325e-05 0.0005741990053743997 -7.5581733130765e-05 -0.0003683794472605402
 0.9983874597979735 -0.0030824443699436843 0.0015830651944610486 0.0012116641789313932 -7.558214284822207e-05 -0.0003683796973477662 7.748273873659779e-05 0.0005741958426570426
 7.747497327780325e-05 0.0005741990053743997 -7.558214284822207e-05 -0.0003683796973477662 0.0015830682882072462 0.0012115951096087047 0.9983874594434989 -0.00308251143934648
 -7.5581733130765e-05 -0.0003683794472605402 7.748273873659779e-05 0.0005741958426570426 0.9983874594434989 -0.00308251143934648 0.0015830647031086014 0.0012115972388762027
0.006252605252188 0.001612235059679049 0.0015193174378134004 0.9983503638898557 -0.0038538156159265407 8.348973355743571e-05 0.000718052891270963 -8.100504216216983e-05 -0.00046094354152082764
 0.9983503638898557 -0.0038538156159265407 0.0016122298855848717 0.0015193198679591107 -8.100568023442205e-05 -0.00046094384851532604 8.350186403300798e-05 0.0007180488203658728
 8.348973355743571e-05 0.000718052891270963 -8.100568023442205e-05 -0.00046094384851532604 0.0016122347973054028 0.0015192334557785397 0.9983503634120183 -0.003853899428696337
 -8.100504216216983e-05 -0.00046094354152082764 8.350186403300798e-05 0.0007180488203658728 0.9983503634120183 -0.003853899428696337 0.0016122291933964026 0.0015192362229275178
0.01250521050438 0.001765421083018495 0.003070270816656131 0.998154331023777 -0.007708455037332443 0.00011770799950870679 0.0014366323074724468 -0.00011157260909377303 -0.0009241161138178097
 0.998154331023777 -0.007708455037332443 0.0017654004358314337 0.003070276629199745 -0.00011157513001507346 -0.0009241166657482756 0.00011775629845467648 0.001436622875523729
 0.00011770799950870679 0.0014366323074724468 -0.00011157513001507346 -0.0009241166657482756 0.0017654206203418115 0.0030701030200132565 0.9981543296928603 -0.0077086224269973256
 -0.00011157260909377303 -0.0009241161138178097 0.00011775629845467648 0.001436622875523729 0.9981543296928603 -0.0077086224269973256 0.0017653982415600379 0.003070109636449915
0.01875781575657 0.0019315089898466478 0.004643197391190969 0.9979400373259322 -0.011573304642455809 0.00015897275660373456 0.0021561765934565596 -0.00014803191533099033 -0.0013889215188052832
 0.9979400373259322 -0.011573304642455809 0.0019314626164702367 0.0046432076189258376 -0.00014803754597800495 -0.001388922239879972 0.00015908108093173632 0.002156160219698514
 0.00015897275660373456 0.0021561765934565596 -0.00014803754597800495 -0.001388922239879972 0.0019315083887728529 0.004642945818057002 0.9979400347584789 -0.011573555491462424
 -0.00014803191533099033 -0.0013889215188052832 0.00015908108093173632 0.002156160219698514 0.9979400347584789 -0.011573555491462424 0.0019314580938459712 0.004642957462056025
0.02501042100875 0.002110811647778727 0.006235926141433329 0.9977072390231767 -0.015450249913805194 0.00020736380934145463 0.0028767124275353427 -0.000190470891087931 -0.001855170503934576
 0.9977072390231767 -0.015450249913805194 0.0021107293297732413 0.006235941897964151 -0.0001904808466670427 -0.0018551713035681212 0.00020755592481566098 0.002876687262775626
 0.00020736380934145463 0.0028767124275353427 -0.0001904808466670427 -0.0018551713035681212 0.0021108109817545803 0.006235590768303042 0.9977072348387582 -0.015450584155272307
 -0.000190470891087931 -0.001855170503934576 0.00020755592481566098 0.002876687262775626 0.9977072348387582 -0.015450584155272307 0.0021107216479828218 0.006235608714751405
0.03126302626094 0.0023036289900554615 0.007847346790643526 0.9974556794296119 -0.01934010638618258 0.0002629613078743143 0.0035982060848527633 -0.0002389752908174016 -0.0023227295187260434
 0.9974556794296119 -0.01934010638618258 0.0023035005397085986 0.00784736927101959 -0.00023899077688256337 -0.0023227302913420445 0.00026326091818879417 0.0035981700129014927
 0.0002629613078743143 0.0035982060848527633 -0.00023899077688256337 -0.0023227302913420445 0.002303628342189184 0.007846927571950161 0.9974556732498795 -0.019340523964284685
 -0.0002389752908174016 -0.0023227295187260434 0.00026326091818879417 0.0035981700129014927 0.9974556732498795 -0.019340523964284685 0.002303488861935518 0.00784695319335659
0.037515631513130004 0.002510254600170739 0.009476740670087124 0.9971850957174815 -0.02324328872062093 0.00032584508149728847 0.004320599922870049 -0.0002936292468105747 -0.0027914842282150054
 0.9971850957174815 -0.02324328872062093 0.0025100698588307753 0.009476771151401995 -0.00029365146024883375 -0.00279148485314248 0.0003262758424648679 0.004320550559826678
 0.00032584508149728847 0.004320599922870049 -0.00029365146024883375 -0.00279148485314248 0.0025102540627282 0.009476237547914405 0.9971850871656031 -0.02324378958081119
 -0.0002936292468105747 -0.0027914842282150054 0.0003262758424648679 0.004320550559826678 0.9971850871656031 -0.02324378958081119 0.0025100533420625787 0.009476272315441212
0.043768236765320004 0.0027309782624674564 0.011123577101780987 0.9968952216532267 -0.02716001425190588 0.0003960943241559602 0.005043823471910044 -0.0003545154652448929 -0.003261328418772256
 0.9968952216532267 -0.02716001425190588 0.0027307270993857536 0.011123616943803288 -0.00035454559481341 -0.003261328760180743 0.0003966798511314835 0.005043758164726713
 0.0003960943241559602 0.005043823471910044 -0.00035454559481341 -0.003261328760180743 0.002730977935083421 0.011122989994002514 0.9968952103519724 -0.02716059835270117
 -0.0003545154652448929 -0.003261328418772256 0.0003966798511314835 0.005043758164726713 0.9968952103519724 -0.02716059835270117 0.002730704893002219 0.011123035478326321
0.050020842017509996 0.0029660871425792375 0.012787429241890861 0.9965857889660092 -0.03109038707321855 0.00047378740042003115 0.005767798019734918 -0.00042171529812920006 -0.0037321594104967435
 0.9965857889660092 -0.03109038707321855 0.0029657594546054966 0.012787479887548778 -0.0004217545248153684 -0.0037321593173235243 0.00047455127282447534 0.005767713844454794
 0.00047378740042003115 0.005767798019734918 -0.0004217545248153684 -0.0037321593173235243 0.002966087132833598 0.01278675805826297 0.9965857745390977 -0.031091054370161495
 -0.00042171529812920006 -0.0037321594104967435 0.00047455127282447534 0.005767713844454794 0.9965857745390977 -0.031091054370161495 0.0029657307009535367 0.012786815930463375
0.055454545454549996 0.003182307955339245 0.014246901946186547 0.996300789303407 -0.03451710968812003 0.0005474104790233575 0.006397498070327367 -0.00048530359001431185 -0.004142048465807443
 0.996300789303407 -0.03451710968812003 0.0031819055808648515 0.014246963217410527 -0.0004853516755148567 -0.004142047860421742 0.0005483484620715225 0.006397394911669366
 0.0005474104790233575 0.006397498070327367 -0.0004853516755148567 -0.004142047860421742 0.0031823083151086245 0.014246157614767996 0.9963007718551046 -0.034517849250240054
 -0.00048530359001431185 -0.004142048465807443 0.0005483484620715225 0.006397394911669366 0.9963007718551046 -0.034517849250240054 0.0031818704361028303 0.01424622768815205
0.056273447269699996 0.0032158664025430167 0.014467932772740449 0.9962565281542319 -0.03503443927277226 0.0005590017092608897 0.006492438847046487 -0.0004953087556014687 -0.004203875820531914
 0.9962565281542319 -0.03503443927277226 0.003215452113566549 0.014467995748724203 -0.0004953582527218076 -0.0042038751264314445 0.0005599674727218626 0.006492332606919516
 0.0005590017092608897 0.006492438847046487 -0.0004953582527218076 -0.0042038751264314445 0.003215866825586722 0.014467177410303499 0.9962565102256872 -0.03503518972285698
 -0.0004953087556014687 -0.004203875820531914 0.0005599674727218626 0.006492332606919516 0.9962565102256872 -0.03503518972285698 0.0032154159484792237 0.014467249442741538
0.06252605252188 0.0034805995325107586 0.016164763198547198 0.9959071690110297 -0.03899215356824209 0.0006518135713264042 0.007217656474334845 -0.0005753744923307157 -0.004676376317497285
 0.9959071690110297 -0.03899215356824209 0.0034800885934078603 0.016164840115815468 -0.000575435425683675 -0.0046763748407815005 0.0006530047386482378 0.007217524697857469
 0.0006518135713264042 0.007217656474334845 -0.000575435425683675 -0.0046763748407815005 0.00348060051186349 0.016163923538006244 0.9959071472064909 -0.0389929871336018
 -0.0005753744923307157 -0.004676376317497285 0.0006530047386482378 0.007217524697857469 0.9959071472064909 -0.0389929871336018 0.003480044146840763 0.016164011605250897
0.06877865777407 0.0037605685319241004 0.017877622295083315 0.9955374410044314 -0.04296347679029806 0.0007522981343655352 0.00794335738983401 -0.0006619897741420839 -0.005149558897697664
 0.9955374410044314 -0.04296347679029806 0.0037599509207982026 0.017877714849387487 -0.0006620633019942823 -0.005149556441290935 0.0007537381856816374 0.007943196328716902
 0.0007522981343655352 0.00794335738983401 -0.0006620633019942823 -0.005149556441290935 0.0037605701970316384 0.017876698209291938 0.9955374149488214 -0.042964393429628336
 -0.0006619897741420839 -0.005149558897697664 0.0007537381856816374 0.007943196328716902 0.9955374149488214 -0.042964393429628336 0.003759897315037219 0.01787680428883874
0.07503126302626001 0.004056053997093175 0.01960622952594962 0.9951470735648714 -0.046948328402141755 0.0008605292855497622 0.00866944452045812 -0.0007552304362289484 -0.005623320421424998
 0.9951470735648714 -0.046948328402141755 0.004055319718949827 0.01960633949837598 -0.0007553177093058217 -0.005623316772812446 0.0008622416674746658 0.008669250147626447
 0.0008605292855497622 0.00866944452045812 -0.0007553177093058217 -0.005623316772812446 0.0040560564848087 0.01960522087436525 0.9951470428841791 -0.04694932807623395
 -0.0007552304362289484 -0.005623320421424998 0.0008622416674746658 0.008669250147626447 0.9951470428841791 -0.04694932807623395 0.00405525607032498 0.019605347047610886
0.08128386827845 0.004367335154214986 0.021350316338168966 0.9947357963240512 -0.050946606143702555 0.0009765795694376951 0.009395817547366842 -0.0008551708338039916 -0.006097556307945706
 0.9947357963240512 -0.050946606143702555 0.004366474241866937 0.02135044559560217 -0.0008552729952771006 -0.006097551239128722 0.0009785876942092723 0.009395585554913573
 0.0009765795694376951 0.009395817547366842 -0.0008552729952771006 -0.006097551239128722 0.004367338608450379 0.021349222967274057 0.9947357606448143 -0.05094768881495911
 -0.0008551708338039916 -0.006097556307945706 0.0009785876942092723 0.009395585554913573 0.9947357606448143 -0.05094768881495911 0.0043663996603675505 0.021349371420264406
0.08753647353064001 0.0046946898552356845 0.023109622195579275 0.994303339317163 -0.05495818994137616 0.0011005201102554788 0.010122373124285012 -0.0009618837876002387 -0.006572160331197757
 0.994303339317163 -0.05495818994137616 0.004693692368557161 0.023109772691310877 -0.0009620019729069156 -0.006572153598660058 0.0011028473539770843 0.010122098921457684
 0.0011005201102554788 0.010122373124285012 -0.0009620019729069156 -0.006572153598660058 0.004694694425625027 0.023108443942256945 0.9943032982658194 -0.05495935557045398
 -0.0009618837876002387 -0.006572160331197757 0.0011028473539770843 0.010122098921457684 0.9943032982658194 -0.05495935557045398 0.004693605957803241 0.02310861696656191
0.09378907878283 0.005038394545380066 0.024883891763827326 0.9938494331626064 -0.05898294467062452 0.0012324205353645664 0.010849005037048784 -0.0010754405263403387 -0.007047024477834315
 0.9938494331626064 -0.05898294467062452 0.005037250572347829 0.024884065538017242 -0.0010755758631687201 -0.007047015822497312 0.0012350902361821642 0.01084868374827249
 0.0012324205353645664 0.010849005037048784 -0.0010755758631687201 -0.007047015822497312 0.005038400388347542 0.024882628453079786 0.993849386366589 -0.058984193218669684
 -0.0010754405263403387 -0.007047024477834315 0.0012350902361821642 0.01084868374827249 0.993849386366589 -0.058984193218669684 0.0050371514301127815 0.024882828446606865
0.100041684035 0.005398724214449402 0.02667287283895972 0.9933738092267412 -0.06302072217890127 0.0013723489003887792 0.011575604328915204 -0.0011959106266075743 -0.007522038843224415
 0.9933738092267412 -0.06302072217890127 0.005397423871015237 0.026673072019174553 -0.0011960642347260179 -0.007522027990421785 0.0013753843564283813 0.01157523079180018
 0.0013723489003887792 0.011575604328915204 -0.0011960642347260179 -0.007522027990421785 0.00539873149197954 0.02667152428447836 0.993373756313403 -0.06302205360697068
 -0.0011959106266075743 -0.007522038843224415 0.0013753843564283813 0.01157523079180018 0.993373756313403 -0.06302205360697068 0.00539731108892073 0.026671753752275294
0.1059090909091 0.005752219252011881 0.028364798508451916 0.9929074960206772 -0.06682145010479291 0.0015110173321182848 0.012257311647042355 -0.0013153071381308932 -0.007967826445608592
 0.9929074960206772 -0.06682145010479291 0.0057507632077335915 0.028365023542817516 -0.0013154789032041017 -0.007967813266990609 0.0015144171623101671 0.01225688412805802
 0.0015110173321182848 0.012257311647042355 -0.0013154789032041017 -0.007967813266990609 0.005752228028476805 0.028363369783345825 0.9929074370285705 -0.06682285927031405
 -0.0013153071381308932 -0.007967826445608592 0.0015144171623101671 0.01225688412805802 0.9929074370285705 -0.06682285927031405 0.005750636794831776 0.028363629284136087
0.1062942892872 0.005775952332212806 0.02847631478680204 0.9928761997768071 -0.06707136280247876 0.0015203716157246164 0.012302059392749786 -0.0013233619501876177 -0.007997091564438185
 0.9928761997768071 -0.06707136280247876 0.005774485763082319 0.0284765415885111 -0.0013235349413504602 -0.00799707822387826 0.0015237960827275106 0.012301628156156014
 0.0015203716157246164 0.012302059392749786 -0.0013235349413504602 -0.00799707822387826 0.005775961212306659 0.02847488079199692 0.992876140374099 -0.06707277707043158
 -0.0013233619501876177 -0.007997091564438185 0.0015237960827275106 0.012301628156156014 0.992876140374099 -0.06707277707043158 0.005774358427042659 0.028475142347119994
0.11254689453939999 0.006170350775032675 0.030293967352325056 0.9923563381275613 -0.07113469651773288 0.0016765533730984381 0.013028256050145522 -0.001457860580456586 -0.008472068770146687
 0.9923563381275613 -0.07113469651773288 0.006168708153646943 0.030294224079457862 -0.001458054058214337 -0.008472052635890326 0.001680390061794036 0.013027761372258504
 0.0016765533730984381 0.013028256050145522 -0.001458054058214337 -0.008472052635890326 0.006170361431058208 0.030292447706391678 0.9923562718636652 -0.07113619358826648
 -0.001457860580456586 -0.008472068770146687 0.001680390061794036 0.013027761372258504 0.9923562718636652 -0.07113619358826648 0.006168565343940257 0.03029274407065488
0.11879949979160001 0.006582189742752749 0.03212557973247304 0.9918139587809 -0.07521054383388746 0.0018409570730348566 0.013754077618062634 -0.001599470756799955 -0.0089468545470579
 0.9918139587809 -0.07521054383388746 0.006580361271763754 0.03212586877793577 -0.0015996858163507645 -0.008946835297498337 0.0018452291464716008 0.013753513464539497
 0.0018409570730348566 0.013754077618062634 -0.0015996858163507645 -0.008946835297498337 0.006582202353473109 0.03212397421760358 0.9918138852844399 -0.07521212366520738
 -0.001599470756799955 -0.0089468545470579 0.0018452291464716008 0.013753513464539497 0.9918138852844399 -0.07521212366520738 0.006580202063303198 0.032124308222462705
0.1250521050438 0.007011737669542499 0.03397089984421211 0.9912487975630577 -0.07929871649544665 0.002013643752249317 0.014479404964699589 -0.001748254808529708 -0.009421330921267294
 0.9912487975630577 -0.07929871649544665 0.007009713581306989 0.03397122369042484 -0.0017484925365658466 -0.009421308219111833 0.002018374322835176 0.014478765006852122
 0.002013643752249317 0.014479404964699589 -0.0017484925365658466 -0.009421308219111833 0.0070117524185825 0.03396920822827402 0.9912487164627887 -0.07930037904866179
 -0.001748254808529708 -0.009421330921267294 0.002018374322835176 0.014478765006852122 0.9912487164627887 -0.07930037904866179 0.007009537043785736 0.03396958281554839
0.131304710296 0.0074592611293582125 0.03582967373535403 0.9906605917579232 -0.08339901804697465 0.0021946725114602196 0.015204116561853134 -0.001904273087585418 -0.009895377847249429
 0.9906605917579232 -0.08339901804697465 0.007457031686576069 0.035830034954739104 -0.0019045345621061826 -0.009895351339502622 0.002199884638001943 0.015203394174836016
 0.0021946725114602196 0.015204116561853134 -0.0019045345621061826 -0.009895351339502622 0.007459278205440782 0.03582789577597962 0.9906605026831365 -0.08340076328196987
 -0.001904273087585418 -0.009895377847249429 0.002199884638001943 0.015203394174836016 0.9906605026831365 -0.08340076328196987 0.00745683688440858 0.035828313998712044
0.1375573155481 0.007820480867574161 0.037461220172987364 0.9901536627043406 -0.08727071345990871 0.002360519632779117 0.015904409883843458 -0.002044004143558222 -0.010345210859746021
 0.9901536627043406 -0.08727071345990871 0.007818035073489358 0.03746161181171325 -0.0020442907665404264 -0.010345180515009246 0.002366232632922654 0.015903605961827244
 0.002360519632779117 0.015904409883843458 -0.0020442907665404264 -0.010345180515009246 0.00782049954961865 0.037459356030745246 0.9901535652971359 -0.08727254130925001
 -0.002044004143558222 -0.010345210859746021 0.002366232632922654 0.015903605961827244 0.9901535652971359 -0.08727254130925001 0.007817821952132237 0.03745981054452846
0.1438099208003 0.008194375786569112 0.03908457673189913 0.9896290045180416 -0.09113296449835903 0.002533052020745717 0.016602011310836395 -0.0021893154856726244 -0.010792546079959183
 0.9896290045180416 -0.09113296449835903 0.008191703738286147 0.0390850006248818 -0.0021896283812610114 -0.01079251155598475 0.0025392881935929162 0.016601119672962485
 0.002533052020745717 0.016602011310836395 -0.0021896283812610114 -0.01079251155598475 0.008194396104597967 0.039082626196111574 0.9896288984114324 -0.09113487491258648
 -0.0021893154856726244 -0.010792546079959183 0.0025392881935929162 0.016601119672962485 0.9896288984114324 -0.09113487491258648 0.008191471513230507 0.03908311923429928
0.1500625260525 0.00858081971553771 0.04069961859870346 0.9890867470975111 -0.09498568590366557 0.002712212430691028 0.017296855260841824 -0.0023401511263767675 -0.011237320624530159
 0.9890867470975111 -0.09498568590366557 0.00857791152691841 0.040700076661605133 -0.0023404914143503527 -0.011237281565600861 0.002718993980934782 0.01729586949015612
 0.002712212430691028 0.017296855260841824 -0.0023404914143503527 -0.011237281565600861 0.00858084169306915 0.040697581448027945 0.9890866319251727 -0.0949876788345068
 -0.0023401511263767675 -0.011237320624530159 0.002718993980934782 0.01729586949015612 0.9890866319251727 -0.0949876788345068 0.008577659418791387 0.040698115338007435
0.15631513130469998 0.008979685657557248 0.04230622475426505 0.9885270209231216 -0.09882879250535377 0.0028979429789089853 0.017988877234368265 -0.002496454423954829 -0.011679472892853678
