! Created with skrf 1.8.0 (http://scikit-rf.org).
# GHz S RI R 50.0 
!freq ReS11 ImS11 ReS12 ImS12 ReS13 ImS13
! ReS14 ImS14
! ReS21 ImS21 ReS22 ImS22 ReS23 ImS23
! ReS24 ImS24
! ReS31 ImS31 ReS32 ImS32 ReS33 ImS33
! ReS34 ImS34
! ReS41 ImS41 ReS42 ImS42 ReS43 ImS43
! ReS44 ImS44
!
0.0 0.001270843500814 0.0 0.9987291564992 0.0 4.849013130818e-05 0.0 -4.849013105336e-05 5.9383283784733e-21
 0.9987291564992 0.0 0.001270843500795 0.0 -4.849013105258e-05 5.938328378377778e-21 4.849013130844e-05 0.0
 4.849013130818e-05 0.0 -4.849013105258e-05 5.938328378377778e-21 0.00127084349174 0.0 0.9987291564901 0.0
 -4.849013105336e-05 5.9383283784733e-21 4.849013130844e-05 0.0 0.9987291564901 0.0 0.00127084349176 0.0
0.005 0.0013666413664960176 0.001041405135900656 0.9986080662100426 -0.0026628619207614518 6.736965893506607e-05 0.0005264603626808359 -6.552816858235263e-05 -0.00033193329202806023
 0.9986080662100426 -0.0026628619207614518 0.001366652160106399 0.0010413989141574472 -6.552655088736606e-05 -0.0003319321268125602 6.730286564697683e-05 0.0005264857109608904
 6.736965893506607e-05 0.0005264603626808359 -6.552655088736606e-05 -0.0003319321268125602 0.0013666421261090053 0.0010414719940875458 0.9986080665438591 -0.0026627948615772466
 -6.552816858235263e-05 -0.00033193329202806023 6.730286564697683e-05 0.0005264857109608904 0.9986080665438591 -0.0026627948615772466 0.0013666520648946304 0.0010414661721181145
0.006252605252188 0.001391571035808296 0.0013058744265541855 0.9985763867105084 -0.0033292582745767783 7.26583408404657e-05 0.0006583460774920103 -7.024845767754862e-05 -0.00041535506748917154
 0.9985763867105084 -0.0033292582745767783 0.0013915879075384085 0.0013058665433387275 -7.024593974947433e-05 -0.0004153536318632882 7.255398048558333e-05 0.0006583789730898249
 7.26583408404657e-05 0.0006583460774920103 -7.024593974947433e-05 -0.0004153536318632882 0.001391572154950396 0.0013059580037941194 0.9985763871644733 -0.0033291744512429625
 -7.024845767754862e-05 -0.00041535506748917154 7.255398048558333e-05 0.0006583789730898249 0.9985763871644733 -0.0033291744512429625 0.001391587691260007 0.001305950607660224
0.01250521050438 0.0015216697975949619 0.002639345001682307 0.9984101164517334 -0.006659488320825593 0.00010243237098091892 0.0013171356358088295 -9.654659290064645e-05 -0.0008328371022595532
 0.9984101164517334 -0.006659488320825593 0.0015217371547998253 0.002639328169430567 -9.653666161110473e-05 -0.0008328344578094589 0.00010201615741672894 0.0013172143288281354
 0.00010243237098091892 0.0013171356358088295 -9.653666161110473e-05 -0.0008328344578094589 0.001521673677811478 0.0026395119450698485 0.9984101176846534 -0.006659320927130026
 -9.654659290064645e-05 -0.0008328371022595532 0.00010201615741672894 0.0013172143288281354 0.9984101176846534 -0.006659320927130026 0.0015217357178110113 0.0026394959642891914
0.01875781575657 0.001661383353855362 0.003992083963677207 0.998230168106051 -0.009998834505659804 0.00013787461829018924 0.001976824755295392 -0.00012745654863567757 -0.0012518801194812156
 0.998230168106051 -0.009998834505659804 0.0016615346830166574 0.003992057039492203 -0.000127434389148224 -0.001251876532061771 0.00013693952096987573 0.0019769643195828228
 0.00013787461829018924 0.001976824755295392 -0.000127434389148224 -0.001251876532061771 0.0016613916300777592 0.003992334214001516 0.9982301704517433 -0.00999858361795358
 -0.00012745654863567757 -0.0012518801194812156 0.00013693952096987573 0.0019769643195828228 0.9982301704517433 -0.00999858361795358 0.001661531041871642 0.003992308393125848
0.02501042100875 0.0018109501727749512 0.005362242536530009 0.9980363582359443 -0.013348956184164347 0.00017904856181236514 0.002637463629701 -0.000163048685575207 -0.0016723208214611044
 0.9980363582359443 -0.013348956184164347 0.0018112188762243345 0.005362204312890058 -0.0001630095358396937 -0.0016723166006889537 0.00017738738263436987 0.0026376812202905924
 0.00017904856181236514 0.002637463629701 -0.0001630095358396937 -0.0016723166006889537 0.0018109644659903268 0.005362576036606911 0.9980363620279826 -0.013348621852836766
 -0.000163048685575207 -0.0016723208214611044 0.00017738738263436987 0.0026376812202905924 0.9980363620279826 -0.013348621852836766 0.0018112120559877092 0.00536253906378714
0.03126302626094 0.0019705985975404863 0.006748890098376257 0.9978284926787885 -0.016710588504925433 0.00022601840135926584 0.0032990434588036476 -0.00020339177821239023 -0.0020940516543478354
 0.9978284926787885 -0.016710588504925433 0.0019710180109606228 0.0067488393058932035 -0.0002033309196219377 -0.0020940471542995245 0.0002234235724398092 0.003299358323426566
 0.00022601840135926584 0.0032990434588036476 -0.0002033309196219377 -0.0020940471542995245 0.0019706205163097083 0.006749306789385023 0.9978284982514879 -0.016710170758148457
 -0.00020339177821239023 -0.0020940516543478354 0.0002234235724398092 0.003299358323426566 0.9978284982514879 -0.016710170758148457 0.001971007044790342 0.006749257298647673
0.037515631513130004 0.002140552220692156 0.008151435631392798 0.9976063720254476 -0.020084120911570927 0.00027884843197081654 0.003961532483167954 -0.00024855351270455247 -0.0025169847589132854
 0.9976063720254476 -0.020084120911570927 0.002141155624368265 0.008151370940396196 -0.00024846626535910104 -0.002516980378396301 0.0002751119188689994 0.003961965984183466
 0.00027884843197081654 0.003961532483167954 -0.00024846626535910104 -0.002516980378396301 0.002140583360080306 0.008151935446764586 0.9976063797120481 -0.020083619761273944
 -0.00024855351270455247 -0.0025169847589132854 0.0002751119188689994 0.003961965984183466 0.9976063797120481 -0.020083619761273944 0.002141139550956387 0.008151872019487413
0.043768236765320004 0.0023210319624593022 0.009569451643905795 0.9973697938039735 -0.023469773165709622 0.00033760275657027697 0.004624886946184979 -0.00029860067740419935 -0.0029410409959590754
 0.9973697938039735 -0.023469773165709622 0.0023218525898702365 0.0095693716655172 -0.00029848239725591765 -0.0029410371786647497 0.0003325160062511084 0.004625462585753301
 0.00033760275657027697 0.004624886946184979 -0.00029848239725591765 -0.0029410371786647497 0.0023210739060522505 0.009570034508628894 0.9973698039390135 -0.02346918860815841
 -0.00029860067740419935 -0.0029410409959590754 0.0003325160062511084 0.004625462585753301 0.9973698039390135 -0.02346918860815841 0.002321830454808455 0.009569955674561847
0.050020842017509996 0.0025122570460428253 0.011002601414732804 0.9971185535634399 -0.026867668045562922 0.0004023451233140442 0.005289055608096335 -0.0003535992384350132 -0.003366145420759535
 0.9971185535634399 -0.026867668045562922 0.002513328091034265 0.011002504701731154 -0.00035344531548181296 -0.003366142655381672 0.00039569903601120954 0.005289799054763881
 0.0004023451233140442 0.005289055608096335 -0.00035344531548181296 -0.003366142655381672 0.0025123113664132445 0.01100326723629145 0.9971185664835749 -0.026867000070261465
 -0.0003535992384350132 -0.003366145420759535 0.00039569903601120954 0.005289799054763881 0.9971185664835749 -0.026867000070261465 0.0025132989466036125 0.011003171474390777
0.055454545454549996 0.002687333335032775 0.012260122703521137 0.9968881510166181 -0.02983053304494189 0.00046352038527636266 0.005866855753289604 -0.00040546642958499436 -0.0037363685997893483
 0.9968881510166181 -0.02983053304494189 0.002688648932188013 0.012260010227547613 -0.0004052778136099176 -0.003736367180451635 0.0004553489369335652 0.005867767578456594
 0.00046352038527636266 0.005866855753289604 -0.0004052778136099176 -0.003736367180451635 0.002687399678818414 0.012260860529791728 0.996888166630776 -0.029829792561747493
 -0.00040546642958499436 -0.0037363685997893483 0.0004553489369335652 0.005867767578456594 0.996888166630776 -0.029829792561747493 0.002688612930371758 0.012260748782888808
0.056273447269699996 0.002714445511314709 0.012450603266083151 0.9968524454983222 -0.030277867015653624 0.0004731388142370886 0.005953981964951156 -0.00041361436798612527 -0.003792225053774616
 0.9968524454983222 -0.030277867015653624 0.0027158001347602264 0.0124504883136172 -0.0004134202250833207 -0.0037922238740905226 0.00046472372930703035 0.005954921080939035
 0.0004731388142370886 0.005953981964951156 -0.0004134202250833207 -0.0037922238740905226 0.002714513768772914 0.012451351937381365 0.9968524615406457 -0.030277115602238332
 -0.00041361436798612527 -0.003792225053774616 0.00046472372930703035 0.005954921080939035 0.9968524615406457 -0.030277115602238332 0.0027157630378570417 0.012451237676507547
0.06252605252188 0.0029278145000283316 0.013913210937875375 0.996571262846427 -0.03370038979577279 0.0005500465606581048 0.006619605460662094 -0.00047871044704376163 -0.0042192076596155375
 0.996571262846427 -0.03370038979577279 0.002929485836073391 0.013913076183912312 -0.0004784715391043262 -0.004219208644565753 0.0005396522519813018 0.006620770329547575
 0.0005500465606581048 0.006619605460662094 -0.0004784715391043262 -0.004219208644565753 0.002927898244022551 0.013914042338259745 0.996571282350075 -0.033699554912789774
 -0.00047871044704376163 -0.0042192076596155375 0.0005396522519813018 0.006620770329547575 0.996571282350075 -0.033699554912789774 0.0029294398489474885 0.013913907957755751
0.06877865777407 0.0031525804212530497 0.015390201873161922 0.9962747981689685 -0.03713522601954041 0.0006331304731714776 0.007285862212418593 -0.0005489510541647781 -0.0046470210142022204
 0.9962747981689685 -0.03713522601954041 0.003154601582702177 0.015390045698922675 -0.0005486628675381738 -0.004647024787950074 0.0006205461507360037 0.007287285166989397
 0.0006331304731714776 0.007285862212418593 -0.0005486628675381738 -0.004647024787950074 0.0031526811896874143 0.015391115863115224 0.9962748214751008 -0.037134307629649234
 -0.0005489510541647781 -0.0046470210142022204 0.0006205461507360037 0.007287285166989397 0.9962748214751008 -0.037134307629649234 0.0031545457723859186 0.015390959693176966
0.07503126302626001 0.003388959041635924 0.01688136979774023 0.9959628435583698 -0.040582342600513306 0.0007224519804962502 0.007952685464852357 -0.0006243989447665643 -0.005075592444745975
 0.9959628435583698 -0.040582342600513306 0.003391363126010408 0.016881190527916864 -0.0006240569969280499 -0.005075599676744261 0.000707466297094105 0.007954401115091792
 0.0007224519804962502 0.007952685464852357 -0.0006240569969280499 -0.005075599676744261 0.0033890783613383267 0.016882366223043385 0.9959628710105511 -0.040581340656076
 -0.0006243989447665643 -0.005075592444745975 0.000707466297094105 0.007954401115091792 0.9959628710105511 -0.040581340656076 0.003391296563835372 0.01688218654508089
0.08128386827845 0.0036371655339529183 0.01838651977489087 0.9956351908059602 -0.044041688624417596 0.0008180717734414439 0.008620005894739212 -0.0007051160251586629 -0.005504848520991721
 0.9956351908059602 -0.044041688624417596 0.0036399856287410693 0.018386315677784495 -0.0007047158644340744 -0.005504859926035429 0.0008004728348421405 0.008622051155778222
 0.0008180717734414439 0.008620005894739212 -0.0007047158644340744 -0.005504859926035429 0.00363730492020639 0.01838759846408387 0.9956352227502117 -0.04404060306993992
 -0.0007051160251586629 -0.005504848520991721 0.0008004728348421405 0.008622051155778222 0.9956352227502117 -0.04404060306993992 0.0036399073899441754 0.018387393510818986
0.08753647353064001 0.0038974144930355795 0.01990546479405107 0.995291631539838 -0.04751319870940686 0.000920049752487875 0.009287751819884952 -0.0007911633220573707 -0.005934714844028917
 0.995291631539838 -0.04751319870940686 0.0039006836815925513 0.019905234081533014 -0.0007907005275933109 -0.0059347311822883445 0.0008996251305741569 0.009290165939981328
 0.000920049752487875 0.009287751819884952 -0.0007907005275933109 -0.0059347311822883445 0.0038975754494563783 0.01990662555823218 0.995291668324563 -0.04751202948155331
 -0.0007911633220573707 -0.005934714844028917 0.0008996251305741569 0.009290165939981328 0.995291668324563 -0.04751202948155331 0.003900592844041819 0.019906393513855973
0.09378907878283 0.004169919932908084 0.02143802331689541 0.9949319573452095 -0.05099679541073423 0.0010284449772931241 0.009955849349180233 -0.0008826009495489681 -0.006365115895864519
 0.9949319573452095 -0.05099679541073423 0.004173671299573959 0.021437764144263648 -0.0008820711312067706 -0.006365137972935785 0.0010049817256961404 0.009958673937561361
 0.0010284449772931241 0.009955849349180233 -0.0008820711312067706 -0.006365137972935785 0.004170103952221057 0.021439265949769377 0.9949319993223287 -0.05099554243812457
 -0.0008826009495489681 -0.006365115895864519 0.0010049817256961404 0.009958673937561361 0.9949319993223287 -0.05099554243812457 0.004173566944880162 0.021439004949781827
0.100041684035 0.0044548952694332 0.022984017496543368 0.99455595987312 -0.05449239095431263 0.0011433156178028239 0.01062422249349422 -0.000979488073623422 -0.0067959749300993974
 0.99455595987312 -0.05449239095431263 0.00445916190517632 0.02298372796224475 -0.0009788868720367419 -0.006796003597036574 0.0011166002895060135 0.010627501548092453
 0.0011433156178028239 0.01062422249349422 -0.0009788868720367419 -0.006796003597036574 0.004455103832237172 0.022985341772440573 0.9945560073972983 -0.054491054159374656
 -0.000979488073623422 -0.0067959749300993974 0.0011166002895060135 0.010627501548092453 0.9945560073972983 -0.054491054159374656 0.004459043116901032 0.022985049903493003
0.1059090909091 0.004733845189420989 0.02444683226329422 0.9941880948326977 -0.05778346333539232 0.0012570498438838206 0.011251601010388045 -0.00107541446035036 -0.007200637452856833
 0.9941880948326977 -0.05778346333539232 0.0047386254571795275 0.024446512457260483 -0.0010747423358832458 -0.007200673118219 0.0012270882298605044 0.011255348701089806
 0.0012570498438838206 0.011251601010388045 -0.0010747423358832458 -0.007200673118219 0.004734078120357936 0.024448232933389463 0.9941881478881226 -0.05778204780245149
 -0.00107541446035036 -0.007200637452856833 0.0012270882298605044 0.011255348701089806 0.9941881478881226 -0.05778204780245149 0.004738492293181519 0.024447910313174986
0.1062942892872 0.0047525532904839915 0.024543271809928772 0.9941634309382443 -0.057999888559369626 0.0012647189064312553 0.01129279324915997 -0.0010818828748364985 -0.007227213892001974
 0.9941634309382443 -0.057999888559369626 0.00475736829844082 0.024542949955065924 -0.0010812059615255708 -0.007227250045338158 0.0012345375731391394 0.011296573184263269
 0.0012647189064312553 0.01129279324915997 -0.0010812059615255708 -0.007227250045338158 0.0047527878662099775 0.024544677488770653 0.9941634843679943 -0.057998467853166494
 -0.0010818828748364985 -0.007227213892001974 0.0012345375731391394 0.011296573184263269 0.9941634843679943 -0.057998467853166494 0.004757234162559055 0.024544352788285335
0.11254689453939999 0.005063106120313183 0.02611561204154737 0.9937541626133437 -0.06151918341175144 0.00139271109050545 0.011961481664716517 -0.0011898425099196263 -0.007658753357491123
 0.9937541626133437 -0.06151918341175144 0.0050685026214439535 0.02611525584933822 -0.0011890855874330587 -0.007658797939255904 0.0013588493636271888 0.011965811338363098
 0.00139271109050545 0.011961481664716517 -0.0011890855874330587 -0.007658797939255904 0.005063368166346648 0.02611709886092973 0.993754222310714 -0.06151767870185052
 -0.0011898425099196263 -0.007658753357491123 0.0013588493636271888 0.011965811338363098 0.993754222310714 -0.06151767870185052 0.005068352225177253 0.026116739316626315
0.11879949979160001 0.005386765175516335 0.027700864461440433 0.9933279473171173 -0.06505016344557417 0.0015273473855662058 0.012630205892545033 -0.0013034230718238634 -0.008090512489235922
 0.9933279473171173 -0.06505016344557417 0.005392776314016292 0.027700471856455102 -0.0013025818739076695 -0.00809056648697116 0.0014895904385060267 0.012635136633774493
 0.0015273473855662058 0.012630205892545033 -0.0013025818739076695 -0.00809056648697116 0.005387056137572531 0.02770243214317681 0.993328013648296 -0.065048574629345
 -0.0013034230718238634 -0.008090512489235922 0.0014895904385060267 0.012635136633774493 0.993328013648296 -0.065048574629345 0.0053926087459454965 0.027702035692456477
0.1250521050438 0.005723741117074686 0.029298855193135485 0.9928845778996985 -0.06859270993720139 0.0016686819284079952 0.013298882232950709 -0.001422679549196188 -0.00852240900263312
 0.9928845778996985 -0.06859270993720139 0.005730400066170235 0.029298424040419317 -0.0014217498410246934 -0.008522473449392184 0.0016268145202063726 0.013304467868826199
 0.0016686819284079952 0.013298882232950709 -0.0014217498410246934 -0.008522473449392184 0.005724062428888902 0.029300503440313142 0.9928846512351828 -0.06859103690460011
 -0.001422679549196188 -0.00852240900263312 0.0016268145202063726 0.013304467868826199 0.9928846512351828 -0.06859103690460011 0.005730214415542688 0.029300067969452923
0.131304710296 0.006074243797540728 0.030909409694404873 0.9924238477263884 -0.07214669798893608 0.0018167677307168889 0.013967425170779698 -0.0015476657846490824 -0.008954359141429795
 0.9924238477263884 -0.07214669798893608 0.006081583765144771 0.030908937798388818 -0.0015466433630753223 -0.008954435115773396 0.001770574230792256 0.013973722053162057
 0.0018167677307168889 0.013967425170779698 -0.0015466433630753223 -0.008954435115773396 0.006074596880704796 0.03091113819098578 0.9924239284408776 -0.07214494062286991
 -0.0015476657846490824 -0.008954359141429795 0.001770574230792256 0.013973722053162057 0.9924239284408776 -0.07214494062286991 0.006081379121324974 0.030910661534225333
0.1375573155481 0.0063517540956283675 0.03232216250003169 0.992032300683434 -0.07550174644623442 0.0019513833917127648 0.014614205456592545 -0.0016582186285402476 -0.009364707236694827
 0.992032300683434 -0.07550174644623442 0.006359812379697254 0.03232165778623143 -0.0016570975526389842 -0.009364794686621828 0.0019007578029436529 0.01462119790763668
 0.0019513833917127648 0.014614205456592545 -0.0016570975526389842 -0.009364794686621828 0.0063521412986271624 0.03232397045785991 0.9920323891109997 -0.07549990469494523
 -0.0016582186285402476 -0.009364707236694827 0.0019007578029436529 0.01462119790763668 0.9920323891109997 -0.07549990469494523 0.006359586978410464 0.03232346162677812
0.1438099208003 0.00663880365395536 0.03372850971128795 0.9916273908837879 -0.07884933463139485 0.0020914410409286067 0.01525894714131556 -0.0017732041885684443 -0.009773205204160935
 0.9916273908837879 -0.07884933463139485 0.006647614186984365 0.033727970595521996 -0.0017719799873257918 -0.0097733051703803 0.002036187037303238 0.01526668602935991
 0.0020914410409286067 0.01525894714131556 -0.0017719799873257918 -0.0097733051703803 0.006639226549595562 0.033730396747075994 0.9916274873971797 -0.07884740838287489
 -0.0017732041885684443 -0.009773205204160935 0.002036187037303238 0.01526668602935991 0.9916274873971797 -0.07884740838287489 0.006647366963385034 0.03372985430424973
0.1500625260525 0.006935304274617654 0.03512836461810119 0.9912092095320818 -0.08218941067822189 0.0022369001512843392 0.015901603643524956 -0.0018925834200429895 -0.010179808922421924
 0.9912092095320818 -0.08218941067822189 0.006944901058516348 0.03512778942003949 -0.0018912516317377392 -0.010179922486878523 0.002176822313556462 0.015910141682506533
 0.0022369001512843392 0.015901603643524956 -0.0018912516317377392 -0.010179922486878523 0.006935764435537198 0.035130330332490044 0.9912093145078418 -0.08218739981487547
 -0.0018925834200429895 -0.010179808922421924 0.002176822313556462 0.015910141682506533 0.9912093145078418 -0.08218739981487547 0.00694463093787862 0.03512975275395001
0.15631513130469998 0.007241167285841261 0.03652164330615545 0.9907778481280567 -0.08552192231773131 0.0023877198063245466 0.016542129034945646 -0.002016316879564725 -0.010584475111887117
