! Created with skrf 1.8.0 (http://scikit-rf.org).
# GHz S RI R 50.0 
!freq ReS11 ImS11 ReS12 ImS12 ReS13 ImS13
! ReS14 ImS14
! ReS21 ImS21 ReS22 ImS22 ReS23 ImS23
! ReS24 ImS24
! ReS31 ImS31 ReS32 ImS32 ReS33 ImS33
! ReS34 ImS34
! ReS41 ImS41 ReS42 ImS42 ReS43 ImS43
! ReS44 ImS44
!
0.0 0.001541041656976 0.0 0.9984589583429 0.0 5.946075885293e-05 0.0 -5.946075823082e-05 7.281842724224834e-21
 0.9984589583429 0.0 0.001541041656934 0.0 -5.946075823005e-05 7.281842724130537e-21 5.946075885143e-05 0.0
 5.946075885293e-05 0.0 -5.946075823005e-05 7.281842724130537e-21 0.001541041655544 0.0 0.9984589583415 0.0
 -5.946075823082e-05 7.281842724224834e-21 5.946075885143e-05 0.0 0.9984589583415 0.0 0.001541041655541 0.0
0.005 0.0016580239704907093 0.0012603035666210332 0.9983109552915288 -0.0032280754338921023 8.340397917901761e-05 0.0006577639811972986 -8.095175941771582e-05 -0.00041241970516185997
 0.9983109552915288 -0.0032280754338921023 0.0016580450918415514 0.0012602912966222812 -8.094983922537637e-05 -0.00041241832671660446 8.327673900204696e-05 0.0006578124155725681
 8.340397917901761e-05 0.0006577639811972986 -8.094983922537637e-05 -0.00041241832671660446 0.001658024118347613 0.0012602362612097221 0.9983109549378321 -0.003228142510197604
 -8.095175941771582e-05 -0.00041241970516185997 8.327673900204696e-05 0.0006578124155725681 0.9983109549378321 -0.003228142510197604 0.0016580442416583103 0.0012602244540310973
0.006252605252188 0.001688700013713021 0.0015803393850864823 0.9982718980008491 -0.004035884276895264 9.02519840557934e-05 0.0008225218950434703 -8.70174378195034e-05 -0.0005160584785365082
 0.9982718980008491 -0.004035884276895264 0.0016887330297322516 0.001580323812788545 -8.701444906732002e-05 -0.0005160567809781634 9.005318277665748e-05 0.0008225847872230652
 9.02519840557934e-05 0.0008225218950434703 -8.701444906732002e-05 -0.0005160567809781634 0.0016887003051934443 0.001580255292287117 0.9982718975087862 -0.004035968093134986
 -8.70174378195034e-05 -0.0005160584785365082 9.005318277665748e-05 0.0008225847872230652 0.9982718975087862 -0.004035968093134986 0.0016887317621347262 0.0015802402834215706
0.01250521050438 0.001850157147693502 0.0031938015939333747 0.9980649587372222 -0.00807257518298687 0.00012956283296846984 0.001645386967960381 -0.00012142226828412055 -0.0010346218619983942
 0.9980649587372222 -0.00807257518298687 0.0018502889717772859 0.0031937680785988284 -0.00012141048034079186 -0.0010346187477938574 0.0001287700489490815 0.001645538094019883
 0.00012956283296846984 0.001645386967960381 -0.00012141048034079186 -0.0010346187477938574 0.0018501588899764376 0.0031936337472486644 0.9980649573571944 -0.008072742588412358
 -0.00012142226828412055 -0.0010346218619983942 0.0001287700489490815 0.001645538094019883 0.9980649573571944 -0.008072742588412358 0.0018502845066240708 0.0031936012109490598
0.01875781575657 0.0020257659645293723 0.004830240735603739 0.997837883166444 -0.012119897372261787 0.00017748365876012564 0.002469146391526567 -0.0001627811594048783 -0.001554939768239443
 0.997837883166444 -0.012119897372261787 0.002026062161426865 0.004830186719093315 -0.00016275485856158858 -0.0015549355760363522 0.0001757027322081863 0.00246941604809451
 0.00017748365876012564 0.002469146391526567 -0.00016275485856158858 -0.0015549355760363522 0.0020257702921256037 0.00482998936375951 0.9978378804902521 -0.012120148281840838
 -0.0001627811594048783 -0.001554939768239443 0.0001757027322081863 0.00246941604809451 0.9978378804902521 -0.012120148281840838 0.00202605257651573 0.00482993660667035
0.02501042100875 0.0022158688930106196 0.0064873649646028245 0.9975904037185108 -0.016179810817430588 0.00023410650840586242 0.0032938323821291057 -0.00021119659051265494 -0.002076775051389723
 0.9975904037185108 -0.016179810817430588 0.002216394886527127 0.006487287725052664 -0.00021115012698185776 -0.0020767701830782 0.00023094311873473442 0.003294255649558257
 0.00023410650840586242 0.0032938323821291057 -0.00021115012698185776 -0.0020767701830782 0.002215876931368458 0.0064870302858125025 0.9975903993372411 -0.01618014518987994
 -0.00021119659051265494 -0.002076775051389723 0.00023094311873473442 0.003294255649558257 0.9975903993372411 -0.01618014518987994 0.0022163782767879317 0.00648695446098366
0.03126302626094 0.0024207941894696283 0.008163994037257427 0.9973222391781691 -0.020253153231975754 0.00029952399841996644 0.004119401028972536 -0.00026676815579947035 -0.00259996089389919
 0.9973222391781691 -0.020253153231975754 0.002421615299442347 0.008163890693643705 -0.0002666959329588716 -0.0025999558153819895 0.0002945832999924186 0.004120017798968254
 0.00029952399841996644 0.004119401028972536 -0.0002666959329588716 -0.0025999558153819895 0.0024208070602673554 0.00816357625097289 0.997322232684562 -0.020253571078422895
 -0.00026676815579947035 -0.00259996089389919 0.0002945832999924186 0.004120017798968254 0.997322232684562 -0.020253571078422895 0.0024215897787997647 0.008163474362017913
0.037515631513130004 0.002640862991545755 0.00985935775459423 0.9970331019587626 -0.024340341566657517 0.00037382834120728697 0.004945778299753024 -0.00032959327764035985 -0.0031243547955191924
 0.9970331019587626 -0.024340341566657517 0.0026420444578414237 0.009859225269039009 -0.00032948974647640654 -0.0031243500369846204 0.00036671480107102665 0.004946633323424686
 0.00037382834120728697 0.004945778299753024 -0.00032948974647640654 -0.0031243500369846204 0.002640881807957546 0.009858857097375745 0.9970330929412814 -0.02434084289501222
 -0.00032959327764035985 -0.0031243547955191924 0.00036671480107102665 0.004946633323424686 0.9970330929412814 -0.02434084289501222 0.0026420081536155577 0.009858726000669895
0.043768236765320004 0.0028763920461689716 0.011572882499754402 0.9967227010554984 -0.02844158540191205 0.00045711088659668603 0.00577287403740473 -0.00039976746240744695 -0.003649824576466594
 0.9967227010554984 -0.02844158540191205 0.0028779990484508466 0.01157271767872538 -0.00039962711843723203 -0.003649820732555718 0.0004474282086948203 0.005774016979613136
 0.00045711088659668603 0.00577287403740473 -0.00039962711843723203 -0.003649820732555718 0.002876417918338791 0.01157229921556839 0.9967226891020439 -0.02844217024681164
 -0.00039976746240744695 -0.003649824576466594 0.0004474282086948203 0.005774016979613136 0.9967226891020439 -0.02844217024681164 0.0028779501050892804 0.011572135621436792
0.050020842017509996 0.0031276949724861514 0.013304103011806984 0.99639074353721 -0.03255697510182715 0.0005494618478883209 0.006600587735802656 -0.00047738439085759203 -0.0041762426050439075
 0.99639074353721 -0.03255697510182715 0.00312979264694736 0.01330390250674792 -0.00047720177223312756 -0.00417624033494295 0.0005368129431599627 0.006602073232106868
 0.0005494618478883209 0.006600587735802656 -0.00047720177223312756 -0.00417624033494295 0.003127729005483392 0.013303437363746147 0.9963907282311985 -0.03255764351298973
 -0.00047738439085759203 -0.0041762426050439075 0.0005368129431599627 0.006602073232106868 0.9963907282311985 -0.03255764351298973 0.0031297292226280166 0.01330323783722737
0.055454545454549996 0.0033591368463287475 0.014822645238788951 0.9960845274862598 -0.03614487422710369 0.0006371513618874679 0.007320314145464241 -0.0005509516697259745 -0.004634388112558011
 0.9960845274862598 -0.03614487422710369 0.0033617138062694302 0.01482241088349239 -0.0005507279095941351 -0.004634387795673318 0.0006216016133676881 0.007322145606577029
 0.0006371513618874679 0.007320314145464241 -0.0005507279095941351 -0.004634387795673318 0.003359178866923387 0.01482190824137052 0.9960845089263015 -0.036145615313334774
 -0.0005509516697259745 -0.004634388112558011 0.0006216016133676881 0.007322145606577029 0.9960845089263015 -0.036145615313334774 0.0033616363141243852 0.014821674586167967
0.056273447269699996 0.0033950829102085546 0.0150526190723717 0.9960369354278731 -0.036686525056467655 0.0006509701090738964 0.007428811377750242 -0.0005625359348660346 -0.004703482966613575
 0.9960369354278731 -0.036686525056467655 0.00339773636514671 0.015052379379840499 -0.0005623056210846334 -0.0047034829941341155 0.0006349570931414273 0.007430699092457777
 0.0006509701090738964 0.007428811377750242 -0.0005623056210846334 -0.0047034829941341155 0.003395126206798748 0.015051871341424843 0.9960369163499858 -0.036687277100171896
 -0.0005625359348660346 -0.004703482966613575 0.0006349570931414273 0.007430699092457777 0.9960369163499858 -0.036687277100171896 0.003397656634046841 0.015051632302369021
0.06252605252188 0.003678864866151144 0.016818071702588557 0.9956609822906822 -0.0408301974167082 0.0007617230709371421 0.008257430999754126 -0.000655312137968744 -0.00523141990975481
 0.9956609822906822 -0.0408301974167082 0.003682139196427657 0.016817789163886016 -0.0006550287491786824 -0.005231423023393985 0.0007419472802654907 0.008259785684357871
 0.0007617230709371421 0.008257430999754126 -0.0006550287491786824 -0.005231423023393985 0.0036789185266391266 0.016817242192059868 0.9956609590169306 -0.040831033171363475
 -0.000655312137968744 -0.00523141990975481 0.0007419472802654907 0.008259785684357871 0.9956609590169306 -0.040831033171363475 0.003682041347294562 0.016816959914995384
0.06877865777407 0.003979347894828822 0.018600128972980155 0.9952625896500489 -0.04498791621981779 0.0008818065217055866 0.009086327620400146 -0.0007558011725741614 -0.005759926933077775
 0.9952625896500489 -0.04498791621981779 0.003983308196106205 0.018599799773375225 -0.0007554593691148538 -0.005759933986059438 0.0008578685425662395 0.00908921917199093
 0.0008818065217055866 0.009086327620400146 -0.0007554593691148538 -0.005759933986059438 0.0039794130189868444 0.018599218000058298 0.9952625617522537 -0.04498883578445171
 -0.0007558011725741614 -0.005759926933077775 0.0008578685425662395 0.00908921917199093 0.9952625617522537 -0.04498883578445171 0.003983190433542559 0.018598888613484705
0.07503126302626001 0.004296837182403028 0.020398476994940542 0.9948414633207994 -0.04915957633773509 0.0010113045181185901 0.009915377845580638 -0.0008640892863917317 -0.006288876199630082
 0.9948414633207994 -0.04915957633773509 0.004301548565039131 0.02039809716240113 -0.0008636837685485693 -0.006288888109941844 0.0009828042257200315 0.009918881365015085
 0.0010113045181185901 0.009915377845580638 -0.0008636837685485693 -0.006288888109941844 0.004296914869247626 0.02039748490373709 0.9948414303651505 -0.04916057981905712
 -0.0008640892863917317 -0.006288876199630082 0.0009828042257200315 0.009918881365015085 0.9948414303651505 -0.04916057981905712 0.004301409108710941 0.020397104389034203
0.08128386827845 0.0046316360675343615 0.022212813946625814 0.9943973096783434 -0.053345049395731245 0.001150299277771639 0.010744454259331349 -0.0009802607376224951 -0.006818138170404732
 0.9943973096783434 -0.053345049395731245 0.0046371636702812555 0.022212379350140025 -0.0009797862456635631 -0.006818155920810642 0.0011168358822532933 0.010748650108942258
 0.001150299277771639 0.010744454259331349 -0.0009797862456635631 -0.006818155920810642 0.004631727417209979 0.0222117410962749 0.9943972712255058 -0.05334613691995048
 -0.0009802607376224951 -0.006818138170404732 0.0011168358822532933 0.010748650108942258 0.9943972712255058 -0.05334613691995048 0.004637000755513552 0.022211305286283508
0.08753647353064001 0.004984046022562144 0.024042845924015763 0.9939298358922283 -0.057544187871059437 0.0012988710739428937 0.0115734257170545 -0.0011043977263578428 -0.0073475813402810505
 0.9939298358922283 -0.057544187871059437 0.004990455026100068 0.02404235227143757 -0.0011038490405486877 -0.0073476059783431635 0.0012600431732535137 0.011578399577760363
 0.0012988710739428937 0.0115734257170545 -0.0011038490405486877 -0.0073476059783431635 0.004984152136700387 0.024041692701676106 0.9939297914966354 -0.05754535957083801
 -0.0011043977263578428 -0.0073475813402810505 0.0012600431732535137 0.011578399577760363 0.9939297914966354 -0.05754535957083801 0.004990266904056375 0.02404119727864985
0.09378907878283 0.005354366606030377 0.02588828399709115 0.9934387501356271 -0.06175682799177171 0.0014570981361017277 0.012402157548097769 -0.0012365803199014466 -0.007877072069628125
 0.9934387501356271 -0.06175682799177171 0.005361722246844831 0.025887726832543475 -0.0012359522607874294 -0.00787710470769095 0.0014125037735969843 0.012408000475810728
 0.0014570981361017277 0.012402157548097769 -0.0012359522607874294 -0.00787710470769095 0.005354488589466996 0.025887050805266376 0.9934386993451569 -0.06175808401886167
 -0.0012365803199014466 -0.007877072069628125 0.0014125037735969843 0.012408000475810728 0.9934386993451569 -0.06175808401886167 0.005361507184885219 0.02588649129855742
0.100041684035 0.005742895395550246 0.027748842032205692 0.992923761777559 -0.06598279187522257 0.0016250565517935635 0.013230511717304704 -0.0013768863758176816 -0.00840647446201693
 0.992923761777559 -0.06598279187522257 0.005751262979172914 0.02774821673299779 -0.0013761738044080869 -0.008406516277200375 0.0015742932783579821 0.013237320198549596
 0.0016250565517935635 0.013230511717304704 -0.0013761738044080869 -0.008406516277200375 0.005743034356135275 0.02774752929419825 0.9929237041323461 -0.06598413239486836
 -0.0013768863758176816 -0.00840647446201693 0.0015742932783579821 0.013237320198549596 0.9929237041323461 -0.06598413239486836 0.005751019260754839 0.027746901077367915
0.1059090909091 0.0061243118879708664 0.029508276003252495 0.9924185029877367 -0.06996035912298601 0.0017915840830733806 0.014007364967739723 -0.0015160042741138597 -0.008903059006248815
 0.9924185029877367 -0.06996035912298601 0.0061336885412039506 0.029507582410798313 -0.0015152077594489468 -0.008903110561436972 0.0017346655374203394 0.01401517215763561
 0.0017915840830733806 0.014007364967739723 -0.0015152077594489468 -0.008903110561436972 0.006124467791803852 0.029506889023528667 0.9924184384850173 -0.06996177909163916
 -0.0015160042741138597 -0.008903059006248815 0.0017346655374203394 0.01401517215763561 0.9924184384850173 -0.06996177909163916 0.006133416385386225 0.02950619198011569
0.1062942892872 0.006149927904256927 0.029624235071504666 0.9923845815624028 -0.07022188911524817 0.0018028201698614163 0.014058346954280976 -0.0015253914626758471 -0.008935650279547618
 0.9923845815624028 -0.07022188911524817 0.006159372819350023 0.02962353684448567 -0.0015245892808594056 -0.008935702513714928 0.0017454851100783169 0.014066222960927795
 0.0018028201698614163 0.014058346954280976 -0.0015245892808594056 -0.008935702513714928 0.00615008495480962 0.029622843232710836 0.9923845165949806 -0.07022331430469701
 -0.0015253914626758471 -0.008935650279547618 0.0017454851100783169 0.014066222960927795 0.9923845165949806 -0.07022331430469701 0.00615909874469401 0.029622141520161696
0.11254689453939999 0.006575757487115151 0.03151417809428843 0.9918209217826492 -0.07447391799356225 0.0019904605060779377 0.014885518855632163 -0.0016821687780395125 -0.009464458890563115
 0.9918209217826492 -0.07447391799356225 0.006586345218904047 0.03151340197177475 -0.0016812719289814953 -0.009464522850271892 0.0019261504276286724 0.014894569898611399
 0.0019904605060779377 0.014885518855632163 -0.0016812719289814953 -0.009464522850271892 0.006575933746022643 0.03151270761906093 0.9918208490172827 -0.07447542804507835
 -0.0016821687780395125 -0.009464458890563115 0.0019261504276286724 0.014894569898611399 0.9918208490172827 -0.07447542804507835 0.0065860391051071705 0.03151192746227219
0.11879949979160001 0.00702067523758783 0.03341838504435559 0.9912324964451127 -0.0787386664315987 0.002188046648436795 0.015711879977357478 -0.0018472890659314014 -0.00999275723266205
 0.9912324964451127 -0.0787386664315987 0.007032471381969992 0.03341752587949727 -0.0018462925345057563 -0.009992834289113359 0.002116358034948532 0.01572221915939423
 0.002188046648436795 0.015711879977357478 -0.0018462925345057563 -0.009992834289113359 0.007020871829673845 0.03341683641900312 0.9912324153967667 -0.07874026154911658
 -0.0018472890659314014 -0.00999275723266205 0.002116358034948532 0.01572221915939423 0.9912324153967667 -0.07874026154911658 0.007032131563110606 0.033415972702131404
0.1250521050438 0.007484969877288783 0.03533656807757338 0.9906190214317814 -0.08301591272841716 0.0023956451640418223 0.016537279912951754 -0.0020208205325372573 -0.01052039979559634
 0.9906190214317814 -0.08301591272841716 0.007498040154262071 0.03533562053920873 -0.0020197193458443004 -0.010520491384551129 0.0023161742905183033 0.016549025980187985
 0.0023956451640418223 0.016537279912951754 -0.0020197193458443004 -0.010520491384551129 0.0074851879349684645 0.03533494180816637 0.990618931606212 -0.08301759312955921
 -0.0020208205325372573 -0.01052039979559634 0.0023161742905183033 0.016549025980187985 0.990618931606212 -0.08301759312955921 0.007497664982247692 0.03533398924323244
0.131304710296 0.007968927639850422 0.03726843695012434 0.9899802146593848 -0.08730542616480381 0.0026133200060874714 0.017361565366990225 -0.002202828761308886 -0.011047238614461295
 0.9899802146593848 -0.08730542616480381 0.007983337907674685 0.03726739551705645 -0.002201617989197081 -0.011047346236159912 0.002525663017294291 0.017374842759398545
 0.0026133200060874714 0.017361565366990225 -0.002201617989197081 -0.011047346236159912 0.007969168304033073 0.03726673356277589 0.9899801155522184 -0.08730719208020064
 -0.002202828761308886 -0.011047238614461295 0.002525663017294291 0.017374842759398545 0.9899801155522184 -0.08730719208020064 0.007982925752079702 0.03726568668422778
0.1375573155481 0.008361942462475378 0.038961835011717925 0.98942672696171 -0.09135499760762257 0.002814099371140673 0.018159479485785293 -0.002366449659862888 -0.011547965192179552
 0.98942672696171 -0.09135499760762257 0.008377764478221309 0.03896071597888829 -0.002365122274459834 -0.011548088989901275 0.0027180548170304786 0.018174269532707142
 0.002814099371140673 0.018159479485785293 -0.002365122274459834 -0.011548088989901275 0.00836220786518628 0.03896005431551246 0.9894266181462362 -0.09135684916120186
 -0.002366449659862888 -0.011547965192179552 0.0027180548170304786 0.018174269532707142 0.9894266181462362 -0.09135684916120186 0.008377312578121316 0.03895893074057705
0.1438099208003 0.008768788432666397 0.04064626949743851 0.9888537559005244 -0.09539425719095598 0.003022999376251361 0.018954086274223965 -0.0025366143596750076 -0.012045700545514506
 0.9888537559005244 -0.09539425719095598 0.008786089166257163 0.04064506860039005 -0.002535165114277349 -0.012045841988461736 0.002918199786215096 0.018970502827883724
 0.003022999376251361 0.018954086274223965 -0.002535165114277349 -0.012045841988461736 0.008769079907260674 0.04064441196844442 0.9888536368739957 -0.09539619460561487
 -0.0025366143596750076 -0.012045700545514506 0.002918199786215096 0.018970502827883724 0.9888536368739957 -0.09539619460561487 0.008785595710966172 0.040643207633091705
0.1500625260525 0.009189321478347438 0.0423215982826239 0.9882614495918457 -0.09942310309858993 0.0032399480299540526 0.01974530196136501 -0.002713253739825575 -0.012540366975795221
 0.9882614495918457 -0.09942310309858993 0.009208168070619723 0.04232031099508352 -0.002711677403282438 -0.01254052759156752 0.003126028151076338 0.019763463024167673
 0.0032399480299540526 0.01974530196136501 -0.002711677403282438 -0.01254052759156752 0.009189640378339423 0.04231966441070916 0.9882613198434061 -0.09942512660717898
 -0.002713253739825575 -0.012540366975795221 0.003126028151076338 0.019763463024167673 0.9882613198434061 -0.09942512660717898 0.009207631252925822 0.0423183750032083
0.15631513130469998 0.009623396496480372 0.043987683533490245 0.9876499569126104 -0.10344143390535598 0.00346487248227297 0.020533044196223486 -0.002896297823238163 -0.013031888434593429
 0.9876499569126104 -0.10344143390535598 0.009643856264056772 0.04398630506016066 -0.0028945891804358693 -0.013032069808804874 0.0033414693134403224 0.02055307187675841
