! Created with skrf 1.8.0 (http://scikit-rf.org).
# GHz S RI R 50.0 
!freq ReS11 ImS11 ReS12 ImS12 ReS13 ImS13
! ReS14 ImS14
! ReS21 ImS21 ReS22 ImS22 ReS23 ImS23
! ReS24 ImS24
! ReS31 ImS31 ReS32 ImS32 ReS33 ImS33
! ReS34 ImS34
! ReS41 ImS41 ReS42 ImS42 ReS43 ImS43
! ReS44 ImS44
!
0.0 0.001585042827039 0.0 0.9984149571516 0.0 6.165988639457e-05 0.0 -6.165988646133e-05 7.551158259065701e-21
 0.9984149571516 0.0 0.001585042827037 0.0 -6.165988646103e-05 7.55115825902896e-21 6.165988639452e-05 0.0
 6.165988639457e-05 0.0 -6.165988646103e-05 7.55115825902896e-21 0.001585042837692 0.0 0.9984149571623 0.0
 -6.165988646133e-05 7.551158259065701e-21 6.165988639452e-05 0.0 0.9984149571623 0.0 0.001585042837703 0.0
0.005 0.001705602522423477 0.0012881161372685548 0.9982623836487559 -0.003320620609025894 8.775496927902822e-05 0.0007301345404969201 -8.49071712457998e-05 -0.0004494017794314954
 0.9982623836487559 -0.003320620609025894 0.0017056039803862199 0.0012881151913952185 -8.491100751820347e-05 -0.00044940459190535625 8.774269641539492e-05 0.0007301392916229393
 8.775496927902822e-05 0.0007301345404969201 -8.491100751820347e-05 -0.00044940459190535625 0.001705601562126614 0.0012881838812192575 0.9982623840081937 -0.0033205535577722376
 -8.49071712457998e-05 -0.0004494017794314954 8.774269641539492e-05 0.0007301392916229393 0.9982623840081937 -0.0033205535577722376 0.001705605651364224 0.0012881815416888047
0.006252605252188 0.0017372621409182131 0.0016152460489282218 0.9982220543700263 -0.0041515852351115354 9.523720308798707e-05 0.0009129954312253584 -9.149797098881852e-05 -0.0005623423203585756
 0.9982220543700263 -0.0041515852351115354 0.0017372644205018576 0.001615244804597638 -9.150394162007668e-05 -0.0005623457850934221 9.521802877864545e-05 0.0009130015893298079
 9.523720308798707e-05 0.0009129954312253584 -9.150394162007668e-05 -0.0005623457850934221 0.001737260574184494 0.0016153307175866486 0.9982220548658126 -0.004151501419218407
 -9.149797098881852e-05 -0.0005623423203585756 9.521802877864545e-05 0.0009130015893298079 0.9982220548658126 -0.004151501419218407 0.0017372669657727397 0.0016153277494922594
0.01250521050438 0.001904160743408674 0.0032645800898111646 0.9980079987002671 -0.008303974391660732 0.0001382882369356777 0.0018261769870936634 -0.00012903956963514784 -0.0011274307323698588
 0.9980079987002671 -0.008303974391660732 0.0019041698568731443 0.003264576979025264 -0.00012906311251497185 -0.0011274371013717836 0.00013821180142161539 0.0018261916806338505
 0.0001382882369356777 0.0018261769870936634 -0.00012906311251497185 -0.0011274371013717836 0.0019041539243430895 0.0032647490544406095 0.9980080001101903 -0.008303806982429747
 -0.00012903956963514784 -0.0011274307323698588 0.00013821180142161539 0.0018261916806338505 0.9980080001101903 -0.008303806982429747 0.001904179436269738 0.003264742664859494
0.01875781575657 0.002086112357981731 0.004937542834620409 0.9977725176409252 -0.0124672720012342 0.00019091336244469282 0.0027402056502854734 -0.00017440373587986752 -0.0016943749260110205
 0.9977725176409252 -0.0124672720012342 0.0020861328589853144 0.004937537215117451 -0.00017445625549607655 -0.0016943835234158088 0.00019074172283650438 0.0027402317454886275
 0.00019091336244469282 0.0027402056502854734 -0.00017445625549607655 -0.0016943835234158088 0.0020860966273502216 0.0049377958433461005 0.9977725203894224 -0.012467021058232598
 -0.00017440373587986752 -0.0016943749260110205 0.00019074172283650438 0.0027402317454886275 0.9977725203894224 -0.012467021058232598 0.002086153934277598 0.004937785511347584
0.02501042100875 0.0022834791108897355 0.006631762368536921 0.9975153277429 -0.016643483549441278 0.00025321445375853913 0.003655124842326638 -0.00022770513614269063 -0.0022628954561510896
 0.9975153277429 -0.016643483549441278 0.002283515555319343 0.006631753576940868 -0.0002277979064041807 -0.002262905479534394 0.0002529096926881193 0.0036551656736290884
 0.00025321445375853913 0.003655124842326638 -0.0002277979064041807 -0.002262905479534394 0.0022834508208442066 0.006632099177224576 0.997515332254608 -0.01664314907938299
 -0.00022770513614269063 -0.0022628954561510896 0.0002529096926881193 0.0036551656736290884 0.997515332254608 -0.01664314907938299 0.0022835525605667322 0.006632084318878788
0.03126302626094 0.0024966080938299616 0.008346011056080955 0.9972361314570707 -0.02083345854233109 0.0003252938365228079 0.004570887500225226 -0.00028905488918132944 -0.0028327966765807717
 0.9972361314570707 -0.02083345854233109 0.0024966650407144456 0.008345998407827331 -0.0002891990754366103 -0.002832807195494434 0.0003248180266728228 0.0045709468716686515
 0.0003252938365228079 0.004570887500225226 -0.0002891990754366103 -0.002832807195494434 0.0024965636092143355 0.008346431407816443 0.9972361381620445 -0.02083304051923137
 -0.00028905488918132944 -0.0028327966765807717 0.0003248180266728228 0.0045709468716686515 0.9972361381620445 -0.02083304051923137 0.0024967223892745746 0.008346411376364304
0.037515631513130004 0.002725838735332979 0.01007948313809129 0.9969346247641453 -0.02503761284974745 0.0004072532153535306 0.005487410839204683 -0.0003585614466488517 -0.0034039119871528017
 0.9969346247641453 -0.02503761284974745 0.0027259207480080133 0.010079465927353152 -0.00035876811681693495 -0.003403921942617475 0.0004065684043562062 0.005487493028059746
 0.0004072532153535306 0.005487410839204683 -0.00035876811681693495 -0.003403921942617475 0.002725774426299336 0.010079986766943832 0.9969346340942438 -0.025037111211032952
 -0.0003585614466488517 -0.0034039119871528017 0.0004065684043562062 0.005487493028059746 0.9969346340942438 -0.025037111211032952 0.002726002828050598 0.01007996085243143
0.043768236765320004 0.002971505634316168 0.011831574921368163 0.9966105002686656 -0.029256148446772993 0.0004991931700857222 0.006404593012544453 -0.0004363309059447408 -0.00397608718352359
 0.9966105002686656 -0.029256148446772993 0.002971617280869426 0.011831552421116234 -0.00043661103693460717 -0.003976095387764162 0.0004982613742370755 0.00640470277370723
 0.0004991931700857222 0.006404593012544453 -0.00043661103693460717 -0.003976095387764162 0.002971417877439052 0.01183216154380283 0.9966105126610109 -0.029255563101856195
 -0.0004363309059447408 -0.00397608718352359 0.0004982613742370755 0.00640470277370723 0.9966105126610109 -0.029255563101856195 0.0029717284588362106 0.011832128972757146
0.050020842017509996 0.00323393987659145 0.013601793916175843 0.9962634487778119 -0.033489144206139174 0.0006012128514227158 0.007322320000769577 -0.0005224671225679757 -0.004549173580195289
 0.9962634487778119 -0.033489144206139174 0.003234085730336239 0.013601765378127509 -0.0005228316042592198 -0.0045491787164865065 0.000599996053998209 0.007322462571335351
 0.0006012128514227158 0.007322320000769577 -0.0005228316042592198 -0.0045491787164865065 0.003233825052559613 0.013602463220892348 0.9962634646751926 -0.03348847504659816
 -0.0005224671225679757 -0.004549173580195289 0.000599996053998209 0.007322462571335351 0.9962634646751926 -0.03348847504659816 0.003234230350417096 0.013602423155732093
0.055454545454549996 0.003475875312276484 0.015154557442486888 0.9959429901982159 -0.0371794909078147 0.0006981327877434923 0.00812019981786968 -0.0006041959271915776 -0.005047829211274716
 0.9959429901982159 -0.0371794909078147 0.0034760546118388176 0.015154523033236665 -0.0006046424904569571 -0.005047830511860022 0.0006966374163617871 0.008120375531993232
 0.0006981327877434923 0.00812019981786968 -0.0006046424904569571 -0.005047830511860022 0.0034757340295495636 0.015155298333149452 0.9959430095072014 -0.037178748802125273
 -0.0006041959271915776 -0.005047829211274716 0.0006966374163617871 0.008120375531993232 0.9959430095072014 -0.037178748802125273 0.0034762318053959125 0.015155251024883137
0.056273447269699996 0.003513469703019148 0.015389714248917642 0.995893160237415 -0.03773660041732072 0.0007134097641261471 0.008240468990211134 -0.000617071733138547 -0.005123024648025877
 0.995893160237415 -0.03773660041732072 0.0035136543432791496 0.015389678903585325 -0.0006175313709474884 -0.005123025270596565 0.0007118699166457756 0.008240650094169352
 0.0007134097641261471 0.008240468990211134 -0.0006175313709474884 -0.005123025270596565 0.0035133241958633763 0.015390465907138965 0.9958931800900317 -0.037735847306762306
 -0.000617071733138547 -0.005123024648025877 0.0007118699166457756 0.008240650094169352 0.9958931800900317 -0.037735847306762306 0.0035138367278012873 0.015390417445553799
0.06252605252188 0.003810420863304467 0.017194952149735966 0.9954993243568038 -0.041998463234396564 0.0008358795948249525 0.009158910235928845 -0.0007202441321423873 -0.005697494172033714
 0.9954993243568038 -0.041998463234396564 0.003810648875780794 0.01719490920641292 -0.000720809648614748 -0.005697488705995167 0.0008339786200487317 0.0091591360888684
 0.0008358795948249525 0.009158910235928845 -0.000720809648614748 -0.005697488705995167 0.003810241057451812 0.01719578581258455 0.9954993486215795 -0.04199762601125674
 -0.0007202441321423873 -0.005697494172033714 0.0008339786200487317 0.0091591360888684 0.9954993486215795 -0.04199762601125674 0.0038108733235951357 0.017195727986857434
0.06877865777407 0.004125116793996134 0.019017151341988867 0.9950816310616377 -0.04627463922673891 0.0009687160621961251 0.010077508179301444 -0.0008320814243738318 -0.006272435159633294
 0.9950816310616377 -0.04627463922673891 0.004125392771128937 0.019017099988730374 -0.0008327634601372775 -0.0062724219009374395 0.0009664158585288017 0.010077785493078879
 0.0009687160621961251 0.010077508179301444 -0.0008327634601372775 -0.0062724219009374395 0.004124899073809569 0.019018066641767025 0.9950816602041451 -0.04627371770330495
 -0.0008320814243738318 -0.006272435159633294 0.0009664158585288017 0.010077785493078879 0.9950816602041451 -0.04627371770330495 0.004125663558269499 0.01901799841803872
0.07503126302626001 0.004457878696643063 0.020855973779190677 0.9946397708523232 -0.050565004587587704 0.0011120107828794612 0.010996122161080112 -0.0009526783599388523 -0.006847699158882479
 0.9946397708523232 -0.050565004587587704 0.004458207238289499 0.020855913182777776 -0.000953487474220573 -0.006847676274297725 0.0011092732297938487 0.010996458148377141
 0.0011120107828794612 0.010996122161080112 -0.000953487474220573 -0.006847676274297725 0.004457619444437022 0.020856970322188955 0.9946398053472055 -0.05056399855742393
 -0.0009526783599388523 -0.006847699158882479 0.0011092732297938487 0.010996458148377141 0.9946398053472055 -0.05056399855742393 0.004458528616829325 0.020856890599625227
0.08128386827845 0.004809025548842892 0.02271109348249362 0.994173435097589 -0.05486941124789446 0.0012658531457415056 0.011914606903345852 -0.0010821272593641604 -0.007423135813489969
 0.994173435097589 -0.05486941124789446 0.004809411262702293 0.022711022788322106 -0.0010830739301551863 -0.0074231013406000695 0.0012626401099525197 0.011915009282213134
 0.0012658531457415056 0.011914606903345852 -0.0010830739301551863 -0.0074231013406000695 0.004808721143742313 0.02271217085646369 0.9941734754295207 -0.05486832047878843
 -0.0010821272593641604 -0.007423135813489969 0.0012626401099525197 0.011915009282213134 0.9941734754295207 -0.05486832047878843 0.004809787460421962 0.022712078466439214
0.08753647353064001 0.005178874074648295 0.024582192291553548 0.9936823162927366 -0.05918769108300123 0.0014303301918251932 0.01283281285045147 -0.001220517931544189 -0.00799859256479933
 0.9936823162927366 -0.05918769108300123 0.0051793215768880215 0.0245821106235336 -0.0012216125554951277 -0.007998544412029952 0.0014266035341048754 0.01283328984867574
 0.0014303301918251932 0.01283281285045147 -0.0012216125554951277 -0.007998544412029952 0.00517852089108992 0.02458335006168571 0.9936823629573597 -0.059186515321379675
 -0.001220517931544189 -0.00799859256479933 0.0014266035341048754 0.01283328984867574 0.9936823629573597 -0.059186515321379675 0.0051797567965529085 0.024583243766780373
0.09378907878283 0.0055677386839265396 0.02646895681668785 0.9931661082892149 -0.06351965892456213 0.0016055264981834337 0.013750586422802384 -0.0013679375865575359 -0.008573914447016
 0.9931661082892149 -0.06351965892456213 0.0055682525994168695 0.026468863277128673 -0.0013691904786601815 -0.00857385039366702 0.0016012480806637485 0.01375114678218607
 0.0016055264981834337 0.013750586422802384 -0.0013691904786601815 -0.00857385039366702 0.0055673330903458764 0.02647019452731911 0.9931661617940386 -0.06351839789430133
 -0.0013679375865575359 -0.008573914447016 0.0016012480806637485 0.01375114678218607 0.9931661617940386 -0.06351839789430133 0.005568751018310131 0.026470073020468773
0.100041684035 0.005975931390898565 0.028371076221504088 0.9926245065077459 -0.06786511474890566 0.0017915240640743806 0.014667770210419017 -0.001524470744920492 -0.009148943948965513
 0.9926245065077459 -0.06786511474890566 0.00597651635389006 0.028370969890926932 -0.0015258921380106325 -0.009148861645295865 0.0017866557581380648 0.01466842319093208
 0.0017915240640743806 0.014667770210419017 -0.0015258921380106325 -0.009148861645295865 0.005975469748110314 0.02837239339907764 0.9926245673729618 -0.06786376814891779
 -0.001524470744920492 -0.009148943948965513 0.0017866557581380648 0.01466842319093208 0.9926245673729618 -0.06786376814891779 0.005977082122888767 0.028372255302421757
0.1059090909091 0.006376831397505161 0.030169702519677533 0.9920929055549046 -0.07195494154583708 0.0019759573632555445 0.015527770068035214 -0.001679721990442397 -0.009688139605365274
 0.9920929055549046 -0.07195494154583708 0.006377487254727655 0.030169583330190746 -0.0016813107367813424 -0.009688037923758792 0.001970500847468539 0.015528518850583347
 0.0019759573632555445 0.015527770068035214 -0.0016813107367813424 -0.009688037923758792 0.006376313840745761 0.03017109381917096 0.9920929738124348 -0.07195351435492514
 -0.001679721990442397 -0.009688139605365274 0.001970500847468539 0.015528518850583347 0.9920929738124348 -0.07195351435492514 0.006378119975620032 0.030170938837626143
0.1062942892872 0.0064037617166868835 0.030288240549009412 0.992057208138514 -0.07222384532892624 0.0019884021997354476 0.015584203128588159 -0.0016901991434390747 -0.009723520920185857
 0.992057208138514 -0.07222384532892624 0.006404422371451849 0.030288120485882176 -0.001691799187605803 -0.009723417887491008 0.0019829058942036942 0.015584958512356037
 0.0019884021997354476 0.015584203128588159 -0.001691799187605803 -0.009723417887491008 0.00640324037668755 0.030289636698813658 0.9920572768981147 -0.07222241283701487
 -0.0016901991434390747 -0.009723520920185857 0.0019829058942036942 0.015584958512356037 0.9920572768981147 -0.07222241283701487 0.006405059614339182 0.030289480562656606
0.11254689453939999 0.006851536579888942 0.0322201394573081 0.9914639123326521 -0.07659562548367888 0.0021962374157282636 0.01649972054670351 -0.0018652016397538798 -0.010297482510343386
 0.9914639123326521 -0.07659562548367888 0.006852277581108968 0.032220004697871854 -0.001866990401598744 -0.0102973561410858 0.002190075025389961 0.016500588641881756
 0.0021962374157282636 0.01649972054670351 -0.001866990401598744 -0.0102973561410858 0.006850951884438477 0.032221614064952414 0.991463989535126 -0.07659410675577275
 -0.0018652016397538798 -0.010297482510343386 0.002190075025389961 0.016500588641881756 0.991463989535126 -0.07659410675577275 0.0068529903936487176 0.032221438366652665
0.11879949979160001 0.007319560178187532 0.03416646122365053 0.9908443203873359 -0.08098021906733491 0.0024151033139094666 0.0174141544016843 -0.0020495541146299053 -0.010870663130866647
 0.9908443203873359 -0.08098021906733491 0.007320386191408848 0.0341663107815781 -0.0020515415764465615 -0.010870510688808377 0.0024082367885106936 0.017415146046138082
 0.0024151033139094666 0.0174141544016843 -0.0020515415764465615 -0.010870510688808377 0.007318908457362715 0.034168013757008814 0.9908444065965214 -0.08097861373626068
 -0.0020495541146299053 -0.010870663130866647 0.0024082367885106936 0.017415146046138082 0.9908444065965214 -0.08097861373626068 0.007321178640805296 0.03416781689968297
0.1250521050438 0.0078081338617614 0.03612689197759444 0.9901981359258647 -0.08537737973646473 0.002645070479030165 0.018327333294957553 -0.002243329373525567 -0.011442894439732598
 0.9901981359258647 -0.08537737973646473 0.007809049564056226 0.03612672484369759 -0.002245525432300536 -0.01144271306012589 0.002637461812463164 0.018328459859804785
 0.002645070479030165 0.018327333294957553 -0.002245525432300536 -0.01144271306012589 0.00780741143250157 0.03612852188685166 0.9901982317223617 -0.08537568741280473
 -0.002243329373525567 -0.011442894439732598 0.002637461812463164 0.018328459859804785 0.9901982317223617 -0.08537568741280473 0.007809925687891142 0.03612830219815535
0.131304710296 0.008317556001475403 0.03810111507952889 0.9895250650751275 -0.08978685158016442 0.0028862063712242632 0.01923908258516826 -0.0024465970469220387 -0.012014005337519706
 0.9895250650751275 -0.08978685158016442 0.008318566081875905 0.038100930221371544 -0.002449011513484182 -0.012013792027304515 0.002877817610937068 0.01924035597811175
 0.0028862063712242632 0.01923908258516826 -0.002449011513484182 -0.012013792027304515 0.008316759166394247 0.038102821797008114 0.9895251710566823 -0.0897850718532429
 -0.0024465970469220387 -0.012014005337519706 0.002877817610937068 0.01924035597811175 0.9895251710566823 -0.0897850718532429 0.008319529887304576 0.038102577527777494
0.1375573155481 0.008733157876581445 0.03982944824416912 0.9889398291355884 -0.09394888116252818 0.0031088374362551797 0.020122916389252628 -0.0026296963847983177 -0.012557525913006611
 0.9889398291355884 -0.09394888116252818 0.008734266157288697 0.03982925063023091 -0.0026323434341423008 -0.012557280351018796 0.00309964707461573 0.02012433500827305
 0.0031088374362551797 0.020122916389252628 -0.0026323434341423008 -0.012557280351018796 0.00873228180336903 0.03983123217812278 0.9889399457778084 -0.09394701378287644
 -0.0026296963847983177 -0.012557525913006611 0.00309964707461573 0.02012433500827305 0.9889399457778084 -0.09394701378287644 0.008735323000861214 0.03983096586283276
0.1438099208003 0.009163416731473787 0.04154826621629301 0.9883339168118449 -0.09809998288549897 0.0033404672233394127 0.021003030838840225 -0.0028201247191179586 -0.013097649180571422
 0.9883339168118449 -0.09809998288549897 0.009164627741302608 0.04154805528751865 -0.002823014824470429 -0.013097368427573268 0.003330440355139854 0.021004605624395722
 0.0033404672233394127 0.021003030838840225 -0.002823014824470429 -0.013097368427573268 0.009162457494679511 0.041550126861329015 0.9883340447126472 -0.09809802744878296
 -0.0028201247191179586 -0.013097649180571422 0.003330440355139854 0.021004605624395722 0.9883340447126472 -0.09809802744878296 0.00916578183266988 0.04154983701451798
0.1500625260525 0.009608175496364944 0.043257414096030344 0.9877074896312977 -0.10224004255462543 0.003581013254296009 0.021879330707636785 -0.0030178018868295083 -0.01363428521136486
 0.9877074896312977 -0.10224004255462543 0.00960949376139555 0.04325718926534201 -0.0030209454913672283 -0.013633966210940492 0.0035701152157742865 0.021881072995199334
 0.003581013254296009 0.021879330707636785 -0.0030209454913672283 -0.013633966210940492 0.009607129142341199 0.04325935092994741 0.9877076294035081 -0.10223799864331318
 -0.0030178018868295083 -0.01363428521136486 0.0035701152157742865 0.021881072995199334 0.9877076294035081 -0.10223799864331318 0.009610749297264722 0.043259035992386494
0.15631513130469998 0.010067275912054587 0.04495674164031582 0.9870607100287744 -0.10636894661712307 0.0038303920354211462 0.02275172244021852 -0.003222646697574684 -0.014167346040986654
 0.9870607100287744 -0.10636894661712307 0.01006870595536929 0.0449565022922039 -0.003226054213895334 -0.014166985620221608 0.0038185884087947723 0.02275364395523747
