! Created with skrf 1.8.0 (http://scikit-rf.org).
# GHz S RI R 50.0 
!freq ReS11 ImS11 ReS12 ImS12 ReS13 ImS13
! ReS14 ImS14
! ReS21 ImS21 ReS22 ImS22 ReS23 ImS23
! ReS24 ImS24
! ReS31 ImS31 ReS32 ImS32 ReS33 ImS33
! ReS34 ImS34
! ReS41 ImS41 ReS42 ImS42 ReS43 ImS43
! ReS44 ImS44
!
0.0 0.000946066616388 0.0 0.9990539333815 0.0 3.553524999617e-05 0.0 -3.553524997408e-05 4.351813013765814e-21
 0.9990539333815 0.0 0.0009460666164197 0.0 -3.553524997463e-05 4.35181301383317e-21 3.55352499969e-05 0.0
 3.553524999617e-05 0.0 -3.553524997463e-05 4.35181301383317e-21 0.0009460666052172 0.0 0.9990539333703 0.0
 -3.553524997408e-05 4.351813013765814e-21 3.55352499969e-05 0.0 0.9990539333703 0.0 0.000946066605217 0.0
0.005 0.001016782922860563 0.0007735101041839348 0.9989646118423104 -0.0019833674102259333 4.935325404353473e-05 0.0003980733401684832 -4.7971134666087437e-05 -0.0002489169343974525
 0.9989646118423104 -0.0019833674102259333 0.0010167921565762093 0.0007735047430337304 -4.797265743322096e-05 -0.0002489181216000642 4.9287631551665833e-05 0.00039809816480245754
 4.935325404353473e-05 0.0003980733401684832 -4.797265743322096e-05 -0.0002489181216000642 0.001016781749133924 0.0007734435690382004 0.9989646115296607 -0.0019834344726134424
 -4.7971134666087437e-05 -0.0002489169343974525 4.9287631551665833e-05 0.00039809816480245754 0.9989646115296607 -0.0019834344726134424 0.0010167927083029485 0.0007734371564634036
0.006252605252188 0.0010350133035824903 0.0009699805654458625 0.9989414890461689 -0.002479742634535795 5.3133332000790474e-05 0.000497800596902567 -5.133911060456739e-05 -0.00031148749222797485
 0.9989414890461689 -0.002479742634535795 0.0010350277373689998 0.000969973765512625 -5.134148009143929e-05 -0.00031148895755835375 5.303079868141633e-05 0.0004978327897916133
 5.3133332000790474e-05 0.000497800596902567 -5.134148009143929e-05 -0.00031148895755835375 0.0010350115513287344 0.000969897392480675 0.9989414886401531 -0.002479826470395607
 -5.133911060456739e-05 -0.00031148749222797485 5.303079868141633e-05 0.0004978327897916133 0.9989414886401531 -0.002479826470395607 0.0010350286828607984 0.0009698892735524777
0.01250521050438 0.001129139701908617 0.0019607889478019413 0.9988215471024089 -0.004960488155374616 7.392489364073137e-05 0.0009959997765296668 -6.9679968067643e-05 -0.0006246855346410884
 0.9988215471024089 -0.004960488155374616 0.0011291973318486718 0.0019607743702997984 -6.968930580523586e-05 -0.000624688267014419 7.351591529080231e-05 0.0009960763635878365
 7.392489364073137e-05 0.0009959997765296668 -6.968930580523586e-05 -0.000624688267014419 0.0011291332630112088 0.0019606229201061674 0.9988215460415956 -0.004960655561624326
 -6.9679968067643e-05 -0.0006246855346410884 7.351591529080231e-05 0.0009960763635878365 0.9988215460415956 -0.004960655561624326 0.0011292016728101132 0.0019606056485855085
0.01875781575657 0.0012285837023242481 0.002966244864443474 0.9986940074889152 -0.007448337449850051 9.79460636847891e-05 0.0014949743618977646 -9.059935341747815e-05 -0.0009391700733377354
 0.9986940074889152 -0.007448337449850051 0.0012287131885266617 0.002966221493759669 -9.062017784361768e-05 -0.0009391738514280104 9.702709961915603e-05 0.001495109165485824
 9.79460636847891e-05 0.0014949743618977646 -9.062017784361768e-05 -0.0009391738514280104 0.0012285696494802485 0.0029659961486931865 0.9986940055256277 -0.007448588352774558
 -9.059935341747815e-05 -0.0009391700733377354 9.702709961915603e-05 0.001495109165485824 0.9986940055256277 -0.007448588352774558 0.0012287233739134468 0.002965968622234144
0.02501042100875 0.001333482251741665 0.003984999159596505 0.9985587683342954 -0.00994455774272779 0.0001252336815640461 0.0019947842981130307 -0.00011413823249382677 -0.0012548325953574805
 0.9985587683342954 -0.00994455774272779 0.001333712187719556 0.003984965952932811 -0.00011417500964461995 -0.0012548371700195243 0.0001236009391897681 0.001994992670287737
 0.0001252336815640461 0.0019947842981130307 -0.00011417500964461995 -0.0012548371700195243 0.001333457658969812 0.003984667923602873 0.9985587652189509 -0.009944892106498023
 -0.00011413823249382677 -0.0012548325953574805 0.0001236009391897681 0.001994992670287737 0.9985587652189509 -0.009944892106498023 0.0013337306666590693 0.003984628984582207
0.03126302626094 0.001443965872431599 0.00501638820604198 0.9984157205032587 -0.012449728180211077 0.00015582529197684405 0.0024954439529958966 -0.00014033678779106466 -0.001571608771821163
 0.9984157205032587 -0.012449728180211077 0.0014443247989226902 0.005016344095969105 -0.00014039394078094154 -0.0015716138654181008 0.00015327452174840174 0.0024957427820365796
 0.00015582529197684405 0.0024954439529958966 -0.00014039394078094154 -0.0015716138654181008 0.0014439278148025707 0.005015974639822266 0.9984157159853038 -0.012450145985916327
 -0.00014033678779106466 -0.001571608771821163 0.00015327452174840174 0.0024957427820365796 0.9984157159853038 -0.012450145985916327 0.0014443540230676766 0.005015923077984823
0.037515631513130004 0.0015601622534017023 0.006060002564737257 0.9982647512200542 -0.014964171144541379 0.00018975874274763553 0.0029969503044716917 -0.00016923474803569023 -0.00188945025674856
 0.9982647512200542 -0.014964171144541379 0.00156067866693122 0.006059946460761629 -0.00016931666204441167 -0.0018894555629073526 0.00018608513597612004 0.0029973580310051905
 0.00018975874274763553 0.0029969503044716917 -0.00016931666204441167 -0.0018894555629073526 0.0015601078075358295 0.0060595068785564265 0.9982647450486818 -0.014964672392425453
 -0.00016923474803569023 -0.00188945025674856 0.00018608513597612004 0.0029973580310051905 0.9982647450486818 -0.014964672392425453 0.0015607210919162087 0.006059441432402768
0.043768236765320004 0.0016821976417171719 0.007115555717149491 0.9981057454932313 -0.017488083492733553 0.00022707201146679264 0.0034992915084663444 -0.00020087151704350576 -0.0022083161079273182
 0.9981057454932313 -0.017488083492733553 0.0016829000005934736 0.007115486506997059 -0.00020098254231928843 -0.002208321291420804 0.00022207014170879272 0.003499828144544488
 0.00022707201146679264 0.0034992915084663444 -0.00020098254231928843 -0.002208321291420804 0.0016821238847908842 0.0071149781470316855 0.9981057374161295 -0.017488668196998014
 -0.00020087151704350576 -0.0022083161079273182 0.00022207014170879272 0.003499828144544488 0.9981057374161295 -0.017488668196998014 0.0016829580861142447 0.007114897504771894
0.050020842017509996 0.0018101974963155088 0.008182829835309676 0.9979385868035141 -0.020021590756304407 0.00026780310883891 0.004002450436450398 -0.0002352862352202766 -0.0025281692387704446
 0.9979385868035141 -0.020021590756304407 0.0018111142258905137 0.008182746386040354 -0.0002354306891638236 -0.002528173935452979 0.0002612668962654436 0.004003137585900586
 0.00026780310883891 0.004002450436450398 -0.0002354306891638236 -0.002528173935452979 0.0018101015065472659 0.008182170645070298 0.997938576567424 -0.02002225894342698
 -0.0002352862352202766 -0.0025281692387704446 0.0002612668962654436 0.004003137585900586 0.997938576567424 -0.02002225894342698 0.0018111904361397472 0.00818207344539685
0.055454545454549996 0.0019263742309241084 0.009119704975059595 0.9977866082783925 -0.02223114116190619 0.0003060048637333865 0.004440358889079624 -0.00026747992359275863 -0.0028069059001793583
 0.9977866082783925 -0.02223114116190619 0.0019275003176081869 0.009119608216189543 -0.0002676569098542563 -0.00280690985558698 0.00029796737461614773 0.004441195636199786
 0.0003060048637333865 0.004440358889079624 -0.0002676569098542563 -0.00280690985558698 0.001926256547393355 0.009118975090829522 0.9977865959586274 -0.022231881928975523
 -0.00026747992359275863 -0.0028069059001793583 0.00029796737461614773 0.004441195636199786 0.9977865959586274 -0.022231881928975523 0.0019275942833830168 0.00911886235867266
0.056273447269699996 0.0019442868395808059 0.009261649157757193 0.9977631574913856 -0.022564773734501758 0.00031199001987967066 0.004506406404074272 -0.0002725178073331477 -0.002848974679462275
 0.9977631574913856 -0.022564773734501758 0.0019454463365473286 0.009261550316770771 -0.00027269997589273717 -0.0028489784962286496 0.00030371270926185306 0.00450726728349321
 0.00031199001987967066 0.004506406404074272 -0.00027269997589273717 -0.0028489784962286496 0.0019441656958301245 0.009260908640128006 0.997763144841266 -0.02256552544252992
 -0.0002725178073331477 -0.002848974679462275 0.00030371270926185306 0.00450726728349321 0.997763144841266 -0.02256552544252992 0.001945543140497264 0.009260793472772243
0.06252605252188 0.0020845904581118313 0.01035186534963715 0.9975793389933962 -0.025117683103353657 0.0003596706605503598 0.0050111361248761305 -0.0003126049165791857 -0.00317069861333535
 0.9975793389933962 -0.025117683103353657 0.0020860210943959554 0.010351749945576713 -0.0003128290553117979 -0.0031707011280874327 0.00034944480813041065 0.0050121955850171845
 0.0003596706605503598 0.0050111361248761305 -0.0003128290553117979 -0.0031707011280874327 0.0020844412397899585 0.010351043828686231 0.9975793236721381 -0.02511851837977362
 -0.0003126049165791857 -0.00317069861333535 0.00034944480813041065 0.0050121955850171845 0.9975793236721381 -0.02511851837977362 0.0020861409658287054 0.010350909234985719
0.06877865777407 0.0022312330243000173 0.011453348790862532 0.9973870120014156 -0.027680348096409086 0.0004108828454308517 0.0055166142705894315 -0.0003555860285019552 -0.003493307807005773
 0.9973870120014156 -0.027680348096409086 0.0022329631509137924 0.01145321563455148 -0.0003558563633987729 -0.003493308568635967 0.00039850031190433893 0.005517898817974218
 0.0004108828454308517 0.0055166142705894315 -0.0003558563633987729 -0.003493308568635967 0.0022310528123610923 0.01145244661794664 0.997386993750402 -0.0276812670026313
 -0.0003555860285019552 -0.003493307807005773 0.00039850031190433893 0.005517898817974218 0.997386993750402 -0.0276812670026313 0.00223310856926116 0.011452291091296569
0.07503126302626001 0.002384339174210103 0.012565983034969997 0.9971860565782207 -0.03025278201516347 0.00046566426089832586 0.00602281382774256 -0.0004014993897794455 -0.00381676924455607
 0.9971860565782207 -0.03025278201516347 0.002386397124735579 0.012565830920104515 -0.0004018201178614126 -0.003816767772925015 0.0004509162088194985 0.006024351646441758
 0.00046566426089832586 0.00602281382774256 -0.0004018201178614126 -0.003816767772925015 0.002384125050447166 0.012565000593792303 0.9971860351361114 -0.03025378462181513
 -0.0004014993897794455 -0.00381676924455607 0.0004509162088194985 0.006024351646441758 0.9971860351361114 -0.03025378462181513 0.0023865705745351054 0.012564822579948667
0.08128386827845 0.002544033553664921 0.013689661134139755 0.996976352242265 -0.03283498587329025 0.0005240524414542909 0.006529706331871572 -0.0004503830238684673 -0.004141049884506326
 0.996976352242265 -0.03283498587329025 0.0025464476476521124 0.013689488838166574 -0.00045075831363561644 -0.004141045670439466 0.0005067293360766366 0.006531527305376962
 0.0005240524414542909 0.006529706331871572 -0.00045075831363561644 -0.004141045670439466 0.0025437826015008995 0.013688598842528776 0.9969763273455313 -0.03283607225884361
 -0.0004503830238684673 -0.004141049884506326 0.0005067293360766366 0.006531527305376962 0.9969763273455313 -0.03283607225884361 0.0025466516195854004 0.013688396740005538
0.08753647353064001 0.0027104408475898795 0.01482428309608631 0.9967577780367367 -0.03542695090950313 0.000586084748798727 0.007037262027646102 -0.0005022747238153695 -0.004466116491280526
 0.9967577780367367 -0.03542695090950313 0.002713239394079432 0.014824089380792228 -0.0005027087156526386 -0.004466108996549725 0.0005659763615159677 0.00703939776080548
 0.000586084748798727 0.007037262027646102 -0.0005027087156526386 -0.004466108996549725 0.0027101501521067037 0.014823141403578639 0.9967577494193695 -0.03542812116301027
 -0.0005022747238153695 -0.004466116491280526 0.0005659763615159677 0.00703939776080548 0.9967577494193695 -0.03542812116301027 0.0027134763846198267 0.014822913563851499
0.09378907878283 0.002883685796481785 0.01596975406396819 0.9965302125865346 -0.03802866037753306 0.0006517983523114932 0.0075454499836031695 -0.0005572120435047529 -0.0047919355124741835
 0.9965302125865346 -0.03802866037753306 0.002886897097302885 0.015969537676189985 -0.0005577088499557864 -0.004791924169793648 0.0006286937661960998 0.007547933824603349
 0.0006517983523114932 0.0075454499836031695 -0.0005577088499557864 -0.004791924169793648 0.002883352444592585 0.015968533450827865 0.9965301799791693 -0.03802991459997567
 -0.0005572120435047529 -0.0047919355124741835 0.0006286937661960998 0.007547933824603349 0.9965301799791693 -0.03802991459997567 0.0028871696089871144 0.015968278178587453
0.100041684035 0.0030638932034310956 0.017125982977371577 0.99629353414612 -0.0406400908554815 0.0007212302104761153 0.008054238173175455 -0.0006152322876130134 -0.005118472990310101
 0.99629353414612 -0.0406400908554815 0.0030675455565581226 0.017125742649538322 -0.0006157959936237331 -0.005118457203335971 0.0006949178276372132 0.00805710523551635
 0.0007212302104761153 0.008054238173175455 -0.0006157959936237331 -0.005118457203335971 0.003063514284262261 0.01712468395985428 0.9962934972763959 -0.04064142915492427
 -0.0006152322876130134 -0.005118472990310101 0.0006949178276372132 0.00805710523551635 0.9962934972763959 -0.04064142915492427 0.0030678560980657134 0.017124399513083546
0.1059090909091 0.0032394422491924535 0.018220686756747297 0.9960630396313669 -0.043099456657520116 0.0007897990781393374 0.008532198395940408 -0.0006725150208186553 -0.005425516543123806
 0.9960630396313669 -0.043099456657520116 0.0032435342192093397 0.018220422798553338 -0.0006731451957134213 -0.005425496017398688 0.000760283473566311 0.008535458598037986
 0.0007897990781393374 0.008532198395940408 -0.0006731451957134213 -0.005425496017398688 0.003239017925103455 0.018219314662770537 0.996062998511612 -0.043100873963011044
 -0.0006725150208186553 -0.005425516543123806 0.000760283473566311 0.008535458598037986 0.996062998511612 -0.043100873963011044 0.003243882735611681 0.018219001212948442
0.1062942892872 0.003251187934467434 0.018292881574915876 0.996047620642161 -0.04326121321398191 0.0007944170530872548 0.00856359353664076 -0.0006763725005370586 -0.005445694492598471
 0.996047620642161 -0.04326121321398191 0.0032553096372752105 0.018292616025631123 -0.0006770071635961941 -0.005445673635928052 0.0007646846035165848 0.008566880721121549
 0.0007944170530872548 0.00856359353664076 -0.0006770071635961941 -0.005445673635928052 0.0032507605400542215 0.018291504700684285 0.9960475792349257 -0.0432626357104088
 -0.0006763725005370586 -0.005445694492598471 0.0007646846035165848 0.008566880721121549 0.9960475792349257 -0.0432626357104088 0.0032556607243595906 0.018291189290782883
0.11254689453939999 0.00344569491520471 0.019470363618831792 0.9957923497132027 -0.04589199336271068 0.0008713953638669698 0.009073482026518146 -0.0007406694545520571 -0.005773565060777879
 0.9957923497132027 -0.04589199336271068 0.003450314267917964 0.019470071553274383 -0.0007413791048191997 -0.005773538479948657 0.0008380299155478296 0.009077228043197109
 0.0008713953638669698 0.009073482026518146 -0.0007413791048191997 -0.005773538479948657 0.0034452161398871015 0.019468909471188622 0.9957923034890428 -0.045893500184287096
 -0.0007406694545520571 -0.005773565060777879 0.0008380299155478296 0.009077228043197109 0.9957923034890428 -0.045893500184287096 0.0034507084225623916 0.019468561262937903
0.11879949979160001 0.003647539122314589 0.02065834429509784 0.9955275987443871 -0.04853239282199192 0.000952201363398769 0.009583868642879472 -0.0008081596372648374 -0.006102049168515727
 0.9955275987443871 -0.04853239282199192 0.003652684431453612 0.020658024405439908 -0.0008089482777172926 -0.0061020161800115465 0.0009149893335485134 0.009588114033002245
 0.000952201363398769 0.009583868642879472 -0.0008089482777172926 -0.0061020161800115465 0.003647006063993276 0.020656813489935213 0.9955275474202756 -0.048533984108238434
 -0.0008081596372648374 -0.006102049168515727 0.0009149893335485134 0.009588114033002245 0.9955275474202756 -0.048533984108238434 0.0036531241826545874 0.02065643060152808
0.1250521050438 0.00385684557285799 0.0218567397362157 0.9952532449014342 -0.05118236917196665 0.0010368709922250745 0.010094717461346322 -0.0008788792385962023 -0.006431110688155393
 0.9952532449014342 -0.05118236917196665 0.0038625451545767782 0.02185639070197987 -0.0008797508450318316 -0.006431070579409403 0.0009955981596238297 0.01009950461923127
 0.0010368709922250745 0.010094717461346322 -0.0008797508450318316 -0.006431070579409403 0.0038562553328590383 0.02185513292431634 0.9952531881903888 -0.051184045071944226
 -0.0008788792385962023 -0.006431110688155393 0.0009955981596238297 0.01009950461923127 0.9952531881903888 -0.051184045071944226 0.0038630330384241077 0.021854713427214605
0.131304710296 0.004073739311146105 0.0230654666368636 0.9949691651625129 -0.053841876409647216 0.001125439894241551 0.010605991653186637 -0.0009528641370896326 -0.006760712865592058
 0.9949691651625129 -0.053841876409647216 0.004080021494593964 0.023065087125240455 -0.0009538226581816417 -0.006760664895008894 0.0010798914123479456 0.010611364848030467
 0.001125439894241551 0.010605991653186637 -0.0009538226581816417 -0.006760664895008894 0.004073088994658955 0.023063784505402547 0.9949691027733433 -0.0538436370807701
 -0.0009528641370896326 -0.006760712865592058 0.0010798914123479456 0.010611364848030467 0.9949691027733433 -0.0538436370807701 0.004080560054428568 0.023063326424141443
0.1375573155481 0.00423816930681462 0.02412552884633517 0.9947354205716671 -0.056351929597173535 0.001204068873582123 0.011100771366882969 -0.0010163312032413524 -0.007073904780312175
 0.9947354205716671 -0.056351929597173535 0.004245065194797624 0.024125126988640038 -0.001017382432443016 -0.007073849208549808 0.0011541417391435175 0.011106708057367055
 0.001204068873582123 0.011100771366882969 -0.001017382432443016 -0.007073849208549808 0.004237456422552944 0.02412377202870494 0.9947353522528243 -0.056353775133232545
 -0.0010163312032413524 -0.007073904780312175 0.0011541417391435175 0.011106708057367055 0.9947353522528243 -0.056353775133232545 0.00424565650167644 0.02412328285215448
0.1438099208003 0.004407956299604312 0.025181530744014618 0.9944941858016041 -0.05885717895406278 0.0012858526385780371 0.011594467410130272 -0.0010823298072445268 -0.007386125504925567
 0.9944941858016041 -0.05885717895406278 0.0044154946940200895 0.02518110586864315 -0.001083477987117645 -0.007386061635273364 0.001231351421880223 0.011601006546011027
 0.0012858526385780371 0.011594467410130272 -0.001083477987117645 -0.007386061635273364 0.004407178032011757 0.02517969995221608 0.994494111263486 -0.058859109511231966
 -0.0010823298072445268 -0.007386125504925567 0.001231351421880223 0.011601006546011027 0.994494111263486 -0.058859109511231966 0.004416141215858517 0.025179178347737658
0.1500625260525 0.004583056519439271 0.026233429741157246 0.9942455064407916 -0.061357608879153945 0.001370772287109193 0.012087059872873118 -0.0011508419148556382 -0.007697355670368559
 0.9942455064407916 -0.061357608879153945 0.004591266258918785 0.026232981133419566 -0.0011520912844107316 -0.007697282778904873 0.0013115022774837274 0.012094241770866975
 0.001370772287109193 0.012087059872873118 -0.0011520912844107316 -0.007697282778904873 0.004582210061415788 0.026231525714392624 0.9942454253902718 -0.06135962462170349
 -0.0011508419148556382 -0.007697355670368559 0.0013115022774837274 0.012094241770866975 0.9942454253902718 -0.06135962462170349 0.004591970464877232 0.026230970280259717
0.15631513130469998 0.004763426054214492 0.027281184885581414 0.9939894281200481 -0.06385320303726673 0.001458808800645219 0.0125785290465563 -0.0012218493660802222 -0.008007576256179844
