! Created with skrf 1.8.0 (http://scikit-rf.org).
# GHz S RI R 50.0 
!freq ReS11 ImS11 ReS12 ImS12 ReS13 ImS13
! ReS14 ImS14
! ReS21 ImS21 ReS22 ImS22 ReS23 ImS23
! ReS24 ImS24
! ReS31 ImS31 ReS32 ImS32 ReS33 ImS33
! ReS34 ImS34
! ReS41 ImS41 ReS42 ImS42 ReS43 ImS43
! ReS44 ImS44
!
0.0 0.001689718306796 0.0 0.9983102816932 0.0 6.541885120928e-05 0.0 -6.541885145318e-05 8.011498703603307e-21
 0.9983102816932 0.0 0.001689718306771 0.0 -6.541885145317e-05 8.011498703602083e-21 6.541885120862e-05 0.0
 6.541885120928e-05 0.0 -6.541885145317e-05 8.011498703602083e-21 0.001689718298442 0.0 0.9983102816849 0.0
 -6.541885145318e-05 8.011498703603307e-21 6.541885120862e-05 0.0 0.9983102816849 0.0 0.001689718298425 0.0
0.005 0.0018184623425770642 0.0013819784663450594 0.998147335514675 -0.003538970650451435 9.189320927309969e-05 0.0007206369940705758 -8.922961413879395e-05 -0.00045226879485384943
 0.998147335514675 -0.003538970650451435 0.0018184616366579433 0.0013819788898042744 -8.923342573287505e-05 -0.0004522717303928695 9.18874367428316e-05 0.0007206392234527249
 9.189320927309969e-05 0.0007206369940705758 -8.923342573287505e-05 -0.0004522717303928695 0.001818459964027812 0.001381912620193542 0.9981473351448231 -0.0035390377062376197
 -8.922961413879395e-05 -0.00045226879485384943 9.18874367428316e-05 0.0007206392234527249 0.9981473351448231 -0.0035390377062376197 0.001818463277234257 0.001381910623932647
0.006252605252188 0.0018523662680124948 0.0017328898493919544 0.9981041347916793 -0.0044245567137151465 9.952361765253418e-05 0.0009011370538916431 -9.60132302770594e-05 -0.0005659123461335252
 0.9981041347916793 -0.0044245567137151465 0.001852365164190342 0.0017328903601857564 -9.601916132806438e-05 -0.0005659159650523492 9.95145990334748e-05 0.0009011399457303621
 9.952361765253418e-05 0.0009011370538916431 -9.601916132806438e-05 -0.0005659159650523492 0.0018523626288663025 0.0017328075512500739 0.9981041342930266 -0.004424640528535567
 -9.60132302770594e-05 -0.0005659123461335252 9.95145990334748e-05 0.0009011399457303621 0.9981041342930266 -0.004424640528535567 0.001852367808595273 0.0017328050281880977
0.01250521050438 0.002031648469508067 0.003501870251521289 0.9978740970861221 -0.008849757743945775 0.00014363545364940017 0.0018025755455864196 -0.00013482953244527214 -0.0011344767630935572
 0.9978740970861221 -0.008849757743945775 0.0020316440584708987 0.003501871100919368 -0.00013485290495525096 -0.0011344834430857293 0.00014359950156690049 0.001802582472196661
 0.00014363545364940017 0.0018025755455864196 -0.00013485290495525096 -0.0011344834430857293 0.002031634475196366 0.0035017059591225244 0.9978740956371802 -0.008849925135338502
 -0.00013482953244527214 -0.0011344767630935572 0.00014359950156690049 0.001802582472196661 0.9978740956371802 -0.008849925135338502 0.002031655165542627 0.0035017006109421805
0.01875781575657 0.0022279852225403195 0.005295785620798865 0.9976198621030706 -0.013286339454486163 0.0001978613934292567 0.002704896682337409 -0.00018199324399797369 -0.001704853933928329
 0.9976198621030706 -0.013286339454486163 0.0022279753043087263 0.005295786670319829 -0.00018204536313705792 -0.0017048630000441236 0.00019778066303351562 0.002704909028890104
 0.0001978613934292567 0.002704896682337409 -0.00018204536313705792 -0.0017048630000441236 0.002227954187029403 0.005295539580344752 0.9976198592669027 -0.013286590300824894
 -0.00018199324399797369 -0.001704853933928329 0.00019778066303351562 0.002704909028890104 0.9976198592669027 -0.013286590300824894 0.002228000693620011 0.0052955310230271176
0.02501042100875 0.0024417826938900678 0.007112089424597205 0.9973411105014761 -0.017736415274947882 0.0002623096077955538 0.0036081148972936087 -0.00023762515225883704 -0.0022767637727345224
 0.9973411105014761 -0.017736415274947882 0.002441765068335613 0.007112090567665909 -0.00023771718650973634 -0.0022767744216092463 0.0002621662741720373 0.0036081342813192394
 0.0002623096077955538 0.0036081148972936087 -0.00023771718650973634 -0.0022767744216092463 0.002441727935775374 0.007111761873750592 0.9973411058394209 -0.017736749519319507
 -0.00023762515225883704 -0.0022767637727345224 0.0002621662741720373 0.0036081342813192394 0.9973411058394209 -0.017736749519319507 0.00244181055259467 0.007111749645413461
0.03126302626094 0.0026734302332708697 0.008949452558281118 0.9970375077578985 -0.022200867302940692 0.00033708831366516387 0.004512161003608147 -0.0003018422138492083 -0.002850002300719431
 0.9970375077578985 -0.022200867302940692 0.002673402699327177 0.008949453720506439 -0.00030198521793372614 -0.0028500135992690183 0.00033686456019715383 0.0045121892750491265
 0.00033708831366516387 0.004512161003608147 -0.00030198521793372614 -0.0028500135992690183 0.0026733450761376914 0.008949043789879811 0.9970375008319605 -0.022201284889878898
 -0.0003018422138492083 -0.002850002300719431 0.00033686456019715383 0.0045121892750491265 0.9970375008319605 -0.022201284889878898 0.0026734740892313397 0.008949027350573631
0.037515631513130004 0.002923308417714853 0.010806994325373796 0.9967087125333843 -0.026680115263134768 0.0004223047186645412 0.00541693240474805 -0.0003747583878535016 -0.003424391458243807
 0.9967087125333843 -0.026680115263134768 0.0029232687728022633 0.010806995465017582 -0.00037496331416115924 -0.0034244023433009176 0.00042198273517490614 0.005416971646882621
 0.0004223047186645412 0.00541693240474805 -0.00037496331416115924 -0.0034244023433009176 0.0029231861887747137 0.010806504682231677 0.9967087029066094 -0.026680616144571487
 -0.0003747583878535016 -0.003424391458243807 0.00042198273517490614 0.005416971646882621 0.9967087029066094 -0.026680616144571487 0.002923371879080444 0.010806483413204946
0.043768236765320004 0.003191792147548642 0.012684048409158339 0.9963543800931698 -0.031174350464287202 0.0005180645145209377 0.006322308363741953 -0.0004564849179665549 -0.003999763857549508
 0.9963543800931698 -0.031174350464287202 0.0031917381879063697 0.012684049517619788 -0.00045676262335784715 -0.003999773135780119 0.0005176264994281617 0.006322360894307283
 0.0005180645145209377 0.006322308363741953 -0.00045676262335784715 -0.003999773135780119 0.003191626177118455 0.012683478281549905 0.9963543673294224 -0.03117493460291967
 -0.0004564849179665549 -0.003999763857549508 0.0005176264994281617 0.006322360894307283 0.9963543673294224 -0.03117493460291967 0.003191878821598341 0.012683451484331965
0.050020842017509996 0.0034792520766674636 0.014580066137728791 0.995974164063698 -0.035683632461908484 0.0006244715607143595 0.007228156322361008 -0.0005471304220070512 -0.0045759564889472975
 0.995974164063698 -0.035683632461908484 0.0034791815972135287 0.014580067240188717 -0.000547491672025172 -0.004575962836852704 0.000623899725514937 0.0072282246947013755
 0.0006244715607143595 0.007228156322361008 -0.000547491672025172 -0.004575962836852704 0.003479035696245366 0.014579415975081951 0.9959741477258938 -0.03568429982048501
 -0.0005471304220070512 -0.0045759564889472975 0.000623899725514937 0.0072282246947013755 0.9959741477258938 -0.03568429982048501 0.0034793655684833935 0.014579382870591896
0.055454545454549996 0.003744759666977561 0.016242790947288848 0.9956224547030053 -0.03961453731117683 0.000725668492063059 0.008015639430032825 -0.0006332297965504206 -0.005077225886656339
 0.9956224547030053 -0.03961453731117683 0.0037446730398856274 0.016242792091560116 -0.0006336723235023534 -0.005077228512125102 0.0007249659311219524 0.008015723826725385
 0.000725668492063059 0.008015639430032825 -0.0006336723235023534 -0.005077228512125102 0.003744494065150011 0.0162420716422192 0.995622434904515 -0.03961527696137609
 -0.0006332297965504206 -0.005077225886656339 0.0007249659311219524 0.008015723826725385 0.995622434904515 -0.03961527696137609 0.003744899391682319 0.016242032360340195
0.056273447269699996 0.0037860553256608936 0.016494569032710578 0.9955677174781636 -0.04020793644034057 0.0007416276529635636 0.008134335004207727 -0.0006468008943524994 -0.0051528076481376734
 0.9955677174781636 -0.04020793644034057 0.003785966120447169 0.0164945701886078 -0.0006472563660155893 -0.005152809612110001 0.0007409042279109067 0.00813442200828023
 0.0007416276529635636 0.008134335004207727 -0.0006472563660155893 -0.005152809612110001 0.0037857818695457147 0.016493839340055435 0.9955676971296463 -0.04020868698614586
 -0.0006468008943524994 -0.0051528076481376734 0.0007409042279109067 0.00813442200828023 0.9955676971296463 -0.04020868698614586 0.0037861992399012105 0.016493799067504346
0.06252605252188 0.0041125658555185626 0.01842712270650978 0.9951346934865515 -0.044747179251384654 0.0008696323338951098 0.009040696133380806 -0.0007555996638401356 -0.005730155253840703
 0.9951346934865515 -0.044747179251384654 0.004112455718060873 0.01842712401013591 -0.0007561599473464379 -0.005730151250255248 0.0008687395749857396 0.00904080479666954
 0.0008696323338951098 0.009040696133380806 -0.0007561599473464379 -0.005730151250255248 0.004112228660089898 0.01842631404841183 0.995134668691013 -0.04474801295332873
 -0.0007555996638401356 -0.005730155253840703 0.0008687395749857396 0.00904080479666954 0.995134668691013 -0.04474801295332873 0.004112743796656846 0.018426265664123028
0.06877865777407 0.004459144644823733 0.020377321308801363 0.9946747458746242 -0.04930123490988037 0.0010085827272848747 0.009947085463004669 -0.000873627326314573 -0.006307835862091458
 0.9946747458746242 -0.04930123490988037 0.004459011368222342 0.02037732288985446 -0.0008743029262393078 -0.006307824177396298 0.0010075029236189072 0.009947219051256244
 0.0010085827272848747 0.009947085463004669 -0.0008743029262393078 -0.006307824177396298 0.004458737048720869 0.02037643430974619 0.9946747161953202 -0.049302151739137594
 -0.000873627326314573 -0.006307835862091458 0.0010075029236189072 0.009947219051256244 0.9946747161953202 -0.049302151739137594 0.004459360216542358 0.020376376786147083
0.07503126302626001 0.004826149756934099 0.022344777680253124 0.9941875294775346 -0.05386994438948898 0.0011585733863099397 0.010853343442300475 -0.0010009816612568173 -0.006885684048842524
 0.9941875294775346 -0.05386994438948898 0.0048259911343921675 0.022344779704337257 -0.0010017829971611775 -0.006885662839688257 0.0011572888681457328 0.01085350546008539
 0.0011585733863099397 0.010853343442300475 -0.0010017829971611775 -0.006885662839688257 0.004825665101688094 0.022343813024504156 0.994187494478069 -0.05387094432060496
 -0.0010009816612568173 -0.006885684048842524 0.0011572888681457328 0.01085350546008539 0.994187494478069 -0.05387094432060496 0.004826406563143579 0.022343745248804787
0.08128386827845 0.005213936334891185 0.024329116782836887 0.9936727005259174 -0.058453122149351486 0.001319696150132623 0.011759305667512328 -0.0011377575384910643 -0.007463532015957153
 0.9936727005259174 -0.058453122149351486 0.005213750160150094 0.0243291194519042 -0.0011386949452848844 -0.0074634993093218435 0.0013181892973460768 0.011759499858612778
 0.001319696150132623 0.011759305667512328 -0.0011386949452848844 -0.0074634993093218435 0.005213367964796865 0.024328075218911217 0.9936726597689678 -0.05845420515679287
 -0.0011377575384910643 -0.007463532015957153 0.0013181892973460768 0.011759499858612778 0.9936726597689678 -0.05845420515679287 0.0052142379790665805 0.024327995992018438
0.08753647353064001 0.00562285654833822 0.0263299711891768 0.9931299169476103 -0.06305056061014983 0.0014920400060449619 0.01266480320917922 -0.0012840468179890548 -0.008041209328276715
 0.9931299169476103 -0.06305056061014983 0.005622640616166578 0.02632997474198509 -0.0012851305459204733 -0.008041163021623688 0.0014902932571124541 0.012665033556704699
 0.0014920400060449619 0.01266480320917922 -0.0012851305459204733 -0.008041163021623688 0.005622197811238716 0.026328853528222368 0.9931298699959579 -0.06305172667092311
 -0.0012840468179890548 -0.008041209328276715 0.0014902932571124541 0.012665033556704699 0.9931298699959579 -0.06305172667092311 0.0056232066343854265 0.02632876156333677
0.09378907878283 0.006053259508758486 0.028346977844403244 0.9925588386428752 -0.06766203336616046 0.0016756909561751322 0.013569662855006605 -0.0014399382440988837 -0.00861854274276919
 0.9925588386428752 -0.06766203336616046 0.006053011615460675 0.028346982556971115 -0.0014411784586319562 -0.008618480604217753 0.0016736868171942094 0.013569933581411188
 0.0016756909561751322 0.013569662855006605 -0.0014411784586319562 -0.008618480604217753 0.006052503756069345 0.028345784962995738 0.9925587850586699 -0.06766328245803672
 -0.0014399382440988837 -0.00861854274276919 0.0016736868171942094 0.013569933581411188 0.9925587850586699 -0.06766328245803672 0.006053661640367086 0.028345678884449704
0.100041684035 0.006505491159705769 0.030379775709820516 0.9919591277383035 -0.07228729752460068 0.0018707318859320816 0.014473707304148296 -0.0016055173370332677 -0.009195356094144878
 0.9919591277383035 -0.07228729752460068 0.006505209103514039 0.03037978189580367 -0.001606924118440519 -0.00919527576267132 0.001868452940166928 0.014474022870931205
 0.0018707318859320816 0.014473707304148296 -0.001606924118440519 -0.00919527576267132 0.006504631746942824 0.03037850855065218 0.9919590670829215 -0.07228862962645523
 -0.0016055173370332677 -0.009195356094144878 0.001868452940166928 0.014474022870931205 0.9919590670829215 -0.07228862962645523 0.006505948940876102 0.030378386892463683
0.1059090909091 0.006950020827502686 0.03230138144457676 0.9913700228176442 -0.07663993120056425 0.0020641871586415134 0.015321154331935793 -0.0017697798341481242 -0.009736001703111818
 0.9913700228176442 -0.07663993120056425 0.006949704712730267 0.032301389332264875 -0.0017713520125820874 -0.009735902037306595 0.0020616345727721146 0.015321516246851833
 0.0020641871586415134 0.015321154331935793 -0.0017713520125820874 -0.009735902037306595 0.006949058102295879 0.03230004550043756 0.991369955127495 -0.07664134118047758
 -0.0017697798341481242 -0.009736001703111818 0.0020616345727721146 0.015321516246851833 0.991369955127495 -0.07664134118047758 0.006950534107759361 0.03229990780757659
0.1062942892872 0.006979894150640918 0.032428003992704325 0.9913304488275384 -0.07692609546813853 0.002077242435202433 0.015376755323619 -0.0017808662810069298 -0.009771470226408459
 0.9913304488275384 -0.07692609546813853 0.006979575732291436 0.032428012003698534 -0.0017824496240022728 -0.009771369212030817 0.00207467135277723 0.015377120430818849
 0.002077242435202433 0.015376755323619 -0.0017824496240022728 -0.009771369212030817 0.006978924438645577 0.03242666356470638 0.9913303806620019 -0.07692751056071417
 -0.0017808662810069298 -0.009771470226408459 0.00207467135277723 0.015377120430818849 0.9913303806620019 -0.07692751056071417 0.00698041118558869 0.03242652476935674
0.11254689453939999 0.0074768076970446705 0.03449130080096247 0.9906724692020638 -0.08157815620193054 0.0022952988705192815 0.016278621884777765 -0.0019660638112023116 -0.010346702952454628
 0.9906724692020638 -0.08157815620193054 0.00747645072004331 0.03449131102688903 -0.0019678336242104767 -0.010346578636490982 0.0022924184183548443 0.016279041470255808
 0.0022952988705192815 0.016278621884777765 -0.0019678336242104767 -0.010346578636490982 0.007475721051537388 0.03448988818060853 0.9906723930865137 -0.08157965426771575
 -0.0019660638112023116 -0.010346702952454628 0.0022924184183548443 0.016279041470255808 0.9906723930865137 -0.08157965426771575 0.007477387590108817 0.03448973059754371
0.11879949979160001 0.00799656742959979 0.03656930210447716 0.9899848590750766 -0.08624319640425089 0.0025249739590008933 0.017179118282951007 -0.0021611850986426114 -0.010920869038972677
 0.9899848590750766 -0.08624319640425089 0.007996169701175573 0.036569314973793905 -0.0021631512032522678 -0.010920718674284234 0.0025217670110491727 0.01717959752136011
 0.0025249739590008933 0.017179118282951007 -0.0021631512032522678 -0.010920718674284234 0.007995357222749544 0.03656781843999148 0.9899847745688405 -0.0862447774240376
 -0.0021611850986426114 -0.010920869038972677 0.0025217670110491727 0.01717959752136011 0.9899847745688405 -0.0862447774240376 0.007997213785431605 0.03656764032428617
0.1250521050438 0.008539505236435504 0.03866164091983972 0.9892672917999837 -0.0909209212633198 0.002766336843038131 0.01807805224794433 -0.002366301634883926 -0.011493780208813462
 0.9892672917999837 -0.0909209212633198 0.00853906456785563 0.038661656899831066 -0.002368473764965401 -0.01149360092007094 0.0027627863905821167 0.018078596549513153
 0.002766336843038131 0.01807805224794433 -0.002368473764965401 -0.01149360092007094 0.00853816484694543 0.03866008742607327 0.9892671984614347 -0.0909225852224753
 -0.002366301634883926 -0.011493780208813462 0.0027627863905821167 0.018078596549513153 0.9892671984614347 -0.0909225852224753 0.008540221659842258 0.038659886936920344
0.131304710296 0.009105949097801245 0.04076794666523522 0.9885194440845858 -0.09561102515469402 0.0030194529164486498 0.01897522804540488 -0.0025814811154455837 -0.012065245161140839
 0.9885194440845858 -0.09561102515469402 0.009105463304756927 0.04076796626219896 -0.0025838689163295895 -0.012065033945155935 0.003015542078704926 0.018975843054420394
 0.0030194529164486498 0.01897522804540488 -0.0025838689163295895 -0.012065033945155935 0.009104471911743744 0.04076632462941737 0.9885193414711281 -0.09561277203830132
 -0.0025814811154455837 -0.012065245161140839 0.003015542078704926 0.018975843054420394 0.9885193414711281 -0.09561277203830132 0.009106739193674001 0.04076609982873231
0.1375573155481 0.009571249546559949 0.04261380755597301 0.9878660279505441 -0.10003900171598555 0.0032538098730150087 0.019843688609163652 -0.002776220065028758 -0.012608328298429172
 0.9878660279505441 -0.10003900171598555 0.009570716980835264 0.042613833366534945 -0.002778837924672567 -0.012608084696518859 0.003249529713615609 0.019844373606900337
 0.0032538098730150087 0.019843688609163652 -0.002778837924672567 -0.012608084696518859 0.009569629581704889 0.04261211817727105 0.9878659156454921 -0.10004083146344935
 -0.002776220065028758 -0.012608328298429172 0.003249529713615609 0.019844373606900337 0.9878659156454921 -0.10004083146344935 0.00957211677152478 0.042611869293931855
0.1438099208003 0.010053073456100965 0.04444904623134676 0.9871893349455297 -0.10445483674569185 0.0034976033047732493 0.020708074025180552 -0.0029787113974089684 -0.013147663553086436
 0.9871893349455297 -0.10445483674569185 0.010052492026768481 0.04444907893830499 -0.0029815696873741857 -0.01314738458851356 0.0034929385559278763 0.020708834169717916
 0.0034976033047732493 0.020708074025180552 -0.0029815696873741857 -0.01314738458851356 0.010051304219648312 0.04444729082175021 0.9871892125112119 -0.10445674933035125
 -0.0029787113974089684 -0.013147663553086436 0.0034929385559278763 0.020708834169717916 0.9871892125112119 -0.10445674933035125 0.010054021379165938 0.044447016027512734
0.1500625260525 0.010551237631362608 0.04627348235537335 0.9864895529737008 -0.10885839296957377 0.003750740195008784 0.021568278129757524 -0.003188864519300386 -0.01368315090959037
 0.9864895529737008 -0.10885839296957377 0.010550605255450946 0.046273522664405646 -0.0031919735831267373 -0.013682833485839605 0.003745675803971225 0.02156911874227836
 0.003750740195008784 0.021568278129757524 -0.0031919735831267373 -0.013682833485839605 0.010549312643915492 0.046271662277475624 0.9864894199718012 -0.10886038836613342
 -0.003188864519300386 -0.01368315090959037 0.003745675803971225 0.02156911874227836 0.9864894199718012 -0.10886038836613342 0.01055226981727046 0.046271359663934676
0.15631513130469998 0.011065557412761095 0.048086940966887336 0.9857668710759274 -0.11324953420603553 0.004013126329520215 0.02242419676542208 -0.0034065876331746767 -0.01421469262748736
 0.9857668710759274 -0.11324953420603553 0.011064872015476067 0.0480869896057543 -0.003409957785816011 -0.01421433352879747 0.004007647464290756 0.02242512332525719
