! Created with skrf 1.8.0 (http://scikit-rf.org).
# GHz S RI R 50.0 
!freq ReS11 ImS11 ReS12 ImS12 ReS13 ImS13
! ReS14 ImS14
! ReS21 ImS21 ReS22 ImS22 ReS23 ImS23
! ReS24 ImS24
! ReS31 ImS31 ReS32 ImS32 ReS33 ImS33
! ReS34 ImS34
! ReS41 ImS41 ReS42 ImS42 ReS43 ImS43
! ReS44 ImS44
!
0.0 0.001440495700058 0.0 0.9985595042999 0.0 5.552117193343e-05 0.0 -5.55211717554e-05 6.799382527516105e-21
 0.9985595042999 0.0 0.001440495700111 0.0 -5.552117175672e-05 6.799382527677757e-21 5.552117193394e-05 0.0
 5.552117193343e-05 0.0 -5.552117175672e-05 6.799382527677757e-21 0.001440495697251 0.0 0.9985595042971 0.0
 -5.55211717554e-05 6.799382527516105e-21 5.552117193394e-05 0.0 0.9985595042971 0.0 0.001440495697235 0.0
0.005 0.0015495976348603119 0.001176258438665536 0.9984215101812112 -0.0030178936200042183 7.802271169466859e-05 0.0006264443648613246 -7.568229591288015e-05 -0.0003906973117590981
 0.9984215101812112 -0.0030178936200042183 0.001549612686353608 0.0011762496815004412 -7.568568023071231e-05 -0.0003906999192795592 7.792248082690218e-05 0.0006264825556019101
 7.802271169466859e-05 0.0006264443648613246 -7.568568023071231e-05 -0.0003906999192795592 0.0015495955126204224 0.0011761924536113529 0.998421509829231 -0.003017960672496834
 -7.568229591288015e-05 -0.0003906973117590981 7.792248082690218e-05 0.0006264825556019101 0.998421509829231 -0.003017960672496834 0.0015496141104753963 0.0011761815666940585
0.006252605252188 0.0015781277544435054 0.0014749729619697918 0.998385207646676 -0.003773119148033727 8.441325863149333e-05 0.0007833568864158141 -8.133689035128084e-05 -0.0004888850497925719
 0.998385207646676 -0.003773119148033727 0.0015781512820646686 0.0014749618056038513 -8.134215659915572e-05 -0.0004888882654436493 8.425665684290285e-05 0.0007834064537692513
 8.441325863149333e-05 0.0007833568864158141 -8.134215659915572e-05 -0.0004888882654436493 0.00157812451427812 0.00147489047670111 0.9983852071740762 -0.0037732029735249714
 -8.133689035128084e-05 -0.0004888850497925719 8.425665684290285e-05 0.0007834064537692513 0.9983852071740762 -0.0037732029735249714 0.0015781535863447133 0.0014748766513420295
0.01250521050438 0.0017278277264022378 0.002981055271935793 0.99819351393527 -0.007547137825631383 0.00012086005079393001 0.0015670547193815446 -0.000113218378412194 -0.0009802078515970323
 0.99819351393527 -0.007547137825631383 0.001727921666106566 0.0029810308579923646 -0.00011323913230007034 -0.0009802138056376904 0.00012023555455031215 0.0015671735066166623
 0.00012086005079393001 0.0015670547193815446 -0.00011323913230007034 -0.0009802138056376904 0.0017278153469531608 0.0029808906382146347 0.9981935126093453 -0.007547305229813417
 -0.000113218378412194 -0.0009802078515970323 0.00012023555455031215 0.0015671735066166623 0.9981935126093453 -0.007547305229813417 0.001727931435561794 0.002980860790346366
0.01875781575657 0.0018899061250109948 0.004508775879607948 0.9979841966313583 -0.011331261529030285 0.0001649425697808857 0.002351644600459071 -0.00015126070448609992 -0.0014732519765630594
 0.9979841966313583 -0.011331261529030285 0.0018901172000536162 0.0045087360027974525 -0.0001513069871109212 -0.0014732601053435623 0.0001635396937997576 0.002351855922229774
 0.0001649425697808857 0.002351644600459071 -0.0001513069871109212 -0.0014732601053435623 0.0018898787246120128 0.0045085293409824 0.9979841940720181 -0.011331512444104512
 -0.00015126070448609992 -0.0014732519765630594 0.0001635396937997576 0.002351855922229774 0.9979841940720181 -0.011331512444104512 0.001890139587838918 0.00450848108237323
0.02501042100875 0.0020646651879472917 0.006056009227858155 0.9977570207599606 -0.015127341501362745 0.00021674341600728725 0.003137173297452879 -0.00019555605804060633 -0.0019678005569157137
 0.9977570207599606 -0.015127341501362745 0.0020650400186988174 0.006055951593357837 -0.00019563779130313432 -0.0019678102001786965 0.00021425153942690158 0.0031375039910397895
 0.00021674341600728725 0.003137173297452879 -0.00019563779130313432 -0.0019678102001786965 0.002064616890178933 0.006055681069679671 0.9977570165825571 -0.015127675901053015
 -0.00019555605804060633 -0.0019678005569157137 0.00021425153942690158 0.0031375039910397895 0.9977570165825571 -0.015127675901053015 0.0020650801734807484 0.006055611840763908
0.03126302626094 0.0022523945673373724 0.007621669895011539 0.997511738763584 -0.01893618006317714 0.0002763459169014718 0.003923613927776422 -0.0002461941736543305 -0.0024637055282653794
 0.997511738763584 -0.01893618006317714 0.002252979696461421 0.0076215921218644915 -0.0002463211808002381 -0.0024637159278672383 0.0002724539877882141 0.003924094372141508
 0.0002763459169014718 0.003923613927776422 -0.0002463211808002381 -0.0024637159278672383 0.002252319506891154 0.007621260463388209 0.9975117325861054 -0.01893659794410922
 -0.0002461941736543305 -0.0024637055282653794 0.0002724539877882141 0.003924094372141508 0.9975117325861054 -0.01893659794410922 0.002253042773186129 0.007621167536444891
0.037515631513130004 0.002453377759287351 0.009205056535311612 0.9972480971040059 -0.02275818661436609 0.0003438332488756656 0.004710910703927783 -0.0003032630114260852 -0.0029608428729211386
 0.9972480971040059 -0.02275818661436609 0.0024542196681851683 0.00920495615831836 -0.00030344502755545803 -0.00296085317240938 0.00033822964875941826 0.004711574855007064
 0.0003438332488756656 0.004710910703927783 -0.00030344502755545803 -0.00296085317240938 0.0024532700754189203 0.009204566230951367 0.997248088540849 -0.022758688002843898
 -0.0003032630114260852 -0.0029608428729211386 0.00033822964875941826 0.004711574855007064 0.997248088540849 -0.022758688002843898 0.0024543108240510396 0.00920444671132389
0.043768236765320004 0.0026678945758754225 0.010805652251181318 0.9969658389082289 -0.0265935771958771 0.0004192880342077848 0.005498992541385763 -0.00036684900433518107 -0.003459099004750687
 0.9969658389082289 -0.0265935771958771 0.0026690396981925227 0.010805526722497807 -0.00036709568266735776 -0.0034591082492133928 0.00041166051068501576 0.0054998779725149586
 0.0004192880342077848 0.005498992541385763 -0.00036709568266735776 -0.0034591082492133928 0.0026677484132691482 0.010805081539246744 0.9969658275709082 -0.02659416213875528
 -0.00036684900433518107 -0.003459099004750687 0.00041166051068501576 0.0054998779725149586 0.9969658275709082 -0.02659416213875528 0.0026691640948293665 0.010804932365813374
0.050020842017509996 0.0028962223052141907 0.012423042056855366 0.9966647053072446 -0.030442456958101022 0.0005027921028815328 0.006287778676614687 -0.0004370371540761367 -0.003958365146367357
 0.9966647053072446 -0.030442456958101022 0.002897717038344884 0.012422888747133641 -0.0004373580699767232 -0.003958372282376414 0.0004928277382154524 0.0062889266210439275
 0.0005027921028815328 0.006287778676614687 -0.0004373580699767232 -0.003958372282376414 0.0028960318139530875 0.012422391476913918 0.9966646908034955 -0.03044312551367285
 -0.0004370371540761367 -0.003958365146367357 0.0004928277382154524 0.0062889266210439275 0.9966646908034955 -0.03044312551367285 0.0028978798426560976 0.012422209422083384
0.055454545454549996 0.0031060760734227108 0.01384196598913772 0.9963874799710657 -0.0337982332010365 0.0005819595070664711 0.006973761746411273 -0.0005034595033763465 -0.004392979893176822
 0.9963874799710657 -0.0337982332010365 0.00310791228901257 0.013841786338839552 -0.0005038526519133256 -0.004392984264832633 0.0005697097052869038 0.006975174184462687
 0.0005819595070664711 0.006973761746411273 -0.0005038526519133256 -0.004392984264832633 0.00310584231313887 0.013841246491533867 0.9963874623943397 -0.03379897448133067
 -0.0005034595033763465 -0.004392979893176822 0.0005697097052869038 0.006975174184462687 0.9963874623943397 -0.03379897448133067 0.003108112672048588 0.013841033110979107
0.056273447269699996 0.0031386363089756877 0.014056872410037832 0.9963444362147982 -0.03430486056176712 0.0005944263276115193 0.007077181422153997 -0.000513911058520012 -0.004458534571763225
 0.9963444362147982 -0.03430486056176712 0.0031405270245506317 0.014056688609271083 -0.0005143157121962666 -0.0044585384473526685 0.0005818115294695585 0.007078636816517616
 0.0005944263276115193 0.007077181422153997 -0.0005143157121962666 -0.0044585384473526685 0.003138395645230878 0.014056142567269184 0.9963444181488234 -0.03430561280938876
 -0.000513911058520012 -0.004458534571763225 0.0005818115294695585 0.007078636816517616 0.9963444181488234 -0.03430561280938876 0.0031407334100065206 0.014055924236567144
0.06252605252188 0.0033954103486157562 0.015706828927962952 0.996004770838486 -0.0381807743959909 0.0006942704956499187 0.007867107682334607 -0.0005975529045376836 -0.004959501091112279
 0.996004770838486 -0.0381807743959909 0.003397743402959115 0.015706611846069144 -0.000598050722942779 -0.0049595004557869355 0.0006786910018561786 0.007868919210564023
 0.0006942704956499187 0.007867107682334607 -0.000598050722942779 -0.0049595004557869355 0.003395113675031843 0.015706020501176005 0.9960047488101658 -0.03818161042886927
 -0.0005975529045376836 -0.004959501091112279 0.0006786910018561786 0.007868919210564023 0.9960047488101658 -0.03818161042886927 0.0033979985498669716 0.015705762332578328
0.06877865777407 0.003666816762229149 0.01737262312064644 0.9956454480446066 -0.04207014978184125 0.0008024032011630282 0.008657459853352666 -0.0006880434404964152 -0.005461158154243715
 0.9956454480446066 -0.04207014978184125 0.003669638505683651 0.017372369887751517 -0.0006886437785507551 -0.0054611516590037145 0.0007835440946744762 0.008659679990730583
 0.0008024032011630282 0.008657459853352666 -0.0006886437785507551 -0.0054611516590037145 0.003666458248005616 0.017371736859235824 0.9956454216486857 -0.04207106971088124
 -0.0006880434404964152 -0.005461158154243715 0.0007835440946744762 0.008659679990730583 0.9956454216486857 -0.04207106971088124 0.0036699476018517098 0.017371435122191324
0.07503126302626001 0.003953126552723569 0.019053983971313818 0.995266206637708 -0.04597291133150836 0.0009189017484630721 0.009448136401436309 -0.0007854619375004659 -0.005963398279269314
 0.995266206637708 -0.04597291133150836 0.003956483339761144 0.01905369163783162 -0.0007861740790296167 -0.005963384476645433 0.0008964474798939198 0.00945082145858317
 0.0009189017484630721 0.009448136401436309 -0.0007861740790296167 -0.005963384476645433 0.003952700374717132 0.019053020695974875 0.995266175463583 -0.04597391528539473
 -0.0007854619375004659 -0.005963398279269314 0.0008964474798939198 0.00945082145858317 0.995266175463583 -0.04597391528539473 0.00395685158104499 0.01905267149019126
0.08128386827845 0.0042546094223803186 0.020750652332898457 0.9948667855896547 -0.049888962494924145 0.0010438420638295655 0.010239032243537415 -0.0008898861415321443 -0.0064661126820816815
 0.9948667855896547 -0.049888962494924145 0.004258547620855086 0.020750317869295206 -0.0008907192997926257 -0.006466090026186296 0.0010174764797423594 0.010242242410161802
 0.0010438420638295655 0.010239032243537415 -0.0008907192997926257 -0.006466090026186296 0.0042541097654367034 0.020749612939966067 0.994866749220839 -0.04989005061659901
 -0.0008898861415321443 -0.0064661126820816815 0.0010174764797423594 0.010242242410161802 0.994866749220839 -0.04989005061659901 0.004258980211536353 0.020749212193780682
0.08753647353064001 0.0045715337699024205 0.022462377058521457 0.9944469242344892 -0.053818189375849305 0.0011772986112386118 0.011030039018224184 -0.001001392220692027 -0.00696919101912651
 0.9944469242344892 -0.053818189375849305 0.004576099770736875 0.022461997354752204 -0.0010023555387073005 -0.006969157865712071 0.0011467049872165753 0.01103383840663819
 0.0011772986112386118 0.011030039018224184 -0.0010023555387073005 -0.006969157865712071 0.004570954827779358 0.022461262521027585 0.9944468822478747 -0.05381936182217264
 -0.001001392220692027 -0.00696919101912651 0.0011467049872165753 0.01103383840663819 0.9944468822478747 -0.05381936182217264 0.004576601924118653 0.02246080598963866
0.09378907878283 0.004904166662128761 0.024188912231682076 0.9940063624404178 -0.05776046345227427 0.0013193443116581787 0.011821045279173634 -0.001120054708052644 -0.007472521211298974
 0.9940063624404178 -0.05776046345227427 0.0049094068888663415 0.02418848409644238 -0.0011211572587735538 -0.007472475817834954 0.0012842053891618627 0.011825501967379595
 0.0013193443116581787 0.011821045279173634 -0.0011211572587735538 -0.007472475817834954 0.0049035026381449446 0.024187723597807798 0.9940063144057899 -0.057761720396331435
 -0.001120054708052644 -0.007472521211298974 0.0012842053891618627 0.011825501967379595 0.9940063144057899 -0.057761720396331435 0.004909983827517969 0.02418720686107265
0.100041684035 0.005252773788092051 0.02593001513876958 0.9935448407674499 -0.06171564355836149 0.001470050464041783 0.012611936642336233 -0.001245946441716105 -0.007975989317865782
 0.9935448407674499 -0.06171564355836149 0.005258734706411343 0.02592953529836275 -0.0012471972279947119 -0.007975929843620262 0.001430048490886941 0.012617122716687872
 0.001470050464041783 0.012611936642336233 -0.0012471972279947119 -0.007975929843620262 0.005252018895900763 0.02592875353252167 0.9935447862467921 -0.0617169851895038
 -0.001245946441716105 -0.007975989317865782 0.001430048490886941 0.012617122716687872 0.9935447862467921 -0.0617169851895038 0.0052593916625911135 0.025928171992552023
0.1059090909091 0.00559466840408837 0.027576890010681556 0.9930924584784795 -0.06543876293620907 0.0016194108104901086 0.013353895435167578 -0.0013707207428141613 -0.0084484629578575
 0.9930924584784795 -0.06543876293620907 0.005601347921166753 0.02757635859843073 -0.0013721187578700311 -0.008448388508779228 0.0015745559860689813 0.01335983513041444
 0.0016194108104901086 0.013353895435167578 -0.0013721187578700311 -0.008448388508779228 0.005593822989304383 0.027575561019934088 0.993092397466196 -0.065440184221989
 -0.0013707207428141613 -0.0084484629578575 0.0015745559860689813 0.01335983513041444 0.993092397466196 -0.065440184221989 0.00560208473336619 0.027574914326489595
0.1062942892872 0.005617619399431419 0.027685444738845006 0.9930621006145114 -0.06568357737351938 0.0016294866681077933 0.013402595901622884 -0.0013791385024565551 -0.008479479445755026
 0.9930621006145114 -0.06568357737351938 0.005624347526941991 0.027684909835761478 -0.001380546456912233 -0.008479403951898112 0.0015843034415019151 0.013408587498946276
 0.0016294866681077933 0.013402595901622884 -0.001380546456912233 -0.008479403951898112 0.005616767864071869 0.027684111362828646 0.9930620391619522 -0.06568500389527561
 -0.0013791385024565551 -0.008479479445755026 0.0015843034415019151 0.013408587498946276 0.9930620391619522 -0.06568500389527561 0.005625089743350696 0.027683460241204317
0.11254689453939999 0.005998966240248064 0.029454960501102478 0.9925578843583149 -0.06966410254811588 0.0017977207480149994 0.014192903120366213 -0.0015197001493203975 -0.00898287368703692
 0.9925578843583149 -0.06966410254811588 0.00600650815608842 0.029454367092248742 -0.0015212741341583211 -0.00898278013674747 0.001747037660400852 0.014199780469603941
 0.0017977207480149994 0.014192903120366213 -0.0015212741341583211 -0.00898278013674747 0.005998012298971368 0.029453556635129618 0.9925578155191219 -0.06966561418019751
 -0.0015197001493203975 -0.00898287368703692 0.001747037660400852 0.014199780469603941 0.9925578155191219 -0.06966561418019751 0.006007340885741895 0.029452830969838983
0.11879949979160001 0.006397075469822208 0.031238321492484216 0.9920319354879632 -0.07365704758357003 0.001974818676335922 0.014982735709331018 -0.0016676987543241212 -0.009486052073900868
 0.9920319354879632 -0.07365704758357003 0.006405477824622414 0.031237666047112932 -0.0016694475609886508 -0.009485938332495197 0.0019183167635533917 0.014990583172489138
 0.001974818676335922 0.014982735709331018 -0.0016694475609886508 -0.009485938332495197 0.006396013372995914 0.031236848496165464 0.9920318587978847 -0.07365864455998349
 -0.0016676987543241212 -0.009486052073900868 0.0019183167635533917 0.014990583172489138 0.9920318587978847 -0.07365864455998349 0.006406406331514627 0.031236043138164523
0.1250521050438 0.00681220657771422 0.03303528566130612 0.9914839987344579 -0.07766223252122155 0.0021608444990977925 0.015771968491825276 -0.0018231997353012966 -0.009988892550718803
 0.9914839987344579 -0.07766223252122155 0.006821516103401855 0.03303456455865927 -0.0018251320840998561 -0.009988756385799802 0.002098204490753077 0.015780874604285903
 0.0021608444990977925 0.015771968491825276 -0.0018251320840998561 -0.009988756385799802 0.006811030589843837 0.033033744973779186 0.9914839137194885 -0.07766391509108202
 -0.0018231997353012966 -0.009988892550718803 0.002098204490753077 0.015780874604285903 0.9914839137194885 -0.07766391509108202 0.006822545662909976 0.0330328545832207
0.131304710296 0.007244617294981518 0.034845609263493 0.9909138201988136 -0.08167946949335077 0.0023558602608947108 0.016560473764261476 -0.001986266488213694 -0.010491270954788773
 0.9909138201988136 -0.08167946949335077 0.007254880814758333 0.03484481878995187 -0.0019883910278883457 -0.010491110036388623 0.0022867626325406083 0.016570531274460922
 0.0023558602608947108 0.016560473764261476 -0.0019883910278883457 -0.010491110036388623 0.007243321695557957 0.034844002403456316 0.9909137263743613 -0.08168123792143418
 -0.001986266488213694 -0.010491270954788773 0.0022867626325406083 0.016570531274460922 0.9909137263743613 -0.08168123792143418 0.007256016713491177 0.0348430214456137
0.1375573155481 0.00759289902600116 0.03643223352715939 0.9904228453895062 -0.0854716641455847 0.0025349346619290545 0.017324032907102768 -0.002132049681557806 -0.01096892860409641
 0.9904228453895062 -0.0854716641455847 0.007604167906521013 0.03643139016080483 -0.002134379206013713 -0.010968742858904094 0.0024592181010464815 0.017335223888417083
 0.0025349346619290545 0.017324032907102768 -0.002134379206013713 -0.010968742858904094 0.007591478586632873 0.036430561961636146 0.9904227423510074 -0.08547351858061883
 -0.002132049681557806 -0.01096892860409641 0.0024592181010464815 0.017335223888417083 0.9904227423510074 -0.08547351858061883 0.007605414799072713 0.036429505018929366
0.1438099208003 0.00795334517014404 0.038010891791414245 0.9899147581578948 -0.08925465541784451 0.002721262124191582 0.018084750436764375 -0.002283679291905111 -0.011444013827659496
 0.9899147581578948 -0.08925465541784451 0.007965667068964816 0.038009993144331025 -0.0022862230937094087 -0.011443800975967009 0.0026386353607318067 0.01809715939681524
 0.002721262124191582 0.018084750436764375 -0.0022862230937094087 -0.011443800975967009 0.007951794279620669 0.03800915709561534 0.9899146454222141 -0.0892565961181271
 -0.002283679291905111 -0.011444013827659496 0.0026386353607318067 0.01809715939681524 0.9899146454222141 -0.0892565961181271 0.007967030145332895 0.03800801989687479
0.1500625260525 0.008325834200340146 0.039581464057073815 0.9893896837100192 -0.09302836167433204 0.0029147826743264158 0.01884255659948012 -0.002441097623572561 -0.011916461278990454
 0.9893896837100192 -0.09302836167433204 0.008339256892895388 0.03958050758591247 -0.0024438649765753336 -0.011916218949864306 0.002824956032046007 0.018856271125703098
 0.0029147826743264158 0.01884255659948012 -0.0024438649765753336 -0.011916218949864306 0.0083241472673809 0.03957966787091302 0.9893895607850856 -0.09303038890707568
 -0.002441097623572561 -0.011916461278990454 0.002824956032046007 0.018856271125703098 0.9893895607850856 -0.09303038890707568 0.00834074134708447 0.039578445912333504
0.15631513130469998 0.008710243790715626 0.041143834008015655 0.9888477478163555 -0.09679270131869314 0.003115435671618593 0.01959738274432104 -0.002604246307303782 -0.012386206943227097
 0.9888477478163555 -0.09679270131869314 0.0087248151738215 0.041142817009203296 -0.0026072464664973595 -0.012385932674895002 0.0030181210906440907 0.019612493473589662
