! Created with skrf 1.8.0 (http://scikit-rf.org).
# GHz S RI R 50.0 
!freq ReS11 ImS11 ReS12 ImS12 ReS13 ImS13
! ReS14 ImS14
! ReS21 ImS21 ReS22 ImS22 ReS23 ImS23
! ReS24 ImS24
! ReS31 ImS31 ReS32 ImS32 ReS33 ImS33
! ReS34 ImS34
! ReS41 ImS41 ReS42 ImS42 ReS43 ImS43
! ReS44 ImS44
!
0.0 0.001860799905647 0.0 0.9981392000871 0.0 7.233796720646e-05 0.0 -7.233796760114e-05 8.858846047956103e-21
 0.9981392000871 0.0 0.00186079990566 0.0 -7.23379676006e-05 8.858846047889973e-21 7.233796720708e-05 0.0
 7.233796720646e-05 0.0 -7.23379676006e-05 8.858846047889973e-21 0.001860799909262 0.0 0.9981392000907 0.0
 -7.233796760114e-05 8.858846047956103e-21 7.233796720708e-05 0.0 0.9981392000907 0.0 0.001860799909305 0.0
0.005 0.002003180448822513 0.0015205744798307483 0.9979588930628248 -0.0038967914984447656 0.00010204600227656418 0.0008010072376207629 -9.903681821417861e-05 -0.0005018687374422025
 0.9979588930628248 -0.0038967914984447656 0.002003168034186405 0.0015205818031546981 -9.903717207361433e-05 -0.000501869082597063 0.00010210158856255528 0.0008009857374283543
 0.00010204600227656418 0.0008010072376207629 -9.903717207361433e-05 -0.000501869082597063 0.00200318027380365 0.0015206419423846999 0.997958893441557 -0.003896724417882354
 -9.903681821417861e-05 -0.0005018687374422025 0.00010210158856255528 0.0008009857374283543 0.997958893441557 -0.003896724417882354 0.0020031689642601835 0.001520648501721924
0.006252605252188 0.0020408545225052087 0.0019066566094459558 0.9979108354209552 -0.004871889350458637 0.000110699812755653 0.0010016246777519082 -0.00010672671778197945 -0.0006279654770101568
 0.9979108354209552 -0.004871889350458637 0.0020408351165638657 0.0019066659936794275 -0.00010672726783607581 -0.0006279659040364927 0.00011078665613523571 0.001001596785032105
 0.000110699812755653 0.0010016246777519082 -0.00010672726783607581 -0.0006279659040364927 0.0020408541862694716 0.0019067409141277768 0.9979108359508694 -0.004871805530531011
 -0.00010672671778197945 -0.0006279654770101568 0.00011078665613523571 0.001001596785032105 0.9979108359508694 -0.004871805530531011 0.0020408365087955095 0.001906749328254642
0.01250521050438 0.002241110341136042 0.003852779768755073 0.9976534869677637 -0.009744184743873055 0.00016120659407690768 0.002003445977383013 -0.0001511723643512668 -0.0012587566536177701
 0.9976534869677637 -0.009744184743873055 0.0022410328541579896 0.0038528008980878007 -0.000151174524911718 -0.0012587574595191455 0.00016155276579678048 0.0020033790322436964
 0.00016120659407690768 0.002003445977383013 -0.000151174524911718 -0.0012587574595191455 0.0022411084170595773 0.0038529482003069517 0.9976534885115975 -0.009744017360348932
 -0.0001511723643512668 -0.0012587566536177701 0.00016155276579678048 0.0020033790322436964 0.9976534885115975 -0.009744017360348932 0.0022410378491035617 0.0038529672221044547
0.01875781575657 0.0024620719662816547 0.005826038159590382 0.9973667872529023 -0.014628661896964346 0.0002239862391225856 0.0030060854513354134 -0.00020582534212311595 -0.0018914073316011644
 0.9973667872529023 -0.014628661896964346 0.002461897849243092 0.005826073633870528 -0.00020583015022479143 -0.0018914084600976265 0.0002247635422969924 0.003005965710423022
 0.0002239862391225856 0.0030060854513354134 -0.00020583015022479143 -0.0018914084600976265 0.002462067198944933 0.005826290717694457 0.9973667902968993 -0.014628411046368535
 -0.00020582534212311595 -0.0018914073316011644 0.0002247635422969924 0.003005965710423022 0.9973667902968993 -0.014628411046368535 0.0024619086631006495 0.005826322733077589
0.02501042100875 0.002704224785974102 0.007823579691836708 0.9970503526279025 -0.019527598927833494 0.0002991674282075587 0.004009530024167472 -0.0002708295876341192 -0.0025255758773130355
 0.9970503526279025 -0.019527598927833494 0.002703915571483769 0.007823632342720323 -0.0002708380647291488 -0.0025255772628091436 0.000300547510904602 0.004009341250811249
 0.0002991674282075587 0.004009530024167472 -0.0002708380647291488 -0.0025255772628091436 0.0027042159125202337 0.007823916423104505 0.9970503576579857 -0.01952726467679843
 -0.0002708295876341192 -0.0025255758773130355 0.000300547510904602 0.004009341250811249 0.9970503576579857 -0.01952726467679843 0.002703934424375971 0.007823964004031906
0.03126302626094 0.002968033820724353 0.009843891441209857 0.9967037826286792 -0.024441916418305017 0.000386878194386155 0.005013672364184406 -0.00034632379855542653 -0.003161004980869863
 0.9967037826286792 -0.024441916418305017 0.0029675511052064383 0.009843964332108032 -0.0003463369531762514 -0.0031610065483713866 0.0003890327028955019 0.00501339581887998
 0.000386878194386155 0.005013672364184406 -0.0003463369531762514 -0.0031610065483713866 0.0029680195691303784 0.009844312425981447 0.9967037901290051 -0.024441498816795942
 -0.00034632379855542653 -0.003161004980869863 0.0003890327028955019 0.00501339581887998 0.9967037901290051 -0.024441498816795942 0.0029675802198945835 0.009844378329926767
0.037515631513130004 0.003253952976992307 0.011885952738494064 0.9963266696993125 -0.02937202427779081 0.00048724467404469166 0.006018367043732436 -0.00043244240515045675 -0.0037974655613748722
 0.9963266696993125 -0.02937202427779081 0.0032532584091772344 0.011886049165728633 -0.0004324612343385404 -0.003797467226520313 0.0004903453132011756 0.0060179814643535005
 0.00048724467404469166 0.006018367043732436 -0.0004324612343385404 -0.003797467226520313 0.0032539320663718565 0.011886458082912731 0.9963266801528177 -0.029371523367129677
 -0.00043244240515045675 -0.0037974655613748722 0.0004903453132011756 0.0060179814643535005 0.9963266801528177 -0.029371523367129677 0.0032533000109741597 0.011886545253394127
0.043768236765320004 0.0035624285909711785 0.013948977442119159 0.9959186032057158 -0.03431807941251099 0.0006003904851998838 0.007023447643528092 -0.0005293158850997922 -0.004434739724979274
 0.9959186032057158 -0.03431807941251099 0.003561483863942853 0.013949100936209652 -0.0005293413754162579 -0.004434741394101831 0.0006046090393893696 0.007022929222365903
 0.0006003904851998838 0.007023447643528092 -0.0005293413754162579 -0.004434741394101831 0.003562399734354245 0.013949567276017703 0.9959186170963078 -0.034317495227576406
 -0.0005293158850997922 -0.004434739724979274 0.0006046090393893696 0.007022929222365903 0.9959186170963078 -0.034317495227576406 0.0035615401820916406 0.013949678843304551
0.050020842017509996 0.0038939010426931723 0.016032307450467777 0.9954791715229522 -0.0392800921557775 0.0007264363302943392 0.008028733828424969 -0.0006370708426819929 -0.005072613756564123
 0.9954791715229522 -0.0392800921557775 0.003892667886549726 0.016032461777809082 -0.0006371039707283148 -0.005072615326746539 0.0007319446628477163 0.00802805618817936
 0.0007264363302943392 0.008028733828424969 -0.0006371039707283148 -0.005072615326746539 0.0038938629455062108 0.01603298193319092 0.9954791893343262 -0.039279424719317946
 -0.0006370708426819929 -0.005072613756564123 0.0007319446628477163 0.00802805618817936 0.9954791893343262 -0.039279424719317946 0.0038927411528216073 0.01603312121528125
0.055454545454549996 0.004200975025315155 0.017858821159582528 0.9950715002111654 -0.043605127641549835 0.0008465417252142022 0.008902377019941595 -0.000739645655715716 -0.005627267406244945
 0.9950715002111654 -0.043605127641549835 0.004199460160151726 0.017859005525378797 -0.0007396862070523924 -0.005627268799729468 0.0008533105398184995 0.008901537577916629
 0.0008465417252142022 0.008902377019941595 -0.0007396862070523924 -0.005627268799729468 0.004200927842126216 0.017859569342126014 0.9950715218232501 -0.0436043878810467
 -0.000739645655715716 -0.005627267406244945 0.0008533105398184995 0.008901537577916629 0.9950715218232501 -0.0436043878810467 0.004199549969165791 0.017859735550660404
0.056273447269699996 0.0042488055469981495 0.01813536043620774 0.9950079633058899 -0.04425797848280073 0.0008654996958456178 0.009034034847406268 -0.0007558299839822142 -0.005710874695317812
 0.9950079633058899 -0.04425797848280073 0.0042472457229934275 0.01813554960100341 -0.0007558717170177441 -0.005710876054458913 0.0008724697358474678 0.00903316901686443
 0.0008654996958456178 0.009034034847406268 -0.0007558717170177441 -0.005710876054458913 0.0042487569091802565 0.01813611974119637 0.9950079855227267 -0.04425722782098273
 -0.0007558299839822142 -0.005710874695317812 0.0008724697358474678 0.00903316901686443 0.9950079855227267 -0.04425722782098273 0.004247338171747217 0.018136290245150663
0.06252605252188 0.004627572542322042 0.02025760112327566 0.9945045683629405 -0.049251588691889434 0.001017694601769869 0.010039151469485095 -0.0008857120387298905 -0.006349308483966918
 0.9945045683629405 -0.049251588691889434 0.004625647837361457 0.02025782936971595 -0.0008857633350327531 -0.006349309510823674 0.0010262983219074407 0.010038065859339978
 0.001017694601769869 0.010039151469485095 -0.0008857633350327531 -0.006349309510823674 0.004627512057486411 0.020258445446984175 0.9945045954699091 -0.04925075482547086
 -0.0008857120387298905 -0.006349308483966918 0.0010262983219074407 0.010038065859339978 0.9945045954699091 -0.04925075482547086 0.00462576170387442 0.020258650870514764
0.06877865777407 0.005030627854944495 0.022398524175097183 0.9939685783109115 -0.054260724485359194 0.0011831313772025535 0.01104387716385793 -0.0010268316522561275 -0.006987698884202431
 0.9939685783109115 -0.054260724485359194 0.005028300075897693 0.02239879598976765 -0.0010268934613763456 -0.006987699448455776 0.0011935407657319515 0.011042537542818715
 0.0011831313772025535 0.01104387716385793 -0.0010268934613763456 -0.006987699448455776 0.005030554211382634 0.02239945373816259 0.9939686107935602 -0.054259807428649394
 -0.0010268316522561275 -0.006987698884202431 0.0011935407657319515 0.011042537542818715 0.9939686107935602 -0.054259807428649394 0.005028437596659281 0.02239969797144325
0.07503126302626001 0.005458392732003373 0.024557643364191827 0.9933995871048994 -0.05928514978083878 0.0013619164536814578 0.01204799886242009 -0.001179299258177568 -0.007625826820779584
 0.9933995871048994 -0.05928514978083878 0.0054556237011033955 0.024557963478793833 -0.0011793725212633397 -0.007625826783071321 0.0013743034813600045 0.012046368333897496
 0.0013619164536814578 0.01204799886242009 -0.0011793725212633397 -0.007625826783071321 0.005458304613282583 0.02455865840637124 0.9933996254498993 -0.0592841495468873
 -0.001179299258177568 -0.007625826820779584 0.0013743034813600045 0.012046368333897496 0.9933996254498993 -0.0592841495468873 0.005455787112784111 0.024558945534160298
0.08128386827845 0.00591128379145871 0.026734484375532486 0.9927971914896176 -0.06432459790172114 0.0015541521674102405 0.013051297501157032 -0.0013432209401440347 -0.008263469958224029
 0.9927971914896176 -0.06432459790172114 0.005908035341485422 0.026734857769835273 -0.0013433065901963055 -0.008263469170203963 0.0015686887511825222 0.013049336480464706
 0.0015541521674102405 0.013051297501157032 -0.0013433065901963055 -0.008263469170203963 0.00591117987713684 0.02673558515639764 0.9927972361848406 -0.06432351450174148
 -0.0013432209401440347 -0.008263469958224029 0.0015686887511825222 0.013049336480464706 0.9927972361848406 -0.06432351450174148 0.005908226880273098 0.026735919460494903
0.08753647353064001 0.006389712915551075 0.028928579839719342 0.9921609913996077 -0.06937877655125735 0.0017599365700915995 0.014053548404897769 -0.0015186982845569322 -0.008900402446030416
 0.9921609913996077 -0.06937877655125735 0.006385946885067821 0.0289290117447896 -0.0015187972466033117 -0.008900400750383446 0.001776794533258914 0.01405121459724732
 0.0017599365700915995 0.014053548404897769 -0.0015187972466033117 -0.008900400750383446 0.006389591881374623 0.028929766642874714 0.9921610429341678 -0.06937760999046455
 -0.0015186982845569322 -0.008900402446030416 0.001776794533258914 0.01405121459724732 0.9921610429341678 -0.06937760999046455 0.006386168785743183 0.028930152604865565
0.09378907878283 0.006894087106961577 0.031139465809059075 0.9914905903262748 -0.07444737135762008 0.001979363243439559 0.015054521596021692 -0.0017058282287313901 -0.009536394751961967
 0.9914905903262748 -0.07444737135762008 0.0068897653354393655 0.031139961710890264 -0.0017059414199664849 -0.009536391982459388 0.0019987142735736806 0.015051769975233897
 0.001979363243439559 0.015054521596021692 -0.0017059414199664849 -0.009536391982459388 0.006893947625567477 0.031140738936080884 0.9914906491910956 -0.07444612164146115
 -0.0017058282287313901 -0.009536394751961967 0.0019987142735736806 0.015051769975233897 0.9914906491910956 -0.07444612164146115 0.006890019831195437 0.031141181240287658
0.100041684035 0.0074248083161898085 0.03336667918103798 0.9907855956608689 -0.07953004848618715 0.0022125211179631404 0.016053982039308783 -0.0019047029050725751 -0.010171213571724682
 0.9907855956608689 -0.07953004848618715 0.00741989263986081 0.03336724482426441 -0.0019048312351175108 -0.010171209553220227 0.0022345367224553513 0.016050764827385308
 0.0022125211179631404 0.016053982039308783 -0.0019048312351175108 -0.010171209553220227 0.007424649057612677 0.03336803895678966 0.990785662348308 -0.07952871561505984
 -0.0019047029050725751 -0.010171213571724682 0.0022345367224553513 0.016050764827385308 0.990785662348308 -0.07952871561505984 0.0074201819608042275 0.033368542493716465
0.1059090909091 0.00794714965895992 0.035471118839347025 0.9900922244264831 -0.08431209686126856 0.0024438784113593017 0.01699028021024742 -0.002102085116658004 -0.010765645255080994
 0.9900922244264831 -0.08431209686126856 0.00794164194976168 0.035471755386192766 -0.0021022284735332346 -0.010765639897340149 0.002468550219056672 0.016986580168384426
 0.0024438784113593017 0.01699028021024742 -0.0021022284735332346 -0.010765639897340149 0.007946970630257007 0.0354725602375882 0.9900922989041558 -0.0843106859583927
 -0.002102085116658004 -0.010765645255080994 0.002468550219056672 0.016986580168384426 0.9900922989041558 -0.0843106859583927 0.007941965975228133 0.03547312586969101
0.1062942892872 0.007982273249910608 0.0356097557845899 0.9900456190214376 -0.0846264566037248 0.002459494294928807 0.017051689853488018 -0.0021154094826352802 -0.010804621784365764
 0.9900456190214376 -0.0846264566037248 0.007976725497449317 0.03561039717664235 -0.0021155538536522024 -0.01080461633285424 0.002484345754596543 0.017047956501066126
 0.002459494294928807 0.017051689853488018 -0.0021155538536522024 -0.01080461633285424 0.00798209288217206 0.035611202553260966 0.9900456940257497 -0.08462504057708456
 -0.0021154094826352802 -0.010804621784365764 0.002484345754596543 0.017047956501066126 0.9900456940257497 -0.08462504057708456 0.007977051869824748 0.03561177242329031
0.11254689453939999 0.00856687316301086 0.03786822892862429 0.9892702765665209 -0.08973622839575424 0.0027203618703988746 0.018047400498190824 -0.0023380300077336974 -0.01143637844515717
 0.9892702765665209 -0.08973622839575424 0.008560655150883075 0.037868952344177455 -0.0023381913145968927 -0.011436371367754992 0.0027482201912653105 0.018043097665972476
 0.0027203618703988746 0.018047400498190824 -0.0023381913145968927 -0.011436371367754992 0.008566670352877547 0.03786976305454434 0.9892703603841517 -0.08973472921134507
 -0.0023380300077336974 -0.01143637844515717 0.0027482201912653105 0.018043097665972476 0.9892703603841517 -0.08973472921134507 0.008561020796687059 0.037870404571870915
0.11879949979160001 0.009178993639970951 0.0401416282889378 0.9884591893020348 -0.09485898176095293 0.0029951977620424667 0.019040864945995977 -0.002572641243295974 -0.012066238806285148
 0.9884591893020348 -0.09485898176095293 0.009172067168202567 0.04014244027468434 -0.0025728203736199375 -0.012066229901260817 0.0030262336257293188 0.019035936487145196
 0.0029951977620424667 0.019040864945995977 -0.0025728203736199375 -0.012066229901260817 0.00917876705283499 0.04014325015964234 0.9884592824314394 -0.09485739941189239
 -0.002572641243295974 -0.012066238806285148 0.0030262336257293188 0.019035936487145196 0.9884592824314394 -0.09485739941189239 0.009172474304018742 0.04014396885672015
0.1250521050438 0.009819014365907002 0.04242947905165937 0.9876119833783271 -0.0999943207650591 0.003284070538085843 0.02003182984368775 -0.0028193145081785716 -0.012693954361383186
 0.9876119833783271 -0.0999943207650591 0.00981134121421062 0.042430386431278264 -0.002819512342556306 -0.012693943418148515 0.0033184542504213163 0.020026216787268968
 0.003284070538085843 0.02003182984368775 -0.002819512342556306 -0.012693943418148515 0.009818762667225882 0.04243118907625044 0.9876120863206086 -0.09999265524145629
 -0.0028193145081785716 -0.012693954361383186 0.0033184542504213163 0.020026216787268968 0.9876120863206086 -0.09999265524145629 0.009811792050366041 0.04243199070848827
0.131304710296 0.010487308891785835 0.044731301243080834 0.9867282903848348 -0.10514183642445558 0.0035870432484820854 0.02102003766847676 -0.003078115517099863 -0.013319272908248548
 0.9867282903848348 -0.10514183642445558 0.010478850815463072 0.044732311122669 -0.0030783329292136583 -0.01331925970738479 0.0036249446869894624 0.021013678204015625
 0.0035870432484820854 0.02102003766847676 -0.0030783329292136583 -0.01331925970738479 0.010487030747249647 0.044733099852145526 0.986728403643583 -0.10514008771365492
 -0.003078115517099863 -0.013319272908248548 0.0036249446869894624 0.021013678204015625 0.986728403643583 -0.10514008771365492 0.01047934755530703 0.04473399040294484
0.1375573155481 0.011042402672413347 0.04674746137024068 0.985949670141015 -0.11000174220689166 0.0038689927303229388 0.021976761950961824 -0.0033138941204163444 -0.013913535873009976
 0.985949670141015 -0.11000174220689166 0.011033119239424525 0.046748558687784186 -0.0033141326176877955 -0.013913520368974502 0.003910508144408523 0.021969658104361352
 0.0038689927303229388 0.021976761950961824 -0.0033141326176877955 -0.013913520368974502 0.011042097821882764 0.0467493485681059 0.9859497941806677 -0.1099999103634665
 -0.0033138941204163444 -0.013913535873009976 0.003910508144408523 0.021969658104361352 0.9859497941806677 -0.1099999103634665 0.011033663088420869 0.046750312826771834
0.1438099208003 0.01161733708258381 0.04875082596641819 0.9851430225785169 -0.11484712100623942 0.00416223830381659 0.022928293478074135 -0.0035589973590260397 -0.01450299113796128
 0.9851430225785169 -0.11484712100623942 0.011607189712449896 0.04875201634955427 -0.0035592579188275493 -0.014502973103891714 0.004207523701958136 0.022920387858886435
 0.00416223830381659 0.022928293478074135 -0.0035592579188275493 -0.014502973103891714 0.011617004388270288 0.04875280215079854 0.9851431578971735 -0.11484520603160099
 -0.0035589973590260397 -0.01450299113796128 0.004207523701958136 0.022920387858886435 0.9851431578971735 -0.11484520603160099 0.011607782685066195 0.048753844702846195
0.1500625260525 0.01221187446020131 0.05074116311019213 0.9843085907214779 -0.11967778658720721 0.004466655401185555 0.02387449326834189 -0.003813303119282642 -0.015087507537114445
 0.9843085907214779 -0.11967778658720721 0.012200824542780108 0.05074245247128268 -0.0038135867197978996 -0.015087486736060226 0.0045158655413249215 0.02386572639835403
 0.004466655401185555 0.02387449326834189 -0.0038135867197978996 -0.015087486736060226 0.01221151279772146 0.05074322869213486 0.9843087378186541 -0.11967578848386379
 -0.003813303119282642 -0.015087507537114445 0.0045158655413249215 0.02386572639835403 0.9843087378186541 -0.11967578848386379 0.012201468635423476 0.050744354371497206
0.15631513130469998 0.012825775030458397 0.052718247825069356 0.9834466192999072 -0.12449355492406805 0.004782117744384402 0.02481522526903872 -0.004076687562762379 -0.015666957155410825
 0.9834466192999072 -0.12449355492406805 0.012813783925520713 0.05271964236472229 -0.004076995183016205 -0.01566693334023898 0.004835406108965804 0.024805535610485423
