! Created with skrf 1.8.0 (http://scikit-rf.org).
# GHz S RI R 50.0 
!freq ReS11 ImS11 ReS12 ImS12 ReS13 ImS13
! ReS14 ImS14
! ReS21 ImS21 ReS22 ImS22 ReS23 ImS23
! ReS24 ImS24
! ReS31 ImS31 ReS32 ImS32 ReS33 ImS33
! ReS34 ImS34
! ReS41 ImS41 ReS42 ImS42 ReS43 ImS43
! ReS44 ImS44
!
0.0 0.001546262912995 0.0 0.998453737087 0.0 5.949131773436e-05 0.0 -5.94913172024e-05 7.285585118897903e-21
 0.998453737087 0.0 0.001546262913023 0.0 -5.949131720223e-05 7.285585118877084e-21 5.949131773609e-05 0.0
 5.949131773436e-05 0.0 -5.949131720223e-05 7.285585118877084e-21 0.001546262907307 0.0 0.9984537370813 0.0
 -5.94913172024e-05 7.285585118897903e-21 5.949131773609e-05 0.0 0.9984537370813 0.0 0.001546262907343 0.0
0.005 0.0016636305557804045 0.0012679088046263882 0.9983052751986323 -0.003238804499987924 8.285404008371733e-05 0.000637953787118777 -8.062145552716547e-05 -0.00040348539041528493
 0.9983052751986323 -0.003238804499987924 0.001663625052986513 0.0012679119725668765 -8.062287809456008e-05 -0.0004034863962049471 8.28848059191425e-05 0.0006379420611583899
 8.285404008371733e-05 0.000637953787118777 -8.062287809456008e-05 -0.0004034863962049471 0.0016636299232435506 0.0012678418451881218 0.998305274850147 -0.003238871565990961
 -8.062145552716547e-05 -0.00040348539041528493 8.28848059191425e-05 0.0006379420611583899 0.998305274850147 -0.003238871565990961 0.0016636249875042705 0.001267844796919259
0.006252605252188 0.0016944149469538016 0.0015898596611606834 0.9982660941852098 -0.004049296192769643 8.951148918257711e-05 0.000797760427840175 -8.658212352731513e-05 -0.0005048742452714878
 0.9982660941852098 -0.004049296192769643 0.001694406345554135 0.0015898636795122084 -8.658433785486858e-05 -0.0005048754835116014 8.955955790532323e-05 0.0007977452034733216
 8.951148918257711e-05 0.000797760427840175 -8.658433785486858e-05 -0.0005048754835116014 0.001694414024121428 0.0015897759613393166 0.9982660937058853 -0.004049380017301842
 -8.658212352731513e-05 -0.0005048742452714878 8.955955790532323e-05 0.0007977452034733216 0.9982660937058853 -0.004049380017301842 0.0016944063081688987 0.0015897797239854553
0.01250521050438 0.0018564844525481728 0.0032129113105971805 0.9980584843881729 -0.00809937699717181 0.0001276007956292095 0.0015959412115030618 -0.00012037440962020812 -0.0010121784416610065
 0.9980584843881729 -0.00809937699717181 0.0018564501144440243 0.0032129199419710635 -0.00012038314462305232 -0.001012180708730916 0.00012779248159348303 0.001595904644364698
 0.0001276007956292095 0.0015959412115030618 -0.00012038314462305232 -0.001012180708730916 0.0018564813196746543 0.003212744090087823 0.9980584830182645 -0.008099544375101238
 -0.00012037440962020812 -0.0010121784416610065 0.00012779248159348303 0.001595904644364698 0.9980584830182645 -0.008099544375101238 0.0018564504997203627 0.0032127523539953926
0.01875781575657 0.0020328258645846203 0.004858979791054768 0.9978306490126645 -0.012160095427708665 0.00017384885630605825 0.0023950572504333606 -0.0001609718953194237 -0.0015212060367570484
 0.9978306490126645 -0.012160095427708665 0.0020327487198721623 0.004858993688348506 -0.000160991386609852 -0.0015212090794182959 0.00017427945584382382 0.0023949920200002535
 0.00017384885630605825 0.0023950572504333606 -0.000160991386609852 -0.0015212090794182959 0.0020328192635947046 0.004858729051426746 0.9978306463575414 -0.012160346247320883
 -0.0001609718953194237 -0.0015212060367570484 0.00017427945584382382 0.0023949920200002535 0.9978306463575414 -0.012160346247320883 0.002032749989381204 0.004858742610455014
0.02501042100875 0.002223783140219012 0.006525766545399528 0.9975823191296801 -0.016233417226465534 0.00022834612473905092 0.0031951373282617305 -0.0002084750321558035 -0.0020317308843457865
 0.9975823191296801 -0.016233417226465534 0.002223646160524593 0.006525786413417254 -0.00020850946855771013 -0.002031734401501781 0.00022911096922995864 0.003195034953753314
 0.00022834612473905092 0.0031951373282617305 -0.00020850946855771013 -0.002031734401501781 0.0022237718227118394 0.006525432236924606 0.9975823147947053 -0.01623375140856958
 -0.0002084750321558035 -0.0020317308843457865 0.00022911096922995864 0.003195034953753314 0.9975823147947053 -0.01623375140856958 0.00222364876280053 0.0065254519354160795
0.03126302626094 0.0024296860412146037 0.008212087754904727 0.997313212100336 -0.020320182690679468 0.0002911833380306178 0.003996138845861607 -0.0002629815050811731 -0.0025435925522323422
 0.997313212100336 -0.020320182690679468 0.002429472230571066 0.008212114349142671 -0.0002630350366080009 -0.0025435961943677484 0.000292377883119542 0.003995989679573438
 0.0002911833380306178 0.003996138845861607 -0.0002630350366080009 -0.0025435961943677484 0.002429668764975234 0.008211669815545027 0.9973132056885905 -0.020320600149502408
 -0.0002629815050811731 -0.0025435925522323422 0.000292377883119542 0.003995989679573438 0.9973132056885905 -0.020320600149502408 0.002429476599124152 0.00821169654754394
0.037515631513130004 0.002650857209994352 0.009917170848753147 0.9970230388799847 -0.02442081010013722 0.00036245071542990385 0.004797990912955358 -0.0003245869068595291 -0.0030566532373940444
 0.9970230388799847 -0.02442081010013722 0.002650549598299937 0.009917204974861309 -0.0003246636486510641 -0.003056656606337684 0.0003641705809117308 0.004797784128598131
 0.00036245071542990385 0.004797990912955358 -0.0003246636486510641 -0.003056656606337684 0.002650832745147169 0.009916669185791201 0.9970230299995054 -0.024421310761708878
 -0.0003245869068595291 -0.0030566532373940444 0.0003641705809117308 0.004797784128598131 0.9970230299995054 -0.024421310761708878 0.0026505561590819816 0.009916703894763533
0.043768236765320004 0.002887614903479321 0.011640440383916732 0.9967115069806943 -0.02853550976524914 0.00044223757759489433 0.005600607440237625 -0.0003933849749098523 -0.0035707846772316063
 0.9967115069806943 -0.02853550976524914 0.0028871965416444926 0.011640482897453756 -0.0003934890095022524 -0.0035707873260340975 0.0004445785665431813 0.005600331019689592
 0.00044223757759489433 0.005600607440237625 -0.0003934890095022524 -0.0035707873260340975 0.0028875820275987177 0.01163985489231271 0.9967114952409296 -0.028536093549061056
 -0.0003933849749098523 -0.0035707846772316063 0.0004445785665431813 0.005600331019689592 0.9967114952409296 -0.028536093549061056 0.002887205709272164 0.011639898570978965
0.050020842017509996 0.003140274260138352 0.01338142956713091 0.9963783219695616 -0.03266437243116774 0.0005306321108232503 0.0064038925652025415 -0.00046946767615093683 -0.004085862728129031
 0.9963783219695616 -0.03266437243116774 0.0031397282159150615 0.013381481373499737 -0.00046960305485044355 -0.0040858641609779565 0.0005336902175841045 0.006403533284650307
 0.0005306321108232503 0.0064038925652025415 -0.00046960305485044355 -0.0040858641609779565 0.003140231758768122 0.013380760124373718 0.996378306982161 -0.03266503925542839
 -0.00046946767615093683 -0.004085862728129031 0.0005336902175841045 0.006403533284650307 0.996378306982161 -0.03266503925542839 0.0031397403949841385 0.013380813814727586
0.055454545454549996 0.0033729998839225972 0.014908479406972132 0.9960709596453416 -0.03626399400497937 0.0006145076335802028 0.007102434821334341 -0.0005415719674179931 -0.004534154654606186
 0.9960709596453416 -0.03626399400497937 0.0033723291389540434 0.014908540063046255 -0.0005417378516550245 -0.0045341545900830366 0.0006182670461571971 0.007101991846494019
 0.0006145076335802028 0.007102434821334341 -0.0005417378516550245 -0.0045341545900830366 0.0033729480362519612 0.014907736897431967 0.9960709415215222 -0.03626473292410438
 -0.0005415719674179931 -0.004534154654606186 0.0006182670461571971 0.007101991846494019 0.9960709415215222 -0.03626473292410438 0.0033723442550498985 0.014907800172825166
0.056273447269699996 0.003409147950513445 0.015139736827943211 0.9960231883540023 -0.036807412632150475 0.0006277211990515317 0.0072077432940618365 -0.000552925219794076 -0.0046017647306115525
 0.9960231883540023 -0.036807412632150475 0.0034084573047004074 0.015139798882329391 -0.000553095963556423 -0.004601764402751748 0.0006315926105079089 0.007207286709806455
 0.0006277211990515317 0.0072077432940618365 -0.000553095963556423 -0.004601764402751748 0.0034090946153973916 0.015138983296761192 0.9960231697321076 -0.036808162411070496
 -0.000552925219794076 -0.0046017647306115525 0.0006315926105079089 0.007207286709806455 0.9960231697321076 -0.036808162411070496 0.00340847288865807 0.01513904809018376
0.06252605252188 0.0036945465229384585 0.016915001938491842 0.9956458101654228 -0.040964592501639814 0.0007335902862096941 0.00801205097583397 -0.0006438460366967088 -0.005118368045681923
 0.9956458101654228 -0.040964592501639814 0.0036936943657923924 0.01691507524610569 -0.0006440561366263415 -0.005118365363364316 0.0007383713786201037 0.008011481410031003
 0.0007335902862096941 0.00801205097583397 -0.0006440561366263415 -0.005118365363364316 0.0036944811532013118 0.016914164167078635 0.9956457875259169 -0.040965425145419024
 -0.0006438460366967088 -0.005118368045681923 0.0007383713786201037 0.008011481410031003 0.9956457875259169 -0.040965425145419024 0.0036937137389447127 0.016914241204511186
0.06877865777407 0.003996778586779242 0.018706891779041057 0.9952458913853496 -0.045135835940701155 0.0008483232581647373 0.008816702170711696 -0.0007423167366054785 -0.005635549200839116
 0.9952458913853496 -0.045135835940701155 0.003995748014640709 0.018706977395307703 -0.0007425701542387435 -0.00563554352128405 0.0008541105909492665 0.008816002697051888
 0.0008483232581647373 0.008816702170711696 -0.0007425701542387435 -0.00563554352128405 0.003996699986341013 0.018705969603083714 0.9952458643467015 -0.045136751353535606
 -0.0007423167366054785 -0.005635549200839116 0.0008541105909492665 0.008816002697051888 0.9952458643467015 -0.045136751353535606 0.003995771550268485 0.018706060075296703
0.07503126302626001 0.004316150894190701 0.02051509131689493 0.9948231362731941 -0.04932103757704704 0.0009720023344476915 0.00962157920841938 -0.0008484220536655987 -0.0061531833502995945
 0.9948231362731941 -0.04932103757704704 0.004314925006351727 0.020515190347788963 -0.0008487227211508642 -0.006153173981640612 0.0009788926413112674 0.009620731637895882
 0.0009720023344476915 0.00962157920841938 -0.0008487227211508642 -0.006153173981640612 0.004316057872440276 0.02051408455606859 0.9948231044569735 -0.04932203566080804
 -0.0008484220536655987 -0.0061531833502995945 0.0009788926413112674 0.009620731637895882 0.9948231044569735 -0.04932203566080804 0.004314953067529303 0.020514189704058782
0.08128386827845 0.00465296836269575 0.02233929759503417 0.9943772496384252 -0.05352006871908413 0.001104707965855574 0.01042656056726734 -0.0009622447838842236 -0.006671143918980638
 0.9943772496384252 -0.05352006871908413 0.004651530257792681 0.02233941119761528 -0.0009625966038811465 -0.006671130120254964 0.0011127981446659102 0.010425545433984731
 0.001104707965855574 0.01042656056726734 -0.0009625966038811465 -0.006671130120254964 0.004652859733436403 0.022338206059863308 0.9943772126693017 -0.053521149366626074
 -0.0009622447838842236 -0.006671143918980638 0.0011127981446659102 0.010425545433984731 0.9943772126693017 -0.053521149366626074 0.004651563197655723 0.022338327175275962
0.08753647353064001 0.005007534056006791 0.024179215588685275 0.9939079370754774 -0.05773278144743662 0.0012465187377831751 0.011231521137036566 -0.001083865715644085 -0.007189302367298991
 0.9939079370754774 -0.05773278144743662 0.00500586682910694 0.02417934497157466 -0.0010842725612993675 -0.007189283348421938 0.0012559058383484038 0.011230317684201643
 0.0012465187377831751 0.011231521137036566 -0.0010842725612993675 -0.007189283348421938 0.005007408636576653 0.024178039072838095 0.9939078945808216 -0.05773394455045023
 -0.001083865715644085 -0.007189302367298991 0.0012559058383484038 0.011230317684201643 0.9939078945808216 -0.05773394455045023 0.0050059049899569925 0.02417817749858627
0.09378907878283 0.005380149136225085 0.026034555234224353 0.9934149051727742 -0.06195901153912674 0.0013975112745585599 0.012036332415584824 -0.0012133635574448922 -0.007707528027115583
 0.9934149051727742 -0.06195901153912674 0.005378235875394993 0.02603470165830892 -0.0012138292721671138 -0.007707502948872314 0.0014082924855333117 0.012034918581552848
 0.0013975112745585599 0.012036332415584824 -0.0012138292721671138 -0.007707502948872314 0.00538000574728977 0.026033293523627134 0.9934148567833416 -0.0619602569792203
 -0.0012133635574448922 -0.007707528027115583 0.0014082924855333117 0.012034918581552848 0.9934148567833416 -0.0619602569792203 0.005378279589503885 0.02603345065444678
0.100041684035 0.005771112796024261 0.0279050292577241 0.9928978617059993 -0.06619858059801251 0.0015577601465995726 0.01284086265754221 -0.0013508148616185691 -0.008225687990485793
 0.9928978617059993 -0.06619858059801251 0.005768936579262671 0.027905194036970442 -0.001351343258846719 -0.00822565596453623 0.0015700327813282227 0.012839215062154083
 0.0015577601465995726 0.01284086265754221 -0.001351343258846719 -0.00822565596453623 0.005770950260974708 0.02790368212434886 0.992897807055983 -0.06619990825320413
 -0.0013508148616185691 -0.008225687990485793 0.0015700327813282227 0.012839215062154083 0.992897807055983 -0.06619990825320413 0.005768986168635728 0.027903859407618564
0.1059090909091 0.006154943273555229 0.029673780413926532 0.9923905738883388 -0.07018892818223124 0.0017166197951870106 0.013595453261256723 -0.0014870981502704916 -0.008711745980835742
 0.9923905738883388 -0.07018892818223124 0.006152504898286082 0.02967396366063676 -0.0014876888096994423 -0.00871170658351451 0.0017303805759170934 0.01359356385520296
 0.0017166197951870106 0.013595453261256723 -0.0014876888096994423 -0.00871170658351451 0.006154761703535579 0.02967235290189155 0.9923905130339942 -0.07019033287217132
 -0.0014870981502704916 -0.008711745980835742 0.0017303805759170934 0.01359356385520296 0.9923905130339942 -0.07019033287217132 0.006152560284639795 0.02967255046008566
0.1062942892872 0.00618072217595953 0.029790351546473054 0.992356515818625 -0.07045129764813346 0.0017273377786053143 0.013644976995438388 -0.0014962939460786565 -0.008743647031138526
 0.992356515818625 -0.07045129764813346 0.006178266067780653 0.029790536048801736 -0.0014968888089774124 -0.008743607120029287 0.0017411992597733486 0.013643070926471214
 0.0017273377786053143 0.013644976995438388 -0.0014968888089774124 -0.008743607120029287 0.006180539320077581 0.029788918748808818 0.9923564545458572 -0.07045270739249751
 -0.0014962939460786565 -0.008743647031138526 0.0017411992597733486 0.013643070926471214 0.9923564545458572 -0.07045270739249751 0.0061783218440782965 0.029789117685390155
0.11254689453939999 0.006609272269183272 0.031690235897290926 0.991790578194919 -0.07471696035619266 0.0019063143584005734 0.014448537536150536 -0.0016498728141559687 -0.009261267555844914
 0.991790578194919 -0.07471696035619266 0.006606519317806618 0.03169044154557988 -0.001650537895334413 -0.009261218773024488 0.0019218622021425903 0.014446346936002254
 0.0019063143584005734 0.014448537536150536 -0.001650537895334413 -0.009261218773024488 0.006609067919406874 0.03168871718612866 0.991790509941063 -0.07471845205446166
 -0.0016498728141559687 -0.009261267555844914 0.0019218622021425903 0.014446346936002254 0.991790509941063 -0.07471845205446166 0.006606581582273731 0.0316889393312968
0.11879949979160001 0.007057055819017175 0.03360439505262414 0.9911997612266285 -0.07899535597274117 0.0020947577466730485 0.015251403448179168 -0.0018116210730853618 -0.009778409570281508
 0.9911997612266285 -0.07899535597274117 0.007053989052527263 0.03360462332587926 -0.001812360094120177 -0.009778350880155358 0.0021120895457897066 0.015248900900798687
 0.0020947577466730485 0.015251403448179168 -0.001812360094120177 -0.009778350880155358 0.007056828802950038 0.033602790163214664 0.9911996856372266 -0.07899692948828649
 -0.0018116210730853618 -0.009778409570281508 0.0021120895457897066 0.015248900900798687 0.9911996856372266 -0.07899692948828649 0.007054058096125313 0.03360303712775418
0.1250521050438 0.007524363206952165 0.03553253993118335 0.990583779175206 -0.08328626208519642 0.002292733387115411 0.0160534310336898 -0.0019816058512569065 -0.010294930665630286
 0.990583779175206 -0.08328626208519642 0.0075209656306173545 0.035532792365796435 -0.00198242250238872 -0.010294860983582298 0.0023119467935863135 0.01605058775168901
 0.002292733387115411 0.0160534310336898 -0.00198242250238872 -0.010294860983582298 0.0075241123527434485 0.03553084859168325 0.9905836959002023 -0.08328791727200005
 -0.0019816058512569065 -0.010294930665630286 0.0023119467935863135 0.01605058775168901 0.9905836959002023 -0.08328791727200005 0.007521041734011065 0.035531122043050034
0.131304710296 0.008011482336811654 0.03747437902839635 0.9899423483314326 -0.08758944720772065 0.0025003042169498353 0.01685447380055128 -0.002159891714792007 -0.0108106860106118
 0.9899423483314326 -0.08758944720772065 0.008007736929491248 0.037474657219521416 -0.002160789654423892 -0.010810604203106679 0.0025214969238523373 0.016851259612673777
 0.0025003042169498353 0.01685447380055128 -0.002160789654423892 -0.010810604203106679 0.008011206472156493 0.0374726009548227 0.9899422570246943 -0.08759118391565672
 -0.002159891714792007 -0.0108106860106118 0.0025214969238523373 0.016851259612673777 0.9899422570246943 -0.08759118391565672 0.008007820362814975 0.037472902618443826
0.1375573155481 0.008407310952778775 0.03917735338455974 0.9893866200536833 -0.09165228595299468 0.0026912018003473165 0.01762940084552375 -0.002320190716864526 -0.01130058029798111
 0.9893866200536833 -0.09165228595299468 0.008403198840511486 0.039177653480942834 -0.0023211751160922976 -0.011300486248525287 0.002714422956014173 0.01762582014473103
 0.0026912018003473165 0.01762940084552375 -0.0023211751160922976 -0.011300486248525287 0.008407007888192064 0.03917548885496322 0.9893865203597432 -0.09165410403283297
 -0.002320190716864526 -0.01130058029798111 0.002714422956014173 0.01762582014473103 0.9893865203597432 -0.09165410403283297 0.008403290900580408 0.0391758138533113
0.1438099208003 0.008817093091258641 0.04087133703432967 0.988811318361293 -0.09570478893890517 0.002889797420668843 0.0184011620777203 -0.0024868933338204717 -0.01178753925348418
 0.988811318361293 -0.09570478893890517 0.008812596917299305 0.04087166032699732 -0.0024879680780059135 -0.01178743185224774 0.0029151360046036456 0.018397187235939187
 0.002889797420668843 0.0184011620777203 -0.0024879680780059135 -0.01178743185224774 0.008816761468053646 0.0408693858040583 0.9888112099395653 -0.095706688231017
 -0.0024868933338204717 -0.01178753925348418 0.0029151360046036456 0.018397187235939187 0.9888112099395653 -0.095706688231017 0.008812698044091103 0.04086973543162013
0.1500625260525 0.00924068435674109 0.04255618718649749 0.9882165917593665 -0.09974685415789013 0.00309602197969698 0.019169678280561615 -0.0026599318571179638 -0.012271486953366597
 0.9882165917593665 -0.09974685415789013 0.009235786724726056 0.042556535040778026 -0.0026611008194444307 -0.012271365046433474 0.0031235664490068017 0.019165280658518583
 0.00309602197969698 0.019169678280561615 -0.0026611008194444307 -0.012271365046433474 0.009240322803299091 0.04255414900202292 0.9882164742736566 -0.09974883449755732
 -0.0026599318571179638 -0.012271486953366597 0.0031235664490068017 0.019165280658518583 0.9882164742736566 -0.09974883449755732 0.009235897360238315 0.04255452462269642
0.15631513130469998 0.009677939328710444 0.044231765341487754 0.9876025895076498 -0.10377837999191826 0.003309805562974545 0.019934871607544195 -0.0028392377433346144 -0.01275234908116367
 0.9876025895076498 -0.10377837999191826 0.009672622801316165 0.04423213919871378 -0.0028405047845669737 -0.0127522114708505 0.0033396438445025124 0.019930021565078174
