! Created with skrf 1.8.0 (http://scikit-rf.org).
# GHz S RI R 50.0 
!freq ReS11 ImS11 ReS12 ImS12 ReS13 ImS13
! ReS14 ImS14
! ReS21 ImS21 ReS22 ImS22 ReS23 ImS23
! ReS24 ImS24
! ReS31 ImS31 ReS32 ImS32 ReS33 ImS33
! ReS34 ImS34
! ReS41 ImS41 ReS42 ImS42 ReS43 ImS43
! ReS44 ImS44
!
0.0 0.001807013704494 0.0 0.9981929862955 0.0 7.02790557698e-05 0.0 -7.027905603456e-05 8.606702101982138e-21
 0.9981929862955 0.0 0.001807013704503 0.0 -7.027905603531e-05 8.606702102073987e-21 7.027905576712e-05 0.0
 7.02790557698e-05 0.0 -7.027905603531e-05 8.606702102073987e-21 0.001807013696522 0.0 0.9981929862875 0.0
 -7.027905603456e-05 8.606702101982138e-21 7.027905576712e-05 0.0 0.9981929862875 0.0 0.001807013696498 0.0
0.005 0.00194511400037186 0.001474830351951358 0.9980181099067386 -0.003784448257737734 9.939305631183448e-05 0.0007900571588780154 -9.635730170105133e-05 -0.0004929922602834534
 0.9980181099067386 -0.003784448257737734 0.0019451222082495375 0.0014748254749523345 -9.635657098739541e-05 -0.0004929916334035032 9.935632829057917e-05 0.0007900713271059205
 9.939305631183448e-05 0.0007900571588780154 -9.635657098739541e-05 -0.0004929916334035032 0.0019451150877844 0.0014748969427537655 0.9980181102919213 -0.0037843811990531627
 -9.635730170105133e-05 -0.0004929922602834534 9.935632829057917e-05 0.0007900713271059205 0.9980181102919213 -0.0037843811990531627 0.0019451218872952843 0.0014748929995877756
0.006252605252188 0.001981599572140434 0.0018493145145681575 0.9979715739588002 -0.004731443973116604 0.00010785978682165186 0.0009879293008038666 -0.00010384683452645533 -0.0006168647904716917
 0.9979715739588002 -0.004731443973116604 0.001981612402642879 0.0018493082787584692 -0.00010384569800061893 -0.0006168640163551928 0.00010780240541891615 0.000987947685183393
 0.00010785978682165186 0.0009879293008038666 -0.00010384569800061893 -0.0006168640163551928 0.001981601190000337 0.0018493977341175571 0.997971574478559 -0.004731360160469308
 -0.00010384683452645533 -0.0006168647904716917 0.00010780240541891615 0.000987947685183393 0.997971574478559 -0.004731360160469308 0.0019816118180389355 0.0018493926797719673
0.01250521050438 0.002175215678782882 0.0037370634806334195 0.9977227949576769 -0.00946338596237419 0.00015720103308065593 0.001976040547923818 -0.00014702080789743662 -0.001236553425345601
 0.9977227949576769 -0.00946338596237419 0.0021752669164570864 0.0037370495769107584 -0.0001470163354816373 -0.0012365519815721471 0.00015697228613845135 0.0019760846882505008
 0.00015720103308065593 0.001976040547923818 -0.0001470163354816373 -0.0012365519815721471 0.002175221589207639 0.0037372295853717635 0.997722796476553 -0.009463218572201506
 -0.00014702080789743662 -0.001236553425345601 0.00015697228613845135 0.0019760846882505008 0.997722796476553 -0.009463218572201506 0.0021752640159912726 0.0037372182041053694
0.01875781575657 0.002388339925120562 0.005651282432524179 0.9974463012144932 -0.01420727855744425 0.00021842506254949364 0.0029649679864546118 -0.00019994554192305107 -0.0018581095677937189
 0.9974463012144932 -0.01420727855744425 0.0023884550691427695 0.00565125928033534 -0.00019993557753570442 -0.0018581075795343783 0.00021791139268010352 0.002965046913123002
 0.00021842506254949364 0.0029649679864546118 -0.00019993557753570442 -0.0018581075795343783 0.002388352793665018 0.005651531179598605 0.9974463042028124 -0.014207027687102879
 -0.00019994554192305107 -0.0018581095677937189 0.00021791139268010352 0.002965046913123002 0.9974463042028124 -0.014207027687102879 0.002388448107195491 0.00565151210315043
0.02501042100875 0.0026214325983721486 0.0075892151895995495 0.9971417295336634 -0.018965349137319575 0.0002916554885524226 0.003954710115122715 -0.00026275954387327774 -0.0024812033211699626
 0.9971417295336634 -0.018965349137319575 0.0026216370998017728 0.007589181065711528 -0.00026274196025362795 -0.0024812009365860624 0.00029074342183116813 0.003954834459222464
 0.0002916554885524226 0.003954710115122715 -0.00026274196025362795 -0.0024812009365860624 0.0026214550963555563 0.00758954634143946 0.9971417344664203 -0.01896501483307055
 -0.00026275954387327774 -0.0024812033211699626 0.00029074342183116813 0.003954834459222464 0.9971417344664203 -0.01896501483307055 0.002621624328063969 0.007589518110324911
0.03126302626094 0.0028749347439596053 0.009549406871407746 0.996808700410746 -0.023738506852745644 0.00037701565718024845 0.004945171282608275 -0.0003355964492912994 -0.003105589670101216
 0.996808700410746 -0.023738506852745644 0.0028752540177957265 0.009549359909980872 -0.00033556914322127417 -0.0031055870605567926 0.0003755917046760642 0.004945353281907657
 0.00037701565718024845 0.004945171282608275 -0.00033556914322127417 -0.0031055870605567926 0.0028749695432961292 0.009549820153258157 0.9968087077621665 -0.023738089151717514
 -0.0003355964492912994 -0.003105589670101216 0.0003755917046760642 0.004945353281907657 0.9968087077621665 -0.023738089151717514 0.002875233678642844 0.009549781217369857
0.037515631513130004 0.00314927703740204 0.011530881206124404 0.9964468273220203 -0.028527165266679623 0.0004746273619954324 0.00593621797281717 -0.0004185859814433152 -0.003731052240073319
 0.9964468273220203 -0.028527165266679623 0.003149736469892684 0.011530819398031357 -0.0004185468711633933 -0.0037310496001413023 0.0004725779820184592 0.005936471484398628
 0.0004746273619954324 0.00593621797281717 -0.0004185468711633933 -0.0037310496001413023 0.003149326811080443 0.01153137631763531 0.996446837567133 -0.0285266641847769
 -0.0004185859814433152 -0.003731052240073319 0.0004725779820184592 0.005936471484398628 0.996446837567133 -0.0285266641847769 0.0031497067973951494 0.011531325036169602
0.043768236765320004 0.003444883192446411 0.013532890214482425 0.9960557205518881 -0.03333149260743473 0.0005846102188796999 0.006927695932900073 -0.0005118542668171328 -0.004357386216272669
 0.9960557205518881 -0.03333149260743473 0.0034455081462396657 0.013532811406626436 -0.0005118012904882705 -0.004357383763704085 0.000581821805255702 0.00692803644770116
 0.0005846102188796999 0.006927695932900073 -0.0005118012904882705 -0.004357383763704085 0.003444950613638511 0.013533466821988154 0.9960557341662892 -0.03333090814650811
 -0.0005118542668171328 -0.004357386216272669 0.000581821805255702 0.00692803644770116 0.9960557341662892 -0.03333090814650811 0.0034454673657585786 0.013533401463411228
0.050020842017509996 0.003762171516145439 0.015554810744436492 0.9956349891733003 -0.03815151517167389 0.0007070812705576768 0.007919437272104516 -0.0006155239248441936 -0.004984391297322629
 0.9956349891733003 -0.03815151517167389 0.0037629873349587823 0.015554712638450824 -0.0006154550395101225 -0.004984389272973176 0.0007034401549925962 0.007919881930059694
 0.0007070812705576768 0.007919437272104516 -0.0006154550395101225 -0.004984389272973176 0.003762259258641011 0.015555468471672787 0.9956350066348603 -0.03815084732818937
 -0.0006155239248441936 -0.004984391297322629 0.0007034401549925962 0.007919881930059694 0.9956350066348603 -0.03815084732818937 0.0037629336643757133 0.015555387213291211
0.055454545454549996 0.004055834643818035 0.017327663790945767 0.9952449984143746 -0.0423529585762963 0.0008237430198502619 0.008781366382995617 -0.0007141557729387958 -0.005529668019857211
 0.9952449984143746 -0.0423529585762963 0.004056836900167743 0.017327546934133096 -0.0007140714171728358 -0.005529666581159384 0.0008192685275674937 0.008781916756429205
 0.0008237430198502619 0.008781366382995617 -0.0007140714171728358 -0.005529666581159384 0.004055942217585843 0.017328391678762274 0.9952450196092778 -0.04235221825971838
 -0.0007141557729387958 -0.005529668019857211 0.0008192685275674937 0.008781916756429205 0.9952450196092778 -0.04235221825971838 0.0040567705749413 0.01732829505155775
0.056273447269699996 0.004101555678879822 0.017596093701994258 0.9951842422481796 -0.04298716803612991 0.0008421546957392843 0.00891126395049856 -0.0007297140536859201 -0.005611868266664518
 0.9951842422481796 -0.04298716803612991 0.004102587690888972 0.01759597385319766 -0.0007296272345311498 -0.005611866934452411 0.0008375471584176981 0.008911831555825176
 0.0008421546957392843 0.00891126395049856 -0.0007296272345311498 -0.005611866934452411 0.004101666416230442 0.01759683213493063 0.9951842640372254 -0.04298641679590399
 -0.0007297140536859201 -0.005611868266664518 0.0008375471584176981 0.008911831555825176 0.9951842640372254 -0.04298641679590399 0.004102519340875325 0.017596733062393306
0.06252605252188 0.0044634450991630145 0.019656236149961488 0.9947030896487633 -0.04783832290960047 0.000989941567593023 0.009902989719150658 -0.0008545401656282016 -0.00623961712116603
 0.9947030896487633 -0.04783832290960047 0.004464718621202595 0.019656091965795826 -0.0008544334055100163 -0.00623961676800625 0.0009842538538520121 0.009903700755483505
 0.000989941567593023 0.009902989719150658 -0.0008544334055100163 -0.00623961676800625 0.004463581503240108 0.0196570548358227 0.9947031162473071 -0.047837488248166346
 -0.0008545401656282016 -0.00623961712116603 0.0009842538538520121 0.009903700755483505 0.9947031162473071 -0.047837488248166346 0.004464633794196332 0.019656935942375747
0.06877865777407 0.004848245112389635 0.021734764680204882 0.9941911426677871 -0.0527048047204283 0.0011505496422852673 0.01089442129023415 -0.000990114091825147 -0.006867435979087342
 0.9941911426677871 -0.0527048047204283 0.004849785452639982 0.021734593418687165 -0.000989985400831817 -0.0068674369148286505 0.0011436679829843715 0.010895297935489294
 0.0011505496422852673 0.01089442129023415 -0.000989985400831817 -0.0068674369148286505 0.0048484098530222714 0.021735663123401038 0.9941911745609726 -0.05270388660661313
 -0.000990114091825147 -0.006867435979087342 0.0011436679829843715 0.010895297935489294 0.9941911745609726 -0.05270388660661313 0.004849682343989524 0.021735522309011192
0.07503126302626001 0.005256357016410086 0.02383122489132432 0.9936480145119285 -0.05758640210896057 0.0013240831633017707 0.011885359099168368 -0.001136543869771596 -0.00749512040584905
 0.9936480145119285 -0.05758640210896057 0.005258189477822375 0.023831023659290747 -0.001136391274951709 -0.007495122963223146 0.0013158937985236654 0.011886425240013602
 0.0013240831633017707 0.011885359099168368 -0.001136391274951709 -0.007495122963223146 0.005256552760193647 0.023832202553951947 0.9936480521879407 -0.05758540050402219
 -0.001136543869771596 -0.00749512040584905 0.0013158937985236654 0.011886425240013602 0.9936480521879407 -0.05758540050402219 0.005258066275504378 0.02383203762420374
0.08128386827845 0.005688178035618338 0.02594517437809435 0.9930733207182237 -0.062482874419667926 0.001510642677482634 0.012875597828398774 -0.0012939336183478008 -0.008122462988343295
 0.9930733207182237 -0.062482874419667926 0.005690327918737175 0.025944940129165164 -0.0012937551634895233 -0.008122467522904143 0.0015010318825495153 0.012876879074234966
 0.001510642677482634 0.012875597828398774 -0.0012937551634895233 -0.008122467522904143 0.005688407445742324 0.02594623068124254 0.993073364669082 -0.062481789275421994
 -0.0012939336183478008 -0.008122462988343295 0.0015010318825495153 0.012876879074234966 0.993073364669082 -0.062481789275421994 0.005690182804317918 0.025946039346079468
0.08753647353064001 0.006144101233594599 0.02807617791589546 0.9924666795236141 -0.06739395650952844 0.0017103248580061633 0.013864926790279074 -0.001462383405037848 -0.008749253060681288
 0.9924666795236141 -0.06739395650952844 0.006146593839601258 0.02807590744842586 -0.0014621771504849228 -0.008749259950757982 0.001699178971735481 0.013866450486749227
 0.0017103248580061633 0.013864926790279074 -0.0014621771504849228 -0.008749259950757982 0.006144366967882335 0.028077312235505206 0.9924667302448267 -0.06739278777212403
 -0.001462383405037848 -0.008749253060681288 0.001699178971735481 0.013866450486749227 0.9924667302448267 -0.06739278777212403 0.006146424987505886 0.028077092107694834
0.09378907878283 0.00662451538749589 0.030223804020334304 0.9918277122014172 -0.0723193621937635 0.0019232223319852139 0.014853130220625723 -0.0016419891083744407 -0.009375276529961884
 0.9918277122014172 -0.0723193621937635 0.006627376020511835 0.030223493975105948 -0.001641753130837744 -0.009375286176613935 0.0019104277864170139 0.014854925462515841
 0.0019232223319852139 0.014853130220625723 -0.001641753130837744 -0.009375286176613935 0.0066248200978543245 0.030225015689795205 0.991827770192929 -0.07231810980077388
 -0.0016419891083744407 -0.009375276529961884 0.0019104277864170139 0.014854925462515841 0.991827770192929 -0.07231810980077388 0.006627181599277784 0.030224764283258872
0.100041684035 0.007129804836400793 0.03238762244069539 0.9911560433754504 -0.07725878677033633 0.0021494235124434853 0.015839987516424722 -0.0018328422756618788 -0.010000315769009867
 0.9911560433754504 -0.07725878677033633 0.007133058807038834 0.032387269298330655 -0.0018325746682670795 -0.010000328595959158 0.0021348668640826245 0.01584208515998073
 0.0021494235124434853 0.015839987516424722 -0.0018325746682670795 -0.010000328595959158 0.007130151168393752 0.032388910750276535 0.9911561091420253 -0.07725745065090796
 -0.0018328422756618788 -0.010000315769009867 0.0021348668640826245 0.01584208515998073 0.9911561091420253 -0.07725745065090796 0.0071328369789869115 0.032388625478173526
0.1059090909091 0.007626927523698192 0.03443247944441514 0.9904956805850378 -0.08190637685601666 0.0023738638176410785 0.01676462353793282 -0.002022244798822633 -0.010585756644490461
 0.9904956805850378 -0.08190637685601666 0.007630573627234498 0.034432082514124794 -0.002021945790299995 -0.010585772861347018 0.0023575505868012655 0.016767034596118603
 0.0023738638176410785 0.01676462353793282 -0.002021945790299995 -0.010585772861347018 0.007627315311749191 0.03443383898433316 0.9904957541110956 -0.08190496210041225
 -0.002022244798822633 -0.010585756644490461 0.0023575505868012655 0.016767034596118603 0.9904957541110956 -0.08190496210041225 0.007630324404195003 0.034433519488637654
0.1062942892872 0.00766034931183788 0.034567202290345815 0.9904513013196935 -0.08221190892038494 0.002389012432415453 0.016825273431893502 -0.0020350299790119378 -0.010624149561857482
 0.9904513013196935 -0.08221190892038494 0.007664021939193789 0.0345668023686531 -0.002034728851063698 -0.01062416601546641 0.002372580395060521 0.01682770610645058
 0.002389012432415453 0.016825273431893502 -0.002034728851063698 -0.01062416601546641 0.007660739902523271 0.03456856648223878 0.9904513753710154 -0.08221048899994887
 -0.0020350299790119378 -0.010624149561857482 0.002372580395060521 0.01682770610645058 0.9904513753710154 -0.08221048899994887 0.00766377086077035 0.03456824465482447
0.11254689453939999 0.008216523751033275 0.03676211062304512 0.9897131182447273 -0.08717839217635974 0.0026420685822504354 0.017808758255259582 -0.002248634668914724 -0.01124655307994062
 0.9897131182447273 -0.08717839217635974 0.008220640365461308 0.03676166007417622 -0.002248298145970516 -0.011246573629154223 0.002623648060593099 0.017811560374238068
 0.0026420685822504354 0.017808758255259582 -0.002248298145970516 -0.011246573629154223 0.008216961228754083 0.036763549898099115 0.9897132010959176 -0.08717688836956396
 -0.002248634668914724 -0.01124655307994062 0.002623648060593099 0.017811560374238068 0.9897132010959176 -0.08717688836956396 0.008220358187661207 0.036763188720415424
0.11879949979160001 0.008798698101172868 0.03897191135168465 0.9889411305777036 -0.092157886061178 0.002908666748311311 0.01879020796557393 -0.0024737340272980714 -0.011867297889788849
 0.9889411305777036 -0.092157886061178 0.008803284046895383 0.03897140615894254 -0.002473360251095492 -0.011867323026091945 0.0028881448729757694 0.01879341573672285
 0.002908666748311311 0.01879020796557393 -0.002473360251095492 -0.011867323026091945 0.008799185083965815 0.0389734248632264 0.9889412227495042 -0.09215629827790604
 -0.0024737340272980714 -0.011867297889788849 0.0028881448729757694 0.01879341573672285 0.9889412227495042 -0.09215629827790604 0.008802968915305623 0.03897302143250449
0.1250521050438 0.009407237113239193 0.04119616439192328 0.9881349792342441 -0.09715002701672651 0.003188876854196524 0.01976938438111078 -0.0027104008198737374 -0.012486151980780813
 0.9881349792342441 -0.09715002701672651 0.009412317750842707 0.04119560036650184 -0.0027099879483166796 -0.01248618221815638 0.0031661410174772075 0.019773035815995554
 0.003188876854196524 0.01976938438111078 -0.0027099879483166796 -0.01248618221815638 0.009407776208249499 0.04119775125010109 0.9881350812537862 -0.09714835515752447
 -0.0027104008198737374 -0.012486151980780813 0.0031661410174772075 0.019773035815995554 0.9881350812537862 -0.09714835515752447 0.009411967806435368 0.04119730255288983
0.131304710296 0.010042500130300721 0.04343442501049003 0.9872943098868787 -0.10215443914168595 0.0034827638036246792 0.020746045300890793 -0.002958702748448042 -0.01310287981154443
 0.9872943098868787 -0.10215443914168595 0.01004810083894823 0.04343379778798541 -0.0029582489555939717 -0.013102915686445355 0.0034577016963570064 0.020750180223639596
 0.0034827638036246792 0.020746045300890793 -0.0029582489555939717 -0.013102915686445355 0.010043093932019902 0.04343608427645188 0.9872944222878138 -0.10215268310344923
 -0.002958702748448042 -0.01310287981154443 0.0034577016963570064 0.020750180223639596 0.9872944222878138 -0.10215268310344923 0.010047714217763045 0.04343558718564816
0.1375573155481 0.01056838188275607 0.045394677655117135 0.9865553046474075 -0.10687898654686995 0.0037561417517217185 0.021691875576030903 -0.0031844896031808854 -0.013689179786822422
 0.9865553046474075 -0.10687898654686995 0.010574528934329034 0.04539399613494465 -0.003183991980437104 -0.013689221401422168 0.003728691420548114 0.021696491782326015
 0.0037561417517217185 0.021691875576030903 -0.003183991980437104 -0.013689221401422168 0.0105690320634021 0.04539640889758667 0.9865554279032683 -0.10687714631119836
 -0.0031844896031808854 -0.013689179786822422 0.003728691420548114 0.021696491782326015 0.9865554279032683 -0.10687714631119836 0.01057410480583325 0.04539587269712172
0.1438099208003 0.011113015428077641 0.0473428263497125 0.9857897782881985 -0.111589759484354 0.004040504512864297 0.02263277913029356 -0.003419231621216179 -0.01427096142866153
 0.9857897782881985 -0.111589759484354 0.011119734330862597 0.047342087042919284 -0.0034186881713537897 -0.014271009323738227 0.004010563145236996 0.022637913469334685
 0.004040504512864297 0.02263277913029356 -0.0034186881713537897 -0.014271009323738227 0.011113724399343973 0.04734462865926777 0.9857899129287985 -0.11158783495919974
 -0.003419231621216179 -0.01427096142866153 0.004010563145236996 0.022637913469334685 0.9857899129287985 -0.11158783495919974 0.011119271012672105 0.04734405103463449
0.1500625260525 0.011676180575328274 0.04927865577636584 0.9849979561722825 -0.11628658725632232 0.004335735698014742 0.023568624632921392 -0.003662815679255038 -0.01484810192680681
 0.9849979561722825 -0.11628658725632232 0.01168349685357289 0.04927785501724057 -0.003662224407694301 -0.01484815666573493 0.004303201344211554 0.023574315277360966
 0.004335735698014742 0.023568624632921392 -0.003662224407694301 -0.01484815666573493 0.011676950726533578 0.0492805282111394 0.9849981027322624 -0.11628457834598474
 -0.003662815679255038 -0.01484810192680681 0.004303201344211554 0.023574315277360966 0.9849981027322624 -0.11628457834598474 0.011682992671295005 0.04927990671368509
0.15631513130469998 0.012257655226552908 0.05120195705994504 0.9841800651883343 -0.12096930100504728 0.004641717343362284 0.024499283418056853 -0.003915127080623431 -0.015420481433695947
 0.9841800651883343 -0.12096930100504728 0.012265594420679045 0.05120109100376094 -0.003914485995477643 -0.015420543602427976 0.004606488934161863 0.02450556984465072
