! Created with skrf 1.8.0 (http://scikit-rf.org).
# GHz S RI R 50.0 
!freq ReS11 ImS11 ReS12 ImS12 ReS13 ImS13
! ReS14 ImS14
! ReS21 ImS21 ReS22 ImS22 ReS23 ImS23
! ReS24 ImS24
! ReS31 ImS31 ReS32 ImS32 ReS33 ImS33
! ReS34 ImS34
! ReS41 ImS41 ReS42 ImS42 ReS43 ImS43
! ReS44 ImS44
!
0.0 0.001538819121822 0.0 0.9984611808781 0.0 5.939348927651e-05 0.0 -5.939348793688e-05 7.273604489209703e-21
 0.9984611808781 0.0 0.001538819121833 0.0 -5.93934879376e-05 7.273604489297877e-21 5.939348927366e-05 0.0
 5.939348927651e-05 0.0 -5.93934879376e-05 7.273604489297877e-21 0.001538819112408 0.0 0.9984611808686 0.0
 -5.939348793688e-05 7.273604489209703e-21 5.939348927366e-05 0.0 0.9984611808686 0.0 0.001538819112384 0.0
0.005 0.0016556367733380482 0.0012580059342943708 0.998313392150592 -0.0032235177807198273 8.333477605199487e-05 0.0006595286050644474 -8.090287394244714e-05 -0.0004130842739895706
 0.998313392150592 -0.0032235177807198273 0.001655646017218727 0.0012580004728488163 -8.090263746418962e-05 -0.00041308403080136583 8.327890020368111e-05 0.0006595498439256597
 8.333477605199487e-05 0.0006595286050644474 -8.090263746418962e-05 -0.00041308403080136583 0.0016556375622572988 0.001258072693876932 0.9983133925093368 -0.003223450717011178
 -8.090287394244714e-05 -0.0004130842739895706 8.327890020368111e-05 0.0006595498439256597 0.9983133925093368 -0.003223450717011178 0.0016556459403496266 0.0012580678358571175
0.006252605252188 0.0016862696290915178 0.0015774607168147676 0.9982743936264385 -0.00403018651867111 9.017194651638781e-05 0.0008247280836398948 -8.697319883670648e-05 -0.0005168907303951549
 0.9982743936264385 -0.00403018651867111 0.0016862840795382398 0.0015774537890099775 -8.697283133015564e-05 -0.0005168904292271066 9.008464512361088e-05 0.0008247556676808909
 9.017194651638781e-05 0.0008247280836398948 -8.697283133015564e-05 -0.0005168904292271066 0.0016862707836401598 0.0015775441438451666 0.998274394108413 -0.00403010270296098
 -8.697319883670648e-05 -0.0005168907303951549 9.008464512361088e-05 0.0008247556676808909 0.998274394108413 -0.00403010270296098 0.0016862838799893416 0.001577537982567046
0.01250521050438 0.0018474992359480559 0.0031880033581704057 0.9980677784373162 -0.008061183532617255 0.0001293669465171031 0.0016497990963062325 -0.00012140153429686909 -0.0010362938956221504
 0.9980677784373162 -0.008061183532617255 0.0018475569472444272 0.0031879884810706023 -0.00012140009193409424 -0.001036293323540259 0.00012901879277139348 0.0016498654285393762
 0.0001293669465171031 0.0016497990963062325 -0.00012140009193409424 -0.001036293323540259 0.001847503302806181 0.0031881698827939684 0.9980677798133241 -0.008061016124391491
 -0.00012140153429686909 -0.0010362938956221504 0.00012901879277139348 0.0016498654285393762 0.9980677798133241 -0.008061016124391491 0.0018475555920377926 0.003188156671280596
0.01875781575657 0.00202285987094132 0.004821496142062945 0.9978410785897139 -0.012102802571299495 0.00017706909576309734 0.002475769741121793 -0.00016278449446611673 -0.0015574546093103157
 0.9978410785897139 -0.012102802571299495 0.0020229895708442545 0.004821472208512384 -0.0001627812861860929 -0.001557453800277356 0.0001762869709854948 0.002475888156805752
 0.00017706909576309734 0.002475769741121793 -0.0001627812861860929 -0.001557453800277356 0.0020228686019577416 0.004821745509625679 0.9978410812654163 -0.012102551663244534
 -0.00016278449446611673 -0.0015574546093103157 0.0001762869709854948 0.002475888156805752 0.9978410812654163 -0.012102551663244534 0.002022986088749448 0.004821724304323831
0.02501042100875 0.0022126930646597168 0.00647565065741007 0.9975940272204206 -0.016157001202585806 0.0002333703632496526 0.003302674217597021 -0.00021122462368711815 -0.0020801347203625543
 0.9975940272204206 -0.016157001202585806 0.0022129234352940407 0.006475616485100002 -0.0002112189693154703 -0.0020801337128945135 0.00023198106753596364 0.0033028601493345112
 0.0002333703632496526 0.003302674217597021 -0.0002112189693154703 -0.0020801337128945135 0.0022127082108160745 0.006475982629955971 0.9975940315999585 -0.016156666815057393
 -0.00021122462368711815 -0.0020801347203625543 0.00023198106753596364 0.0033028601493345112 0.9975940315999585 -0.016156666815057393 0.002212916842793938 0.0064759524426848325
0.03126302626094 0.0024173262143441596 0.008149288585171041 0.9973263438450851 -0.02022461628477145 0.0002983631913000849 0.004130470100358177 -0.00026682156033786637 -0.0026041669092668317
 0.9973263438450851 -0.02022461628477145 0.002417685908350786 0.008149242918676825 -0.0002668127887590916 -0.00260416574651277 0.00029619328767991926 0.004130741090155574
 0.0002983631913000849 0.004130470100358177 -0.0002668127887590916 -0.00260416574651277 0.0024173495323434402 0.008149702879510367 0.9973263503382511 -0.02022419842740653
 -0.00026682156033786637 -0.0026041669092668317 0.00029619328767991926 0.004130741090155574 0.9973263503382511 -0.02022419842740653 0.0024176752154087223 0.008149662679700406
0.037515631513130004 0.0026370796259670556 0.009841641118077914 0.9970377416229524 -0.02430606448590841 0.00037213956689851794 0.004959084670040135 -0.00032967276429779534 -0.0031294083572783295
 0.9970377416229524 -0.02430606448590841 0.0026375972760567684 0.00984158262973226 -0.00032966021234466573 -0.0031294070869880464 0.0003690153135370036 0.004959460390135041
 0.00037213956689851794 0.004959084670040135 -0.00032966021234466573 -0.0031294070869880464 0.0026371128710998624 0.009842137431965704 0.9970377506395446 -0.02430556313099149
 -0.00032967276429779534 -0.0031294083572783295 0.0003690153135370036 0.004959460390135041 0.9970377506395446 -0.02430556313099149 0.002637581479863586 0.009842086147949616
0.043768236765320004 0.0028722692296257487 0.011552135775119604 0.9967279302979215 -0.028401555399201986 0.00045479059117386637 0.005788428996531843 -0.00039987376998274377 -0.0036557266648377432
 0.9967279302979215 -0.028401555399201986 0.002872973456843501 0.011552063065282099 -0.0003998567818876735 -0.003655725339315934 0.00045053791141331405 0.005788931272834814
 0.00045479059117386637 0.005788428996531843 -0.0003998567818876735 -0.003655725339315934 0.0028723141587107667 0.011552713754570874 0.9967279422512242 -0.028400970513862787
 -0.00039987376998274377 -0.0036557266648377432 0.00045053791141331405 0.005788931272834814 0.9967279422512242 -0.028400970513862787 0.0028729515443519853 0.011552650274474831
0.050020842017509996 0.003123207841634363 0.013280308292233884 0.9963966176891844 -0.03251117958008582 0.0005464062124626633 0.006618403778496744 -0.00047751828289014796 -0.004182994016138082
 0.9963966176891844 -0.03251117958008582 0.00312412726243249 0.013280219889526202 -0.0004774962097968296 -0.004182992692206832 0.0005408506852851386 0.006619056615099149
 0.0005464062124626633 0.006618403778496744 -0.0004774962097968296 -0.004182992692206832 0.003123266211814831 0.013280967549589757 0.9963966329964172 -0.03251051110782449
 -0.00047751828289014796 -0.004182994016138082 0.0005408506852851386 0.006619056615099149 0.9963966329964172 -0.03251051110782449 0.003124098209609442 0.013280890721895007
0.055454545454549996 0.0033543123113990063 0.014796187893529798 0.9960910076050603 -0.03609405830038642 0.0006333721703751372 0.007340106201043632 -0.0005511101680261653 -0.004641878145084187
 0.9960910076050603 -0.03609405830038642 0.003355441982712401 0.014796084602402525 -0.0005510831540354846 -0.004641876872151711 0.0006265425121092001 0.00734091108376455
 0.0006333721703751372 0.007340106201043632 -0.0005510831540354846 -0.004641876872151711 0.003354383787753324 0.014796917436377174 0.9960910261679579 -0.0360933171304782
 -0.0005511101680261653 -0.004641878145084187 0.0006265425121092001 0.00734091108376455 0.9960910261679579 -0.0360933171304782 0.0033554058835642275 0.014796828043499004
0.056273447269699996 0.003390205814230745 0.015025759373117531 0.9960435105739058 -0.03663495172481479 0.0006470750444733152 0.007448902177884819 -0.000562698193501772 -0.0047110843520411115
 0.9960435105739058 -0.03663495172481479 0.003391369046249603 0.015025653734170924 -0.0005626703930826774 -0.004711083090989478 0.0006400419065878087 0.007449731781932508
 0.0006470750444733152 0.007448902177884819 -0.0005626703930826774 -0.004711083090989478 0.003390279380707766 0.015026499477097718 0.996043529655113 -0.036634199595005947
 -0.000562698193501772 -0.0047110843520411115 0.0006400419065878087 0.007449731781932508 0.996043529655113 -0.036634199595005947 0.0033913318168164114 0.015026408110954178
0.06252605252188 0.003673571377400171 0.016788130920460585 0.995668315265771 -0.040772834370965245 0.0007568842155919314 0.008279811403554074 -0.000655503559637835 -0.005239871797625395
 0.995668315265771 -0.040772834370965245 0.003675007045828219 0.016788006429659882 -0.0006554693958699338 -0.005239870665155314 0.0007481983721728101 0.008280846210254569
 0.0007568842155919314 0.008279811403554074 -0.0006554693958699338 -0.005239870665155314 0.0036736618944015168 0.016788951397557282 0.9956683385461688 -0.04077199849709092
 -0.000655503559637835 -0.005239871797625395 0.0007481983721728101 0.008280846210254569 0.9956683385461688 -0.04077199849709092 0.0036749605921714665 0.01678884426295762
0.06877865777407 0.003973610821806404 0.018567091853912667 0.9952707380381955 -0.04492475201527646 0.0008759192420433303 0.009111013653559161 -0.0007560225649463708 -0.005769229735275159
 0.9952707380381955 -0.04492475201527646 0.003975347564934796 0.018566946822774544 -0.000755981407885701 -0.005769228801460973 0.0008654052826927217 0.009112284351046572
 0.0008759192420433303 0.009111013653559161 -0.000755981407885701 -0.005769228801460973 0.003973720040755749 0.018567992190444704 0.995270765947587 -0.04492383229241279
 -0.0007560225649463708 -0.005769229735275159 0.0008654052826927217 0.009112284351046572 0.995270765947587 -0.04492383229241279 0.003975290826909804 0.0185678680181403
0.07503126302626001 0.004290628581581996 0.020362329133803425 0.9948504854519458 -0.049090600029769636 0.0010042639136737578 0.009942386711243546 -0.0008643414633855243 -0.006299030228326342
 0.9948504854519458 -0.049090600029769636 0.004292695056211246 0.020362161800330174 -0.0008642926889560061 -0.006299029567569527 0.0009917461330043505 0.009943926265309001
 0.0010042639136737578 0.009942386711243546 -0.0008642926889560061 -0.006299029567569527 0.004290758250538873 0.020363308768829642 0.9948505184256253 -0.04908959634142804
 -0.0008643414633855243 -0.006299030228326342 0.0009917461330043505 0.009943926265309001 0.9948505184256253 -0.04908959634142804 0.004292626961315743 0.020363166250068697
0.08128386827845 0.004624927255459445 0.022173541772362255 0.9944072646238858 -0.053270250595248474 0.0011420001862133913 0.010773804350898331 -0.0009805445163146625 -0.006829143639861119
 0.9944072646238858 -0.053270250595248474 0.004627352142479944 0.02217335030004853 -0.0009804875061542751 -0.006829143330841099 0.0011273026076790388 0.010775648029370604
 0.0011420001862133913 0.010773804350898331 -0.0009804875061542751 -0.006829143330841099 0.004625079118252799 0.02217460010099589 0.9944073031032648 -0.0532691628096706
 -0.0009805445163146625 -0.006829143639861119 0.0011273026076790388 0.010775648029370604 0.9944073031032648 -0.0532691628096706 0.004627271605503756 0.022174437887093494
0.08753647353064001 0.004976807588604323 0.024000436713403656 0.9939407834612868 -0.05746355677150656 0.0012892080790321593 0.011605136622147953 -0.001104713922886071 -0.007359438377515013
 0.9939407834612868 -0.05746355677150656 0.004979619598448984 0.024000219190135143 -0.0011046480641955481 -0.007359438503158959 0.001272154481559898 0.011607322018975103
 0.0012892080790321593 0.011605136622147953 -0.0011046480641955481 -0.007359438503158959 0.004976983383712602 0.024001573085475802 0.9939408278941211 -0.05746238474273502
 -0.001104713922886071 -0.007359438377515013 0.001272154481559898 0.011607322018975103 0.9939408278941211 -0.05746238474273502 0.004979525521031042 0.024001389787044455
0.09378907878283 0.005346568425702186 0.025842725867246067 0.9934507508695277 -0.0616703554174898 0.0014459655762882983 0.012436250062346735 -0.0012369297459729218 -0.007889780715283307
 0.9934507508695277 -0.0616703554174898 0.005349796303695541 0.0258424803039058 -0.0012368544313640349 -0.007889781362719813 0.001426379523223394 0.012438817121255821
 0.0014459655762882983 0.012436250062346735 -0.0012368544313640349 -0.007889781362719813 0.005346769885534652 0.025843939588596647 0.9934508017109894 -0.06166909898379653
 -0.0012369297459729218 -0.007889780715283307 0.001426379523223394 0.012438817121255821 0.9934508017109894 -0.06166909898379653 0.005349687574368061 0.025843733774682926
0.100041684035 0.005734506643011728 0.027700123958779795 0.992936876943122 -0.06589046930409691 0.0016123485299139614 0.01326700785420011 -0.0013772698352969633 -0.008420034675226246
 0.992936876943122 -0.06589046930409691 0.005738179174765449 0.027699848287734828 -0.0013771844627358633 -0.008420035935742521 0.0015900533997631828 0.013269998891916102
 0.0016123485299139614 0.01326700785420011 -0.0013771844627358633 -0.008420035935742521 0.005734735492974865 0.02770141428800942 0.9929369346559 -0.06588912829101615
 -0.0013772698352969633 -0.008420034675226246 0.0015900533997631828 0.013269998891916102 0.9929369346559 -0.06588912829101615 0.005738054668205754 0.02770118448501324
0.1059090909091 0.006115340298243974 0.02945658340150574 0.9924327202920774 -0.06986253981234389 0.0017773011446840217 0.014046137766853985 -0.0015164203912011304 -0.008917418216945982
 0.9924327202920774 -0.06986253981234389 0.006119456311121218 0.02945627752560723 -0.0015163250373548026 -0.008917420139485665 0.001752303061939827 0.014049567284175751
 0.0017773011446840217 0.014046137766853985 -0.0015163250373548026 -0.008917420139485665 0.0061155964128352955 0.02945794490649301 0.9924327848812113 -0.06986111925657458
 -0.0015164203912011304 -0.008917418216945982 0.001752303061939827 0.014049567284175751 0.9924327848812113 -0.06986111925657458 0.006119315963683116 0.029457691212860303
0.1062942892872 0.0061409170667533555 0.02957234689603704 0.9923988731463234 -0.07012370871237716 0.001788430564263723 0.014097269957538903 -0.0015258097478253474 -0.008950061940189297
 0.9923988731463234 -0.07012370871237716 0.006145063083511797 0.029572038969375384 -0.0015257137204333637 -0.008950063909210293 0.001763249583521397 0.014100729686573834
 0.001788430564263723 0.014097269957538903 -0.0015257137204333637 -0.008950063909210293 0.00614117502414002 0.029573713048137405 0.992398938201643 -0.0701222829289289
 -0.0015258097478253474 -0.008950061940189297 0.001763249583521397 0.014100729686573834 0.992398938201643 -0.0701222829289289 0.00614492166076868 0.029573457738421988
0.11254689453939999 0.006566092379081531 0.0314591105358312 0.9918364524839324 -0.07436987264062418 0.0019742829821586183 0.014926893211009259 -0.0016826226661422973 -0.009479721802122214
 0.9918364524839324 -0.07436987264062418 0.006570740763318874 0.031458768123331864 -0.0016825153921287857 -0.009479724579170823 0.001946039259465988 0.014930868761796764
 0.0019742829821586183 0.014926893211009259 -0.0016825153921287857 -0.009479724579170823 0.00656638115193077 0.03146055167851326 0.9918365253615151 -0.0743683618827891
 -0.0016826226661422973 -0.009479721802122214 0.001946039259465988 0.014930868761796764 0.9918365253615151 -0.0743683618827891 0.006570581271014261 0.03146026929882447
0.11879949979160001 0.007010323015556606 0.033360129715852206 0.9912493296667256 -0.07862874975142106 0.002169974671467141 0.015755731425011132 -0.0018477793155602764 -0.010008871124424938
 0.9912493296667256 -0.07862874975142106 0.007015502706190239 0.033359750502808004 -0.0018476602081502242 -0.0100088748130912 0.002138491233254273 0.01576027236765048
 0.002169974671467141 0.015755731425011132 -0.0018476602081502242 -0.0100088748130912 0.007010644301788681 0.03336164497041836 0.9912494108559275 -0.07862715380119938
 -0.0018477793155602764 -0.010008871124424938 0.002138491233254273 0.01576027236765048 0.9912494108559275 -0.07862715380119938 0.0070153239764707215 0.033361333910080664
0.1250521050438 0.0074738970552397374 0.03527511749789178 0.9906372212728782 -0.08290011911394908 0.002375572012216025 0.0165836354599552 -0.0020213478802759955 -0.01053736432475677
 0.9906372212728782 -0.08290011911394908 0.007479637053218115 0.0352746990825711 -0.00202121635755734 -0.010537369032656141 0.0023406718396317564 0.016588793825269604
 0.002375572012216025 0.0165836354599552 -0.00202121635755734 -0.010537369032656141 0.007474252541758146 0.0352767059383128 0.9906373112731075 -0.08289843774015786
 -0.0020213478802759955 -0.01053736432475677 0.0023406718396317564 0.016588793825269604 0.9906373112731075 -0.08289843774015786 0.007479437903408927 0.035276364537140836
0.131304710296 0.007957100105105176 0.03720378456198893 0.9899998459057114 -0.08718375080201016 0.002591138784538894 0.017410453300726447 -0.002203393918151744 -0.01106505336712205
 0.9899998459057114 -0.08718375080201016 0.007963429478897027 0.03720332445300046 -0.002203249403018075 -0.011065059205903728 0.0025526448517408738 0.01741628360071034
 0.002591138784538894 0.017410453300726447 -0.002203249403018075 -0.011065059205903728 0.007957491466351257 0.03720544521728387 0.9899999452268058 -0.08718198375793426
 -0.002203393918151744 -0.01106505336712205 0.0025526448517408738 0.01741628360071034 0.9899999452268058 -0.08718198375793426 0.007963208711073576 0.037205071763258366
0.1375573155481 0.00834953642841832 0.03889427119253814 0.9894476462558509 -0.09122772653947929 0.002789728506420571 0.01821088256332719 -0.0023670213290889522 -0.011566623083451046
 0.9894476462558509 -0.09122772653947929 0.008356485128838454 0.03889377585141288 -0.0023668627899717087 -0.0115666300529811 0.002747554040653085 0.01821737639652803
 0.002789728506420571 0.01821088256332719 -0.0023668627899717087 -0.0115666300529811 0.008349964532158754 0.03889600355996548 0.9894477553270649 -0.09122587369153601
 -0.0023670213290889522 -0.011566623083451046 0.002747554040653085 0.01821737639652803 0.9894477553270649 -0.09122587369153601 0.008356242495344442 0.038895604535207344
0.1438099208003 0.008755785259340454 0.0405758135505945 0.988876012997877 -0.09526141090722433 0.0029963415943820263 0.019008029028625577 -0.0025371927435334308 -0.012065200555523955
 0.988876012997877 -0.09526141090722433 0.00876338254494728 0.04057528099697536 -0.002537019528554599 -0.01206520877001141 0.0029503258644206286 0.019015236212538717
 0.0029963415943820263 0.019008029028625577 -0.002537019528554599 -0.01206520877001141 0.00875625161691748 0.04057761666549601 0.98887613232752 -0.09525947201805719
 -0.0025371927435334308 -0.012065200555523955 0.0029503258644206286 0.019015236212538717 0.98887613232752 -0.09525947201805719 0.008763116998594748 0.040577190807028304
0.1500625260525 0.009175703000353364 0.042248269921548155 0.9882850938524788 -0.0992847024340699 0.003210906520496664 0.019801809830220497 -0.002713838986750092 -0.012560708045351542
 0.9882850938524788 -0.0992847024340699 0.009183978190754205 0.0422476980588685 -0.0027136504432413774 -0.012560717623950798 0.003160889833829096 0.019809781982379183
 0.003210906520496664 0.019801809830220497 -0.0027136504432413774 -0.012560717623950798 0.009176209101703142 0.04225014278450203 0.9882852239579228 -0.09928267725564727
 -0.002713838986750092 -0.012560708045351542 0.003160889833829096 0.019809781982379183 0.9882852239579228 -0.09928267725564727 0.009183688680937614 0.042249688738882456
0.15631513130469998 0.009609145027821281 0.04391150286994677 0.9876750372993621 -0.10329750003477672 0.0034333509029683164 0.020592143513649977 -0.0028968900262342804 -0.013053069466095947
 0.9876750372993621 -0.10329750003477672 0.009618127505627074 0.04391088948227485 -0.002896685500689745 -0.013053080532951336 0.0033791746231137676 0.02060093403085548
