! Created with skrf 1.8.0 (http://scikit-rf.org).
# GHz S RI R 50.0 
!freq ReS11 ImS11 ReS12 ImS12 ReS13 ImS13
! ReS14 ImS14
! ReS21 ImS21 ReS22 ImS22 ReS23 ImS23
! ReS24 ImS24
! ReS31 ImS31 ReS32 ImS32 ReS33 ImS33
! ReS34 ImS34
! ReS41 ImS41 ReS42 ImS42 ReS43 ImS43
! ReS44 ImS44
!
0.0 0.001560246119759 0.0 0.9984397538663 0.0 6.020161117821e-05 0.0 -6.020161094047e-05 7.372571014176086e-21
 0.9984397538663 0.0 0.001560246119721 0.0 -6.020161093992e-05 7.372571014108732e-21 6.020161117956e-05 0.0
 6.020161117821e-05 0.0 -6.020161093992e-05 7.372571014108732e-21 0.00156024611126 0.0 0.9984397538578 0.0
 -6.020161094047e-05 7.372571014176086e-21 6.020161117956e-05 0.0 0.9984397538578 0.0 0.001560246111252 0.0
0.005 0.0016787482483072453 0.0012764912667659848 0.9982898370584364 -0.0032682728184046956 8.429708756151786e-05 0.0006623561055055703 -8.191885444578005e-05 -0.00041590046069071347
 0.9982898370584364 -0.0032682728184046956 0.001678743364656155 0.0012764940511766558 -8.191783926794843e-05 -0.00041589963167673095 8.433826561088218e-05 0.0006623405201854527
 8.429708756151786e-05 0.0006623561055055703 -8.191783926794843e-05 -0.00041589963167673095 0.0016787493776569485 0.001276557840680025 0.9982898374183325 -0.0032682057426290574
 -8.191885444578005e-05 -0.00041590046069071347 8.433826561088218e-05 0.0006623405201854527 0.9982898374183325 -0.0032682057426290574 0.0016787429463951536 0.0012765616202340846
0.006252605252188 0.0017098432373581786 0.0016006327849592895 0.9982502514735955 -0.004086137900838683 9.117346760216982e-05 0.0008282664993625259 -8.805510221012591e-05 -0.0005204121244744814
 0.9982502514735955 -0.004086137900838683 0.001709835603642681 0.0016006363012979676 -8.805352289399909e-05 -0.000520411101280778 9.123780541937558e-05 0.0008282462463184928
 9.117346760216982e-05 0.0008282664993625259 -8.805352289399909e-05 -0.000520411101280778 0.0017098449214128556 0.0016007159666320248 0.9982502519545886 -0.0040860540820389065
 -8.805510221012591e-05 -0.0005204121244744814 9.123780541937558e-05 0.0008282462463184928 0.9982502519545886 -0.0040860540820389065 0.0017098348676807553 0.0016007207382829581
0.01250521050438 0.0018736237875688028 0.0032347675691788186 0.9980403799544344 -0.008173061082929497 0.00013056876456241944 0.0016568975044639305 -0.00012289626592181202 -0.0010433362673923144
 0.9980403799544344 -0.008173061082929497 0.001873593313911727 0.0032347749484906343 -0.0001228900467052014 -0.001043334363960049 0.00013082536067317703 0.0016568486808242382
 0.00013056876456241944 0.0016568975044639305 -0.0001228900467052014 -0.001043334363960049 0.001873629987918633 0.00323493358276336 0.9980403813473505 -0.00817289366185611
 -0.00012289626592181202 -0.0010433362673923144 0.00013082536067317703 0.0016568486808242382 0.9980403813473505 -0.00817289366185611 0.0018735898366943008 0.0032349436024404817
0.01875781575657 0.0020519488795262835 0.004892129349891329 0.9978098758462699 -0.012270711994983904 0.00017848026128780073 0.0024864450140798366 -0.00016483300318798975 -0.001568018489048191
 0.9978098758462699 -0.012270711994983904 0.002051880420420498 0.0048921409366703 -0.00016481914067190557 -0.0015680158746009902 0.00017905674918341816 0.0024863576794540874
 0.00017848026128780073 0.0024864450140798366 -0.00016481914067190557 -0.0015680158746009902 0.0020519623981066814 0.004892377894006142 0.9978098785579752 -0.012270461047331588
 -0.00016483300318798975 -0.001568018489048191 0.00017905674918341816 0.0024863576794540874 0.9978098785579752 -0.012270461047331588 0.0020518721649760924 0.004892393683881069
0.02501042100875 0.0022451687444163754 0.006570394155125323 0.9975584651634998 -0.0163810710533534 0.00023500161952606633 0.0033169413909833237 -0.00021396967709285175 -0.00209421847613844
 0.9975584651634998 -0.0163810710533534 0.0022450471940965366 0.006570410285115894 -0.00021394520594013604 -0.0020942153493006817 0.000236025719298871 0.003316804032991657
 0.00023500161952606633 0.0033169413909833237 -0.00021394520594013604 -0.0020942153493006817 0.0022451923899848704 0.0065707249167141005 0.9975584696121329 -0.01638073657463406
 -0.00021396967709285175 -0.00209421847613844 0.000236025719298871 0.003316804032991657 0.9975584696121329 -0.01638073657463406 0.0022450321230049705 0.006570747036560192
0.03126302626094 0.0024536191552720246 0.008268363228699215 0.997285860076247 -0.020504982424364448 0.00030022679115982066 0.004148342737444356 -0.00027040768336607354 -0.0026217662188468475
 0.997285860076247 -0.020504982424364448 0.0024534294379913966 0.008268384226727824 -0.00027036966983161364 -0.0026217628079946817 0.0003018264225735596 0.0041481422615988525
 0.00030022679115982066 0.004148342737444356 -0.00027036966983161364 -0.0026217628079946817 0.002453655731772578 0.008268775835579978 0.9972858666810224 -0.020504564376968758
 -0.00027040768336607354 -0.0026217662188468475 0.0003018264225735596 0.0041481422615988525 0.9972858666810224 -0.020504564376968758 0.002453405500170822 0.008268804880857615
0.037515631513130004 0.0026776285855236227 0.009985252828663508 0.9969917663079617 -0.024642864163216305 0.0003742491654214218 0.004980574958031066 -0.00033424617017490505 -0.003150515957646084
 0.9969917663079617 -0.024642864163216305 0.0026773556484962196 0.009985279007249562 -0.00033419170882617523 -0.003150512520979612 0.0003765524970426984 0.004980296671473509
 0.0003742491654214218 0.004980574958031066 -0.00033419170882617523 -0.003150512520979612 0.002677680897820168 0.009985746837338997 0.9969917754955707 -0.02464236248800929
 -0.00033424617017490505 -0.003150515957646084 0.0003765524970426984 0.004980296671473509 0.9969917754955707 -0.02464236248800929 0.0026773207837794493 0.009985783438436174
0.043768236765320004 0.002917520989865761 0.01172047808310777 0.9966758861541737 -0.028794924286639656 0.0004571611599912931 0.005813547766706109 -0.0004055822955497425 -0.0036803321819251817
 0.9966758861541737 -0.028794924286639656 0.002917149797160845 0.011720509741243453 -0.00040550850725705055 -0.0036803290074514335 0.00046029663038293965 0.0058131753600443445
 0.0004571611599912931 0.005813547766706109 -0.00040550850725705055 -0.0036803290074514335 0.0029175918367032724 0.01172105299563781 0.9966758983536383 -0.028794338885468108
 -0.0004055822955497425 -0.0036803321819251817 0.00046029663038293965 0.0058131753600443445 0.9966758983536383 -0.028794338885468108 0.0029171019291587704 0.011721097817371042
0.050020842017509996 0.003173617081088667 0.013473563697970444 0.9963379200010396 -0.03296124999167293 0.0005490539724838356 0.006647160477012824 -0.00048451131599922356 -0.004211083846570981
 0.9963379200010396 -0.03296124999167293 0.003173132608099292 0.013473601120204537 -0.000484415346652618 -0.004211081252063687 0.0005531502970244871 0.006646676005456048
 0.0005490539724838356 0.006647160477012824 -0.000484415346652618 -0.004211081252063687 0.00317370925855971 0.01347421894125026 0.9963379356485694 -0.032960580747472885
 -0.00048451131599922356 -0.004211083846570981 0.0005531502970244871 0.006646676005456048 0.9963379356485694 -0.032960580747472885 0.0031730696474518367 0.013474272682697954
0.055454545454549996 0.0034095788548694876 0.015011233755489344 0.996026047178711 -0.036593508010792405 0.0006362749119618551 0.007372030949253187 -0.0005593419500951572 -0.004672982300486207
 0.996026047178711 -0.036593508010792405 0.003408983741043432 0.015011276406148513 -0.0005592244056336639 -0.004672980491143793 0.0006413109939192622 0.007371433231984284
 0.0006362749119618551 0.007372030949253187 -0.0005592244056336639 -0.004672980491143793 0.0034096918360358146 0.01501195829088528 0.9960260661822574 -0.03659276578815199
 -0.0005593419500951572 -0.004672982300486207 0.0006413109939192622 0.007371433231984284 0.9960260661822574 -0.03659276578815199 0.003408905955438065 0.015012020378152791
0.056273447269699996 0.0034462349896410265 0.015244100099106202 0.9959775672292667 -0.03714185144172211 0.0006500174002351378 0.007481304842918303 -0.0005711266023685547 -0.004742641540766607
 0.9959775672292667 -0.03714185144172211 0.0034456222180494355 0.015244143554722747 -0.0005710056220161054 -0.0047426398737205645 0.0006552035688900083 0.007480688707109629
 0.0006500174002351378 0.007481304842918303 -0.0005710056220161054 -0.0047426398737205645 0.003446351288418645 0.015244835034489214 0.9959775867676154 -0.03714109820826269
 -0.0005711266023685547 -0.004742641540766607 0.0006552035688900083 0.007480688707109629 0.9959775867676154 -0.03714109820826269 0.003445542059502672 0.015244898428938886
0.06252605252188 0.0037356906132625586 0.0170317193327999 0.9955945268131189 -0.04133668579708313 0.0007601396958134515 0.008315866622342604 -0.0006655196164121285 -0.005274875937812449
 0.9955945268131189 -0.04133668579708313 0.0037349345258271254 0.017031769075230338 -0.0006653708186384002 -0.005274875575381073 0.0007665449653204842 0.008315097549125896
 0.0007601396958134515 0.008315866622342604 -0.0006653708186384002 -0.005274875575381073 0.0037358338186603435 0.017032533249256573 0.9955945506931643 -0.04133584840532589
 -0.0006655196164121285 -0.005274875937812449 0.0007665449653204842 0.008315097549125896 0.9955945506931643 -0.04133584840532589 0.003734835048422409 0.01703260706443476
0.06877865777407 0.004042297796960291 0.018836080703311917 0.9951884977529275 -0.04554567151254891 0.0008795074407991681 0.009150726513894066 -0.0007677798668201412 -0.005807656875922789
 0.9951884977529275 -0.04554567151254891 0.004041383372711783 0.01883613696960462 -0.0007676004683062562 -0.0058076582248662925 0.0008872613222364232 0.009149781537155904
 0.0008795074407991681 0.009150726513894066 -0.0007676004683062562 -0.0058076582248662925 0.004042470686646629 0.018836972819807573 0.9951885264336405 -0.04554474976768507
 -0.0007677798668201412 -0.005807656875922789 0.0008872613222364232 0.009149781537155904 0.9951885264336405 -0.04554474976768507 0.004041262437743382 0.018837057858056706
0.07503126302626001 0.004366368415441051 0.02065686165775323 0.9947591794141595 -0.04976869739212791 0.0010082054311623717 0.009985760755796009 -0.0008779948511410453 -0.006340852781386528
 0.9947591794141595 -0.04976869739212791 0.004365280624291614 0.020656924668322526 -0.0008777820913659967 -0.006340856277993609 0.0010174376745132167 0.009984615197473217
 0.0010082054311623717 0.009985760755796009 -0.0008777820913659967 -0.006340856277993609 0.004366573759214032 0.020657831122650308 0.9947592133639872 -0.04976769107364267
 -0.0008779948511410453 -0.006340852781386528 0.0010174376745132167 0.009984615197473217 0.9947592133639872 -0.04976769107364267 0.0043651360752155295 0.02065792822159421
0.08128386827845 0.004708212391547662 0.02249375172791512 0.9943062718063741 -0.05400562859198508 0.0011463165691226968 0.010820841528119352 -0.0009962499892783618 -0.006874330293229348
 0.9943062718063741 -0.05400562859198508 0.004706936189731048 0.02249382168636033 -0.000996001130326511 -0.006874336403254472 0.0011571571455845115 0.010819468979410987
 0.0011463165691226968 0.010820841528119352 -0.000996001130326511 -0.006874336403254472 0.004708452950031146 0.02249479761588908 0.9943063115043796 -0.05400453745638107
 -0.0009962499892783618 -0.006874330293229348 0.0011571571455845115 0.010819468979410987 0.9943063115043796 -0.05400453745638107 0.004706765850971883 0.022494907648993995
0.08753647353064001 0.00506813767379003 0.024346448343032182 0.9938294758253889 -0.058256310757887064 0.0012939217600789962 0.011655837237250914 -0.00112262855041513 -0.007407954010649707
 0.9938294758253889 -0.058256310757887064 0.005066657998657683 0.024346525436140538 -0.0011223408768318874 -0.007407963229247373 0.0013065008422261134 0.011654209540014792
 0.0012939217600789962 0.011655837237250914 -0.0011223408768318874 -0.007407963229247373 0.005068416197304989 0.024347569655133367 0.9938295217618279 -0.05825513453812465
 -0.00112262855041513 -0.007407954010649707 0.0013065008422261134 0.011654209540014792 0.9938295217618279 -0.05825513453812465 0.0050664596748341605 0.024347693532491266
0.09378907878283 0.00544645018508655 0.026214653835183028 0.9933284934693479 -0.06252057297565647 0.0014510998120297219 0.01249061272658858 -0.001257211575970693 -0.007941586319368312
 0.9933284934693479 -0.06252057297565647 0.0054447519500136704 0.02621473823310221 -0.001256882394632234 -0.007941599171009867 0.0014655477522088783 0.01248869995517308
 0.0014510998120297219 0.01249061272658858 -0.001256882394632234 -0.007941599171009867 0.0054467694119041095 0.02621584949999697 0.9933285461465171 -0.06251931137971635
 -0.001257211575970693 -0.007941586319368312 0.0014655477522088783 0.01248869995517308 0.9933285461465171 -0.06251931137971635 0.005444523424890348 0.026215988169378434
0.100041684035 0.005843453750072377 0.028098073250092812 0.9928030280378409 -0.06679822992232287 0.001617927337105874 0.013325029437938637 -0.0014000777991072637 -0.008475087272663426
 0.9928030280378409 -0.06679822992232287 0.005841521839487702 0.02809816510670373 -0.0013997044392696867 -0.008475104311064848 0.0016343746441928946 0.013322799881243057
 0.001617927337105874 0.013325029437938637 -0.0013997044392696867 -0.008475104311064848 0.005843816405881953 0.028099342121084024 0.9928030879714133 -0.06679688263547298
 -0.0014000777991072637 -0.008475087272663426 0.0016343746441928946 0.013322799881243057 0.9928030879714133 -0.06679688263547298 0.005841260875119539 0.028099496569097427
0.1059090909091 0.006233267523973205 0.02987903770319901 0.9922874043845077 -0.07082436330649151 0.0017833195976214653 0.014107588417696776 -0.001541744110705806 -0.008975475084950347
 0.9922874043845077 -0.07082436330649151 0.006231102555803153 0.029879136684938416 -0.0015413268848743856 -0.008975496581767398 0.0018017619131481793 0.014105031144786808
 0.0017833195976214653 0.014107588417696776 -0.0015413268848743856 -0.008975496581767398 0.006233673399160501 0.02988037416230785 0.9922874716085044 -0.07082293529962778
 -0.001541744110705806 -0.008975475084950347 0.0018017619131481793 0.014105031144786808 0.9922874716085044 -0.07082293529962778 0.006230809095048805 0.029880544349935756
0.1062942892872 0.006259450008151078 0.029996412699209992 0.992252784319745 -0.0710890834821962 0.0017944786541351527 0.014158945540521538 -0.0015513035619445972 -0.009008314510275024
 0.992252784319745 -0.0710890834821962 0.006257269272274192 0.029996512152663007 -0.0015508833751587262 -0.009008336318321304 0.0018130559695129329 0.014156365684389377
 0.0017944786541351527 0.014158945540521538 -0.0015508833751587262 -0.009008336318321304 0.00625985880402676 0.029997753556874143 0.9922528520390893 -0.07108765016466986
 -0.0015513035619445972 -0.009008314510275024 0.0018130559695129329 0.014156365684389377 0.9922528520390893 -0.07108765016466986 0.0062569736080458375 0.02999792481027904
0.11254689453939999 0.006694738313589459 0.03190937810724116 0.9916774687710865 -0.07539292397405305 0.0019808256927551626 0.014992216035896535 -0.0017109627306683686 -0.009541123206918911
 0.9916774687710865 -0.07539292397405305 0.006692293563288282 0.03190948528065576 -0.001710493090878705 -0.00954115039656572 0.002001663764565942 0.014989250545992434
 0.0019808256927551626 0.014992216035896535 -0.001710493090878705 -0.00954115039656572 0.006695195945284093 0.031910789655541824 0.9916775448207169 -0.07539140426435353
 -0.0017109627306683686 -0.009541123206918911 0.002001663764565942 0.014989250545992434 0.9916775448207169 -0.07539140426435353 0.006691960915061608 0.03191097878279836
0.11879949979160001 0.007149615627611315 0.03383667423028021 0.9910767896884867 -0.07970953111419851 0.002177037897710265 0.01582469285185686 -0.0018791266092740995 -0.01007336603770602
 0.9910767896884867 -0.07970953111419851 0.007146891629251801 0.033836789232641905 -0.0018786049128024355 -0.010073399249903525 0.0022002675546327803 0.015821304556840218
 0.002177037897710265 0.01582469285185686 -0.0018786049128024355 -0.010073399249903525 0.007150124773728422 0.03383815509920099 0.9910768746290237 -0.07970792462645852
 -0.0018791266092740995 -0.01007336603770602 0.0022002675546327803 0.015821304556840218 0.9910768746290237 -0.07970792462645852 0.007146519688583658 0.03383836321216197
0.1250521050438 0.0076243764025328625 0.03577800389609681 0.9904504573770521 -0.08403867476445931 0.0023831821341689756 0.016656224922530324 -0.002055863852401834 -0.010604893162947781
 0.9904504573770521 -0.08403867476445931 0.007621357872588089 0.03577812682337852 -0.002055287518080067 -0.010604933067564654 0.002408934257438962 0.0166523747977957
 0.0023831821341689756 0.016656224922530324 -0.002055287518080067 -0.010604933067564654 0.007624939723647862 0.035779552640224976 0.9904505517862144 -0.08403698108973948
 -0.002055863852401834 -0.010604893162947781 0.002408934257438962 0.0166523747977957 0.9904505517862144 -0.08403698108973948 0.007620944305613656 0.035779780896074954
0.131304710296 0.008119312459949233 0.03773306738316571 0.9897981843155347 -0.08838011554840433 0.002599322593080226 0.017486658263387002 -0.0022412403769221513 -0.011135552224320019
 0.9897981843155347 -0.08838011554840433 0.008115984059707499 0.03773319831962343 -0.0022406068461484838 -0.011135599519993477 0.002627728088481721 0.017482305415090254
 0.002599322593080226 0.017486658263387002 -0.0022406068461484838 -0.011135599519993477 0.008119932596692084 0.037734682481629936 0.9897982887885239 -0.08837833425468697
 -0.0022412403769221513 -0.011135552224320019 0.002627728088481721 0.017482305415090254 0.9897982887885239 -0.08837833425468697 0.008115526506347696 0.037734932084964735
0.1375573155481 0.008522035838456015 0.03944688147735535 0.9892324093867191 -0.09247880149730978 0.0027982751165091333 0.01829046294896061 -0.002408044170712294 -0.011639857287427367
 0.9892324093867191 -0.09247880149730978 0.008518379477880105 0.03944701718375757 -0.0024073495064653844 -0.01163991203169944 0.002829396089321105 0.018285613358445318
 0.0027982751165091333 0.01829046294896061 -0.0024073495064653844 -0.01163991203169944 0.008522714715362168 0.0394485618288858 0.989232524393825 -0.0924769323202392
 -0.002408044170712294 -0.011639857287427367 0.002829396089321105 0.018285613358445318 0.989232524393825 -0.0924769323202392 0.008517876512072666 0.03944883006543955
0.1438099208003 0.008938962145460529 0.041151532417608425 0.9886466837790734 -0.09656695737178186 0.0030052533438442025 0.01909095605499953 -0.002581515120095113 -0.012141094227940772
 0.9886466837790734 -0.09656695737178186 0.008934961956893795 0.04115167286404595 -0.0025807565483525613 -0.012141157112089289 0.003039208310327652 0.019085572346736343
 0.0030052533438442025 0.01909095605499953 -0.0025807565483525613 -0.012141157112089289 0.008939702246445943 0.04115327647266515 0.9886468099161592 -0.09656499988506091
 -0.002581515120095113 -0.012141094227940772 0.003039208310327652 0.019085572346736343 0.9886468099161592 -0.09656499988506091 0.008934411348564647 0.041153564402154105
0.1500625260525 0.00936994290869224 0.04284687347708676 0.9880411601966252 -0.10064447729399485 0.0032201846192677804 0.019888054205167042 -0.0027615819648378103 -0.012639183099048962
 0.9880411601966252 -0.10064447729399485 0.009365582949618331 0.04284701866266837 -0.0027607567167596677 -0.012639254842179764 0.003257091322832736 0.019882097652311883
 0.0032201846192677804 0.019888054205167042 -0.0027607567167596677 -0.012639254842179764 0.009370746690176335 0.042848679622827256 0.9880412980746192 -0.10064243105758998
 -0.0027615819648378103 -0.012639183099048962 0.003257091322832736 0.019882097652311883 0.9880412980746192 -0.10064243105758998 0.00936498245392257 0.04284898837713625
0.15631513130469998 0.009814828581253005 0.044532762337315304 0.9874159921433737 -0.10471125585070083 0.003442995418181395 0.02068167547304986 -0.0029481725548965265 -0.013134045664257453
