! Created with skrf 1.8.0 (http://scikit-rf.org).
# GHz S RI R 50.0 
!freq ReS11 ImS11 ReS12 ImS12 ReS13 ImS13
! ReS14 ImS14
! ReS21 ImS21 ReS22 ImS22 ReS23 ImS23
! ReS24 ImS24
! ReS31 ImS31 ReS32 ImS32 ReS33 ImS33
! ReS34 ImS34
! ReS41 ImS41 ReS42 ImS42 ReS43 ImS43
! ReS44 ImS44
!
0.0 0.001690348553784 0.0 0.9983096514462 0.0 6.533963362277e-05 0.0 -6.533963424516e-05 8.001797393579399e-21
 0.9983096514462 0.0 0.001690348553801 0.0 -6.533963424497e-05 8.00179739355613e-21 6.533963362388e-05 0.0
 6.533963362277e-05 0.0 -6.533963424497e-05 8.00179739355613e-21 0.001690348548103 0.0 0.9983096514405 0.0
 -6.533963424516e-05 8.001797393579399e-21 6.533963362388e-05 0.0 0.9983096514405 0.0 0.001690348548128 0.0
0.005 0.0018191271781666575 0.001384441215799974 0.998146679984778 -0.0035401773417754676 9.141046317442127e-05 0.0007080383586535016 -8.890372311744271e-05 -0.0004464014423899859
 0.998146679984778 -0.0035401773417754676 0.0018191105441860073 0.0013844509126580966 -8.889975885173852e-05 -0.0004463983931431882 9.153300276148076e-05 0.0007079917870175476
 9.141046317442127e-05 0.0007080383586535016 -8.889975885173852e-05 -0.0004463983931431882 0.00181912887832052 0.0013843729117114473 0.998146679607136 -0.0035402444000440536
 -8.890372311744271e-05 -0.0004464014423899859 9.153300276148076e-05 0.0007079917870175476 0.998146679607136 -0.0035402444000440536 0.001819108093720585 0.0013843851035135637
0.006252605252188 0.0018530424114121026 0.001735968827061775 0.9981034741608518 -0.004426064522780716 9.890382251047565e-05 0.0008853895800973096 -9.5615381431494e-05 -0.000558567934911191
 0.9981034741608518 -0.004426064522780716 0.0018530164093887205 0.001735981131764805 -9.560921276889172e-05 -0.0005585641759110286 9.909527931441967e-05 0.0008853290621998779
 9.890382251047565e-05 0.0008853895800973096 -9.560921276889172e-05 -0.0005585641759110286 0.0018530451630152985 0.0017358834398579148 0.9981034736639176 -0.0044261483499448764
 -9.5615381431494e-05 -0.000558567934911191 9.909527931441967e-05 0.0008853290621998779 0.9981034736639176 -0.0044261483499448764 0.0018530126720563013 0.0017358988723142211
0.01250521050438 0.0020323968172666815 0.003508019881075094 0.9978734183822506 -0.008852762891642666 0.00014211615838868627 0.0017711313574252613 -0.0001340107595227612 -0.001119741966274515
 0.9978734183822506 -0.008852762891642666 0.0020322929907812507 0.0035080463227803124 -0.0001339864503051562 -0.001119735029036496 0.00014287966231628843 0.001770985336596056
 0.00014211615838868627 0.0017711313574252613 -0.0001339864503051562 -0.001119735029036496 0.0020324083395738164 0.003507849329825381 0.9978734169257658 -0.008852930287271065
 -0.0001340107595227612 -0.001119741966274515 0.00014287966231628843 0.001770985336596056 0.9978734169257658 -0.008852930287271065 0.0020322785917327338 0.003507882157406938
0.01875781575657 0.0022288319069089972 0.005304997007429776 0.997619177633523 -0.013290833149440417 0.00019508302749676387 0.0026577857691467235 -0.00018064926043864383 -0.0016827098189208377
 0.997619177633523 -0.013290833149440417 0.0022285986041032223 0.005305039511110267 -0.00018059505203244766 -0.0016827004065712052 0.00019679819062590583 0.0026575240514081356
 0.00019508302749676387 0.0026577857691467235 -0.00018059505203244766 -0.0016827004065712052 0.0022288582367639117 0.00530474129295669 0.9976191747845378 -0.013291084047133864
 -0.00018064926043864383 -0.0016827098189208377 0.00019679819062590583 0.0026575240514081356 0.9976191747845378 -0.013291084047133864 0.002228566667058155 0.005304793691049992
0.02501042100875 0.0024427537512477183 0.007124353895330294 0.9973404326007383 -0.017742389644990694 0.00025791128731293635 0.0035453664248367724 -0.00023564988963096915 -0.002247198510173517
 0.9973404326007383 -0.017742389644990694 0.0024423394208597815 0.007124414458909076 -0.00023555416540081643 -0.0022471874599263772 0.000260957857836417 0.0035449537633303425
 0.00025791128731293635 0.0035453664248367724 -0.00023555416540081643 -0.0022471874599263772 0.0024428009100000477 0.007124012984917849 0.997340427913172 -0.017742723985015082
 -0.00023564988963096915 -0.002247198510173517 0.000260957857836417 0.0035449537633303425 0.997340427913172 -0.017742723985015082 0.0024422830671193677 0.007124087316025249
0.03126302626094 0.002674551619130787 0.008964761860510423 0.9970368487563452 -0.02220831522052657 0.0003307076324448767 0.004433806238058696 -0.0002991279444580469 -0.0028130083560686378
 0.9970368487563452 -0.02220831522052657 0.0026739047783593452 0.008964842550084909 -0.00029897920606545376 -0.0028129966406031793 0.00033546582711648393 0.0044332023019330894
 0.0003307076324448767 0.004433806238058696 -0.00029897920606545376 -0.0028129966406031793 0.002674625630502033 0.008964335635327132 0.9970368417850299 -0.022208733002426092
 -0.0002991279444580469 -0.0028130083560686378 0.00033546582711648393 0.0044332023019330894 0.9970368417850299 -0.022208733002426092 0.002673817139026974 0.00896443444465509
0.037515631513130004 0.0029246060442292307 0.010825340649309827 0.9967080847520109 -0.026689030345225087 0.00041357768093294224 0.005323005834968526 -0.00037119579867341674 -0.0033799645953959895
 0.9967080847520109 -0.026689030345225087 0.002923675256325331 0.010825443596186627 -0.0003709826541092738 -0.0033799533232332975 0.00042042832416061755 0.005322165158968198
 0.00041357768093294224 0.005323005834968526 -0.0003709826541092738 -0.0033799533232332975 0.0029247129327559687 0.010824828971393478 0.9967080750494868 -0.026689531560487024
 -0.00037119579867341674 -0.0033799645953959895 0.00042042832416061755 0.005322165158968198 0.9967080750494868 -0.026689531560487024 0.002923549468137058 0.010824954985042745
0.043768236765320004 0.0031932919090888936 0.012705424438717566 0.9963537958259512 -0.031184727042495884 0.0005066255209811491 0.006212848298217179 -0.0004519631731305714 -0.003947902670326004
 0.9963537958259512 -0.031184727042495884 0.0031920257641172944 0.012705551837507656 -0.00045167432973727926 -0.003947893085915273 0.0005159501006924429 0.006211720226491471
 0.0005066255209811491 0.006212848298217179 -0.00045167432973727926 -0.003947893085915273 0.0031934377035684474 0.012704827109211586 0.9963537829442289 -0.03118531171583452
 -0.0004519631731305714 -0.003947902670326004 0.0005159501006924429 0.006211720226491471 0.9963537829442289 -0.03118531171583452 0.0031918549715408318 0.012704983233768305
0.050020842017509996 0.003480979875222894 0.014604465067156507 0.9959736355603575 -0.035695465585824246 0.0006099534284106272 0.007103205252748464 -0.0005415372150462328 -0.0045166621664388005
 0.9959736355603575 -0.035695465585824246 0.003479326972809245 0.014604619174484352 -0.000541161475091063 -0.004516655650154165 0.0006221341082220033 0.007101733880408285
 0.0006099534284106272 0.007103205252748464 -0.000541161475091063 -0.004516655650154165 0.0034811706071533584 0.01460378185865659 0.9959736190482319 -0.035696133742230574
 -0.0005415372150462328 -0.0045166621664388005 0.0006221341082220033 0.007101733880408285 0.9959736190482319 -0.035696133742230574 0.003479104326190847 0.014603971181451706
0.055454545454549996 0.003746706700110781 0.016269811756775006 0.9956219845626377 -0.039627632749555164 0.0007081750964213189 0.007877264163193376 -0.0006266131447674729 -0.005011474824757791
 0.9956219845626377 -0.039627632749555164 0.003744675945866704 0.016269990954886522 -0.0006261528667322369 -0.005011472201323583 0.0007231486910416126 0.007875444929448768
 0.0007081750964213189 0.007877264163193376 -0.0006261528667322369 -0.005011472201323583 0.003746941384892198 0.016269053691524864 0.9956219645263213 -0.039628373493718505
 -0.0006266131447674729 -0.005011474824757791 0.0007231486910416126 0.007875444929448768 0.9956219645263213 -0.039628373493718505 0.0037444026785031694 0.016269274512921095
0.056273447269699996 0.0037880371002562557 0.016521984589164655 0.9955672569290687 -0.0402212218736016 0.0007236616540004118 0.007993939865835286 -0.0006400224974035883 -0.005086083842612889
 0.9955672569290687 -0.0402212218736016 0.0037859460337384813 0.016522167722913893 -0.0006395487552838893 -0.005086081910691148 0.0007390812581163927 0.007992063979816461
 0.0007236616540004118 0.007993939865835286 -0.0006395487552838893 -0.005086081910691148 0.003788278804276986 0.01652121522517402 0.9955672363315612 -0.04022197355820337
 -0.0006400224974035883 -0.005086083842612889 0.0007390812581163927 0.007992063979816461 0.9955672363315612 -0.04022197355820337 0.0037856646892508398 0.016521441015193674
0.06252605252188 0.004114827607029039 0.018457549159862644 0.9951343130026842 -0.04476191347909852 0.0008478482465933681 0.008884908500571657 -0.0007475209760593978 -0.005656008012941586
 0.9951343130026842 -0.04476191347909852 0.0041122469471792066 0.018457763699191682 -0.0007469382164478843 -0.005656012317411696 0.0008668902269823566 0.00888256152038499
 0.0008478482465933681 0.008884908500571657 -0.0007469382164478843 -0.005656012317411696 0.004115126322628263 0.018456693325340088 0.9951342878618346 -0.04476274874603371
 -0.0007475209760593978 -0.005656008012941586 0.0008668902269823566 0.00888256152038499 0.9951342878618346 -0.04476274874603371 0.004111900068822281 0.018456959034823885
0.06877865777407 0.004461712464685786 0.02041075349033266 0.9946744574698034 -0.04931741513609441 0.0009826088983530977 0.009775961710364985 -0.000864131920366496 -0.006226273593800055
 0.9946744574698034 -0.04931741513609441 0.004458590744766614 0.020411001875869625 -0.0008634292170544496 -0.006226285922356668 0.0010056572892013847 0.009773071629248828
 0.0009826088983530977 0.009775961710364985 -0.0008634292170544496 -0.006226285922356668 0.004462074235667531 0.02040981082391187 0.9946744273238237 -0.049318334055494885
 -0.000864131920366496 -0.006226273593800055 0.0010056572892013847 0.009773071629248828 0.9946744273238237 -0.049318334055494885 0.004458171504143514 0.02041012009044699
0.07503126302626001 0.004829049854601241 0.022381210984168322 0.9941873450485413 -0.05388756855013531 0.0011280367999729067 0.010666944879859636 -0.0009899518306617713 -0.006796717511102677
 0.9941873450485413 -0.05388756855013531 0.004825335555061685 0.022381495719030982 -0.000989118345899353 -0.006796739786998349 0.0011554761624369705 0.0106634342065643
 0.0011280367999729067 0.010666944879859636 -0.000989118345899353 -0.006796739786998349 0.00482948072896523 0.02238018108592158 0.9941873094305451 -0.053888571199667744
 -0.0009899518306617713 -0.006796717511102677 0.0011554761624369705 0.0106634342065643 0.9941873094305451 -0.053888571199667744 0.004824837131769316 0.022380537735071263
0.08128386827845 0.00521719506616544 0.024368547181271103 0.993672631831644 -0.05847218891033673 0.0012842225040850487 0.011557698660405206 -0.0011250743450445047 -0.007367174320067233
 0.993672631831644 -0.05847218891033673 0.005212836599132359 0.02436887083256451 -0.0011240993292540033 -0.007367208601959624 0.0013164378633748963 0.011553484361802395
 0.0012842225040850487 0.011557698660405206 -0.0011240993292540033 -0.007367208601959624 0.005217701097298068 0.024367429608827516 0.9936725902702991 -0.05847327537826307
 -0.0011250743450445047 -0.007367174320067233 0.0013164378633748963 0.011553484361802395 0.9936725902702991 -0.05847327537826307 0.005212252182337559 0.02436783765743764
0.08753647353064001 0.005626500444105437 0.026372395238543133 0.9931299755882385 -0.06307106937248078 0.001451253792759837 0.012448059286910987 -0.0012695901400201891 -0.007937475950760272
 0.9931299755882385 -0.06307106937248078 0.005621446138249123 0.026372760439446908 -0.0012684629317389114 -0.007937524432566805 0.0014886305690716083 0.01244305273161671
 0.001451253792759837 0.012448059286910987 -0.0012684629317389114 -0.007937524432566805 0.005627087690160795 0.026371189504002593 0.9931299276066895 -0.06307223976001629
 -0.0012695901400201891 -0.007937475950760272 0.0014886305690716083 0.01244305273161671 0.9931299276066895 -0.06307223976001629 0.005620768927228473 0.026371653163927956
0.09378907878283 0.006057315305126989 0.028392392691703194 0.9925590360383505 -0.0676839842694555 0.0016292155487677032 0.013337858810092026 -0.0014235868258256595 -0.00850745154586146
 0.9925590360383505 -0.0676839842694555 0.006051513390291597 0.028392802144101663 -0.0014222968519124772 -0.008507516556565734 0.0016721394829077058 0.013331965713192307
 0.0016292155487677032 0.013337858810092026 -0.0014222968519124772 -0.008507516556565734 0.0060579898290048385 0.02839109826058129 0.9925589811538381 -0.06768523869094067
 -0.0014235868258256595 -0.00850745154586146 0.0016721394829077058 0.013331965713192307 0.9925589811538381 -0.06768523869094067 0.0060507365950960386 0.028391621943175755
0.100041684035 0.00650998582754261 0.03042817909302074 0.9919594751055102 -0.07231069145488928 0.001818189628609256 0.014226925284506626 -0.0015871488388272145 -0.009076927350254428
 0.9919594751055102 -0.07231069145488928 0.006503384419221569 0.03042863557080354 -0.0015856856148307361 -0.009077011353712711 0.0018670467030396703 0.014220045653540665
 0.001818189628609256 0.014226925284506626 -0.0015856856148307361 -0.009077011353712711 0.006510753697217671 0.030426795389856588 0.991959412828665 -0.072312030031317
 -0.0015871488388272145 -0.009076927350254428 0.0018670467030396703 0.014220045653540665 0.991959412828665 -0.072312030031317 0.006502501262055656 0.030427383710959488
0.1059090909091 0.006954952095768109 0.03235258772881492 0.9913705209184904 -0.07666468072694767 0.002005607498536088 0.015060396630980714 -0.0017494063336393338 -0.009610708058373761
 0.9913705209184904 -0.07666468072694767 0.006947553143867935 0.03235309092532999 -0.0017477710767957243 -0.009610812245321327 0.002060383385035902 0.015052495169832123
 0.002005607498536088 0.015060396630980714 -0.0017477710767957243 -0.009610812245321327 0.006955813083672009 0.03235111968770007 0.9913704512534329 -0.07666609839483265
 -0.0017494063336393338 -0.009610708058373761 0.002060383385035902 0.015052495169832123 0.9913704512534329 -0.07666609839483265 0.006946564024361265 0.032351773050345686
0.1062942892872 0.006984854926618968 0.03247939424889213 0.9913309571577227 -0.07695093405593091 0.002018254737475884 0.015115082919683548 -0.0017603573310332593 -0.009645726645416838
 0.9913309571577227 -0.07695093405593091 0.006977402010636284 0.03247990060186131 -0.0017587104617298808 -0.009645832240137524 0.0020734310933642522 0.015107111001936863
 0.002018254737475884 0.015115082919683548 -0.0017587104617298808 -0.009645832240137524 0.006985722215123561 0.032477920651377154 0.9913308869924219 -0.07695235691997088
 -0.0017603573310332593 -0.009645726645416838 0.0020734310933642522 0.015107111001936863 0.9913308869924219 -0.07695235691997088 0.006976405726647953 0.03247857843695225
0.11254689453939999 0.007482262114637442 0.03454567686834436 0.9906731492373005 -0.08160444182476642 0.0022294863054455973 0.016002152210870223 -0.0019432900579523136 -0.010213669712252906
 0.9906731492373005 -0.08160444182476642 0.00747390553133739 0.03454623602671218 -0.001941449237934707 -0.010213799631154019 0.002291368156042755 0.015992976442138603
 0.0022294863054455973 0.016002152210870223 -0.001941449237934707 -0.010213799631154019 0.007483234899917877 0.034544112704924974 0.990673070679992 -0.0816059491222634
 -0.0019432900579523136 -0.010213669712252906 0.002291368156042755 0.015992976442138603 0.990673070679992 -0.0816059491222634 0.0074727893699511995 0.03454484499732578
0.11879949979160001 0.008002543351155966 0.03662666352150446 0.989985721284169 -0.08627093218993574 0.0024519563645965152 0.016887950056206084 -0.002136021265182316 -0.010780573815592272
 0.989985721284169 -0.08627093218993574 0.00799323078001874 0.036627278501152126 -0.002133976279618919 -0.01078073092573771 0.002520929905283456 0.016877453011045658
 0.0024519563645965152 0.016887950056206084 -0.002133976279618919 -0.01078073092573771 0.008003627716097247 0.03662500807404668 0.9899856338235032 -0.08627252407630241
 -0.002136021265182316 -0.010780573815592272 0.002520929905283456 0.016877453011045658 0.9899856338235032 -0.08627252407630241 0.00799198800584404 0.03662582013899434
0.1250521050438 0.00854603088547955 0.0387219878244223 0.9892683463537959 -0.09095011109133895 0.0026857334272635427 0.01777228985999736 -0.0023386215739911987 -0.011346253211017293
 0.9892683463537959 -0.09095011109133895 0.008535709829049413 0.038722661732704826 -0.002336362299474733 -0.011346440513301376 0.0027621847426108855 0.017760348203569212
 0.0026857334272635427 0.01777228985999736 -0.002336362299474733 -0.011346440513301376 0.008547232917523266 0.03872024032695353 0.989268249469786 -0.09095178773177878
 -0.0023386215739911987 -0.011346253211017293 0.0027621847426108855 0.017760348203569212 0.989268249469786 -0.09095178773177878 0.008534333723078349 0.03872113766105784
0.131304710296 0.009113053091459121 0.04083127979412055 0.9885207008312111 -0.09564167365517685 0.0029308823651144184 0.01865498163503179 -0.0025511578665455845 -0.011910519160947796
 0.9885207008312111 -0.09564167365517685 0.009101670859969588 0.040832015836478754 -0.00254867427193301 -0.011910739789818867 0.003015197332916187 0.018641466076674044
 0.0029308823651144184 0.01865498163503179 -0.00254867427193301 -0.011910739789818867 0.009114378883062565 0.04082943943140435 0.9885205939952609 -0.09564343522519837
 -0.0025511578665455845 -0.011910519160947796 0.003015197332916187 0.018641466076674044 0.9885205939952609 -0.09564343522519837 0.009100154721051464 0.04083042777048206
0.1375573155481 0.00957889612974893 0.042680258858977 0.9878675637810684 -0.10007123572538651 0.0031574037789676964 0.01950913892934156 -0.002743541290505575 -0.012446582141822208
 0.9878675637810684 -0.10007123572538651 0.009566395183736564 0.04268104356029798 -0.0027408184210610297 -0.01244683658285831 0.0032497708406870455 0.019494061825294187
 0.0031574037789676964 0.01950913892934156 -0.0027408184210610297 -0.01244683658285831 0.00958035106641687 0.04267832474818749 0.9878674465357656 -0.10007308229773351
 -0.002743541290505575 -0.012446582141822208 0.0032497708406870455 0.019494061825294187 0.9878674465357656 -0.10007308229773351 0.009564732890104758 0.04267939310783445
0.1438099208003 0.01006129417955347 0.044518627614640364 0.9871911572560351 -0.10448867186894746 0.0033930285085483907 0.02035933748465901 -0.0029435801166309435 -0.012978941483891534
 0.9871911572560351 -0.10448867186894746 0.01004762083704156 0.044519463342488415 -0.002940607187879147 -0.012979232844329992 0.0034937976376151086 0.020342579968722557
 0.0033930285085483907 0.02035933748465901 -0.002940607187879147 -0.012979232844329992 0.010062884233959615 0.04451659891502705 0.9871910290751627 -0.10449060360836261
 -0.0029435801166309435 -0.012978941483891534 0.0034937976376151086 0.020342579968722557 0.9871910290751627 -0.10449060360836261 0.010045805814185124 0.04451775226837863
0.1500625260525 0.010560064540938061 0.04634620596794943 0.9864916687415776 -0.10889384526970397 0.003637666161325897 0.02120547488173921 -0.003151184965499589 -0.013507498520350276
 0.9864916687415776 -0.10889384526970397 0.010545164913380305 0.04634709528621674 -0.003147951222440712 -0.013507830032495118 0.003747184860415976 0.02118691377192397
 0.003637666161325897 0.02120547488173921 -0.003147951222440712 -0.013507830032495118 0.010561795682105763 0.04634408180162128 0.9864915290916392 -0.10889586234798929
 -0.003151184965499589 -0.013507498520350276 0.003747184860415976 0.02118691377192397 0.9864915290916392 -0.10889586234798929 0.010543190609600087 0.04634532542515641
0.15631513130469998 0.011075023060914364 0.048162819182366284 0.9857692868504145 -0.11328662018975032 0.0038912251888370388 0.022047450652780673 -0.0033662652712670165 -0.014032156825053838
 0.9857692868504145 -0.11328662018975032 0.011058843048120532 0.04816376486050256 -0.003362759988964779 -0.014032531845632457 0.004009838446849397 0.022026958503318074
