! Created with skrf 1.8.0 (http://scikit-rf.org).
# GHz S RI R 50.0 
!freq ReS11 ImS11 ReS12 ImS12 ReS13 ImS13
! ReS14 ImS14
! ReS21 ImS21 ReS22 ImS22 ReS23 ImS23
! ReS24 ImS24
! ReS31 ImS31 ReS32 ImS32 ReS33 ImS33
! ReS34 ImS34
! ReS41 ImS41 ReS42 ImS42 ReS43 ImS43
! ReS44 ImS44
!
0.0 0.00134933355475 0.0 0.9986506664452 0.0 5.201283381102e-05 0.0 -5.201283390078e-05 6.369735055117317e-21
 0.9986506664452 0.0 0.001349333554758 0.0 -5.201283390017e-05 6.3697350550426136e-21 5.201283381232e-05 0.0
 5.201283381102e-05 0.0 -5.201283390017e-05 6.3697350550426136e-21 0.001349333539821 0.0 0.9986506664303 0.0
 -5.201283390078e-05 6.369735055117317e-21 5.201283381232e-05 0.0 0.9986506664303 0.0 0.001349333539857 0.0
0.005 0.0014513368448493054 0.0010987475027173703 0.9985216798454608 -0.002827443172847024 7.341073140095845e-05 0.0006059752723869689 -7.113888952463536e-05 -0.00037471240505827216
 0.9985216798454608 -0.002827443172847024 0.0014513416210944203 0.0010987446417667105 -7.1140769969733e-05 -0.00037471376061440115 7.337417330670419e-05 0.0006059891022036128
 7.341073140095845e-05 0.0006059752723869689 -7.1140769969733e-05 -0.00037471376061440115 0.0014513366620242751 0.0010988148110939813 0.9985216801875473 -0.002827376113193745
 -7.113888952463536e-05 -0.00037471240505827216 7.337417330670419e-05 0.0006059891022036128 0.9985216801875473 -0.002827376113193745 0.0014513424830767047 0.0010988114477672633
0.006252605252188 0.0014779442828454987 0.0013778024880843212 0.9984878422351886 -0.003535020613547204 7.944410555609581e-05 0.0007577567184612627 -7.6474235925617e-05 -0.0004688913453813228
 0.9984878422351886 -0.003535020613547204 0.0014779517497279342 0.0013777988629655577 -7.647716278795855e-05 -0.0004688930153864602 7.938698531307656e-05 0.0007577746793795004
 7.944410555609581e-05 0.0007577567184612627 -7.647716278795855e-05 -0.0004688930153864602 0.0014779439245934207 0.001377886609364002 0.9984878426972389 -0.003534936793951566
 -7.6474235925617e-05 -0.0004688913453813228 7.938698531307656e-05 0.0007577746793795004 0.9984878426972389 -0.003534936793951566 0.0014779530239236549 0.0013778823699465842
0.01250521050438 0.001617167880773933 0.002784885168735032 0.9983097118621973 -0.007071013488093255 0.0001136217604859416 0.001515827845062669 -0.00010639939085091971 -0.0009401832327348233
 0.9983097118621973 -0.007071013488093255 0.0016171977084047278 0.0027848774344830154 -0.00010641093475561865 -0.000940186306399205 0.00011339393417492396 0.0015158709651395261
 0.0001136217604859416 0.001515827845062669 -0.00010641093475561865 -0.000940186306399205 0.0016171658912643 0.002785053068361857 0.9983097131421963 -0.007070846085421316
 -0.00010639939085091971 -0.0009401832327348233 0.00011339393417492396 0.0015158709651395261 0.9983097131421963 -0.007070846085421316 0.001617202221183049 0.002785044238953399
0.01875781575657 0.0017672787438318272 0.004212383558766733 0.9981160751816202 -0.010616621368561407 0.00015461940541578427 0.002274777345301863 -0.00014187465616936147 -0.0014131714478529994
 0.9981160751816202 -0.010616621368561407 0.0017673457912030846 0.004212371216033702 -0.000141900413186149 -0.001413175610679382 0.0001541075137919412 0.0022748540774601023
 0.00015461940541578427 0.002274777345301863 -0.000141900413186149 -0.001413175610679382 0.0017672738617278973 0.0042126350226880235 0.9981160776354396 -0.010616370456790342
 -0.00014187465616936147 -0.0014131714478529994 0.0001541075137919412 0.0022748540774601023 0.9981160776354396 -0.010616370456790342 0.0017673554873701542 0.004212621225065726
0.02501042100875 0.0019285447333781994 0.005658319153268334 0.9979067250335778 -0.014173593750757291 0.00020251192498214532 0.003034665579586745 -0.00018298392271065615 -0.0018876512751743331
 0.9979067250335778 -0.014173593750757291 0.0019286638437585415 0.005658301693404511 -0.00018302942711454891 -0.001887656159021237 0.0002016024975382776 0.003034785585428803
 0.00020251192498214532 0.003034665579586745 -0.00018302942711454891 -0.001887656159021237 0.0019285357073381422 0.0056586539782550755 0.9979067290194347 -0.014173259357951063
 -0.00018298392271065615 -0.0018876512751743331 0.0002016024975382776 0.003034785585428803 0.9979067290194347 -0.014173259357951063 0.0019286806534603647 0.00565863481512605
0.03126302626094 0.0021012224643812425 0.0071216889075511524 0.997681442682492 -0.017742697369397327 0.00025737496650295465 0.0037954796714164637 -0.00022980892533753722 -0.0023634871028719627
 0.997681442682492 -0.017742697369397327 0.0021014084734371037 0.007121665814259297 -0.00022987966042638914 -0.0023634922851802354 0.0002559543145216106 0.0037956538289515306
 0.00025737496650295465 0.0037954796714164637 -0.00022987966042638914 -0.0023634922851802354 0.0021012080510653987 0.007122106880287668 0.9976814485607501 -0.017742279498266005
 -0.00022980892533753722 -0.0023634871028719627 0.0002559543145216106 0.0037956538289515306 0.9976814485607501 -0.017742279498266005 0.0021014343125351437 0.007122081937241297
0.037515631513130004 0.0022855631477443753 0.008601850282276344 0.9974400037960445 -0.021324331100029438 0.00031928416412059973 0.004557178214667256 -0.0002824298943718761 -0.0028405677054501735
 0.9974400037960445 -0.021324331100029438 0.002285830888823301 0.008601821032477905 -0.00028253129791505345 -0.00284057270893356 0.00031723833077229656 0.004557418631493428
 0.00031928416412059973 0.004557178214667256 -0.00028253129791505345 -0.00284057270893356 0.0022855421085095943 0.008602351179296967 0.9974400119280974 -0.02132382972769457
 -0.0002824298943718761 -0.0028405677054501735 0.00031723833077229656 0.004557418631493428 0.9974400119280974 -0.02132382972769457 0.002285867657478328 0.008602320025766429
0.043768236765320004 0.0024818148605368373 0.010098334110999125 0.9971821808544195 -0.024918713031383318 0.000388314784529595 0.005319704875174794 -0.0003409257991050868 -0.003318792632542754
 0.9971821808544195 -0.024918713031383318 0.0024821791696089455 0.010098298175509446 -0.00034106326663979424 -0.0033187969250017936 0.00038552951924042265 0.005320024903313919
 0.000388314784529595 0.005319704875174794 -0.00034106326663979424 -0.0033187969250017936 0.002481785961628207 0.01009891768884608 0.9971821916037903 -0.02491812811904488
 -0.0003409257991050868 -0.003318792632542754 0.00038552951924042265 0.005320024903313919 0.9971821916037903 -0.02491812811904488 0.002482228753160741 0.010098879878876463
0.050020842017509996 0.002690223602283305 0.011610767250215714 0.9969077443468307 -0.028525957753368896 0.0004645415211977738 0.00608299400071048 -0.00040537444672569654 -0.0037980665903212065
 0.9969077443468307 -0.028525957753368896 0.002690699321502115 0.011610724094366816 -0.00040555333360792797 -0.003798069584537035 0.0004609022667900217 0.006083408252202368
 0.0004645415211977738 0.00608299400071048 -0.00040555333360792797 -0.003798069584537035 0.002690185615726905 0.011611433241892458 0.9969077580815596 -0.028525289249657592
 -0.00040537444672569654 -0.0037980665903212065 0.0004609022667900217 0.006083408252202368 0.9969077580815596 -0.028525289249657592 0.0026907635922800636 0.011611388314605417
0.055454545454549996 0.0028814000153374866 0.012937824521554786 0.9966555792302735 -0.03167124815436513 0.0005366864679890188 0.006746878641181153 -0.0004662762103905073 -0.00421534994520664
 0.9966555792302735 -0.03167124815436513 0.0028819846147334974 0.012937774652805281 -0.0004664954109569018 -0.004215351291497898 0.0005322117947920156 0.006747387632964524
 0.0005366864679890188 0.006746878641181153 -0.0004664954109569018 -0.004215351291497898 0.0028813531353618564 0.012938561908111913 0.9966555958594808 -0.03167050694572101
 -0.0004662762103905073 -0.00421534994520664 0.0005322117947920156 0.006747387632964524 0.9966555958594808 -0.03167050694572101 0.0028820631570355203 0.012938510410095043
0.056273447269699996 0.0029110338514167335 0.013138834615611961 0.9966164634713048 -0.03214611425902549 0.0005480383545434967 0.0068469733741333035 -0.00047585251603289596 -0.004278296681421926
 0.9966164634713048 -0.03214611425902549 0.002911635832978932 0.013138783699631945 -0.0004760781387909617 -0.004278297735041859 0.0005434302422255054 0.006847497736966536
 0.0005480383545434967 0.0068469733741333035 -0.0004760781387909617 -0.004278297735041859 0.0029109855508247812 0.013139582743685947 0.9966164805608995 -0.03214536208672565
 -0.00047585251603289596 -0.004278296681421926 0.0005434302422255054 0.006847497736966536 0.9966164805608995 -0.03214536208672565 0.0029117166468691086 0.013139530223692773
0.06252605252188 0.0031444888675040005 0.014682258322299357 0.9963081065823336 -0.03577918674333598 0.0006388784437744877 0.0076115657229587925 -0.0005524355593792749 -0.004759390890392053
 0.9963081065823336 -0.03577918674333598 0.003145231976883456 0.014682199101731557 -0.0005527131965995368 -0.004759389305864286 0.0006331862931064558 0.007612217377156615
 0.0006388784437744877 0.0076115657229587925 -0.0005527131965995368 -0.004759389305864286 0.0031444290301774476 0.014683088281456924 0.9963081274015584 -0.03577835081675356
 -0.0005524355593792749 -0.004759390890392053 0.0006331862931064558 0.007612217377156615 0.9963081274015584 -0.03577835081675356 0.003145331176341366 0.01468302767906518
0.06877865777407 0.0033908308627156355 0.016240785231295456 0.9959824415114187 -0.03942514699782231 0.0007371340367848553 0.008376689620716362 -0.000635197985741867 -0.005241257179569356
 0.9959824415114187 -0.03942514699782231 0.003391729982232038 0.016240717157182092 -0.000635532878707632 -0.005241252204062391 0.0007302423592201834 0.008377487054501979
 0.0007371340367848553 0.008376689620716362 -0.000635532878707632 -0.005241252204062391 0.0033907582674791792 0.016241696698244785 0.995982466438847 -0.039424227212726086
 -0.000635197985741867 -0.005241257179569356 0.0007302423592201834 0.008377487054501979 0.995982466438847 -0.039424227212726086 0.0033918493943046156 0.01624162750963777
0.07503126302626001 0.003650301092632858 0.017814179064348377 0.9956392358085613 -0.0430839422385838 0.00084287639083098 0.009142260055148751 -0.0007242130320989634 -0.0057238029205066016
 0.9956392358085613 -0.0430839422385838 0.0036513711247837524 0.017814101583482227 -0.0007246103851611059 -0.005723793745849016 0.00083466939596252 0.009143223081129267
 0.00084287639083098 0.009142260055148751 -0.0007246103851611059 -0.005723793745849016 0.003650214519334375 0.017815171693876575 0.9956392652276065 -0.04308293847612162
 -0.0007242130320989634 -0.0057238029205066016 0.00083466939596252 0.009143223081129267 0.9956392652276065 -0.04308293847612162 0.0036515125612744813 0.017815093401165605
0.08128386827845 0.003923139896996711 0.01940221515213567 0.9952782569368259 -0.04675550030353835 0.0009561756994226605 0.009908188809362941 -0.0008195527275604194 -0.006206934514972401
 0.9952782569368259 -0.04675550030353835 0.003924395767743895 0.019402127707089413 -0.000820017708362212 -0.006206920277600455 0.0009465373032434075 0.009909338580655158
 0.0009561756994226605 0.009908188809362941 -0.000820017708362212 -0.006206920277600455 0.003923038126065841 0.019403288575171217 0.9952782912361978 -0.046754412432088964
 -0.0008195527275604194 -0.006206934514972401 0.0009465373032434075 0.009909338580655158 0.9952782912361978 -0.046754412432088964 0.003924561025173286 0.019403200646284823
0.08753647353064001 0.004209586708496878 0.021004676802351834 0.9948992724369057 -0.05043973323232763 0.0010771010234789974 0.010674384724778241 -0.0009212878522585202 -0.006690557136794309
 0.9948992724369057 -0.05043973323232763 0.004211043370368056 0.0210045788314871 -0.0009218255917471363 -0.0066905369177111635 0.0010659148581902542 0.010675743751099009
 0.0010771010234789974 0.010674384724778241 -0.0009218255917471363 -0.0066905369177111635 0.004209468519680192 0.021005830631978827 0.9948993120111298 -0.05043856110151148
 -0.0009212878522585202 -0.006690557136794309 0.0010659148581902542 0.010675743751099009 0.9948993120111298 -0.05043856110151148 0.00421123422976953 0.021005732520527037
0.09378907878283 0.004509880037719693 0.022621352702180714 0.9945020500716336 -0.054136539814582614 0.0012057202251516067 0.01144075389254321 -0.001029487892172857 -0.007174574547969077
 0.9945020500716336 -0.054136539814582614 0.0045115524736906885 0.02262124363952901 -0.0010301034846997427 -0.007174547372700746 0.001192869650567252 0.011442346056178151
 0.0012057202251516067 0.01144075389254321 -0.0010301034846997427 -0.007174547372700746 0.004509744209647242 0.022622586524885423 0.9945020953215846 -0.054135283263958126
 -0.001029487892172857 -0.007174574547969077 0.001192869650567252 0.011442346056178151 0.9945020953215846 -0.054135283263958126 0.004511770699781506 0.02262247766991831
0.100041684035 0.004824257443307689 0.024252035015501418 0.9940863579567084 -0.05784580744645344 0.0013420999033674419 0.012207199793393443 -0.0011442209916454602 -0.007658888969231274
 0.9940863579567084 -0.05784580744645344 0.004826160669717199 0.024251914290562428 -0.0011449194947960608 -0.0076588538078032975 0.0013274680192534916 0.012209050365080468
 0.0013420999033674419 0.012207199793393443 -0.0011449194947960608 -0.0076588538078032975 0.004824102752710409 0.024253348396660566 0.9940864092899012 -0.05784446630012411
 -0.0011442209916454602 -0.007658888969231274 0.0013274680192534916 0.012209050365080468 0.9940864092899012 -0.05784446630012411 0.004826408011111919 0.024253228222234722
0.1059090909091 0.0051322873495504755 0.025794812747531086 0.993679270818118 -0.06133778580165445 0.0014771939960171467 0.012926409595149726 -0.0012578870633727264 -0.008113548275095236
 0.993679270818118 -0.06133778580165445 0.0051344208383094945 0.025794680555610405 -0.0012586679362939879 -0.00811350463329444 0.0014607840025318488 0.012928526889492083
 0.0014771939960171467 0.012926409595149726 -0.0012586679362939879 -0.00811350463329444 0.005132113843388189 0.025796200373034855 0.9936793282368179 -0.06133636509621776
 -0.0012578870633727264 -0.008113548275095236 0.0014607840025318488 0.012928526889492083 0.9936793282368179 -0.06133636509621776 0.005134697076717788 0.02579606903895411
0.1062942892872 0.0051529554888509336 0.025896517946223135 0.9936519646813956 -0.0615674135240381 0.001486305330755769 0.012973623407877298 -0.0012655539031823128 -0.008143400983045865
 0.9936519646813956 -0.0615674135240381 0.005155104558919344 0.025896384983670986 -0.0012663403376362884 -0.008143356749963979 0.0014697749902743246 0.012975759062547153
 0.001486305330755769 0.012973623407877298 -0.0012663403376362884 -0.008143356749963979 0.0051527807094396486 0.025897910431623178 0.9936520225124406 -0.061565987589121796
 -0.0012655539031823128 -0.008143400983045865 0.0014697749902743246 0.012975759062547153 0.9936520225124406 -0.061565987589121796 0.005155382747304322 0.025897778346368493
0.11254689453939999 0.005496209690920612 0.027554596649097502 0.9931986394226621 -0.06530122649263105 0.0016384003911937065 0.013739923301069202 -0.0013935519358335207 -0.008628009465292503
 0.9931986394226621 -0.06530122649263105 0.005498619698296801 0.02755445086833508 -0.0013944312851421894 -0.008627955019533725 0.0016198542152289505 0.01374237213341872
 0.0016384003911937065 0.013739923301069202 -0.0013944312851421894 -0.008627955019533725 0.005496013593274323 0.027556067760624754 0.9931987041742582 -0.06529971556372617
 -0.0013935519358335207 -0.008628009465292503 0.0016198542152289505 0.01374237213341872 0.9931987041742582 -0.06529971556372617 0.005498930448785361 0.02755592315709777
0.11879949979160001 0.005854254460749909 0.029226066365437724 0.9927261520550338 -0.06904710667432372 0.001798447517929443 0.014505995694005415 -0.001528278902063422 -0.009112611533167657
 0.9927261520550338 -0.06904710667432372 0.005856940542930616 0.029225907180135062 -0.0015292561124154455 -0.009112545678178093 0.00177776791020166 0.014508787233957758
 0.001798447517929443 0.014505995694005415 -0.0015292561124154455 -0.009112545678178093 0.00585403581090263 0.029227615603063736 0.9927262241579203 -0.06904551053161892
 -0.001528278902063422 -0.009112611533167657 0.00177776791020166 0.014508787233957758 0.9927262241579203 -0.06904551053161892 0.005857285552807835 0.029227457857060282
0.1250521050438 0.006227323039263654 0.030910721752824895 0.992234273255986 -0.07280490690508457 0.0019665076320157485 0.015271734522124781 -0.001669797063531599 -0.00959710250928829
 0.992234273255986 -0.07280490690508457 0.006230300380973125 0.03091054857026371 -0.0016708770433952727 -0.009597023993001585 0.0019435767950131575 0.01527489975006571
 0.0019665076320157485 0.015271734522124781 -0.0016708770433952727 -0.009597023993001585 0.0062270805980416555 0.030912348595506206 0.99223435314965 -0.07280322531360159
 -0.001669797063531599 -0.00959710250928829 0.0019435767950131575 0.01527489975006571 0.99223435314965 -0.07280322531360159 0.006230681329953846 0.030912177065227534
0.131304710296 0.0066156474276708324 0.03260835634016507 0.9917227746096067 -0.07657447305015545 0.0021426400810336385 0.016037031486520234 -0.0018181670758150507 -0.010081375896242967
 0.9917227746096067 -0.07657447305015545 0.00661893126469291 0.03260816856048496 -0.0018193546956641452 -0.010081283411094955 0.002117340032565603 0.016040602848368887
 0.0021426400810336385 0.016037031486520234 -0.0018193546956641452 -0.010081283411094955 0.006615379950065845 0.032610060243320485 0.9917228627427377 -0.07657270576250215
 -0.0018181670758150507 -0.010081375896242967 0.002117340032565603 0.016040602848368887 0.9917228627427377 -0.07657270576250215 0.0066193498141667965 0.03260987426837188
0.1375573155481 0.006925949672449399 0.034095626314274305 0.9912849662183713 -0.08013243124526899 0.002303502301617769 0.016778542268242592 -0.0019500800429924847 -0.010542079454251086
 0.9912849662183713 -0.08013243124526899 0.006929555180635761 0.03409542749689915 -0.0019513822114215166 -0.010541973010117 0.0022757773089980868 0.0167825119778892
 0.002303502301617769 0.016778542268242592 -0.0019513822114215166 -0.010541973010117 0.006925655022697291 0.034097407390935995 0.9912850629668039 -0.0801305781174838
 -0.0019500800429924847 -0.010542079454251086 0.0022757773089980868 0.0167825119778892 0.9912850629668039 -0.0801305781174838 0.006930014012018855 0.03409720931503914
0.1438099208003 0.0072469998560255435 0.035575758191369995 0.9908320584943237 -0.08368210604404372 0.002470877998389352 0.017517564492749188 -0.002087294644636983 -0.011000523483924466
 0.9908320584943237 -0.08368210604404372 0.0072509422966962325 0.03557554798163839 -0.002088716544963276 -0.01100040181380498 0.0024406210823895704 0.017521961921125997
 0.002470877998389352 0.017517564492749188 -0.002088716544963276 -0.01100040181380498 0.0072466766187118566 0.03557761593697858 0.9908321643052749 -0.0836801668317262
 -0.002087294644636983 -0.011000523483924466 0.0024406210823895704 0.017521961921125997 0.9908321643052749 -0.0836801668317262 0.007251443230602657 0.03557740521768679
0.1500625260525 0.007578694392600887 0.037048649790041 0.9903641584438423 -0.08722343155901988 0.0026447160927650696 0.018254039025387456 -0.002229761468813667 -0.011456651777525468
 0.9903641584438423 -0.08722343155901988 0.007582989067500707 0.03704842780347421 -0.0022313082726382444 -0.011456513564098414 0.0026118208225659138 0.01825889460712046
 0.0026447160927650696 0.018254039025387456 -0.0022313082726382444 -0.011456513564098414 0.007578341135801736 0.037050583681335375 0.9903642737724064 -0.08722140600893197
 -0.002229761468813667 -0.011456651777525468 0.0026118208225659138 0.01825889460712046 0.9903642737724064 -0.08722140600893197 0.007583533919399791 0.03705035973452731
0.15631513130469998 0.007920929069349434 0.03851420212962069 0.9898813734988736 -0.09075634170728443 0.0028249649718935133 0.018987907606282352 -0.0023774305569636677 -0.011910409240725653
