! Created with skrf 1.8.0 (http://scikit-rf.org).
# GHz S RI R 50.0 
!freq ReS11 ImS11 ReS12 ImS12 ReS13 ImS13
! ReS14 ImS14
! ReS21 ImS21 ReS22 ImS22 ReS23 ImS23
! ReS24 ImS24
! ReS31 ImS31 ReS32 ImS32 ReS33 ImS33
! ReS34 ImS34
! ReS41 ImS41 ReS42 ImS42 ReS43 ImS43
! ReS44 ImS44
!
0.0 0.001674452586779 0.0 0.9983255473836 0.0 6.448279457536e-05 0.0 -6.448279399133e-05 7.896864726156046e-21
 0.9983255473836 0.0 0.001674452586747 0.0 -6.448279399162e-05 7.89686472619156e-21 6.448279457333e-05 0.0
 6.448279457536e-05 0.0 -6.448279399162e-05 7.89686472619156e-21 0.001674452591759 0.0 0.9983255473886 0.0
 -6.448279399133e-05 7.896864726156046e-21 6.448279457333e-05 0.0 0.9983255473886 0.0 0.001674452591712 0.0
0.005 0.0018019164327788425 0.0013755484853481465 0.9981642587866683 -0.0035067061001265347 8.959238860884849e-05 0.000674167487143056 -8.724718490923158e-05 -0.0004294275842679783
 0.9981642587866683 -0.0035067061001265347 0.001801912209195012 0.0013755508924463346 -8.724749772086986e-05 -0.00042942775154760314 8.960620655580837e-05 0.0006741620091928046
 8.959238860884849e-05 0.000674167487143056 -8.724749772086986e-05 -0.00042942775154760314 0.0018019162875386931 0.0013754812394632305 0.9981642584140609 -0.003506773163559217
 -8.724718490923158e-05 -0.0004294275842679783 8.960620655580837e-05 0.0006741620091928046 0.9981642584140609 -0.003506773163559217 0.0018019116177100624 0.0013754840191614807
0.006252605252188 0.0018354673096089916 0.0017248015517205252 0.9981215250885831 -0.004384218323164544 9.680863077989382e-05 0.0008430465947121516 -9.371766056561724e-05 -0.0005373243767375874
 0.9981215250885831 -0.004384218323164544 0.00183546070848658 0.0017248046662428987 -9.371814790116436e-05 -0.0005373245813434424 9.683021743430444e-05 0.000843039514875436
 9.680863077989382e-05 0.0008430465947121516 -9.371814790116436e-05 -0.0005373245813434424 0.0018354671725762267 0.0017247174962416179 0.9981215245955839 -0.0043843021472091985
 -9.371766056561724e-05 -0.0005373243767375874 9.683021743430444e-05 0.000843039514875436 0.9981215245955839 -0.0043843021472091985 0.0018354598729469287 0.0017247210907597348
0.01250521050438 0.0020127902149800103 0.003485328358244063 0.9978941312819746 -0.008769069426797376 0.00013841805117871954 0.0016865209461741349 -0.00013066202321245112 -0.0010771433594383482
 0.9978941312819746 -0.008769069426797376 0.002012763871585703 0.0034853356702108074 -0.00013066395076276983 -0.0010771437182041002 0.00013850405364875966 0.001686504237317552
 0.00013841805117871954 0.0016865209461741349 -0.00013066395076276983 -0.0010771437182041002 0.0020127901974633143 0.003485160470042119 0.997894129830807 -0.008769236839797464
 -0.00013066202321245112 -0.0010771433594383482 0.00013850405364875966 0.001686504237317552 0.997894129830807 -0.008769236839797464 0.002012761047788576 0.003485168891719314
0.01875781575657 0.0022068332637791123 0.005270540336980162 0.9976430654181178 -0.013165189803576508 0.00018941280298246936 0.0025309293533736913 -0.00017543351713909285 -0.0016187126871905714
 0.9976430654181178 -0.013165189803576508 0.002206774095182226 0.005270553028584452 -0.00017543782528860188 -0.0016187131364442816 0.0001896058103764977 0.0025308998850567745
 0.00018941280298246936 0.0025309293533736913 -0.00017543782528860188 -0.0016187131364442816 0.002206833670998996 0.005270288715221637 0.9976430625781335 -0.013165440744791526
 -0.00017543351713909285 -0.0016187126871905714 0.0001896058103764977 0.0025308998850567745 0.9976430625781335 -0.013165440744791526 0.0022067681632174426 0.005270303319908014
0.02501042100875 0.002417994804907327 0.007077921630745594 0.9973680143913235 -0.017574678310263176 0.00024989542825791495 0.003376279095816092 -0.0002281457173224111 -0.0021617800905501666
 0.9973680143913235 -0.017574678310263176 0.0024178897715203197 0.007077940982660765 -0.00022815333828747383 -0.0021617805526496668 0.00025023793430338785 0.0033762331867776326
 0.00024989542825791495 0.003376279095816092 -0.00022815333828747383 -0.0021617805526496668 0.0024179959431310507 0.007077586378066754 0.9973680097164862 -0.017575012766391652
 -0.0002281457173224111 -0.0021617800905501666 0.00025023793430338785 0.0033762331867776326 0.9973680097164862 -0.017575012766391652 0.0024178795959644435 0.007077608644119494
0.03126302626094 0.0026466567452371995 0.008906162009159127 0.997068650037244 -0.02199841474041702 0.00031996844347596457 0.004222503698774518 -0.00028890880291033565 -0.0027061600759372044
 0.997068650037244 -0.02199841474041702 0.0026464928460598358 0.0089061894010523 -0.00028892066202077204 -0.0027061604591161205 0.00032050289141262044 0.004222437117071144
 0.00031996844347596457 0.004222503698774518 -0.00028892066202077204 -0.0027061604591161205 0.002646658935253148 0.00890574323759095 0.9970686430783494 -0.021998832739796862
 -0.00028890880291033565 -0.0027061600759372044 0.00032050289141262044 0.004222437117071144 0.9970686430783494 -0.021998832739796862 0.002646477290145071 0.008905774766748578
0.037515631513130004 0.0028931924881324916 0.01075439537827813 0.9967446373779797 -0.026436821251221182 0.00039973343078401983 0.005069507105458796 -0.0003578302743642898 -0.0032516897735131106
 0.9967446373779797 -0.026436821251221182 0.0028929567573301464 0.010754432289381156 -0.0003578472906919786 -0.0032516899717916956 0.0004005022330860711 0.005069415065318253
 0.00039973343078401983 0.005069507105458796 -0.0003578472906919786 -0.0032516899717916956 0.002893196066693663 0.01075389322488211 0.9967446276826843 -0.02643732284815617
 -0.0003578302743642898 -0.0032516897735131106 0.0004005022330860711 0.005069415065318253 0.9967446276826843 -0.02643732284815617 0.002892934684682452 0.010753935743329416
0.043768236765320004 0.0031579699824560194 0.012621968087008 0.996395637978738 -0.030890093982665533 0.0004892905924150175 0.0059171771178066915 -0.0004350151982575196 -0.0037982155139769393
 0.996395637978738 -0.030890093982665533 0.003157649488050427 0.012622016096719292 -0.0004350382848777746 -0.0037982154070837493 0.000490336140320214 0.005917054275492067
 0.0004892905924150175 0.0059171771178066915 -0.0004350382848777746 -0.0037982154070837493 0.003157975302046615 0.012621382713428112 0.9963956250900812 -0.03089067925796941
 -0.0004350151982575196 -0.0037982155139769393 0.000490336140320214 0.005917054275492067 0.9963956250900812 -0.03089067925796941 0.0031576197631268837 0.012621438072774162
0.050020842017509996 0.003441353132029447 0.014508343132815932 0.99602131166799 -0.035358298776357135 0.0005887384726020598 0.006765390948753619 -0.0005205662802229893 -0.004345587296306847
 0.99602131166799 -0.035358298776357135 0.0034409349742030005 0.014508403921220625 -0.0005205963443712631 -0.004345586749610176 0.0005901031396790048 0.006765231397978324
 0.0005887384726020598 0.006765390948753619 -0.0005205963443712631 -0.004345586749610176 0.003441360561864255 0.014507674726000787 0.9960212951235703 -0.03535896783662129
 -0.0005205662802229893 -0.004345587296306847 0.0005901031396790048 0.006765231397978324 0.9960212951235703 -0.03535896783662129 0.003440896463587317 0.014507744904289807
0.055454545454549996 0.003703011857122201 0.016162565813518128 0.9956751774704473 -0.03925341874334594 0.0006832693028069616 0.007502854823957216 -0.0006017850974472282 -0.0048218412986255595
 0.9956751774704473 -0.03925341874334594 0.003702498375091441 0.016162639150053434 -0.000601821957526249 -0.004821840249194703 0.0006849456933645982 0.007502658135349989
 0.0006832693028069616 0.007502854823957216 -0.000601821957526249 -0.004821840249194703 0.0037030214334826915 0.01616182542282117 0.9956751573680925 -0.0392541607187773
 -0.0006017850974472282 -0.0048218412986255595 0.0006849456933645982 0.007502658135349989 0.9956751573680925 -0.0392541607187773 0.0037024513110178394 0.016161910184572022
0.056273447269699996 0.0037437025060291875 0.0164130531707886 0.995621317563293 -0.039841418093320466 0.0006981737509385136 0.0076140179610461505 -0.0006145838628581763 -0.004893656073152217
 0.995621317563293 -0.039841418093320466 0.003743173816430778 0.016413128519261595 -0.0006146218059230987 -0.004893654937608331 0.0006998998936506253 0.007613815228275946
 0.0006981737509385136 0.0076140179610461505 -0.0006146218059230987 -0.004893654937608331 0.003743712431657904 0.01641230194607463 0.9956212968935689 -0.03984217106776522
 -0.0006145838628581763 -0.004893656073152217 0.0006998998936506253 0.007613815228275946 0.9956212968935689 -0.03984217106776522 0.00374312538921072 0.016412389048795974
0.06252605252188 0.004065375707577924 0.018335674676264135 0.9951953147599579 -0.0443393767829064 0.0008176910729422736 0.008462921167581178 -0.0007171658840559664 -0.005442272279966878
 0.9951953147599579 -0.0443393767829064 0.004064723648670104 0.018335766468040783 -0.0007172126015756211 -0.0054422703920522135 0.0008198210286604006 0.00846266820723176
 0.0008176910729422736 0.008462921167581178 -0.0007172126015756211 -0.0054422703920522135 0.004065388531847175 0.018334840878158332 0.9951952894876188 -0.04434021382261273
 -0.0007171658840559664 -0.005442272279966878 0.0008198210286604006 0.00846266820723176 0.9951952894876188 -0.04434021382261273 0.004064664177759105 0.018334947139260593
0.06877865777407 0.004406727555278562 0.020275812537139833 0.9947429628374889 -0.04885205742771902 0.0009473829004576793 0.009311958142010184 -0.0008284078131025463 -0.005991284959591684
 0.9947429628374889 -0.04885205742771902 0.004405939319236865 0.02027592275803761 -0.0008284641946402691 -0.005991282141271294 0.0009499589839903333 0.009311647331666388
 0.0009473829004576793 0.009311958142010184 -0.0008284641946402691 -0.005991282141271294 0.004406743699523322 0.020274896438167198 0.9947429324772588 -0.048852978706610754
 -0.0008284078131025463 -0.005991284959591684 0.0009499589839903333 0.009311647331666388 0.9947429324772588 -0.048852978706610754 0.00440586768344362 0.020275024221113856
0.07503126302626001 0.004768110153271143 0.022233090296170037 0.9942639222590961 -0.05337931004512497 0.0010873393739261885 0.01016098160094005 -0.0009484025728377194 -0.006540541221452024
 0.9942639222590961 -0.05337931004512497 0.004767172962032178 0.022233221035206512 -0.0009484695018632779 -0.006540537280121231 0.0010904038730374553 0.010160604736602949
 0.0010873393739261885 0.01016098160094005 -0.0009484695018632779 -0.006540537280121231 0.004768130057353713 0.022232092195295705 0.9942638863162852 -0.05338031576150848
 -0.0009484025728377194 -0.006540541221452024 0.0010904038730374553 0.010160604736602949 0.9942638863162852 -0.05338031576150848 0.004767088046720385 0.02223224399410225
0.08128386827845 0.00514987289147532 0.024207143656558624 0.9937578547066823 -0.057920958532696576 0.0012376481821497623 0.011009839801920494 -0.0010772404528317184 -0.0070898858914149295
 0.9937578547066823 -0.057920958532696576 0.005148773996115043 0.024207297106612423 -0.001077318806654879 -0.007089880619859864 0.0012412433518599751 0.011009388093339293
 0.0012376481821497623 0.011009839801920494 -0.001077318806654879 -0.007089880619859864 0.005149897015537791 0.02420606388244312 0.9937578126766975 -0.057922048905691866
 -0.0010772404528317184 -0.0070898858914149295 0.0012412433518599751 0.011009388093339293 0.9937578126766975 -0.057922048905691866 0.005148674694929688 0.02420624232281589
0.08753647353064001 0.005552362399615593 0.026197615994528207 0.993224423372349 -0.06247680511404999 0.0013983944367491879 0.011858376827206654 -0.0012150090162173649 -0.007639161282598135
 0.993224423372349 -0.06247680511404999 0.005551089079734194 0.026197794453099454 -0.0012150996656885966 -0.007639154458970075 0.0014025624932121074 0.01185784089327229
 0.0013983944367491879 0.011858376827206654 -0.0012150996656885966 -0.007639154458970075 0.005552391223488392 0.02619645490687857 0.9932243747395466 -0.06247798038219958
 -0.0012150090162173649 -0.007639161282598135 0.0014025624932121074 0.01185784089327229 0.9932243747395466 -0.06247798038219958 0.005550974295810867 0.026196662747174294
0.09378907878283 0.005975922467542885 0.02820415516552807 0.9926632932228355 -0.06704663349944674 0.001569660549726083 0.012706432799383117 -0.0013617930021801743 -0.008188207041251125
 0.9926632932228355 -0.06704663349944674 0.005974462031360037 0.028204361035435905 -0.0013618968116390154 -0.00818819842902526 0.001574443663353633 0.012705802663639012
 0.001569660549726083 0.012706432799383117 -0.0013618968116390154 -0.00818819842902526 0.00597595649219661 0.0282029131465702 0.9926632374592649 -0.06704789392876047
 -0.0013617930021801743 -0.008188207041251125 0.001574443663353633 0.012705802663639012 0.9926632374592649 -0.06704789392876047 0.00597433067830558 0.028203153279073176
0.100041684035 0.006420893943583292 0.030226411153749713 0.9920741312435635 -0.07163021121094303 0.00175152611366827 0.013553844048897206 -0.0015176742249730403 -0.008736860047797926
 0.9920741312435635 -0.07163021121094303 0.006419233727361623 0.030226646943987905 -0.001517792051979711 -0.008736849395761383 0.0017569664016751905 0.013553109135171547
 0.00175152611366827 0.013553844048897206 -0.001517792051979711 -0.008736849395761383 0.0064209336915855494 0.03022508861921484 0.9920740678085992 -0.07163155708381866
 -0.0015176742249730403 -0.008736860047797926 0.0017569664016751905 0.013553109135171547 0.9920740678085992 -0.07163155708381866 0.006419084731074521 0.030225364071145233
0.1059090909091 0.006858226858935163 0.03213806673381061 0.9914954759023705 -0.07594369782174087 0.0019318960622967734 0.014348314257622789 -0.001672296279027716 -0.009251207710665925
 0.9914954759023705 -0.07594369782174087 0.006856367677836365 0.032138332978185205 -0.0016724280337808064 -0.009251194902892232 0.0019379912896697491 0.01434747086402299
 0.0019318960622967734 0.014348314257622789 -0.0016724280337808064 -0.009251194902892232 0.006858272473441066 0.03213666904450626 0.9914954047650929 -0.0759451241526595
 -0.001672296279027716 -0.009251207710665925 0.0019379912896697491 0.01434747086402299 0.9914954047650929 -0.0759451241526595 0.006856201160627065 0.03213698051447995
0.1062942892872 0.006887614614909392 0.032264034324419835 0.991456606670319 -0.07622729131387981 0.0019440677829584737 0.014400443253171918 -0.0016827314709095115 -0.00928495435365677
 0.991456606670319 -0.07622729131387981 0.006885741983056463 0.032264302650849 -0.0016828641660902753 -0.009284941395872486 0.001950207301614879 0.014399592381349038
 0.0019440677829584737 0.014400443253171918 -0.0016828641660902753 -0.009284941395872486 0.006887660631762833 0.032262631715468185 0.9914565350099196 -0.07622872293661061
 -0.0016827314709095115 -0.00928495435365677 0.001950207301614879 0.014399592381349038 0.9914565350099196 -0.07622872293661061 0.006885574283175133 0.03226294565021004
0.11254689453939999 0.007376419075642847 0.03431667408229659 0.9908103912114217 -0.08083761375069808 0.0021473591569141463 0.015246059554138493 -0.0018570403931628145 -0.009832321146959946
 0.9908103912114217 -0.08083761375069808 0.007374321419939642 0.034316977668658155 -0.0018571887999184926 -0.009832305602769003 0.002154239893250724 0.015245080936048547
 0.0021473591569141463 0.015246059554138493 -0.0018571887999184926 -0.009832305602769003 0.007376471929575825 0.03431519186806801 0.9908103107563423 -0.08083913145066357
 -0.0018570403931628145 -0.009832321146959946 0.002154239893250724 0.015245080936048547 0.9908103107563423 -0.08083913145066357 0.007374133971183726 0.034315547586333296
0.11879949979160001 0.007887638583051844 0.03638397783817672 0.990135159261592 -0.08546090637624086 0.0023614706632744133 0.016090518663410883 -0.0020406734057352924 -0.010378788738277845
 0.990135159261592 -0.08546090637624086 0.007885303323091168 0.03638431951683586 -0.0020408383600828066 -0.010378770312304822 0.002369134526556557 0.01608939989886482
 0.0023614706632744133 0.016090518663410883 -0.0020408383600828066 -0.010378770312304822 0.007887698866653102 0.03638241651585744 0.9901350694271731 -0.08546251050129908
 -0.0020406734057352924 -0.010378788738277845 0.002369134526556557 0.01608939989886482 0.9901350694271731 -0.08546251050129908 0.007885095096751012 0.03638281745687073
0.1250521050438 0.008421600907703254 0.038465590198027165 0.989430588112402 -0.09009688577962963 0.002586469443061598 0.016933642958716102 -0.0022336995761309156 -0.010924182562749823
 0.989430588112402 -0.09009688577962963 0.008419015490252271 0.03846597291098003 -0.0022338819064544675 -0.010924160944875418 0.0025949582558613335 0.0169323710317239
 0.002586469443061598 0.016933642958716102 -0.0022338819064544675 -0.010924160944875418 0.008421669238116597 0.03846395029089526 0.9894304882971784 -0.09009857669952262
 -0.0022336995761309156 -0.010924182562749823 0.0025949582558613335 0.0169323710317239 0.9894304882971784 -0.09009857669952262 0.008418785475605855 0.03846440003362329
0.131304710296 0.008978630175253358 0.04056115231729391 0.9886963581581951 -0.09474525795070617 0.0028224192361432296 0.017775251574156797 -0.0024361845176657103 -0.011468325196160256
 0.9886963581581951 -0.09474525795070617 0.008975782074489125 0.04056157911711026 -0.0024363850444549056 -0.011468300061544642 0.002831774725154586 0.017773812849273308
 0.0028224192361432296 0.017775251574156797 -0.0024363850444549056 -0.011468300061544642 0.008978707195172783 0.040559434376760684 0.9886962477431456 -0.09474703605449122
 -0.0024361845176657103 -0.011468325196160256 0.002831774725154586 0.017773812849273308 0.9886962477431456 -0.09474703605449122 0.008975529280366065 0.040559936641187004
0.1375573155481 0.009435523990592153 0.042399196565522705 0.9880557337039555 -0.09913445949311181 0.003040512612787945 0.018589004424139702 -0.0026193207622324218 -0.011984906625342786
 0.9880557337039555 -0.09913445949311181 0.009432398885289062 0.04239965979690453 -0.002619540498158986 -0.011984877917322403 0.0030507635985099896 0.018587399900349803
 0.003040512612787945 0.018589004424139702 -0.002619540498158986 -0.011984877917322403 0.009435609241626888 0.04239740151228156 0.9880556121919131 -0.099136325008539
 -0.0026193207622324218 -0.011984906625342786 0.0030507635985099896 0.018587399900349803 0.9880556121919131 -0.099136325008539 0.009432123208918123 0.04239794832718518
0.1438099208003 0.009908648002519052 0.044226857176754064 0.9873923076465456 -0.10351178983925761 0.003267377944292619 0.01939897328838811 -0.0028097404921808384 -0.012497982754576933
 0.9873923076465456 -0.10351178983925761 0.009905233108747087 0.04422735910265478 -0.0028099802813847303 -0.012497950157376073 0.0032785636818969993 0.019397190268385565
 0.003267377944292619 0.01939897328838811 -0.0028099802813847303 -0.012497950157376073 0.009908741964795378 0.04422498564434131 0.9873921744184543 -0.10351374314800628
 -0.0028097404921808384 -0.012497982754576933 0.0032785636818969993 0.019397190268385565 0.9873921744184543 -0.10351374314800628 0.009904933747291083 0.044225579849079946
0.1500625260525 0.01039782510492901 0.04604395940354684 0.9867062616181698 -0.1078771175262139 0.003502929450295871 0.02020506047035479 -0.003007359818124059 -0.013007460949224258
 0.9867062616181698 -0.1078771175262139 0.010394107648305664 0.04604450239153246 -0.0030076204996263324 -0.013007424134825227 0.0035150889547599404 0.020203085783808646
 0.003502929450295871 0.02020506047035479 -0.0030076204996263324 -0.013007424134825227 0.010397928270368256 0.04604201205179187 0.986706116039863 -0.10787915902353565
 -0.003007359818124059 -0.013007460949224258 0.0035150889547599404 0.020203085783808646 0.986706116039863 -0.10787915902353565 0.010393783828170872 0.04604265660973903
0.15631513130469998 0.010902876810648846 0.04785033369449203 0.9859977783086699 -0.11223031204437775 0.003747080264848509 0.02100717010878112 -0.0032120937524059722 -0.013513250652876438
 0.9859977783086699 -0.11223031204437775 0.010898844026406363 0.0478509202170164 -0.0032123761599142067 -0.013513209281157961 0.0037602523065848217 0.02100499011738098
