! Created with skrf 1.8.0 (http://scikit-rf.org).
# GHz S RI R 50.0 
!freq ReS11 ImS11 ReS12 ImS12 ReS13 ImS13
! ReS14 ImS14
! ReS21 ImS21 ReS22 ImS22 ReS23 ImS23
! ReS24 ImS24
! ReS31 ImS31 ReS32 ImS32 ReS33 ImS33
! ReS34 ImS34
! ReS41 ImS41 ReS42 ImS42 ReS43 ImS43
! ReS44 ImS44
!
0.0 0.001615978140155 0.0 0.9983840218456 0.0 6.213129770887e-05 0.0 -6.213129735348e-05 7.608889443081171e-21
 0.9983840218456 0.0 0.00161597814015 0.0 -6.213129735343e-05 7.608889443075046e-21 6.213129770852e-05 0.0
 6.213129770887e-05 0.0 -6.213129735343e-05 7.608889443075046e-21 0.001615978147259 0.0 0.9983840218527 0.0
 -6.213129735348e-05 7.608889443081171e-21 6.213129770852e-05 0.0 0.9983840218527 0.0 0.001615978147258 0.0
0.005 0.0017388098713833574 0.0013278561747527176 0.9982286212919336 -0.0033844263805801666 8.620452626195524e-05 0.0006484209221434498 -8.396347354574203e-05 -0.000413274149564312
 0.9982286212919336 -0.0033844263805801666 0.0017388117046382766 0.0013278551551356072 -8.396193872058488e-05 -0.00041327306118916634 8.620076076103764e-05 0.0006484224351740017
 8.620452626195524e-05 0.0006484209221434498 -8.396193872058488e-05 -0.00041327306118916634 0.0017388098311724213 0.0013277889913201222 0.998228620931568 -0.003384493440661646
 -8.396347354574203e-05 -0.000413274149564312 8.620076076103764e-05 0.0006484224351740017 0.998228620931568 -0.003384493440661646 0.0017388110292232304 0.001327788222312911
0.006252605252188 0.001771088092101186 0.0016650066737102205 0.9981875227287345 -0.004231347922200735 9.309742229622793e-05 0.0008108542202582464 -9.014592392710076e-05 -0.000517115029996165
 0.9981875227287345 -0.004231347922200735 0.001771090957110315 0.0016650053663895313 -9.014353489264153e-05 -0.0005171136901569214 9.309153998761419e-05 0.000810856172295905
 9.309742229622793e-05 0.0008108542202582464 -9.014353489264153e-05 -0.0005171136901569214 0.0017710880985695563 0.0016649227231639852 0.9981875222351738 -0.004231431728127922
 -9.014592392710076e-05 -0.000517115029996165 9.309153998761419e-05 0.000810856172295905 0.9981875222351738 -0.004231431728127922 0.0017710899717458335 0.0016649217139665005
0.01250521050438 0.0019413751565456414 0.0033645730449077846 0.9979692579085753 -0.008463394886433773 0.00013270832980389835 0.0016221586396442766 -0.00012532291848481786 -0.0010366629800929682
 0.9979692579085753 -0.008463394886433773 0.0019413865871509084 0.0033645700902404396 -0.00012531349483764796 -0.001036660528810228 0.00013268490020580334 0.0016221632109006958
 0.00013270832980389835 0.0016221586396442766 -0.00012531349483764796 -0.001036660528810228 0.0019413757308285196 0.0033644054604578468 0.9979692564934748 -0.008463562290123294
 -0.00012532291848481786 -0.0010366629800929682 0.00013268490020580334 0.0016221632109006958 0.9979692564934748 -0.008463562290123294 0.0019413832188617342 0.003364402951851028
0.01875781575657 0.002127224373232241 0.0050880569675954375 0.9977289464509879 -0.012706419213872855 0.0001810591968169648 0.0024344066336886945 -0.0001677721631491544 -0.001557936859075359
 0.9977289464509879 -0.012706419213872855 0.002127250040796367 0.005088051981504924 -0.0001677511361096905 -0.001557933574353819 0.00018100663042586995 0.0024344146436988427
 0.0001810591968169648 0.0024344066336886945 -0.0001677511361096905 -0.001557933574353819 0.0021272260728845806 0.0050878059923212 0.9977289436933211 -0.012706670111782246
 -0.0001677721631491544 -0.001557936859075359 0.00018100663042586995 0.0024344146436988427 0.9977289436933211 -0.012706670111782246 0.002127242917654308 0.005087801455219241
0.02501042100875 0.002329008646106524 0.006833043484173918 0.9974662959125824 -0.016962459946771938 0.0002382460872455246 0.003247612975249297 -0.0002175999881445094 -0.0020807019693724993
 0.9974662959125824 -0.016962459946771938 0.0023290542005852573 0.006833036039995175 -0.00021756283982971416 -0.002080698183217521 0.00023815282947658062 0.003247625386481775
 0.0002382460872455246 0.003247612975249297 -0.00021756283982971416 -0.002080698183217521 0.0023290120168645008 0.006832709321669114 0.9974662913873124 -0.016962794307190502
 -0.0002175999881445094 -0.0020807019693724993 0.00023815282947658062 0.003247625386481775 0.9974662913873124 -0.016962794307190502 0.002329041963068145 0.006832702187382987
0.03126302626094 0.0025470855165054722 0.008598281577310504 0.9971809994051907 -0.021232380068262276 0.00030436521411694376 0.004061721864171485 -0.0002749097067280362 -0.0026047879010322283
 0.9971809994051907 -0.021232380068262276 0.0025471565895240278 0.00859827120551075 -0.00027485196169885223 -0.0026047840000193155 0.0003042197332416501 0.004061739781588674
 0.00030436521411694376 0.004061721864171485 -0.00027485196169885223 -0.0026047840000193155 0.002547091097722131 0.008597864447277802 0.9971809926862653 -0.02123279787601206
 -0.0002749097067280362 -0.0026047879010322283 0.0003042197332416501 0.004061739781588674 0.9971809926862653 -0.02123279787601206 0.0025471378932877173 0.008597854107082506
0.037515631513130004 0.002781804689663123 0.010382949320768225 0.9968727433879663 -0.025516601287108552 0.00037951208395077914 0.004876649314421195 -0.0003398022877283947 -0.0031300461551519625
 0.9968727433879663 -0.025516601287108552 0.00278190689549754 0.010382935508846345 -0.0003397195086465739 -0.0031300425806780295 0.00037930286588479776 0.0048766739859631225
 0.00037951208395077914 0.004876649314421195 -0.0003397195086465739 -0.0031300425806780295 0.0027818130155607725 0.010382449447430244 0.9968727340485913 -0.02551710255554659
 -0.0003398022877283947 -0.0031300461551519625 0.00037930286588479776 0.0048766739859631225 0.9968727340485913 -0.02551710255554659 0.002781880412136556 0.010382435252040356
0.043768236765320004 0.0030335109457234888 0.012186430231131664 0.9965412108459659 -0.02981532761176442 0.00046378108185922087 0.005692296042519794 -0.0004123765888702021 -0.00365633726454464
 0.9965412108459659 -0.02981532761176442 0.0030336498821572733 0.012186412423244067 -0.00041226437412542044 -0.00365633451294231 0.0004634966279883109 0.0056923288598864
 0.00046378108185922087 0.005692296042519794 -0.00041226437412542044 -0.00365633451294231 0.003033522544675177 0.012185847861655602 0.9965411984562677 -0.029815912364633705
 -0.0004123765888702021 -0.00365633726454464 0.0004634966279883109 0.0056923288598864 0.9965411984562677 -0.029815912364633705 0.003033614297172426 0.012185829120818812
0.050020842017509996 0.0033025454790711816 0.014008220836178416 0.9961860828998452 -0.03412863770588428 0.0005572652142029476 0.006508552798641965 -0.0004927294318530663 -0.0041835254737816
 0.9961860828998452 -0.03412863770588428 0.0033027267282697208 0.014008198432866117 -0.0004925834141374296 -0.004183524096405264 0.0005568940406918985 0.006508595298170853
 0.0005572652142029476 0.006508552798641965 -0.0004925834141374296 -0.004183524096405264 0.003302560875679356 0.01400755623803736 0.9961860670274303 -0.0341293059801415
 -0.0004927294318530663 -0.0041835254737816 0.0005568940406918985 0.006508595298170853 0.9961860670274303 -0.0341293059801415 0.0033026807419430614 0.014007532220174894
0.055454545454549996 0.003550680124606003 0.015605942118770368 0.9958580552521891 -0.037888879093532425 0.0006460606331585845 0.0072183096678004235 -0.0005689492838686815 -0.004642291985992162
 0.9958580552521891 -0.037888879093532425 0.003550902666381213 0.01560591520095065 -0.0005687703695374602 -0.004642292293407699 0.0006456047830930154 0.007218361942147517
 0.0006460606331585845 0.0072183096678004235 -0.0005687703695374602 -0.004642292293407699 0.0035506992451295872 0.015605206288770324 0.995858035999536 -0.0378896199964731
 -0.0005689492838686815 -0.004642291985992162 0.0006456047830930154 0.007218361942147517 0.995858035999536 -0.0378896199964731 0.003550846596769732 0.015605177058519189
0.056273447269699996 0.003589246584483368 0.01584788532527987 0.9958070397675498 -0.03845653016364485 0.0006600559215949886 0.007325302981645224 -0.0005809556055079299 -0.004711476138812573
 0.9958070397675498 -0.03845653016364485 0.003589475713310554 0.01584785768313669 -0.0005807714509361706 -0.004711476742101919 0.0006595865597026674 0.007325356845239269
 0.0006600559215949886 0.007325302981645224 -0.0005807714509361706 -0.004711476742101919 0.00358926630010319 0.015847138779109492 0.9958070199766443 -0.03845728201679092
 -0.0005809556055079299 -0.004711476138812573 0.0006595865597026674 0.007325356845239269 0.9958070199766443 -0.03845728201679092 0.003589418040379343 0.01584710871095261
0.06252605252188 0.003893950015919818 0.017705030592942653 0.9954037614017709 -0.04279894839559982 0.0007722429256976443 0.008142424079570606 -0.0006771478334433902 -0.005240054305455453
 0.9954037614017709 -0.04279894839559982 0.0038942325761814026 0.017704997024312844 -0.0006769212410029465 -0.005240057550986005 0.0007716639228089673 0.008142491135631641
 0.0007722429256976443 0.008142424079570606 -0.0006769212410029465 -0.005240057550986005 0.0038939745693519815 0.017704202406172567 0.9954037372526954 -0.042799783892311476
 -0.0006771478334433902 -0.005240054305455453 0.0007716639228089673 0.008142491135631641 0.9954037372526954 -0.042799783892311476 0.0038941619461022943 0.017704165472337236
0.06877865777407 0.00421698916940822 0.019579291384521056 0.9949759279571129 -0.047155795416956345 0.0008939140952157183 0.008959788539353478 -0.0007813967208242527 -0.005769123863482378
 0.9949759279571129 -0.047155795416956345 0.004217330697991513 0.01957925115710669 -0.0007811234221239949 -0.005769130467995837 0.00089321401621361 0.008959870763691797
 0.0008939140952157183 0.008959788539353478 -0.0007811234221239949 -0.005769130467995837 0.004217019077550369 0.01957838188335607 0.994975899005839 -0.04715671463714047
 -0.0007813967208242527 -0.005769123863482378 0.00089321401621361 0.008959870763691797 0.994975899005839 -0.04715671463714047 0.004217245854699706 0.019578337226075968
0.07503126302626001 0.00455869516054749 0.021470320863545972 0.9945232201558037 -0.05152694321959262 0.0010251553234709929 0.009777264316375425 -0.0008937906878766366 -0.0062985470260086655
 0.9945232201558037 -0.05152694321959262 0.004559101179792214 0.02147027320008349 -0.0008934664470781163 -0.006298557761445929 0.001024322752494615 0.009777363833089667
 0.0010251553234709929 0.009777264316375425 -0.0008934664470781163 -0.006298557761445929 0.004558730939894861 0.02146933039476945 0.9945231859536359 -0.05152794625681267
 -0.0008937906878766366 -0.0062985470260086655 0.001024322752494615 0.009777363833089667 0.9945231859536359 -0.05152794625681267 0.004559000882455335 0.02146927711345171
0.08128386827845 0.00491939683615577 0.02337778434557854 0.9940453195916219 -0.05591223898360678 0.001166050412578679 0.010594715253681261 -0.0010144158952962066 -0.006828183984628872
 0.9940453195916219 -0.05591223898360678 0.004919872853744121 0.023377728423481355 -0.0010140365091546733 -0.006828199678142331 0.0011650739550180817 0.010594834336037303
 0.001166050412578679 0.010594715253681261 -0.0010140365091546733 -0.006828199678142331 0.004919439003025694 0.023376713280294018 0.9940452796843352 -0.05591332594131573
 -0.0010144158952962066 -0.006828183984628872 0.0011650739550180817 0.010594834336037303 0.9940452796843352 -0.05591332594131573 0.004919755876396788 0.023376650431253133
0.08753647353064001 0.005299420741312056 0.025301354965992152 0.993541908993392 -0.06031150936105949 0.0013166809623299854 0.011412001346922386 -0.0011433561635399627 -0.0073578926844647865
 0.993541908993392 -0.06031150936105949 0.005299972250336909 0.0253012899169248 -0.0011429174615541562 -0.007357914218420102 0.0013155492470210716 0.011412142418162395
 0.0013166809623299854 0.011412001346922386 -0.0011429174615541562 -0.007357914218420102 0.005299469813195897 0.025300203693999882 0.9935418629212812 -0.06031268035832073
 -0.0011433561635399627 -0.0073578926844647865 0.0013155492470210716 0.011412142418162395 0.9935418629212812 -0.06031268035832073 0.005299837382698949 0.025300130290061937
0.09378907878283 0.0056990910563073675 0.027240710582546603 0.9930126724626476 -0.06472456353172294 0.0014771262620479463 0.012228978945341704 -0.0012806928878511916 -0.007887528669012331
 0.9930126724626476 -0.06472456353172294 0.00569972353558468 0.027240635492099003 -0.0012801907325683112 -0.007887556980977917 0.0014758279436394666 0.012229144579479687
 0.0014771262620479463 0.012228978945341704 -0.0012801907325683112 -0.007887556980977917 0.00569914755247871 0.027239479519123557 0.9930126197595593 -0.06472581869642358
 -0.0012806928878511916 -0.007887528669012331 0.0014758279436394666 0.012229144579479687 0.9930126197595593 -0.06472581869642358 0.005699569582428489 0.02723939452939243
0.100041684035 0.006118729512167438 0.029195531514634557 0.9924572956933104 -0.06915119542909172 0.0016474631842344385 0.013045500905669428 -0.001426504950490198 -0.00841694497803697
 0.9924572956933104 -0.06915119542909172 0.006119448425870922 0.029195445421879372 -0.0014259352377261451 -0.008416981060771433 0.0016459869457727484 0.013045693828156525
 0.0016474631842344385 0.013045500905669428 -0.0014259352377261451 -0.008416981060771433 0.006118793954499738 0.029194221093227748 0.9924572358862488 -0.06915253490522076
 -0.001426504950490198 -0.00841694497803697 0.0016459869457727484 0.013045693828156525 0.9924572358862488 -0.06915253490522076 0.006119274208052168 0.029194123442647324
0.1059090909091 0.0065309608569256205 0.03104370506010983 0.9919120808385744 -0.07331727327903119 0.0018163689057154007 0.013811171734831238 -0.001571110316353994 -0.008913413073539595
 0.9919120808385744 -0.07331727327903119 0.006531765836957747 0.031043607727139808 -0.0015704735053720168 -0.008913457400349847 0.0018147154431727027 0.013811392878874139
 0.0018163689057154007 0.013811171734831238 -0.0015704735053720168 -0.008913457400349847 0.006531033233822358 0.031042320585663426 0.9919120139285305 -0.07331869201218325
 -0.001571110316353994 -0.008913413073539595 0.0018147154431727027 0.013811392878874139 0.9919120139285305 -0.07331869201218325 0.006531571544660849 0.03104221003685846
0.1062942892872 0.006558655288497075 0.031165498837122992 0.9918754661777952 -0.07359118541901934 0.0018277660799907078 0.013861416716505528 -0.0015808686301911367 -0.008945992081060821
 0.9918754661777952 -0.07359118541901934 0.006559466086518222 0.031165400734227838 -0.0015802272894948825 -0.00894603698247278 0.0018261006355622925 0.013861639804996972
 0.0018277660799907078 0.013861416716505528 -0.0015802272894948825 -0.00894603698247278 0.006558728202734592 0.03116410951669566 0.9918753987864457 -0.073592609359295
 -0.0015808686301911367 -0.008945992081060821 0.0018261006355622925 0.013861639804996972 0.9918753987864457 -0.073592609359295 0.00655927044076318 0.03116399808575792
0.11254689453939999 0.007019184900928862 0.03315029309345753 0.9912668734052079 -0.0780443015665254 0.0020181066752633877 0.014676572606522897 -0.0017438575102494951 -0.00947451783344479
 0.9912668734052079 -0.0780443015665254 0.0070200930183158 0.033150181925282664 -0.001743140505182611 -0.009474572656558738 0.002016240772795834 0.014676828891407891
 0.0020181066752633877 0.014676572606522897 -0.001743140505182611 -0.009474572656558738 0.007019266816862187 0.03314882535178473 0.9912667979414291 -0.07804581013898665
 -0.0017438575102494951 -0.00947451783344479 0.002016240772795834 0.014676828891407891 0.9912667979414291 -0.07804581013898665 0.007019874797791728 0.03314869897623753
0.11879949979160001 0.007500632076245393 0.03514959327821414 0.9906312090522359 -0.08251030064102259 0.0022185539679360536 0.015490811633944905 -0.0019155423849924744 -0.010002367457407046
 0.9906312090522359 -0.08251030064102259 0.007501642933641941 0.03514946794186277 -0.0019147457137488498 -0.010002433360283138 0.0022164763919830716 0.015491104299010367
 0.0022185539679360536 0.015490811633944905 -0.0019147457137488498 -0.010002433360283138 0.007500723529403906 0.03514804761925066 0.9906311250195725 -0.08251189402149554
 -0.0019155423849924744 -0.010002367457407046 0.0022164763919830716 0.015491104299010367 0.9906311250195725 -0.08251189402149554 0.007501401007948752 0.035147905089809396
0.1250521050438 0.008003307622460355 0.037163076055195074 0.9899681671703754 -0.08698892889379449 0.002429174125699464 0.016303973772971627 -0.002095991165393139 -0.010529383532755496
 0.9899681671703754 -0.08698892889379449 0.00800442662598864 0.03716293539952735 -0.0020951108611932012 -0.010529461728423947 0.002426873700468097 0.016304306155817492
 0.002429174125699464 0.016303973772971627 -0.0020951108611932012 -0.010529461728423947 0.008003409154578865 0.03716145300202751 0.9899680740631752 -0.08699060727277931
 -0.002095991165393139 -0.010529383532755496 0.002426873700468097 0.016304306155817492 0.9899680740631752 -0.08699060727277931 0.008004159881325893 0.037161293064011475
0.131304710296 0.008527519290717362 0.039190415122765464 0.9892774443683774 -0.09147992269633361 0.0026500303844077403 0.017115895989069502 -0.002285268783955576 -0.011055406005239056
 0.9892774443683774 -0.09147992269633361 0.008528751831451636 0.03919025794802395 -0.0022843009155497024 -0.011055497761624455 0.00264749597676814 0.017116271581628942
 0.0026500303844077403 0.017115895989069502 -0.0022843009155497024 -0.011055497761624455 0.008527631450782093 0.039188715221851814 0.9892773416717938 -0.09148168627456926
 -0.002285268783955576 -0.011055406005239056 0.00264749597676814 0.017116271581628942 0.9892773416717938 -0.09148168627456926 0.008528459171588317 0.03918853657491046
0.1375573155481 0.008955626360125396 0.040968880808770765 0.9886767357712175 -0.09572047670996035 0.0028537662167085094 0.017900901129356297 -0.0024560270412083765 -0.01155477714735284
 0.9886767357712175 -0.09572047670996035 0.008956978759420633 0.04096870921997044 -0.002454966027429598 -0.01155488263511318 0.002850989525943994 0.017901319609343717
 0.0028537662167085094 0.017900901129356297 -0.002454966027429598 -0.01155488263511318 0.008955750698783266 0.04096710390891455 0.9886766230445685 -0.0957223255848468
 -0.0024560270412083765 -0.01155477714735284 0.002850989525943994 0.017901319609343717 0.9886766230445685 -0.0957223255848468 0.008956657953911 0.04096690978263732
0.1438099208003 0.009398892954029346 0.04273762990478505 0.9880547414798446 -0.09994989398223195 0.0030657080602997104 0.018682446398716076 -0.002633588941405283 -0.012050946342397688
 0.9880547414798446 -0.09994989398223195 0.009400370742926586 0.042737442933114024 -0.0026324306047417886 -0.012051066807380842 0.0030626785278457364 0.01868291101816041
 0.0030657080602997104 0.018682446398716076 -0.0026324306047417886 -0.012051066807380842 0.009399030211819325 0.04273577650037275 0.9880546182100697 -0.09995182834573176
 -0.002633588941405283 -0.012050946342397688 0.0030626785278457364 0.01868291101816041 0.9880546182100697 -0.09995182834573176 0.00940002051339708 0.04273556596280962
0.1500625260525 0.009857157847672512 0.04449650313001886 0.9874116270238074 -0.1041680574378948 0.003285778885919976 0.019460443663071914 -0.0028178792494394154 -0.0125438298921287
 0.9874116270238074 -0.1041680574378948 0.009858766552767515 0.04449629976254022 -0.0028166194265766466 -0.012543966629673409 0.003282486026986058 0.01946095779274277
 0.003285778885919976 0.019460443663071914 -0.0028166194265766466 -0.012543966629673409 0.009857308783976384 0.04449457373114237 0.987411492690349 -0.10417007748948516
 -0.0028178792494394154 -0.0125438298921287 0.003282486026986058 0.01946095779274277 0.987411492690349 -0.10417007748948516 0.009858385623892702 0.04449434581327156
0.15631513130469998 0.010330258613943672 0.04624534595820161 0.9867475588363277 -0.10837485066555631 0.003513900719730975 0.02023480638119894 -0.0030088217729617324 -0.013033345922766103
 0.9867475588363277 -0.10837485066555631 0.01033200375731537 0.04624512513779667 -0.0030074563150073452 -0.01303350027738242 0.003510334124887232 0.020235373509055358
