! Created with skrf 1.8.0 (http://scikit-rf.org).
# GHz S RI R 50.0 
!freq ReS11 ImS11 ReS12 ImS12 ReS13 ImS13
! ReS14 ImS14
! ReS21 ImS21 ReS22 ImS22 ReS23 ImS23
! ReS24 ImS24
! ReS31 ImS31 ReS32 ImS32 ReS33 ImS33
! ReS34 ImS34
! ReS41 ImS41 ReS42 ImS42 ReS43 ImS43
! ReS44 ImS44
!
0.0 0.001828424068924 0.0 0.9981715758996 0.0 7.114268120167e-05 0.0 -7.114267987068e-05 8.712465518639309e-21
 0.9981715758996 0.0 0.001828424068906 0.0 -7.114267986963e-05 8.712465518510721e-21 7.114268120313e-05 0.0
 7.114268120167e-05 0.0 -7.114267986963e-05 8.712465518510721e-21 0.001828424084611 0.0 0.9981715759153 0.0
 -7.114267987068e-05 8.712465518639309e-21 7.114268120313e-05 0.0 0.9981715759153 0.0 0.001828424084647 0.0
0.005 0.001968237020181131 0.001492285834022038 0.9979945232656368 -0.0038291486582024284 0.000100651199164708 0.0007998438070324981 -9.757648294401016e-05 -0.000499068385579015
 0.9979945232656368 -0.0038291486582024284 0.0019682379347694913 0.0014922853079411577 -9.758029113564836e-05 -0.0004990713243856565 0.00010063305690642549 0.000799850722160594
 0.000100651199164708 0.0007998438070324981 -9.758029113564836e-05 -0.0004990713243856565 0.001968234599612246 0.0014922199994341215 0.9979945228822147 -0.0038292157234559735
 -9.757648294401016e-05 -0.000499068385579015 0.00010063305690642549 0.000799850722160594 0.9979945228822147 -0.0038292157234559735 0.001968239589376157 0.0014922170103950517
0.006252605252188 0.0020051979374719553 0.0018711989280382163 0.9979473771272078 -0.0047873263441020825 0.0001092422528830795 0.0010001656036975287 -0.00010517762887502007 -0.0006244662867440601
 0.9979473771272078 -0.0047873263441020825 0.0020051993669032223 0.001871198243040823 -0.00010518355453705694 -0.0006244699091523214 0.00010921390766179616 0.0010001745916884911
 0.0001092422528830795 0.0010001656036975287 -0.00010518355453705694 -0.0006244699091523214 0.002005194225287851 0.0018711166447319442 0.9979473766000725 -0.004787410170620895
 -0.00010517762887502007 -0.0006244662867440601 0.00010921390766179616 0.0010001745916884911 0.9979473766000725 -0.004787410170620895 0.002005202026056594 0.00187111287032418
0.01250521050438 0.002201468620427728 0.0037812519299527435 0.9976951598488675 -0.009575118735887084 0.00015935786722519335 0.0020004990167875945 -0.0001490451056942017 -0.0012517758881703867
 0.9976951598488675 -0.009575118735887084 0.00220147432615642 0.0037812503027210963 -0.0001490684556165974 -0.001251782565225967 0.00015924484019395516 0.002000520745279112
 0.00015935786722519335 0.0020004990167875945 -0.0001490684556165974 -0.001251782565225967 0.0022014543724454268 0.0037810877019978286 0.9976951583245589 -0.009575286117191304
 -0.0001490451056942017 -0.0012517758881703867 0.00015924484019395516 0.002000520745279112 0.9976951583245589 -0.009575286117191304 0.0022014855308128034 0.0037810797468299526
0.01875781575657 0.0024177247316255705 0.0057180472225924995 0.9974145682595434 -0.014374958927180293 0.00022161427329678838 0.003001637170962925 -0.00020289282470134642 -0.0018809562702174747
 0.9974145682595434 -0.014374958927180293 0.002417737548852053 0.0057180444292859855 -0.00020294489086633506 -0.0018809653069731896 0.0002213603929256032 0.0030016762200045107
 0.00022161427329678838 0.003001637170962925 -0.00020294489086633506 -0.0018809653069731896 0.0024176931285962862 0.0057178012721495666 0.9974145652583688 -0.014375209763402924
 -0.00020289282470134642 -0.0018809562702174747 0.0002213603929256032 0.0030016762200045107 0.9974145652583688 -0.014375209763402924 0.0024177631616267097 0.005717788638245982
0.02501042100875 0.002654436613826963 0.0076787899938171545 0.9971052310280725 -0.019189094191995215 0.0002961374114685554 0.004003573153268241 -0.00026686212782493047 -0.0025116690789674418
 0.9971052310280725 -0.019189094191995215 0.0026544593698715675 0.007678785844863103 -0.0002669540641049017 -0.0025116796421454208 0.00029568651274950716 0.004003634906203457
 0.0002961374114685554 0.004003573153268241 -0.0002669540641049017 -0.0025116796421454208 0.0026543808464715426 0.007678462577437143 0.9971052260746882 -0.019189428401795293
 -0.00026686212782493047 -0.0025116690789674418 0.00029568651274950716 0.004003634906203457 0.9971052260746882 -0.019189428401795293 0.0026545052516863954 0.007678444681391176
0.03126302626094 0.0029120548954167246 0.009662001929711261 0.9967667603248761 -0.024018437798000804 0.0003830527979088007 0.00500620461061477 -0.0003410892510339248 -0.0031436617890703076
 0.9967667603248761 -0.024018437798000804 0.0029120904130916178 0.009661996270690665 -0.0003412320959585062 -0.0031436729058124647 0.0003823486802876214 0.005006295257962534
 0.0003830527979088007 0.00500620461061477 -0.0003412320959585062 -0.0031436729058124647 0.0029119681616644735 0.00966159334265659 0.99676675294784 -0.024018855314698863
 -0.0003410892510339248 -0.0031436617890703076 0.0003823486802876214 0.005006295257962534 0.99676675294784 -0.024018855314698863 0.0029121624249961826 0.009661569516080088
0.037515631513130004 0.003191019522231397 0.011666688809786701 0.9963987612923159 -0.028863401362986978 0.00048248422118202667 0.006009390739002522 -0.0004257063089366625 -0.003776710766195622
 0.9963987612923159 -0.028863401362986978 0.0031910706218987164 0.01166668152228951 -0.0004259109970254055 -0.0037767213237575306 0.0004814706352584577 0.006009517284992132
 0.00048248422118202667 0.006009390739002522 -0.0004259109970254055 -0.0037767213237575306 0.0031908950218284436 0.011666199391331926 0.9963987510204846 -0.028863902130058218
 -0.0004257063089366625 -0.003776710766195622 0.0004814706352584577 0.006009517284992132 0.9963987510204846 -0.028863902130058218 0.0031911746223985495 0.01166616888033316
0.043768236765320004 0.003491763216147149 0.013692087198249584 0.9960008359449034 -0.03372414810382523 0.0005945531037573307 0.007012969639290602 -0.0005208416174000559 -0.004410603965053804
 0.9960008359449034 -0.03372414810382523 0.0034918327188081864 0.01369207820049912 -0.0005211189858572258 -0.004410612710765737 0.0005931737504560763 0.00701313990915248
 0.0005945531037573307 0.007012969639290602 -0.0005211189858572258 -0.004410612710765737 0.0034915941511639388 0.013691517345779168 0.9960008223079865 -0.03372473206182706
 -0.0005208416174000559 -0.004410603965053804 0.0005931737504560763 0.00701313990915248 0.9960008223079865 -0.03372473206182706 0.0034919745644206913 0.01369147931013982
0.050020842017509996 0.003814713056119479 0.01573755977820037 0.9955725851942064 -0.03860069744320858 0.0007193781004061416 0.008016765492066886 -0.000626619778714722 -0.0050451338146856005
 0.9955725851942064 -0.03860069744320858 0.003814803785364551 0.015737549025924245 -0.0006269805714421398 -0.005045139356013814 0.0007175766370286598 0.008016988139431686
 0.0007193781004061416 0.008016765492066886 -0.0006269805714421398 -0.005045139356013814 0.0038144926307257347 0.015736909943740267 0.9955725677229903 -0.03860136453428415
 -0.000626619778714722 -0.0050451338146856005 0.0007175766370286598 0.008016988139431686 0.9955725677229903 -0.03860136453428415 0.0038149893312949394 0.0157368634559352
0.055454545454549996 0.0041137283873860925 0.01753100190350772 0.9951754845060117 -0.042851345238319676 0.000838304179382401 0.008889126316526878 -0.0007272814758727298 -0.005596916088714549
 0.9951754845060117 -0.042851345238319676 0.0041138398605896995 0.0175309896200068 -0.0007277234217519306 -0.005596917605864488 0.00083609010575041 0.008889402158262566
 0.000838304179382401 0.008889126316526878 -0.0007277234217519306 -0.005596917605864488 0.004113457811538378 0.01753028296981402 0.9951754633231068 -0.04285208453155481
 -0.0007272814758727298 -0.005596916088714549 0.00083609010575041 0.008889402158262566 0.9951754633231068 -0.04285208453155481 0.004114068137422843 0.017530228314860206
0.056273447269699996 0.004160291255350518 0.017802543982265683 0.9951136100776654 -0.043492976325910516 0.0008570747953398088 0.009020592113512537 -0.0007431616666414503 -0.00568009373098907
 0.9951136100776654 -0.043492976325910516 0.0041604060403573236 0.017802531469157175 -0.0007436165369105068 -0.0056800945356213555 0.0008547948452719624 0.009020876627777038
 0.0008570747953398088 0.009020592113512537 -0.0007436165369105068 -0.0056800945356213555 0.004160012676590887 0.017801814670467375 0.9951135883048094 -0.043493726496842994
 -0.0007431616666414503 -0.00568009373098907 0.0008547948452719624 0.009020876627777038 0.9951135883048094 -0.043493726496842994 0.004160641140303931 0.017801758714475795
0.06252605252188 0.004528915547516636 0.019886523759703654 0.9946235126011331 -0.04840084740680842 0.0010077554539296813 0.010024254907168451 -0.0008705843548235094 -0.006315276242725413
 0.9946235126011331 -0.04840084740680842 0.004529057225379476 0.01988650951793775 -0.000871143866862444 -0.0063152706387022955 0.0010049406196918533 0.010024611620596341
 0.0010077554539296813 0.010024254907168451 -0.000871143866862444 -0.0063152706387022955 0.004528572024186746 0.01988571553821324 0.9946234860596994 -0.04840168059977007
 -0.0008705843548235094 -0.006315276242725413 0.0010049406196918533 0.010024611620596341 0.9946234860596994 -0.04840168059977007 0.004529347730242344 0.019885649008217616
0.06877865777407 0.004920999353767239 0.021989012756907116 0.9941018963677942 -0.05332412583571947 0.0011715288023266455 0.011027552061612135 -0.0010090010160368143 -0.00695047188161077
 0.9941018963677942 -0.05332412583571947 0.004921170772100417 0.021988996857529225 -0.001009675646041641 -0.00695045805746217 0.0011681226803060545 0.011027992156207301
 0.0011715288023266455 0.011027552061612135 -0.001009675646041641 -0.00695045805746217 0.004920584096978336 0.021988126254156904 0.9941018645919436 -0.053325041991561864
 -0.0010090010160368143 -0.00695047188161077 0.0011681226803060545 0.011027992156207301 0.9941018645919436 -0.053325041991561864 0.004921522529578989 0.021988047953164662
0.07503126302626001 0.00533695182254653 0.02410954367257589 0.9935483670858163 -0.05826258987844037 0.001348499824357016 0.012030275324039103 -0.001158520802723998 -0.007585468507058938
 0.9935483670858163 -0.05826258987844037 0.00533715584203089 0.024109526225753488 -0.0011593209393368918 -0.007585444511961449 0.0013444460211472502 0.012030810838116437
 0.001348499824357016 0.012030275324039103 -0.0011593209393368918 -0.007585444511961449 0.005336458046740571 0.024108579575435274 0.9935483296110238 -0.05826358894011264
 -0.001158520802723998 -0.007585468507058938 0.0013444460211472502 0.012030810838116437 0.9935483296110238 -0.05826358894011264 0.005337574696809845 0.02410848821372052
0.08128386827845 0.005777177788802206 0.026247661171339302 0.99296253299994 -0.063215987991327 0.0015387695695785388 0.013032210534593129 -0.0013192487152865256 -0.008220050881097018
 0.99296253299994 -0.063215987991327 0.005777417286051033 0.026247642326488237 -0.0013201846598186612 -0.008220014625046557 0.0015340117195443857 0.013032854368932806
 0.0015387695695785388 0.013032210534593129 -0.0013201846598186612 -0.008220014625046557 0.0057765987113766945 0.02624662023185142 0.9929624893624991 -0.06321706989831138
 -0.0013192487152865256 -0.008220050881097018 0.0015340117195443857 0.013032854368932806 0.9929624893624991 -0.06321706989831138 0.005777909077768805 0.026246514425305602
0.08753647353064001 0.00624207767734105 0.02840291701228709 0.9923440052722923 -0.0681840436933639 0.0017424349681707384 0.014033138021724257 -0.0014912854628780351 -0.008854000393500762
 0.9923440052722923 -0.0681840436933639 0.006242355547243554 0.028402896958138028 -0.0014923674291129941 -0.008853949647512505 0.0017369167522181268 0.01403390394537604
 0.0017424349681707384 0.014033138021724257 -0.0014923674291129941 -0.008853949647512505 0.0062414065196984315 0.028401800045473633 0.9923439550098605 -0.06818520838492327
 -0.0014912854628780351 -0.008854000393500762 0.0017369167522181268 0.01403390394537604 0.9923439550098605 -0.06818520838492327 0.006242926111035202 0.028401678313832227
0.09378907878283 0.0067320473709490515 0.030574866573818624 0.9916923983326533 -0.07316645905495552 0.001959588651573501 0.015032832903639744 -0.0016747273182268483 -0.009487094892287176
 0.9916923983326533 -0.07316645905495552 0.006732366529580858 0.0305748455382805 -0.0016759654321796943 -0.009487027288600094 0.0019532538165305626 0.01503373555933747
 0.001959588651573501 0.015032832903639744 -0.0016759654321796943 -0.009487027288600094 0.006731277358738844 0.030573674459698896 0.9916923409836248 -0.07316770646921958
 -0.0016747273182268483 -0.009487094892287176 0.0019532538165305626 0.01503373555933747 0.9916923409836248 -0.07316770646921958 0.006733021694288409 0.03057353522467462
0.100041684035 0.007247478050086133 0.03276306631856992 0.9910073302034651 -0.07816291725997891 0.0021903187766551834 0.016031065331764866 -0.0018696659689069561 -0.010119108584034671
 0.9910073302034651 -0.07816291725997891 0.007247841437332648 0.03276304456847992 -0.0018710702681979047 -0.01011902161636198 0.0021831111557305744 0.0160321202408123
 0.0021903187766551834 0.016031065331764866 -0.0018710702681979047 -0.01011902161636198 0.007246602413830864 0.03276180000421955 0.9910072653073705 -0.07816424733302645
 -0.0018696659689069561 -0.010119108584034671 0.0021831111557305744 0.0160321202408123 0.9910072653073705 -0.07816424733302645 0.007248587025426957 0.032761641587430994
0.1059090909091 0.007754655739305073 0.034830843258812444 0.9903336970037764 -0.08286403804686336 0.002419256602873618 0.01696626158209461 -0.0020631289449885176 -0.01071099903884829
 0.9903336970037764 -0.08286403804686336 0.007755063327914193 0.03483082111522245 -0.002064698241518661 -0.010710891497488292 0.0024111789772446805 0.016967474267803158
 0.002419256602873618 0.01696626158209461 -0.002064698241518661 -0.010710891497488292 0.007753674834425358 0.03482950823649666 0.9903336246077418 -0.08286544562734745
 -0.0020631289449885176 -0.01071099903884829 0.0024111789772446805 0.016967474267803158 0.9903336246077418 -0.08286544562734745 0.007755899057157815 0.034829330202276944
0.1062942892872 0.007788756013536636 0.03496707190819517 0.99028842281025 -0.0831730845319407 0.0024347088528598564 0.01702760070150642 -0.0020761883661873162 -0.010749811978716738
 0.99028842281025 -0.0831730845319407 0.007789166595928704 0.03496704974894832 -0.0020777687995566906 -0.01074970300247454 0.002426572386577554 0.017028824268278352
 0.0024347088528598564 0.01702760070150642 -0.0020777687995566906 -0.01074970300247454 0.007787767989521404 0.03496573240796367 0.990288349907738 -0.0831744971986146
 -0.0020761883661873162 -0.010749811978716738 0.002426572386577554 0.017028824268278352 0.990288349907738 -0.0831744971986146 0.007790008421899021 0.034965553028934705
0.11254689453939999 0.008356262484285898 0.03718643677216065 0.9895353022797804 -0.08819661162019712 0.0026928375724126264 0.018022199832436744 -0.0022943765718287496 -0.01137897187730653
 0.9895353022797804 -0.08819661162019712 0.008356723257761628 0.03718641454719982 -0.002296142998322299 -0.011378838109910562 0.002683716330232933 0.018023609348374162
 0.0026928375724126264 0.018022199832436744 -0.002296142998322299 -0.011378838109910562 0.008355155315217707 0.037185025168503236 0.9895352209127304 -0.08819810681437476
 -0.0022943765718287496 -0.01137897187730653 0.002683716330232933 0.018023609348374162 0.9895352209127304 -0.08819810681437476 0.00835766712763557 0.037184822942336056
0.11879949979160001 0.008950373403737525 0.03942071100997068 0.9887475992301104 -0.09323313496724166 0.0029647786421288873 0.01901461913517914 -0.002524307604634104 -0.012006351384908479
 0.9887475992301104 -0.09323313496724166 0.008950887396375905 0.03942068910013703 -0.002526269792717206 -0.012006189906077177 0.0029546168447228847 0.01901623278227521
 0.0029647786421288873 0.01901461913517914 -0.002526269792717206 -0.012006189906077177 0.008949140339490277 0.03941922845658416 0.9887475089414504 -0.0932347126198522
 -0.002524307604634104 -0.012006351384908479 0.0029546168447228847 0.01901623278227521 0.9887475089414504 -0.0932347126198522 0.008951939106826864 0.0394190013915672
0.1250521050438 0.009571459217417429 0.04166944054266837 0.9879249490531598 -0.09828227764155151 0.0032506006179610423 0.020004610770019766 -0.0027660532861470064 -0.012631709944557127
 0.9879249490531598 -0.09828227764155151 0.009572029492090989 0.041669419365403665 -0.002768220912809703 -0.012631517696642273 0.0032393426598904683 0.020006447623789305
 0.0032506006179610423 0.020004610770019766 -0.002768220912809703 -0.012631517696642273 0.009570093515886391 0.041667888262470906 0.9879248493870486 -0.09828393768355198
 -0.0027660532861470064 -0.012631709944557127 0.0032393426598904683 0.020006447623789305 0.9879248493870486 -0.09828393768355198 0.009573194829249298 0.04166763425766229
0.131304710296 0.010219884653223012 0.04393216644757074 0.9870669921930465 -0.1033436501022606 0.0035503667414868772 0.020991922796153632 -0.0030196800866912604 -0.013254803392936712
 0.9870669921930465 -0.1033436501022606 0.010220514310695386 0.043932146455952364 -0.00302206273642873 -0.013254577181264054 0.0035379572144568373 0.020994002828070155
 0.0035503667414868772 0.020991922796153632 -0.00302206273642873 -0.013254577181264054 0.010218379581090672 0.04393054573426621 0.9870668826946299 -0.10334539246424826
 -0.0030196800866912604 -0.013254803392936712 0.0035379572144568373 0.020994002828070155 0.9870668826946299 -0.10334539246424826 0.010221799049000285 0.043930262576867996
0.1375573155481 0.010757416676427135 0.04591374360726431 0.9863120406199444 -0.10812197562442835 0.0038293302526499168 0.021948039110230563 -0.0032504612064456566 -0.013847136229917291
 0.9863120406199444 -0.10812197562442835 0.010758109806920296 0.045913727990545376 -0.0032530732586093032 -0.013846875399025368 0.003815742205391475 0.021950361052422852
 0.0038293302526499168 0.021948039110230563 -0.0032530732586093032 -0.013846875399025368 0.010755766212462776 0.04591205559516114 0.9863119208518765 -0.10812380019671605
 -0.0032504612064456566 -0.013847136229917291 0.003815742205391475 0.021950361052422852 0.9863119208518765 -0.10812380019671605 0.010759518968122132 0.045911744038717596
0.1438099208003 0.01131413047086853 0.04788293638535314 0.9855299656362076 -0.11288621459406967 0.004119485304793988 0.022899051166918514 -0.003490380846337613 -0.014434801206183458
 0.9855299656362076 -0.11288621459406967 0.011314890379633114 0.047882925760195774 -0.003493232614983425 -0.01443450257122881 0.004104668731023597 0.022901633403992254
 0.004119485304793988 0.022899051166918514 -0.003493232614983425 -0.01443450257122881 0.01131232801863634 0.04788118237846177 0.9855298351503975 -0.11288812129304512
 -0.003490380846337613 -0.014434801206183458 0.004104668731023597 0.022901633403992254 0.9855298351503975 -0.11288812129304512 0.011316429586338796 0.04788084032146039
0.1500625260525 0.01188979853944713 0.0498395228616878 0.9847210000931269 -0.1176361898222469 0.004420710473272904 0.02384482217628077 -0.0037393211208521333 -0.015017671172808495
 0.9847210000931269 -0.1176361898222469 0.011890628572524802 0.04983951785050879 -0.003742422888628105 -0.015017331420322131 0.004404615882338744 0.0238476837296414
 0.004420710473272904 0.02384482217628077 -0.003742422888628105 -0.015017331420322131 0.011887837517816944 0.049837704215323256 0.9847208584428828 -0.1176381785618269
 -0.0037393211208521333 -0.015017671172808495 0.004404615882338744 0.0238476837296414 0.9847208584428828 -0.1176381785618269 0.01189230342714884 0.049837329452104506
0.15631513130469998 0.012484191389762665 0.05178328777452339 0.9838853784502489 -0.12237172612425631 0.004732882664872418 0.02478521816782331 -0.003997162487211406 -0.015595622097396046
 0.9838853784502489 -0.12237172612425631 0.012485094934824961 0.051783289003224826 -0.004000524504705096 -0.015595237785871631 0.004715461093103103 0.024788378683704263
