! Created with skrf 1.8.0 (http://scikit-rf.org).
# GHz S RI R 50.0 
!freq ReS11 ImS11 ReS12 ImS12 ReS13 ImS13
! ReS14 ImS14
! ReS21 ImS21 ReS22 ImS22 ReS23 ImS23
! ReS24 ImS24
! ReS31 ImS31 ReS32 ImS32 ReS33 ImS33
! ReS34 ImS34
! ReS41 ImS41 ReS42 ImS42 ReS43 ImS43
! ReS44 ImS44
!
0.0 0.001382483701138 0.0 0.9986175162809 0.0 5.288981117927e-05 0.0 -5.288981116774e-05 6.477133795408073e-21
 0.9986175162809 0.0 0.001382483701109 0.0 -5.288981116773e-05 6.477133795406848e-21 5.288981117845e-05 0.0
 5.288981117927e-05 0.0 -5.288981116773e-05 6.477133795406848e-21 0.001382483689323 0.0 0.9986175162691 0.0
 -5.288981116774e-05 6.477133795408073e-21 5.288981117845e-05 0.0 0.9986175162691 0.0 0.001382483689295 0.0
0.005 0.0014869925519007295 0.0011344204819579747 0.998485399119556 -0.0028962347191704677 7.329385311984001e-05 0.0005642477670621454 -7.142433776242714e-05 -0.00035745817806930925
 0.998485399119556 -0.0028962347191704677 0.001486972405729199 0.0011344321859109755 -7.142405216859277e-05 -0.00035745790674754184 7.342029583579524e-05 0.0005641996808048416
 7.329385311984001e-05 0.0005642477670621454 -7.142405216859277e-05 -0.00035745790674754184 0.0014869926274257072 0.001134353133746755 0.9984853987726301 -0.002896301781579701
 -7.142433776242714e-05 -0.00035745817806930925 7.342029583579524e-05 0.0005641996808048416 0.9984853987726301 -0.002896301781579701 0.0014869716419629007 0.0011343654144302434
0.006252605252188 0.0015142801243767262 0.0014224910869594543 0.9984507125005928 -0.003621019987163391 7.902607289265475e-05 0.0007056012219679304 -7.659604652351916e-05 -0.0004472877295079435
 0.9984507125005928 -0.003621019987163391 0.0015142486329077704 0.0014225059550057393 -7.659560253043133e-05 -0.0004472873938195896 7.922362990363026e-05 0.0007055388094595931
 7.902607289265475e-05 0.0007056012219679304 -7.659560253043133e-05 -0.0004472873938195896 0.0015142803193117333 0.0014224069048226152 0.998450712034596 -0.0036211038091969834
 -7.659604652351916e-05 -0.0004472877295079435 7.922362990363026e-05 0.0007055388094595931 0.998450712034596 -0.0036211038091969834 0.001514247514975554 0.0014224225045096335
0.01250521050438 0.0016572175290209205 0.002874849770562655 0.9982679528284815 -0.007242948367744245 0.00011138793800337221 0.0014116787157633093 -0.00010561063563349267 -0.0008968039816907558
 0.9982679528284815 -0.007242948367744245 0.0016570917930394064 0.002874881905719152 -0.00010560889083931137 -0.0008968033474486311 0.00011217579522354442 0.0014115291949581682
 0.00011138793800337221 0.0014116787157633093 -0.00010560889083931137 -0.0008968033474486311 0.001657218884663073 0.0028746816281391744 0.9982679515357479 -0.007243115773834465
 -0.00010561063563349267 -0.0008968039816907558 0.00011217579522354442 0.0014115291949581682 0.9982679515357479 -0.007243115773834465 0.001657087892950663 0.002874715342497042
0.01875781575657 0.0018115818243909123 0.004348004611315914 0.9980690285385674 -0.010874623573360576 0.00015004830462786992 0.002118702619679294 -0.00014001694548984345 -0.0013479430564701821
 0.9980690285385674 -0.010874623573360576 0.0018112993100355256 0.004348056583576275 -0.00014001306138620995 -0.00134794216572015 0.000151818250418156 0.002118436847293331
 0.00015004830462786992 0.002118702619679294 -0.00014001306138620995 -0.00134794216572015 0.0018115853089902727 0.004347752594330625 0.9980690260530438 -0.010874874490331754
 -0.00014001694548984345 -0.0013479430564701821 0.000151818250418156 0.002118436847293331 0.9980690260530438 -0.010874874490331754 0.0018112909580536528 0.004347807135941233
0.02501042100875 0.0019776519102935415 0.005839928247724113 0.9978537233991805 -0.014517832281630578 0.00019508030621676934 0.002826716302711858 -0.00017989617252905894 -0.0018005218437158461
 0.9978537233991805 -0.014517832281630578 0.0019771502228196902 0.005840002776269878 -0.00017988932277442353 -0.0018005207443974175 0.00019822436051209356 0.0028263008613384558
 0.00019508030621676934 0.002826716302711858 -0.00017988932277442353 -0.0018005207443974175 0.0019776585015482784 0.005839592424691218 0.9978537193542901 -0.014518166682728057
 -0.00017989617252905894 -0.0018005218437158461 0.00019822436051209356 0.0028263008613384558 0.9978537193542901 -0.014518166682728057 0.0019771357487864 0.005839670681280026
0.03126302626094 0.0021556950568044357 0.007349591069509818 0.9976218092350541 -0.018173355700949228 0.0002465574085369481 0.003535700851193434 -0.00022532754940682276 -0.0022544154386042094
 0.9976218092350541 -0.018173355700949228 0.0021549119076809406 0.0073496910182131395 -0.0002253169177304725 -0.0022544141846438746 0.00025146819628676784 0.003535098025928956
 0.0002465574085369481 0.003535700851193434 -0.0002253169177304725 -0.0022544141846438746 0.002155705744194396 0.007349171512019678 0.9976218032648674 -0.018173773585670256
 -0.00022532754940682276 -0.0022544154386042094 0.00025146819628676784 0.003535098025928956 0.9976218032648674 -0.018173773585670256 0.0021548896428226797 0.0073492765421715785
0.037515631513130004 0.0023459729402828078 0.008876332144019563 0.9973730521165669 -0.021841598586875365 0.00030455285538126347 0.004245612946125768 -0.0002763888995270389 -0.0027095192678908437
 0.9973730521165669 -0.021841598586875365 0.002344846126145778 0.008876460518956403 -0.00027637367864253253 -0.0027095179192076655 0.00031162377958048515 0.0042447806812010444
 0.00030455285538126347 0.004245612946125768 -0.00027637367864253253 -0.0027095179192076655 0.0023459887217860327 0.008875828925521526 0.9973730438516709 -0.02184209998225249
 -0.0002763888995270389 -0.0027095192678908437 0.00031162377958048515 0.0042447806812010444 0.9973730438516709 -0.02184209998225249 0.002344814399501562 0.008875963956557459
0.043768236765320004 0.002548743978391025 0.010419667752565335 0.9971072148446354 -0.025522780641896895 0.00036913940940620256 0.004956396365369489 -0.0003331568383348324 -0.003165737582920915
 0.9971072148446354 -0.025522780641896895 0.002547211364377551 0.010419827700413107 -0.00033313622919587527 -0.0031657362054019053 0.00037876473840250003 0.004955288214484999
 0.00036913940940620256 0.004956396365369489 -0.00033313622919587527 -0.0031657362054019053 0.002548765862084722 0.010419080960016593 0.9971072039130483 -0.025523365590915757
 -0.0003331568383348324 -0.003165737582920915 0.00037876473840250003 0.004955288214484999 0.9971072039130483 -0.025523365590915757 0.002547168505013937 0.010419249386714458
0.050020842017509996 0.002764264417923345 0.011979212285405086 0.9968240581902258 -0.029217015554758596 0.00044038919395010626 0.005667986739467363 -0.000395706851951828 -0.0036229786977459897
 0.9968240581902258 -0.029217015554758596 0.002762263923816144 0.011979407092187248 -0.00039568006328599947 -0.0036229773632077715 0.0004529641036806479 0.00566655181350918
 0.00044038919395010626 0.005667986739467363 -0.00039568006328599947 -0.0036229773632077715 0.002764293422071567 0.011978542018787145 0.9968240442163933 -0.029217684116786616
 -0.000395706851951828 -0.0036229786977459897 0.0004529641036806479 0.00566655181350918 0.9968240442163933 -0.029217684116786616 0.0027622082610504486 0.01197874740262645
0.055454545454549996 0.002962110088353862 0.013347412856154048 0.9965637342316259 -0.03243805548560485 0.0005077742244632275 0.006286981289924109 -0.0004548182559538455 -0.004021095838695133
 0.9965637342316259 -0.03243805548560485 0.0029596526083513898 0.013347640732765098 -0.0004547854602549513 -0.00402109460441672 0.0005232340566095452 0.006285217567601291
 0.0005077742244632275 0.006286981289924109 -0.0004547854602549513 -0.00402109460441672 0.002962146116246049 0.013346670135123296 0.9965637173067596 -0.03243879677512247
 -0.0004548182559538455 -0.004021095838695133 0.0005232340566095452 0.006285217567601291 0.9965637173067596 -0.03243879677512247 0.0029595844636697683 0.013346910657358971
0.056273447269699996 0.002992788903788906 0.013554639398219244 0.9965233416160034 -0.03292434977818071 0.0005183735801367057 0.0063803138790773945 -0.00046411332036945746 -0.004081152656391796
 0.9965233416160034 -0.03292434977818071 0.0029902584911967456 0.013554872488616455 -0.00046407956832741676 -0.004081151442552573 0.0005342941688696 0.006378496792631779
 0.0005183735801367057 0.0063803138790773945 -0.00046407956832741676 -0.004081151442552573 0.002992826058176189 0.013553885763331736 0.9965233242215698 -0.03292510203628012
 -0.00046411332036945746 -0.004081152656391796 0.0005342941688696 0.006378496792631779 0.9965233242215698 -0.03292510203628012 0.0029901883562525227 0.013554131832096559
0.06252605252188 0.0032345707920686585 0.015145660659382254 0.9962048237455419 -0.03664478381732202 0.0006031630963421881 0.007093303055802035 -0.0005384495119238015 -0.004540169948361482
 0.9962048237455419 -0.03664478381732202 0.0032314484528294953 0.015145935596184261 -0.0005384080198069693 -0.004540168938799907 0.0006228263818216452 0.0070910438730993255
 0.0006031630963421881 0.007093303055802035 -0.0005384080198069693 -0.004540168938799907 0.0032346171365920536 0.015144823784893844 0.9962048025468908 -0.0366456198611005
 -0.0005384495119238015 -0.004540169948361482 0.0006228263818216452 0.0070910438730993255 0.9962048025468908 -0.0366456198611005 0.0032313621779157327 0.015145114432592048
0.06877865777407 0.003489862322520932 0.01675201283020622 0.995868262693497 -0.040378284886766015 0.0006948273508235131 0.007806875761075457 -0.0006187875609289218 -0.004999940748113732
 0.995868262693497 -0.040378284886766015 0.0034860860669390864 0.016752333314254013 -0.0006187375589452581 -0.004999940032236991 0.0007186312543989587 0.007804109941728399
 0.0006948273508235131 0.007806875761075457 -0.0006187375589452581 -0.004999940032236991 0.00348991890894613 0.016751092849797627 0.9958682373029941 -0.040379204830296535
 -0.0006187875609289218 -0.004999940748113732 0.0007186312543989587 0.007804109941728399 0.9958682373029941 -0.040379204830296535 0.0034859819876510724 0.016751432136967427
0.07503126302626001 0.0037589147105531917 0.018373449777177617 0.9955134163191562 -0.044124794938076334 0.0007934349598683248 0.008520950191920252 -0.0007051984363708587 -0.005460374429979389
 0.9955134163191562 -0.044124794938076334 0.0037544225567648767 0.018373819647412123 -0.0007051391614792853 -0.005460374102987582 0.0008217782816956944 0.00851760853668372
 0.0007934349598683248 0.008520950191920252 -0.0007051391614792853 -0.005460374102987582 0.003758982601877337 0.018372446841128345 0.9955133863437685 -0.04412579890821274
 -0.0007051984363708587 -0.005460374429979389 0.0008217782816956944 0.00851760853668372 0.9955133863437685 -0.04412579890821274 0.003754299011697899 0.01837283899525786
0.08128386827845 0.00404197818741844 0.020009737107199884 0.9951400424303551 -0.04788423596660338 0.0008990534818926391 0.00923544157058686 -0.0007977519026871732 -0.005921379251665998
 0.9951400424303551 -0.04788423596660338 0.004036708150308529 0.020010160341195963 -0.0007976825984517858 -0.005921379414516889 0.0009323358685830098 0.009231450167338397
 0.0008990534818926391 0.00923544157058686 -0.0007976825984517858 -0.005921379414516889 0.004042058458653443 0.020008651379750955 0.9951400074712033 -0.047885324105558826
 -0.0007977519026871732 -0.005921379251665998 0.0009323358685830098 0.009231450167338397 0.9951400074712033 -0.047885324105558826 0.0040365634823984935 0.0200091007962581
0.08753647353064001 0.004339302005878791 0.021660648454002986 0.994747898955007 -0.05165651367012371 0.0010117493529869348 0.009950262369910302 -0.0008965164769815569 -0.006382862134703741
 0.994747898955007 -0.05165651367012371 0.004333192086134271 0.021661129168734857 -0.0008964363934112478 -0.006382862894083621 0.0010503712594776837 0.009945542539907041
 0.0010117493529869348 0.009950262369910302 -0.0008964363934112478 -0.006382862894083621 0.004339395744064321 0.02165948011314603 0.9947478586068949 -0.05165768613563784
 -0.0008965164769815569 -0.006382862134703741 0.0010503712594776837 0.009945542539907041 0.9947478586068949 -0.05165768613563784 0.004333024643424501 0.021659991356427342
0.09378907878283 0.0046511344233973 0.023325962812634802 0.9943367440939397 -0.055441520062267165 0.0011315878247130898 0.01066532247391914 -0.0010015593822288653 -0.006844728512380519
 0.9943367440939397 -0.055441520062267165 0.0046441225970269015 0.023326505265546763 -0.001001467775713491 -0.006844729980664209 0.0011759504714020852 0.010659790718507102
 0.0011315878247130898 0.01066532247391914 -0.001001467775713491 -0.006844729980664209 0.0046512427281196565 0.023324712050002968 0.9943366979450882 -0.05544277702760266
 -0.0010015593822288653 -0.006844728512380519 0.0011759504714020852 0.010659790718507102 0.9943366979450882 -0.05544277702760266 0.004643930733357283 0.023325289854959047
0.100041684035 0.004977722667877834 0.02500546259758306 0.9939063364579968 -0.05923913536548307 0.0012586329030320961 0.01138052930036795 -0.0011129464981308934 -0.0073068822186268855
 0.9939063364579968 -0.05923913536548307 0.0049697468748436755 0.02500607118807624 -0.0011128426312566981 -0.0073068845138605275 0.0013091382285775187 0.011374097248099967
 0.0012586329030320961 0.01138052930036795 -0.0011128426312566981 -0.0073068845138605275 0.004977846651380644 0.025004129618565712 0.9939062840890912 -0.05924047701916843
 -0.0011129464981308934 -0.0073068822186268855 0.0013091382285775187 0.011374097248099967 0.9939062840890912 -0.05924047701916843 0.004969528951258681 0.02500477889235658
0.1059090909091 0.005297830643098694 0.026594204395407977 0.9934847198003015 -0.06281414640589116 0.0013844614330226625 0.012051723937010778 -0.0012232989434906466 -0.007740738642002011
 0.9934847198003015 -0.06281414640589116 0.005288893785644708 0.026594879178149775 -0.0012231829064329887 -0.007740741825614632 0.0014410971653870137 0.012044362292243703
 0.0013844614330226625 0.012051723937010778 -0.0012231829064329887 -0.007740741825614632 0.0052979703626829895 0.02659279446217757 0.9934846612063382 -0.06281556771746263
 -0.0012232989434906466 -0.007740738642002011 0.0014410971653870137 0.012044362292243703 0.9934846612063382 -0.06281556771746263 0.005288649923531462 0.026593515420252394
0.1062942892872 0.005319312890788868 0.02669893217343867 0.993456435195565 -0.06304922943486833 0.0013929472876310592 0.012095787892366594 -0.001230742309842178 -0.007769225410726984
 0.993456435195565 -0.06304922943486833 0.005310311024843571 0.026699611444568967 -0.0012306254514050728 -0.007769228656582356 0.001449997898463266 0.012088362246767235
 0.0013929472876310592 0.012095787892366594 -0.0012306254514050728 -0.007769228656582356 0.005319453678438361 0.026697517195301463 0.9934563761796781 -0.06305065598244615
 -0.001230742309842178 -0.007769225410726984 0.001449997898463266 0.012088362246767235 0.9934563761796781 -0.06305065598244615 0.005310065409796647 0.02669824301952855
0.11254689453939999 0.005676150111464459 0.028406156731549913 0.992986800113924 -0.06687166283928164 0.001534592311597805 0.012811000993307658 -0.001355009855681558 -0.00823165851183711
 0.992986800113924 -0.06687166283928164 0.005666060008756823 0.028406911372187045 -0.0013548792805443924 -0.008231662837594566 0.001598591427901965 0.012802483481170785
 0.001534592311597805 0.012811000993307658 -0.0013548792805443924 -0.008231662837594566 0.005676308842027847 0.028404659987732877 0.9929867340156201 -0.0668731744988386
 -0.001355009855681558 -0.00823165851183711 0.001598591427901965 0.012802483481170785 0.9929867340156201 -0.0668731744988386 0.005665785079485353 0.028405467620816232
0.11879949979160001 0.0060484781535336185 0.030126921414829477 0.992497191794598 -0.07070628769797882 0.0016836278817426913 0.013526069109535525 -0.0014858106726838123 -0.008694080168776406
 0.992497191794598 -0.07070628769797882 0.006037237581895515 0.030127756262121896 -0.001485665661705639 -0.008694085709294046 0.001754979280898539 0.013516356429949129
 0.0016836278817426913 0.013526069109535525 -0.001485665661705639 -0.008694085709294046 0.006048655979279183 0.03012534315126887 0.9924971181693526 -0.07070788470367217
 -0.0014858106726838123 -0.008694080168776406 0.001754979280898539 0.013516356429949129 0.9924971181693526 -0.07070788470367217 0.00603693172520288 0.03012623803131867
0.1250521050438 0.006436539575187474 0.031861010626782336 0.9919873717053406 -0.07455294833679364 0.001840112418705524 0.014240890559843318 -0.0016232047418301414 -0.009156387226299866
 0.9919873717053406 -0.07455294833679364 0.006424086222964934 0.031861930669030814 -0.00162304458181555 -0.009156394121986646 0.0019192203756956822 0.01422987433393831
 0.001840112418705524 0.014240890559843318 -0.00162304458181555 -0.009156394121986646 0.006436737662670005 0.03185935110067594 0.9919872900993839 -0.07455463093978805
 -0.0016232047418301414 -0.009156387226299866 0.0019192203756956822 0.01422987433393831 0.9919872900993839 -0.07455463093978805 0.006423747836363817 0.03186033884867694
0.131304710296 0.006840575595420743 0.033608207471355386 0.9914571023105375 -0.07841148181718596 0.0020041027971490605 0.01495536152315365 -0.001767250431956649 -0.00961847470640441
 0.9914571023105375 -0.07841148181718596 0.006826847060338114 0.03360921785124409 -0.0017670744155837816 -0.009618483103193862 0.002091372022949254 0.014942928244605887
 0.0020041027971490605 0.01495536152315365 -0.0017670744155837816 -0.009618483103193862 0.006840795125318569 0.033606466955668976 0.9914570122599141 -0.07841325028102422
 -0.001767250431956649 -0.00961847470640441 0.002091372022949254 0.014942928244605887 0.9914570122599141 -0.07841325028102422 0.006826474552765216 0.03360755337899111
0.1375573155481 0.007164331451668538 0.035141023057571684 0.9910026755460161 -0.08205435254508255 0.00215334967747198 0.0156463858091127 -0.0018955999499107154 -0.010057327208227225
 0.9910026755460161 -0.08205435254508255 0.007149259613972735 0.03514210648840069 -0.0018954068810482882 -0.010057337097909968 0.002248981418607337 0.015632560464552556
 0.00215334967747198 0.0156463858091127 -0.0018954068810482882 -0.010057337097909968 0.00716457274928548 0.03513920205568183 0.9910025766641115 -0.08205620702163467
 -0.0018955999499107154 -0.010057327208227225 0.002248981418607337 0.015632560464552556 0.9910025766641115 -0.08205620702163467 0.007148852114855559 0.03514036989625781
0.1438099208003 0.007499361859353216 0.03666646319063631 0.9905325131748862 -0.08568868158992046 0.0023086047488701652 0.016335037021636054 -0.0020290883834956134 -0.010493949159132683
 0.9905325131748862 -0.08568868158992046 0.007482883288665627 0.03666762341876687 -0.0020288774752392526 -0.010493960687241795 0.0024129675171148143 0.016319716506117462
 0.0023086047488701652 0.016335037021636054 -0.0020288774752392526 -0.010493960687241795 0.007499625970587494 0.03666456202531386 0.9905324049991762 -0.08569062233875636
 -0.0020290883834956134 -0.010493949159132683 0.0024129675171148143 0.016319716506117462 0.9905324049991762 -0.08569062233875636 0.007482439354152458 0.03666581564319898
0.1500625260525 0.007845558411555856 0.03818442072169878 0.9900467271382607 -0.08931439929077689 0.0024698188531908916 0.0170212593156355 -0.002167666885483017 -0.010928285373228121
 0.9900467271382607 -0.08931439929077689 0.007827609549571131 0.03818566171323731 -0.0021674373507409948 -0.01092829869135556 0.002583279209642743 0.017004336779127972
 0.0024698188531908916 0.0170212593156355 -0.0021674373507409948 -0.01092829869135556 0.007845846385932087 0.03818243973066245 0.990046609197554 -0.0893164265807487
 -0.002167666885483017 -0.010928285373228121 0.002583279209642743 0.017004336779127972 0.990046609197554 -0.0893164265807487 0.007827127755827683 0.03818378372763026
0.15631513130469998 0.008202812044768316 0.03969479182824329 0.9895454298236139 -0.09293143583247003 0.002636942313456537 0.017704997717423638 -0.002311286063785314 -0.011360281758595608
