! Created with skrf 1.8.0 (http://scikit-rf.org).
# GHz S RI R 50.0 
!freq ReS11 ImS11 ReS12 ImS12 ReS13 ImS13
! ReS14 ImS14
! ReS21 ImS21 ReS22 ImS22 ReS23 ImS23
! ReS24 ImS24
! ReS31 ImS31 ReS32 ImS32 ReS33 ImS33
! ReS34 ImS34
! ReS41 ImS41 ReS42 ImS42 ReS43 ImS43
! ReS44 ImS44
!
0.0 0.001570832697213 0.0 0.9984291672915 0.0 6.087717723815e-05 0.0 -6.087717688425e-05 7.4553039812424e-21
 0.9984291672915 0.0 0.00157083269718 0.0 -6.087717688289e-05 7.455303981075848e-21 6.087717723953e-05 0.0
 6.087717723815e-05 0.0 -6.087717688289e-05 7.455303981075848e-21 0.001570832694326 0.0 0.9984291672886 0.0
 -6.087717688425e-05 7.4553039812424e-21 6.087717723953e-05 0.0 0.9984291672886 0.0 0.001570832694361 0.0
0.005 0.0016902333674640908 0.0012804600919644857 0.9982780979547382 -0.0032906783649621287 8.595253634648377e-05 0.0006978468793573913 -8.337775276043847e-05 -0.000433266416944862
 0.9982780979547382 -0.0032906783649621287 0.0016902134524699299 0.001280471771556436 -8.33786480942432e-05 -0.00043326715872083626 8.606804992988442e-05 0.0006978028471697308
 8.595253634648377e-05 0.0006978468793573913 -8.33786480942432e-05 -0.00043326715872083626 0.0016902329975332332 0.0012805276215908123 0.9982780983163096 -0.0032906112990966486
 -8.337775276043847e-05 -0.000433266416944862 8.606804992988442e-05 0.0006978028471697308 0.9982780983163096 -0.0032906112990966486 0.0016902145330630555 0.0012805383605273613
0.006252605252188 0.0017215775668226133 0.0016056294583250334 0.9982381891125492 -0.0041141506350198115 9.311157746578875e-05 0.0008726336658004914 -8.974609275808194e-05 -0.0005421477427174554
 0.9982381891125492 -0.0041141506350198115 0.0017215464357263942 0.0016056443021876612 -8.974748554688772e-05 -0.0005421486584441852 9.32920560521829e-05 0.0008725764938089908
 9.311157746578875e-05 0.0008726336658004914 -8.974748554688772e-05 -0.0005421486584441852 0.0017215769115206199 0.001605713861986288 0.9982381896013216 -0.004114066810695926
 -8.974609275808194e-05 -0.0005421477427174554 9.32920560521829e-05 0.0008725764938089908 0.9982381896013216 -0.004114066810695926 0.0017215480486903014 0.0016057275183750674
0.01250521050438 0.0018867487246669854 0.0032450202448843913 0.998026495541442 -0.008229099751696951 0.00013414244899322695 0.001745546493981332 -0.0001259628921090881 -0.00108693138364657
 0.998026495541442 -0.008229099751696951 0.0018866244103009316 0.0032450524014551335 -0.00012596837575746015 -0.0010869330894855687 0.00013486213977590512 0.0017454091195130306
 0.00013414244899322695 0.001745546493981332 -0.00012596837575746015 -0.0010869330894855687 0.0018867455508935669 0.003245188793858098 0.9980264969489329 -0.008228932323945124
 -0.0001259628921090881 -0.00108693138364657 0.00013486213977590512 0.0017454091195130306 0.9980264969489329 -0.008228932323945124 0.0018866303082814575 0.0032452184444051735
0.01875781575657 0.0020667127394376787 0.00490781680074648 0.997793819157655 -0.012354860169154323 0.0001840667440928096 0.0026193506058642406 -0.0001696410611044895 -0.0016335247916992141
 0.997793819157655 -0.012354860169154323 0.0020664333839167186 0.0049078689284317864 -0.00016965328261936468 -0.001633527139312223 0.00018568341244836826 0.0026191054201336653
 0.0001840667440928096 0.0026193506058642406 -0.00016965328261936468 -0.001633527139312223 0.0020667051614411277 0.004908069340713898 0.9977938219021549 -0.012354609174584565
 -0.0001696410611044895 -0.0016335247916992141 0.00018568341244836826 0.0026191054201336653 0.9977938219021549 -0.012354609174584565 0.0020664462187235267 0.004908117467252614
0.02501042100875 0.002261825014319685 0.006591674045165221 0.9975398818403184 -0.01649342293588501 0.0002429821472936842 0.0034940863569273848 -0.000220890113729226 -0.00218166717677759
 0.9975398818403184 -0.01649342293588501 0.0022613288741932746 0.006591748971247566 -0.00022091168614604402 -0.0021816699922805965 0.0002458536668535028 0.0034937013305343404
 0.0002429821472936842 0.0034940863569273848 -0.00022091168614604402 -0.0021816699922805965 0.002261811140727648 0.00659201040895723 0.9975398863506204 -0.01649308834263844
 -0.000220890113729226 -0.00218166717677759 0.0002458536668535028 0.0034937013305343404 0.9975398863506204 -0.01649308834263844 0.0022613512995525087 0.006592079618395779
0.03126302626094 0.002472426251298891 0.008295380393819001 0.9972643915191245 -0.02064563427411517 0.0003109865711115957 0.004369710290761525 -0.0002798162971659447 -0.0027311752486634195
 0.9972643915191245 -0.02064563427411517 0.0024716516639951653 0.008295481110916752 -0.00027984980533500017 -0.002731178332336655 0.0003154712546033438 0.004369148948579593
 0.0003109865711115957 0.004369710290761525 -0.00027984980533500017 -0.002731178332336655 0.0024724041751665047 0.008295800383095306 0.9972643982277408 -0.020645216000036316
 -0.0002798162971659447 -0.0027311752486634195 0.0003154712546033438 0.004369148948579593 0.9972643982277408 -0.020645216000036316 0.0024716863268402296 0.00829589340348194
0.037515631513130004 0.0026988496973356247 0.010018142271812953 0.9969670496738556 -0.024811911004885376 0.00038817726830002214 0.0052461458476815905 -0.00034652339773845437 -0.0032818925262847517
 0.9969670496738556 -0.024811911004885376 0.0026977350585061684 0.010018271936388382 -0.0003465714012896594 -0.0032818956525196103 0.0003946340142173176 0.00524536722497096
 0.00038817726830002214 0.0052461458476815905 -0.0003465714012896594 -0.0032818956525196103 0.0026988174968897815 0.01001864564275767 0.9969670590205442 -0.024811408931827768
 -0.00034652339773845437 -0.0032818925262847517 0.0003946340142173176 0.00524536722497096 0.9969670590205442 -0.024811408931827768 0.0026977846003581815 0.010018765321215328
0.043768236765320004 0.00294142394375131 0.011759366361768553 0.9966475543837578 -0.028992458229646485 0.0004746504109711969 0.006123298782337763 -0.0004211130249189475 -0.003833673930291597
 0.9966475543837578 -0.028992458229646485 0.0029399076895958083 0.011759528293482915 -0.00042117806010253723 -0.0038336768476062277 0.0004834387713647127 0.0061222573749567435
 0.0004746504109711969 0.006123298782337763 -0.00042117806010253723 -0.0038336768476062277 0.0029413796814138065 0.011759952830925563 0.996647566816896 -0.02899187219757923
 -0.0004211130249189475 -0.003833673930291597 0.0004834387713647127 0.0061222573749567435 0.996647566816896 -0.02899187219757923 0.002939974745360503 0.011760102132319433
0.050020842017509996 0.003200474222880712 0.013518569624007234 0.9963056018763654 -0.03318735923811474 0.0005705008314046134 0.007001063536310872 -0.0005036847128600073 -0.00438637942098077
 0.9963056018763654 -0.03318735923811474 0.0031984948144952946 0.013518767305700107 -0.0005037692936742765 -0.004386381852049916 0.0005819810379790167 0.00699970924859552
 0.0005705008314046134 0.007001063536310872 -0.0005037692936742765 -0.004386381852049916 0.003200415941757216 0.013519238864434437 0.9963056178524021 -0.03318668904901538
 -0.0005036847128600073 -0.00438637942098077 0.0005819810379790167 0.00699970924859552 0.9963056178524021 -0.03318668904901538 0.0031985820092002852 0.013519420870758162
0.055454545454549996 0.003439227875759816 0.015061646874091277 0.9959899601392423 -0.03684451814222112 0.0006614857529017238 0.007764276413912197 -0.000582000180379563 -0.004867340425385468
 0.9959899601392423 -0.03684451814222112 0.0034367960039608405 0.015061878579151186 -0.0005821037719840724 -0.00486734218864033 0.0006755983362367367 0.007762605933910508
 0.0006614857529017238 0.007764276413912197 -0.0005821037719840724 -0.00486734218864033 0.0034391558084057704 0.015062387745547462 0.9959899795736532 -0.036843774628364204
 -0.000582000180379563 -0.004867340425385468 0.0006755983362367367 0.007762605933910508 0.9959899795736532 -0.036843774628364204 0.0034369028244577255 0.015062600767116494
0.056273447269699996 0.0034763230678709614 0.015295335129776388 0.9959408874433351 -0.037396619605063214 0.000675821833688932 0.007879326372544269 -0.0005943359406644167 -0.0049398708772041885
 0.9959408874433351 -0.037396619605063214 0.003473818977147516 0.015295572207907265 -0.0005944425597055835 -0.004939872518915031 0.0006903547985559222 0.00787760446416196
 0.000675821833688932 0.007879326372544269 -0.0005944425597055835 -0.004939872518915031 0.003476248792530067 0.01529608677127856 0.9959409074300039 -0.03739586502288514
 -0.0005943359406644167 -0.0049398708772041885 0.0006903547985559222 0.00787760446416196 0.9959409074300039 -0.03739586502288514 0.0034739289261923618 0.015296304681326563
0.06252605252188 0.003769290664956426 0.017089287779122653 0.9955531060517694 -0.04162019140569264 0.0007907050431666781 0.008757967090879544 -0.0006931621086303459 -0.005494010398073899
 0.9955531060517694 -0.04162019140569264 0.0037662003610173457 0.017089568064676396 -0.0006932932376898823 -0.005494010921574406 0.0008086523427180041 0.008755818123356506
 0.0007907050431666781 0.008757967090879544 -0.0006932932376898823 -0.005494010921574406 0.0037691983990426315 0.01709012140599041 0.9955531305280001 -0.04161935215867783
 -0.0006931621086303459 -0.005494010398073899 0.0008086523427180041 0.008755818123356506 0.9955531305280001 -0.04161935215867783 0.003766335667298283 0.017090378535573145
0.06877865777407 0.004079695031459016 0.01890007982670838 0.9951419527856256 -0.04585798762744719 0.0009152402729237061 0.009636860063460269 -0.0008002564928664509 -0.0060486592893061256
 0.9951419527856256 -0.04585798762744719 0.004075956967649295 0.018900407296490306 -0.0008004145832948336 -0.006048658340059982 0.0009369641202255814 0.009634219846744688
 0.0009152402729237061 0.009636860063460269 -0.0008004145832948336 -0.006048658340059982 0.004079582756931786 0.018900994978242852 0.9951419822438287 -0.0458570634078789
 -0.0008002564928664509 -0.0060486592893061256 0.0009369641202255814 0.009634219846744688 0.9951419822438287 -0.0458570634078789 0.004076120220780224 0.018901294760802472
0.07503126302626001 0.004407852097293223 0.020727381705465453 0.9947071231945857 -0.05010989128881743 0.0010495154037262657 0.010515874896008647 -0.000915710183645659 -0.006603677428605131
 0.9947071231945857 -0.05010989128881743 0.004403404698464391 0.020727760503786753 -0.0009158976667111541 -0.006603674626447666 0.0010753786113166415 0.010512674435286303
 0.0010495154037262657 0.010515874896008647 -0.0009158976667111541 -0.006603674626447666 0.004407717772629265 0.020728377877007337 0.9947071581407687 -0.05010888175227402
 -0.000915710183645659 -0.006603677428605131 0.0010753786113166415 0.010512674435286303 0.9947071581407687 -0.05010888175227402 0.004403598472080288 0.02072872386462597
0.08128386827845 0.0047540757184654945 0.022570875924614323 0.9942483135780932 -0.054375761489366785 0.0011936162696282563 0.011394876868723052 -0.0010396120147620005 -0.007158922856593671
 0.9942483135780932 -0.054375761489366785 0.004748857368378456 0.022571310365535967 -0.001039831301835086 -0.007158917795796204 0.0012239822063159313 0.011391042311697996
 0.0011936162696282563 0.011394876868723052 -0.001039831301835086 -0.007158917795796204 0.004753917277982522 0.022571952566262175 0.9942483545343715 -0.05437466625636803
 -0.0010396120147620005 -0.007158922856593671 0.0012239822063159313 0.011391042311697996 0.9942483545343715 -0.05437466625636803 0.00474908421923447 0.02257234843106201
0.08753647353064001 0.005118677652296033 0.02443025285108023 0.9937652212354342 -0.05865543758200068 0.0013476265490410173 0.012273727253182298 -0.0011720484861845084 -0.007714251497184622
 0.9937652212354342 -0.05865543758200068 0.005112626681002257 0.02443074742098894 -0.0011723019689291536 -0.007714243746507378 0.0013828590900700432 0.012269179837896941
 0.0013476265490410173 0.012273727253182298 -0.0011723019689291536 -0.007714243746507378 0.005118493004659393 0.024431409368720618 0.9937652687411427 -0.05865425623741214
 -0.0011720484861845084 -0.007714251497184622 0.0013828590900700432 0.012269179837896941 0.9937652687411427 -0.05865425623741214 0.0051128891465958195 0.024431858904911483
0.09378907878283 0.005501967501658808 0.02630520769628769 0.9932575446886742 -0.06294874214612833 0.0015116276580627627 0.01315228354421266 -0.0013131036818278992 -0.008269516968534084
 0.9932575446886742 -0.06294874214612833 0.0054950221729513 0.026305767056910626 -0.0013133937322641189 -0.00826950607129252 0.001552091131379675 0.013146939547597986
 0.0015116276580627627 0.01315228354421266 -0.0013133937322641189 -0.00826950607129252 0.0055017545280511004 0.026306443453096896 0.9932575993009292 -0.06294747423808193
 -0.0013131036818278992 -0.008269516968534084 0.001552091131379675 0.013146939547597986 0.9932575993009292 -0.06294747423808193 0.005495322769534503 0.026306950579207202
0.100041684035 0.005904252637810529 0.028195438310836894 0.9927249838867532 -0.06725548315919207 0.0016856986463139698 0.014030399638161821 -0.0014628591838926437 -0.008824570453439713
 0.9927249838867532 -0.06725548315919207 0.005896351136934357 0.028196067302793247 -0.0014631881545329928 -0.00882455592755832 0.0017317577743277272 0.01402417032531787
 0.0016856986463139698 0.014030399638161821 -0.0014631881545329928 -0.00882455592755832 0.005904009191511921 0.02819675262442256 0.9927250461827376 -0.06725412820262319
 -0.0014628591838926437 -0.008824570453439713 0.0017317577743277272 0.01402417032531787 0.9927250461827376 -0.06725412820262319 0.00589669235777392 0.02819732138622716
0.1059090909091 0.006299302341285929 0.02998284412140118 0.9922023342430221 -0.07130894067049852 0.0018582725003701427 0.01485388492077171 -0.0016113720722140343 -0.009345101700236173
 0.9922023342430221 -0.07130894067049852 0.006290447273198722 0.029983543020327488 -0.0016117396875125725 -0.009345083308263497 0.0019099145649350848 0.01484673962082231
 0.0018582725003701427 0.01485388492077171 -0.0016117396875125725 -0.009345083308263497 0.0062990283205610256 0.029984231493630772 0.9922024042930325 -0.0713075035551566
 -0.0016113720722140343 -0.009345101700236173 0.0019099145649350848 0.01484673962082231 0.9922024042930325 -0.0713075035551566 0.006290828860971249 0.0299848618898112
0.1062942892872 0.006325838109214511 0.0301006435300078 0.992167240399592 -0.07157545562412727 0.0018699160941714824 0.014907925974860169 -0.001621393984485227 -0.009379260611892886
 0.992167240399592 -0.07157545562412727 0.006316918529976677 0.030101347176821242 -0.0016217642082889604 -0.00937924194998076 0.0019219359319263968 0.014900717549195064
 0.0018699160941714824 0.014907925974860169 -0.0016217642082889604 -0.00937924194998076 0.0063255620135141116 0.030102035676048265 0.9921673109774493 -0.071574013097645
 -0.001621393984485227 -0.009379260611892886 0.0019219359319263968 0.014900717549195064 0.9921673109774493 -0.071574013097645 0.006317302843357006 0.03010267024984672
0.11254689453939999 0.00676702653746318 0.03202052191075978 0.9915840176024064 -0.07590844281202609 0.0020643540105353972 0.015784709656655585 -0.0017887843954588873 -0.00993343352266042
 0.9915840176024064 -0.07590844281202609 0.006757026869899207 0.03202130542333457 -0.0017891981859019072 -0.009933410192065863 0.002122699880935757 0.01577642321100188
 0.0020643540105353972 0.015784709656655585 -0.0017891981859019072 -0.009933410192065863 0.006766715584711535 0.03202199112153047 0.991584097082798 -0.07590691216022939
 -0.0017887843954588873 -0.00993343352266042 0.002122699880935757 0.01577642321100188 0.991584097082798 -0.07590691216022939 0.0067574567169147075 0.032022695817972735
0.11879949979160001 0.007228118004012938 0.03395477074942095 0.9909750208537496 -0.08025421723140198 0.0022690837319948244 0.01666059454919761 -0.001965103956453339 -0.01048693264927562
 0.9909750208537496 -0.08025421723140198 0.007216976121530956 0.033955639531016046 -0.0019655636075073053 -0.010486904092167822 0.002334121157872619 0.016651126017842056
 0.0022690837319948244 0.01666059454919761 -0.0019655636075073053 -0.010486904092167822 0.007227769954078469 0.03395631621615636 0.9909751098812877 -0.0802525978632842
 -0.001965103956453339 -0.01048693264927562 0.002334121157872619 0.016651126017842056 0.9909751098812877 -0.0802525978632842 0.00721745391413307 0.033957095484568725
0.1250521050438 0.007709409930033795 0.03590308531362878 0.9903399576693057 -0.08461254139017703 0.002484173822207809 0.017535421372365505 -0.0021504233418996642 -0.011039598822177619
 0.9903399576693057 -0.08461254139017703 0.007697063576975589 0.035904044965408076 -0.0021509311279879627 -0.011039564455603607 0.002556268455959552 0.01752466148419863
 0.002484173822207809 0.017535421372365505 -0.0021509311279879627 -0.011039564455603607 0.007709022509207599 0.035904706185122294 0.9903400569138988 -0.0846108326814342
 -0.0021504233418996642 -0.011039598822177619 0.002556268455959552 0.01752466148419863 0.9903400569138988 -0.0846108326814342 0.007697591695817212 0.03590556461841305
0.131304710296 0.008211196949827452 0.03786515822644437 0.9896785378922304 -0.0889831684133204 0.0027096899720082134 0.018409027782476915 -0.0023448102673074575 -0.011591270236051924
 0.9896785378922304 -0.0889831684133204 0.008197583728436339 0.0378662145534851 -0.002345368443220725 -0.01159122945201188 0.002789207522545419 0.018396862015223926
 0.0027096899720082134 0.018409027782476915 -0.002345368443220725 -0.01159122945201188 0.008210767849261901 0.037866853610733844 0.9896786480505683 -0.08898136970554947
 -0.0023448102673074575 -0.011591270236051924 0.002789207522545419 0.018396862015223926 0.9896786480505683 -0.08898136970554947 0.0081981645209415 0.03786779595073239
0.1375573155481 0.00862012542154164 0.03958389919540015 0.9891041675707043 -0.09310892641499476 0.0029172553103094653 0.019255340556126443 -0.002519802455074077 -0.012115959891915983
 0.9891041675707043 -0.09310892641499476 0.008605179256823692 0.0395850353427782 -0.0025204145188353617 -0.012115912640515009 0.0030043803265003633 0.019241784749441666
 0.0029172553103094653 0.019255340556126443 -0.0025204145188353617 -0.012115912640515009 0.008619653328781934 0.039585668051685605 0.9891042891612125 -0.09310703728119422
 -0.002519802455074077 -0.012115959891915983 0.0030043803265003633 0.019241784749441666 0.9891042891612125 -0.09310703728119422 0.008605814381776426 0.03958667701104326
0.1438099208003 0.009043480193214335 0.041293317150404484 0.9885095277405286 -0.0972239741449452 0.0031331904896139693 0.020098176308975854 -0.002701794513498988 -0.012637415391482375
 0.9885095277405286 -0.0972239741449452 0.009027137966400558 0.04129453753872183 -0.002702462915341096 -0.01263736107010783 0.003228256038599538 0.0200831255360273
 0.0031331904896139693 0.020098176308975854 -0.002702462915341096 -0.01263736107010783 0.009042962928079998 0.04129515849575276 0.988509661462428 -0.09722199393187546
 -0.002701794513498988 -0.012637415391482375 0.003228256038599538 0.0200831255360273 0.988509661462428 -0.09722199393187546 0.009027829598361351 0.04129623747129642
0.1500625260525 0.009481108946451803 0.04299326160451323 0.987894775137698 -0.10132820191514656 0.00335741871972097 0.020937447137638412 -0.002890710686511231 -0.013155551734674066
 0.987894775137698 -0.10132820191514656 0.009463307389210312 0.04299457091586099 -0.0028914378727916586 -0.013155489716236616 0.003460755829196127 0.02092079264111568
 0.00335741871972097 0.020937447137638412 -0.0028914378727916586 -0.013155489716236616 0.009480544306248591 0.042995174415677635 0.9878949217133602 -0.10132612994615423
 -0.002890710686511231 -0.013155551734674066 0.003460755829196127 0.02092079264111568 0.9878949217133602 -0.10132612994615423 0.009464057662345616 0.042996327026538494
0.15631513130469998 0.009932858236783847 0.044683586591654875 0.9872600673499045 -0.10542150058414355 0.003589862278444949 0.0217730666823247 -0.003086474257581826 -0.013670285761188065
 0.9872600673499045 -0.10542150058414355 0.009913533927056854 0.044684989776286384 -0.003087262670697398 -0.013670215394248656 0.0037017999047934394 0.021754695915360965
