! Created with skrf 1.8.0 (http://scikit-rf.org).
# GHz S RI R 50.0 
!freq ReS11 ImS11 ReS12 ImS12 ReS13 ImS13
! ReS14 ImS14
! ReS21 ImS21 ReS22 ImS22 ReS23 ImS23
! ReS24 ImS24
! ReS31 ImS31 ReS32 ImS32 ReS33 ImS33
! ReS34 ImS34
! ReS41 ImS41 ReS42 ImS42 ReS43 ImS43
! ReS44 ImS44
!
0.0 0.001359861929197 0.0 0.9986401380708 0.0 5.25049405927e-05 0.0 -5.250493946021e-05 6.430000604937174e-21
 0.9986401380708 0.0 0.001359861929219 0.0 -5.250493946046e-05 6.430000604967789e-21 5.250494059281e-05 0.0
 5.25049405927e-05 0.0 -5.250493946046e-05 6.430000604967789e-21 0.001359861913911 0.0 0.9986401380555 0.0
 -5.250493946021e-05 6.430000604937174e-21 5.250494059281e-05 0.0 0.9986401380555 0.0 0.00135986191392 0.0
0.005 0.0014627118257721206 0.0011061329970228839 0.998510082804523 -0.002849472212133446 7.42611942611368e-05 0.0006190787833235834 -7.195992109064693e-05 -0.0003815841770133228
 0.998510082804523 -0.002849472212133446 0.0014627004430000068 0.00110613959072319 -7.196307671412343e-05 -0.00038158649089910945 7.431999718141813e-05 0.0006190563418214856
 7.42611942611368e-05 0.0006190787833235834 -7.196307671412343e-05 -0.00038158649089910945 0.0014627104099996522 0.0011060665001420534 0.9985100824577382 -0.002849539276071917
 -7.195992109064693e-05 -0.0003815841770133228 7.431999718141813e-05 0.0006190563418214856 0.9985100824577382 -0.002849539276071917 0.0014627011699967572 0.0011060719645274088
0.006252605252188 0.0014895511199324802 0.0013870679645733143 0.998475951952878 -0.003562561773631332 8.038862643365273e-05 0.0007741392953422707 -7.739223947822601e-05 -0.00047749135759453506
 0.998475951952878 -0.003562561773631332 0.0014895333271056144 0.0013870763403888535 -7.739715082654605e-05 -0.0004774942090524163 8.048050061381595e-05 0.0007741101823231256
 8.038862643365273e-05 0.0007741392953422707 -7.739715082654605e-05 -0.0004774942090524163 0.001489548989503499 0.0013869848396015165 0.9984759514928744 -0.003562645601847232
 -7.739223947822601e-05 -0.00047749135759453506 8.048050061381595e-05 0.0007741101823231256 0.9984759514928744 -0.003562645601847232 0.0014895345452943078 0.0013869918195649675
0.01250521050438 0.0016300521851017964 0.0028036436982768103 0.998296203675148 -0.0071260969745959 0.00011506253483709855 0.0015485772873258272 -0.00010788966570472492 -0.0009574284681222822
 0.998296203675148 -0.0071260969745959 0.0016299811476297571 0.0028036618004311296 -0.000107909032828577 -0.0009574337255840328 0.00011542890273136669 0.0015485076941305872
 0.00011506253483709855 0.0015485772873258272 -0.000107909032828577 -0.0009574337255840328 0.0016300442407238905 0.0028034776630576734 0.9982962023897394 -0.007126264381285375
 -0.00010788966570472492 -0.0009574284681222822 0.00011542890273136669 0.0015485076941305872 0.9982962023897394 -0.007126264381285375 0.00162998655621577 0.002803493120681962
0.01875781575657 0.0017816437431368744 0.004240789932282138 0.9981006899294422 -0.0106993152908747 0.0001566023669819466 0.002323898404738392 -0.00014408589593479439 -0.0014390833737152782
 0.9981006899294422 -0.0106993152908747 0.0017814841376128769 0.004240819215567673 -0.00014412910289278696 -0.0014390905119357675 0.00015742536425566227 0.002323774929650467
 0.0001566023669819466 0.002323898404738392 -0.00014412910289278696 -0.0014390905119357675 0.0017816263370903777 0.004240541080821052 0.9981006874626313 -0.010699566202594112
 -0.00014408589593479439 -0.0014390833737152782 0.00015742536425566227 0.002323774929650467 0.9981006874626313 -0.010699566202594112 0.0017814966995596563 0.0042405665843102975
0.02501042100875 0.001944597732635731 0.005696510307922069 0.9978892002501998 -0.014283978053698477 0.00020508471706333955 0.003100166498713345 -0.00018606699227595588 -0.001922244381536654
 0.9978892002501998 -0.014283978053698477 0.0019443143181631314 0.005696552319714858 -0.00018614331765033529 -0.0019222527862145181 0.00020654655561631595 0.0030999737903308244
 0.00020508471706333955 0.003100166498713345 -0.00018614331765033529 -0.0019222527862145181 0.00194456723335858 0.005696178741632126 0.9978891962411068 -0.014284312443264413
 -0.00018606699227595588 -0.001922244381536654 0.00020654655561631595 0.0030999737903308244 0.9978891962411068 -0.014284312443264413 0.001944336979621114 0.005696215922093962
0.03126302626094 0.0021191746823240247 0.007169791629752341 0.9976615124689671 -0.017880855947433 0.00026058681642304727 0.0038773697283797566 -0.00023391676218548432 -0.002406771224818967
 0.9976615124689671 -0.017880855947433 0.0021187322827417635 0.007169848007912547 -0.0002340353975542594 -0.0024067801912992463 0.00026286996253011106 0.0038770904758544836
 0.00026058681642304727 0.0038773697283797566 -0.0002340353975542594 -0.0024067801912992463 0.0021191274770561673 0.007169377483080471 0.9976615065557104 -0.017881273808231214
 -0.00023391676218548432 -0.002406771224818967 0.00026286996253011106 0.0038770904758544836 0.9976615065557104 -0.017881273808231214 0.0021187679793947646 0.007169428032970598
0.037515631513130004 0.002305629630721931 0.008659984050144872 0.9974173987806179 -0.021490348770582503 0.0003231858039757792 0.00465546678214411 -0.00028771743701293414 -0.0028925488393774356
 0.9974173987806179 -0.021490348770582503 0.0023049931225196992 0.008660056522206028 -0.00028788749628527824 -0.002892557572145572 0.00032647306195692107 0.004655081695744043
 0.0003231858039757792 0.00465546678214411 -0.00028788749628527824 -0.002892557572145572 0.002305562123349351 0.008659487482112944 0.9974173905982158 -0.021490850125231657
 -0.00028771743701293414 -0.0028925488393774356 0.00032647306195692107 0.004655081695744043 0.9974173905982158 -0.021490850125231657 0.002305044780334834 0.008659553154435182
0.043768236765320004 0.0025042144181153933 0.010166612384045183 0.99715662818015 -0.025112674060164524 0.00039295838934919823 0.005434400935634637 -0.0003475499268337662 -0.003379473298852084
 0.99715662818015 -0.025112674060164524 0.0025033487217657707 0.010166702766845009 -0.00034778045183870594 -0.0033794809112873687 0.0003974329451038039 0.00543388872421756
 0.00039295838934919823 0.005434400935634637 -0.00034778045183870594 -0.0033794809112873687 0.00250412303028062 0.010166033597615842 0.9971566173622028 -0.02511325894145906
 -0.0003475499268337662 -0.003379473298852084 0.0003974329451038039 0.00543388872421756 0.9971566173622028 -0.02511325894145906 0.002503419259575775 0.010166116205219459
0.050020842017509996 0.0027151787534361463 0.011689298193218886 0.9968789676767102 -0.028747944944816726 0.00046998065825320373 0.006214105852356306 -0.00041349392131214573 -0.003867446006998458
 0.9968789676767102 -0.028747944944816726 0.002714048825608711 0.011689408392740148 -0.0004137938853288085 -0.003867451521191614 0.00047582610157183205 0.006213443199611867
 0.00046998065825320373 0.006214105852356306 -0.0004137938853288085 -0.003867451521191614 0.0027150599239811925 0.011688637419260127 0.9968789538541256 -0.028748613412162956
 -0.00041349392131214573 -0.003867446006998458 0.00047582610157183205 0.006213443199611867 0.9968789538541256 -0.028748613412162956 0.002714141155887696 0.011688738834433868
0.055454545454549996 0.0029087596113008323 0.013025349368623686 0.996623773698759 -0.03191765661049883 0.000542861495217156 0.006892262371276602 -0.0004758255413249103 -0.004292285699141909
 0.996623773698759 -0.03191765661049883 0.0029073716222391306 0.013025478406664374 -0.0004761930858858854 -0.004292288524716964 0.0005500476997336237 0.006891448453544295
 0.000542861495217156 0.006892262371276602 -0.0004761930858858854 -0.004292288524716964 0.0029086140544082213 0.013024617573531433 0.9966237569621706 -0.03191839776644704
 -0.0004758255413249103 -0.004292285699141909 0.0005500476997336237 0.006891448453544295 0.9966237569621706 -0.03191839776644704 0.0029074852510077797 0.01302473689949246
0.056273447269699996 0.0029387707751208944 0.013227721486577042 0.9965841830027615 -0.032396208382115384 0.000554327935519382 0.006994508434191177 -0.0004856279267246628 -0.004356370841390338
 0.9965841830027615 -0.032396208382115384 0.002937341602396614 0.013227853498030014 -0.0004860062368401736 -0.004356373188010502 0.0005617282696749074 0.006993669974209646
 0.000554327935519382 0.006994508434191177 -0.0004860062368401736 -0.004356373188010502 0.0029386209589360576 0.013226979006622747 0.9965841658025533 -0.032396960499067824
 -0.0004856279267246628 -0.004356370841390338 0.0005617282696749074 0.006993669974209646 0.9965841658025533 -0.032396960499067824 0.002937458631269541 0.013227101160765973
0.06252605252188 0.0031752373559522577 0.014781599708564935 0.9962720390706383 -0.0360574661088436 0.0006460746807559121 0.00777553037587009 -0.0005640292665636365 -0.004846152594934287
 0.9962720390706383 -0.0360574661088436 0.0031734739484721103 0.014781755616616172 -0.0005644947653106215 -0.004846150613128754 0.0006552143235662275 0.007774488668446267
 0.0006460746807559121 0.00777553037587009 -0.0005644947653106215 -0.004846150613128754 0.0031750530253106153 0.014780775837803711 0.9962720181164003 -0.03605830196054308
 -0.0005640292665636365 -0.004846152594934287 0.0006552143235662275 0.007774488668446267 0.9962720181164003 -0.03605830196054308 0.0031736185775012816 0.014780920721282911
0.06877865777407 0.0034248242746492395 0.016350675184374466 0.9959423002974953 -0.03973168713654821 0.0007452943988530509 0.008557089102685751 -0.0006487740643715314 -0.005336696036419507
 0.9959423002974953 -0.03973168713654821 0.0034226916601133596 0.01635085716346685 -0.0006493355307648455 -0.005336688473712135 0.0007563581780487612 0.008555814608425789
 0.0007452943988530509 0.008557089102685751 -0.0006493355307648455 -0.005336688473712135 0.0034246019185082423 0.01634977027872531 0.9959422752083236 -0.03973260682293736
 -0.0006487740643715314 -0.005336696036419507 0.0007563581780487612 0.008555814608425789 0.9959422752083236 -0.03973260682293736 0.003422866786705193 0.01634993994080029
0.07503126302626001 0.0036877763056324354 0.017934707167109615 0.9955947308516793 -0.0434188156470019 0.0008520595610415848 0.009339098355834576 -0.000739937213860433 -0.005827905325781026
 0.9955947308516793 -0.0434188156470019 0.0036852395239302354 0.017934917482070663 -0.0007406033641266019 -0.005827890838008505 0.0008652327051921878 0.009337559411281789
 0.0008520595610415848 0.009339098355834576 -0.0007406033641266019 -0.005827890838008505 0.0036875124301628055 0.017933721627289744 0.9955947012422823 -0.04341981927920956
 -0.000739937213860433 -0.005827905325781026 0.0008652327051921878 0.009337559411281789 0.9955947012422823 -0.04341981927920956 0.003685448042236741 0.017933918176169687
0.08128386827845 0.0039643372598714395 0.019533466550893327 0.9952290948528213 -0.04711877622465652 0.0009664415315560269 0.010121468586575486 -0.0008375923415422171 -0.006319683623223921
 0.9952290948528213 -0.04711877622465652 0.003961361357267797 0.019533707557548755 -0.0008383718295073198 -0.006319660774465344 0.0009819096576402957 0.010119631379357768
 0.0009664415315560269 0.010121468586575486 -0.0008383718295073198 -0.006319660774465344 0.003964028388722425 0.019532400814999153 0.9952290603326643 -0.0471198639326559
 -0.0008375923415422171 -0.006319683623223921 0.0009819096576402957 0.010119631379357768 0.9952290603326643 -0.0471198639326559 0.00396160615926419 0.01953262641805137
0.08753647353064001 0.004254749991114901 0.021146732202166774 0.9948451565393842 -0.05083147747325907 0.0010885104982204562 0.010904107230756752 -0.0009418117637429726 -0.0068119328206932
 0.9948451565393842 -0.05083147747325907 0.004251300014978477 0.021147006348177906 -0.0009427131810772904 -0.006811900083223081 0.0011064595965022696 0.010901935774821658
 0.0010885104982204562 0.010904107230756752 -0.0009427131810772904 -0.006811900083223081 0.004254392665181092 0.02114558675453984 0.9948451167122117 -0.05083264939744396
 -0.0009418117637429726 -0.0068119328206932 0.0011064595965022696 0.010901935774821658 0.9948451167122117 -0.05083264939744396 0.00425158399044953 0.02114584363867544
0.09378907878283 0.004559256379827663 0.022774288349800765 0.994442680416934 -0.05455681457683949 0.0012183354053390883 0.011686918904254533 -0.0010526664398625412 -0.00730455335524282
 0.994442680416934 -0.05455681457683949 0.004555297372879914 0.022774598175705086 -0.0010536983160577046 -0.007304509109500923 0.0012389518220768455 0.011684375015267838
 0.0012183354053390883 0.011686918904254533 -0.0010536983160577046 -0.007304509109500923 0.004558847157880971 0.022773063716281145 0.9944426348802149 -0.05455807087297602
 -0.0010526664398625412 -0.00730455335524282 0.0012389518220768455 0.011684375015267838 0.9944426348802149 -0.05455807087297602 0.004555623411058282 0.022773354168395748
0.100041684035 0.004878097300341909 0.02441592266260881 0.9940214313917358 -0.058294671176239134 0.0013559838883255189 0.012469805550026497 -0.0011702259225551085 -0.007797444073845843
 0.9940214313917358 -0.058294671176239134 0.004873594295444061 0.024416270802907678 -0.0011713967248894504 -0.007797386608400827 0.0013794543065008748 0.012466848820948782
 0.0013559838883255189 0.012469805550026497 -0.0011713967248894504 -0.007797386608400827 0.004877632759621831 0.024414619410688877 0.9940213797367943 -0.0582960120156781
 -0.0011702259225551085 -0.007797444073845843 0.0013794543065008748 0.012466848820948782 0.9940213797367943 -0.0582960120156781 0.004873965285478823 0.024414945778358565
0.1059090909091 0.005190546433341097 0.025969038897815815 0.9936088511547354 -0.06181352693304924 0.0014923268898027432 0.013204440223521467 -0.001286701653074316 -0.008260123877917407
 0.9936088511547354 -0.06181352693304924 0.005185501128255257 0.02596942547302614 -0.001288010468110534 -0.008260052368816835 0.0015186455533911173 0.013201057336772966
 0.0014923268898027432 0.013204440223521467 -0.001288010468110534 -0.008260052368816835 0.0051900268850475564 0.025967662428435515 0.9936087933801832 -0.06181494727307759
 -0.001286701653074316 -0.008260123877917407 0.0015186455533911173 0.013201057336772966 0.9936087933801832 -0.06181494727307759 0.005185916928797123 0.02596802468884183
0.1062942892872 0.005211512576374561 0.026071424804601735 0.9935811748958296 -0.06204492077128073 0.001501522209175565 0.013252666551247464 -0.0012945583058401673 -0.008290502135106846
 0.9935811748958296 -0.06204492077128073 0.005206430591075858 0.026071813989092966 -0.0012958764391300492 -0.008290429646658463 0.0015280336276819815 0.013249254328065282
 0.001501522209175565 0.013252666551247464 -0.0012958764391300492 -0.008290429646658463 0.005210989312324293 0.026070043548363078 0.9935811167064679 -0.06204634633632665
 -0.0012945583058401673 -0.008290502135106846 0.0015280336276819815 0.013249254328065282 0.9935811167064679 -0.06204634633632665 0.005206849422472417 0.02607040824058525
0.11254689453939999 0.005559740926623318 0.02774058533229187 0.9931216770035572 -0.0658074277840789 0.0016550151928634719 0.014035398821207579 -0.0014257301711846399 -0.008783622937304782
 0.9931216770035572 -0.0658074277840789 0.005554044957578519 0.02774101838754401 -0.0014272039774834075 -0.008783533530683365 0.0016847549042125682 0.014031486178999079
 0.0016550151928634719 0.014035398821207579 -0.0014272039774834075 -0.008783533530683365 0.00555915555379563 0.027739126727348073 0.9931216118565148 -0.06580893827323911
 -0.0014257301711846399 -0.008783622937304782 0.0016847549042125682 0.014031486178999079 0.9931216118565148 -0.06580893827323911 0.0055545145215582375 0.02773953221550713
0.11879949979160001 0.005923019903808147 0.029423194831529585 0.9926427045450683 -0.06958204838652704 0.0018165261640326544 0.014817896875118603 -0.0015638065323184157 -0.009276700067894144
 0.9926427045450683 -0.06958204838652704 0.005916674921438841 0.029423674682575007 -0.0015654442905309294 -0.009276591756088262 0.0018496817307287624 0.014813436594252856
 0.0018165261640326544 0.014817896875118603 -0.0015654442905309294 -0.009276591756088262 0.0059223690557249275 0.029421659578515544 0.992642632008367 -0.06958364401130075
 -0.0015638065323184157 -0.009276700067894144 0.0018496817307287624 0.014813436594252856 0.992642632008367 -0.06958364401130075 0.005917198111076736 0.029422108397473695
0.1250521050438 0.006301585827135999 0.031119043236306647 0.9921440252140764 -0.07336863114917132 0.0019861168839400427 0.015600052892806308 -0.0017088507788253196 -0.009769625265264458
 0.9921440252140764 -0.07336863114917132 0.0062945567700514295 0.03111957290841866 -0.001710660704275184 -0.00976949596944932 0.0020228761136918925 0.015594995435521888
 0.0019861168839400427 0.015600052892806308 -0.001710660704275184 -0.00976949596944932 0.006300866157158468 0.03111743207982448 0.992143944847796 -0.07337031213533975
 -0.0017088507788253196 -0.009769625265264458 0.0020228761136918925 0.015594995435521888 0.992143944847796 -0.07337031213533975 0.006295136481441931 0.03111792682927328
0.131304710296 0.0066956737106674494 0.03282791928206778 0.9916254076753984 -0.07716701755967277 0.0021638474877467154 0.016381756771659914 -0.0018609246186428927 -0.010262288393688524
 0.9916254076753984 -0.07716701755967277 0.00668792548024691 0.03282850190281239 -0.0018629148625472546 -0.010262135943285582 0.002204398407605812 0.016376050258909907
 0.0021638474877467154 0.016381756771659914 -0.0018629148625472546 -0.010262135943285582 0.006694881892412436 0.03282623301284561 0.9916253190304761 -0.07716878414531704
 -0.0018609246186428927 -0.010262288393688524 0.002204398407605812 0.016376050258909907 0.9916253190304761 -0.07716878414531704 0.006688564613324387 0.032826776358683356
0.1375573155481 0.00701108970903657 0.03432471446206743 0.991181080400433 -0.08075205882986566 0.002325948040469082 0.01713935742648067 -0.001996214363704237 -0.010731082853123367
 0.991181080400433 -0.08075205882986566 0.007002583791191582 0.03432534028086537 -0.001998396605711913 -0.010730907262561463 0.0023703870876160714 0.017133013915503512
 0.002325948040469082 0.01713935742648067 -0.001998396605711913 -0.010730907262561463 0.007010221284508117 0.03432295453155872 0.9911809830992679 -0.08075391115300182
 -0.001996214363704237 -0.010731082853123367 0.0023703870876160714 0.017133013915503512 0.9911809830992679 -0.08075391115300182 0.007003286249473739 0.03432353478591506
0.1438099208003 0.0073374467296411965 0.03581426396596592 0.9907214090690842 -0.08432869790319186 0.002494602944846725 0.017894434436782288 -0.0021369432071425202 -0.011197552739386163
 0.9907214090690842 -0.08432869790319186 0.007328147421753332 0.03581493526291049 -0.0021393261424832275 -0.011197351902490887 0.0025431018784969803 0.01788740683215668
 0.002494602944846725 0.017894434436782288 -0.0021393261424832275 -0.011197351902490887 0.007336498195353915 0.0358124312744611 0.9907213026641946 -0.0843306361986754
 -0.0021369432071425202 -0.011197552739386163 0.0025431018784969803 0.01788740683215668 0.9907213026641946 -0.0843306361986754 0.007328916293063132 0.03581305008333973
0.1500625260525 0.0076746389496536 0.03729646322030798 0.9902465030305218 -0.08789686676952851 0.002669760096577499 0.018646928003740876 -0.0022830600655567757 -0.011661639912614154
 0.9902465030305218 -0.08789686676952851 0.007664510485341031 0.03729718240195991 -0.0022856523707887586 -0.011661411639490481 0.002722489820151476 0.01863916749350177
 0.002669760096577499 0.018646928003740876 -0.0022856523707887586 -0.011661411639490481 0.007673606807681481 0.03729455870761346 0.9902463870666756 -0.08789889128059596
 -0.0022830600655567757 -0.011661639912614154 0.002722489820151476 0.01863916749350177 0.9902463870666756 -0.08789889128059596 0.007665348873277848 0.03729521781251003
0.15631513130469998 0.008022559896588458 0.038771210917349225 0.989756472080665 -0.09145649725132293 0.0028513668423112972 0.0193967792267938 -0.0024345132847705016 -0.012123287391036608
