! Created with skrf 1.8.0 (http://scikit-rf.org).
# GHz S RI R 50.0 
!freq ReS11 ImS11 ReS12 ImS12 ReS13 ImS13
! ReS14 ImS14
! ReS21 ImS21 ReS22 ImS22 ReS23 ImS23
! ReS24 ImS24
! ReS31 ImS31 ReS32 ImS32 ReS33 ImS33
! ReS34 ImS34
! ReS41 ImS41 ReS42 ImS42 ReS43 ImS43
! ReS44 ImS44
!
0.0 0.001550881831593 0.0 0.9984491181684 0.0 5.970746637155e-05 0.0 -5.970746614912e-05 7.312055730471875e-21
 0.9984491181684 0.0 0.001550881831592 0.0 -5.970746614877e-05 7.312055730429013e-21 5.97074663705e-05 0.0
 5.970746637155e-05 0.0 -5.970746614877e-05 7.312055730429013e-21 0.001550881827324 0.0 0.9984491181641 0.0
 -5.970746614912e-05 7.312055730471875e-21 5.97074663705e-05 0.0 0.9984491181641 0.0 0.001550881827335 0.0
0.005 0.0016686282851108133 0.0012710390673599382 0.9983001822478667 -0.0032485637515157102 8.320744314078656e-05 0.0006437514576895819 -8.09853772341236e-05 -0.00040651765311581014
 0.9983001822478667 -0.0032485637515157102 0.0016686060160637087 0.001271052100663466 -8.098697349104894e-05 -0.00040651891746905556 8.332839884158847e-05 0.0006437052417172236
 8.320744314078656e-05 0.0006437514576895819 -8.098697349104894e-05 -0.00040651891746905556 0.0016686276189614273 0.0012711067637325624 0.9983001826048736 -0.0032484966949106976
 -8.09853772341236e-05 -0.00040651765311581014 8.332839884158847e-05 0.0006437052417172236 0.9983001826048736 -0.0032484966949106976 0.0016686073949567497 0.0012711185181108662
0.006252605252188 0.0016995187092548405 0.0015937870174065072 0.9982608697443037 -0.004061497201957685 8.989465622486026e-05 0.0008050092341165312 -8.699033946683263e-05 -0.0005086690188344003
 0.9982608697443037 -0.004061497201957685 0.001699483898941425 0.0015938036120560913 -8.699282307719984e-05 -0.0005086705785647322 9.008363642126119e-05 0.0008049492494522561
 8.989465622486026e-05 0.0008050092341165312 -8.699282307719984e-05 -0.0005086705785647322 0.001699517597080332 0.0015938716392404294 0.998260870231916 -0.004061413385220144
 -8.699033946683263e-05 -0.0005086690188344003 9.008363642126119e-05 0.0008049492494522561 0.998260870231916 -0.004061413385220144 0.0016994859843568585 0.001593886624596948
0.01250521050438 0.0018621849987893193 0.003220863814840945 0.9980525266659516 -0.008123777307460372 0.00012810553431511607 0.0016104351363124703 -0.00012104775985457254 -0.0010197867485767637
 0.9980525266659516 -0.008123777307460372 0.0018620460011514518 0.0032209000856587757 -0.00012105754396982192 -0.0010197896410372497 0.00012885908762026407 0.00161029124370557
 0.00012810553431511607 0.0016104351363124703 -0.00012105754396982192 -0.0010197896410372497 0.0018621799820936486 0.0032210328733661632 0.998052528044188 -0.008123609922689044
 -0.00012104775985457254 -0.0010197867485767637 0.00012885908762026407 0.00161029124370557 0.998052528044188 -0.008123609922689044 0.001862053765732143 0.0032210658004675967
0.01875781575657 0.0020392371818012812 0.004871022678522521 0.9978238287252104 -0.012196722546507666 0.0001744309154411673 0.002416802024781701 -0.00016198451652878911 -0.001532635710462393
 0.9978238287252104 -0.012196722546507666 0.0020389248468840196 0.0048710819812695875 -0.0001620063305050171 -0.0015326396656127296 0.00017612355976495453 0.0024165455599180615
 0.0001744309154411673 0.002416802024781701 -0.0001620063305050171 -0.0015326396656127296 0.0020392254673996446 0.00487127616834839 0.997823831393909 -0.012196471693283297
 -0.00016198451652878911 -0.001532635710462393 0.00017612355976495453 0.0024165455599180615 0.997823831393909 -0.012196471693283297 0.002038941878311908 0.0048713302078357435
0.02501042100875 0.0022310211709456887 0.006541956750264801 0.9975745053767343 -0.01628230352644604 0.00022896203437802317 0.003224140549252111 -0.00020990205524580482 -0.002046986235682318
 0.9975745053767343 -0.01628230352644604 0.002230466489148841 0.006542042694156896 -0.00020994057032438943 -0.0020469909355750704 0.00023196835112747826 0.003223738278994756
 0.00022896203437802317 0.003224140549252111 -0.00020994057032438943 -0.0020469909355750704 0.002230999969301053 0.0065422947200937925 0.9975745097413774 -0.016281969279381463
 -0.00020990205524580482 -0.002046986235682318 0.00023196835112747826 0.003223738278994756 0.9975745097413774 -0.016281969279381463 0.0022304963813484513 0.006542373238750274
0.03126302626094 0.002437868612701274 0.008232477348592084 0.9973042723223821 -0.02038136187070412 0.00029179027366830665 0.004032408884297738 -0.00026489899490195033 -0.0025626753864474417
 0.9973042723223821 -0.02038136187070412 0.0024370026797177944 0.008232593793121886 -0.00026495883407373335 -0.0025626804646639093 0.00029648525934639964 0.004031822982782595
 0.00029179027366830665 0.004032408884297738 -0.00026495883407373335 -0.0025626804646639093 0.002437835125433725 0.008232899897397969 0.9973042787823677 -0.020380944283267397
 -0.00026489899490195033 -0.0025626753864474417 0.00029648525934639964 0.004031822982782595 0.9973042787823677 -0.020380944283267397 0.00243704902285626 0.008233006454633549
0.037515631513130004 0.002660103987763336 0.009941808246335703 0.9970128388476001 -0.02449431587749344 0.00036300641860307524 0.0048415364920516065 -0.00032707181544995996 -0.003079563208114213
 0.9970128388476001 -0.02449431587749344 0.0026588579814676473 0.009941959300241008 -0.00032715755851186475 -0.003079568249613649 0.00036976564196496625 0.004840724496471553
 0.00036300641860307524 0.0048415364920516065 -0.00032715755851186475 -0.003079568249613649 0.0026600554143057795 0.009942315510982238 0.9970128478037078 -0.024493814994542836
 -0.00032707181544995996 -0.003079563208114213 0.00036976564196496625 0.004840724496471553 0.9970128478037078 -0.024493814994542836 0.002658924369701358 0.009942453857255697
0.043768236765320004 0.0028980473531052087 0.011669370927792067 0.9966999107967431 -0.028621375190415823 0.0004427002996884627 0.005651437427584898 -0.00039651509977097214 -0.0035975194301697665
 0.9966999107967431 -0.028621375190415823 0.00289635251629487 0.011669560949040548 -0.000396631286328902 -0.003597523971271185 0.0004518999759679593 0.005650352187727024
 0.0004427002996884627 0.005651437427584898 -0.000396631286328902 -0.003597523971271185 0.002897980887876216 0.011669963077038535 0.9966999226484742 -0.028620791054458285
 -0.00039651509977097214 -0.0035975194301697665 0.0004518999759679593 0.005650352187727024 0.9966999226484742 -0.028620791054458285 0.002896442545403166 0.011670137152916604
0.050020842017509996 0.0031520156142711285 0.013414695828363018 0.996365192081008 -0.03276262948496379 0.0005309605704673203 0.006462015833953334 -0.0004733216185992643 -0.0041164179773813024
 0.996365192081008 -0.03276262948496379 0.0031498032397303624 0.013414929424461345 -0.0004734727500363151 -0.004116421505781176 0.0005429775911266279 0.006460605459134786
 0.0005309605704673203 0.006462015833953334 -0.0004734727500363151 -0.004116421505781176 0.0031519284480936768 0.013415373064913645 0.9963652072280356 -0.032761962134359314
 -0.0004733216185992643 -0.0041164179773813024 0.0005429775911266279 0.006460605459134786 0.9963652072280356 -0.032761962134359314 0.0031499205084087444 0.01341558700063508
0.055454545454549996 0.0033859801448033818 0.014945546082900635 0.9960563839381625 -0.036373044700469294 0.0006146862243227596 0.007166903324296563 -0.0005461193572020301 -0.004568025062774215
 0.9960563839381625 -0.036373044700469294 0.0033832622443821423 0.014945821483150505 -0.0005463044837431974 -0.004568027257308036 0.000629458212847689 0.007165164533310452
 0.0006146862243227596 0.007166903324296563 -0.0005463044837431974 -0.004568027257308036 0.003385872703650726 0.014946297453577444 0.9960564022727174 -0.03637230506228082
 -0.0005461193572020301 -0.004568025062774215 0.000629458212847689 0.007165164533310452 0.9960564022727174 -0.03637230506228082 0.0033834061091597423 0.014946549530236988
0.056273447269699996 0.0034223231778897473 0.015177378769637437 0.9960083855693794 -0.03691809196091093 0.000627874544732631 0.007273168645157492 -0.0005575823447481852 -0.004636134275241276
 0.9960083855693794 -0.03691809196091093 0.0034195245949272856 0.015177660798483367 -0.0005577728854866946 -0.00463613623004067 0.0006430864812032892 0.007271376450037697
 0.000627874544732631 0.007273168645157492 -0.0005577728854866946 -0.00463613623004067 0.0034222124966130384 0.015178141328984578 0.9960084044102989 -0.03691734143133503
 -0.0005575823447481852 -0.004636134275241276 0.0006430864812032892 0.007271376450037697 0.9960084044102989 -0.03691734143133503 0.003419672703797352 0.015178399444420732
0.06252605252188 0.003709282297842956 0.01695705700894984 0.9956291936764851 -0.04108772322291887 0.0007335280643853614 0.008084787067278703 -0.0006493864307392981 -0.005156543780493724
 0.9956291936764851 -0.04108772322291887 0.0037058288601802755 0.016957392580100546 -0.0006496208091933507 -0.005156543552250208 0.000752313153562634 0.008082551517301941
 0.0007335280643853614 0.008084787067278703 -0.0006496208091933507 -0.005156543552250208 0.0037091452841352566 0.016957905159237792 0.9956292166102702 -0.04108688954774294
 -0.0006493864307392981 -0.005156543780493724 0.000752313153562634 0.008082551517301941 0.9956292166102702 -0.04108688954774294 0.003706011412887769 0.016958211964310396
0.06877865777407 0.004013203257943745 0.01875339496246627 0.9952273187912227 -0.045271445491592795 0.0008480053829731484 0.008896757469351183 -0.0007488211659553358 -0.0056775211058524636
 0.9952273187912227 -0.045271445491592795 0.004009026331209375 0.018753789438814054 -0.0007491037750777561 -0.005677518036635633 0.0008707425005915013 0.008894012126103927
 0.0008480053829731484 0.008896757469351183 -0.0007491037750777561 -0.005677518036635633 0.004013037089960651 0.018754329004087068 0.9952273462162462 -0.045270528702705405
 -0.0007488211659553358 -0.0056775211058524636 0.0008707425005915013 0.008894012126103927 0.9952273462162462 -0.045270528702705405 0.0040092469334296705 0.018754689199420208
0.07503126302626001 0.004334394452847791 0.02056607515300075 0.9948024636071688 -0.049469151594131754 0.0009713890588083733 0.009708961950204148 -0.0008559719209666249 -0.006198939472933989
 0.9948024636071688 -0.049469151594131754 0.004329425403500833 0.02056653415269823 -0.0008563071187277704 -0.006198932856379756 0.0009984576834685063 0.009705635417057101
 0.0009713890588083733 0.009708961950204148 -0.0008563071187277704 -0.006198932856379756 0.004334196305640915 0.020567095419346728 0.9948024959220729 -0.049468151721316335
 -0.0008559719209666249 -0.006198939472933989 0.0009984576834685063 0.009705635417057101 0.9948024959220729 -0.049468151721316335 0.004329687663497448 0.020567513897492538
0.08128386827845 0.004673162410437602 0.022394792183683506 0.9943543313983253 -0.053680710933826925 0.001103759854445477 0.010521278720027255 -0.0009709220830350514 -0.006720670355023704
 0.9943543313983253 -0.053680710933826925 0.0046673325941400294 0.02239532158263695 -0.000971314192665036 -0.006720659436403422 0.0011355400242516924 0.010517294588157169
 0.001103759854445477 0.010521278720027255 -0.000971314192665036 -0.006720659436403422 0.004672929455338151 0.02239589904152644 0.9943543690012615 -0.05367962800486991
 -0.0009709220830350514 -0.006720670355023704 0.0011355400242516924 0.010517294588157169 0.9943543690012615 -0.05367962800486991 0.0046676401219800665 0.022396380888384283
0.08753647353064001 0.005029811770506961 0.024239248581208902 0.9938826262547141 -0.05790597359546632 0.0012451966390002508 0.011333582371030949 -0.0010937529864540802 -0.007242583235461604
 0.9938826262547141 -0.05790597359546632 0.0050230525210885075 0.024239854515844966 -0.0010942062966356565 -0.007242567211745379 0.0012820689023885245 0.0113288591660049
 0.0012451966390002508 0.011333582371030949 -0.0010942062966356565 -0.007242567211745379 0.005029541176085833 0.024240442426357617 0.9938826695443227 -0.05790480764066638
 -0.0010937529864540802 -0.007242583235461604 0.0012820689023885245 0.0113288591660049 0.9938826695443227 -0.05790480764066638 0.005023408928846834 0.024240992923143308
0.09378907878283 0.005404645236584651 0.02609915181519149 0.9933870532946012 -0.06214477327981976 0.001395776293537652 0.01214574407597842 -0.0012245438380357387 -0.00776454544302518
 0.9933870532946012 -0.06214477327981976 0.005396887854886595 0.026099840685676664 -0.001225062602958025 -0.00776452346295555 0.0014381216552944059 0.0121401952050024
 0.001395776293537652 0.01214574407597842 -0.001225062602958025 -0.00776452346295555 0.0054043341684702935 0.026100433078554235 0.9933871026694274 -0.06214352432632456
 -0.0012245438380357387 -0.00776454544302518 0.0014381216552944059 0.0121401952050024 0.9933871026694274 -0.06214352432632456 0.005397296756102641 0.0261010577040891
0.100041684035 0.005797963506916537 0.02797421212019506 0.9928673188596662 -0.06639692944147946 0.0015555736178530944 0.012957631740031067 -0.0013633716399052479 -0.008286422039094096
 0.9928673188596662 -0.06639692944147946 0.005789139249399598 0.02797499059412226 -0.0013639600792351239 -0.008286393203277004 0.0016037734805606342 0.01295116543993591
 0.0015555736178530944 0.012957631740031067 -0.0013639600792351239 -0.008286393203277004 0.005797609128030186 0.02797558126617125 0.992867374718192 -0.06639559751513517
 -0.0013633716399052479 -0.008286422039094096 0.0016037734805606342 0.01295116543993591 0.992867374718192 -0.06639559751513517 0.005789604259025827 0.02797628569962585
0.1059090909091 0.006184128738772012 0.02974728540934059 0.9923573682667965 -0.0703991026376638 0.0017139745509748196 0.013719132534839381 -0.0015010229136292199 -0.008775947749805614
 0.9923573682667965 -0.0703991026376638 0.006174240761030826 0.02974815427244023 -0.0015016805420017098 -0.008775911619786763 0.001768015423258831 0.013711717216558122
 0.0017139745509748196 0.013719132534839381 -0.0015016805420017098 -0.008775911619786763 0.006183731135444731 0.029748737474906115 0.992357430572422 -0.07039769287390048
 -0.0015010229136292199 -0.008775947749805614 0.001768015423258831 0.013711717216558122 0.992357430572422 -0.07039769287390048 0.006174761711159052 0.02974952214605299
0.1062942892872 0.0062100651888019436 0.029864140862656072 0.9923231306964597 -0.07066224888756464 0.0017246612382495448 0.013769110122964445 -0.001510311109601699 -0.008808075739654492
 0.9923231306964597 -0.07066224888756464 0.006200105256803538 0.029865015879058356 -0.0015109734084917245 -0.008808039100629729 0.0017790973403768186 0.013761629409054461
 0.0017246612382495448 0.013769110122964445 -0.0015109734084917245 -0.008808039100629729 0.006209664660327412 0.029865598387574223 0.9923231934376902 -0.07066083401487452
 -0.001510311109601699 -0.008808075739654492 0.0017790973403768186 0.013761629409054461 0.9923231934376902 -0.07066083401487452 0.006200629990968079 0.029866388511665523
0.11254689453939999 0.006641246704543616 0.031768649288100796 0.9917541981328208 -0.07494052700256716 0.0019031095162204458 0.014580040939335674 -0.0016654345985583584 -0.009329366864637208
 0.9917541981328208 -0.07494052700256716 0.006630082232812902 0.031769628062020924 -0.001666174907502705 -0.009329321426973868 0.0019641638667270097 0.014571443555086196
 0.0019031095162204458 0.014580040939335674 -0.001666174907502705 -0.009329321426973868 0.006640797185324883 0.03177019572221096 0.9917542681559088 -0.07493902920886539
 -0.0016654345985583584 -0.009329366864637208 0.0019641638667270097 0.014571443555086196 0.9917542681559088 -0.07493902920886539 0.006630670307965536 0.03177107762685054
0.11879949979160001 0.007091802184624372 0.033687447551710915 0.9911602322450725 -0.07923154869605369 0.0020909864575031933 0.015390282945021589 -0.0018288120091819544 -0.00985015330631072
 0.9911602322450725 -0.07923154869605369 0.007079364230394327 0.03368853757914486 -0.001829634443876273 -0.009850098026711412 0.0021590412674138953 0.015380461312841183
 0.0020909864575031933 0.015390282945021589 -0.001829634443876273 -0.009850098026711412 0.007091300832138754 0.033689083459810726 0.9911603099494498 -0.07922996800534679
 -0.0018288120091819544 -0.00985015330631072 0.0021590412674138953 0.015380461312841183 0.9911603099494498 -0.07922996800534679 0.007080019263570211 0.03369006344612445
0.1250521050438 0.007562023356607105 0.03562024395085966 0.9905409460228889 -0.08353508915513416 0.002288357621700104 0.01619969201363002 -0.002000510710691701 -0.010370290513422418
 0.9905409460228889 -0.08353508915513416 0.007548242888310612 0.03562145301421696 -0.002001419351864136 -0.010370224300814128 0.002363795233094466 0.01618853318660443
 0.002288357621700104 0.01619969201363002 -0.002001419351864136 -0.010370224300814128 0.007561467327005875 0.0356219699316031 0.9905410318083133 -0.08353342559096524
 -0.002000510710691701 -0.010370290513422418 0.002363795233094466 0.01618853318660443 0.9905410318083133 -0.08353342559096524 0.007548968496496542 0.035623054516609604
0.131304710296 0.008052199426140928 0.03756674431813119 0.9898960545299429 -0.08785091444320403 0.0024952860324013513 0.01700812120625294 -0.0021805954540655027 -0.010889631487557786
 0.9898960545299429 -0.08785091444320403 0.008037007312429952 0.03756808049215772 -0.0021815943472966648 -0.010889553203219075 0.0025784888446622484 0.016995506821013178
 0.0024952860324013513 0.01700812120625294 -0.0021815943472966648 -0.010889553203219075 0.008051585874863985 0.0375685610045143 0.9898961487967151 -0.08784916802852288
 -0.0021805954540655027 -0.010889631487557786 0.0025784888446622484 0.016995506821013178 0.9898961487967151 -0.08784916802852288 0.008037807112175773 0.0375697569260685
0.1375573155481 0.0084508037871584 0.03927363893242789 0.9893371351541265 -0.09192563586387206 0.0026853410186859 0.0177902901446419 -0.0023425472142702326 -0.011382981516098631
 0.9893371351541265 -0.09192563586387206 0.008434126391192924 0.0392750817559147 -0.0023436424680560917 -0.011382891059300156 0.002776506414687544 0.017776237189292114
 0.0026853410186859 0.0177902901446419 -0.0023436424680560917 -0.011382891059300156 0.00845013065806983 0.03927554677371732 0.9893372382833061 -0.09192380666006977
 -0.0023425472142702326 -0.011382981516098631 0.002776506414687544 0.017776237189292114 0.9893372382833061 -0.09192380666006977 0.008435003249645294 0.039276832682189476
0.1438099208003 0.00886346865386471 0.04097148669293622 0.9887585224400076 -0.09598996052159273 0.002883048843826783 0.018569286563802547 -0.00251096802637782 -0.011873358190830886
 0.9887585224400076 -0.09598996052159273 0.008845236040266899 0.04097304242609443 -0.0025121640069797643 -0.011873254437499545 0.002982525873552295 0.018553686568257004
 0.002883048843826783 0.018569286563802547 -0.0025121640069797643 -0.011873254437499545 0.008862733244187154 0.04097348632812818 0.9887586348278629 -0.09598804856057952
 -0.00251096802637782 -0.011873358190830886 0.002982525873552295 0.018553686568257004 0.9887586348278629 -0.09598804856057952 0.008846193439832305 0.040974867155095705
0.1500625260525 0.009290048382066625 0.04266014347104143 0.9881603662231482 -0.1000437852121656 0.0030883400449279843 0.019345031292249563 -0.0026857891223218263 -0.01236068444085276
 0.9881603662231482 -0.1000437852121656 0.00927019049691556 0.04266181871034109 -0.002687090187066342 -0.012360566221591564 0.0031964756733404045 0.019327771819312303
 0.0030883400449279843 0.019345031292249563 -0.002687090187066342 -0.012360566221591564 0.009289247997567241 0.042662235564918334 0.9881604882656574 -0.10004179052724566
 -0.0026857891223218263 -0.01236068444085276 0.0031964756733404045 0.019327771819312303 0.9881604882656574 -0.10004179052724566 0.009271231911611156 0.04266371652546959
0.15631513130469998 0.009730396288195711 0.04433946946621943 0.9875428171075605 -0.1040870071430861 0.0033011443355571452 0.02011744654057643 -0.0028669408814068938 -0.012844884834223778
