! Created with skrf 1.8.0 (http://scikit-rf.org).
# GHz S RI R 50.0 
!freq ReS11 ImS11 ReS12 ImS12 ReS13 ImS13
! ReS14 ImS14
! ReS21 ImS21 ReS22 ImS22 ReS23 ImS23
! ReS24 ImS24
! ReS31 ImS31 ReS32 ImS32 ReS33 ImS33
! ReS34 ImS34
! ReS41 ImS41 ReS42 ImS42 ReS43 ImS43
! ReS44 ImS44
!
0.0 0.001137716082115 0.0 0.9988622839049 0.0 4.322644519337e-05 0.0 -4.32264453428e-05 5.2937127927578036e-21
 0.9988622839049 0.0 0.001137716082149 0.0 -4.322644534398e-05 5.2937127929023115e-21 4.322644519371e-05 0.0
 4.322644519337e-05 0.0 -4.322644534398e-05 5.2937127929023115e-21 0.001137716081534 0.0 0.9988622839043 0.0
 -4.32264453428e-05 5.2937127927578036e-21 4.322644519371e-05 0.0 0.9988622839043 0.0 0.001137716081511 0.0
0.005 0.0012232111049402753 0.000930836306707419 0.9987542660574406 -0.0023843716393144665 6.006454892236226e-05 0.00047949817740422913 -5.8464664503824444e-05 -0.00030055570115053844
 0.9987542660574406 -0.0023843716393144665 0.00122319636389471 0.0009308449259482074 -5.8464664532508625e-05 -0.0003005557487199847 6.01700918720845e-05 0.0004794583609672329
 6.006454892236226e-05 0.00047949817740422913 -5.8464664532508625e-05 -0.0003005557487199847 0.0012232105458152211 0.000930769427703327 0.9987542657402404 -0.0023844387001635894
 -5.8464664503824444e-05 -0.00030055570115053844 6.01700918720845e-05 0.0004794583609672329 0.9987542657402404 -0.0023844387001635894 0.0012231962933155897 0.0009307776881278079
0.006252605252188 0.0012453787327329983 0.001167245814311925 0.9987261268622194 -0.0029810877173380487 6.471298082543701e-05 0.0005996209171447158 -6.264888810419019e-05 -0.00037609880774443796
 0.9987261268622194 -0.0029810877173380487 0.0012453556890922915 0.0011672566923829244 -6.26488877622825e-05 -0.00037609886738623966 6.48778888550861e-05 0.0005995692302546131
 6.471298082543701e-05 0.0005996209171447158 -6.26488877622825e-05 -0.00037609886738623966 0.0012453779183656992 0.001167162227741184 0.9987261264261195 -0.002981171538058062
 -6.264888810419019e-05 -0.00037609880774443796 6.48778888550861e-05 0.0005995692302546131 0.9987261264261195 -0.002981171538058062 0.0012453556391554316 0.0011671726482599067
0.01250521050438 0.0013605879660460757 0.002359343528309289 0.9985791331034278 -0.0059631896847797015 9.051538408457534e-05 0.0011996787644641194 -8.575560002991023e-05 -0.0007541851734074416
 0.9985791331034278 -0.0059631896847797015 0.0013604959472221225 0.0023593663150567354 -8.575559403530014e-05 -0.0007541852950506278 9.117317932922165e-05 0.0011995551068089995
 9.051538408457534e-05 0.0011996787644641194 -8.575559403530014e-05 -0.0007541852950506278 0.0013605852870476472 0.0023591766785418682 0.9985791319390289 -0.005963357088755152
 -8.575560002991023e-05 -0.0007541851734074416 9.117317932922165e-05 0.0011995551068089995 0.9985791319390289 -0.005963357088755152 0.0013604963323210104 0.002359198455830581
0.01875781575657 0.0014835406610981838 0.0035688478066863926 0.9984211591593397 -0.008953617050872388 0.00012068546377458071 0.0018006126300570764 -0.00011260582197163097 -0.0011337417824787367
 0.9984211591593397 -0.008953617050872388 0.0014833338864030927 0.0035688835912311948 -0.00011260580206795026 -0.001133741970221172 0.00012216355982839718 0.0018003936269463214
 0.00012068546377458071 0.0018006126300570764 -0.00011260580206795026 -0.001133741970221172 0.0014835350553733077 0.0035685978942715585 0.9984211569639275 -0.00895386796959931
 -0.00011260582197163097 -0.0011337417824787367 0.00012216355982839718 0.0018003936269463214 0.9984211569639275 -0.00895386796959931 0.0014833351893986306 0.0035686320084657034
0.02501042100875 0.001614430599061741 0.004794117778891525 0.9982520575504985 -0.011953872148994014 0.00015527519349958836 0.002402483336501905 -0.0001432576307211912 -0.0015146271370406424
 0.9982520575504985 -0.011953872148994014 0.0016140633792205207 0.004794167688405608 -0.0001432575865537839 -0.0015146273965947964 0.00015790142154832894 0.0024021426572122073
 0.00015527519349958836 0.002402483336501905 -0.0001432575865537839 -0.0015146273965947964 0.0016144210031064944 0.004793785015924704 0.9982520540212078 -0.011954206548555108
 -0.0001432576307211912 -0.0015146271370406424 0.00015790142154832894 0.0024021426572122073 0.9982520540212078 -0.011954206548555108 0.0016140660925242991 0.00479383247087836
0.03126302626094 0.0017534431000262017 0.006034335619004028 0.9980716715184321 -0.014964629883194072 0.00019433705493865377 0.00300529702726542 -0.0001777678793977991 -0.0018967520410474424
 0.9980716715184321 -0.014964629883194072 0.0017528698132420256 0.006034400813830342 -0.0001777677988462788 -0.0018967523797437716 0.000198439982718175 0.003004805367389782
 0.00019433705493865377 0.00300529702726542 -0.0001777677988462788 -0.0018967523797437716 0.0017534284482944088 0.0060339202289233325 0.9980716663510436 -0.014965047764715796
 -0.0001777678793977991 -0.0018967520410474424 0.000198439982718175 0.003004805367389782 0.9980716663510436 -0.014965047764715796 0.0017528744383139981 0.006033982047248134
0.037515631513130004 0.0019007596201138786 0.007288988256200903 0.9978798396971622 -0.017986255977039414 0.00023792363354016048 0.003609038780884074 -0.0002161926357192075 -0.0022800459832675625
 0.9978798396971622 -0.017986255977039414 0.0018999346964848592 0.007289069926822225 -0.00021619250503943652 -0.0022800464100931 0.00024383272057192554 0.003608363829441775
 0.00023792363354016048 0.003609038780884074 -0.00021619250503943652 -0.0022800464100931 0.001900738847945919 0.00728849048882764 0.99787983258905 -0.017986757362051232
 -0.0002161926357192075 -0.0022800459832675625 0.00024383272057192554 0.003608363829441775 0.99787983258905 -0.017986757362051232 0.0018999417472746083 0.007288567708476005
0.043768236765320004 0.0020565595422602835 0.008557709640907284 0.9976763979766368 -0.0210189646627299 0.0002860874367084381 0.004213682828194848 -0.00025858734995156166 -0.0026644469105946357
 0.9976763979766368 -0.0210189646627299 0.0020554374519472386 0.008557809005691893 -0.00025858715391892997 -0.002664447436223901 0.0002941331200710775 0.0042127892300402175
 0.0002860874367084381 0.004213682828194848 -0.00025858715391892997 -0.002664447436223901 0.002056531581167428 0.008557129771766125 0.9976763886205359 -0.021019549594168616
 -0.00025858734995156166 -0.0026644469105946357 0.0002941331200710775 0.0042127892300402175 0.9976763886205359 -0.021019549594168616 0.002055447449988987 0.008557223443578336
0.050020842017509996 0.00222102101060088 0.009840215564995796 0.9974611804091599 -0.024062883814683373 0.0003388807894382391 0.004819196770278628 -0.0003050069282810471 -0.0030498969991699307
 0.9974611804091599 -0.024062883814683373 0.0022195562539576007 0.00984033386831543 -0.00030500665033362433 -0.0030498976360051073 0.0003493945327680893 0.0048180460864839765
 0.0003388807894382391 0.004819196770278628 -0.00030500665033362433 -0.0030498976360051073 0.002220984790835059 0.009839553908385706 0.9974611684951693 -0.024063552344143757
 -0.0003050069282810471 -0.0030498969991699307 0.0003493945327680893 0.0048180460864839765 0.9974611684951693 -0.024063552344143757 0.002219569730699512 0.009839665093939895
0.055454545454549996 0.0023711149988083777 0.010965763903535783 0.9972644565125017 -0.02671730411828761 0.00038856002147199593 0.005346084580329873 -0.0003486578879596753 -0.003385673584048363
 0.9972644565125017 -0.02671730411828761 0.0023693155201722407 0.010965899694548996 -0.0003486575243820278 -0.0033856743289584538 0.0004014885906290107 0.005344676838581853
 0.00038856002147199593 0.005346084580329873 -0.0003486575243820278 -0.0033856743289584538 0.0023710707327729624 0.010965031447729782 0.9972644421220269 -0.026718045354657476
 -0.0003486578879596753 -0.003385673584048363 0.0004014885906290107 0.005344676838581853 0.9972644421220269 -0.026718045354657476 0.0023693324598616323 0.010965158722258127
0.056273447269699996 0.0023943213747666713 0.011136271680526453 0.9972340197271581 -0.027118086884064658 0.0003963557632390872 0.005425543644961595 -0.00035550576464299583 -0.003436340576871519
 0.9972340197271581 -0.027118086884064658 0.002392468473330125 0.01113641019110301 -0.0003555053869385432 -0.003436341339068767 0.00040967008389360436 0.005424094312110539
 0.0003963557632390872 0.005425543644961595 -0.0003555053869385432 -0.003436341339068767 0.002394275826184579 0.011135528578227338 0.9972340049430828 -0.027118839083501274
 -0.00035550576464299583 -0.003436340576871519 0.00040967008389360436 0.005424094312110539 0.9972340049430828 -0.027118839083501274 0.002392485971083476 0.011135658347901934
0.06252605252188 0.002576637444167169 0.01244567590147543 0.9969947476717729 -0.03018461045049807 0.00045856412318478074 0.006032683057548283 -0.00041013774981455304 -0.0038237229819307232
 0.9969947476717729 -0.03018461045049807 0.0025743509319135715 0.012445835911058065 -0.0004101372532552223 -0.0038237238854445833 0.0004750126050546503 0.006030890346455534
 0.00045856412318478074 0.006032683057548283 -0.0004101372532552223 -0.0038237238854445833 0.002576581495657956 0.012444851724125069 0.9969947297017764 -0.030185446411156853
 -0.00041013774981455304 -0.0038237229819307232 0.0004750126050546503 0.006030890346455534 0.9969947297017764 -0.030185446411156853 0.0025743730036509906 0.012445001155454511
0.06877865777407 0.002768145634178172 0.013768247916885102 0.9967431952153208 -0.033262464662803984 0.0005255572832106937 0.006640571853539119 -0.00046895626913417786 -0.004211989880254087
 0.9967431952153208 -0.033262464662803984 0.002765380049768867 0.013768430738944785 -0.00046895563350974457 -0.004211990942866428 0.0005454745796393014 0.006638387827627184
 0.0005255572832106937 0.006640571853539119 -0.00046895563350974457 -0.004211990942866428 0.0027680782150241094 0.013767343072534492 0.9967431737402376 -0.03326338448697985
 -0.00046895626913417786 -0.004211989880254087 0.0005454745796393014 0.006638387827627184 0.9967431737402376 -0.03326338448697985 0.0027654072597641955 0.01376751324867793
0.07503126302626001 0.0029690220554100936 0.015103822546315846 0.9964791927278639 -0.036351639838031496 0.0005973862672202454 0.007249164543614129 -0.0005320141924489428 -0.004601086831283788
 0.9964791927278639 -0.036351639838031496 0.002965731934270994 0.01510402951501723 -0.0005320133964705342 -0.004601088072639938 0.0006211080965193488 0.007246538017086004
 0.0005973862672202454 0.007249164543614129 -0.0005320133964705342 -0.004601088072639938 0.0029689420950254996 0.01510283747672151 0.9964791674238914 -0.03635264364310468
 -0.0005320141924489428 -0.004601086831283788 0.0006211080965193488 0.007246538017086004 0.9964791674238914 -0.03635264364310468 0.002965764857985573 0.015103029485156209
0.08128386827845 0.0031794425628894076 0.016452245311954054 0.9962025701047702 -0.039452110844671616 0.0006741016730507266 0.007858413583403645 -0.000599363859314588 -0.004990958999993898
 0.9962025701047702 -0.039452110844671616 0.0031755824294646706 0.016452477781270018 -0.0005993628806561474 -0.0049909604416406884 0.000701964808637463 0.007855290079321032
 0.0006741016730507266 0.007858413583403645 -0.0005993628806561474 -0.0049909604416406884 0.0031793489915435363 0.016451180491798282 0.9962025406442131 -0.039453198764261545
 -0.000599363859314588 -0.004990958999993898 0.000701964808637463 0.007855290079321032 0.9962025406442131 -0.039453198764261545 0.0031756216543373256 0.016451395423083177
0.08753647353064001 0.003399582780878391 0.017813369378572134 0.9959131568727386 -0.04256384011905761 0.0007557536389983211 0.00846826956717872 -0.0006710570604670156 -0.005381550955967159
 0.9959131568727386 -0.04256384011905761 0.0033951071411290386 0.017813628721536075 -0.0006710558758705249 -0.005381552621379793 0.0007880958948706941 0.008464591275505777
 0.0007557536389983211 0.00846826956717872 -0.0006710558758705249 -0.005381552621379793 0.0033994745303406134 0.01781222531918375 0.9959131229226352 -0.04256501229950131
 -0.0006710570604670156 -0.005381550955967159 0.0007880958948706941 0.008464591275505777 0.9959131229226352 -0.04256501229950131 0.003395153266697041 0.017812464265997172
0.09378907878283 0.0036296181119018487 0.0191870533653273 0.9956107822794804 -0.04568677981075111 0.0008423918112628673 0.009078681364758052 -0.0007471450170728062 -0.005772806530291499
 0.9956107822794804 -0.04568677981075111 0.003624481445250329 0.019187340973490796 -0.0007471436023418363 -0.005772808444914212 0.0008795520239968406 0.00907438710045674
 0.0008423918112628673 0.009078681364758052 -0.0007471436023418363 -0.005772808444914212 0.00362949411559695 0.019185830610187426 0.9956107435015998 -0.04568803641591297
 -0.0007471450170728062 -0.005772806530291499 0.0008795520239968406 0.00907438710045674 0.9956107435015998 -0.04568803641591297 0.0036245350836988112 0.019186094666467833
0.100041684035 0.0038697237315650276 0.02057315973449673 0.9952952753725309 -0.0488208733522154 0.0009340653121673669 0.009689596220407978 -0.0008276783581172729 -0.006164668711607459
 0.9952952753725309 -0.0488208733522154 0.003863880483650859 0.02057347701753304 -0.00082767668823224 -0.006164670902879848 0.0009763833198795866 0.009684621381582463
 0.0009340653121673669 0.009689596220407978 -0.00082767668823224 -0.006164670902879848 0.0038695829253900756 0.020571858865182844 0.9952952314231083 -0.04882221455781884
 -0.0008276783581172729 -0.006164668711607459 0.0009763833198795866 0.009684621381582463 0.9952952314231083 -0.04882221455781884 0.0038639422600761993 0.020572149125481623
0.1059090909091 0.004104352040971227 0.021885051370818153 0.9949871095145236 -0.05177197500920749 0.0010247140159156281 0.0102632841893633 -0.0009073379441958533 -0.0065328899144783195
 0.9949871095145236 -0.05177197500920749 0.0040978042732658405 0.021885397798618547 -0.0009073360114179652 -0.006532892392122134 0.0010721820175065263 0.01025760886846437
 0.0010247140159156281 0.0102632841893633 -0.0009073360114179652 -0.006532892392122134 0.004104194495401524 0.02188367775907064 0.9949870603940626 -0.051773395777363826
 -0.0009073379441958533 -0.0065328899144783195 0.0010721820175065263 0.01025760886846437 0.9949870603940626 -0.051773395777363826 0.004097874266738087 0.02188399360459791
0.1062942892872 0.0041200745761634985 0.021971553587783663 0.9949664650713633 -0.051966056622131544 0.0010308227090421278 0.010300959829411841 -0.0009127070962715089 -0.006557079565608928
 0.9949664650713633 -0.051966056622131544 0.0041134791509519365 0.021971901973275212 -0.0009127051454226217 -0.006557082063001818 0.0010786393277183706 0.010295236355585446
 0.0010308227090421278 0.010300959829411841 -0.0009127051454226217 -0.006557082063001818 0.004119915898966683 0.02197017521987835 0.9949664156005019 -0.05196748262006525
 -0.0009127070962715089 -0.006557079565608928 0.0010786393277183706 0.010295236355585446 0.9949664156005019 -0.05196748262006525 0.004113549703766365 0.02197049277881207
0.11254689453939999 0.00438084532301438 0.023382101733222575 0.9946241802338617 -0.05512225883925535 0.001132711983361481 0.010912716393989174 -0.0010022806025677766 -0.0069499801764127764
 0.9946241802338617 -0.05512225883925535 0.004373452074880405 0.02338248266662227 -0.0010022783442128049 -0.0069499830114585805 0.0011863689809005968 0.01090617272451674
 0.001132711983361481 0.010912716393989174 -0.0010022783442128049 -0.0069499830114585805 0.004380667717133135 0.023380646520338 0.9946241248852107 -0.05512376983384083
 -0.0010022806025677766 -0.0069499801764127764 0.0011863689809005968 0.01090617272451674 0.9946241248852107 -0.05512376983384083 0.00437353205635806 0.02338099247227907
0.11879949979160001 0.0046522103654798655 0.024804671965329816 0.9942682497188987 -0.058289403244418725 0.0012397804999633082 0.011524808668110346 -0.00109644758016503 -0.007343310600270878
 0.9942682497188987 -0.058289403244418725 0.004643973591687732 0.024805086910095937 -0.0010964449870940445 -0.007343313806592402 0.001299620568196905 0.011517369700781595
 0.0012397804999633082 0.011524808668110346 -0.0010964449870940445 -0.007343313806592402 0.004652012777269884 0.02480314059513972 0.9942681881290292 -0.058290999456508945
 -0.00109644758016503 -0.007343310600270878 0.001299620568196905 0.011517369700781595 0.9942681881290292 -0.058290999456508945 0.004644063668123182 0.024803516034130245
0.1250521050438 0.004934343783986669 0.026239132486781787 0.9938985024462154 -0.061467407642343055 0.0013520749763194645 0.012137177993792915 -0.0011952560372895716 -0.007737009829100279
 0.9938985024462154 -0.061467407642343055 0.004925217716320095 0.02623958292472847 -0.0011952530816631193 -0.007737013442442944 0.0014184417012302205 0.012128765043622456
 0.0013520749763194645 0.012137177993792915 -0.0011952530816631193 -0.007737013442442944 0.004934125164283456 0.026237525684618117 0.99389843424449 -0.06146908930597186
 -0.0011952560372895716 -0.007737009829100279 0.0014184417012302205 0.012128765043622456 0.99389843424449 -0.06146908930597186 0.0049253185685557335 0.02623793170435539
0.131304710296 0.0052274193132509274 0.027685351448782074 0.993514767454895 -0.06465618482619505 0.0014696414518698443 0.012749764330102721 -0.0012987532594018357 -0.008131015762566
 0.993514767454895 -0.06465618482619505 0.005217358110402103 0.027685838880603962 -0.0012987499128369827 -0.008131019820825446 0.0015428792820487997 0.012740295088360306
 0.0014696414518698443 0.012749764330102721 -0.0012987499128369827 -0.008131019820825446 0.005227178618309725 0.027683669975048536 0.9935146922628907 -0.06465795219134267
 -0.0012987532594018357 -0.008131015762566 0.0015428792820487997 0.012740295088360306 0.9935146922628907 -0.06465795219134267 0.0052174704343322794 0.027684107669169157
0.1375573155481 0.00545611551145806 0.02895372180094173 0.9931923874096967 -0.06766611629058719 0.0015749590421660657 0.01334260579537777 -0.001389328317751919 -0.008505428803386865
 0.9931923874096967 -0.06766611629058719 0.005445069730434857 0.028954238730358847 -0.0013893246829502295 -0.008505433315075429 0.001655228608426546 0.013332109988983638
 0.0015749590421660657 0.01334260579537777 -0.0013893246829502295 -0.008505433315075429 0.005455852320079069 0.02895196606875357 0.9931923049133213 -0.06766796950818038
 -0.001389328317751919 -0.008505428803386865 0.001655228608426546 0.013332109988983638 0.9931923049133213 -0.06766796950818038 0.005445193487075018 0.028952428086872456
0.1438099208003 0.005692544356376055 0.030216724416986904 0.992859237953061 -0.07066975783984644 0.0016845056277633244 0.013933897179525548 -0.0014835349495592191 -0.008878387868526023
 0.992859237953061 -0.07066975783984644 0.00568046748137527 0.03021727187944777 -0.001483531020879758 -0.008878392868534427 0.0017721192810719877 0.013922301261037192
 0.0016845056277633244 0.013933897179525548 -0.001483531020879758 -0.008878392868534427 0.005692257744941252 0.030214895190558512 0.992859147775418 -0.07067169715651456
 -0.0014835349495592191 -0.008878387868526023 0.0017721192810719877 0.013922301261037192 0.992859147775418 -0.07067169715651456 0.005680603255155657 0.030215382208261168
0.1500625260525 0.005936638358214843 0.03147429309684855 0.9925153891549127 -0.07366707508878938 0.0017982517998241972 0.014523606363912908 -0.0015813438751659766 -0.009249860201452152
 0.9925153891549127 -0.07366707508878938 0.005923483776729394 0.03147487220482917 -0.001581339647983519 -0.009249865726012706 0.001893520562280974 0.014510834152659996
 0.0017982517998241972 0.014523606363912908 -0.001581339647983519 -0.009249865726012706 0.005936327415780238 0.031472391170347024 0.9925152909126819 -0.07366910076160779
 -0.0015813438751659766 -0.009249860201452152 0.001893520562280974 0.014510834152659996 0.9925152909126819 -0.07366910076160779 0.005923632157998738 0.0314729039272357
0.15631513130469998 0.006188329724553513 0.03272636389653332 0.9921609112477315 -0.07665803305146927 0.0019161679066525682 0.015111701640181673 -0.0016827255520032662 -0.009619813648883167
