! Created with skrf 1.8.0 (http://scikit-rf.org).
# GHz S RI R 50.0 
!freq ReS11 ImS11 ReS12 ImS12 ReS13 ImS13
! ReS14 ImS14
! ReS21 ImS21 ReS22 ImS22 ReS23 ImS23
! ReS24 ImS24
! ReS31 ImS31 ReS32 ImS32 ReS33 ImS33
! ReS34 ImS34
! ReS41 ImS41 ReS42 ImS42 ReS43 ImS43
! ReS44 ImS44
!
0.0 0.00150833299572 0.0 0.9984916670043 0.0 5.803897875621e-05 0.0 -5.803897874572e-05 7.107724954672726e-21
 0.9984916670043 0.0 0.001508332995732 0.0 -5.803897874525e-05 7.107724954615168e-21 5.803897875701e-05 0.0
 5.803897875621e-05 0.0 -5.803897874525e-05 7.107724954615168e-21 0.001508332993567 0.0 0.9984916670021 0.0
 -5.803897874572e-05 7.107724954672726e-21 5.803897875701e-05 0.0 0.9984916670021 0.0 0.001508332993603 0.0
0.005 0.0016227314802718096 0.0012355123233042085 0.9983469753107136 -0.003159621654192394 8.096526351784914e-05 0.0006303017911394776 -7.875058481605274e-05 -0.00039724213591693506
 0.9983469753107136 -0.003159621654192394 0.0016227210217219408 0.0012355184696742404 -7.875224812282339e-05 -0.000397243449470282 8.10133498692036e-05 0.0006302833284958943
 8.096526351784914e-05 0.0006303017911394776 -7.875224812282339e-05 -0.000397243449470282 0.001622730795077402 0.0012355800263607979 0.9983469756706335 -0.0031595545985042264
 -7.875058481605274e-05 -0.00039724213591693506 8.10133498692036e-05 0.0006302833284958943 0.9983469756706335 -0.0031595545985042264 0.0016227224217882598 0.001235584873872535
0.006252605252188 0.001652706376649327 0.0015492477185245998 0.9983088334229009 -0.003950303860903832 8.74806424491665e-05 0.0007881898477065251 -8.458054917661162e-05 -0.0004970658658314005
 0.9983088334229009 -0.003950303860903832 0.0016526900281993268 0.0015492555619525657 -8.458313715457174e-05 -0.0004970674862542198 8.755577122270343e-05 0.000788165902857792
 8.74806424491665e-05 0.0007881898477065251 -8.458313715457174e-05 -0.0004970674862542198 0.0016527052258087276 0.0015493323516610367 0.9983088339062778 -0.0039502200398902785
 -8.458054917661162e-05 -0.0004970658658314005 8.755577122270343e-05 0.000788165902857792 0.9983088339062778 -0.0039502200398902785 0.0016526921377602762 0.0015493385615584848
0.01250521050438 0.0018103351985149705 0.003130936575886045 0.998106982211368 -0.0079014330086039 0.00012466342110987064 0.0015767879827565238 -0.00011756402839965069 -0.0009965517608524431
 0.998106982211368 -0.0079014330086039 0.0018102699165582952 0.0031309539024297517 -0.00011757422410978329 -0.0009965547664537765 0.00012496296331130185 0.0015767307381184762
 0.00012466342110987064 0.0015767879827565238 -0.00011757422410978329 -0.0009965547664537765 0.0018103300258775433 0.0031311056262010367 0.99810698357247 -0.007901265607798398
 -0.00011756402839965069 -0.0009965517608524431 0.00012496296331130185 0.0015767307381184762 0.99810698357247 -0.007901265607798398 0.0018102777758760313 0.003131119566224019
0.01875781575657 0.0019815577014610144 0.004735145116233659 0.9978858665212303 -0.01186300815338717 0.00016967379716092328 0.0023663167835823915 -0.000157089503271518 -0.0014977551244990932
 0.9978858665212303 -0.01186300815338717 0.001981411004405413 0.00473517372280646 -0.0001571122356943149 -0.0014977592364991115 0.00017034655889408136 0.0023662150496895715
 0.00016967379716092328 0.0023663167835823915 -0.0001571122356943149 -0.0014977592364991115 0.001981545637352599 0.004735398525978184 0.9978858691562427 -0.011862757250544528
 -0.000157089503271518 -0.0014977551244990932 0.00017034655889408136 0.0023662150496895715 0.9978858691562427 -0.011862757250544528 0.0019814282484440678 0.0047354218147396395
0.02501042100875 0.002166702473352597 0.006359637508464703 0.9976452298944332 -0.015836954436606716 0.000222599007162049 0.0031568115150847954 -0.00020325399140474394 -0.0020004551161774816
 0.9976452298944332 -0.015836954436606716 0.0021664419430821613 0.006359679340760901 -0.00020329412927395623 -0.0020004600071731635 0.00022379377424592311 0.003156652342280982
 0.000222599007162049 0.0031568115150847954 -0.00020329412927395623 -0.0020004600071731635 0.0021666806428630703 0.00635997525770461 0.9976452341997794 -0.015836620064896043
 -0.00020325399140474394 -0.0020004551161774816 0.00022379377424592311 0.003156652342280982 0.9976452341997794 -0.015836620064896043 0.0021664722037889653 0.006360009606417422
0.03126302626094 0.002366084520551239 0.008003265859709409 0.9973848025722057 -0.019824099080863727 0.0002835266363046933 0.003948236043459226 -0.00025615187186834454 -0.002504496953169708
 0.9973848025722057 -0.019824099080863727 0.002365677787540691 0.008003323011555943 -0.00025621423396387713 -0.0025045022465532206 0.00028539231532840177 0.0039480047147269865
 0.0002835266363046933 0.003948236043459226 -0.00025621423396387713 -0.0025045022465532206 0.002366050046325905 0.008003687940949198 0.9973848089492926 -0.019823681254226344
 -0.00025615187186834454 -0.002504496953169708 0.00028539231532840177 0.0039480047147269865 0.9973848089492926 -0.019823681254226344 0.0023657246990769747 0.008003735152390406
0.037515631513130004 0.0025800121012818384 0.009665283757275794 0.9971043085388998 -0.02382485778625842 0.0003525438380991759 0.004740526037924055 -0.00031587556584097924 -0.003009748714309811
 0.9971043085388998 -0.02382485778625842 0.002579426835258145 0.009665358470788418 -0.0003159649262760748 -0.0030097539840872488 0.00035522951864336543 0.004740206053276075
 0.0003525438380991759 0.004740526037924055 -0.0003159649262760748 -0.0030097539840872488 0.0025799620945032562 0.00966579018200808 0.9971043173866079 -0.023824356492900718
 -0.00031587556584097924 -0.003009748714309811 0.00035522951864336543 0.004740206053276075 0.9971043173866079 -0.023824356492900718 0.0025794940260022528 0.00966585215021212
0.043768236765320004 0.0028087893596191993 0.011345137376531188 0.9968034683648805 -0.027839443552166852 0.00042973697371892126 0.00553360210933389 -0.0003825157720993756 -0.0035160882022557214
 0.9968034683648805 -0.027839443552166852 0.0028079932630617017 0.011345232042596192 -0.000382636863447027 -0.0035160929730231644 0.0004333919572221779 0.005533175167650607
 0.00042973697371892126 0.00553360210933389 -0.000382636863447027 -0.0035160929730231644 0.002808720926078823 0.011345728165974771 0.996803480086697 -0.027838858763972484
 -0.0003825157720993756 -0.0035160882022557214 0.0004333919572221779 0.005533175167650607 0.996803480086697 -0.027838858763972484 0.002808084362288281 0.011345806875872918
0.050020842017509996 0.0030527175541991084 0.013042379139926364 0.9964820006468101 -0.031867952945988154 0.0005151913911264338 0.00632737522317897 -0.0004561615527318187 -0.004023397531937606
 0.9964820006468101 -0.031867952945988154 0.0030516783563989958 0.013042496298999904 -0.0004563190680481365 -0.004023401278886112 0.0005199652018225135 0.006326821203022257
 0.0005151913911264338 0.00632737522317897 -0.0004563190680481365 -0.004023401278886112 0.0030526277898098816 0.01304305432709927 0.9964820156475053 -0.03186728461678335
 -0.0004561615527318187 -0.004023397531937606 0.0005199652018225135 0.006326821203022257 0.9964820156475053 -0.03186728461678335 0.0030517969901818916 0.013043151854448341
0.055454545454549996 0.003277235231255719 0.01453115582960141 0.9961856639593342 -0.0353801761765125 0.0005962284449025517 0.007017679779737656 -0.0005259193068116028 -0.00446496204731523
 0.9961856639593342 -0.0353801761765125 0.003275958581006226 0.014531294715719185 -0.0005261122573460106 -0.004464964439977218 0.0006020961555536298 0.0070169975549596465
 0.0005962284449025517 0.007017679779737656 -0.0005261122573460106 -0.004464964439977218 0.003277124565306593 0.014531904390314153 0.9961856821414916 -0.035379435202833355
 -0.0005259193068116028 -0.00446496204731523 0.0006020961555536298 0.0070169975549596465 0.9961856821414916 -0.035379435202833355 0.003276104087109124 0.014532020026920485
0.056273447269699996 0.0033120956880798606 0.014756625351786132 0.9961396228520272 -0.03591040839722952 0.0006089912635984202 0.007121749375328788 -0.000536900353856599 -0.004531560458463891
 0.9961396228520272 -0.03591040839722952 0.003310781140806267 0.01475676769472219 -0.0005370989480545172 -0.0045315626074115154 0.0006150336486635805 0.007121046315332399
 0.0006089912635984202 0.007121749375328788 -0.0005370989480545172 -0.0045315626074115154 0.0033119816811226087 0.014757384973839062 0.9961396415407129 -0.03590965647059975
 -0.000536900353856599 -0.004531560458463891 0.0006150336486635805 0.007121046315332399 0.9961396415407129 -0.03590965647059975 0.0033109309341604843 0.014757503485243744
0.06252605252188 0.0035872208498859528 0.01648753288980956 0.9957760518777914 -0.03996678143704544 0.0007112194641117989 0.007916623045592985 -0.0006248179866809015 -0.005040460930205427
 0.9957760518777914 -0.03996678143704544 0.003585598723272904 0.016487703258891092 -0.0006250622774989149 -0.005040460857628539 0.0007186803867961711 0.00791574712473525
 0.0007112194641117989 0.007916623045592985 -0.0006250622774989149 -0.005040460857628539 0.003587079678758954 0.016488376993169657 0.9957760746662205 -0.03996594584146801
 -0.0006248179866809015 -0.005040460930205427 0.0007186803867961711 0.00791574712473525 0.9957760746662205 -0.03996594584146801 0.0035857832975905797 0.01648851874623883
0.06877865777407 0.003878388393335807 0.01823478531806064 0.9953910044520257 -0.044037006519543793 0.0008219574535860984 0.00871189007522583 -0.000719998591974368 -0.005549982221404132
 0.9953910044520257 -0.044037006519543793 0.003876426471350965 0.018234986708202887 -0.0007202931605681145 -0.0055499792545010114 0.0008309870813565816 0.008710815593118605
 0.0008219574535860984 0.00871189007522583 -0.0007202931605681145 -0.0055499792545010114 0.00387821712749181 0.01823571395489242 0.9953910317570009 -0.0440360871722663
 -0.000719998591974368 -0.005549982221404132 0.0008309870813565816 0.008710815593118605 0.9953910317570009 -0.0440360871722663 0.003876649445784305 0.01823588129849273
0.07503126302626001 0.004185892022317553 0.01999808408250677 0.9949841974440745 -0.04812098976437206 0.000941285180048932 0.009507440229277726 -0.000822524591353124 -0.006060006383693656
 0.9949841974440745 -0.04812098976437206 0.004183558099707082 0.019998319642468513 -0.0008228739828381122 -0.006059999800419967 0.0009520338686773948 0.00950613958661755
 0.000941285180048932 0.009507440229277726 -0.0008228739828381122 -0.006059999800419967 0.004185687721366827 0.01999909731640986 0.9949842296867245 -0.04811998656599597
 -0.000822524591353124 -0.006060006383693656 0.0009520338686773948 0.00950613958661755 0.9949842296867245 -0.04811998656599597 0.004183823089095502 0.019999292691141892
0.08128386827845 0.004510023818481069 0.021777142649814243 0.9945553481202282 -0.052218614760179666 0.0010692809849645784 0.010303159561672656 -0.0009324766292483155 -0.006570413898905709
 0.9945553481202282 -0.052218614760179666 0.004507285696867797 0.021777415683755644 -0.0009328853529241281 -0.0065704029280465445 0.0010818992600824643 0.010301603240872936
 0.0010692809849645784 0.010303159561672656 -0.0009328853529241281 -0.0065704029280465445 0.004509783531724729 0.021778240550174074 0.9945553857267927 -0.05221752760072588
 -0.0009324766292483155 -0.006570413898905709 0.0010818992600824643 0.010301603240872936 0.9945553857267927 -0.05221752760072588 0.004507596311597667 0.021778466488828065
0.08753647353064001 0.00485107422805476 0.023571682454457173 0.9941041743631094 -0.05632974656428826 0.0012060215120253172 0.011098930687142832 -0.0010499335109645555 -0.007081083429151464
 0.9941041743631094 -0.05632974656428826 0.004847899712154225 0.023571996423463606 -0.0010504060405155174 -0.007081067250381371 0.001220660047880965 0.01109708723326912
 0.0012060215120253172 0.011098930687142832 -0.0010504060405155174 -0.007081067250381371 0.004850794994603719 0.023572865101043894 0.9941042177655889 -0.056328575318860534
 -0.0010499335109645555 -0.007081083429151464 0.001220660047880965 0.01109708723326912 0.9941042177655889 -0.056328575318860534 0.0048482595577164405 0.023573124229351476
0.09378907878283 0.005209332021962315 0.02538143000804535 0.9936303948672568 -0.0604542345449408 0.00135158161937696 0.011894632967051868 -0.001174972135378092 -0.0075918916574408135
 0.9936303948672568 -0.0604542345449408 0.005205688916689605 0.025381788531851884 -0.0011755129089767566 -0.00759186940139354 0.0013683912161177136 0.01189246896904404
 0.00135158161937696 0.011894632967051868 -0.0011755129089767566 -0.00759186940139354 0.005209010870050992 0.025382697487306982 0.9936304445036334 -0.060452979077904555
 -0.001174972135378092 -0.0075918916574408135 0.0013683912161177136 0.01189246896904404 0.9936304445036334 -0.060452979077904555 0.005206101592412249 0.025382992524762785
0.100041684035 0.005585084236610294 0.02720611477176144 0.9931337293181857 -0.06459191446539418 0.0015060342932175618 0.012690142662921481 -0.0013076674254663956 -0.00810271316494745
 0.9931337293181857 -0.06459191446539418 0.0055809403434019895 0.02720652163065955 -0.001308280845766191 -0.008102683913292687 0.001525165851853927 0.012687622735163488
 0.0015060342932175618 0.012690142662921481 -0.001308280845766191 -0.008102683913292687 0.005584718183485637 0.027207467180539634 0.9931337856329472 -0.06459057462707637
 -0.0013076674254663956 -0.00810271316494745 0.001525165851853927 0.012687622735163488 0.9931337856329472 -0.06459057462707637 0.0055814094419737335 0.027207800941339743
0.1059090909091 0.005953852923226579 0.028931733326678203 0.9926465980809154 -0.06848652925260357 0.001659122735209574 0.01343635613579856 -0.0014392164776823272 -0.008581963416560666
 0.9926465980809154 -0.06848652925260357 0.0059492098034616666 0.028932189125850483 -0.001439902041712221 -0.008581926721509344 0.0016805705186577005 0.013433468248119421
 0.001659122735209574 0.01343635613579856 -0.001439902041712221 -0.008581926721509344 0.0059534420122431585 0.02893316552780234 0.9926466610730688 -0.06848511009481986
 -0.0014392164776823272 -0.008581963416560666 0.0016805705186577005 0.013433468248119421 0.9926466610730688 -0.06848511009481986 0.005949735109679579 0.028933538271262483
0.1062942892872 0.0059786160998773815 0.02904546756884298 0.9926138985606057 -0.0687426100333065 0.0016694505627516223 0.013485333046319383 -0.001448092255716848 -0.00861342035664345
 0.9926138985606057 -0.0687426100333065 0.005973939213396878 0.02904592670569162 -0.001448782689832138 -0.008613383142165133 0.001691055059187006 0.013482419810592573
 0.0016694505627516223 0.013485333046319383 -0.001448782689832138 -0.008613383142165133 0.005978202151419241 0.029046905011936047 0.9926139620051134 -0.06874118566282157
 -0.001448092255716848 -0.00861342035664345 0.001691055059187006 0.013482419810592573 0.9926139620051134 -0.06874118566282157 0.00597446831987264 0.029047280406200627
0.11254689453939999 0.006390210946012545 0.030899219359760137 0.9920706247579527 -0.0729061340927781 0.001841899415732412 0.014280074497853778 -0.001596317378389355 -0.009123883402399155
 0.9920706247579527 -0.0729061340927781 0.006384968850965877 0.030899734882201244 -0.00159708915776481 -0.009123837209088055 0.0018661278730873366 0.014276728565747828
 0.001841899415732412 0.014280074497853778 -0.00159708915776481 -0.009123837209088055 0.006389746096598358 0.030900741953091053 0.9920706957915577 -0.07290462501538028
 -0.001596317378389355 -0.009123883402399155 0.0018661278730873366 0.014276728565747828 0.9920706957915577 -0.07290462501538028 0.006385561542237852 0.03090116198804131
0.11879949979160001 0.006820150122204022 0.0327671002996389 0.9915036315470614 -0.07708228953972135 0.0020234477146522946 0.015074234586255434 -0.0017524113479761795 -0.009633970202977604
 0.9915036315470614 -0.07708228953972135 0.006814310589910925 0.03276767648240469 -0.0017532687683052507 -0.009633913966119042 0.002050451174507873 0.015070414541955363
 0.0020234477146522946 0.015074234586255434 -0.0017532687683052507 -0.009633913966119042 0.006819631354398388 0.03276870816820069 0.9915037106369726 -0.07708069556933965
 -0.0017524113479761795 -0.009633970202977604 0.002050451174507873 0.015070414541955363 0.9915037106369726 -0.07708069556933965 0.0068149704334467594 0.032769175949719065
0.1250521050438 0.007268712887819915 0.03464883898641511 0.9909126441880982 -0.08127087005238295 0.0022141601133874693 0.015867678139345684 -0.0019164404445822364 -0.010143546368882992
 0.9909126441880982 -0.08127087005238295 0.007262243673267512 0.034649480273896346 -0.0019173877656081565 -0.010143478975159078 0.0022440896060540827 0.015863340522946662
 0.0022141601133874693 0.015867678139345684 -0.0019173877656081565 -0.010143478975159078 0.007268137172120817 0.03465053226556166 0.9909127318100724 -0.0812691909908604
 -0.0019164404445822364 -0.010143546368882992 0.0022440896060540827 0.015863340522946662 0.9909127318100724 -0.0812691909908604 0.007262974226497585 0.03465105099979402
0.131304710296 0.0077361763085902506 0.03654416186613805 0.9902973897116005 -0.0854716606706092 0.0024140989740120715 0.016660267308179978 -0.002088468596682373 -0.010652475211193356
 0.9902973897116005 -0.0854716606706092 0.007729045146780569 0.036544872875026405 -0.002089510041980419 -0.010652395498803766 0.0024471054874910937 0.01665536659944992
 0.0024140989740120715 0.016660267308179978 -0.002089510041980419 -0.010652395498803766 0.007735540602909435 0.03654594070275717 0.9902974863502415 -0.08546989630702613
 -0.002088468596682373 -0.010652475211193356 0.0024471054874910937 0.01665536659944992 0.9902974863502415 -0.08546989630702613 0.00772984995607323 0.03654651369788597
0.1375573155481 0.008114943848014403 0.03820611566924301 0.9897655100632325 -0.08943764372104203 0.002597640572193252 0.017427205723538952 -0.002242840991158062 -0.011136003480015599
 0.9897655100632325 -0.08943764372104203 0.008107117094367169 0.03820688575941771 -0.002243982917610956 -0.011135911372005794 0.002633805229059131 0.017421749289073866
 0.002597640572193252 0.017427205723538952 -0.002243982917610956 -0.011135911372005794 0.00811424591494246 0.038207980093755055 0.9897656161321934 -0.08943579394459449
 -0.002242840991158062 -0.011136003480015599 0.002633805229059131 0.017421749289073866 0.9897656161321934 -0.08943579394459449 0.008107999028805534 0.03820859579873857
0.1438099208003 0.008507027844346314 0.039859459508048915 0.9892149637041442 -0.09339371224815572 0.0027885861016189407 0.018191133369730276 -0.0024033873694525743 -0.01161673938212716
 0.9892149637041442 -0.09339371224815572 0.008498473019526352 0.03986029225834894 -0.002404634332695749 -0.01161663373476479 0.002828047198837528 0.018185079540376757
 0.0027885861016189407 0.018191133369730276 -0.002404634332695749 -0.01161663373476479 0.008506264769406375 0.03986140964517553 0.9892150796863531 -0.09339177685668355
 -0.0024033873694525743 -0.01161673938212716 0.002828047198837528 0.018185079540376757 0.9892150796863531 -0.09339177685668355 0.00849943548827666 0.03986207033383158
0.1500625260525 0.008912292548223975 0.041504059119500426 0.9886458903702705 -0.09733977198790482 0.0029868706065916927 0.018951975667800856 -0.0025700439653320957 -0.01209461116800057
 0.9886458903702705 -0.09733977198790482 0.008902977149662136 0.041504958285439895 -0.0025714005119607986 -0.012094490791510442 0.00302976559073204 0.018945281260836784
 0.0029868706065916927 0.018951975667800856 -0.0025714005119607986 -0.012094490791510442 0.008911461414365125 0.04150609510166347 0.988646016756436 -0.09733775076940528
 -0.0025700439653320957 -0.01209461116800057 0.00302976559073204 0.018945281260836784 0.988646016756436 -0.09733775076940528 0.008904023543863897 0.041506803172420136
0.15631513130469998 0.009330601274098805 0.0431397843019595 0.988058430478507 -0.10127572892665503 0.0031924283803694245 0.019709659293158457 -0.0027427462399619612 -0.012569548588346155
 0.988058430478507 -0.10127572892665503 0.009320492775284357 0.04314075381753983 -0.0027442169074612275 -0.012569412247186624 0.003238893833450622 0.019702279629199914
