! Created with skrf 1.8.0 (http://scikit-rf.org).
# GHz S RI R 50.0 
!freq ReS11 ImS11 ReS12 ImS12 ReS13 ImS13
! ReS14 ImS14
! ReS21 ImS21 ReS22 ImS22 ReS23 ImS23
! ReS24 ImS24
! ReS31 ImS31 ReS32 ImS32 ReS33 ImS33
! ReS34 ImS34
! ReS41 ImS41 ReS42 ImS42 ReS43 ImS43
! ReS44 ImS44
!
0.0 0.001233519617378 0.0 0.9987664803826 0.0 4.704094271394e-05 0.0 -4.704094146947e-05 5.760853839946442e-21
 0.9987664803826 0.0 0.00123351961739 0.0 -4.704094146992e-05 5.760853840001552e-21 4.704094271234e-05 0.0
 4.704094271394e-05 0.0 -4.704094146992e-05 5.760853840001552e-21 0.001233519601744 0.0 0.9987664803669 0.0
 -4.704094146947e-05 5.760853839946442e-21 4.704094271234e-05 0.0 0.9987664803669 0.0 0.001233519601746 0.0
0.005 0.0013264223981826002 0.0010099059988753895 0.9986490551345155 -0.0025848346178406756 6.546399507663923e-05 0.0005165402621934053 -6.363585102521769e-05 -0.0003246666274126871
 0.9986490551345155 -0.0025848346178406756 0.0013264379341022703 0.0010098969107688743 -6.363279956912624e-05 -0.00032466427879355764 6.537712721561347e-05 0.0005165732477030138
 6.546399507663923e-05 0.0005165402621934053 -6.363279956912624e-05 -0.00032466427879355764 0.0013264243128096043 0.0010099721133590676 0.9986490554657002 -0.0025847675528849427
 -6.363585102521769e-05 -0.0003246666274126871 6.537712721561347e-05 0.0005165732477030138 0.9986490554657002 -0.0025847675528849427 0.0013264366784291922 0.0010099649237923305
0.006252605252188 0.001350572317399212 0.0012663841400773947 0.9986183705937525 -0.00323170850458125 7.061489736670267e-05 0.0006459393820522646 -6.822285765987693e-05 -0.00040626493000272537
 0.9986183705937525 -0.00323170850458125 0.0013505966032284753 0.0012663726188710857 -6.821810929777088e-05 -0.0004062620328909573 7.047917169848097e-05 0.0006459821810528011
 7.061489736670267e-05 0.0006459393820522646 -6.821810929777088e-05 -0.0004062620328909573 0.0013505752349891455 0.0012664667673534442 0.9986183710357037 -0.003231624685435838
 -6.822285765987693e-05 -0.00040626493000272537 7.047917169848097e-05 0.0006459821810528011 0.9986183710357037 -0.003231624685435838 0.0013505945643158207 0.0012664576243924498
0.01250521050438 0.0014764472494736556 0.002559604027764724 0.9984575310786526 -0.00646440680631998 9.955958733789227e-05 0.0012923065671675378 -9.372085724281392e-05 -0.0008146314146560569
 0.9984575310786526 -0.00646440680631998 0.00147654422633227 0.002559579356815694 -9.37021430916434e-05 -0.0008146260377779206 9.901828227904841e-05 0.00129240884478717
 9.955958733789227e-05 0.0012923065671675378 -9.37021430916434e-05 -0.0008146260377779206 0.0014764583515338727 0.0025597689813333917 0.9984575322927185 -0.00646423941193042
 -9.372085724281392e-05 -0.0008146314146560569 9.901828227904841e-05 0.00129240884478717 0.9984575322927185 -0.00646423941193042 0.001476535528760476 0.00255974913947577
0.01875781575657 0.0016113745567077728 0.003871578993486421 0.9982837940870215 -0.009706006831537722 0.0001339343711235532 0.0019395582826902964 -0.00012360357401844588 -0.001224540605761474
 0.9982837940870215 -0.009706006831537722 0.0016115924729569425 0.0038715394062584815 -0.00012356183763725226 -0.00122453323176744 0.0001327182370321126 0.0019397394633130542
 0.0001339343711235532 0.0019395582826902964 -0.00012356183763725226 -0.00122453323176744 0.0016113990830024269 0.003871826083057603 0.998283796389527 -0.009705755939792568
 -0.00012360357401844588 -0.001224540605761474 0.0001327182370321126 0.0019397394633130542 0.998283796389527 -0.009705755939792568 0.0016115724927037655 0.0038717939170369487
0.02501042100875 0.0017555798492702595 0.005200518845197935 0.9980969865609647 -0.012958124495246387 0.0001737997759615648 0.0025877480454991417 -0.00015793812826605543 -0.0016358339196356833
 0.9980969865609647 -0.012958124495246387 0.001755966857924612 0.005200462455028758 -0.0001578644189780487 -0.0016358251058054601 0.00017163934778213988 0.00258803017825966
 0.0001737997759615648 0.0025877480454991417 -0.0001578644189780487 -0.0016358251058054601 0.0017556230421868235 0.00520084785432244 0.9980969902778113 -0.012957790157128586
 -0.00015793812826605543 -0.0016358339196356833 0.00017163934778213988 0.00258803017825966 0.9980969902778113 -0.012957790157128586 0.001755930982864637 0.005200801682616821
0.03126302626094 0.0019092790923907073 0.006545524991574365 0.9978969251317376 -0.01622147855533246 0.00021921710711948652 0.0032368708680620114 -0.00019679015422406857 -0.002048408265599325
 0.9978969251317376 -0.01622147855533246 0.0019098832750463813 0.006545449794939216 -0.00019667560844700632 -0.0020483986450901396 0.00021584244222652403 0.003237278640418364
 0.00021921710711948652 0.0032368708680620114 -0.00019667560844700632 -0.0020483986450901396 0.0019093461864243234 0.006545935675797161 0.997896930586619 -0.01622106079664657
 -0.00019679015422406857 -0.002048408265599325 0.00021584244222652403 0.003237278640418364 0.997896930586619 -0.01622106079664657 0.001909826890000131 0.006545873763795304
0.037515631513130004 0.002072683754749715 0.007906028713006018 0.9976834213600974 -0.01949645229588107 0.00027024782619482294 0.003886899051230509 -0.00024022428334141187 -0.0024621802368283495
 0.9976834213600974 -0.01949645229588107 0.0020735531364870718 0.007905932591027256 -0.00024006011496256004 -0.0024621705191132234 0.000265388379276018 0.003887459816008893
 0.00027024782619482294 0.003886899051230509 -0.00024006011496256004 -0.0024621705191132234 0.002072779981336885 0.007906520792330798 0.9976834288777917 -0.019495951124355242
 -0.00024022428334141187 -0.0024621802368283495 0.000265388379276018 0.003887459816008893 0.9976834288777917 -0.019495951124355242 0.0020734716256291196 0.007906441354350074
0.043768236765320004 0.0022460028063337532 0.009281620227870348 0.9974562838273687 -0.022783264409088993 0.000326953267931138 0.004537793076217481 -0.00028830433002019273 -0.0028770752049079797
 0.9974562838273687 -0.022783264409088993 0.0022471853668693986 0.009281500947152027 -0.0002880818245532989 -0.002877066175960985 0.0003203378245837496 0.004538536882846351
 0.000326953267931138 0.004537793076217481 -0.0002880818245532989 -0.002877066175960985 0.00224613339356785 0.009282193380341947 0.997456293733907 -0.022782679820227837
 -0.00028830433002019273 -0.0028770752049079797 0.0003203378245837496 0.004538536882846351 0.997456293733907 -0.022782679820227837 0.0022470741124635692 0.009282094581203508
0.050020842017509996 0.00242944365612197 0.010671978038477999 0.9972153191700337 -0.026082039595419812 0.00038939448169461556 0.0051895060914524185 -0.00034109336663424737 -0.003293022820702435
 0.9972153191700337 -0.026082039595419812 0.002430987338674336 0.010671833251604654 -0.0003408038774473038 -0.0032930153431023146 0.0003807511225419079 0.005190465718996238
 0.00038939448169461556 0.0051895060914524185 -0.0003408038774473038 -0.0032930153431023146 0.002429613828546332 0.01067263189785174 0.9972153317919603 -0.02608137157425147
 -0.00034109336663424737 -0.003293022820702435 0.0003807511225419079 0.005190465718996238 0.9972153317919603 -0.02608137157425147 0.002430841719756581 0.010672511854248463
0.055454545454549996 0.0025972397278373792 0.011892024130441466 0.9969945330653435 -0.028958542507142603 0.0004483630552729503 0.005756489308575644 -0.000390841365417041 -0.0036552957155878874
 0.9969945330653435 -0.028958542507142603 0.0025991361498315033 0.011891855183231853 -0.0003904866939156304 -0.00365529034622008 0.00043773598369400377 0.0057576652570954494
 0.0004483630552729503 0.005756489308575644 -0.0003904866939156304 -0.00365529034622008 0.002597448542409073 0.011892747792253014 0.9969945483141682 -0.028957801962542107
 -0.000390841365417041 -0.0036552957155878874 0.00043773598369400377 0.0057576652570954494 0.9969945483141682 -0.028957801962542107 0.002598956912846901 0.011892607720553236
0.056273447269699996 0.0026232126452469195 0.012076834260464108 0.9969603326715573 -0.029392843179876112 0.0004576321219239109 0.0058419861235538655 -0.00039865375473311526 -0.0037099547922589877
 0.9969603326715573 -0.029392843179876112 0.0026251653646058074 0.012076661506302442 -0.00039828870040241625 -0.0037099498052550056 0.0004466882057591187 0.005843197114593476
 0.0004576321219239109 0.0058419861235538655 -0.00039828870040241625 -0.0037099498052550056 0.0026234276251599032 0.012077568415020803 0.9969603483376844 -0.02939209170157805
 -0.00039865375473311526 -0.0037099547922589877 0.0004466882057591187 0.005843197114593476 0.9969603483376844 -0.02939209170157805 0.0026249807579596897 0.012077425196643152
0.06252605252188 0.002827515326236885 0.013495955562295811 0.9966911286419622 -0.03271570011861428 0.0005317263693431627 0.0064951772712534715 -0.0004610471483203392 -0.0041278036809903355
 0.9966911286419622 -0.03271570011861428 0.0028299249758281884 0.013495752266043114 -0.00046059801073842604 -0.004127802200533663 0.0005182085278712718 0.0064966779662486325
 0.0005317263693431627 0.0064951772712534715 -0.00046059801073842604 -0.004127802200533663 0.002827780332206799 0.013496769553537132 0.9966911476827066 -0.03271486514915399
 -0.0004610471483203392 -0.0041278036809903355 0.0005182085278712718 0.0064966779662486325 0.9966911476827066 -0.03271486514915399 0.002829696754514573 0.013496601184078692
0.06877865777407 0.003042556621062027 0.014929131790748526 0.996407510679558 -0.03605060632035237 0.0006117368629805736 0.0071490204339510945 -0.000528334486765917 -0.004546502164561292
 0.996407510679558 -0.03605060632035237 0.003045471079881049 0.014928895263819245 -0.0005277928098421998 -0.004546505283334463 0.0005953710043293758 0.007150852005807314
 0.0006117368629805736 0.0071490204339510945 -0.0005277928098421998 -0.004546505283334463 0.0030428768686596762 0.01493002511335549 0.9964075334273086 -0.03604968781586465
 -0.000528334486765917 -0.004546502164561292 0.0005953710043293758 0.007150852005807314 0.9964075334273086 -0.03604968781586465 0.0030451946135242962 0.014929829571351859
0.07503126302626001 0.003268540913439897 0.016376168767274282 0.9961092818674601 -0.03939753579790459 0.0006977226442274959 0.007803453755795367 -0.0006005759760726476 -0.004965982585717341
 0.9961092818674601 -0.03939753579790459 0.003272008052550509 0.016375896207041322 -0.00059993336472371 -0.004965991473143257 0.0006782339626587651 0.007805660244504791
 0.0006977226442274959 0.007803453755795367 -0.00059993336472371 -0.004965991473143257 0.0032689216149677054 0.01637714086797473 0.9961093086573061 -0.03939653370530753
 -0.0006005759760726476 -0.004965982585717341 0.0006782339626587651 0.007805660244504791 0.9961093086573061 -0.03939653370530753 0.0032716787072602956 0.016376916087468538
0.08128386827845 0.0035056720970747727 0.01783688349423975 0.9957962449290968 -0.04275644541144092 0.0007897421036140672 0.008458412933757424 -0.0006778310671789215 -0.005386176638592943
 0.9957962449290968 -0.04275644541144092 0.0035097397858096543 0.01783657198363141 -0.0006770791866432633 -0.0053861925408405665 0.0007668550938905346 0.008461041281045847
 0.0007897421036140672 0.008458412933757424 -0.0006770791866432633 -0.0053861925408405665 0.003506118460752509 0.01783793376975122 0.995796276098312 -0.04275535966974131
 -0.0006778310671789215 -0.005386176638592943 0.0007668550938905346 0.008461041281045847 0.995796276098312 -0.04275535966974131 0.003509352923496873 0.01783767764086517
0.08753647353064001 0.0037541535949291004 0.01931110083275721 0.995468202356168 -0.04612727814129182 0.000887852932680525 0.009113831419381232 -0.0007601584285246004 -0.005807015162977237
 0.995468202356168 -0.04612727814129182 0.003758869707380077 0.019310747339614513 -0.0007592890038694888 -0.005807039402958098 0.0008612914084989417 0.009116931503251288
 0.000887852932680525 0.009113831419381232 -0.0007592890038694888 -0.005807039402958098 0.0037546708251197914 0.019312228629987712 0.9954682382451663 -0.046126108680911826
 -0.0007601584285246004 -0.005807015162977237 0.0008612914084989417 0.009116931503251288 0.9954682382451663 -0.046126108680911826 0.003758420686082667 0.019311938999269692
0.09378907878283 0.004014188360330987 0.020798651130250836 0.9951249565205035 -0.0495099654130602 0.0009921120772299196 0.009769640570926384 -0.0008476159168726746 -0.006228427989812442
 0.9951249565205035 -0.0495099654130602 0.004019600781153647 0.020798252506622195 -0.000846620732661462 -0.00622846196716383 0.0009615991926017769 0.009773265240076672
 0.0009921120772299196 0.009769640570926384 -0.000846620732661462 -0.00622846196716383 0.004014781656652609 0.02079985574531637 0.9951249974726583 -0.04950871215609844
 -0.0008476159168726746 -0.006228427989812442 0.0009615991926017769 0.009773265240076672 0.9951249974726583 -0.04950871215609844 0.00401908495450016 0.02079953041597586
0.100041684035 0.004285978862641604 0.02229936847886579 0.994766309773084 -0.05290442879323936 0.0011025756923252043 0.010425769759581222 -0.0009402605455238234 -0.006650343834356557
 0.994766309773084 -0.05290442879323936 0.004292135493638222 0.022298921460030582 -0.0009391314456579245 -0.006650389025425315 0.001067833965727157 0.010429974867625095
 0.0011025756923252043 0.010425769759581222 -0.0009391314456579245 -0.006650389025425315 0.0042866534201925575 0.02230064915590639 0.9947663561351214 -0.052903091654107136
 -0.0009402605455238234 -0.006650343834356557 0.001067833965727157 0.010429974867625095 0.9947663561351214 -0.052903091654107136 0.004291548211109388 0.02230028588787102
0.1059090909091 0.004551897048941497 0.023719462179155857 0.9944155748781938 -0.05610040547625021 0.001211926266362977 0.011041703896177575 -0.001031965367650182 -0.007046660043543008
 0.9944155748781938 -0.05610040547625021 0.004558795628626971 0.02371896667240329 -0.001030703236994906 -0.007046717168525043 0.001172963310781687 0.011046507189417132
 0.001211926266362977 0.011041703896177575 -0.001030703236994906 -0.007046717168525043 0.004552652581389344 0.023720813500368372 0.9944156266355733 -0.05609898953557754
 -0.001031965367650182 -0.007046660043543008 0.001172963310781687 0.011046507189417132 0.9944156266355733 -0.05609898953557754 0.004558137058787541 0.02372041255490569
0.1062942892872 0.004569727064383246 0.02381308940461837 0.9943920645349381 -0.05631058125613864 0.0012192990984830486 0.011082146452647977 -0.0010381484507974745 -0.007072690214144409
 0.9943920645349381 -0.05631058125613864 0.0045766758302085275 0.023812590608050216 -0.0010368773383672284 -0.007072748171957177 0.0011800504392643879 0.011086990892108553
 0.0012192990984830486 0.011082146452647977 -0.0010368773383672284 -0.007072748171957177 0.004570488072502953 0.023814445337277366 0.9943921166572758 -0.056309160139500415
 -0.0010381484507974745 -0.007072690214144409 0.0011800504392643879 0.011086990892108553 0.9943921166572758 -0.056309160139500415 0.0045760124367149775 0.0238140418470699
0.11254689453939999 0.0048656343891800855 0.025339651862325775 0.9940020233825007 -0.05972832814693506 0.001342336738028234 0.011738696278899386 -0.0011413348574864266 -0.007495393386564747
 0.9940020233825007 -0.05972832814693506 0.0048734232436010135 0.0253390977863744 -0.0011399136948345564 -0.007495465740786323 0.0012983024748681364 0.011744242014978437
 0.001342336738028234 0.011738696278899386 -0.0011399136948345564 -0.007495465740786323 0.004866487031814351 0.025341082191235466 0.9940020816194808 -0.059726822949617814
 -0.0011413348574864266 -0.007495393386564747 0.0012983024748681364 0.011744242014978437 0.9940020816194808 -0.059726822949617814 0.00487267907976451 0.02534063615171706
0.11879949979160001 0.0051739016841781255 0.026878894452258995 0.9935959891278927 -0.06315756792499953 0.0014717421322284002 0.012395343076401598 -0.0012498740429714478 -0.007918378305922758
 0.9935959891278927 -0.06315756792499953 0.0051825786163676845 0.026878281474708523 -0.0012482948517320556 -0.007918466762813388 0.001422643043396382 0.012401655180408146
 0.0014717421322284002 0.012395343076401598 -0.0012482948517320556 -0.007918466762813388 0.0051748511386779114 0.026880398262966013 0.9935960538377098 -0.06315597853750324
 -0.0012498740429714478 -0.007918378305922758 0.001422643043396382 0.012401655180408146 0.9935960538377098 -0.06315597853750324 0.005181749018041679 0.026879907302821988
0.1250521050438 0.0054947291778525325 0.028430655794710137 0.9931737648969299 -0.0665981927513519 0.001607567838462486 0.013052008938067286 -0.001363819300510506 -0.00834156858464016
 0.9931737648969299 -0.0665981927513519 0.005504342218456505 0.02842998017116108 -0.0013620741617674725 -0.00834167492699816 0.0015531241837372363 0.01305915562056856
 0.001607567838462486 0.013052008938067286 -0.0013620741617674725 -0.00834167492699816 0.005495780614941268 0.02843223212247143 0.9931738364426899 -0.06659651905255673
 -0.001363819300510506 -0.00834156858464016 0.0015531241837372363 0.01305915562056856 0.9931738364426899 -0.06659651905255673 0.005503422516949404 0.028431693825588005
0.131304710296 0.005828316433550007 0.029994774035030095 0.9927351542051108 -0.07005008894793327 0.001749865407677316 0.013708614244140192 -0.0014832229016257463 -0.00876488646949882
 0.9927351542051108 -0.07005008894793327 0.005838913660802363 0.029994031897059018 -0.0014813039560943948 -0.008765012556592315 0.001689796961806574 0.0137166668877421
 0.001749865407677316 0.013708614244140192 -0.0014813039560943948 -0.008765012556592315 0.005829475016447651 0.029996421857805204 0.9927352329540574 -0.07004833081148303
 -0.0014832229016257463 -0.00876488646949882 0.001689796961806574 0.0137166668877421 0.9927352329540574 -0.07004833081148303 0.005837899182745956 0.029995833762406277
0.1375573155481 0.006091333830221277 0.03136661218901089 0.9923635098970417 -0.07330861039348145 0.0018790294088821635 0.01434397504195434 -0.001588554728166839 -0.009167110695195173
 0.9923635098970417 -0.07330861039348145 0.006102966094362151 0.03136581443887043 -0.0015864504347721325 -0.009167256354351077 0.0018131982371463761 0.014352912141840334
 0.0018790294088821635 0.01434397504195434 -0.0015864504347721325 -0.009167256354351077 0.006092604288085316 0.03136833044687571 0.9923635961747779 -0.07330676775987925
 -0.001588554728166839 -0.009167110695195173 0.0018131982371463761 0.014352912141840334 0.9923635961747779 -0.07330676775987925 0.0061018526744265385 0.031367705052125425
0.1438099208003 0.0063633483659268734 0.03273234570546921 0.9919792517078794 -0.07656000845205455 0.002013417083615133 0.014977406237487032 -0.001698111840606999 -0.009567593522080394
 0.9919792517078794 -0.07656000845205455 0.006376064231560854 0.032731489413417046 -0.0016958137620446316 -0.009567760548362355 0.0019415680524182382 0.01498729206488782
 0.002013417083615133 0.014977406237487032 -0.0016958137620446316 -0.009567760548362355 0.00636473577342201 0.032734133336453475 0.991979345880107 -0.07655808119822187
 -0.001698111840606999 -0.009567593522080394 0.0019415680524182382 0.01498729206488782 0.991979345880107 -0.07655808119822187 0.006374847281835657 0.032733469181965735
0.1500625260525 0.006644277932212407 0.03409189398798228 0.9915824646193269 -0.07980423646139088 0.002152990551156314 0.015608864378340387 -0.001811857931560125 -0.009966293952342331
 0.9915824646193269 -0.07980423646139088 0.006658126026418767 0.034090976069566084 -0.0018093576430924104 -0.009966484212220147 0.0020748697262025495 0.015619765520838531
 0.002152990551156314 0.015608864378340387 -0.0018093576430924104 -0.009966484212220147 0.006645787351973735 0.03409374988686722 0.9915825670554528 -0.0798022244596211
 -0.001811857931560125 -0.009966293952342331 0.0020748697262025495 0.015619765520838531 0.9915825670554528 -0.0798022244596211 0.006656800960589663 0.03409304541719156
0.15631513130469998 0.006934039997433538 0.03544517907824278 0.9911732338676646 -0.08304124729199276 0.002297711578557968 0.016238306602972288 -0.0019297563341911554 -0.010363171760880412
