! Created with skrf 1.8.0 (http://scikit-rf.org).
# GHz S RI R 50.0 
!freq ReS11 ImS11 ReS12 ImS12 ReS13 ImS13
! ReS14 ImS14
! ReS21 ImS21 ReS22 ImS22 ReS23 ImS23
! ReS24 ImS24
! ReS31 ImS31 ReS32 ImS32 ReS33 ImS33
! ReS34 ImS34
! ReS41 ImS41 ReS42 ImS42 ReS43 ImS43
! ReS44 ImS44
!
0.0 0.001721286303126 0.0 0.9982787136969 0.0 6.667019212434e-05 0.0 -6.667019278082e-05 8.16474381875682e-21
 0.9982787136969 0.0 0.001721286303105 0.0 -6.667019277963e-05 8.164743818611086e-21 6.667019212607e-05 0.0
 6.667019212434e-05 0.0 -6.667019277963e-05 8.164743818611086e-21 0.00172128627814 0.0 0.9982787136719 0.0
 -6.667019278082e-05 8.16474381875682e-21 6.667019212607e-05 0.0 0.9982787136719 0.0 0.001721286278179 0.0
0.005 0.0018525372951039099 0.0014079828382718635 0.9981125846589337 -0.0036050282290684254 9.36241144312977e-05 0.0007323263942063971 -9.09467462769239e-05 -0.0004599477430620752
 0.9981125846589337 -0.0036050282290684254 0.0018525255263506012 0.0014079897664811484 -9.094785229875148e-05 -0.00045994864677081747 9.368135551474084e-05 0.0007323044152499638
 9.36241144312977e-05 0.0007323263942063971 -9.094785229875148e-05 -0.00045994864677081747 0.0018525368273586405 0.001408050443169186 0.99811258504175 -0.003604961167003565
 -9.09467462769239e-05 -0.0004599477430620752 9.368135551474084e-05 0.0007323044152499638 0.99811258504175 -0.003604961167003565 0.0018525267532847967 0.0014080562801473575
0.006252605252188 0.001887133111138402 0.0017654915866576364 0.9980684973002115 -0.0045071393671447186 0.00010140011146394205 0.0009157539092295034 -9.787673663027773e-05 -0.0005755184789053283
 0.9980684973002115 -0.0045071393671447186 0.0018871147143962087 0.0017655004281666375 -9.787845723958573e-05 -0.0005755195940836902 0.00010148954255636595 0.0009157253830910997
 0.00010140011146394205 0.0009157539092295034 -9.787845723958573e-05 -0.0005755195940836902 0.0018871322933154437 0.0017655760920592361 0.9980684978126432 -0.004507055543988372
 -9.787673663027773e-05 -0.0005755184789053283 0.00010148954255636595 0.0009157253830910997 0.9980684978126432 -0.004507055543988372 0.0018871165467097388 0.0017655835565694522
0.01250521050438 0.002070257404346111 0.0035676954834776217 0.997833494486912 -0.009014881129790025 0.000146392753678874 0.0018318061123322863 -0.0001376031887488682 -0.0011537115626577012
 0.997833494486912 -0.009014881129790025 0.0020701839427831143 0.0035677150210561177 -0.00013760996410757423 -0.0011537136337200998 0.00014674930726330532 0.0018317376009844757
 0.000146392753678874 0.0018318061123322863 -0.00013760996410757423 -0.0011537136337200998 0.00207025355808404 0.0035678642856210264 0.9978334959627537 -0.009014713719888425
 -0.0001376031887488682 -0.0011537115626577012 0.00014674930726330532 0.0018317376009844757 0.9978334959627537 -0.009014713719888425 0.0020701906937372863 0.0035678809211572536
0.01875781575657 0.0022710943731426856 0.005395240898247551 0.9975733879307562 -0.013534153906484863 0.00020175881704227212 0.0027487407937157814 -0.00018597895858839768 -0.0017337236809149455
 0.9975733879307562 -0.013534153906484863 0.002270929293421731 0.005395273172100239 -0.00018599406010927382 -0.0017337265165028536 0.0002025595896326701 0.002748618365979562
 0.00020175881704227212 0.0027487407937157814 -0.00018599406010927382 -0.0017337265165028536 0.0022710852877121344 0.005395493920639224 0.9975733908264937 -0.01353390299643286
 -0.00018597895858839768 -0.0017337236809149455 0.0002025595896326701 0.002748618365979562 0.9975733908264937 -0.01353390299643286 0.0022709440504831255 0.005395521561646333
0.02501042100875 0.002490064252327412 0.007245526145863542 0.99728784686526 -0.01806710257254581 0.0002676098081420496 0.003666567769403714 -0.00024312850343182 -0.0023152656350462104
 0.99728784686526 -0.01806710257254581 0.0024897710708201206 0.007245573372168119 -0.0002431551606574753 -0.0023152690083423724 0.0002690318360270379 0.0036663751076754154
 0.0002676098081420496 0.003666567769403714 -0.0002431551606574753 -0.0023152690083423724 0.0024900477038766774 0.00724586337053637 0.9972878516341797 -0.018066768171566577
 -0.00024312850343182 -0.0023152656350462104 0.0002690318360270379 0.0036663751076754154 0.9972878516341797 -0.018066768171566577 0.0024897969155077133 0.007245903971706277
0.03126302626094 0.002727569846947525 0.00911718944916151 0.9969765250182703 -0.022614617436194147 0.0003440570830149944 0.0045852120078155156 -0.0003091722402364436 -0.002898125169338454
 0.9969765250182703 -0.022614617436194147 0.002727112131443054 0.009117254019482199 -0.0003092136478064 -0.002898128817738675 0.0003462774998933433 0.004584930397443058
 0.0003440570830149944 0.0045852120078155156 -0.0003092136478064 -0.002898128817738675 0.0027275436065069204 0.009117610839378237 0.9969765321203875 -0.022614199553522927
 -0.0003091722402364436 -0.002898125169338454 0.0003462774998933433 0.004584930397443058 0.9969765321203875 -0.022614199553522927 0.002727152149210084 0.00911766647444456
0.037515631513130004 0.00298400480473647 0.011009325505071266 0.9966390692328446 -0.027177117612594563 0.0004312108097904159 0.005504564495667533 -0.00038422739184155427 -0.0034821161384385045
 0.9966390692328446 -0.027177117612594563 0.0029833461631511714 0.011009409986578398 -0.0003842867130953904 -0.003482119763499308 0.0004344069110293238 0.005504172804260702
 0.0004312108097904159 0.005504564495667533 -0.0003842867130953904 -0.003482119763499308 0.0029839666288992454 0.011009831052936774 0.9966390791274454 -0.027176616209976405
 -0.00038422739184155427 -0.0034821161384385045 0.0004344069110293238 0.005504172804260702 0.9966390791274454 -0.027176616209976405 0.0029834034345794964 0.011009903914192066
0.043768236765320004 0.003259756789384102 0.012921247144952446 0.9962751229890688 -0.0317547892931755 0.0005291794648784241 0.006424497712430219 -0.0004684082702593456 -0.00406706306216917
 0.9962751229890688 -0.0317547892931755 0.003258860860773771 0.01292135428116128 -0.0004684886393736768 -0.004067066329623828 0.000533528731786372 0.0064239723662354135
 0.0005291794648784241 0.006424497712430219 -0.0004684886393736768 -0.004067066329623828 0.0032597044253889385 0.012921836829432553 0.9962751361408375 -0.03175420432697034
 -0.0004684082702593456 -0.00406706306216917 0.000533528731786372 0.0064239723662354135 0.9962751361408375 -0.03175420432697034 0.0032589384666938293 0.012921929227758762
0.050020842017509996 0.0035552089435059724 0.01485238678430103 0.9958843282182691 -0.036347684224820855 0.0006380695121456795 0.007344872035997549 -0.0005618263649373174 -0.004652794751955518
 0.9958843282182691 -0.036347684224820855 0.0035540393907455402 0.014852519496229722 -0.0005619308882540937 -0.004652797291784199 0.0006437496151601753 0.007344186995198887
 0.0006380695121456795 0.007344872035997549 -0.0005619308882540937 -0.004652797291784199 0.003555140125806752 0.014853060590779394 0.9958843450954592 -0.03634701562680987
 -0.0005618263649373174 -0.004652794751955518 0.0006437496151601753 0.007344186995198887 0.9958843450954592 -0.03634701562680987 0.0035541404090559153 0.014853174955764936
0.055454545454549996 0.0038282594771375414 0.016545826280944465 0.9955226329777406 -0.04035138711778739 0.0007416487688542513 0.008144948238529372 -0.0006505957336199457 -0.005162318636399388
 0.9955226329777406 -0.04035138711778739 0.003826822639770819 0.016545983729997604 -0.0006507237494704227 -0.005162320215680014 0.0007486298380406349 0.008144101336673272
 0.0007416487688542513 0.008144948238529372 -0.0006507237494704227 -0.005162320215680014 0.0038281745107469887 0.016546573178901458 0.9955226534763564 -0.040350645773074456
 -0.0006505957336199457 -0.005162318636399388 0.0007486298380406349 0.008144101336673272 0.9955226534763564 -0.040350645773074456 0.0038269465014095856 0.016546708699278784
0.056273447269699996 0.0038707406180454188 0.016802248088106018 0.995466326388781 -0.04095576797717523 0.0007579851688489557 0.00826553888572534 -0.0006645903380776272 -0.0052391412051091815
 0.995466326388781 -0.04095576797717523 0.0038692611209617607 0.01680240947556648 -0.0006647220950202631 -0.0052391426116050605 0.0007651739570926137 0.008264665619430046
 0.0007579851688489557 0.00826553888572534 -0.0006647220950202631 -0.0052391426116050605 0.003870653068316331 0.016803006001115 0.9954663474644171 -0.04095501566208201
 -0.0006645903380776272 -0.0052391412051091815 0.0007651739570926137 0.008264665619430046 0.9954663474644171 -0.04095501566208201 0.00386938862656642 0.016803144881551182
0.06252605252188 0.004206727747590046 0.01877037938735082 0.995020759242258 -0.04557894646437281 0.0008890282095267121 0.009186342472013501 -0.0007768059768956803 -0.005825931898905991
 0.995020759242258 -0.04557894646437281 0.004204901997279514 0.018770572730531676 -0.0007769680206556963 -0.005825931730747443 0.000897903692461921 0.009185249933254926
 0.0008890282095267121 0.009186342472013501 -0.0007769680206556963 -0.005825931730747443 0.004206619174516545 0.018771221393408994 0.9950207849950217 -0.04557811032724653
 -0.0007768059768956803 -0.005825931898905991 0.000897903692461921 0.009185249933254926 0.9950207849950217 -0.04557811032724653 0.004205059060923922 0.018771387457945383
0.06877865777407 0.0045635430275108475 0.02075635784126106 0.9945472693368863 -0.050217081728029626 0.00103129779452187 0.010107120837159903 -0.0008985761187115119 -0.006412994800405718
 0.9945472693368863 -0.050217081728029626 0.004561334720416019 0.020756586602577936 -0.0008987714766289974 -0.00641299258074104 0.0010420381169461337 0.010105775438206434
 0.00103129779452187 0.010107120837159903 -0.0008987714766289974 -0.00641299258074104 0.004563411126327277 0.020757283921515587 0.994547300251929 -0.05021616165215384
 -0.0008985761187115119 -0.006412994800405718 0.0010420381169461337 0.010105775438206434 0.994547300251929 -0.05021616165215384 0.004561524408348811 0.020757479959561037
0.07503126302626001 0.004941555976649294 0.022759779397764284 0.9940455004810019 -0.054870001930044876 0.0011848903109056973 0.011027706537653385 -0.0010300005607265237 -0.007000155742344521
 0.9940455004810019 -0.054870001930044876 0.004938928808772454 0.022760047223947096 -0.0010302322345955085 -0.007000150958873751 0.0011976737233849503 0.01102607212567922
 0.0011848903109056973 0.011027706537653385 -0.0010302322345955085 -0.007000150958873751 0.004941398428307441 0.02276078953649132 0.9940455370503652 -0.05486899777863917
 -0.0010300005607265237 -0.007000155742344521 0.0011976737233849503 0.01102607212567922 0.9940455370503652 -0.05486899777863917 0.00493915418136378 0.022761018459436805
0.08128386827845 0.005341132923472888 0.024780252117759628 0.9935150980950649 -0.05953750798997898 0.0013498992225275445 0.011947927103003568 -0.0011711759586718884 -0.00758723803033713
 0.9935150980950649 -0.05953750798997898 0.005338050585333047 0.02478056284219343 -0.0011714469249218848 -0.007587230135396972 0.0013649040482944339 0.011945964936300617
 0.0013498992225275445 0.011947927103003568 -0.0011714469249218848 -0.007587230135396972 0.0053409473943199625 0.024781346301097032 0.9935151408186884 -0.05953641960805472
 -0.0011711759586718884 -0.00758723803033713 0.0013649040482944339 0.011945964936300617 0.9935151408186884 -0.05953641960805472 0.005338314696227705 0.024781611143685517
0.08753647353064001 0.005762636946206277 0.02681739157834794 0.9929557095317794 -0.06421937815264195 0.001526414925229399 0.012867605373468186 -0.0013221957188285032 -0.008174062179241772
 0.9929557095317794 -0.06421937815264195 0.005759063117441333 0.026817749223635317 -0.0013225089286840693 -0.008174050589893752 0.0015438195238599037 0.012865274098249726
 0.001526414925229399 0.012867605373468186 -0.0013225089286840693 -0.008174050589893752 0.005762421087503018 0.0268185697895852 0.9929557589177581 -0.06421820537208504
 -0.0013221957188285032 -0.008174062179241772 0.0015438195238599037 0.012865274098249726 0.9929557589177581 -0.06421820537208504 0.0057593690121152605 0.026818873711631833
0.09378907878283 0.006206427777430948 0.028870817574127648 0.9923669843651048 -0.06891537126696438 0.0017145246060141501 0.013786559748182508 -0.0014831498848345726 -0.008760445747537694
 0.9923669843651048 -0.06891537126696438 0.00620232612138438 0.02887122635502168 -0.0014835082643100614 -0.00876042984566119 0.0017345073345308045 0.013783815376017864
 0.0017145246060141501 0.013786559748182508 -0.0014835082643100614 -0.00876042984566119 0.0062061792247627996 0.0288720798000018 0.9923670409306821 -0.06891411390076199
 -0.0014831498848345726 -0.008760445747537694 0.0017345073345308045 0.013783815376017864 0.9923670409306821 -0.06891411390076199 0.006202676836430931 0.02887242608837271
0.100041684035 0.00667286168471318 0.030940151725735006 0.9917485746597527 -0.07362522916761764 0.0019143121045725312 0.014704604388371083 -0.0016541250209867783 -0.009346203225197879
 0.9917485746597527 -0.07362522916761764 0.006668195843488387 0.0309406160522143 -0.0016545314709026293 -0.009346182357587125 0.0019370512766631394 0.014701400274316883
 0.0019143121045725312 0.014704604388371083 -0.0016545314709026293 -0.009346182357587125 0.006672578057910076 0.030941497951974442 0.9917486389323523 -0.07362388701489928
 -0.0016541250209867783 -0.009346203225197879 0.0019370512766631394 0.014701400274316883 0.9917486389323523 -0.07362388701489928 0.006668594405668737 0.030941890022730463
0.1059090909091 0.0071314682650408705 0.03289613360941417 0.9911409574526672 -0.07805729780713638 0.0021124839556294814 0.015565095399365356 -0.0018237549677866441 -0.009895137068196473
 0.9911409574526672 -0.07805729780713638 0.007126239905502632 0.03289665424723214 -0.0018242091425332814 -0.009895110915522937 0.002137971855588967 0.015561415058348517
 0.0021124839556294814 0.015565095399365356 -0.0018242091425332814 -0.009895110915522937 0.007131149545084319 0.03289755865127195 0.9911410294460695 -0.0780558758926778
 -0.0018237549677866441 -0.009895137068196473 0.002137971855588967 0.015561415058348517 0.9911410294460695 -0.0780558758926778 0.007126686109314224 0.03289799690817522
0.1062942892872 0.007162291333862867 0.03302501567713428 0.9911001352262916 -0.07834867847789127 0.0021258577771696608 0.015621549381075685 -0.0018352040929837023 -0.009931145969684087
 0.9911001352262916 -0.07834867847789127 0.007157024923317428 0.03302554015779332 -0.0018356614889593447 -0.009931119448140674 0.0021515316201252293 0.015617836202634771
 0.0021258577771696608 0.015621549381075685 -0.0018356614889593447 -0.009931119448140674 0.007161970235857928 0.03302644589395045 0.9911002077435158 -0.07834725131902583
 -0.0018352040929837023 -0.009931145969684087 0.0021515316201252293 0.015617836202634771 0.9911002077435158 -0.07834725131902583 0.007157474347468059 0.03302688729495625
0.11254689453939999 0.007675065637130876 0.035125029737055356 0.9904213238654185 -0.08308543197902105 0.002349238361864875 0.01653720088167206 -0.0020264663468780833 -0.010515082172130987
 0.9904213238654185 -0.08308543197902105 0.007669162241595224 0.0351256191828563 -0.0020269775392117136 -0.010515049273590744 0.0023780249718443527 0.016532926618534716
 0.002349238361864875 0.01653720088167206 -0.0020269775392117136 -0.010515049273590744 0.007674704653917984 0.03512654393253308 0.990421405176052 -0.0830839195828755
 -0.0020264663468780833 -0.010515082172130987 0.0023780249718443527 0.016532926618534716 0.990421405176052 -0.0830839195828755 0.007669665530320025 0.03512703834617165
0.11879949979160001 0.008211529592222678 0.03723981181216171 0.9897118016056003 -0.08783518969851851 0.0025845268452831505 0.017451361241360774 -0.0022279871865390818 -0.011097816847640104
 0.9897118016056003 -0.08783518969851851 0.008204952759687105 0.037240471240385646 -0.0022285550001734365 -0.011097776814236827 0.002616604141145144 0.01744647115600296
 0.0025845268452831505 0.017451361241360774 -0.0022285550001734365 -0.011097776814236827 0.008211126292466533 0.03724140998123773 0.989711892270823 -0.08783359181414481
 -0.0022279871865390818 -0.011097816847640104 0.002616604141145144 0.01744647115600296 0.989711892270823 -0.08783359181414481 0.0082055129018494 0.037241961227575456
0.1250521050438 0.008772024112171236 0.039368976594038416 0.9889712329350836 -0.09259763975569342 0.0028317923306464383 0.01836382912418024 -0.0024398380506203423 -0.011679151845137403
 0.9889712329350836 -0.09259763975569342 0.008764737349241396 0.039369711232558 -0.0024404652848941874 -0.011679103884361853 0.0028673380059805707 0.018358265743357485
 0.0028317923306464383 0.01836382912418024 -0.0024404652848941874 -0.011679103884361853 0.008771576046459804 0.03937065873294821 0.9889713335286247 -0.09259595611860036
 -0.0024398380506203423 -0.011679151845137403 0.0028673380059805707 0.018358265743357485 0.9889713335286247 -0.09259595611860036 0.008765357318541306 0.03937127077311418
0.131304710296 0.009356885848451716 0.041512134902664026 0.988199286029309 -0.0973724590618771 0.003091099906621667 0.01927439961755501 -0.0026620862888964763 -0.01225888587307812
 0.988199286029309 -0.0973724590618771 0.009348852615677732 0.041512950194554074 -0.0026627757175955 -0.012258829157840767 0.0031302913807441587 0.01926810271474627
 0.003091099906621667 0.01927439961755501 -0.0026627757175955 -0.012258829157840767 0.009356390549238073 0.04151390101138474 0.9881993971385378 -0.0973706893923554
 -0.0026620862888964763 -0.01225888587307812 0.0031302913807441587 0.01926810271474627 0.9881993971385378 -0.0973706893923554 0.009349535369567032 0.041514577951293784
0.1375573155481 0.009838413714641664 0.043390238293339475 0.9875237290649868 -0.10188048737298097 0.003331248138580464 0.020155779685083402 -0.002863495376976327 -0.012809784583008675
 0.9875237290649868 -0.10188048737298097 0.009829595840492615 0.04339112261035726 -0.0028642512894949 -0.012809718982122595 0.003374180099430135 0.020148754182125313
 0.003331248138580464 0.020155779685083402 -0.0028642512894949 -0.012809718982122595 0.009837869704060065 0.04339208812132954 0.9875238511784402 -0.10187863152313183
 -0.002863495376976327 -0.012809784583008675 0.003374180099430135 0.020148754182125313 0.9875238511784402 -0.10187863152313183 0.009830343522105949 0.04339281770051436
0.1438099208003 0.010337070296764705 0.04525734395168306 0.9868240544729959 -0.10637596097823696 0.0035810500552047346 0.02103292196409633 -0.0030729117066737996 -0.013356761241061036
 0.9868240544729959 -0.10637596097823696 0.01032743096417927 0.04525830164034165 -0.0030737371122268996 -0.013356685929336674 0.0036278846113427477 0.0210251123050109
 0.0035810500552047346 0.02103292196409633 -0.0030737371122268996 -0.013356685929336674 0.010336475259173382 0.04525927745532477 0.9868241881768093 -0.10637401867776562
 -0.0030729117066737996 -0.013356761241061036 0.0036278846113427477 0.0210251123050109 0.9868241881768093 -0.10637401867776562 0.010328246362198024 0.045260062720668105
0.1500625260525 0.010852663253121774 0.047113262723816204 0.9861004594751054 -0.1108587343418786 0.0038404080388366106 0.02190571556097335 -0.003290239560886706 -0.013899710702237085
 0.9861004594751054 -0.1108587343418786 0.010842165598665375 0.047114298357000914 -0.0032911374620990396 -0.013899624821033659 0.0038913060848890266 0.021897064178651605
 0.0038404080388366106 0.02190571556097335 -0.0032911374620990396 -0.013899624821033659 0.010852014866399117 0.04711527985841392 0.9861006053667223 -0.11085670531104919
 -0.003290239560886706 -0.013899710702237085 0.0038913060848890266 0.021897064178651605 0.9861006053667223 -0.11085670531104919 0.010843051477104812 0.04711612403215096
0.15631513130469998 0.011384998672627232 0.048957811093657516 0.9853531425227566 -0.11532866319407735 0.004109223198672959 0.022774051725570493 -0.003515381932266344 -0.014438530253045829
 0.9853531425227566 -0.11532866319407735 0.011373605785626772 0.048958929474112095 -0.0035163553251223315 -0.014438432910377792 0.004164344392189178 0.02276449906794188
