! Created with skrf 1.8.0 (http://scikit-rf.org).
# GHz S RI R 50.0 
!freq ReS11 ImS11 ReS12 ImS12 ReS13 ImS13
! ReS14 ImS14
! ReS21 ImS21 ReS22 ImS22 ReS23 ImS23
! ReS24 ImS24
! ReS31 ImS31 ReS32 ImS32 ReS33 ImS33
! ReS34 ImS34
! ReS41 ImS41 ReS42 ImS42 ReS43 ImS43
! ReS44 ImS44
!
0.0 0.00147954985611 0.0 0.9985204501438 0.0 5.692287944944e-05 0.0 -5.692287864858e-05 6.971042113523672e-21
 0.9985204501438 0.0 0.00147954985612 0.0 -5.692287864979e-05 6.971042113671854e-21 5.692287944763e-05 0.0
 5.692287944944e-05 0.0 -5.692287864979e-05 6.971042113671854e-21 0.001479549853297 0.0 0.9985204501409 0.0
 -5.692287864858e-05 6.971042113523672e-21 5.692287944763e-05 0.0 0.9985204501409 0.0 0.001479549853243 0.0
0.005 0.0015916865429053402 0.0012113071954150704 0.9983786202208769 -0.0030993987993447243 7.95193963886552e-05 0.0006227596234253933 -7.728368735267337e-05 -0.00039169885080531395
 0.9983786202208769 -0.0030993987993447243 0.001591691381677029 0.0012113044048148484 -7.72857378978808e-05 -0.00039170045487910626 7.948834242028404e-05 0.0006227715346900175
 7.95193963886552e-05 0.0006227596234253933 -7.72857378978808e-05 -0.00039170045487910626 0.0015916849893961194 0.0012112408806665823 0.9983786198707046 -0.0030994658548569977
 -7.728368735267337e-05 -0.00039169885080531395 7.948834242028404e-05 0.0006227715346900175 0.9983786198707046 -0.0030994658548569977 0.0015916922363633762 0.0012112366086082362
0.006252605252188 0.001621043032547906 0.0015189028415817363 0.9983412659088354 -0.0038750145650233284 8.594011050252975e-05 0.0007787569750241937 -8.300505091558632e-05 -0.0004901320482039904
 0.9983412659088354 -0.0038750145650233284 0.0016210505958483275 0.0015188992604680878 -8.300824151892056e-05 -0.0004901340267773149 8.589159243763154e-05 0.0007787724236244976
 8.594011050252975e-05 0.0007787569750241937 -8.300824151892056e-05 -0.0004901340267773149 0.0016210406800515156 0.0015188199470894262 0.998341265437767 -0.003875098390261856
 -8.300505091558632e-05 -0.0004901320482039904 8.589159243763154e-05 0.0007787724236244976 0.998341265437767 -0.003875098390261856 0.0016210520086312285 0.001518814505004691
0.01250521050438 0.001775270098363424 0.0030696738500677226 0.9981437730111151 -0.00775088253449567 0.00012257684170421598 0.001557908877497767 -0.00011532103523821171 -0.0009826699474622003
 0.9981437730111151 -0.00775088253449567 0.001775300291034107 0.0030696657548748584 -0.00011533360669434105 -0.0009826736149851584 0.00012238339087642226 0.0015579458062029601
 0.00012257684170421598 0.001557908877497767 -0.00011533360669434105 -0.0009826736149851584 0.0017752612429149286 0.0030695083847198114 0.9981437716735901 -0.007751049921512482
 -0.00011532103523821171 -0.0009826699474622003 0.00012238339087642226 0.0015579458062029601 0.9981437716735901 -0.007751049921512482 0.001775306482354952 0.003069496454653321
0.01875781575657 0.0019425572726012072 0.004642584632900882 0.9979277334246106 -0.011637047481829983 0.00016691661245131387 0.002337979156339072 -0.00015396802642913025 -0.001476917776580525
 0.9979277334246106 -0.011637047481829983 0.0019426251039416206 0.004642571043529808 -0.00015399605812552658 -0.0014769227903043188 0.0001664821117994581 0.002338044760168223
 0.00016691661245131387 0.002337979156339072 -0.00015399605812552658 -0.0014769227903043188 0.0019425377819780336 0.004642336779331705 0.9979277308374385 -0.011637298344562043
 -0.00015396802642913025 -0.001476917776580525 0.0001664821117994581 0.002338044760168223 0.9979277308374385 -0.011637298344562043 0.0019426394469304997 0.0046423172034984845
0.02501042100875 0.0021232217106227254 0.006235446944842336 0.9976929000040828 -0.015535403416004644 0.0002190441293292029 0.0031190061016105053 -0.00019904028073461624 -0.001972659703871781
 0.9976929000040828 -0.015535403416004644 0.0021233421510725406 0.006235426837461025 -0.00019908977861405572 -0.0019726656616961486 0.0002182724624524958 0.0031191086918001985
 0.0002190441293292029 0.0031190061016105053 -0.00019908977861405572 -0.0019726656616961486 0.0021231874539759115 0.0062351169075759 0.9976928957839893 -0.015535737681449906
 -0.00019904028073461624 -0.001972659703871781 0.0002182724624524958 0.0031191086918001985 0.9976928957839893 -0.015535737681449906 0.002123368019406679 0.006235088422888035
0.03126302626094 0.0023175674302903376 0.007847140061949922 0.9974390126131429 -0.01944676737611022 0.0002790446140098111 0.0039009569944320204 -0.0002506295440027941 -0.0024697458204423293
 0.9974390126131429 -0.01944676737611022 0.002317755419182985 0.007847112369668317 -0.0002507064531829798 -0.002469752260164845 0.00027783957287899657 0.0039011060033092466
 0.0002790446140098111 0.0039009569944320204 -0.0002507064531829798 -0.002469752260164845 0.0023175142774968004 0.007846728053081845 0.9974390063774518 -0.019447184998926278
 -0.0002506295440027941 -0.0024697458204423293 0.00027783957287899657 0.0039011060033092466 0.9974390063774518 -0.019447184998926278 0.0023177961891446995 0.007846689291538448
0.037515631513130004 0.0025258919641606785 0.0094769373023284 0.9971658049677863 -0.02337155285028875 0.0003470029918170815 0.0046837711262984515 -0.00030882570890363093 -0.0029680491173149706
 0.9971658049677863 -0.02337155285028875 0.0025261624145927223 0.009476900915591335 -0.0003089359201264149 -0.002968055516399889 0.0003452682349369226 0.004683977117593703
 0.0003470029918170815 0.0046837711262984515 -0.0003089359201264149 -0.002968055516399889 0.002525815782896044 0.00947644356086345 0.9971657963323058 -0.023372053793923334
 -0.00030882570890363093 -0.0029680491173149706 0.0003452682349369226 0.004683977117593703 0.9971657963323058 -0.023372053793923334 0.002526221463614214 0.009476393049388519
0.043768236765320004 0.0027484889258434005 0.011124301101830165 0.9968730073960894 -0.027309974631369142 0.0004230035092835974 0.005467372885337246 -0.0003737170546068864 -0.0034674523958797177
 0.9968730073960894 -0.027309974631369142 0.0027488567287518224 0.011124254868783788 -0.000373866408091922 -0.0034674581714054173 0.00042064254128674713 0.005467647566082537
 0.0004230035092835974 0.005467372885337246 -0.000373866408091922 -0.0034674581714054173 0.0027483855843627187 0.011123725898207463 0.9968729959778105 -0.027310558864036043
 -0.0003737170546068864 -0.0034674523958797177 0.00042064254128674713 0.005467647566082537 0.9968729959778105 -0.027310558864036043 0.0027489374387785655 0.011123662058135048
0.050020842017509996 0.0029856492092525102 0.012788798304647839 0.996560348233048 -0.031262133455443215 0.0005071295072582816 0.006251677155384321 -0.00044539033346508567 -0.003967842867028451
 0.996560348233048 -0.031262133455443215 0.002986129236516797 0.012788741031363262 -0.00044558462140122915 -0.003967847375650246 0.0005040456702279566 0.006252033388577175
 0.0005071295072582816 0.006251677155384321 -0.00044558462140122915 -0.003967847375650246 0.002985514575036674 0.0127881419445204 0.9965603336490177 -0.03126280094691934
 -0.00044539033346508567 -0.003967842867028451 0.0005040456702279566 0.006252033388577175 0.9965603336490177 -0.03126280094691934 0.0029862349928752928 0.012788063091084273
0.055454545454549996 0.003203800217235908 0.014248922509310032 0.996272296022776 -0.034707858628969517 0.000586900358387352 0.006933760573895592 -0.0005132505897671264 -0.0044034128206346486
 0.996272296022776 -0.034707858628969517 0.003204389836504566 0.014248854639596378 -0.0005134885950420124 -0.004403415658905568 0.0005831097004008228 0.006934199032461574
 0.000586900358387352 0.006933760573895592 -0.0005134885950420124 -0.004403415658905568 0.0032036350315314006 0.014248195891744692 0.9962722783757847 -0.03470859845756458
 -0.0005132505897671264 -0.0044034128206346486 0.0005831097004008228 0.006934199032461574 0.9962722783757847 -0.03470859845756458 0.0032045201103760627 0.014248102539971887
0.056273447269699996 0.0032376616059253435 0.014470058598157445 0.9962275546374548 -0.03522805749708662 0.0005994632584362334 0.007036591970847058 -0.0005239307937697741 -0.00446910949695195
 0.9962275546374548 -0.03522805749708662 0.003238268713844445 0.014469989048864271 -0.0005241757620004937 -0.0044691120349433745 0.0005955597299389864 0.007037043788361746
 0.0005994632584362334 0.007036591970847058 -0.0005241757620004937 -0.0044691120349433745 0.0032374915453149875 0.014469321415314785 0.9962275365040449 -0.035228808226409634
 -0.0005239307937697741 -0.00446910949695195 0.0005955597299389864 0.007037043788361746 0.9962275365040449 -0.035228808226409634 0.0032384029048849188 0.014469225756813383
0.06252605252188 0.0035048131387232758 0.016167751654103828 0.9958743531278985 -0.03920772516005894 0.0007000858412275054 0.00782201996996087 -0.0006094221654674527 -0.004971141557446124
 0.9958743531278985 -0.03920772516005894 0.003505562170487869 0.016167668551257102 -0.0006097235146446536 -0.004971141360705027 0.0006952656367619915 0.007822582585635817
 0.0007000858412275054 0.00782201996996087 -0.0006097235146446536 -0.004971141360705027 0.0035046035177496073 0.0161669340191939 0.9958743310615493 -0.039208559107407975
 -0.0006094221654674527 -0.004971141557446124 0.0006952656367619915 0.007822582585635817 0.9958743310615493 -0.039208559107407975 0.0035057281883374507 0.016166819656270034
0.06877865777407 0.0037873892411822117 0.017881573499539567 0.9955004699686573 -0.04320107864136927 0.0008090770296339495 0.00860785926589037 -0.0007019466285583741 -0.005473827761664534
 0.9955004699686573 -0.04320107864136927 0.003788295029740037 0.017881475523934327 -0.0007023100149383029 -0.005473824005763373 0.0008032430086001455 0.008608549088572783
 0.0008090770296339495 0.00860785926589037 -0.0007023100149383029 -0.005473824005763373 0.003787135925002399 0.01788067581747266 0.9955004435852023 -0.043201995791234356
 -0.0007019466285583741 -0.005473827761664534 0.0008032430086001455 0.008608549088572783 0.9955004435852023 -0.043201995791234356 0.0037884962695432464 0.017880540742178406
0.07503126302626001 0.004085673844439828 0.01961123787697229 0.9951056314661049 -0.0472080325093741 0.0009265151954476159 0.009394004001442033 -0.0008015847681680056 -0.0059770557197330555
 0.9951056314661049 -0.0472080325093741 0.004086751215429244 0.01961112366762468 -0.0008020158042017665 -0.005977047519954489 0.0009195700693508505 0.00939483864802091
 0.0009265151954476159 0.009394004001442033 -0.0008020158042017665 -0.005977047519954489 0.004085372698479051 0.01961026058939651 0.9951056003812753 -0.047209032848667745
 -0.0008015847681680056 -0.0059770557197330555 0.0009195700693508505 0.00939483864802091 0.9951056003812753 -0.047209032848667745 0.004086991075908318 0.0196101026842383
0.08128386827845 0.004399949408506372 0.021356470497870293 0.9946895642131789 -0.05122847939227475 0.001052477216744569 0.01018034471900911 -0.0009084155220431966 -0.006480711582836526
 0.9946895642131789 -0.05122847939227475 0.004401213182719803 0.02135633865192262 -0.0009089197767140891 -0.006480697994226278 0.0010443235592203584 0.010181343027354458
 0.001052477216744569 0.01018034471900911 -0.0009089197767140891 -0.006480697994226278 0.004399596297589653 0.021355414083552994 0.994689528041638 -0.05122956291058943
 -0.0009084155220431966 -0.006480711582836526 0.0010443235592203584 0.010181343027354458 0.994689528041638 -0.05122956291058943 0.004401495065081742 0.02135523112040342
0.08753647353064001 0.004730496912911318 0.023117005063438896 0.994251995296096 -0.05526229390350398 0.001187038390687583 0.010966768621123722 -0.0010225161224518646 -0.006984679800568582
 0.994251995296096 -0.05526229390350398 0.004731961909021581 0.023116854135968982 -0.0010230991215028655 -0.006984659817991912 0.0011775786489816558 0.010967950662915624
 0.001187038390687583 0.010966768621123722 -0.0010230991215028655 -0.006984659817991912 0.004730087702732992 0.023115870038915857 0.9942519536522901 -0.055263460593051435
 -0.0010225161224518646 -0.006984679800568582 0.0011775786489816558 0.010967950662915624 0.9942519536522901 -0.055263460593051435 0.004732289217957034 0.023115659677843663
0.09378907878283 0.005077595823488696 0.024892580426159258 0.9937926524806772 -0.0593093354306922 0.001330272348884292 0.01175315976158033 -0.0011439620341957193 -0.00748884295169309
 0.9937926524806772 -0.0593093354306922 0.005079276860703987 0.024892408929882277 -0.001144629260257227 -0.0074888155098956945 0.0013194088567839452 0.011754546854938918
 0.001330272348884292 0.01175315976158033 -0.001144629260257227 -0.0074888155098956945 0.005077126379909653 0.024891367347938644 0.9937926049779847 -0.059310585284626974
 -0.0011439620341957193 -0.00748884295169309 0.0013194088567839452 0.011754546854938918 0.9937926049779847 -0.059310585284626974 0.005079653002903752 0.024891127136044036
0.100041684035 0.005441524038471111 0.026682938505446632 0.9933112643814554 -0.06336945017502736 0.0014822509751883847 0.01253939918782881 -0.0012728268893001742 -0.007993081627749558
 0.9933112643814554 -0.06336945017502736 0.005443435939261721 0.026682744910332307 -0.0012735837818862235 -0.007993045601427495 0.0014698859668516957 0.012541013909835367
 0.0014822509751883847 0.01253939918782881 -0.0012735837818862235 -0.007993045601427495 0.005440990228381394 0.02668164796718552 0.993311210632342 -0.06337078319095266
 -0.0012728268893001742 -0.007993081627749558 0.0014698859668516957 0.012541013909835367 0.993311210632342 -0.06337078319095266 0.005443864324028682 0.026681375337200903
0.1059090909091 0.0057985842512913435 0.028376215818782437 0.9928392419012267 -0.06719117993745427 0.001632882404045955 0.013276955015890952 -0.001400564259025683 -0.00846621664809268
 0.9928392419012267 -0.06719117993745427 0.005800726279314483 0.028376000056163486 -0.0014014102028832584 -0.008466171489228399 0.0016190193893622518 0.013278805009077214
 0.001632882404045955 0.013276955015890952 -0.0014014102028832584 -0.008466171489228399 0.0057979862823857205 0.028374853169152715 0.9928391819371709 -0.06719259099065436
 -0.001400564259025683 -0.00846621664809268 0.0016190193893622518 0.013278805009077214 0.9928391819371709 -0.06719259099065436 0.0058012067907871456 0.02837454768022234
0.1062942892872 0.005822557820959443 0.028487822724243925 0.9928075606199095 -0.06744247267451656 0.0016430443241431376 0.013325365055199703 -0.0014091824198152096 -0.008497274349112714
 0.9928075606199095 -0.06744247267451656 0.005824715413863684 0.02848760545698945 -0.0014100343753018294 -0.008497228552990175 0.0016290799489683528 0.013327231254146182
 0.0016430443241431376 0.013325365055199703 -0.0014100343753018294 -0.008497228552990175 0.00582195551269945 0.028486455360518578 0.9928075002356713 -0.06744388885121198
 -0.0014091824198152096 -0.008497274349112714 0.0016290799489683528 0.013327231254146182 0.9928075002356713 -0.06744388885121198 0.005825199452531802 0.028486147629415634
0.11254689453939999 0.006220971721616635 0.030306976809988877 0.9922812719751247 -0.07152822696769445 0.0018127205408240068 0.014110932719337168 -0.0015530983884848649 -0.009001297507105082
 0.9922812719751247 -0.07152822696769445 0.006223389843619669 0.0303067342534993 -0.00155405075995827 -0.009001240696014134 0.001797058879008487 0.014113075526832159
 0.0018127205408240068 0.014110932719337168 -0.00155405075995827 -0.009001240696014134 0.006220296785288982 0.030305533296265993 0.9922812045662224 -0.07152972630574557
 -0.0015530983884848649 -0.009001297507105082 0.001797058879008487 0.014113075526832159 0.9922812045662224 -0.07152972630574557 0.006223932949564072 0.030305187663738874
0.11879949979160001 0.0066370384917121515 0.03214014386441855 0.9917321305292358 -0.07562652749369997 0.001991345780794256 0.01489597481267618 -0.0017046425182710263 -0.00950502532657122
 0.9917321305292358 -0.07562652749369997 0.0066397319912432865 0.03213987435710665 -0.00170570061539349 -0.009504956195548904 0.0019738888598000385 0.014898420655520949
 0.001991345780794256 0.01489597481267618 -0.00170570061539349 -0.009504956195548904 0.006636286799495943 0.032138624916519115 0.9917320557047693 -0.07562810999667904
 -0.0017046425182710263 -0.00950502532657122 0.0019738888598000385 0.014898420655520949 0.9917320557047693 -0.07562810999667904 0.006640337579208891 0.03213823846341144
0.1250521050438 0.007071028989986376 0.03398706562830234 0.9911598698081183 -0.07973717980280208 0.002178984130930755 0.015680361313739972 -0.0018638804204940615 -0.010008329840164162
 0.9911598698081183 -0.07973717980280208 0.007074012729663239 0.03398676746329633 -0.0018650495092924564 -0.010008247024547615 0.0021596339425128154 0.01568313792547707
 0.002178984130930755 0.015680361313739972 -0.0018650495092924564 -0.010008247024547615 0.00707019641680389 0.03398547200335604 0.9911597871757208 -0.07973884547671413
 -0.0018638804204940615 -0.010008329840164162 0.0021596339425128154 0.01568313792547707 0.9911597871757208 -0.07973884547671413 0.007074684215772133 0.033985041689885837
0.131304710296 0.007523212084480006 0.03584748189166278 0.9905642249200548 -0.0838599811265447 0.002375697530374638 0.016463959606535624 -0.0020308755221560364 -0.010511080877149385
 0.9905642249200548 -0.0838599811265447 0.00752650094347172 0.03584715331595149 -0.0020321608247399784 -0.01051098295268413 0.00235435604834692 0.016467096038823237
 0.002375697530374638 0.016463959606535624 -0.0020321608247399784 -0.01051098295268413 0.007522294508226676 0.035845814390900024 0.9905641340859259 -0.08386172997775065
 -0.0020308755221560364 -0.010511080877149385 0.00235435604834692 0.016467096038823237 0.9905641340859259 -0.08386172997775065 0.007527241744913188 0.03584533705491853
0.1375573155481 0.007888625066875498 0.03747872343051257 0.9900501999541607 -0.0877522150900407 0.0025563331263283914 0.017222301367994065 -0.002180501531416064 -0.010988809228472932
 0.9900501999541607 -0.0877522150900407 0.007892235726457442 0.037478371906887895 -0.002181910853892277 -0.010988696120055305 0.0025329481034217327 0.017225792598660177
 0.0025563331263283914 0.017222301367994065 -0.002181910853892277 -0.010988696120055305 0.007887619034874447 0.03747698267140187 0.9900501005486803 -0.0877540470845189
 -0.002180501531416064 -0.010988809228472932 0.0025329481034217327 0.017225792598660177 0.9900501005486803 -0.0877540470845189 0.007893048544095914 0.03747646464613777
0.1438099208003 0.008266850852721884 0.03910164119562475 0.9895181858700186 -0.091634850049724 0.00274426858759959 0.01797772324031748 -0.0023361172771434245 -0.01146385977615716
 0.9895181858700186 -0.091634850049724 0.008270798501411497 0.03910126562260148 -0.002337656243916078 -0.011463730084869105 0.0027187502513086083 0.017981595832412937
 0.00274426858759959 0.01797772324031748 -0.002337656243916078 -0.011463730084869105 0.00826575236688032 0.03909982797861203 0.9895180775028651 -0.09163676518727445
 -0.0023361172771434245 -0.01146385977615716 0.0027187502513086083 0.017981595832412937 0.9895180775028651 -0.09163676518727445 0.00827168662378133 0.03909926674184762
0.1500625260525 0.00865776007035735 0.04071610733932857 0.988968315883143 -0.09550779747494688 0.0029394415239113766 0.01873015317268057 -0.002497662141935473 -0.011936164137458065
 0.988968315883143 -0.09550779747494688 0.008662059926351839 0.040715706551200895 -0.0024993363663916033 -0.011936016408144533 0.002911700615424449 0.018734434658593677
 0.0029394415239113766 0.01873015317268057 -0.0024993363663916033 -0.011936016408144533 0.008656565143188535 0.040714222496719216 0.9889681981631319 -0.09550979575490198
 -0.002497662141935473 -0.011936164137458065 0.002911700615424449 0.018734434658593677 0.9889681981631319 -0.09550979575490198 0.008663026634482148 0.04071361540533692
0.15631513130469998 0.009061222476364433 0.04232199790450512 0.9884007238346902 -0.09937096898609463 0.003141788835303778 0.019479520295854428 -0.0026650747867833476 -0.012405655340577205
