! Created with skrf 1.8.0 (http://scikit-rf.org).
# GHz S RI R 50.0 
!freq ReS11 ImS11 ReS12 ImS12 ReS13 ImS13
! ReS14 ImS14
! ReS21 ImS21 ReS22 ImS22 ReS23 ImS23
! ReS24 ImS24
! ReS31 ImS31 ReS32 ImS32 ReS33 ImS33
! ReS34 ImS34
! ReS41 ImS41 ReS42 ImS42 ReS43 ImS43
! ReS44 ImS44
!
0.0 0.001577675039328 0.0 0.9984223249464 0.0 6.068804869197e-05 0.0 -6.068804869162e-05 7.432142457669116e-21
 0.9984223249464 0.0 0.001577675039352 0.0 -6.068804869216e-05 7.432142457735246e-21 6.068804869183e-05 0.0
 6.068804869197e-05 0.0 -6.068804869216e-05 7.432142457735246e-21 0.001577675046456 0.0 0.9984223249535 0.0
 -6.068804869162e-05 7.432142457669116e-21 6.068804869183e-05 0.0 0.9984223249535 0.0 0.001577675046453 0.0
0.005 0.0016975011771631753 0.0012947231607011844 0.9982707367506165 -0.0033044945170636543 8.440178388790639e-05 0.0006435519263026125 -8.215245768033066e-05 -0.00040831149310268576
 0.9982707367506165 -0.0033044945170636543 0.001697504259425592 0.0012947213150187522 -8.215102153168965e-05 -0.00040831034901347643 8.440176563907642e-05 0.0006435521400878241
 8.440178388790639e-05 0.0006435519263026125 -8.215102153168965e-05 -0.00040831034901347643 0.001697502496906669 0.0012947896136591842 0.998270737114897 -0.003304427457457217
 -8.215245768033066e-05 -0.00040831149310268576 8.440176563907642e-05 0.0006435521400878241 0.998270737114897 -0.003304427457457217 0.0016975036619587872 0.0012947889756962558
0.006252605252188 0.0017289562874542468 0.0016234737503608378 0.9982306925022485 -0.004131419845862442 9.117631507472275e-05 0.0008047624485169232 -8.82183849985516e-05 -0.0005109097707145341
 0.9982306925022485 -0.004131419845862442 0.0017289611055003149 0.001623471355154649 -8.821615056436178e-05 -0.0005109083592709327 9.117628904626293e-05 0.0008047626917517019
 9.117631507472275e-05 0.0008047624485169232 -8.821615056436178e-05 -0.0005109083592709327 0.0017289582738446425 0.0016235568029709703 0.9982306929948522 -0.004131336026675464
 -8.82183849985516e-05 -0.0005109097707145341 9.117628904626293e-05 0.0008047626917517019 0.9982306929948522 -0.004131336026675464 0.0017289600939620136 0.0016235559284421815
0.01250521050438 0.0018947076313062 0.003280759013685289 0.9980182901251589 -0.008263587325875238 0.00013002557838798923 0.0016099544581104164 -0.00012266616052439836 -0.0010242539957926711
 0.9980182901251589 -0.008263587325875238 0.0018947268717218549 0.003280753310004493 -0.00012265735870297672 -0.0010242513775301056 0.00013002555117403738 0.0016099547112407122
 0.00013002557838798923 0.0016099544581104164 -0.00012265735870297672 -0.0010242513775301056 0.0018947149965296269 0.0032809247801682513 0.9980182915214032 -0.008263419915396612
 -0.00012266616052439836 -0.0010242539957926711 0.00013002555117403738 0.0016099547112407122 0.9980182915214032 -0.008263419915396612 0.0018947222527131006 0.003280922247699609
0.01875781575657 0.0020752972000208205 0.004961470165788815 0.9977848492124642 -0.012406547490975042 0.00017732784439430135 0.002416082083850884 -0.00016413789319596483 -0.001539323900238181
 0.9977848492124642 -0.012406547490975042 0.00207534044036066 0.004961460132675602 -0.00016411827029272992 -0.0015393203190407312 0.00017732796408298588 0.0024160821125248397
 0.00017732784439430135 0.002416082083850884 -0.00016411827029272992 -0.0015393203190407312 0.0020753133393840604 0.004961718375107724 0.9977848519325239 -0.01240629657419339
 -0.00016413789319596483 -0.001539323900238181 0.00017732796408298588 0.0024160821125248397 0.9977848519325239 -0.01240629657419339 0.0020753296239336217 0.004961713351764627
0.02501042100875 0.002271081903889342 0.006663256358581213 0.9975300903454031 -0.01656229931633032 0.00023317604809391227 0.003223167279340575 -0.00021273670646432543 -0.0020558888327605216
 0.9975300903454031 -0.01656229931633032 0.0022711587042503 0.0066632408669646285 -0.0002127020614430212 -0.002055884576116337 0.00023317657192022223 0.0032231668361394983
 0.00023317604809391227 0.003223167279340575 -0.0002127020614430212 -0.002055884576116337 0.002271110203260763 0.006663586730301624 0.9975300948040928 -0.01656196491329696
 -0.00021273670646432543 -0.0020558888327605216 0.00023317657192022223 0.0032231668361394983 0.9975300948040928 -0.01656196491329696 0.0022711390871681214 0.006663578331064097
0.03126302626094 0.002482403928658365 0.00838490374565404 0.9972537200613506 -0.02073169344548479 0.0002976633647200091 0.004031160780977617 -0.0002685628369219067 -0.0025737834001429566
 0.9972537200613506 -0.02073169344548479 0.002482523833791058 0.008384881557129681 -0.00026850901253122264 -0.0025737787996603346 0.0002976646556962681 0.004031159601697848
 0.0002976633647200091 0.004031160780977617 -0.00026850901253122264 -0.0025737787996603346 0.0024824477760903513 0.00838531595077493 0.9972537266793526 -0.020731275550137214
 -0.0002685628369219067 -0.0025737834001429566 0.0002976646556962681 0.004031159601697848 0.9972537266793526 -0.020731275550137214 0.0024824928085880184 0.008385303237520531
0.037515631513130004 0.002709598023827649 0.01012561776456205 0.9969554383861774 -0.024915149844689358 0.0003708823688959092 0.004839984992766976 -0.0003317143065238578 -0.003092864589246622
 0.9969554383861774 -0.024915149844689358 0.002709770563707361 0.01012558753012069 -0.00033163718471652584 -0.0030928600207765842 0.00037088489544393784 0.004839982793552185
 0.0003708823688959092 0.004839984992766976 -0.00033163718471652584 -0.0030928600207765842 0.0027096608031662167 0.010126111424594426 0.9969554475845037 -0.02491464842523219
 -0.0003317143065238578 -0.003092864589246622 0.00037088489544393784 0.004839982793552185 0.9969554475845037 -0.02491464842523219 0.0027097255114514694 0.010126093405435802
0.043768236765320004 0.0029529943090403675 0.011884804754824512 0.9966349418849422 -0.029112876111929458 0.00045292462899796336 0.00564954704031668 -0.00040228716030814694 -0.003612998718519508
 0.9966349418849422 -0.029112876111929458 0.0029532289983939847 0.011884765013559317 -0.00040218265950894323 -0.003612994602144888 0.0004529289656805365 0.005649543515087125
 0.00045292462899796336 0.00564954704031668 -0.00040218265950894323 -0.003612994602144888 0.0029530794026933703 0.011885379430356764 0.9966349540885415 -0.029112291121604066
 -0.00040228716030814694 -0.003612998718519508 0.0004529289656805365 0.005649543515087125 0.9966349540885415 -0.029112291121604066 0.0029531672912098844 0.011885355059282796
0.050020842017509996 0.0032129195790760712 0.013661981679768996 0.9962919252152764 -0.033324957680351264 0.0005438804604975131 0.006459744149011921 -0.00048037554393489935 -0.004134056067234626
 0.9962919252152764 -0.033324957680351264 0.0032132259167956135 0.01366193085769315 -0.00048023961733290835 -0.004134052867261883 0.000543887289271824 0.006459738966885295
 0.0005438804604975131 0.006459744149011921 -0.00048023961733290835 -0.004134052867261883 0.003213030366404744 0.013662636877059356 0.9962919408529948 -0.03332428905019312
 -0.00048037554393489935 -0.004134056067234626 0.000543887289271824 0.006459738966885295 0.9962919408529948 -0.03332428905019312 0.0032131449158278942 0.013662605053471659
0.055454545454549996 0.003452477871397724 0.015220687492184868 0.9959753063044349 -0.036997049739029654 0.0006302318124613209 0.007164260441520648 -0.0005544119436303839 -0.004587520727404609
 0.9959753063044349 -0.036997049739029654 0.003452854174939475 0.015220625673617691 -0.0005542454466227518 -0.004587518735200736 0.0006302414456753578 0.007164253529625867
 0.0006302318124613209 0.007164260441520648 -0.0005542454466227518 -0.004587518735200736 0.0034526137296684773 0.015221412217147047 0.9959753252785293 -0.03699630835465954
 -0.0005544119436303839 -0.004587520727404609 0.0006302414456753578 0.007164253529625867 0.9959753252785293 -0.03699630835465954 0.0034527542561168657 0.01522137298068445
0.056273447269699996 0.003489697967716523 0.015456731826369976 0.9959260820439245 -0.03755140204511251 0.000643838745057804 0.007270466301836109 -0.0005660717136859231 -0.00465590822828279
 0.9959260820439245 -0.03755140204511251 0.003490085435832381 0.015456668235295803 -0.0005659003480103135 -0.004655906453197218 0.0006438488572463555 0.007270459104602862
 0.000643838745057804 0.007270466301836109 -0.0005659003480103135 -0.004655906453197218 0.0034898378254682567 0.015457466992477568 0.9959261015495697 -0.037550649688260995
 -0.0005660717136859231 -0.00465590822828279 0.0006438488572463555 0.007270459104602862 0.9959261015495697 -0.037550649688260995 0.0034899824921393297 0.015457426560934602
0.06252605252188 0.0037836513025392296 0.01726868045353646 0.9955371056572503 -0.04179216304499757 0.0007528867858333234 0.008081597686606306 -0.0006594660087846963 -0.00517842667552456
 0.9955371056572503 -0.04179216304499757 0.003784129365089761 0.017268602289835996 -0.0006592552235507136 -0.005178426877926735 0.0007529010839470441 0.008081588086130145
 0.0007528867858333234 0.008081597686606306 -0.0006592552235507136 -0.005178426877926735 0.003783823602493939 0.01726949497665446 0.9955371294691807 -0.041791326855758
 -0.0006594660087846963 -0.00517842667552456 0.0007529010839470441 0.008081588086130145 0.9955371294691807 -0.041791326855758 0.0037840018170440153 0.01726944472652451
0.06877865777407 0.004095099284577666 0.019097480271653727 0.9951246894020092 -0.04604715531689096 0.0008711101797763389 0.00889301757548181 -0.0007606468047549771 -0.00570148190321134
 0.9951246894020092 -0.04604715531689096 0.0040956773862853455 0.019097385615138053 -0.0007603926516894264 -0.005701484679763692 0.0008711296797973176 0.00889300515105558
 0.0008711101797763389 0.00889301757548181 -0.0007603926516894264 -0.005701484679763692 0.004095307394609838 0.01909837347398027 0.9951247179649977 -0.0460462351772013
 -0.0007606468047549771 -0.00570148190321134 0.0008711296797973176 0.00889300515105558 0.9951247179649977 -0.0460462351772013 0.004095522561036192 0.019098312139237916
0.07503126302626001 0.004424359571892038 0.020942802229830026 0.994688527033012 -0.05031626344716678 0.000998592702391588 0.009704600883537194 -0.0008697004527487573 -0.006224942891065328
 0.994688527033012 -0.05031626344716678 0.004425047136620657 0.020942689042701183 -0.0008693990154272787 -0.006224948882426938 0.000998618536180211 0.009704585179167117
 0.000998592702391588 0.009704600883537194 -0.0008693990154272787 -0.006224948882426938 0.004424606853616115 0.020943773380442038 0.9946885607979676 -0.05031525921329069
 -0.0008697004527487573 -0.006224942891065328 0.000998618536180211 0.009704585179167117 0.9946885607979676 -0.05031525921329069 0.004424862348013642 0.020943699639442082
0.08128386827845 0.004771747794928107 0.02280432940270566 0.99422831299735 -0.054599348029078065 0.0011354161990030215 0.010516218540239762 -0.0009867112109893284 -0.006748676761375809
 0.99422831299735 -0.054599348029078065 0.004772554224118734 0.022804195528359245 -0.000986358604552146 -0.0067486866521309415 0.001135449616618193 0.010516199061853913
 0.0011354161990030215 0.010516218540239762 -0.000986358604552146 -0.0067486866521309415 0.004772037603532243 0.0228053777009532 0.9942283524225218 -0.054598259547595326
 -0.0009867112109893284 -0.006748676761375809 0.001135449616618193 0.010516199061853913 0.9942283524225218 -0.054598259547595326 0.0047723367732977915 0.022805290176190905
0.08753647353064001 0.005137577532973837 0.024681752747024645 0.9937437426835085 -0.058896249855719784 0.0012816604798255955 0.011327737762843128 -0.001111761170705722 -0.0072725485393260215
 0.9937437426835085 -0.058896249855719784 0.005138512204238686 0.02468159590904207 -0.001111353541774771 -0.0072725630579153645 0.0012817028521141345 0.011327713975428096
 0.0012816604798255955 0.011327737762843128 -0.001111353541774771 -0.0072725630579153645 0.005137913216118381 0.024682877331227912 0.9937437882345292 -0.05889507695440836
 -0.001111761170705722 -0.0072725485393260215 0.0012817028521141345 0.011327713975428096 0.9937437882345292 -0.05889507695440836 0.005138259378455178 0.024682774589134086
0.09378907878283 0.00552216025907069 0.026574768085851682 0.9932345126416959 -0.06320679289146959 0.0014374032188333497 0.012139022250435023 -0.00124493017722739 -0.00779642099791987
 0.9932345126416959 -0.06320679289146959 0.005523232524143306 0.026574585886916836 -0.0012444637038051018 -0.007796440916554022 0.0014374560400176597 0.012138993575106937
 0.0014374032188333497 0.012139022250435023 -0.0012444637038051018 -0.007796440916554022 0.005522545155840972 0.026575968030002013 0.9932345647927713 -0.06320553538209558
 -0.00124493017722739 -0.00779642099791987 0.0014374560400176597 0.012138993575106937 0.9932345647927713 -0.06320553538209558 0.005522941596586914 0.026575848580864165
0.100041684035 0.005925805264846943 0.028483073891463682 0.9927003207895683 -0.06753078645090514 0.0016027198539512795 0.01294993233795464 -0.001386295748467572 -0.00832015454852437
 0.9927003207895683 -0.06753078645090514 0.005927024448001609 0.028482863812345778 -0.0013857666399569642 -0.00832018068310905 0.00160278474438436 0.012949898148860628
 0.0016027198539512795 0.01294993233795464 -0.0013857666399569642 -0.00832018068310905 0.005926242704973118 0.028484348204957648 0.9927003800238028 -0.06752944412910665
 -0.001386295748467572 -0.00832015454852437 0.00160278474438436 0.012949898148860628 0.9927003800238028 -0.06752944412910665 0.005926692677380858 0.028484210502708572
0.1059090909091 0.006322193746135052 0.030287455271152994 0.9921760681788767 -0.07160044760361549 0.0017666244862412578 0.013710417677623096 -0.001526473965414907 -0.008811370120978155
 0.9921760681788767 -0.07160044760361549 0.006323559250477099 0.030287216628742803 -0.0015258826610332966 -0.008811402869462989 0.0017667022906225295 0.013710377700713195
 0.0017666244862412578 0.013710417677623096 -0.0015258826610332966 -0.008811402869462989 0.006322683511473444 0.030288798414540893 0.9921761345080041 -0.07159902549310984
 -0.001526473965414907 -0.008811370120978155 0.0017667022906225295 0.013710377700713195 0.9921761345080041 -0.07159902549310984 0.0063231866462650065 0.030288642127292955
0.1062942892872 0.006348819569730837 0.03040636961944362 0.9921408666037285 -0.07186802683314132 0.001777683488946901 0.013760325119192406 -0.0015359329909611222 -0.008843607167825764
 0.9921408666037285 -0.07186802683314132 0.006350194965885886 0.030406129017996907 -0.0015353374882293544 -0.00884364037785728 0.0017777621976309778 0.013760284740450815
 0.001777683488946901 0.013760325119192406 -0.0015353374882293544 -0.00884364037785728 0.006349312872280223 0.030407717248714307 0.9921409334139998 -0.07186659947637308
 -0.0015359329909611222 -0.008843607167825764 0.0017777621976309778 0.013760284740450815 0.9921409334139998 -0.07186659947637308 0.006349819595667652 0.030407559690875517
0.11254689453939999 0.0067915078178588445 0.03234435444629658 0.9915558513040393 -0.07621829855908903 0.0019623647961914074 0.01457005454879572 -0.0016939145139543757 -0.009366634351716628
 0.9915558513040393 -0.07621829855908903 0.006793048690518922 0.0323440805564728 -0.0016932488893879223 -0.009366675540210563 0.001962459203652585 0.014570007251209173
 0.0019623647961914074 0.01457005454879572 -0.0016932488893879223 -0.009366675540210563 0.006792060290273461 0.03234577426957399 0.9915559261936788 -0.07621678593161993
 -0.0016939145139543757 -0.009366634351716628 0.001962459203652585 0.014570007251209173 0.9915559261936788 -0.07621678593161993 0.006792626948957888 0.03234559519704674
0.11879949979160001 0.007254172165885984 0.0342967262783083 0.9909449780307925 -0.08058137534470952 0.002156831920002211 0.015378971530517838 -0.00186031034248029 -0.009889089088606817
 0.9909449780307925 -0.08058137534470952 0.007255887745312547 0.03429641620920829 -0.0018595709001437294 -0.009889139201981298 0.002156944041017643 0.015378916528307028
 0.002156831920002211 0.015378971530517838 -0.0018595709001437294 -0.009889139201981298 0.007254787102761373 0.03429821711059441 0.9909450615139992 -0.08057977719227251
 -0.00186031034248029 -0.009889089088606817 0.002156944041017643 0.015378916528307028 0.9909450615139992 -0.08057977719227251 0.007255416844313127 0.03429801480769648
0.1250521050438 0.007737112163204202 0.03626318097860549 0.9903079520178345 -0.08495702086290988 0.0023611503809843237 0.016186923996973135 -0.0020351878288749456 -0.010410821847313819
 0.9903079520178345 -0.08495702086290988 0.007739011644221674 0.03626283171352454 -0.0020343709046703067 -0.010410881875282347 0.0023612823674380025 0.016186860444332072
 0.0023611503809843237 0.016186923996973135 -0.0020343709046703067 -0.010410881875282347 0.007737792845439223 0.03626474156733345 0.9903080446207012 -0.08495533691682965
 -0.0020351878288749456 -0.010410821847313819 0.0023612823674380025 0.016186860444332072 0.9903080446207012 -0.08495533691682965 0.007738488779649681 0.03626451426171057
0.131304710296 0.008240624626489773 0.03824341174749704 0.9896444807626259 -0.08934498935971093 0.0025753829805516214 0.016993756983803045 -0.002218611563995496 -0.010931680576457293
 0.9896444807626259 -0.08934498935971093 0.00824271716637067 0.03824302014308956 -0.0022177135258683654 -0.0109317515519258 0.0025755371241723505 0.016993683971396917
 0.0025753829805516214 0.016993756983803045 -0.0022177135258683654 -0.0109317515519258 0.008241374319855188 0.03824504077427941 0.9896445830234297 -0.08934321933489434
 -0.002218611563995496 -0.010931680576457293 0.0025755371241723505 0.016993683971396917 0.9896445830234297 -0.08934321933489434 0.008242139517007427 0.0382447866368669
0.1375573155481 0.008650676422839502 0.03998024621228428 0.98906864864499 -0.09348804311489897 0.0027727393073162746 0.0177740921538786 -0.0023837928773480037 -0.011426306693267687
 0.98906864864499 -0.09348804311489897 0.008652970587174832 0.03997981779034071 -0.002382808216253654 -0.011426388720981354 0.0027729092977073154 0.0177740099517528
 0.0027727393073162746 0.0177740921538786 -0.002382808216253654 -0.011426388720981354 0.008651497678007998 0.03998194271326618 0.9890687610106467 -0.09348618685099641
 -0.0023837928773480037 -0.011426306693267687 0.0027729092977073154 0.0177740099517528 0.9890687610106467 -0.09348618685099641 0.008652336208259058 0.03998166807221906
0.1438099208003 0.009075211024076173 0.041707768827118324 0.9884724788109294 -0.09762040251593884 0.0029780497178591094 0.01855110871845945 -0.002555564201863282 -0.011917870958370335
 0.9884724788109294 -0.09762040251593884 0.00907771580121226 0.041707301127305 -0.0025544889940586945 -0.011917965059961115 0.002978236496724917 0.01855101660239839
 0.0029780497178591094 0.01855110871845945 -0.0025544889940586945 -0.011917965059961115 0.009076106957282396 0.041709531462296355 0.9884726018186485 -0.09761845973821759
 -0.002555564201863282 -0.011917870958370335 0.002978236496724917 0.01855101660239839 0.9884726018186485 -0.09761845973821759 0.00907702200539336 0.04170923515686563
0.1500625260525 0.009514076556681263 0.04342582960484616 0.9878561273774489 -0.10174195885033652 0.0031912411171240887 0.019324722699815965 -0.0027338542480303545 -0.012406293734941716
 0.9878561273774489 -0.10174195885033652 0.009516800891234014 0.043425320066460535 -0.002732684578004317 -0.012406400973221645 0.0031914456611072967 0.019324619914297375
 0.0031912411171240887 0.019324722699815965 -0.002732684578004317 -0.012406400973221645 0.009515050261599848 0.043427656984803484 0.987856261575072 -0.10173992927059233
 -0.0027338542480303545 -0.012406293734941716 0.0031914456611072967 0.019324619914297375 0.987856261575072 -0.10173992927059233 0.009516044984949257 0.04342733780557124
0.15631513130469998 0.009967120043490199 0.045134283060436806 0.9872197512839 -0.1058526039133988 0.0034122395256056546 0.020094851598851375 -0.0029185908316076052 -0.012891497099338184
 0.9872197512839 -0.1058526039133988 0.009970072835699688 0.04513372902319119 -0.002917322792250345 -0.012891618578145728 0.0034124628483852815 0.02009473735605759
