! Created with skrf 1.8.0 (http://scikit-rf.org).
# GHz S RI R 50.0 
!freq ReS11 ImS11 ReS12 ImS12 ReS13 ImS13
! ReS14 ImS14
! ReS21 ImS21 ReS22 ImS22 ReS23 ImS23
! ReS24 ImS24
! ReS31 ImS31 ReS32 ImS32 ReS33 ImS33
! ReS34 ImS34
! ReS41 ImS41 ReS42 ImS42 ReS43 ImS43
! ReS44 ImS44
!
0.0 0.001277231894734 0.0 0.9987227680968 0.0 4.860119230547e-05 0.0 -4.86011925501e-05 5.951929489122416e-21
 0.9987227680968 0.0 0.001277231894719 0.0 -4.860119255002e-05 5.9519294891126184e-21 4.860119230614e-05 0.0
 4.860119230547e-05 0.0 -4.860119255002e-05 5.9519294891126184e-21 0.001277231898986 0.0 0.998722768101 0.0
 -4.86011925501e-05 5.951929489122416e-21 4.860119230614e-05 0.0 0.998722768101 0.0 0.001277231898975 0.0
0.005 0.0013734898496643496 0.001049357119908328 0.9986010965202409 -0.002676071581493235 6.716002055276358e-05 0.0005112443647418192 -6.538545976671523e-05 -0.0003252535696714306
 0.9986010965202409 -0.002676071581493235 0.0013735132451947207 0.001049343424462581 -6.538456674829888e-05 -0.0003252528461731728 6.700979000243045e-05 0.0005113012918100414
 6.716002055276358e-05 0.0005112443647418192 -6.538456674829888e-05 -0.0003252528461731728 0.0013734908368185155 0.0010494237563604472 0.9986010968500485 -0.0026760045212915052
 -6.538545976671523e-05 -0.0003252535696714306 6.700979000243045e-05 0.0005113012918100414 0.9986010968500485 -0.0026760045212915052 0.0013735129129273111 0.0010494109044030197
0.006252605252188 0.0013985412005289755 0.0013158326026821 0.9985692608684419 -0.0033457718789484145 7.236942494316613e-05 0.000639325286013131 -7.003408974191953e-05 -0.0004069925767021891
 0.9985692608684419 -0.0033457718789484145 0.0013985777726241973 0.0013158152566848298 -7.003270041287957e-05 -0.00040699168355274934 7.21346978772684e-05 0.0006393991806792417
 7.236942494316613e-05 0.000639325286013131 -7.003270041287957e-05 -0.00040699168355274934 0.0013985426781876569 0.0013159158805306729 0.9985692613181636 -0.0033456880649772825
 -7.003408974191953e-05 -0.0004069925767021891 7.21346978772684e-05 0.0006393991806792417 0.9985692613181636 -0.0033456880649772825 0.0013985771870131274 0.001315899597800617
0.01250521050438 0.0015292865797861008 0.0026593649581081813 0.9984021474202412 -0.006692498235838185 0.00010175350557278806 0.0012791325494416292 -9.592551918063998e-05 -0.0008160513692227977
 0.9984021474202412 -0.006692498235838185 0.001529432618276405 0.0026593279831974297 -9.59200471340179e-05 -0.0008160497040846334 0.0001008173223114608 0.0012793094999196857
 0.00010175350557278806 0.0012791325494416292 -9.59200471340179e-05 -0.0008160497040846334 0.0015292919218755456 0.002659531201597343 0.9984021486539374 -0.0066923308372469495
 -9.592551918063998e-05 -0.0008160513692227977 0.0001008173223114608 0.0012793094999196857 0.9984021486539374 -0.0066923308372469495 0.001529429710283607 0.0026594964528518813
0.01875781575657 0.0016697136282953751 0.004022231512836322 0.9982212487198637 -0.010048359865170092 0.0001368147487849975 0.0019198441077261305 -0.0001263461412171657 -0.0012266441525619696
 0.9982212487198637 -0.010048359865170092 0.0016700417890143507 0.004022172446207951 -0.0001263339425076957 -0.0012266418552736324 0.00013471136478784674 0.0019201581809651683
 0.0001368147487849975 0.0019198441077261305 -0.0001263339425076957 -0.0012266418552736324 0.0016697252233237973 0.004022480513463212 0.998221251076229 -0.010048108957261678
 -0.0001263461412171657 -0.0012266441525619696 0.00013471136478784674 0.0019201581809651683 0.998221251076229 -0.010048108957261678 0.0016700348227608628 0.004022424969792701
0.02501042100875 0.0018200626978139005 0.005402574851843142 0.9980263798082051 -0.013415023330227347 0.00017761585352605688 0.0025615024813320335 -0.00016136505389365002 -0.001638615394813221
 0.9980263798082051 -0.013415023330227347 0.0018206454909051105 0.0054024910793474675 -0.00016134351717159607 -0.0016386126266888091 0.00017387910466480104 0.0025619924510848634
 0.00017761585352605688 0.0025615024813320335 -0.00016134351717159607 -0.0016386126266888091 0.001820082928461505 0.005402906384947142 0.9980263836212123 -0.013414688954781623
 -0.00016136505389365002 -0.001638615394813221 0.00017387910466480104 0.0025619924510848634 0.9980263836212123 -0.013414688954781623 0.001820632719588389 0.0054028275986826935
0.03126302626094 0.0019805639445927264 0.006799459843044533 0.9978173449381016 -0.016793226798449565 0.0002242203004569258 0.003204094910588746 -0.0002010498387994054 -0.0020518616266751977
 0.9978173449381016 -0.016793226798449565 0.0019814737720594 0.006799348605217471 -0.0002010163796522824 -0.002051858570863758 0.00021838315524049914 0.0032048042843181887
 0.0002242203004569258 0.003204094910588746 -0.0002010163796522824 -0.002051858570863758 0.0019805951957374652 0.006799873666732375 0.997817350545041 -0.016792808964526187
 -0.0002010498387994054 -0.0020518616266751977 0.00021838315524049914 0.0032048042843181887 0.997817350545041 -0.016792808964526187 0.00198145344416787 0.006799769077646671
0.037515631513130004 0.0021514427375372656 0.008212292469646894 0.9975939430832288 -0.020183361160685677 0.0002766916941176965 0.0038475870587668347 -0.0002454670276900987 -0.0024662977175769004
 0.9975939430832288 -0.020183361160685677 0.0021527519166033506 0.008212150865087142 -0.00024541908564591606 -0.00246629457916136 0.00026828604154011023 0.0038485641274307097
 0.0002766916941176965 0.0038475870587668347 -0.00024541908564591606 -0.00246629457916136 0.002151487394971093 0.008212788314661996 0.9975939508238606 -0.020182859854398442
 -0.0002454670276900987 -0.0024662977175769004 0.00026828604154011023 0.0038485641274307097 0.9975939508238606 -0.020182859854398442 0.002152722274436381 0.008212655253604968
0.043768236765320004 0.0023329217531560145 0.00964064297259105 0.9973559701392931 -0.023585646833499552 0.0003350934646525986 0.004491933259467382 -0.00029468227690427853 -0.0028818466138748723
 0.9973559701392931 -0.023585646833499552 0.002334702534475755 0.009640467960175966 -0.0002946173136195941 -0.002881843619893571 0.0003236500027016485 0.004493231154393721
 0.0003350934646525986 0.004491933259467382 -0.0002946173136195941 -0.002881843619893571 0.0023329822004241147 0.009641220533298925 0.9973559803533267 -0.023585062026572887
 -0.00029468227690427853 -0.0028818466138748723 0.0003236500027016485 0.004493231154393721 0.9973559803533267 -0.023585062026572887 0.0023346618109548263 0.009641056224912375
0.050020842017509996 0.0025252219528899824 0.011084172743218003 0.997103220009363 -0.02700020680893826 0.0003994886943709032 0.00513708074867463 -0.0003487604400187367 -0.0032984350945894384
 0.997103220009363 -0.02700020680893826 0.0025275465358021464 0.011083961143784741 -0.0003486759381557027 -0.003298432494035168 0.00038453687134856084 0.0051387575014816425
 0.0003994886943709032 0.00513708074867463 -0.0003486759381557027 -0.003298432494035168 0.0025253005747950205 0.011084831675214533 0.9971032330404497 -0.026999538460672386
 -0.0003487604400187367 -0.0032984350945894384 0.00038453687134856084 0.0051387575014816425 0.9971032330404497 -0.026999538460672386 0.0025274929573453966 0.011084633240084883
0.055454545454549996 0.0027012954848993323 0.01235075024437873 0.9968714105097516 -0.029977579941765146 0.00046036616855656565 0.005698339425129699 -0.00039975506593405293 -0.0036612518542230724
 0.9968714105097516 -0.029977579941765146 0.0027041512527855582 0.012350504161645725 -0.0003996515557025175 -0.003661249814833623 0.00044198233711963646 0.005700396397668019
 0.00046036616855656565 0.005698339425129699 -0.0003996515557025175 -0.003661249814833623 0.0027013918366293253 0.012351479582137654 0.9968714262695108 -0.0299768389490623
 -0.00039975506593405293 -0.0036612518542230724 0.00044198233711963646 0.005700396397668019 0.9968714262695108 -0.0299768389490623 0.0027040850559424587 0.012351249071886087
0.056273447269699996 0.0027285631031325787 0.012542598458494113 0.9968354852349985 -0.030427102461318235 0.0004699400029449711 0.00578297172932613 -0.0004077655912989444 -0.003715991696270965
 0.9968354852349985 -0.030427102461318235 0.0027315036490881887 0.012542346956149286 -0.0004076590536290972 -0.0037159897600904566 0.0004510079909335581 0.005785090333314687
 0.0004699400029449711 0.00578297172932613 -0.0004076590536290972 -0.0037159897600904566 0.002728662282881991 0.012543338382649477 0.9968355014287759 -0.0304263505141179
 -0.0004077655912989444 -0.003715991696270965 0.0004510079909335581 0.005785090333314687 0.9968355014287759 -0.0304263505141179 0.0027314354334641027 0.012543102839033428
0.06252605252188 0.002943164061812275 0.014015672348466948 0.9965525573964571 -0.033866353222359084 0.0005465094590097403 0.006429544514116853 -0.0004717610273291993 -0.004134445561232101
 0.9965525573964571 -0.033866353222359084 0.0029467927068324747 0.014015377491495805 -0.0004716299761271324 -0.004134444582296077 0.0005231241479411556 0.006432172986412444
 0.0005465094590097403 0.006429544514116853 -0.0004716299761271324 -0.004134444582296077 0.002943286181250433 0.014016492845325922 0.9965525771019387 -0.03386551760688155
 -0.0004717610273291993 -0.004134445561232101 0.0005231241479411556 0.006432172986412444 0.9965525771019387 -0.03386551760688155 0.002946708063622644 0.014016217110587507
0.06877865777407 0.003169242943503095 0.015503170438370644 0.9962542273938706 -0.037317948282562616 0.0006292585085320846 0.00707673419535103 -0.0005408092536733885 -0.004553725760324867
 0.9962542273938706 -0.037317948282562616 0.0031736318104368 0.015502828639858806 -0.0005406512303124636 -0.004553726053415304 0.0006009455151240041 0.007079945639428167
 0.0006292585085320846 0.00707673419535103 -0.0005406512303124636 -0.004553726053415304 0.00316939038307469 0.015504071049917427 0.9962542509637151 -0.0373170289156014
 -0.0005408092536733885 -0.004553725760324867 0.0006009455151240041 0.007079945639428167 0.9962542509637151 -0.0373170289156014 0.0031735289408908293 0.01550375194157809
0.07503126302626001 0.0034070172125940093 0.01700488509109999 0.9959402856582504 -0.040781853993763724 0.0007182479112183058 0.007724473077687395 -0.0006149719647069316 -0.004973760854554259
 0.9959402856582504 -0.040781853993763724 0.003412238422276701 0.017004492629246498 -0.0006147845292809371 -0.004973762756341125 0.0006845315982925401 0.007728345745995155
 0.0007182479112183058 0.007724473077687395 -0.0006147845292809371 -0.004973762756341125 0.0034071923495547418 0.017005865320945068 0.9959403134486059 -0.040780850777581895
 -0.0006149719647069316 -0.004973760854554259 0.0006845315982925401 0.007728345745995155 0.9959403134486059 -0.040780850777581895 0.0034121155182894373 0.017005499557559662
0.08128386827845 0.003656703729160933 0.018520620042485274 0.9956105223184335 -0.04425801878024771 0.000813537683818686 0.008372690954851002 -0.0006943100161285926 -0.005394478614505017
 0.9956105223184335 -0.04425801878024771 0.0036628294123388825 0.018520173060618886 -0.0006940907472355625 -0.0053944824835173094 0.0007739411885879586 0.00837730831137845
 0.000813537683818686 0.008372690954851002 -0.0006940907472355625 -0.0053944824835173094 0.0036569089380981815 0.018521679353886142 0.9956105546895904 -0.04425693160422418
 -0.0006943100161285926 -0.005394478614505017 0.0007739411885879586 0.00837730831137845 0.9956105546895904 -0.04425693160422418 0.0036626846569300982 0.01852126355548933
0.08753647353064001 0.00391851876645033 0.020050186972446135 0.995264727340383 -0.04774637651596496 0.0009151870462032617 0.009021315312959632 -0.0007788833951739933 -0.0058158058149659925
 0.995264727340383 -0.04774637651596496 0.003925621074757364 0.02004968147875732 -0.0007786298896998528 -0.005815812031567976 0.0008692323146237024 0.009026766095644276
 0.0009151870462032617 0.009021315312959632 -0.0007786298896998528 -0.005815812031567976 0.003918756418310953 0.020051324785734233 0.9952647646576745 -0.04774520525875038
 -0.0007788833951739933 -0.0058158058149659925 0.0008692323146237024 0.009026766095644276 0.9952647646576745 -0.04774520525875038 0.003925452641866104 0.02005085547410322
0.09378907878283 0.004192678007927008 0.02159340303953925 0.9949026906500388 -0.05124684894008647 0.001023254370509893 0.009670271464866275 -0.0008687511868494388 -0.006237668100484536
 0.9949026906500388 -0.05124684894008647 0.004200829125144063 0.02159283490654724 -0.0008684610598532338 -0.006237677066849368 0.0009704621974275579 0.009676649747710382
 0.001023254370509893 0.009670271464866275 -0.0008684610598532338 -0.006237677066849368 0.004192950469480965 0.021594618733362835 0.9949027332835954 -0.05124559346804148
 -0.0008687511868494388 -0.006237668100484536 0.0009704621974275579 0.009676649747710382 0.9949027332835954 -0.05124559346804148 0.004200635179142763 0.021594092331893664
0.100041684035 0.004479396528469925 0.0231500890867112 0.9945242022406705 -0.054759347403523145 0.0011377971313398369 0.010319482657745828 -0.0009639715387714132 -0.006659989879628458
 0.9945242022406705 -0.054759347403523145 0.004488668681805439 0.02314945405031766 -0.0009636424233406865 -0.006660002019707539 0.0010776872052908535 0.010326887912581482
 0.0011377971313398369 0.010319482657745828 -0.0009636424233406865 -0.006660002019707539 0.004479706161384486 0.023151381999623803 0.9945242505662218 -0.054758007568773956
 -0.0009639715387714132 -0.006659989879628458 0.0010776872052908535 0.010326887912581482 0.9945242505662218 -0.054758007568773956 0.004488447377503901 0.023150794832911544
0.1059090909091 0.004760065003886648 0.024622967090335485 0.9941538814312343 -0.058066305276072344 0.001251223069238354 0.01092886034604851 -0.00105824477650962 -0.007056643496585732
 0.9941538814312343 -0.058066305276072344 0.00477045486921685 0.024622265271332006 -0.0010578769379373434 -0.007056659019812904 0.001183808427465104 0.010937324635945185
 0.001251223069238354 0.01092886034604851 -0.0010578769379373434 -0.007056659019812904 0.004760411661147661 0.02462433182600613 0.9941539354447244 -0.058064886130307435
 -0.00105824477650962 -0.007056643496585732 0.001183808427465104 0.010937324635945185 0.9941539354447244 -0.058064886130307435 0.004770206204911841 0.0246236842061943
0.1062942892872 0.004778888765756467 0.024720068285142595 0.9941290522740333 -0.05828377417951678 0.0012588718573153916 0.010968870150350214 -0.001064601624055155 -0.007082694251607369
 0.9941290522740333 -0.05828377417951678 0.00478935423722436 0.024719361943489268 -0.00106423117129863 -0.007082710011101318 0.0011909628091537128 0.01097740730820006
 0.0012588718573153916 0.010968870150350214 -0.00106423117129863 -0.007082710011101318 0.004779237926243241 0.024721437712299097 0.9941291066729572 -0.0582823498229771
 -0.001064601624055155 -0.007082694251607369 0.0011909628091537128 0.01097740730820006 0.9941291066729572 -0.0582823498229771 0.00478910371942466 0.024720786005436434
0.11254689453939999 0.00509136848239752 0.02630316508873326 0.9937170311733864 -0.061820023465805805 0.0013865340833530485 0.011618353275857097 -0.0011706976027106553 -0.007505702949433695
 0.9937170311733864 -0.061820023465805805 0.005103099620094659 0.026302382900591868 -0.0011702834816695786 -0.007505722795755944 0.0013103435386821957 0.011628132787753345
 0.0013865340833530485 0.011618353275857097 -0.0011702834816695786 -0.007505722795755944 0.00509175952023676 0.026304610284451347 0.9937170920332751 -0.06181851441424167
 -0.0011706976027106553 -0.007505702949433695 0.0013103435386821957 0.011628132787753345 0.9937170920332751 -0.06181851441424167 0.005102818023485842 0.02630389016196656
0.11879949979160001 0.0054170487227588925 0.027899204428903025 0.9932879297133083 -0.06536798214880324 0.0015208383031970491 0.01226784949077845 -0.0012823145822804954 -0.007928936299090694
 0.9932879297133083 -0.06536798214880324 0.005430117951992257 0.027898341711935563 -0.0012818544799037632 -0.007928960721344348 0.0014358829378230851 0.012278987388107926
 0.0015208383031970491 0.01226784949077845 -0.0012818544799037632 -0.007928960721344348 0.005417483980779601 0.027900724602598122 0.9932879974285397 -0.06536638821873275
 -0.0012823145822804954 -0.007928936299090694 0.0014358829378230851 0.012278987388107926 0.9932879974285397 -0.06536638821873275 0.005429803401186772 0.02789993208705556
0.1250521050438 0.005756141763491426 0.029508011067590316 0.9928415391059023 -0.06892753041217334 0.0016618379224014605 0.012917274416900394 -0.0013995065771574848 -0.008352313187957426
 0.9928415391059023 -0.06892753041217334 0.00577062159891409 0.029507062996013113 -0.001398998198340109 -0.008352342696881756 0.0015676335209039187 0.012929892371112426
 0.0016618379224014605 0.012917274416900394 -0.001398998198340109 -0.008352342696881756 0.005756623576779936 0.029509605386741765 0.992841614077843 -0.06892585140655995
 -0.0013995065771574848 -0.008352313187957426 0.0015676335209039187 0.012929892371112426 0.992841614077843 -0.06892585140655995 0.005770272207819359 0.029508736396971103
0.131304710296 0.006108859060759508 0.03112940908000701 0.9923776510847501 -0.07249854221807024 0.0018095852115345417 0.01356654187571358 -0.001522326467399055 -0.00877575104293227
 0.9923776510847501 -0.07249854221807024 0.006124822117399228 0.031128370682107394 -0.0015217675349709148 -0.008775786170878678 0.0017056467282283013 0.013580767257376712
 0.0018095852115345417 0.01356654187571358 -0.0015217675349709148 -0.008775786170878678 0.0061093897558474495 0.03113107666874172 0.9923777337221873 -0.07249677792756248
 -0.001522326467399055 -0.00877575104293227 0.0017056467282283013 0.013580767257376712 0.9923777337221873 -0.07249677792756248 0.006124435989157508 0.031130127017738454
0.1375573155481 0.0063881119672446205 0.03255234194143856 0.991983378904016 -0.07586995015345499 0.0019441866729991927 0.014194237526925285 -0.001631008918831091 -0.009177762669908697
 0.991983378904016 -0.07586995015345499 0.006405635902071902 0.032551228735099635 -0.0016303959745202457 -0.009177803378768484 0.0018302799689492479 0.014210035223209851
 0.0019441866729991927 0.014194237526925285 -0.0016303959745202457 -0.009177803378768484 0.006388693246307814 0.03255408220042286 0.9919834695550034 -0.07586810046085427
 -0.001631008918831091 -0.009177762669908697 0.0018302799689492479 0.014210035223209851 0.9919834695550034 -0.07586810046085427 0.006405211870690892 0.032553067784145726
0.1438099208003 0.006676969948862768 0.03396883588097542 0.991575638986692 -0.079233859486427 0.002084234250927146 0.01481988876398139 -0.0017440422753849 -0.009577946397930305
 0.991575638986692 -0.079233859486427 0.006696128292034084 0.033967644095545105 -0.0017433728549448883 -0.009577993205522868 0.0019599185423183198 0.014837373726257158
 0.002084234250927146 0.01481988876398139 -0.0017433728549448883 -0.009577993205522868 0.006677604013035978 0.03397064792290396 0.9915757380583844 -0.07923192418911384
 -0.0017440422753849 -0.009577946397930305 0.0019599185423183198 0.014837373726257158 0.9915757380583844 -0.07923192418911384 0.006695664578010269 0.033969565734554424
0.1500625260525 0.006975344080767765 0.03537880360472756 0.9911545232399416 -0.08259021791387758 0.0022296873078516007 0.015443448375391945 -0.0018613879895535497 -0.009976258797317825
 0.9911545232399416 -0.08259021791387758 0.006996210490768395 0.0353775292525723 -0.0018606596316741626 -0.009976312242236166 0.002094523946176065 0.01546273970885916
 0.0022296873078516007 0.015443448375391945 -0.0018606596316741626 -0.009976312242236166 0.006976033115655597 0.035380686511321785 0.9911546311459638 -0.08258819679733301
 -0.0018613879895535497 -0.009976258797317825 0.002094523946176065 0.01546273970885916 0.9911546311459638 -0.08258819679733301 0.006995705313245844 0.03537953335620064
0.15631513130469998 0.007283144960599391 0.03678216063489538 0.9907201238667485 -0.08593897273132738 0.002380504811636114 0.016064869813079675 -0.001983007119479469 -0.010372657266442048
