! Created with skrf 1.8.0 (http://scikit-rf.org).
# GHz S RI R 50.0 
!freq ReS11 ImS11 ReS12 ImS12 ReS13 ImS13
! ReS14 ImS14
! ReS21 ImS21 ReS22 ImS22 ReS23 ImS23
! ReS24 ImS24
! ReS31 ImS31 ReS32 ImS32 ReS33 ImS33
! ReS34 ImS34
! ReS41 ImS41 ReS42 ImS42 ReS43 ImS43
! ReS44 ImS44
!
0.0 0.00190098655305 0.0 0.9980990134299 0.0 7.403906830802e-05 0.0 -7.403906786225e-05 9.067170746935813e-21
 0.9980990134299 0.0 0.001900986553024 0.0 -7.403906786222e-05 9.067170746932138e-21 7.40390683047e-05 0.0
 7.403906830802e-05 0.0 -7.403906786222e-05 9.067170746932138e-21 0.001900986555889 0.0 0.9980990134328 0.0
 -7.403906786225e-05 9.067170746935813e-21 7.40390683047e-05 0.0 0.9980990134328 0.0 0.001900986555867 0.0
0.005 0.0020465929848051856 0.0015517081607454943 0.9979145773902168 -0.0039808984961437885 0.00010481634298132399 0.0008292634585972776 -0.00010161859227642447 -0.0005179156701234491
 0.9979145773902168 -0.0039808984961437885 0.002046597095769974 0.0015517056861791782 -0.00010161635498199624 -0.0005179139085062963 0.00010480777624682154 0.0008292668582797874
 0.00010481634298132399 0.0008292634585972776 -0.00010161635498199624 -0.0005179139085062963 0.002046594739009502 0.0015517743597117716 0.9979145777768343 -0.003980831435691338
 -0.00010161859227642447 -0.0005179156701234491 0.00010480777624682154 0.0008292668582797874 0.9979145777768343 -0.003980831435691338 0.0020465961008489606 0.0015517735941219216
0.006252605252188 0.0020851612004771348 0.0019456965916978832 0.9978653564539139 -0.004977036088317314 0.00011381724406251499 0.0010369498329304923 -0.00010958471799071048 -0.0006480436654695322
 0.9978653564539139 -0.004977036088317314 0.002085167626811709 0.0019456934233065826 -0.00010958123696137098 -0.0006480414935032367 0.0001138038612259922 0.0010369542303575456
 0.00011381724406251499 0.0010369498329304923 -0.00010958123696137098 -0.0006480414935032367 0.00208516387760184 0.001945779319506535 0.9978653569929695 -0.004976952270308216
 -0.00010958471799071048 -0.0006480436654695322 0.0001138038612259922 0.0010369542303575456 0.9978653569929695 -0.004976952270308216 0.0020851660056355414 0.001945778300679197
0.01250521050438 0.002290404080916117 0.003931660576824618 0.9976014228700493 -0.009954419745078755 0.00016653328281155194 0.0020740290563525643 -0.00015574540313469486 -0.0012989814369477259
 0.9976014228700493 -0.009954419745078755 0.0022904297468090092 0.003931653450778701 -0.0001557316899014957 -0.0012989774275998988 0.00016647997022698906 0.0020740394850150834
 0.00016653328281155194 0.0020740290563525643 -0.0001557316899014957 -0.0012989774275998988 0.0022904142048426677 0.0039318256276723055 0.9976014244554577 -0.009954252319995442
 -0.00015574540313469486 -0.0012989814369477259 0.00016647997022698906 0.0020740394850150834 0.9976014244554577 -0.009954252319995442 0.002290422692141021 0.003931822966438222
0.01875781575657 0.0025172409359300054 0.0059452799897201395 0.9973068300708359 -0.01494417010144831 0.0002323204579167778 0.003111881028263249 -0.00021267898554209555 -0.0019517950641718578
 0.9973068300708359 -0.01494417010144831 0.002517298618870005 0.005945267995531293 -0.0002126484127719315 -0.0019517896280916531 0.00023220083245203486 0.003111899522829848
 0.0002323204579167778 0.003111881028263249 -0.0002126484127719315 -0.0019517896280916531 0.002517263261329211 0.005945526976009832 0.9973068332116954 -0.014943919105136547
 -0.00021267898554209555 -0.0019517950641718578 0.00023220083245203486 0.003111899522829848 0.9973068332116954 -0.014943919105136547 0.002517282313708643 0.0059455220212815485
0.02501042100875 0.0027661769031343732 0.007983628147607428 0.9969811784927983 -0.0199486014269397 0.00031131308382483625 0.004150483759982691 -0.00028053619787245986 -0.002606120869481721
 0.9969811784927983 -0.0199486014269397 0.002766279359357558 0.007983610255665454 -0.0002804822212506514 -0.002606114499975922 0.00031110084674643824 0.004150512735972821
 0.00031131308382483625 0.004150483759982691 -0.0002804822212506514 -0.002606114499975922 0.00276621617880654 0.007983956596344509 0.9969811837069148 -0.01994826682414096
 -0.00028053619787245986 -0.002606120869481721 0.00031110084674643824 0.004150512735972821 0.9969811837069148 -0.01994826682414096 0.0027662499804008366 0.007983948668445508
0.03126302626094 0.0030376957860500696 0.010045146294932515 0.9966240514207052 -0.024968640500045457 0.0004036447057521895 0.005189716331502157 -0.00035946204642005043 -0.0032616834202629772
 0.9966240514207052 -0.024968640500045457 0.003037855754601195 0.010045121355788411 -0.00035937819111300605 -0.0032616766939882785 0.0004033136248506321 0.005189758583751738
 0.0004036447057521895 0.005189716331502157 -0.00035937819111300605 -0.0032616766939882785 0.003037756749143607 0.010045555631579817 0.9966240592307416 -0.024968222200039688
 -0.00035946204642005043 -0.0032616834202629772 0.0004033136248506321 0.005189758583751738 0.9966240592307416 -0.024968222200039688 0.0030378094632689204 0.010045544022057528
0.037515631513130004 0.003332269608163578 0.012128778249294618 0.9962350250506845 -0.030004691924033166 0.0005094467092387849 0.006229417745749566 -0.00044959683198707664 -0.003918236747717704
 0.9962350250506845 -0.030004691924033166 0.003332499813299857 0.012128744992404652 -0.00044947668588344865 -0.003918230324767742 0.0005089706168035949 0.006229476448683802
 0.0005094467092387849 0.006229417745749566 -0.00044947668588344865 -0.003918230324767742 0.0033323569858970488 0.01212926777325277 0.9962350359879506 -0.03000418980414764
 -0.00044959683198707664 -0.003918236747717704 0.0005089706168035949 0.006229476448683802 0.9962350359879506 -0.03000418980414764 0.0033324327558044904 0.012129251744980986
0.043768236765320004 0.0036503622719896356 0.014233707076418836 0.9958136726575202 -0.03505690140153774 0.0006288476256099639 0.007269404867102491 -0.000551076479812523 -0.0045755464834621624
 0.9958136726575202 -0.03505690140153774 0.0036506754237713296 0.014233664108913432 -0.0005509136895489341 -0.004575541107344586 0.0006282004228974006 0.0072694835753309645
 0.0006288476256099639 0.007269404867102491 -0.0005509136895489341 -0.004575541107344586 0.0036504807782368922 0.01423427598165801 0.9958136872623943 -0.035056315285864524
 -0.000551076479812523 -0.0045755464834621624 0.0006282004228974006 0.0072694835753309645 0.9958136872623943 -0.035056315285864524 0.0036505837274501325 0.014234254768743054
0.050020842017509996 0.00399243121389911 0.016359246267606844 0.9953595667651093 -0.0401252645086638 0.0007619726905451296 0.00830947984367046 -0.0006640326162004595 -0.005233382519918627
 0.9953595667651093 -0.0401252645086638 0.003992840008383393 0.0163591920729133 -0.0006638208847023624 -0.005233379017465872 0.0007611283557211333 0.008309582492559133
 0.0007619726905451296 0.00830947984367046 -0.0006638208847023624 -0.005233379017465872 0.0039925855490446326 0.01635989362311435 0.995359585589773 -0.040124594186672684
 -0.0006640326162004595 -0.005233382519918627 0.0007611283557211333 0.008309582492559133 0.995359585589773 -0.040124594186672684 0.003992719781716109 0.016359866430971592
0.055454545454549996 0.004309522171708156 0.01822266768316271 0.9949380035574894 -0.04454286757971781 0.0008889026345140853 0.009213245860685131 -0.0007716142076790514 -0.005805311225424611
 0.9949380035574894 -0.04454286757971781 0.004310024382591181 0.018222602402950896 -0.0007713548733603281 -0.005805310087348815 0.0008878659207002913 0.009213372806766248
 0.0008889026345140853 0.009213245860685131 -0.0007713548733603281 -0.005805310087348815 0.004309711448313622 0.018223382363906547 0.994938026507975 -0.044542123878718635
 -0.0007716142076790514 -0.005805311225424611 0.0008878659207002913 0.009213372806766248 0.994938026507975 -0.044542123878718635 0.004309876185099355 0.018223349308072387
0.056273447269699996 0.004358928215200051 0.01850478635755307 0.9948722804782683 -0.04520968003611678 0.0009089435104390296 0.009349433780143362 -0.0007885925357622972 -0.005891515430090823
 0.9948722804782683 -0.04520968003611678 0.004359445334685035 0.018504719294001576 -0.0007883256207672108 -0.005891514711327885 0.0009078761092954285 0.009349564686223095
 0.0009089435104390296 0.009349433780143362 -0.0007883256207672108 -0.005891514711327885 0.00435912306365241 0.018505511110608986 0.9948723040878867 -0.0452089252586334
 -0.0007885925357622972 -0.005891515430090823 0.0009078761092954285 0.009349564686223095 0.9948723040878867 -0.0452089252586334 0.004359292664291878 0.01850547711600237
0.06252605252188 0.004750299789302453 0.02066976557702442 0.9943513883968079 -0.0503099793061542 0.0010698777839085465 0.010389048776235308 -0.0009248791127348592 -0.006549714532991992
 0.9943513883968079 -0.0503099793061542 0.004750937901934629 0.020669683876274034 -0.0009245508257328661 -0.006549717591017391 0.0010685614815918463 0.010389212637330855
 0.0010698777839085465 0.010389048776235308 -0.0009245508257328661 -0.006549717591017391 0.004750539817860539 0.02067056655647364 0.994351417371811 -0.05030913978140177
 -0.0009248791127348592 -0.006549714532991992 0.0010685614815918463 0.010389212637330855 0.994351417371811 -0.05030913978140177 0.004750748852058331 0.02067052490738528
0.06877865777407 0.005166987343908759 0.022853652381513323 0.9937964673110263 -0.055425943625521716 0.0012448890543307182 0.011428099170856418 -0.0010730106795516841 -0.0072077467653881904
 0.9937964673110263 -0.055425943625521716 0.0051677591028768425 0.02285355414711741 -0.0010726148852457109 -0.007207754676223244 0.001243298128267122 0.011428301065931396
 0.0012448890543307182 0.011428099170856418 -0.0010726148852457109 -0.007207754676223244 0.005167277198728827 0.022854528288162892 0.9937965022478712 -0.05542501902812789
 -0.0010730106795516841 -0.0072077467653881904 0.001243298128267122 0.011428301065931396 0.9937965022478712 -0.05542501902812789 0.005167529712506056 0.022854478103880253
0.07503126302626001 0.005609427200767071 0.02505593438348474 0.9932070967605929 -0.060557315348638355 0.0014340864802614302 0.012466352351563985 -0.0012331008864183205 -0.00786537600088495
 0.9932070967605929 -0.060557315348638355 0.00561034524430723 0.02505581758924006 -0.0012326315024436588 -0.007865389923314441 0.0014321953344744196 0.012466597740182066
 0.0014340864802614302 0.012466352351563985 -0.0012326315024436588 -0.007865389923314441 0.005609771505755568 0.025056883794523088 0.993207138273849 -0.06055630531472994
 -0.0012331008864183205 -0.00786537600088495 0.0014321953344744196 0.012466597740182066 0.993207138273849 -0.06055630531472994 0.005610071525861221 0.02505682416543593
0.08128386827845 0.00607805053326675 0.02727611100552567 0.992582859515765 -0.06570380523405202 0.0016375746186900043 0.01350356932881856 -0.0014052585481488433 -0.008522362617280456
 0.992582859515765 -0.06570380523405202 0.006079127483159752 0.027275973493872237 -0.001404709544903042 -0.00852238379269873 0.0016353577980660785 0.013503864050252983
 0.0016375746186900043 0.01350356932881856 -0.001404709544903042 -0.00852238379269873 0.006078453887374311 0.027277132375410598 0.9925829082399954 -0.06570270935998662
 -0.0014052585481488433 -0.008522362617280456 0.0016353577980660785 0.013503864050252983 0.9925829082399954 -0.06570270935998662 0.00607880542124574 0.02727706236287947
0.08753647353064001 0.00657328324403523 0.029513688433057853 0.9919233420042515 -0.07086509751646312 0.0018554532156673854 0.01453950515084546 -0.0015895874827524896 -0.009178463236712286
 0.9919233420042515 -0.07086509751646312 0.006574531705090753 0.029513527913391145 -0.0015889528835039963 -0.009178492988946952 0.0018528854213048721 0.014539855422778584
 0.0018554532156673854 0.01453950515084546 -0.0015889528835039963 -0.009178492988946952 0.006573750218702164 0.029514780084794665 0.9919233985953457 -0.07086391536723982
 -0.0015895874827524896 -0.009178463236712286 0.0018528854213048721 0.014539855422778584 0.9919233985953457 -0.07086391536723982 0.006574157254409221 0.02951469872093486
0.09378907878283 0.007095545803660701 0.03176817599635525 0.9912281347032009 -0.07604085356504595 0.002087817002882755 0.015573909236262113 -0.0017861863447648206 -0.009833430561730304
 0.9912281347032009 -0.07604085356504595 0.007096978362540196 0.03176799004330051 -0.0017854602258303561 -0.009833470296844277 0.0020848731078595 0.015574321653114983
 0.002087817002882755 0.015573909236262113 -0.0017854602258303561 -0.009833470296844277 0.007096080940980974 0.031769336133463416 0.9912281998406722 -0.07603958466220112
 -0.0017861863447648206 -0.009833430561730304 0.0020848731078595 0.015574321653114983 0.9912281998406722 -0.07603958466220112 0.007096547446758237 0.03176924242097726
0.100041684035 0.007645253061931319 0.03403908357096856 0.9904968325076897 -0.08123071453961137 0.002334755498860761 0.016606525641786492 -0.0019951484548357047 -0.010487013290259407
 0.9904968325076897 -0.08123071453961137 0.007646882285829995 0.03403886962262437 -0.0019943249458383347 -0.010487064496358943 0.002331410564280371 0.016607007172569174
 0.002334755498860761 0.016606525641786492 -0.0019943249458383347 -0.010487064496358943 0.007645860870954755 0.0340403102660131 0.9904969068957712 -0.08122935837268397
 -0.0019951484548357047 -0.010487013290259407 0.002331410564280371 0.016607007172569174 0.9904969068957712 -0.08122935837268397 0.007646390795511646 0.03404020317784518
0.1059090909091 0.008186420100740267 0.03618458545853438 0.9897773983706892 -0.08611334127131254 0.0025798116202334813 0.01757366824641197 -0.0022025597684591767 -0.0110988446794519
 0.9897773983706892 -0.08611334127131254 0.00818824528530485 0.03618434278639889 -0.002201639577998839 -0.01109890807616547 0.0025760678529606145 0.017574221302938852
 0.0025798116202334813 0.01757366824641197 -0.002201639577998839 -0.01109890807616547 0.008187100174290547 0.036185872744776484 0.9897774821040148 -0.08611190272038137
 -0.0022025597684591767 -0.0110988446794519 0.0025760678529606145 0.017574221302938852 0.9897774821040148 -0.08611190272038137 0.00818769318425056 0.03618575214396214
0.1062942892872 0.008222814035931206 0.03632591962121624 0.9897290350795179 -0.08643430342021552 0.002596352813538481 0.01763709329585217 -0.002216561627050466 -0.011138956078829223
 0.9897290350795179 -0.08643430342021552 0.008224652471528213 0.03632567497738324 -0.002215634911298799 -0.01113902032585511 0.0025925821051399497 0.017637651281560727
 0.002596352813538481 0.01763709329585217 -0.002215634911298799 -0.01113902032585511 0.008223498990799907 0.03632721081951665 0.9897291194493869 -0.08643285944314559
 -0.002216561627050466 -0.011138956078829223 0.0025925821051399497 0.017637651281560727 0.9897291194493869 -0.08643285944314559 0.008224096262867738 0.03632708929843453
0.11254689453939999 0.008828631684721262 0.03862818972988674 0.9889243471855327 -0.09165122656764468 0.0028726874564358727 0.01866534620554396 -0.002450507994708451 -0.011788999546802638
 0.9889243471855327 -0.09165122656764468 0.008830691856948368 0.0386279115500932 -0.0024494723096505104 -0.011789078486301272 0.002868466461588894 0.018665988356107496
 0.0028726874564358727 0.01866534620554396 -0.0024494723096505104 -0.011789078486301272 0.008829398221607885 0.03862954324906783 0.988924442296749 -0.09164969419941711
 -0.002450507994708451 -0.011788999546802638 0.002868466461588894 0.018665988356107496 0.988924442296749 -0.09164969419941711 0.008830066749830844 0.03862940620736552
0.11879949979160001 0.009463102671229018 0.0409453954779586 0.988082379024903 -0.09688107495102814 0.0031638321472450665 0.01969101364807972 -0.0026970638361982924 -0.01243688031055028
 0.988082379024903 -0.09688107495102814 0.009465397081470244 0.0409450807796877 -0.0026959134739200728 -0.0124369756754134 0.0031591365920144976 0.019691748038860316
 0.0031638321472450665 0.01969101364807972 -0.0026959134739200728 -0.0124369756754134 0.009463955186071503 0.0409468090093062 0.9880824856675094 -0.0968794535746755
 -0.0026970638361982924 -0.01243688031055028 0.0031591365920144976 0.019691748038860316 0.9880824856675094 -0.0968794535746755 0.009464698858401895 0.04094665532835169
0.1250521050438 0.010126617114931895 0.04327703357872325 0.9872027465492536 -0.10212342513882508 0.0034698536297057734 0.02071382035444821 -0.0029562994005382175 -0.01308233104009118
 0.9872027465492536 -0.10212342513882508 0.010129158239560388 0.04327667923542778 -0.002955028708175359 -0.013082444644335075 0.0034646594964777492 0.020714655422186163
 0.0034698536297057734 0.02071382035444821 -0.002955028708175359 -0.013082444644335075 0.01012755995985724 0.043278504684519443 0.987202865545374 -0.10212171410471403
 -0.0029562994005382175 -0.01308233104009118 0.0034646594964777492 0.020714655422186163 0.987202865545374 -0.10212171410471403 0.010128382643690927 0.04327833321413271
0.131304710296 0.010819558337624944 0.04562259520426166 0.9862850717773057 -0.10737784011544974 0.00379081248805115 0.021733486685594584 -0.0032282787338281747 -0.013725080537899361
 0.9862850717773057 -0.10737784011544974 0.010822358626528875 0.045622197943349624 -0.003226882114369126 -0.013725214276377878 0.0037850960332905005 0.021734431223919284
 0.00379081248805115 0.021733486685594584 -0.003226882114369126 -0.013725214276377878 0.0108205958190694 0.04562412132040518 0.9862852039830604 -0.10737603873917563
 -0.0032282787338281747 -0.013725080537899361 0.0037850960332905005 0.021734431223919284 0.9862852039830604 -0.10737603873917563 0.010821501360364664 0.045623930878451194
0.1375573155481 0.0113963988502835 0.047676434911619936 0.9854749719452763 -0.11233852318833816 0.00409010458561891 0.022720867813358882 -0.003476412698129509 -0.014336017457678001
 0.9854749719452763 -0.11233852318833816 0.011399470279633688 0.047675998512169145 -0.003474881634112425 -0.014336171764486663 0.00408384980326453 0.022721921455642016
 0.00409010458561891 0.022720867813358882 -0.003474881634112425 -0.014336171764486663 0.011397534557200821 0.04767801397245154 0.9854751180041698 -0.11233663104109823
 -0.003476412698129509 -0.014336017457678001 0.00408384980326453 0.022721921455642016 0.9854751180041698 -0.11233663104109823 0.011398528132062 0.04767780979694979
0.1438099208003 0.011993867244124509 0.04971691617364029 0.9846356567407276 -0.1172840511885363 0.00440137479919355 0.023702645732986034 -0.003734340843894066 -0.014941815860996925
 0.9846356567407276 -0.1172840511885363 0.011997222126216641 0.0497164378490451 -0.0037326692936935175 -0.014941992633278155 0.004394559726148695 0.02370381663355614
 0.00440137479919355 0.023702645732986034 -0.0037326692936935175 -0.014941992633278155 0.011995105289587494 0.049718545546082134 0.9846358175138127 -0.11728206759943466
 -0.003734340843894066 -0.014941815860996925 0.004394559726148695 0.02370381663355614 0.9846358175138127 -0.11728206759943466 0.011996190934409123 0.04971832693422792
0.1500625260525 0.012611710855837269 0.05174379373698702 0.9837673844548918 -0.12221422452159562 0.004724487068908303 0.02467866902216001 -0.0040019308614112365 -0.015542334872623383
 0.9837673844548918 -0.12221422452159562 0.01261536146906763 0.05174327057658691 -0.00400011280207779 -0.015542536084219983 0.004717090094079257 0.024679965590412897
 0.004724487068908303 0.02467866902216001 -0.00400011280207779 -0.015542536084219983 0.012613055300566117 0.05174547068430563 0.9837675608323205 -0.1222121487985415
 -0.0040019308614112365 -0.015542334872623383 0.004717090094079257 0.024679965590412897 0.9837675608323205 -0.1222121487985415 0.012614237042556034 0.051745236893485355
0.15631513130469998 0.013249674722891423 0.05375682974765132 0.982870415256387 -0.1271288461451245 0.00505930342484286 0.025648789525085067 -0.00427904854473598 -0.01613743719551628
 0.982870415256387 -0.1271288461451245 0.013253633310557874 0.05375625871662023 -0.004277077972490133 -0.01613766489656242 0.0050513032987288525 0.025650220416615254
